! Parameters = {f0=12700.012000; bw=77.238000; Q=6100.000000; N=10; m_0_1=1.323218; m_1_1=1.083528; m_1_2=1.158030; m_2_2=1.082879; m_2_3=0.794993; m_2_8=0.003225; m_2_9=0.039929; m_3_3=1.080942; m_3_4=0.683522; m_3_7=0.003825; m_3_8=-0.093263; m_3_9=0.003225; m_4_4=1.078017; m_4_5=0.519857; m_4_6=0.007342; m_4_7=-0.113812; m_4_8=0.003825; m_5_5=1.078399; m_5_6=0.927212; m_5_7=0.007342; m_6_6=1.078398; m_6_7=0.520199; m_7_7=1.078031; m_7_8=0.683640; m_8_8=1.080940; m_8_9=0.795306; m_9_9=1.082874; m_9_10=1.159108; m_10_10=1.083518; m_10_11=1.324013}
!
! Created with skrf (http://scikit-rf.org).
# Hz S RI R 50.0 
!freq ReS11 ImS11 ReS21 ImS21 ReS12 ImS12 ReS22 ImS22
12607400000.0 0.999523607559896 0.03086353722857404 -1.3659933829284597e-16 3.592045140803213e-17 -1.3659933829284597e-16 3.592045140803213e-17 0.9995235860462508 0.030864233945643044
12608017333.333334 0.99982380702342 0.018771119013065635 -1.3612486239472167e-16 3.757483495735898e-17 -1.3612486239472167e-16 3.757483495735898e-17 0.9998237939394254 0.018771815905273444
12608634666.666666 0.9999777155688842 0.0066759542721846026 -1.356303618555275e-16 3.922299198986317e-17 -1.356303618555275e-16 3.922299198986317e-17 0.9999777109156285 0.00667665123755209
12609252000.0 0.9999853106769978 -0.005420187269502159 -1.3511591792520627e-16 4.0864680273748344e-17 -1.3511591792520627e-16 4.0864680273748344e-17 0.9999853144543369 -0.005419490332954833
12609869333.333334 0.9998465912365703 -0.017515535744564333 -1.3458161478210921e-16 4.2499658632241155e-17 -1.3458161478210921e-16 4.2499658632241155e-17 0.9998466034431261 -0.017514838938802804
12610486666.666666 0.9995615775446749 -0.029608321401413597 -1.340275395193686e-16 4.412768697893782e-17 -1.340275395193686e-16 4.412768697893782e-17 0.9995615981778366 -0.029607624828374403
12611104000.0 0.9991303113036715 -0.04169677486373091 -1.3345378213080857e-16 4.574852635307339e-17 -1.3345378213080857e-16 4.574852635307339e-17 0.9991303403595954 -0.04169607862530656
12611721333.333334 0.9985528556151158 -0.05377912738884439 -1.328604354964767e-16 4.736193895447756e-17 -1.328604354964767e-16 4.736193895447756e-17 0.998552893088726 -0.05377843158686843
12612338666.666666 0.9978292949705196 -0.06585361112683848 -1.3224759536771533e-16 4.896768817845444e-17 -1.3224759536771533e-16 4.896768817845444e-17 0.9978293408555088 -0.06585291586307063
12612956000.0 0.9969597352389777 -0.07791845937924777 -1.316153603518245e-16 5.0565538650433055e-17 -1.316153603518245e-16 5.0565538650433055e-17 0.9969597895278107 -0.07791776475535914
12613573333.333334 0.9959443036517106 -0.08997190685718644 -1.3096383189632886e-16 5.215525626036995e-17 -1.3096383189632886e-16 5.215525626036995e-17 0.9959443663356208 -0.08997121297474443
12614190666.666666 0.9947831487834097 -0.10201218994009252 -1.3029311427278603e-16 5.373660819705848e-17 -1.3029311427278603e-16 5.373660819705848e-17 0.9947832198524049 -0.10201149690054624
12614808000.0 0.9934764405305182 -0.11403754693354864 -1.2960331456021973e-16 5.5309362982139167e-17 -1.2960331456021973e-16 5.5309362982139167e-17 0.9934765199733792 -0.11403685483821384
12615425333.333334 0.9920243700863772 -0.1260462183269906 -1.2889454262812423e-16 5.687329050394327e-17 -1.2889454262812423e-16 5.687329050394327e-17 0.9920244578906622 -0.12604552727703514
12616042666.666666 0.9904271499132362 -0.13803644705132306 -1.2816691111907247e-16 5.842816205109443e-17 -1.2816691111907247e-16 5.842816205109443e-17 0.9904272460652804 -0.13803575714775185
12616660000.0 0.9886850137111747 -0.15000647873589468 -1.2742053543090409e-16 5.99737503459266e-17 -1.2742053543090409e-16 5.99737503459266e-17 0.9886851181960934 -0.15000579007953505
12617277333.333334 0.9867982163838994 -0.16195456196527683 -1.2665553369852528e-16 6.150982957764255e-17 -1.2665553369852528e-16 6.150982957764255e-17 0.9867983291855887 -0.16195387465676347
12617894666.666666 0.9847670340014826 -0.17387894853527106 -1.2587202677531203e-16 6.303617543523858e-17 -1.2587202677531203e-16 6.303617543523858e-17 0.9847671551026265 -0.17387826267503223
12618512000.0 0.9825917637598991 -0.18577789370917921 -1.2507013821408875e-16 6.455256514025119e-17 -1.2507013821408875e-16 6.455256514025119e-17 0.9825918931419676 -0.18577720939742112
12619129333.333334 0.9802727239376191 -0.1976496564725817 -1.2424999424776815e-16 6.605877747915625e-17 -1.2424999424776815e-16 6.605877747915625e-17 0.9802728615808711 -0.19764897380927401
12619746666.666666 0.9778102538489879 -0.20949249978838538 -1.2341172376953898e-16 6.755459283564472e-17 -1.2341172376953898e-16 6.755459283564472e-17 0.9778103997324776 -0.20949181887324717
12620364000.0 0.9752047137945695 -0.22130469085100837 -1.2255545831270222e-16 6.903979322257653e-17 -1.2255545831270222e-16 6.903979322257653e-17 0.9752048678961464 -0.22130401178349288
12620981333.333334 0.9724564850085057 -0.2330845013395569 -1.2168133203013146e-16 7.051416231367145e-17 -1.2168133203013146e-16 7.051416231367145e-17 0.9724566473048198 -0.23308382421883764
12621598666.666666 0.9695659696026406 -0.24483020767115277 -1.2078948167332629e-16 7.197748547498539e-17 -1.2078948167332629e-16 7.197748547498539e-17 0.9695661400691447 -0.24482953259610846
12622216000.0 0.9665335905077298 -0.25654009125289884 -1.1988004657109777e-16 7.342954979610624e-17 -1.1988004657109777e-16 7.342954979610624e-17 0.9665337691186834 -0.2565394183220992
12622833333.333334 0.9633597914115672 -0.2682124387333109 -1.189531686078863e-16 7.487014412107117e-17 -1.189531686078863e-16 7.487014412107117e-17 0.9633599781400426 -0.2682117680450027
12623450666.666666 0.9600450366940585 -0.27984554225306624 -1.1800899220170916e-16 7.629905907901203e-17 -1.1800899220170916e-16 7.629905907901203e-17 0.9600452315119405 -0.2798448739051581
12624068000.0 0.9565898113592595 -0.2914376996949177 -1.1704766428173367e-16 7.771608711453366e-17 -1.1704766428173367e-16 7.771608711453366e-17 0.9565900142372541 -0.2914370337849665
12624685333.333334 0.9529946209643894 -0.3029872149328236 -1.1606933426547367e-16 7.912102251783079e-17 -1.1606933426547367e-16 7.912102251783079e-17 0.9529948318720248 -0.3029865515580198
12625302666.666666 0.9492599915459746 -0.3144923980797388 -1.1507415403567237e-16 8.051366145445016e-17 -1.1507415403567237e-16 8.051366145445016e-17 0.9492602104516087 -0.31449173733689284
12625920000.0 0.9453864695427061 -0.3259515657354437 -1.1406227791676028e-16 8.18938019948607e-17 -1.1406227791676028e-16 8.18938019948607e-17 0.945386696413528 -0.32595090772097096
12626537333.333334 0.9413746217156267 -0.33736304123239186 -1.1303386265102664e-16 8.326124414363532e-17 -1.1303386265102664e-16 8.326124414363532e-17 0.9413748565176655 -0.33736238604229973
12627154666.666666 0.9372250350651906 -0.34872515488111966 -1.1198906737440776e-16 8.461578986838335e-17 -1.1198906737440776e-16 8.461578986838335e-17 0.9372252777633163 -0.3487245026109923
12627772000.0 0.9329383167452509 -0.3600362442148671 -1.1092805359190365e-16 8.595724312841112e-17 -1.1092805359190365e-16 8.595724312841112e-17 0.9329385673031821 -0.3600355949598523
12628389333.333334 0.9285150939744015 -0.3712946542323456 -1.0985098515272651e-16 8.728540990298148e-17 -1.0985098515272651e-16 8.728540990298148e-17 0.928515352354712 -0.37129400808714125
12629006666.666666 0.9239560139440469 -0.38249873764031855 -1.0875802822502733e-16 8.860009821936903e-17 -1.0875802822502733e-16 8.860009821936903e-17 0.923956280108168 -0.3824980946991575
12629624000.0 0.9192617437238041 -0.3936468550943604 -1.0764935127035281e-16 8.990111818051962e-17 -1.0764935127035281e-16 8.990111818051962e-17 0.9192620176320326 -0.39364621545099815
12630241333.333334 0.914432970163883 -0.4047373754387755 -1.0652512501774192e-16 9.118828199242793e-17 -1.0652512501774192e-16 9.118828199242793e-17 0.914433251775387 -0.4047367391864756
12630858666.666666 0.9094703997945901 -0.415768675945263 -1.053855224375019e-16 9.246140399118708e-17 -1.053855224375019e-16 9.246140399118708e-17 0.9094706890674142 -0.4157680431767839
12631476000.0 0.9043747587228564 -0.4267391425505566 -1.0423071871463931e-16 9.372030066973387e-17 -1.0423071871463931e-16 9.372030066973387e-17 0.9043750556139278 -0.4267385133581375
12632093333.333334 0.8991467925261823 -0.4376471700921738 -1.030608912220375e-16 9.496479070419324e-17 -1.030608912220375e-16 9.496479070419324e-17 0.8991470969913191 -0.4376465445675224
12632710666.666666 0.8937872661434086 -0.44849116254358967 -1.018762194932452e-16 9.619469497997131e-17 -1.018762194932452e-16 9.619469497997131e-17 0.8937875781373249 -0.44849054077786804
12633328000.0 0.8882969637627777 -0.4592695332477867 -1.0067688519498405e-16 9.740983661747731e-17 -1.0067688519498405e-16 9.740983661747731e-17 0.8882972832390893 -0.4592689153315973
12633945333.333334 0.8826766887072772 -0.46998070514922785 -9.946307209937506e-17 9.861004099747794e-17 -9.946307209937506e-17 9.861004099747794e-17 0.8826770156185113 -0.4699800911726019
12634562666.666666 0.8769272633170951 -0.48062311102463573 -9.823496605582819e-17 9.979513578614435e-17 -9.823496605582819e-17 9.979513578614435e-17 0.8769275976146947 -0.48062250107701904
12635180000.0 0.8710495288292281 -0.4911951937124276 -9.69927549626478e-17 1.0096495095973502e-16 -9.69927549626478e-17 1.0096495095973502e-16 0.8710498704635605 -0.4911945878826674
12635797333.333334 0.8650443452544195 -0.5016954063405026 -9.573662873835461e-17 1.0211931882891886e-16 -9.573662873835461e-17 1.0211931882891886e-16 0.865044694174784 -0.5016948047168355
12636414666.666666 0.8589125912514262 -0.5121222125524035 -9.446677929270418e-17 1.0325807406275573e-16 -9.446677929270418e-17 1.0325807406275573e-16 0.8589129474060604 -0.5121216152224419
12637032000.0 0.8526551639982869 -0.522474086732408 -9.318340049741816e-17 1.0438105371231996e-16 -9.318340049741816e-17 1.0438105371231996e-16 0.852655527334375 -0.5224734937831274
12637649333.333334 0.8462729790611602 -0.5327495142285519 -9.188668815666535e-17 1.0548809723393456e-16 -9.188668815666535e-17 1.0548809723393456e-16 0.8462733495248419 -0.5327489257462787
12638266666.666666 0.8397669702603373 -0.5429469915742998 -9.057683997722614e-17 1.0657904651207685e-16 -9.057683997722614e-17 1.0657904651207685e-16 0.8397673477967136 -0.542946407644698
12638884000.0 0.8331380895335905 -0.5530650267085497 -8.925405553841924e-17 1.0765374588188574e-16 -8.925405553841924e-17 1.0765374588188574e-16 0.8331384740867327 -0.5530644474166091
12639501333.333334 0.826387306796935 -0.5631021391938752 -8.791853626174076e-17 1.0871204215131455e-16 -8.791853626174076e-17 1.0871204215131455e-16 0.8263876983098949 -0.563101564623899
12640118666.666666 0.8195156098027182 -0.5730568604331403 -8.657048538028525e-17 1.0975378462287325e-16 -8.657048538028525e-17 1.0975378462287325e-16 0.8195160082175345 -0.5730562906687328
12640736000.0 0.8125240039948841 -0.5829277338846831 -8.521010790779139e-17 1.1077882511508572e-16 -8.521010790779139e-17 1.1077882511508572e-16 0.8125244092525894 -0.5829271690087359
12641353333.333334 0.8054135123622934 -0.5927133152747989 -8.383761060763941e-17 1.1178701798340675e-16 -8.383761060763941e-17 1.1178701798340675e-16 0.8054139244029276 -0.5927127553694823
12641970666.666666 0.7981851752886109 -0.6024121728096966 -8.245320196138043e-17 1.1277822014092384e-16 -8.245320196138043e-17 1.1277822014092384e-16 0.7981855940512254 -0.6024116179564444
12642588000.0 0.7908400504003015 -0.6120228873846622 -8.105709213716821e-17 1.1375229107856032e-16 -8.105709213716821e-17 1.1375229107856032e-16 0.7908404758229713 -0.6120223376641614
12643205333.333334 0.7833792124118547 -0.6215440527917477 -7.964949295791913e-17 1.1470909288491557e-16 -7.964949295791913e-17 1.1470909288491557e-16 0.783379644431687 -0.621543508283927
12643822666.666666 0.7758037529684475 -0.630974275925636 -7.823061786917981e-17 1.1564849026575234e-16 -7.823061786917981e-17 1.1564849026575234e-16 0.775804191521589 -0.6309737367096531
12644440000.0 0.7681147804863747 -0.6403121769872712 -7.680068190687734e-17 1.1657035056301092e-16 -7.680068190687734e-17 1.1657035056301092e-16 0.7681152255080221 -0.640311643141501
12645057333.333334 0.7603134199907282 -0.6495563896859249 -7.535990166474204e-17 1.1747454377349741e-16 -7.535990166474204e-17 1.1747454377349741e-16 0.76031387141514 -0.6495558612879505
12645674666.666666 0.7524008129509534 -0.6587055614389136 -7.390849526158365e-17 1.1836094256712163e-16 -7.390849526158365e-17 1.1836094256712163e-16 0.7524012707114567 -0.658705038565513
12646292000.0 0.7443781171134796 -0.6677583535699122 -7.244668230827737e-17 1.1922942230478022e-16 -7.244668230827737e-17 1.1922942230478022e-16 0.7443785811424817 -0.6677578362970477
12646909333.333334 0.7362465063328255 -0.6767134415042451 -7.097468387464562e-17 1.2007986105576866e-16 -7.097468387464562e-17 1.2007986105576866e-16 0.7362469765618218 -0.6767129299070512
12647526666.666666 0.7280071703994496 -0.6855695149631406 -6.949272245604165e-17 1.209121396148425e-16 -6.949272245604165e-17 1.209121396148425e-16 0.7280076467590367 -0.6855690091159158
12648144000.0 0.7196613148657801 -0.6943252781553223 -6.800102193977529e-17 1.2172614151884275e-16 -6.800102193977529e-17 1.2172614151884275e-16 0.7196617972856638 -0.6943247781315155
12648761333.333334 0.7112101608698551 -0.7029794499665576 -6.649980757135202e-17 1.225217530629039e-16 -6.649980757135202e-17 1.225217530629039e-16 0.7112106492788607 -0.7029789558387585
12649378666.666666 0.702654944956735 -0.7115307641470299 -6.498930592052794e-17 1.2329886331624568e-16 -6.498930592052794e-17 1.2329886331624568e-16 0.7026554392828195 -0.7115302759869587
12649996000.0 0.6939969188973563 -0.7199779694968355 -6.346974484712844e-17 1.2405736413757404e-16 -6.346974484712844e-17 1.2405736413757404e-16 0.693997419067617 -0.7199774873753322
12650613333.333334 0.6852373495054903 -0.7283198300489276 -6.194135346674814e-17 1.2479715019002998e-16 -6.194135346674814e-17 1.2479715019002998e-16 0.6852378554461781 -0.7283193540359425
12651230666.666666 0.6763775184525397 -0.7365551252498306 -6.040436211628262e-17 1.2551811895571755e-16 -6.040436211628262e-17 1.2551811895571755e-16 0.6763780300890669 -0.7365546554144121
12651848000.0 0.6674187220796717 -0.7446826501385319 -5.885900231920934e-17 1.2622017074984505e-16 -5.885900231920934e-17 1.2622017074984505e-16 0.6674192393366254 -0.7446821865488189
12652465333.333334 0.6583622712083924 -0.7527012155225584 -5.73055067508104e-17 1.269032087343924e-16 -5.73055067508104e-17 1.269032087343924e-16 0.6583627940095446 -0.7527007582457691
12653082666.666666 0.6492094909488174 -0.7606096481519192 -5.574410920318742e-17 1.2756713893137373e-16 -5.574410920318742e-17 1.2756713893137373e-16 0.6492100192171366 -0.7606091972543422
12653700000.0 0.6399617205054455 -0.7684067908910742 -5.4175044550088305e-17 1.2821187023568654e-16 -5.4175044550088305e-17 1.2821187023568654e-16 0.6399622541631078 -0.7684063464380574
12654317333.333334 0.6306203129815955 -0.7760915028879032 -5.259854871169245e-17 1.2883731442748386e-16 -5.259854871169245e-17 1.2883731442748386e-16 0.6306208519499951 -0.7760910649438453
12654934666.666666 0.621186635181187 -0.783662659740838 -5.1014858619130604e-17 1.2944338618416595e-16 -5.1014858619130604e-17 1.2944338618416595e-16 0.6211871793809504 -0.7836622283691799
12655552000.0 0.6116620674087316 -0.791119153663395 -4.942421217894122e-17 1.3003000309190634e-16 -4.942421217894122e-17 1.3003000309190634e-16 0.6116626167597264 -0.7911187289266091
12656169333.333334 0.6020480032676587 -0.7984598936460331 -4.7826848237407575e-17 1.3059708565673836e-16 -4.7826848237407575e-17 1.3059708565673836e-16 0.6020485576890078 -0.798459475605616
12656786666.666666 0.5923458494560541 -0.8056838056160707 -4.622300654472134e-17 1.3114455731522298e-16 -4.622300654472134e-17 1.3114455731522298e-16 0.5923464088661458 -0.8056833943325326
12657404000.0 0.5825570255610352 -0.8127898325946803 -4.461292771904399e-17 1.3167234444466916e-16 -4.461292771904399e-17 1.3167234444466916e-16 0.5825575898775355 -0.8127894281275363
12658021333.333334 0.5726829638509504 -0.8197769348516092 -4.2996853210465075e-17 1.321803763729109e-16 -4.2996853210465075e-17 1.321803763729109e-16 0.572683532990816 -0.8197765372593719
12658638666.666666 0.5627251090660265 -0.8266440900571652 -4.1375025264858615e-17 1.3266858538764046e-16 -4.1375025264858615e-17 1.3266858538764046e-16 0.5627256829455162 -0.8266436993973357
12659256000.0 0.5526849182066024 -0.8333902934320581 -3.974768688758239e-17 1.331369067453143e-16 -3.974768688758239e-17 1.331369067453143e-16 0.55268549674129 -0.8333899097611176
12659873333.333334 0.5425638603202271 -0.8400145578942203 -3.811508180714706e-17 1.3358527867959508e-16 -3.811508180714706e-17 1.3358527867959508e-16 0.5425644434250139 -0.8400141812676228
12660490666.666666 0.5323634162867885 -0.8465159142031939 -3.647745443877714e-17 1.3401364240935396e-16 -3.647745443877714e-17 1.3401364240935396e-16 0.5323640038759148 -0.8465155446753561
12661108000.0 0.522085078601451 -0.8528934111021884 -3.483504984780768e-17 1.3442194214624577e-16 -3.483504984780768e-17 1.3442194214624577e-16 0.5220856705885097 -0.8528930487264834
12661725333.333334 0.5117303511567117 -0.8591461154569926 -3.3188113713124966e-17 1.3481012510180533e-16 -3.3188113713124966e-17 1.3481012510180533e-16 0.5117309474546605 -0.859145760285742
12662342666.666666 0.5013007490220401 -0.865273112392701 -3.1536892290434856e-17 1.3517814149411951e-16 -3.1536892290434856e-17 1.3517814149411951e-16 0.5013013495432154 -0.8652727644771683
12662960000.0 0.4907977982224214 -0.8712735054274483 -2.988163237548654e-17 1.355259445540445e-16 -2.988163237548654e-17 1.355259445540445e-16 0.49079840287854887 -0.871273164817829
12663577333.333334 0.48022303551489776 -0.8771464166036754 -2.822258126724586e-17 1.3585349053096895e-16 -2.822258126724586e-17 1.3585349053096895e-16 0.4802236442171071 -0.8771460833490914
12664194666.666666 0.4695780081638146 -0.8828909866165326 -2.6559986730992973e-17 1.3616073869813138e-16 -2.6559986730992973e-17 1.3616073869813138e-16 0.46957862082265317 -0.8828906607650263
12664812000.0 0.4588642737144073 -0.8885063749396285 -2.4894096961365223e-17 1.3644765135748645e-16 -2.4894096961365223e-17 1.3644765135748645e-16 0.45886489023985133 -0.888506056538153
12665429333.333334 0.44808339976485295 -0.8939917599480334 -2.3225160545366075e-17 1.3671419384411657e-16 -2.3225160545366075e-17 1.3671419384411657e-16 0.44808402006632175 -0.893991449042447
12666046666.666666 0.43723696373713383 -0.8993463390383833 -2.155342642531503e-17 1.3696033453019588e-16 -2.155342642531503e-17 1.3696033453019588e-16 0.4372375877235037 -0.8993460356734451
12666664000.0 0.42632655264580366 -0.9045693287465342 -1.987914386173541e-17 1.3718604482850323e-16 -1.987914386173541e-17 1.3718604482850323e-16 0.4263271802254201 -0.9045690329658939
12667281333.333334 0.41535376286621106 -0.9096599648619749 -1.8202562396283874e-17 1.373912991954737e-16 -1.8202562396283874e-17 1.373912991954737e-16 0.4153543939469032 -0.9096596767081692
12667898666.666666 0.40432019990074813 -0.9146175025397386 -1.6523931814582218e-17 1.3757607513380632e-16 -1.6523931814582218e-17 1.3757607513380632e-16 0.4043208343898416 -0.9146172220541839
12668516000.0 0.3932274781437809 -0.9194412164094528 -1.4843502109027494e-17 1.3774035319461839e-16 -1.4843502109027494e-17 1.3774035319461839e-16 0.39322811594811125 -0.9194409436324382
12669133333.333334 0.38207722064577254 -0.9241304006813176 -1.3161523441660227e-17 1.3788411697913803e-16 -1.3161523441660227e-17 1.3788411697913803e-16 0.3820778616717006 -0.9241301356520041
12669750666.666666 0.37087105887549476 -0.9286843692495199 -1.1478246106928036e-17 1.3800735313995378e-16 -1.1478246106928036e-17 1.3800735313995378e-16 0.37087170302891825 -0.9286841120059284
