! Parameters = {f0=12700.012000; bw=77.238000; Q=6100.000000; N=10; m_0_1=1.284379; m_1_1=0.500945; m_1_2=1.119191; m_2_2=0.500296; m_2_3=0.756154; m_2_8=0.001283; m_2_9=0.037987; m_3_3=0.498359; m_3_4=0.644683; m_3_7=0.001883; m_3_8=-0.095205; m_3_9=0.001283; m_4_4=0.495434; m_4_5=0.481018; m_4_6=0.005400; m_4_7=-0.115754; m_4_8=0.001883; m_5_5=0.495816; m_5_6=0.888373; m_5_7=0.005400; m_6_6=0.495815; m_6_7=0.481360; m_7_7=0.495448; m_7_8=0.644801; m_8_8=0.498357; m_8_9=0.756467; m_9_9=0.500291; m_9_10=1.120269; m_10_10=0.500935; m_10_11=1.285174}
!
! Created with skrf (http://scikit-rf.org).
# Hz S RI R 50.0 
!freq ReS11 ImS11 ReS21 ImS21 ReS12 ImS12 ReS22 ImS22
12607400000.0 -0.06705320728419058 -0.9977494010986545 4.1134107949201536e-17 1.1092346861067991e-16 4.1134107949201536e-17 1.1092346861067991e-16 -0.06705253214616834 -0.9977494464707094
12608017333.333334 -0.07797237034399691 -0.9969555203030663 4.2347515669528835e-17 1.1044110504811079e-16 4.2347515669528835e-17 1.1044110504811079e-16 -0.07797169577618845 -0.9969555730611093
12608634666.666666 -0.08888218776005713 -0.99604214604544 4.3555289742385074e-17 1.0994547721430215e-16 4.3555289742385074e-17 1.0994547721430215e-16 -0.08888151384325524 -0.9960422061824241
12609252000.0 -0.0997813518995184 -0.9950093878014046 4.4757285274514296e-17 1.094366506681365e-16 4.4757285274514296e-17 1.094366506681365e-16 -0.09978067871442983 -0.9950094553093992
12609869333.333334 -0.11066855640632847 -0.9938573693557636 4.595335813309773e-17 1.0891469255008513e-16 4.595335813309773e-17 1.0891469255008513e-16 -0.11066788403356474 -0.9938574442259578
12610486666.666666 -0.12154249635789954 -0.9925862287876606 4.714336496296506e-17 1.0837967157343159e-16 4.714336496296506e-17 1.0837967157343159e-16 -0.1215418248779665 -0.992586311010359
12611104000.0 -0.13240186842159743 -0.9911961184540072 4.8327163203802385e-17 1.0783165801526347e-16 4.8327163203802385e-17 1.0783165801526347e-16 -0.13240119791488628 -0.9911962080186358
12611721333.333334 -0.14324537101078816 -0.9896872049712482 4.950461110713121e-17 1.0727072370733406e-16 4.950461110713121e-17 1.0727072370733406e-16 -0.14324470155756555 -0.9896873018663538
12612338666.666666 -0.1540717044409009 -0.9880596691953857 5.067556775330425e-17 1.0669694202668249e-16 5.067556775330425e-17 1.0669694202668249e-16 -0.1540710361212994 -0.9880597734086379
12612956000.0 -0.16487957108543033 -0.9863137062002656 5.1839893068314085e-17 1.0611038788610562e-16 5.1839893068314085e-17 1.0611038788610562e-16 -0.1648789039794387 -0.9863138177184575
12613573333.333334 -0.17566767553101859 -0.9844495252542659 5.2997447840514215e-17 1.0551113772443806e-16 5.2997447840514215e-17 1.0551113772443806e-16 -0.17566700971847224 -0.9844496440633161
12614190666.666666 -0.18643472473308653 -0.9824673497951564 5.4148093737236964e-17 1.0489926949664401e-16 5.4148093737236964e-17 1.0489926949664401e-16 -0.18643406029365836 -0.9824674758801129
12614808000.0 -0.19717942817076003 -0.980367417403329 5.5291693321301366e-17 1.0427486266372852e-16 5.5291693321301366e-17 1.0427486266372852e-16 -0.1971787651839502 -0.9803675507483669
12615425333.333334 -0.20790049800138113 -0.9781499797733467 5.642811006737541e-17 1.0363799818248349e-16 5.642811006737541e-17 1.0363799818248349e-16 -0.20789983654650823 -0.9781501203617748
12616042666.666666 -0.21859664921509062 -0.9758153026837381 5.755720837826551e-17 1.0298875849503282e-16 5.755720837826551e-17 1.0298875849503282e-16 -0.21859598937128186 -0.9758154504979979
12616660000.0 -0.2292665997886244 -0.9733636659651843 5.867885360103942e-17 1.02327227518226e-16 5.867885360103942e-17 1.02327227518226e-16 -0.22926594163480593 -0.9733638209868523
12617277333.333334 -0.23990907083922444 -0.9707953634669255 5.979291204307783e-17 1.0165349063282911e-16 5.979291204307783e-17 1.0165349063282911e-16 -0.2399084144541123 -0.9707955256767168
12617894666.666666 -0.2505227867775639 -0.9681107030216245 6.089925098793855e-17 1.0096763467257788e-16 6.089925098793855e-17 1.0096763467257788e-16 -0.25052213223965447 -0.9681108723993946
12618512000.0 -0.26110647546116145 -0.9653100064083401 6.199773871118788e-17 1.0026974791300374e-16 6.199773871118788e-17 1.0026974791300374e-16 -0.2611058228487221 -0.9653101829330878
12619129333.333334 -0.2716588683462524 -0.9623936093141164 6.308824449598831e-17 9.955992006016075e-17 6.308824449598831e-17 9.955992006016075e-17 -0.27165821773731197 -0.9623937929639854
12619746666.666666 -0.2821787006403298 -0.9593618612936177 6.417063864867048e-17 9.883824223911122e-17 6.417063864867048e-17 9.883824223911122e-17 -0.2821780521126693 -0.9593620520458994
12620364000.0 -0.29266471145351874 -0.9562151257272854 6.524479251410093e-17 9.810480698228948e-17 6.524479251410093e-17 9.810480698228948e-17 -0.29266406508466225 -0.9562153235584233
12620981333.333334 -0.3031156439496795 -0.952953779777797 6.631057849093795e-17 9.73597082176875e-17 6.631057849093795e-17 9.73597082176875e-17 -0.3031149998168849 -0.9529539846633884
12621598666.666666 -0.3135302454971038 -0.9495782143448454 6.736787004676083e-17 9.660304125686854e-17 6.736787004676083e-17 9.660304125686854e-17 -0.31352960367735305 -0.9495784262596436
12622216000.0 -0.32390726781873397 -0.9460888340182558 6.841654173306576e-17 9.583490278281526e-17 6.841654173306576e-17 9.583490278281526e-17 -0.32390662838872475 -0.946089052936175
12622833333.333334 -0.3342454671416443 -0.9424860570295371 6.945646920010233e-17 9.505539083763135e-17 6.945646920010233e-17 9.505539083763135e-17 -0.3342448301777799 -0.9424862829236543
12623450666.666666 -0.34454360434609155 -0.9387703152017665 7.04875292115815e-17 9.426460481007491e-17 7.04875292115815e-17 9.426460481007491e-17 -0.34454296992447275 -0.9387705480443257
12624068000.0 -0.3548004451142485 -0.9349420538977546 7.150959965926337e-17 9.346264542291632e-17 7.150959965926337e-17 9.346264542291632e-17 -0.3547998133106635 -0.9349422936601692
12624685333.333334 -0.36501476007798456 -0.9310017319667188 7.252255957738034e-17 9.264961472015461e-17 7.252255957738034e-17 9.264961472015461e-17 -0.36501413096790114 -0.9310019786195772
12625302666.666666 -0.3751853249661666 -0.9269498216893145 7.352628915688465e-17 9.18256160541034e-17 7.352628915688465e-17 9.18256160541034e-17 -0.37518469862472104 -0.9269500752023793
12625920000.0 -0.38531092075157936 -0.922786808720948 7.452066975964064e-17 9.09907540722494e-17 7.452066975964064e-17 9.09907540722494e-17 -0.3853102972535698 -0.9227870690631647
12626537333.333334 -0.3953903337968795 -0.9185131920336324 7.550558393235727e-17 9.014513470404871e-17 7.550558393235727e-17 9.014513470404871e-17 -0.39538971321675587 -0.918513459173131
12627154666.666666 -0.4054223560000098 -0.9141294838562103 7.648091542044889e-17 8.928886514750937e-17 7.648091542044889e-17 8.928886514750937e-17 -0.4054217384118649 -0.9141297577603089
12627772000.0 -0.41540578493936337 -0.9096362096127939 7.744654918174347e-17 8.842205385562307e-17 7.744654918174347e-17 8.842205385562307e-17 -0.4154051704169242 -0.9096364902480032
12628389333.333334 -0.42533942401733255 -0.9050339078600446 7.840237139996277e-17 8.754481052271585e-17 7.840237139996277e-17 8.754481052271585e-17 -0.4253388126339513 -0.9050341951920712
12629006666.666666 -0.43522208260432677 -0.9003231302223512 7.9348269498156e-17 8.665724607055848e-17 7.9348269498156e-17 8.665724607055848e-17 -0.4352214744329725 -0.9003234242161033
12629624000.0 -0.4450525761809889 -0.8955044413259401 8.028413215188683e-17 8.575947263441171e-17 8.028413215188683e-17 8.575947263441171e-17 -0.44505197129423874 -0.8955047419455309
12630241333.333334 -0.45482972648053077 -0.890578418731032 8.120984930230837e-17 8.485160354889045e-17 8.120984930230837e-17 8.485160354889045e-17 -0.4548291249505603 -0.8905787259397832
12630858666.666666 -0.46455236162959884 -0.8855456528627883 8.212531216905894e-17 8.393375333370448e-17 8.212531216905894e-17 8.393375333370448e-17 -0.4645517635281753 -0.8855459666232364
12631476000.0 -0.4742193162892176 -0.8804067469403032 8.303041326303811e-17 8.300603767922206e-17 8.303041326303811e-17 8.300603767922206e-17 -0.47421872168768947 -0.8804070672142026
12632093333.333334 -0.48382943179395715 -0.8751623169045599 8.39250463989531e-17 8.206857343196058e-17 8.39250463989531e-17 8.206857343196058e-17 -0.48382884076324684 -0.8751626436528882
12632710666.666666 -0.4933815562910388 -0.8698129913444919 8.480910670774583e-17 8.112147857990191e-17 8.480910670774583e-17 8.112147857990191e-17 -0.49338096890163424 -0.8698133245274555
12633328000.0 -0.502874544878592 -0.8643594114215278 8.56824906488739e-17 8.016487223765097e-17 8.56824906488739e-17 8.016487223765097e-17 -0.502873961200537 -0.8643597509985643
12633945333.333334 -0.5123072597424816 -0.8588022307929629 8.654509602235908e-17 7.919887463153388e-17 8.654509602235908e-17 7.919887463153388e-17 -0.5123066798453693 -0.8588025767227494
12634562666.666666 -0.5216785702930077 -0.8531421155334342 8.739682198073647e-17 7.822360708449341e-17 8.739682198073647e-17 7.822360708449341e-17 -0.5216779942459706 -0.8531424677738886
12635180000.0 -0.5309873533001952 -0.8473797440552109 8.823756904078443e-17 7.723919200091102e-17 8.823756904078443e-17 7.723919200091102e-17 -0.5309867811718976 -0.8473801025634998
12635797333.333334 -0.5402324930286388 -0.8415158070267502 8.906723909512373e-17 7.624575285125795e-17 8.906723909512373e-17 7.624575285125795e-17 -0.5402319248872689 -0.841516171759293
12636414666.666666 -0.5494128813709707 -0.8355510072900804 8.988573542360134e-17 7.52434141566735e-17 8.988573542360134e-17 7.52434141566735e-17 -0.5494123172842326 -0.8355513782025559
12637032000.0 -0.5585274179808926 -0.8294860597764245 9.069296270454389e-17 7.423230147337035e-17 9.069296270454389e-17 7.423230147337035e-17 -0.5585268580159969 -0.8294864368237731
12637649333.333334 -0.5675750104050342 -0.8233216914205197 9.148882702581496e-17 7.321254137694533e-17 9.148882702581496e-17 7.321254137694533e-17 -0.5675744546286918 -0.8233220745569525
12638266666.666666 -0.5765545742137551 -0.8170586410735876 9.227323589568601e-17 7.218426144658539e-17 9.227323589568601e-17 7.218426144658539e-17 -0.5765540226921672 -0.8170590302525889
12638884000.0 -0.5854650331313047 -0.8106976594146428 9.304609825355928e-17 7.114759024912101e-17 9.304609825355928e-17 7.114759024912101e-17 -0.585464485930158 -0.8106980545889796
12639501333.333334 -0.5943053191646676 -0.8042395088606401 9.380732448048192e-17 7.010265732300532e-17 9.380732448048192e-17 7.010265732300532e-17 -0.5943047763491227 -0.8042399099823634
12640118666.666666 -0.6030743727315887 -0.7976849634750691 9.455682640949622e-17 6.904959316215966e-17 9.455682640949622e-17 6.904959316215966e-17 -0.6030738343662754 -0.7976853704955227
12640736000.0 -0.611771142787872 -0.791034808874959 9.529451733583237e-17 6.798852919967681e-17 9.529451733583237e-17 6.798852919967681e-17 -0.61177060893688 -0.7910352217447841
12641353333.333334 -0.6203945869527654 -0.7842898421371578 9.602031202684416e-17 6.691959779152193e-17 9.602031202684416e-17 6.691959779152193e-17 -0.6203940576796377 -0.7842902608063006
12641970666.666666 -0.628943671634423 -0.7774508717024067 9.673412673185554e-17 6.584293219999452e-17 9.673412673185554e-17 6.584293219999452e-17 -0.6289431470021468 -0.7774512961201216
12642588000.0 -0.6374173721536254 -0.7705187172785535 9.743587919176541e-17 6.47586665771679e-17 9.743587919176541e-17 6.47586665771679e-17 -0.637416852224626 -0.7705191473934114
12643205333.333334 -0.6458146728664683 -0.7634942097424169 9.81254886484694e-17 6.366693594822443e-17 9.81254886484694e-17 6.366693594822443e-17 -0.6458141577026012 -0.7634946455023115
12643822666.666666 -0.6541345672863562 -0.7563781910399797 9.880287585412682e-17 6.256787619464408e-17 9.880287585412682e-17 6.256787619464408e-17 -0.6541340569489001 -0.7563786323921332
12644440000.0 -0.6623760582043566 -0.7491715140857127 9.946796308020449e-17 6.146162403734755e-17 9.946796308020449e-17 6.146162403734755e-17 -0.6623755527540053 -0.7491719609766814
12645057333.333334 -0.6705381578089178 -0.7418750426601789 1.0012067412634666e-16 6.03483170197253e-17 1.0012067412634666e-16 6.03483170197253e-17 -0.6705376573057741 -0.7418754950358617
12645674666.666666 -0.6786198878040981 -0.734489651306656 1.0076093432905908e-16 5.922809349056381e-17 1.0076093432905908e-16 5.922809349056381e-17 -0.6786193923076652 -0.7344901091122985
12646292000.0 -0.6866202795271361 -0.7270162252260247 1.0138867057021642e-16 5.810109258685766e-17 1.0138867057021642e-16 5.810109258685766e-17 -0.6866197890963115 -0.7270166884062277
12646909333.333334 -0.6945383740641338 -0.7194556601710556 1.0200381128532825e-16 5.696745421661859e-17 1.0200381128532825e-16 5.696745421661859e-17 -0.6945378887572025 -0.7194561286697811
12647526666.666666 -0.7023732223652659 -0.7118088623387973 1.0260628647167523e-16 5.582731904148782e-17 1.0260628647167523e-16 5.582731904148782e-17 -0.702372742239893 -0.7118093360993755
12648144000.0 -0.7101238853585662 -0.704076748261917 1.0319602769620805e-16 5.468082845934154e-17 1.0319602769620805e-16 5.468082845934154e-17 -0.7101234104717901 -0.7040772272270526
12648761333.333334 -0.7177894340622604 -0.6962602446990643 1.0377296810327291e-16 5.352812458677576e-17 1.0377296810327291e-16 5.352812458677576e-17 -0.717788964470486 -0.6962607288108441
12649378666.666666 -0.7253689496962761 -0.6883602885236351 1.0433704242212382e-16 5.236935024154589e-17 1.0433704242212382e-16 5.236935024154589e-17 -0.7253684854552687 -0.688360777723535
12649996000.0 -0.7328615237923055 -0.6803778266115377 1.048881869742705e-16 5.12046489248657e-17 1.048881869742705e-16 5.12046489248657e-17 -0.7328610649571837 -0.6803783208404298
12650613333.333334 -0.7402662583027912 -0.6723138157276006 1.054263396805935e-16 5.003416480370092e-17 1.054263396805935e-16 5.003416480370092e-17 -0.7402658049280192 -0.6723143149257588
12651230666.666666 -0.7475822657083295 -0.6641692224111422 1.0595144006828476e-16 4.885804269294458e-17 1.0595144006828476e-16 4.885804269294458e-17 -0.7475818178477133 -0.6641697265182519
12651848000.0 -0.7548086691243968 -0.6559450228597502 1.0646342927758561e-16 4.767642803752563e-17 1.0646342927758561e-16 4.767642803752563e-17 -0.7548082268310746 -0.6559455318149132
12652465333.333334 -0.7619446024061413 -0.6476422028126085 1.069622500683229e-16 4.6489466894457725e-17 1.069622500683229e-16 4.6489466894457725e-17 -0.7619441657325806 -0.647642716554353
12653082666.666666 -0.7689892102522624 -0.6392617574322915 1.0744784682623556e-16 4.529730591484111e-17 1.0744784682623556e-16 4.529730591484111e-17 -0.7689887792502517 -0.6392622758985772
12653700000.0 -0.7759416483077605 -0.6308046911852003 1.0792016556913444e-16 4.410009232572028e-17 1.0792016556913444e-16 4.410009232572028e-17 -0.7759412230284022 -0.6308052143134263
12654317333.333334 -0.782801083264757 -0.6222720177216261 1.083791539528107e-16 4.289797391200096e-17 1.083791539528107e-16 4.289797391200096e-17 -0.7828006637584639 -0.6222725454486395
12654934666.666666 -0.7895666929626822 -0.6136647597538855 1.0882476127679158e-16 4.1691098998183275e-17 1.0882476127679158e-16 4.1691098998183275e-17 -0.7895662792791702 -0.6136652920159882
12655552000.0 -0.7962376664867616 -0.604983948933802 1.0925693848986284e-16 4.047961643011661e-17 1.0925693848986284e-16 4.047961643011661e-17 -0.7962372586750434 -0.6049844856667587
12656169333.333334 -0.8028132042650181 -0.5962306257293023 1.0967563819539613e-16 3.926367555667641e-17 1.0967563819539613e-16 3.926367555667641e-17 -0.8028128023733984 -0.5962311668683482
12656786666.666666 -0.8092925181643186 -0.587405839299438 1.1008081465647654e-16 3.8043426211377583e-17 1.1008081465647654e-16 3.8043426211377583e-17 -0.8092921222403873 -0.5874063847792861
12657404000.0 -0.815674831584801 -0.5785106473686789 1.1047242380082744e-16 3.6819018693933083e-17 1.1047242380082744e-16 3.6819018693933083e-17 -0.8156744416754287 -0.5785111971235288
12658021333.333334 -0.8219593795528719 -0.5695461161002496 1.1085042322552002e-16 3.559060375179073e-17 1.1085042322552002e-16 3.559060375179073e-17 -0.8219589957042037 -0.5695466700637951
12658638666.666666 -0.8281454088129468 -0.5605133199682748 1.1121477220148886e-16 3.4358332561595046e-17 1.1121477220148886e-16 3.4358332561595046e-17 -0.8281450310703974 -0.5605138780737116
12659256000.0 -0.8342321779177667 -0.5514133416289452 1.115654316778393e-16 3.3122356710606605e-17 1.115654316778393e-16 3.3122356710606605e-17 -0.8342318063260133 -0.5514139038089788
12659873333.333334 -0.8402189573172467 -0.5422472717907756 1.1190236428594657e-16 3.1882828178088535e-17 1.1190236428594657e-16 3.1882828178088535e-17 -0.8402185919202257 -0.5422478379776299
12660490666.666666 -0.8461050294457974 -0.5330162090840651 1.1222553434334278e-16 3.0639899316674715e-17 1.1222553434334278e-16 3.0639899316674715e-17 -0.8461046702866982 -0.5330167792094903
12661108000.0 -0.8518896888086067 -0.5237212599287873 1.1253490785741866e-16 2.9393722833616786e-17 1.1253490785741866e-16 2.9393722833616786e-17 -0.8518893359298678 -0.5237218339240685
12661725333.333334 -0.8575722420658807 -0.5143635384024794 1.128304525288856e-16 2.814445177212336e-17 1.128304525288856e-16 2.814445177212336e-17 -0.8575718955091833 -0.5143641161984449
12662342666.666666 -0.8631520081161588 -0.5049441661063762 1.1311213775506305e-16 2.6892239492534163e-17 1.1311213775506305e-16 2.6892239492534163e-17 -0.8631516679224213 -0.5049447476334044
12662960000.0 -0.8686283181779146 -0.4954642720310214 1.1337993463293254e-16 2.56372396535655e-17 1.1337993463293254e-16 2.56372396535655e-17 -0.8686279843872896 -0.4954648572190512
12663577333.333334 -0.8740005158696291 -0.4859249924210961 1.1363381596200092e-16 2.4379606193456177e-17 1.1363381596200092e-16 2.4379606193456177e-17 -0.8740001885215001 -0.48592558119963536
12664194666.666666 -0.8792679572885836 -0.4763274706390369 1.138737562469427e-16 2.3119493311141412e-17 1.138737562469427e-16 2.3119493311141412e-17 -0.879267636421554 -0.476328062937168
12664812000.0 -0.8844300110879156 -0.4666728570281872 1.1409973170004484e-16 2.1857055447350742e-17 1.1409973170004484e-16 2.1857055447350742e-17 -0.8844296967398109 -0.46667345277457883
12665429333.333334 -0.8894860585524198 -0.4569623087746982 1.1431172024343209e-16 2.0592447265732192e-17 1.1431172024343209e-16 2.0592447265732192e-17 -0.8894857507602801 -0.4569629078976126
12666046666.666666 -0.8944354936725323 -0.44719698976915584 1.1450970151109163e-16 1.9325823633924715e-17 1.1450970151109163e-16 1.9325823633924715e-17 -0.8944351924726083 -0.4471975921964575
12666664000.0 -0.8992777232172143 -0.4373780704665992 1.1469365685068568e-16 1.805733960461259e-17 1.1469365685068568e-16 1.805733960461259e-17 -0.8992774286449622 -0.4373786761257632
12667281333.333334 -0.9040121668047693 -0.4275067277467884 1.1486356932515208e-16 1.678715039659439e-17 1.1486356932515208e-16 1.678715039659439e-17 -0.9040118788948498 -0.4275073365649108
12667898666.666666 -0.9086382569726423 -0.4175841447726906 1.1501942371409874e-16 1.5515411375812897e-17 1.1501942371409874e-16 1.5515411375812897e-17 -0.9086379757589126 -0.41758475667649486
12668516000.0 -0.9131554392453258 -0.40761151084886804 1.1516120651499096e-16 1.4242278036354854e-17 1.1516120651499096e-16 1.4242278036354854e-17 -0.913155164760837 -0.40761212576471506
12669133333.333334 -0.9175631722008126 -0.39759002127895865 1.1528890594411903e-16 1.2967905981524319e-17 1.1528890594411903e-16 1.2967905981524319e-17 -0.9175629044778065 -0.3975906391328557
12669750666.666666 -0.9218609275355125 -0.38752087722235706 1.1540251193737008e-16 1.169245090479557e-17 1.1540251193737008e-16 1.169245090479557e-17 -0.921860666605418 -0.38752149793996665
12670368000.0 -0.9260481901276176 -0.3774052855501406 1.1550201615077812e-16 1.041606857086061e-17 1.1550201615077812e-16 1.041606857086061e-17 -0.9260479360210464 -0.3774059090567892
