! Parameters = {f0=12700.012000; bw=77.238000; Q=6100.000000; N=10; m_0_1=1.176271; m_1_1=-1.120677; m_1_2=1.011083; m_2_2=-1.121326; m_2_3=0.648046; m_2_8=-0.004123; m_2_9=0.032581; m_3_3=-1.123263; m_3_4=0.536575; m_3_7=-0.003523; m_3_8=-0.100611; m_3_9=-0.004123; m_4_4=-1.126188; m_4_5=0.372910; m_4_6=-0.000006; m_4_7=-0.121160; m_4_8=-0.003523; m_5_5=-1.125806; m_5_6=0.780265; m_5_7=-0.000006; m_6_6=-1.125807; m_6_7=0.373252; m_7_7=-1.126174; m_7_8=0.536693; m_8_8=-1.123265; m_8_9=0.648359; m_9_9=-1.121331; m_9_10=1.012161; m_10_10=-1.120687; m_10_11=1.177066}
!
! Created with skrf (http://scikit-rf.org).
# Hz S RI R 50.0 
!freq ReS11 ImS11 ReS21 ImS21 ReS12 ImS12 ReS22 ImS22
12607400000.0 0.6657171849368014 0.74620414745542 -5.913324097921032e-17 -3.660835537331902e-17 -5.913324097921032e-17 -3.660835537331902e-17 0.6657167223726368 0.7462045601262977
12608017333.333334 0.6714817578132557 0.7410210853436415 -5.940681921093582e-17 -3.61365051438033e-17 -5.940681921093582e-17 -3.61365051438033e-17 0.6714812984845112 0.7410215015675339
12608634666.666666 0.6772059783724255 0.7357934919911251 -5.967663711428724e-17 -3.56626175615376e-17 -5.967663711428724e-17 -3.56626175615376e-17 0.6772055223063859 0.7357939117426721
12609252000.0 0.6828895026205125 0.7305216815472059 -5.994267957532763e-17 -3.5186722556825746e-17 -5.994267957532763e-17 -3.5186722556825746e-17 0.6828890498442636 0.7305221048008381
12609869333.333334 0.6885319890094244 0.7252059708183424 -6.020493171806435e-17 -3.470885017161226e-17 -6.020493171806435e-17 -3.470885017161226e-17 0.688531539549852 0.7252063975482832
12610486666.666666 0.694133098457051 0.7198466792493118 -6.046337890526504e-17 -3.4229030557601455e-17 -6.046337890526504e-17 -3.4229030557601455e-17 0.6941326523408397 0.7198471094295785
12611104000.0 0.6996924943680953 0.7144441289035838 -6.071800673927287e-17 -3.374729397434488e-17 -6.071800673927287e-17 -3.374729397434488e-17 0.6996920516217249 0.7144445625079875
12611721333.333334 0.7052098426537243 0.7089986444445129 -6.096880106278767e-17 -3.326367078735715e-17 -6.096880106278767e-17 -3.326367078735715e-17 0.70520940330347 0.7089990814466627
12612338666.666666 0.7106848117520582 0.7035105531154383 -6.121574795964546e-17 -3.277819146620215e-17 -6.121574795964546e-17 -3.277819146620215e-17 0.7106843758239889 0.7035109934887414
12612956000.0 0.7161170726480888 0.6979801847200111 -6.145883375558247e-17 -3.229088658257322e-17 -6.145883375558247e-17 -3.229088658257322e-17 0.7161166401680644 0.6979806284376743
12613573333.333334 0.7215062988930939 0.6924078716027414 -6.169804501897164e-17 -3.1801786808392516e-17 -6.169804501897164e-17 -3.1801786808392516e-17 0.721505869886766 0.692408318637774
12614190666.666666 0.726852166624616 0.6867939486286622 -6.193336856156164e-17 -3.1310922913869826e-17 -6.193336856156164e-17 -3.1310922913869826e-17 0.7268517411174243 0.6867943989538768
12614808000.0 0.7321543545858807 0.6811387531632445 -6.21647914391873e-17 -3.081832576558241e-17 -6.21647914391873e-17 -3.081832576558241e-17 0.7321539326030524 0.6811392067512586
12615425333.333334 0.7374125441449086 0.6754426250523292 -6.239230095246957e-17 -3.032402632454103e-17 -6.239230095246957e-17 -3.032402632454103e-17 0.7374121257114548 0.6754430818755656
12616042666.666666 0.7426264193138159 0.669705906601538 -6.261588464750292e-17 -2.982805564424364e-17 -6.261588464750292e-17 -2.982805564424364e-17 0.7426260044545345 0.6697063666322296
12616660000.0 0.7477956667677711 0.6639289425557482 -6.283553031651956e-17 -2.933044486874208e-17 -6.283553031651956e-17 -2.933044486874208e-17 0.747795255507241 0.6639294057659363
12617277333.333334 0.752919975863854 0.6581120800783267 -6.305122599854702e-17 -2.8831225230684295e-17 -6.305122599854702e-17 -2.8831225230684295e-17 0.7529195682264371 0.6581125464398659
12617894666.666666 0.7579990386595435 0.6522556687304879 -6.326295998004184e-17 -2.833042804937165e-17 -6.326295998004184e-17 -2.833042804937165e-17 0.7579986346693802 0.652256138215045
12618512000.0 0.7630325499316298 0.6463600604498112 -6.347072079552078e-17 -2.782808472878097e-17 -6.347072079552078e-17 -2.782808472878097e-17 0.76303214961264 0.6463605330288686
12619129333.333334 0.768020207194036 0.6404256095296933 -6.367449722815721e-17 -2.732422675562732e-17 -6.367449722815721e-17 -2.732422675562732e-17 0.7680198105699152 0.6404260851745501
12619746666.666666 0.7729617107163675 0.634452672597629 -6.387427831038083e-17 -2.681888569737922e-17 -6.387427831038083e-17 -2.681888569737922e-17 0.7729613178105895 0.6344531512794038
12620364000.0 0.7778567635419237 0.628441608593776 -6.407005332445276e-17 -2.6312093200289204e-17 -6.407005332445276e-17 -2.6312093200289204e-17 0.7778563743777337 0.6284420902834058
12620981333.333334 0.7827050715051764 0.6223927787498219 -6.42618118030229e-17 -2.5803880987428097e-17 -6.42618118030229e-17 -2.5803880987428097e-17 0.7827046861055942 0.6223932634180677
12621598666.666666 0.7875063432499576 0.6163065465666636 -6.444954352967768e-17 -2.529428085669854e-17 -6.444954352967768e-17 -2.529428085669854e-17 0.7875059616377742 0.6163070341841095
12622216000.0 0.7922602902465715 0.6101832777930469 -6.463323853946892e-17 -2.478332467885405e-17 -6.463323853946892e-17 -2.478332467885405e-17 0.7922599124443475 0.610183768330102
12622833333.333334 0.7969666268093449 0.6040233404033188 -6.481288711942813e-17 -2.4271044395510548e-17 -6.481288711942813e-17 -2.4271044395510548e-17 0.7969662528394105 0.6040238338302208
12623450666.666666 0.8016250701136247 0.5978271045755418 -6.498847980906221e-17 -2.375747201716377e-17 -6.498847980906221e-17 -2.375747201716377e-17 0.8016246999980774 0.5978276008623572
12624068000.0 0.8062353402129456 0.5915949426690219 -6.516000740083904e-17 -2.3242639621186342e-17 -6.516000740083904e-17 -2.3242639621186342e-17 0.8062349739736497 0.5915954417856488
12624685333.333334 0.8107971600558869 0.5853272292018857 -6.532746094065428e-17 -2.272657934983096e-17 -6.532746094065428e-17 -2.272657934983096e-17 0.8107967977144704 0.585327731118054
12625302666.666666 0.8153102555023806 0.5790243408290292 -6.54908317282789e-17 -2.2209323408239476e-17 -6.54908317282789e-17 -2.2209323408239476e-17 0.8153098970802359 0.5790248455143042
12625920000.0 0.8197743553406918 0.5726866563187957 -6.565011131779703e-17 -2.1690904062432378e-17 -6.565011131779703e-17 -2.1690904062432378e-17 0.8197740008589742 0.5726871637425797
12626537333.333334 0.8241891913032179 0.5663145565309059 -6.580529151802532e-17 -2.117135363730258e-17 -6.580529151802532e-17 -2.117135363730258e-17 0.824188840782843 0.5663150666624391
12627154666.666666 0.828554498082941 0.5599084243931086 -6.595636439291375e-17 -2.0650704514615943e-17 -6.595636439291375e-17 -2.0650704514615943e-17 0.8285541515445851 0.5599089372014716
12627772000.0 0.8328700133493678 0.5534686448781658 -6.610332226193941e-17 -2.0128989130978787e-17 -6.610332226193941e-17 -2.0128989130978787e-17 0.8328696708134646 0.5534691603322808
12628389333.333334 0.8371354777639728 0.5469956049811864 -6.624615770047016e-17 -1.9606239975851977e-17 -6.624615770047016e-17 -1.9606239975851977e-17 0.837135139250715 0.5469961230498209
12629006666.666666 0.8413506349962322 0.5404896936957142 -6.638486354012894e-17 -1.9082489589505916e-17 -6.638486354012894e-17 -1.9082489589505916e-17 0.8413503005255681 0.5404902143474809
12629624000.0 0.8455152317386758 0.5339513019908673 -6.651943286912779e-17 -1.8557770561022213e-17 -6.651943286912779e-17 -1.8557770561022213e-17 0.8455149013303095 0.5339518251942271
12630241333.333334 0.8496290177223015 0.5273808227875615 -6.664985903259514e-17 -1.8032115526263065e-17 -6.664985903259514e-17 -1.8032115526263065e-17 0.84962869139569 0.5273813485108249
12630858666.666666 0.8536917457314304 0.520778650935185 -6.677613563288304e-17 -1.7505557165851693e-17 -6.677613563288304e-17 -1.7505557165851693e-17 0.8536914235057845 0.520779179146514
12631476000.0 0.8577031716188929 0.514145183187338 -6.689825652986171e-17 -1.6978128203137466e-17 -6.689825652986171e-17 -1.6978128203137466e-17 0.8577028535131738 0.5141457138547477
12632093333.333334 0.8616630543202828 0.5074808181786683 -6.70162158411923e-17 -1.6449861402186012e-17 -6.70162158411923e-17 -1.6449861402186012e-17 0.861662740353204 0.5074813512700308
12632710666.666666 0.8655711558687729 0.5007859564003834 -6.713000794258953e-17 -1.5920789565740827e-17 -6.713000794258953e-17 -1.5920789565740827e-17 0.8655708460587958 0.5007864918834268
12633328000.0 0.8694272414092356 0.4940610001764728 -6.723962746806851e-17 -1.5390945533183276e-17 -6.723962746806851e-17 -1.5390945533183276e-17 0.8694269357745716 0.494061538018786
12633945333.333334 0.8732310792125023 0.48730635363928726 -6.73450693101697e-17 -1.486036217851797e-17 -6.73450693101697e-17 -1.486036217851797e-17 0.8732307777711091 0.4873068938083196
12634562666.666666 0.8769824406891179 0.48052242270554707 -6.744632862017307e-17 -1.4329072408331895e-17 -6.744632862017307e-17 -1.4329072408331895e-17 0.8769821434586993 0.4805229651686114
12635180000.0 0.8806811004031891 0.4737096150517508 -6.754340080829628e-17 -1.3797109159754253e-17 -6.754340080829628e-17 -1.3797109159754253e-17 0.8806808074011949 0.4737101597760258
12635797333.333334 0.8843268360859338 0.4668683400896777 -6.763628154387325e-17 -1.326450539843056e-17 -6.763628154387325e-17 -1.326450539843056e-17 0.8843265473295586 0.4668688870422095
12636414666.666666 0.8879194286489299 0.4599990089419833 -6.772496675551895e-17 -1.273129411648618e-17 -6.772496675551895e-17 -1.273129411648618e-17 0.8879191441551094 0.4599995580896864
12637032000.0 0.8914586621974409 0.4531020344171926 -6.78094526312804e-17 -1.219750833047953e-17 -6.78094526312804e-17 -1.219750833047953e-17 0.8914583819828544 0.45310258572685336
12637649333.333334 0.8949443240432824 0.44617783098509256 -6.788973561876745e-17 -1.1663181079371677e-17 -6.788973561876745e-17 -1.1663181079371677e-17 0.8949440481243507 0.4461783844233708
12638266666.666666 0.8983762047176329 0.4392268147517761 -6.79658124252703e-17 -1.1128345422485919e-17 -6.79658124252703e-17 -1.1128345422485919e-17 0.8983759331105162 0.43922737028520686
12638884000.0 0.90175409798362 0.4322494034346356 -6.803768001786017e-17 -1.0593034437468768e-17 -6.803768001786017e-17 -1.0593034437468768e-17 0.9017538307042182 0.4322499610296312
12639501333.333334 0.9050778008487123 0.42524601633725906 -6.810533562347412e-17 -1.0057281218250586e-17 -6.810533562347412e-17 -1.0057281218250586e-17 0.905077537912664 0.42524657596011156
12640118666.666666 0.9083471135768991 0.41821707432428734 -6.816877672898353e-17 -9.521118873009974e-18 -6.816877672898353e-17 -9.521118873009974e-18 0.90834685499958 0.41821763594116995
12640736000.0 0.9115618397008066 0.4111629997958604 -6.822800108124896e-17 -8.984580522114659e-18 -6.822800108124896e-17 -8.984580522114659e-18 0.9115615854973298 0.41116356337283017
12641353333.333334 0.9147217860332716 0.40408421666275285 -6.828300668715251e-17 -8.447699296120806e-18 -6.828300668715251e-17 -8.447699296120806e-18 0.9147215362184854 0.4040847821657522
12641970666.666666 0.9178267626791868 0.3969811503203817 -6.83337918136234e-17 -7.910508333694773e-18 -6.83337918136234e-17 -7.910508333694773e-18 0.9178265172676733 0.3969817177152401
12642588000.0 0.920876583046791 0.3898542276234995 -6.838035498764026e-17 -7.373040779593402e-18 -6.838035498764026e-17 -7.373040779593402e-18 0.9208763420528682 0.38985479687593694
12643205333.333334 0.92387106385889 0.38270387686054624 -6.842269499622061e-17 -6.8353297826234304e-18 -6.842269499622061e-17 -6.8353297826234304e-18 0.9238708272966074 0.38270444793617386
12643822666.666666 0.9268100251639522 0.37553052772769935 -6.84608108863942e-17 -6.29740849359554e-18 -6.84608108863942e-17 -6.29740849359554e-18 0.9268097930470922 0.3755311005920221
12644440000.0 0.9296932903468147 0.3683346113033138 -6.849470196515904e-17 -5.759310063298596e-18 -6.849470196515904e-17 -5.759310063298596e-18 0.9296930626888918 0.3683351859217329
12645057333.333334 0.9325206861393015 0.3611165600220192 -6.85243677994235e-17 -5.221067640453251e-18 -6.85243677994235e-17 -5.221067640453251e-18 0.9325204629535602 0.36111713635983367
12645674666.666666 0.9352920426307392 0.35387680764846774 -6.85498082159301e-17 -4.682714369687871e-18 -6.85498082159301e-17 -4.682714369687871e-18 0.9352918239301542 0.3538773856708765
12646292000.0 0.9380071932780819 0.3466157892514778 -6.857102330116632e-17 -4.1442833894824206e-18 -6.857102330116632e-17 -4.1442833894824206e-18 0.9380069790753585 0.3466163689235826
12646909333.333334 0.9406659749159446 0.339333941177838 -6.858801340125618e-17 -3.605807830162227e-18 -6.858801340125618e-17 -3.605807830162227e-18 0.9406657652235149 0.33933452246464413
12647526666.666666 0.943268227766386 0.33203170102613655 -6.86007791218387e-17 -3.0673208118462575e-18 -6.86007791218387e-17 -3.0673208118462575e-18 0.9432680225964103 0.33203228389255607
12648144000.0 0.9458137954485882 0.32470950762025147 -6.860932132792896e-17 -2.528855442418249e-18 -6.860932132792896e-17 -2.528855442418249e-18 0.945813594812953 0.32471009203110446
12648761333.333334 0.9483025249881543 0.31736780098324496 -6.861364114376335e-17 -1.990444815507209e-18 -6.861364114376335e-17 -1.990444815507209e-18 0.9483023288984742 0.3173683869032628
12649378666.666666 0.9507342668263116 0.31000702231092464 -6.861373995262991e-17 -1.4521220084520239e-18 -6.861373995262991e-17 -1.4521220084520239e-18 0.9507340752939256 0.31000760970475105
12649996000.0 0.9531088748289832 0.30262761394505816 -6.860961939668161e-17 -9.139200802775908e-19 -6.860961939668161e-17 -9.139200802775908e-19 0.9531086878649571 0.30262820277725216
12650613333.333334 0.9554262062955025 0.2952300193470081 -6.860128137673463e-17 -3.758720696689914e-19 -6.860128137673463e-17 -3.758720696689914e-19 0.9554260239106237 0.29523060958204506
12651230666.666666 0.9576861219671996 0.2878146830710263 -6.858872805205063e-17 1.6198900704060747e-19 -6.858872805205063e-17 1.6198900704060747e-19 0.957685944171982 0.2878152746733016
12651848000.0 0.9598884860357793 0.28038205073754185 -6.857196184010314e-17 6.996301579091397e-19 -6.857196184010314e-17 6.996301579091397e-19 0.9598883128404586 0.28038264367137156
12652465333.333334 0.962033166151473 0.27293256900637825 -6.85509854163279e-17 1.2370184173854848e-18 -6.85509854163279e-17 1.2370184173854848e-18 0.9620329975660082 0.2729331632360022
12653082666.666666 0.964120033430985 0.2654666855499693 -6.852580171385873e-17 1.7741208483244764e-18 -6.852580171385873e-17 1.7741208483244764e-18 0.9641198694650561 0.2654672810395528
12653700000.0 0.9661489624653068 0.2579848490261806 -6.849641392324523e-17 2.3109045440168745e-18 -6.849641392324523e-17 2.3109045440168745e-18 0.9661488031283163 0.2579854457398169
12654317333.333334 0.9681198313271067 0.25048750905189654 -6.846282549215776e-17 2.8473366301797107e-18 -6.846282549215776e-17 2.8473366301797107e-18 0.9681196766281779 0.2504881069536088
12654934666.666666 0.9700325215781935 0.24297511617550838 -6.842504012507452e-17 3.3833842669710994e-18 -6.842504012507452e-17 3.3833842669710994e-18 0.9700323715261691 0.24297571522925163
12655552000.0 0.9718869182766248 0.23544812184983585 -6.838306178295322e-17 3.919014651002136e-18 -6.838306178295322e-17 3.919014651002136e-18 0.9718867728800684 0.23544872201949982
12656169333.333334 0.9736829099834956 0.22790697840549523 -6.83368946828892e-17 4.454195017318583e-18 -6.83368946828892e-17 4.454195017318583e-18 0.97368276925069 0.2279075796549058
12656786666.666666 0.9754203887697682 0.2203521390231642 -6.828654329775464e-17 4.988892641418256e-18 -6.828654329775464e-17 4.988892641418256e-18 0.9754202527087165 0.22035274131608634
12657404000.0 0.9770992502226952 0.21278405770662528 -6.8232012355825e-17 5.523074841236024e-18 -6.8232012355825e-17 5.523074841236024e-18 0.9770991188411167 0.21278466100676433
12658021333.333334 0.9787193934521028 0.2052031892554265 -6.817330684038848e-17 6.0567089791370586e-18 -6.817330684038848e-17 6.0567089791370586e-18 0.9787192667574356 0.20520379352643092
12658638666.666666 0.9802807210964545 0.19760998923755066 -6.811043198934075e-17 6.589762463902732e-18 -6.811043198934075e-17 6.589762463902732e-18 0.9802805990958551 0.19761059444301418
12659256000.0 0.9817831393286949 0.19000491396209448 -6.804339329476265e-17 7.122202752722513e-18 -6.804339329476265e-17 7.122202752722513e-18 0.981783022029036 0.19000552006555826
12659873333.333334 0.983226557861937 0.18238842045156745 -6.79721965024849e-17 7.65399735316474e-18 -6.79721965024849e-17 7.65399735316474e-18 0.9832264452698094 0.18238902741652227
12660490666.666666 0.9846108899547734 0.17476096641504157 -6.789684761163644e-17 8.185113825151309e-18 -6.789684761163644e-17 8.185113825151309e-18 0.9846107820764837 0.17476157420493
12661108000.0 0.985936052416646 0.16712301021980788 -6.781735287417419e-17 8.715519782949482e-18 -6.781735287417419e-17 8.715519782949482e-18 0.9859359492582173 0.16712361879802648
12661725333.333334 0.9872019656126928 0.15947501086466967 -6.773371879440449e-17 9.24518289711346e-18 -6.773371879440449e-17 9.24518289711346e-18 0.9872018671798627 0.159475620194571
12662342666.666666 0.9884085534686393 0.1518174279517432 -6.764595212848147e-17 9.774070896469734e-18 -6.764595212848147e-17 9.774070896469734e-18 0.9884084597668625 0.15181803799663848
12662960000.0 0.9895557434753258 0.1441507216591188 -6.755405988389591e-17 1.0302151570065529e-17 -6.755405988389591e-17 1.0302151570065529e-17 0.9895556545097723 0.14415133238227992
12663577333.333334 0.9906434666930745 0.13647535271315084 -6.745804931894498e-17 1.082939276913381e-17 -6.745804931894498e-17 1.082939276913381e-17 0.9906433824686266 0.13647596407781215
12664194666.666666 0.9916716577558251 0.12879178236076944 -6.735792794219023e-17 1.1355762409032617e-17 -6.735792794219023e-17 1.1355762409032617e-17 0.9916715782770835 0.1287923943301308
12664812000.0 0.9926402548750743 0.12110047234176372 -6.725370351189761e-17 1.1881228471198955e-17 -6.725370351189761e-17 1.1881228471198955e-17 0.9926401801463515 0.12110108487899186
12665429333.333334 0.9935491998435786 0.11340188486103245 -6.714538403546328e-17 1.2405759005090062e-17 -6.714538403546328e-17 1.2405759005090062e-17 0.9935491298689028 0.11340249792926384
12666046666.666666 0.994398438038853 0.1056964825608655 -6.70329777688264e-17 1.2929322130110358e-17 -6.70329777688264e-17 1.2929322130110358e-17 0.9943983728219649 0.10569709612320811
12666664000.0 0.9951879184264804 0.0979847284928586 -6.691649321586072e-17 1.3451886037563693e-17 -6.691649321586072e-17 1.3451886037563693e-17 0.9951878579708351 0.09798534251239437
12667281333.333334 0.9959175935631187 0.09026708609065176 -6.679593912776114e-17 1.3973418992552973e-17 -6.679593912776114e-17 1.3973418992552973e-17 0.9959175378718848 0.09026770053043877
12667898666.666666 0.996587419599408 0.08254401914157111 -6.66713245024053e-17 1.4493889335919996e-17 -6.66713245024053e-17 1.4493889335919996e-17 0.9965873686754676 0.08254463396464577
12668516000.0 0.9971973562825989 0.07481599175875704 -6.65426585837052e-17 1.5013265486159116e-17 -6.65426585837052e-17 1.5013265486159116e-17 0.9971973101285477 0.07481660692813637
12669133333.333334 0.9977473669589297 0.06708346835378359 -6.64099508609454e-17 1.5531515941317737e-17 -6.64099508609454e-17 1.5531515941317737e-17 0.9977473255770763 0.06708408383246739
12669750666.666666 0.9982374185758783 0.05934691360818354 -6.627321106810266e-17 1.6048609280908228e-17 -6.627321106810266e-17 1.6048609280908228e-17 0.9982373819682441 0.0593475293591566
12670368000.0 0.9986674816841218 0.05160679244580671 -6.613244918315234e-17 1.6564514167806545e-17 -6.613244918315234e-17 1.6564514167806545e-17 0.9986674498524415 0.051607408432041126
12670985333.333334 0.9990375304393138 0.04386357000482411 -6.598767542736246e-17 1.7079199350137503e-17 -6.598767542736246e-17 1.7079199350137503e-17 0.999037503385034 0.04386418618928136
