! Parameters = {f0=12700.012000; bw=77.238000; Q=6100.000000; N=10; m_0_1=1.173669; m_1_1=-1.159716; m_1_2=1.008481; m_2_2=-1.160365; m_2_3=0.645444; m_2_8=-0.004253; m_2_9=0.032451; m_3_3=-1.162302; m_3_4=0.533973; m_3_7=-0.003653; m_3_8=-0.100741; m_3_9=-0.004253; m_4_4=-1.165227; m_4_5=0.370308; m_4_6=-0.000136; m_4_7=-0.121290; m_4_8=-0.003653; m_5_5=-1.164845; m_5_6=0.777663; m_5_7=-0.000136; m_6_6=-1.164846; m_6_7=0.370650; m_7_7=-1.165213; m_7_8=0.534091; m_8_8=-1.162304; m_8_9=0.645757; m_9_9=-1.160370; m_9_10=1.009559; m_10_10=-1.159726; m_10_11=1.174464}
!
! Created with skrf (http://scikit-rf.org).
# Hz S RI R 50.0 
!freq ReS11 ImS11 ReS21 ImS21 ReS12 ImS12 ReS22 ImS22
12607400000.0 -0.7472231337369796 0.6645732378061415 3.6204772997798446e-17 -5.828164889263777e-17 3.6204772997798446e-17 -5.828164889263777e-17 -0.7472235447902009 0.6645727756318456
12608017333.333334 -0.7421004829408313 0.6702886491794658 3.574419482785579e-17 -5.854950630701756e-17 3.574419482785579e-17 -5.854950630701756e-17 -0.7421008975088602 0.6702881901961223
12608634666.666666 -0.7369341168780157 0.6759645755371121 3.5281641921896897e-17 -5.881372863370402e-17 3.5281641921896897e-17 -5.881372863370402e-17 -0.7369345349360866 0.6759641197714436
12609252000.0 -0.7317243398861839 0.6816006825245831 3.4817142933673806e-17 -5.907430137086078e-17 3.4817142933673806e-17 -5.907430137086078e-17 -0.7317247614093302 0.6816002300031211
12609869333.333334 -0.7264714588601979 0.687196638133063 3.435072662296841e-17 -5.933121024224369e-17 3.435072662296841e-17 -5.933121024224369e-17 -0.7264718838232507 0.6871961888821463
12610486666.666666 -0.7211757832340896 0.6927521127189341 3.388242185383886e-17 -5.958444119796099e-17 3.388242185383886e-17 -5.958444119796099e-17 -0.7211762116116789 0.6927516667647043
12611104000.0 -0.7158376249627518 0.6982667790232736 3.341225759280776e-17 -5.983398041524888e-17 3.341225759280776e-17 -5.983398041524888e-17 -0.7158380567293101 0.6982663363916767
12611721333.333334 -0.7104572985036812 0.7037403121910106 3.294026290711468e-17 -6.007981429919448e-17 3.294026290711468e-17 -6.007981429919448e-17 -0.7104577336334439 0.7037398729077948
12612338666.666666 -0.7050351207983979 0.7091723897901256 3.2466466962895186e-17 -6.032192948348253e-17 3.2466466962895186e-17 -6.032192948348253e-17 -0.7050355592654047 0.7091719538808391
12612956000.0 -0.6995714112537113 0.7145626918307025 3.1990899023398693e-17 -6.056031283110316e-17 3.1990899023398693e-17 -6.056031283110316e-17 -0.6995718530318078 0.7145622593206918
12613573333.333334 -0.694066491723027 0.7199109007836582 3.1513588447189733e-17 -6.079495143505292e-17 3.1513588447189733e-17 -6.079495143505292e-17 -0.6940669367858662 0.719910471698067
12614190666.666666 -0.6885206864873271 0.7252167015995077 3.10345646863368e-17 -6.10258326190246e-17 3.10345646863368e-17 -6.10258326190246e-17 -0.6885211348083707 0.725216275963276
12614808000.0 -0.6829343222360048 0.730479781726982 3.0553857284605246e-17 -6.125294393807886e-17 3.0553857284605246e-17 -6.125294393807886e-17 -0.6829347737885259 0.7304793595648439
12615425333.333334 -0.6773077280477433 0.7356998311313213 3.007149587563474e-17 -6.147627317930667e-17 3.007149587563474e-17 -6.147627317930667e-17 -0.6773081828048269 0.735699412467804
12616042666.666666 -0.6716412353710709 0.7408765423125981 2.9587510181131304e-17 -6.169580836246807e-17 2.9587510181131304e-17 -6.169580836246807e-17 -0.6716416933056168 0.740876127172021
12616660000.0 -0.6659351780047725 0.7460096103238898 2.910193000902851e-17 -6.191153774062967e-17 2.910193000902851e-17 -6.191153774062967e-17 -0.6659356390894945 0.7460091987303609
12617277333.333334 -0.6601898920783494 0.7510987327891235 2.8614785251670466e-17 -6.212344980077473e-17 2.8614785251670466e-17 -6.212344980077473e-17 -0.6601903562857795 0.7510983247665408
12617894666.666666 -0.6544057160321601 0.7561436099209495 2.812610588397295e-17 -6.233153326440796e-17 2.812610588397295e-17 -6.233153326440796e-17 -0.6544061833346488 0.7561432054929983
12618512000.0 -0.6485829905973952 0.7611439445384749 2.763592196157833e-17 -6.253577708814585e-17 2.763592196157833e-17 -6.253577708814585e-17 -0.648583460967113 0.7611435437286256
12619129333.333334 -0.6427220587762422 0.7660994420845629 2.714426361903317e-17 -6.273617046428158e-17 2.714426361903317e-17 -6.273617046428158e-17 -0.642722532185182 0.7660990449160711
12619746666.666666 -0.6368232658214011 0.771009810643428 2.665116106791893e-17 -6.293270282135365e-17 2.665116106791893e-17 -6.293270282135365e-17 -0.6368237422413802 0.7710094171393326
12620364000.0 -0.6308869592158969 0.7758747609577009 2.6156644595014452e-17 -6.31253638246847e-17 2.6156644595014452e-17 -6.31253638246847e-17 -0.6308874386185566 0.775874371140822
12620981333.333334 -0.6249134886526307 0.7806940064454498 2.5660744560444077e-17 -6.331414337691103e-17 2.5660744560444077e-17 -6.331414337691103e-17 -0.6249139710094406 0.7806936203383893
12621598666.666666 -0.6189032060137183 0.7854672632171186 2.5163491395816432e-17 -6.349903161849895e-17 2.5163491395816432e-17 -6.349903161849895e-17 -0.6189036912959761 0.7854668808422567
12622216000.0 -0.6128564653498029 0.7901942500922128 2.4664915602358086e-17 -6.368001892824817e-17 2.4664915602358086e-17 -6.368001892824817e-17 -0.6128569535286372 0.7901938714717082
12622833333.333334 -0.6067736228590885 0.794874688615952 2.4165047749059745e-17 -6.385709592377345e-17 2.4165047749059745e-17 -6.385709592377345e-17 -0.6067741139054595 0.7948743137717392
12623450666.666666 -0.6006550368666019 0.7995083030754785 2.3663918470801278e-17 -6.403025346197954e-17 2.3663918470801278e-17 -6.403025346197954e-17 -0.6006555307513044 0.7995079320292684
12624068000.0 -0.5945010678027955 0.8040948205163281 2.3161558466484075e-17 -6.419948263951642e-17 2.3161558466484075e-17 -6.419948263951642e-17 -0.59450156449646 0.8040944532896058
12624685333.333334 -0.5883120781824474 0.8086339707584024 2.2657998497149626e-17 -6.43647747932248e-17 2.2657998497149626e-17 -6.43647747932248e-17 -0.5883125776555413 0.8086336073724253
12625302666.666666 -0.5820884325834671 0.8131254864117667 2.2153269384115063e-17 -6.452612150055935e-17 2.2153269384115063e-17 -6.452612150055935e-17 -0.5820889348062978 0.8131251268875649
12625920000.0 -0.5758304976250092 0.8175691028927058 2.164740200707829e-17 -6.468351458000686e-17 2.164740200707829e-17 -6.468351458000686e-17 -0.5758310025677245 0.8175687472510793
12626537333.333334 -0.5695386419463565 0.8219645584389571 2.114042730224617e-17 -6.483694609148118e-17 2.114042730224617e-17 -6.483694609148118e-17 -0.5695391495789464 0.8219642067004743
12627154666.666666 -0.5632132361848836 0.8263115941253647 2.0632376260450795e-17 -6.49864083367066e-17 2.0632376260450795e-17 -6.49864083367066e-17 -0.5632137464771829 0.8263112463103627
12627772000.0 -0.5568546529542674 0.8306099538790948 2.0123279925244547e-17 -6.513189385959165e-17 2.0123279925244547e-17 -6.513189385959165e-17 -0.5568551658759584 0.8306096100076789
12628389333.333334 -0.5504632668226812 0.8348593844946294 1.9613169391030186e-17 -6.527339544657814e-17 1.9613169391030186e-17 -6.527339544657814e-17 -0.550463782343293 0.8348590445866692
12629006666.666666 -0.5440394542905378 0.8390596356488046 1.9102075801152844e-17 -6.541090612698444e-17 1.9102075801152844e-17 -6.541090612698444e-17 -0.5440399723794491 0.8390592997239339
12629624000.0 -0.5375835937685022 0.8432104599154314 1.859003034601061e-17 -6.5544419173329e-17 1.859003034601061e-17 -6.5544419173329e-17 -0.5375841143949442 0.8432101279930484
12630241333.333334 -0.5310960655549849 0.8473116127800119 1.8077064261161046e-17 -6.567392810163952e-17 1.8077064261161046e-17 -6.567392810163952e-17 -0.5310965886880432 0.8473112848792784
12630858666.666666 -0.5245772518140297 0.8513628526539609 1.7563208825418345e-17 -6.579942667174947e-17 1.7563208825418345e-17 -6.579942667174947e-17 -0.5245777774226436 0.8513625287937974
12631476000.0 -0.5180275365524611 0.8553639408890452 1.7048495358946522e-17 -6.592090888757948e-17 1.7048495358946522e-17 -6.592090888757948e-17 -0.5180280646054277 0.8553636210881337
12632093333.333334 -0.5114473055975067 0.8593146417912945 1.6532955221366208e-17 -6.603836899740143e-17 1.6532955221366208e-17 -6.603836899740143e-17 -0.5114478360634822 0.8593143260680756
12632710666.666666 -0.5048369465740932 0.8632147226348705 1.6016619809851942e-17 -6.615180149408839e-17 1.6016619809851942e-17 -6.615180149408839e-17 -0.5048374794215951 0.8632144110075435
12633328000.0 -0.4981968488816961 0.8670639536759671 1.5499520557211317e-17 -6.62612011153546e-17 1.5499520557211317e-17 -6.62612011153546e-17 -0.49819738407910424 0.8670636461624875
12633945333.333334 -0.49152740367179004 0.8708621081661078 1.4981688929988852e-17 -6.636656284397381e-17 1.4981688929988852e-17 -6.636656284397381e-17 -0.4915279411873499 0.870861804784189
12634562666.666666 -0.484829003824616 0.8746089623656279 1.4463156426561212e-17 -6.646788190798507e-17 1.4463156426561212e-17 -6.646788190798507e-17 -0.48482954362643793 0.8746086631327349
12635180000.0 -0.47810204392598127 0.8783042955568688 1.3943954575214175e-17 -6.656515378088705e-17 1.3943954575214175e-17 -6.656515378088705e-17 -0.4781025859820456 0.8783040004902233
12635797333.333334 -0.4713469202441705 0.8819478900571086 1.3424114932245025e-17 -6.665837418181197e-17 1.3424114932245025e-17 -6.665837418181197e-17 -0.4713474645223266 0.8819475991736831
12636414666.666666 -0.46456403070649815 0.8855395312314313 1.2903669080043229e-17 -6.67475390756891e-17 1.2903669080043229e-17 -6.67475390756891e-17 -0.4645645771744687 0.8855392445479516
12637032000.0 -0.45775377487592034 0.8890790075053484 1.2382648625181572e-17 -6.683264467339075e-17 1.2382648625181572e-17 -6.683264467339075e-17 -0.4577543235013023 0.8890787250382922
12637649333.333334 -0.4509165539273972 0.8925661103773156 1.1861085196495279e-17 -6.691368743186604e-17 1.1861085196495279e-17 -6.691368743186604e-17 -0.450917104677663 0.8925658321429091
12638266666.666666 -0.44405277062441023 0.8960006344309326 1.1339010443179515e-17 -6.699066405425593e-17 1.1339010443179515e-17 -6.699066405425593e-17 -0.4440533234669105 0.8960003604451511
12638884000.0 -0.43716282929516265 0.8993823773470875 1.0816456032869279e-17 -6.706357148999665e-17 1.0816456032869279e-17 -6.706357148999665e-17 -0.4371633841971277 0.8993821076256546
12639501333.333334 -0.4302471358086566 0.9027111399159183 1.0293453649717013e-17 -6.713240693490832e-17 1.0293453649717013e-17 -6.713240693490832e-17 -0.43024769273719937 0.9027108744743062
12640118666.666666 -0.42330609755109494 0.9059867260484076 9.770034992500573e-18 -6.719716783126436e-17 9.770034992500573e-18 -6.719716783126436e-17 -0.4233066564732115 0.905986464901833
12640736000.0 -0.4163401234013933 0.9092089427881597 9.246231772671721e-18 -6.725785186785402e-17 9.246231772671721e-18 -6.725785186785402e-17 -0.4163406842839658 0.9092086859515858
12641353333.333334 -0.40934962370763395 0.9123776003225138 8.722075712483103e-18 -6.731445698001985e-17 8.722075712483103e-18 -6.731445698001985e-17 -0.40935018651743216 0.9123773478106484
12641970666.666666 -0.4023350102625344 0.9154925119938978 8.197598543036854e-18 -6.73669813496906e-17 8.197598543036854e-18 -6.73669813496906e-17 -0.4023355749662182 0.9154922638211926
12642588000.0 -0.39529669627923936 0.9185534943107938 7.672832002392692e-18 -6.741542340539096e-17 7.672832002392692e-18 -6.741542340539096e-17 -0.39529726284336003 0.9185532504914438
12643205333.333334 -0.3882350963671356 0.9215603669584809 7.14780783364774e-18 -6.745978182224117e-17 7.14780783364774e-18 -6.745978182224117e-17 -0.38823566475813864 0.9215601275064237
12643822666.666666 -0.3811506265072477 0.924512952809739 6.622557783009005e-18 -6.750005552194164e-17 6.622557783009005e-18 -6.750005552194164e-17 -0.3811511966914734 0.9245127177386516
12644440000.0 -0.3740437040277823 0.9274110779352522 6.097113597902902e-18 -6.753624367273902e-17 6.097113597902902e-18 -6.753624367273902e-17 -0.37404427597146916 0.9274108472585542
12645057333.333334 -0.36691474757970516 0.930254571613798 5.571507025045191e-18 -6.756834568938205e-17 5.571507025045191e-18 -6.756834568938205e-17 -0.36691532124899123 0.9302543453446479
12645674666.666666 -0.3597641771118679 0.9330432663423869 5.0457698085443024e-18 -6.759636123305923e-17 5.0457698085443024e-18 -6.759636123305923e-17 -0.3597647524727928 0.9330430444936822
12646292000.0 -0.35259241384629586 0.9357769978461175 4.519933687961358e-18 -6.76202902113246e-17 4.519933687961358e-18 -6.76202902113246e-17 -0.35259299086480306 0.9357767804304947
12646909333.333334 -0.3453998802535076 0.9384556050878029 3.994030396440468e-18 -6.764013277800484e-17 3.994030396440468e-18 -6.764013277800484e-17 -0.34540045889544596 0.9384553921176355
12647526666.666666 -0.33818700002754803 0.9410789302774865 3.4680916587651304e-18 -6.765588933309586e-17 3.4680916587651304e-18 -6.765588933309586e-17 -0.33818758025867485 0.9410787217648863
12648144000.0 -0.3309541980609781 0.9436468188817599 2.9421491894658827e-18 -6.766756052264131e-17 2.9421491894658827e-18 -6.766756052264131e-17 -0.33095477984695976 0.9436466148385741
12648761333.333334 -0.32370190041986974 0.9461591196328525 2.4162346909158854e-18 -6.767514723859802e-17 2.4162346909158854e-18 -6.767514723859802e-17 -0.3237024837262847 0.9461589200706636
12649378666.666666 -0.31643053431889717 0.948615684537478 1.8903798514202538e-18 -6.767865061868633e-17 1.8903798514202538e-18 -6.767865061868633e-17 -0.3164311191112371 0.9486154894676028
12649996000.0 -0.30914052809581966 0.9510163688856721 1.3646163433166008e-18 -6.767807204622516e-17 1.3646163433166008e-18 -6.767807204622516e-17 -0.3091411143394929 0.9510161783191631
12650613333.333334 -0.30183231118654674 0.9533610312592175 8.389758210638457e-19 -6.767341314995336e-17 8.389758210638457e-19 -6.767341314995336e-17 -0.301832898846879 0.9533608452068605
12651230666.666666 -0.2945063140997328 0.9556495335400104 3.134899193655146e-19 -6.76646758038353e-17 3.134899193655146e-19 -6.76646758038353e-17 -0.29450690314197026 0.9556493520123248
12651848000.0 -0.2871629683913363 0.9578817409182239 -2.1180974876271959e-19 -6.765186212685246e-17 -2.1180974876271959e-19 -6.765186212685246e-17 -0.2871635587806464 0.9578815639254596
12652465333.333334 -0.2798027066393588 0.9600575219001926 -7.368915938561301e-19 -6.763497448278001e-17 -7.368915938561301e-19 -6.763497448278001e-17 -0.27980329834083356 0.9600573494523335
12653082666.666666 -0.2724259624182841 0.962176748316193 -1.2617240519099648e-18 -6.761401547994922e-17 -1.2617240519099648e-18 -6.761401547994922e-17 -0.27242655539694133 0.9621765804229528
12653700000.0 -0.26503317027342554 0.9642392953280152 -1.7862755862765604e-18 -6.758898797099394e-17 -1.7862755862765604e-18 -6.758898797099394e-17 -0.2650337644942118 0.96423913199884
12654317333.333334 -0.2576247656956311 0.9662450414362405 -2.310514689533199e-18 -6.755989505258487e-17 -2.310514689533199e-18 -6.755989505258487e-17 -0.25762536112342255 0.966244882680305
12654934666.666666 -0.2502011850952722 0.9681938684874907 -2.8344098853935507e-18 -6.752674006514637e-17 -2.8344098853935507e-18 -6.752674006514637e-17 -0.2502017816948776 0.9681937143137
12655552000.0 -0.2427628657767282 0.9700856616813385 -3.3579297305780933e-18 -6.748952659256065e-17 -3.3579297305780933e-18 -6.748952659256065e-17 -0.2427634635128909 0.9700855120983277
12656169333.333334 -0.2353102459126539 0.9719203095770647 -3.88104281669335e-18 -6.744825846185713e-17 -3.88104281669335e-18 -6.744825846185713e-17 -0.23531084475005348 0.9719201645931964
12656786666.666666 -0.22784376451808447 0.9736977041002404 -4.4037177721159575e-18 -6.740293974288673e-17 -4.4037177721159575e-18 -6.740293974288673e-17 -0.22784436442133912 0.9736975637236059
12657404000.0 -0.2203638614246302 0.9754177405490826 -4.925923263864179e-18 -6.735357474798191e-17 -4.925923263864179e-18 -6.735357474798191e-17 -0.22036446235829904 0.9754176047875018
12658021333.333334 -0.21287097725442844 0.9770803176006546 -5.447627999479805e-18 -6.730016803160201e-17 -5.447627999479805e-18 -6.730016803160201e-17 -0.21287157918301317 0.977080186461674
12658638666.666666 -0.20536555339452 0.978685337316756 -5.9688007288743244e-18 -6.724272438996602e-17 -5.9688007288743244e-18 -6.724272438996602e-17 -0.20536615628246735 0.9786852108076505
12659256000.0 -0.19784803197034945 0.980232705149808 -6.489410246229173e-18 -6.718124886066619e-17 -6.489410246229173e-18 -6.718124886066619e-17 -0.19784863578205264 0.9802325832775763
12659873333.333334 -0.19031885582019134 0.9817223299483128 -7.009425391825712e-18 -6.711574672227354e-17 -7.009425391825712e-18 -6.711574672227354e-17 -0.19031946051999316 0.9817222127196822
12660490666.666666 -0.18277846846884296 0.9831541239622781 -7.528815053919504e-18 -6.704622349392463e-17 -7.528815053919504e-18 -6.704622349392463e-17 -0.18277907402103716 0.9831540113837008
12661108000.0 -0.17522731410141285 0.9845280028483984 -8.047548170599416e-18 -6.697268493489448e-17 -8.047548170599416e-18 -6.697268493489448e-17 -0.17522792047024632 0.9845278949260516
12661725333.333334 -0.16766583753746192 0.9858438856749647 -8.56559373162783e-18 -6.689513704415734e-17 -8.56559373162783e-18 -6.689513704415734e-17 -0.16766644468713726 0.9858437824147521
12662342666.666666 -0.1600944842044095 0.9871016949267056 -9.082920780296043e-18 -6.681358605993109e-17 -9.082920780296043e-18 -6.681358605993109e-17 -0.16009509209908662 0.987101596334255
12662960000.0 -0.1525137001116017 0.988301356509298 -9.599498415264304e-18 -6.672803845920844e-17 -9.599498415264304e-18 -6.672803845920844e-17 -0.15251430871540034 0.9883012625899629
12663577333.333334 -0.14492393182392652 0.9894427997537527 -1.0115295792409186e-17 -6.663850095727262e-17 -1.0115295792409186e-17 -6.663850095727262e-17 -0.14492454110092765 0.9894427105126076
12664194666.666666 -0.13732562643542287 0.9905259574205866 -1.0630282126645943e-17 -6.654498050720187e-17 -1.0630282126645943e-17 -6.654498050720187e-17 -0.1373262363496718 0.9905258728624332
12664812000.0 -0.12971923154314086 0.9915507657037573 -1.1144426693775005e-17 -6.644748429935562e-17 -1.1144426693775005e-17 -6.644748429935562e-17 -0.12971984205864867 0.9915506858331197
12665429333.333334 -0.12210519522052134 0.992517164234457 -1.1657698832295709e-17 -6.634601976085069e-17 -1.1657698832295709e-17 -6.634601976085069e-17 -0.12210580630126724 0.9925170890555832
12666046666.666666 -0.11448396599133932 0.9934250960846245 -1.2170067945234503e-17 -6.624059455502115e-17 -1.2170067945234503e-17 -6.624059455502115e-17 -0.11448457760127258 0.9934250256014838
12666664000.0 -0.1068559928028874 0.9942745077703443 -1.2681503501970264e-17 -6.613121658086255e-17 -1.2681503501970264e-17 -6.613121658086255e-17 -0.10685660490592996 0.9942744419866324
12667281333.333334 -0.09922172499984026 0.9950653492549653 -1.3191975040026895e-17 -6.601789397246862e-17 -1.3191975040026895e-17 -6.601789397246862e-17 -0.09922233755988832 0.9950652881740987
12667898666.666666 -0.09158161229770033 0.9957975739520583 -1.3701452166906074e-17 -6.590063509844468e-17 -1.3701452166906074e-17 -6.590063509844468e-17 -0.0915822252786267 0.9957975175771758
12668516000.0 -0.0839361047560792 0.9964711387281758 -1.4209904561877536e-17 -6.577944856131465e-17 -1.4209904561877536e-17 -6.577944856131465e-17 -0.08393671812173545 0.9964710870621399
12669133333.333334 -0.07628565275263907 0.997086003905357 -1.47173019777757e-17 -6.565434319691215e-17 -1.47173019777757e-17 -6.565434319691215e-17 -0.07628626646685772 0.9970859569507527
12669750666.666666 -0.0686307069561942 0.9976421332634982 -1.522361424279667e-17 -6.552532807375657e-17 -1.522361424279667e-17 -6.552532807375657e-17 -0.06863132098279062 0.9976420910226313
12670368000.0 -0.06097171830019104 0.9981394940424776 -1.5728811262293735e-17 -6.539241249241415e-17 -1.5728811262293735e-17 -6.539241249241415e-17 -0.060972332602965744 0.9981394565173767
