! Parameters = {f0=12700.012000; bw=77.238000; Q=6100.000000; N=10; m_0_1=1.292588; m_1_1=0.624068; m_1_2=1.127400; m_2_2=0.623419; m_2_3=0.764363; m_2_8=0.001693; m_2_9=0.038397; m_3_3=0.621482; m_3_4=0.652892; m_3_7=0.002293; m_3_8=-0.094795; m_3_9=0.001693; m_4_4=0.618557; m_4_5=0.489227; m_4_6=0.005810; m_4_7=-0.115344; m_4_8=0.002293; m_5_5=0.618939; m_5_6=0.896582; m_5_7=0.005810; m_6_6=0.618938; m_6_7=0.489569; m_7_7=0.618571; m_7_8=0.653010; m_8_8=0.621480; m_8_9=0.764676; m_9_9=0.623414; m_9_10=1.128478; m_10_10=0.624058; m_10_11=1.293383}
!
! Created with skrf (http://scikit-rf.org).
# Hz S RI R 50.0 
!freq ReS11 ImS11 ReS21 ImS21 ReS12 ImS12 ReS22 ImS22
12607400000.0 0.9512305688723347 -0.3084808014166081 -1.0131212730003095e-16 6.955026911065249e-17 -1.0131212730003095e-16 6.955026911065249e-17 0.9512307789383103 -0.3084801536569768
12608017333.333334 0.9477189647038096 -0.3191061953966993 -1.005015311914805e-16 7.067471683695022e-17 -1.005015311914805e-16 7.067471683695022e-17 0.9477191819947234 -0.3191055500599595
12608634666.666666 0.9440886773480093 -0.32969162759024445 -9.967846599762826e-17 7.178973250904011e-17 -9.967846599762826e-17 7.178973250904011e-17 0.9440889018359429 -0.3296909847569703
12609252000.0 0.9403401614272308 -0.34023577237972324 -9.884304130174231e-17 7.289517798183037e-17 -9.884304130174231e-17 7.289517798183037e-17 0.9403403930833684 -0.34023513213016815
12609869333.333334 0.9364738863695422 -0.3507373093181622 -9.799536821616198e-17 7.399091638155352e-17 -9.799536821616198e-17 7.399091638155352e-17 0.9364741251641726 -0.3507366717322476
12610486666.666666 0.9324903363500758 -0.3611949232942512 -9.7135559367588e-17 7.507681212264956e-17 -9.7135559367588e-17 7.507681212264956e-17 0.9324905822525983 -0.36119428845155804
12611104000.0 0.9283900102302818 -0.37160730469735725 -9.626372888213055e-17 7.615273092455094e-17 -9.626372888213055e-17 7.615273092455094e-17 0.9283902632092071 -0.3716066726771146
12611721333.333334 0.9241734214955821 -0.3819731495811806 -9.537999237024776e-17 7.721853982819856e-17 -9.537999237024776e-17 7.721853982819856e-17 0.9241736815185383 -0.38197252046225616
12612338666.666666 0.919841098191009 -0.3922911598272088 -9.448446691143842e-17 7.82741072124628e-17 -9.448446691143842e-17 7.82741072124628e-17 0.9198413652247455 -0.39229053368809963
12612956000.0 0.9153935828550098 -0.40256004330743683 -9.357727103877742e-17 7.931930281035748e-17 -9.357727103877742e-17 7.931930281035748e-17 0.9153938568654015 -0.40255942022625923
12613573333.333334 0.9108314324516499 -0.4127785140458413 -9.265852472329363e-17 8.035399772505196e-17 -9.265852472329363e-17 8.035399772505196e-17 0.9108317134037006 -0.41277789410032056
12614190666.666666 0.9061552183007382 -0.4229452923797101 -9.172834935812516e-17 8.137806444575575e-17 -9.172834935812516e-17 8.137806444575575e-17 0.9061555061585875 -0.4229446756471719
12614808000.0 0.9013655260063275 -0.43305910511979095 -9.078686774254574e-17 8.23913768633675e-17 -9.078686774254574e-17 8.23913768633675e-17 0.901365820733252 -0.4330584916771504
12615425333.333334 0.8964629553834137 -0.44311868570965596 -8.9834204065782e-17 8.33938102859821e-17 -8.9834204065782e-17 8.33938102859821e-17 0.8964632569418347 -0.443118075633409
12616042666.666666 0.8914481203827513 -0.45312277438446824 -8.887048389068553e-17 8.438524145418249e-17 -8.887048389068553e-17 8.438524145418249e-17 0.8914484287342372 -0.45312216775068165
12616660000.0 0.8863216490140124 -0.46307011832863826 -8.789583413722499e-17 8.536554855615624e-17 -8.789583413722499e-17 8.536554855615624e-17 0.8863219641192861 -0.4630695152129407
12617277333.333334 0.8810841832671199 -0.472959471832767 -8.691038306581002e-17 8.633461124262499e-17 -8.691038306581002e-17 8.633461124262499e-17 0.8810845050860612 -0.47295887231033884
12617894666.666666 0.875736379031914 -0.4827895964495201 -8.591426026048031e-17 8.729231064155209e-17 -8.591426026048031e-17 8.729231064155209e-17 0.8757367075235664 -0.4827890005950843
12618512000.0 0.870278906015853 -0.49255926114901827 -8.490759661185396e-17 8.823852937273523e-17 -8.490759661185396e-17 8.823852937273523e-17 0.8702792411384301 -0.49255866903683226
12619129333.333334 0.8647124476603961 -0.5022672424725539 -8.389052430004054e-17 8.917315156208165e-17 -8.389052430004054e-17 8.917315156208165e-17 0.8647127893712824 -0.5022666541763977
12619746666.666666 0.8590377010551904 -0.511912324686201 -8.286317677727524e-17 9.009606285580577e-17 -8.286317677727524e-17 9.009606285580577e-17 0.8590380493109508 -0.5119117402793699
12620364000.0 0.8532553768508284 -0.5214932999329601 -8.182568875046147e-17 9.100715043436344e-17 -8.182568875046147e-17 9.100715043436344e-17 0.8532557316072129 -0.5214927194882562
12620981333.333334 0.8473661991699705 -0.5310089683838266 -8.07781961635708e-17 9.19063030261811e-17 -8.07781961635708e-17 9.19063030261811e-17 0.8473665603819188 -0.5310083919735475
12621598666.666666 0.8413709055165022 -0.5404581383883116 -7.972083617984506e-17 9.27934109212236e-17 -7.972083617984506e-17 9.27934109212236e-17 0.8413712731381509 -0.5404575660842434
12622216000.0 0.83527024668331 -0.5498396266234555 -7.86537471638862e-17 9.366836598432524e-17 -7.86537471638862e-17 9.366836598432524e-17 0.8352706206679968 -0.5498390584968633
12622833333.333334 0.8290649866581361 -0.5591522582422084 -7.757706866359643e-17 9.453106166832135e-17 -7.757706866359643e-17 9.453106166832135e-17 0.8290653669584073 -0.5591516943638267
12623450666.666666 0.8227559025280321 -0.5683948670203666 -7.649094139196368e-17 9.538139302698094e-17 -7.649094139196368e-17 9.538139302698094e-17 0.8227562890956469 -0.5683943074603911
12624068000.0 0.8163437843819458 -0.5775662955027595 -7.539550720870884e-17 9.621925672772888e-17 -7.539550720870884e-17 9.621925672772888e-17 0.8163441771678834 -0.5775657403308386
12624685333.333334 0.8098294352117431 -0.5866653951482445 -7.429090910179081e-17 9.70445510641588e-17 -7.429090910179081e-17 9.70445510641588e-17 0.8098298341662095 -0.5866648444334697
12625302666.666666 0.8032136708118851 -0.5956910264732158 -7.317729116880994e-17 9.785717596831095e-17 -7.317729116880994e-17 9.785717596831095e-17 0.803214075884318 -0.5956904802841142
12625920000.0 0.7964973196769126 -0.6046420591947863 -7.205479859820414e-17 9.865703302278969e-17 -7.205479859820414e-17 9.865703302278969e-17 0.7964977308159888 -0.6046415175993115
12626537333.333334 0.789681222897995 -0.613517372371919 -7.092357765040925e-17 9.944402547259675e-17 -7.092357765040925e-17 9.944402547259675e-17 0.7896816400516372 -0.6135168354374428
12627154666.666666 0.7827662340574878 -0.6223158545459662 -6.978377563880661e-17 1.0021805823681043e-16 -6.978377563880661e-17 1.0021805823681043e-16 0.7827666571728695 -0.6223153223392698
12627772000.0 0.7757532191219073 -0.6310364038800101 -6.863554091057114e-17 1.009790379200254e-16 -6.863554091057114e-17 1.009790379200254e-16 0.7757536481454621 -0.6310358764672771
12628389333.333334 0.7686430563338102 -0.6396779282964499 -6.747902282743945e-17 1.0172687282354573e-16 -6.747902282743945e-17 1.0172687282354573e-16 0.7686434912112353 -0.6396774057432554
12629006666.666666 0.7614366361014304 -0.6482393456142226 -6.631437174627535e-17 1.0246147295641129e-16 -6.631437174627535e-17 1.0246147295641129e-16 0.7614370767776979 -0.6482388279855293
12629624000.0 0.754134860887448 -0.6567195836840003 -6.514173899958915e-17 1.0318275004615538e-16 -6.514173899958915e-17 1.0318275004615538e-16 0.7541353073068071 -0.656719071044146
12630241333.333334 0.7467386450958234 -0.6651175805226256 -6.396127687590538e-17 1.0389061754936217e-16 -6.396127687590538e-17 1.0389061754936217e-16 0.7467390972018099 -0.6651170729353172
12630858666.666666 0.7392489149574939 -0.6734322844458708 -6.277313860002282e-17 1.0458499066199666e-16 -6.277313860002282e-17 1.0458499066199666e-16 0.739249372692938 -0.6734317819741774
12631476000.0 0.7316666084139677 -0.6816626542006097 -6.157747831314186e-17 1.0526578632952131e-16 -6.157747831314186e-17 1.0526578632952131e-16 0.7316670717209982 -0.6816621569069516
12632093333.333334 0.7239926750003718 -0.6898076590946376 -6.037445105293713e-17 1.059329232567549e-16 -6.037445105293713e-17 1.059329232567549e-16 0.7239931438204283 -0.6898071670407833
12632710666.666666 0.7162280757262265 -0.6978662791261118 -5.916421273348803e-17 1.0658632191752502e-16 -5.916421273348803e-17 1.0658632191752502e-16 0.716228550000062 -0.6978657923731657
12633328000.0 0.708373782955089 -0.7058375051112786 -5.794692012506038e-17 1.0722590456411713e-16 -5.794692012506038e-17 1.0722590456411713e-16 0.7083742626227801 -0.7058370237196762
12633945333.333334 0.7004307802829217 -0.7137203388107108 -5.672273083390485e-17 1.078515952364276e-16 -5.672273083390485e-17 1.078515952364276e-16 0.7004312652838753 -0.7137198628402098
12634562666.666666 0.6924000624148997 -0.7215137930543403 -5.549180328183908e-17 1.0846331977095177e-16 -5.549180328183908e-17 1.0846331977095177e-16 0.6924005526878606 -0.721513322564014
12635180000.0 0.6842826350407418 -0.7292168918651818 -5.425429668580065e-17 1.0906100580950322e-16 -5.425429668580065e-17 1.0906100580950322e-16 0.6842831305238015 -0.7292164269134122
12635797333.333334 0.6760795147088284 -0.7368286705814941 -5.301037103728261e-17 1.0964458280771296e-16 -5.301037103728261e-17 1.0964458280771296e-16 0.6760800153394312 -0.7368282112259632
12636414666.666666 0.6677917286989601 -0.7443481759775272 -5.176018708169428e-17 1.1021398204328765e-16 -5.176018708169428e-17 1.1021398204328765e-16 0.6677922344139114 -0.7443477222752101
12637032000.0 0.6594203148935658 -0.7517744663830294 -5.050390629761814e-17 1.1076913662403944e-16 -5.050390629761814e-17 1.1076913662403944e-16 0.6594208256290414 -0.7517740183901883
12637649333.333334 0.6509663216478968 -0.7591066118010211 -4.92416908759823e-17 1.1130998149568105e-16 -4.92416908759823e-17 1.1130998149568105e-16 0.6509668373394494 -0.7591061695731978
12638266666.666666 0.6424308076585911 -0.7663436940243901 -4.797370369916544e-17 1.1183645344937564e-16 -4.797370369916544e-17 1.1183645344937564e-16 0.6424313282411607 -0.7663432576164003
12638884000.0 0.6338148418311809 -0.7734848067508069 -4.6700108320009964e-17 1.1234849112905559e-16 -4.6700108320009964e-17 1.1234849112905559e-16 0.6338153672390994 -0.7734843762167299
12639501333.333334 0.6251195031461638 -0.7805290556962705 -4.542106894075807e-17 1.1284603503850312e-16 -4.542106894075807e-17 1.1284603503850312e-16 0.6251200333131658 -0.7805286310894459
12640118666.666666 0.6163458805241273 -0.7874755587069081 -4.413675039193556e-17 1.1332902754818166e-16 -4.413675039193556e-17 1.1332902754818166e-16 0.6163464153833585 -0.7874751400799284
12640736000.0 0.6074950726887818 -0.7943234458699233 -4.284731811109012e-17 1.1379741290185631e-16 -4.284731811109012e-17 1.1379741290185631e-16 0.607495612172807 -0.794323033274627
12641353333.333334 0.5985681880302168 -0.8010718596218693 -4.155293812160627e-17 1.1425113722291904e-16 -4.155293812160627e-17 1.1425113722291904e-16 0.5985687320710278 -0.8010714531093343
12641970666.666666 0.5895663444653791 -0.8077199548566012 -4.0253777011275886e-17 1.1469014852053818e-16 -4.0253777011275886e-17 1.1469014852053818e-16 0.5895668929944027 -0.8077195544771368
12642588000.0 0.5804906692984094 -0.814266899030842 -3.895000191093808e-17 1.1511439669551658e-16 -3.895000191093808e-17 1.1511439669551658e-16 0.5804912222465193 -0.8142665048339887
12643205333.333334 0.5713422990794313 -0.8207118722684876 -3.7641780473006884e-17 1.1552383354592671e-16 -3.7641780473006884e-17 1.1552383354592671e-16 0.5713428563769538 -0.8207114843030047
12643822666.666666 0.5621223794621018 -0.8270540674633566 -3.632928084993396e-17 1.1591841277250372e-16 -3.632928084993396e-17 1.1591841277250372e-16 0.5621229410388241 -0.8270536857772173
12644440000.0 0.5528320650603464 -0.8332926903801156 -3.5012671672642504e-17 1.1629808998378542e-16 -3.5012671672642504e-17 1.1629808998378542e-16 0.5528326308455279 -0.8332923150205032
12645057333.333334 0.5434725193036088 -0.8394269597538588 -3.369212202890577e-17 1.1666282270101038e-16 -3.369212202890577e-17 1.1666282270101038e-16 0.5434730892259891 -0.8394265907671608
12645674666.666666 0.5340449142912466 -0.8454561073878833 -3.2367801441645996e-17 1.1701257036277904e-16 -3.2367801441645996e-17 1.1701257036277904e-16 0.5340454882790535 -0.8454557448196832
12646292000.0 0.5245504306455332 -0.8513793782500276 -3.103987984719609e-17 1.1734729432946504e-16 -3.103987984719609e-17 1.1734729432946504e-16 0.5245510086264923 -0.8513790221451003
12646909333.333334 0.5149902573642149 -0.8571960305669624 -2.970852757356756e-17 1.1766695788736828e-16 -2.970852757356756e-17 1.1766695788736828e-16 0.5149908392655597 -0.8571956809692709
12647526666.666666 0.5053655916712309 -0.8629053359173325 -2.8373915318603734e-17 1.17971526252641e-16 -2.8373915318603734e-17 1.17971526252641e-16 0.50536617741971 -0.8629049928700192
12648144000.0 0.4956776388668998 -0.8685065793228937 -2.703621412813088e-17 1.18260966574956e-16 -2.703621412813088e-17 1.18260966574956e-16 0.4956782283887878 -0.8685062428682766
12648761333.333334 0.4859276121770553 -0.8739990593380081 -2.569559537408069e-17 1.1853524794092726e-16 -2.569559537408069e-17 1.1853524794092726e-16 0.48592820539816195 -0.8739987295175773
12649378666.666666 0.4761167326010901 -0.8793820881375054 -2.4352230732583143e-17 1.1879434137728255e-16 -2.4352230732583143e-17 1.1879434137728255e-16 0.4761173294467686 -0.8793817649919147
12649996000.0 0.4662462287590245 -0.8846549916028315 -2.3006292161978734e-17 1.1903821985379835e-16 -2.3006292161978734e-17 1.1903821985379835e-16 0.46624682915418125 -0.8846546751718942
12650613333.333334 0.4563173367375694 -0.8898171094065063 -2.1657951880863877e-17 1.1926685828597361e-16 -2.1657951880863877e-17 1.1926685828597361e-16 0.4563179406066741 -0.8898167997291925
12651230666.666666 0.44633129993553333 -0.8948677950947137 -2.030738234609861e-17 1.1948023353745871e-16 -2.030738234609861e-17 1.1948023353745871e-16 0.4463319072026283 -0.8948674922091441
12651848000.0 0.43628936890783365 -0.8998064161684011 -1.8954756230748388e-17 1.196783244222434e-16 -1.8954756230748388e-17 1.196783244222434e-16 0.43628997949654236 -0.8998061201118408
12652465333.333334 0.426192801209089 -0.9046323541623799 -1.7600246402067965e-17 1.1986111170658477e-16 -1.7600246402067965e-17 1.1986111170658477e-16 0.4261934150426264 -0.9046320649712353
12653082666.666666 0.41604286123624024 -0.90934500472273 -1.6244025899455906e-17 1.2002857811068985e-16 -1.6244025899455906e-17 1.2002857811068985e-16 0.4160434782374235 -0.9093447224325458
12653700000.0 0.40584082006979927 -0.9139437776826812 -1.488626791232742e-17 1.2018070831015823e-16 -1.488626791232742e-17 1.2018070831015823e-16 0.4058414401610563 -0.913943502328135
12654317333.333334 0.395587955315135 -0.9184280971363021 -1.3527145758092778e-17 1.2031748893715955e-16 -1.3527145758092778e-17 1.2031748893715955e-16 0.395588578418513 -0.9184278287511967
12654934666.666666 0.38528555094219186 -0.9227974015107494 -1.2166832860029094e-17 1.204389085813747e-16 -1.2166832860029094e-17 1.204389085813747e-16 0.3852861769793697 -0.9227971401280134
12655552000.0 0.37493489712469813 -0.9270511436365908 -1.0805502725181313e-17 1.2054495779068275e-16 -1.0805502725181313e-17 1.2054495779068275e-16 0.37493552601699465 -0.9270508892882733
12656169333.333334 0.3645372900788073 -0.9311887908162441 -9.443328922309284e-18 1.2063562907159564e-16 -9.443328922309284e-18 1.2063562907159564e-16 0.36453792174719135 -0.9311885435335089
12656786666.666666 0.3540940319006148 -0.9352098248907488 -8.080485059736112e-18 1.207109168894512e-16 -8.080485059736112e-18 1.207109168894512e-16 0.35409466626571545 -0.935209584703873
12657404000.0 0.34360643040306926 -0.9391137423046682 -6.717144763285855e-18 1.2077081766835055e-16 -6.717144763285855e-18 1.2077081766835055e-16 0.3436070673851856 -0.9391135092430369
12658021333.333334 0.3330757989522472 -0.9429000541691258 -5.353481654186435e-18 1.2081532979084907e-16 -5.353481654186435e-18 1.2081532979084907e-16 0.3330764384713583 -0.9428998282612286
12658638666.666666 0.32250345630298694 -0.9465682863229926 -3.989669327009233e-18 1.208444535973976e-16 -3.989669327009233e-18 1.208444535973976e-16 0.3225040982787618 -0.9465680675964204
12659256000.0 0.31189072643344506 -0.9501179793923681 -2.625881327569158e-18 1.2085819138553672e-16 -2.625881327569158e-18 1.2085819138553672e-16 0.3118913707852536 -0.9501177678738114
12659873333.333334 0.30123893837964494 -0.9535486888479912 -1.2622911309013565e-18 1.208565474088398e-16 -1.2622911309013565e-18 1.208565474088398e-16 0.3012395850265669 -0.9535484845632343
12660490666.666666 0.29054942606887835 -0.9568599850609613 1.0092788075822945e-19 1.208395278756101e-16 1.0092788075822945e-19 1.208395278756101e-16 0.2905500749297141 -0.9568597880348806
12661108000.0 0.2798235281524954 -0.9600514533565937 1.4636024400406035e-18 1.2080714094732815e-16 1.4636024400406035e-18 1.2080714094732815e-16 0.2798241791457757 -0.9600512636131527
12661725333.333334 0.2690625878386168 -0.9631226940662365 2.8255594163714837e-18 1.207593967368531e-16 2.8255594163714837e-18 1.207593967368531e-16 0.26906324088261363 -0.963122511628486
12662342666.666666 0.25826795272359687 -0.9660733225774222 4.186625837976136e-18 1.2069630730637445e-16 4.186625837976136e-18 1.2069630730637445e-16 0.2582686077363336 -0.9660731474674962
12662960000.0 0.24744097462351103 -0.9689029693819637 5.546628913797081e-18 1.20617886665119e-16 5.546628913797081e-18 1.20617886665119e-16 0.24744163152277188 -0.9689028016210747
12663577333.333334 0.2365830094046728 -0.971611280122275 6.905396055404267e-18 1.2052415076680894e-16 6.905396055404267e-18 1.2052415076680894e-16 0.2365836681080146 -0.9716111197307158
12664194666.666666 0.22569541681395117 -0.9741979156357274 8.262754898850439e-18 1.204151175068766e-16 8.262754898850439e-18 1.204151175068766e-16 0.22569607723871193 -0.974197762632863
12664812000.0 0.21477956030845835 -0.9766625519971187 9.618533326523617e-18 1.202908067194296e-16 9.618533326523617e-18 1.202908067194296e-16 0.21478022237176933 -0.9766624064013891
12665429333.333334 0.20383680688475003 -0.9790048805592583 1.0972559488928946e-17 1.2015124017397338e-16 1.0972559488928946e-17 1.2015124017397338e-16 0.2038374705035452 -0.979004742388174
12666046666.666666 0.19286852690788586 -0.9812246079915652 1.2324661826424624e-17 1.1999644157189008e-16 1.2324661826424624e-17 1.1999644157189008e-16 0.19286919199891234 -0.9812244772617046
12666664000.0 0.1818760939393446 -0.9833214563168985 1.3674669090963606e-17 1.1982643654266694e-16 1.3674669090963606e-17 1.1982643654266694e-16 0.18187676041917333 -0.9833213330439068
12667281333.333334 0.17086088456551393 -0.985295162946266 1.502241036770539e-17 1.1964125263989019e-16 1.502241036770539e-17 1.1964125263989019e-16 0.17086155235055026 -0.9852950471448537
12667898666.666666 0.15982427822499418 -0.9871454807117735 1.636771509664188e-17 1.194409193369894e-16 1.636771509664188e-17 1.194409193369894e-16 0.15982494723148788 -0.9871453723957132
12668516000.0 0.14876765703582087 -0.988872177897574 1.7710413094169404e-17 1.192254680227373e-16 1.7710413094169404e-17 1.192254680227373e-16 0.14876832717987717 -0.9888720770797
12669133333.333334 0.13769240562274737 -0.9904750382688289 1.9050334574540256e-17 1.189949319965186e-16 1.9050334574540256e-17 1.189949319965186e-16 0.13769307682033716 -0.990474944961036
12669750666.666666 0.12659991094339876 -0.9919538610988629 2.0387310171336432e-17 1.1874934646334452e-16 2.0387310171336432e-17 1.1874934646334452e-16 0.126600583110369 -0.9919537753121025
12670368000.0 0.11549156211480623 -0.993308461194256 2.172117095883435e-17 1.1848874852863457e-16 2.172117095883435e-17 1.1848874852863457e-16 0.11549223516689094 -0.9933083829385386
