! Parameters = {f0=12700.012000; bw=77.238000; Q=6100.000000; N=10; m_0_1=1.321216; m_1_1=1.053498; m_1_2=1.156028; m_2_2=1.052849; m_2_3=0.792991; m_2_8=0.003125; m_2_9=0.039829; m_3_3=1.050912; m_3_4=0.681520; m_3_7=0.003725; m_3_8=-0.093363; m_3_9=0.003125; m_4_4=1.047987; m_4_5=0.517855; m_4_6=0.007242; m_4_7=-0.113912; m_4_8=0.003725; m_5_5=1.048369; m_5_6=0.925210; m_5_7=0.007242; m_6_6=1.048368; m_6_7=0.518197; m_7_7=1.048001; m_7_8=0.681638; m_8_8=1.050910; m_8_9=0.793304; m_9_9=1.052844; m_9_10=1.157106; m_10_10=1.053488; m_10_11=1.322011}
!
! Created with skrf (http://scikit-rf.org).
# Hz S RI R 50.0 
!freq ReS11 ImS11 ReS21 ImS21 ReS12 ImS12 ReS22 ImS22
12607400000.0 0.32446376977960756 0.9458981245885923 -8.11577185609314e-17 -1.1405326031761688e-16 -8.11577185609314e-17 -1.1405326031761688e-16 0.3244631114360411 0.945898350414595
12608017333.333334 0.33582579646657135 0.9419241128813951 -8.251853564446083e-17 -1.1303866604654395e-16 -8.251853564446083e-17 -1.1303866604654395e-16 0.33582514092100146 0.9419243466039079
12608634666.666666 0.34713916588203747 0.9378136272791799 -8.38666870788106e-17 -1.120078488326195e-16 -8.38666870788106e-17 -1.120078488326195e-16 0.3471385132291665 0.9378138688635675
12609252000.0 0.358402238849881 0.9335672633437833 -8.520197962890656e-17 -1.1096096657089908e-16 -8.520197962890656e-17 -1.1096096657089908e-16 0.35840158918398324 0.9335675127542756
12609869333.333334 0.3696133834812984 0.9291856363242575 -8.65242220254983e-17 -1.0989817945606499e-16 -8.65242220254983e-17 -1.0989817945606499e-16 0.36961273689620544 0.9291858935239522
12610486666.666666 0.38077097541119687 0.9246693810677501 -8.783322499249484e-17 -1.088196499579864e-16 -8.783322499249484e-17 -1.088196499579864e-16 0.380770332000285 0.924669646018621
12611104000.0 0.3918733980339146 0.9200191519273734 -8.912880127404654e-17 -1.0772554279691508e-16 -8.912880127404654e-17 -1.0772554279691508e-16 0.3918727578900917 0.9200194245902759
12611721333.333334 0.40291904273689716 0.9152356226676228 -9.041076566121071e-17 -1.0661602491844728e-16 -9.041076566121071e-17 -1.0661602491844728e-16 0.4029184059525886 0.915235903002299
12612338666.666666 0.413906309134213 0.9103194863665738 -9.167893501842366e-17 -1.0549126546807305e-16 -9.167893501842366e-17 -1.0549126546807305e-16 0.41390567580134774 0.9103197743316568
12612956000.0 0.42483360529834857 0.9052714553154848 -9.293312830959516e-17 -1.0435143576546212e-16 -9.293312830959516e-17 -1.0435143576546212e-16 0.4248329755083471 0.9052717508685074
12613573333.333334 0.43569934799057836 0.9000922609157325 -9.417316662386208e-17 -1.0319670927846273e-16 -9.417316662386208e-17 -1.0319670927846273e-16 0.43569872183433855 0.9000925640131312
12614190666.666666 0.44650196289066685 0.8947826535726935 -9.539887320108674e-17 -1.0202726159673334e-16 -9.539887320108674e-17 -1.0202726159673334e-16 0.44650134045855183 0.894782964169818
12614808000.0 0.45723988482491784 0.8893434025870459 -9.661007345698886e-17 -1.0084327040511088e-16 -9.661007345698886e-17 -1.0084327040511088e-16 0.45723926620674193 0.8893437206381622
12615425333.333334 0.4679115579927968 0.8837752960433796 -9.780659500793513e-17 -9.964491545669128e-17 -9.780659500793513e-17 -9.964491545669128e-17 0.4679109432778125 0.8837756215016778
12616042666.666666 0.4785154361925503 0.8780791406959074 -9.89882676954373e-17 -9.84323785455796e-17 -9.89882676954373e-17 -9.84323785455796e-17 0.4785148254694366 0.8780794735135103
12616660000.0 0.48904998304503183 0.8722557618516845 -1.0015492361026719e-16 -9.720584347939414e-17 -1.0015492361026719e-16 -9.720584347939414e-17 0.48904937640188106 0.8722561019796538
12617277333.333334 0.49951367221653203 0.8663060032509093 -1.0130639711628009e-16 -9.596549605143845e-17 -1.0130639711628009e-16 -9.596549605143845e-17 0.49951306974083554 0.8663063506392503
12617894666.666666 0.5099049876396007 0.8602307269448516 -1.0244252487383355e-16 -9.471152401265457e-17 -1.0244252487383355e-16 -9.471152401265457e-17 0.5099043894182387 0.8602310815425248
12618512000.0 0.5202224237331796 0.8540308131706879 -1.035631458629469e-16 -9.34441170432075e-17 -1.035631458629469e-16 -9.34441170432075e-17 0.5202218298524067 0.8540311749256129
12619129333.333334 0.5304644856202245 0.8477071602242603 -1.0466810140600054e-16 -9.216346672391681e-17 -1.0466810140600054e-16 -9.216346672391681e-17 0.5304638961656587 0.8477075290833261
12619746666.666666 0.5406296893446189 0.8412606843297441 -1.0575723519018858e-16 -9.086976650730249e-17 -1.0575723519018858e-16 -9.086976650730249e-17 0.5406291044012284 0.841261060238815
12620364000.0 0.5507165620862476 0.8346923195068425 -1.0683039328954605e-16 -8.956321168844346e-17 -1.0683039328954605e-16 -8.956321168844346e-17 0.5507159817383379 0.834692702410766
12620981333.333334 0.5607236423740104 0.8280030174357044 -1.078874241866364e-16 -8.824399937555723e-17 -1.078874241866364e-16 -8.824399937555723e-17 0.560723066705214 0.8280034072783211
12621598666.666666 0.570649480298002 0.8211937473187616 -1.0892817879388315e-16 -8.69123284603145e-17 -1.0892817879388315e-16 -8.69123284603145e-17 0.5706489093912644 0.8211941440429115
12622216000.0 0.5804926377193003 0.8142654957404853 -1.0995251047453848e-16 -8.55683995879e-17 -1.0995251047453848e-16 -8.55683995879e-17 0.5804920716568699 0.8142658992880181
12622833333.333334 0.590251688478457 0.8072192665243685 -1.1096027506326435e-16 -8.421241512685293e-17 -1.1096027506326435e-16 -8.421241512685293e-17 0.5902511273418718 0.8072196768361498
12623450666.666666 0.5999252186021066 0.8000560805874947 -1.1195133088635207e-16 -8.284457913865311e-17 -1.1195133088635207e-16 -8.284457913865311e-17 0.5999246624721833 0.8000564976034168
12624068000.0 0.6095118265077889 0.792776975792655 -1.1292553878158674e-16 -8.146509734704499e-17 -1.1292553878158674e-16 -8.146509734704499e-17 0.6095112754646108 0.7927773994516447
12624685333.333334 0.6190101232072269 0.7853830067978195 -1.1388276211771503e-16 -8.007417710715411e-17 -1.1388276211771503e-16 -8.007417710715411e-17 0.6190095773301318 0.7853834370378462
12625302666.666666 0.6284187325071674 0.7778752449036382 -1.1482286681350766e-16 -7.867202737441586e-17 -1.1482286681350766e-16 -7.867202737441586e-17 0.6284181918747381 0.7778756816617253
12625920000.0 0.6377362912092925 0.7702547778978235 -1.157457213565178e-16 -7.72588586731669e-17 -1.157457213565178e-16 -7.72588586731669e-17 0.6377357558993443 0.770255221110056
12626537333.333334 0.6469614493072637 0.7625227098979112 -1.1665119682135863e-16 -7.58348830651586e-17 -1.1665119682135863e-16 -7.58348830651586e-17 0.646960919396832 0.7625231594994442
12627154666.666666 0.6560928701825225 0.7546801611911288 -1.1753916688766088e-16 -7.440031411775934e-17 -1.1753916688766088e-16 -7.440031411775934e-17 0.6560923457478538 0.7546806171161995
12627772000.0 0.6651292307981447 0.7467282680719127 -1.1840950785763845e-16 -7.295536687194627e-17 -1.1840950785763845e-16 -7.295536687194627e-17 0.6651287119146841 0.7467287302538469
12628389333.333334 0.6740692218900792 0.7386681826776574 -1.1926209867319934e-16 -7.150025781019435e-17 -1.1926209867319934e-16 -7.150025781019435e-17 0.6740687086324609 0.7386686510488825
12629006666.666666 0.6829115481573393 0.7305010728213583 -1.2009682093275367e-16 -7.003520482401804e-17 -1.2009682093275367e-16 -7.003520482401804e-17 0.6829110405993754 0.7305015473134117
12629624000.0 0.6916549284492725 0.7222281218227661 -1.2091355890753811e-16 -6.856042718146016e-17 -1.2091355890753811e-16 -6.856042718146016e-17 0.6916544266639412 0.7222286023663039
12630241333.333334 0.7002980959514788 0.7138505283366701 -1.217121995576083e-16 -6.707614549427964e-17 -1.217121995576083e-16 -6.707614549427964e-17 0.7002976000109147 0.7138510148614786
12630858666.666666 0.7088397983690671 0.7053695061794989 -1.2249263254737451e-16 -6.558258168505016e-17 -1.2249263254737451e-16 -6.558258168505016e-17 0.7088393083445517 0.7053699986145058
12631476000.0 0.717278798108487 0.6967862841530782 -1.232547502607967e-16 -6.407995895396491e-17 -1.232547502607967e-16 -6.407995895396491e-17 0.7172783140704377 0.6967867824263608
12632093333.333334 0.725613872456436 0.6881021058669888 -1.2399844781610086e-16 -6.256850174560224e-17 -1.2399844781610086e-16 -6.256850174560224e-17 0.725613394474396 0.6881026099057864
12632710666.666666 0.7338438137572015 0.6793182295582062 -1.2472362308014268e-16 -6.104843571542079e-17 -1.2472362308014268e-16 -6.104843571542079e-17 0.7338433418998292 0.6793187392889292
12633328000.0 0.7419674295877885 0.6704359279086264 -1.2543017668235555e-16 -5.951998769609548e-17 -1.2543017668235555e-16 -5.951998769609548e-17 0.7419669639228489 0.6704364432568682
12633945333.333334 0.7499835429303762 0.6614564878610019 -1.2611801202825672e-16 -5.798338566375802e-17 -1.2611801202825672e-16 -5.798338566375802e-17 0.7499830835247304 0.6614570087515493
12634562666.666666 0.7578909923431061 0.652381210432207 -1.2678703531256272e-16 -5.643885870403647e-17 -1.2678703531256272e-16 -5.643885870403647e-17 0.7578905392627026 0.6523817367890519
12635180000.0 0.765688632128193 0.643211410524928 -1.2743715553189703e-16 -5.488663697793068e-17 -1.2743715553189703e-16 -5.488663697793068e-17 0.7656881854380556 0.6432119422712763
12635797333.333334 0.7733753324980844 0.6339484167369511 -1.2806828449705886e-16 -5.3326951687585504e-17 -1.2806828449705886e-16 -5.3326951687585504e-17 0.7733748922623072 0.6339489537952367
12636414666.666666 0.7809499797389593 0.6245935711689076 -1.2868033684488565e-16 -5.1760035041907664e-17 -1.2868033684488565e-16 -5.1760035041907664e-17 0.7809495460206926 0.6245941134608015
12637032000.0 0.7884114763722512 0.6151482292296203 -1.2927323004970745e-16 -5.0186120222010454e-17 -1.2927323004970745e-16 -5.0186120222010454e-17 0.7884110492336964 0.6151487766760432
12637649333.333334 0.795758741313643 0.6056137594397414 -1.2984688443435096e-16 -4.860544134660255e-17 -1.2984688443435096e-16 -4.860544134660255e-17 0.7957583208160415 0.605614311960875
12638266666.666666 0.8029907100295979 0.5959915432336045 -1.3040122318075073e-16 -4.701823343717949e-17 -1.3040122318075073e-16 -4.701823343717949e-17 0.8029902962332232 0.595992100748903
12638884000.0 0.8101063346917357 0.58628297475889 -1.3093617234011092e-16 -4.5424732383158383e-17 -1.3093617234011092e-16 -4.5424732383158383e-17 0.8101059276558848 0.5862835371870923
12639501333.333334 0.8171045843285485 0.576489460674765 -1.3145166084266464e-16 -4.382517490683566e-17 -1.3145166084266464e-16 -4.382517490683566e-17 0.8171041841115333 0.5764900279339059
12640118666.666666 0.8239844449747306 0.5666124199481472 -1.319476205069781e-16 -4.2219798528322386e-17 -1.319476205069781e-16 -4.2219798528322386e-17 0.8239840516338695 0.5666129919555699
12640736000.0 0.8307449198183992 0.5566532836476693 -1.3242398604887085e-16 -4.060884153023292e-17 -1.3242398604887085e-16 -4.060884153023292e-17 0.8307445334100079 0.5566538603200365
12641353333.333334 0.8373850293450149 0.5466134947370561 -1.3288069508984398e-16 -3.8992542922482554e-17 -1.3288069508984398e-16 -3.8992542922482554e-17 0.8373846499244005 0.5466140759903639
12641970666.666666 0.8439038114797758 0.5364945078653804 -1.3331768816514039e-16 -3.737114240678479e-17 -1.3331768816514039e-16 -3.737114240678479e-17 0.8439034391012262 0.536495093614968
12642588000.0 0.850300321726717 0.5262977891567201 -1.3373490873133753e-16 -3.574488034118131e-17 -1.3373490873133753e-16 -3.574488034118131e-17 0.8502999564434952 0.5262983793172843
12643205333.333334 0.8565736333056876 0.5160248159975481 -1.3413230317351586e-16 -3.411399770446315e-17 -1.3413230317351586e-16 -3.411399770446315e-17 0.8565732751700236 0.516025410483155
12643822666.666666 0.8627228372866403 0.5056770768226481 -1.3450982081199573e-16 -3.2478736060506655e-17 -1.3450982081199573e-16 -3.2478736060506655e-17 0.862722486349724 0.5056776755467458
12644440000.0 0.8687470427212242 0.495256070899629 -1.3486741390864262e-16 -3.083933752253408e-17 -1.3486741390864262e-16 -3.083933752253408e-17 0.8687466990331957 0.4952566737750592
12645057333.333334 0.874645376771928 0.4847633081116003 -1.3520503767272865e-16 -2.9196044717337464e-17 -1.3520503767272865e-16 -2.9196044717337464e-17 0.8746450403818748 0.4847639150506129
12645674666.666666 0.8804169848385247 0.4742003087384606 -1.35522650266368e-16 -2.754910074940692e-17 -1.35522650266368e-16 -2.754910074940692e-17 0.8804166557944709 0.47420091965272476
12646292000.0 0.8860610306820357 0.46356860323634874 -1.3582021280952086e-16 -2.5898749164975546e-17 -1.3582021280952086e-16 -2.5898749164975546e-17 0.8860607090309361 0.46356921803696605
12646909333.333334 0.8915766965456228 0.4528697320163988 -1.3609768938453706e-16 -2.4245233916128968e-17 -1.3609768938453706e-16 -2.4245233916128968e-17 0.8915763823333576 0.45287035061391706
12647526666.666666 0.8969631832733033 0.4421052452211284 -1.3635504704029226e-16 -2.2588799324726863e-17 -1.3635504704029226e-16 -2.2588799324726863e-17 0.8969628765446693 0.44210586752555336
12648144000.0 0.9022197104256765 0.43127670249993655 -1.3659225579586814e-16 -2.092969004636482e-17 -1.3659225579586814e-16 -2.092969004636482e-17 0.9022194112243834 0.43127732842074673
12648761333.333334 0.907345516392931 0.42038567278328554 -1.3680928864379672e-16 -1.9268151034309454e-17 -1.3680928864379672e-16 -1.9268151034309454e-17 0.9073452247615925 0.42038630222944345
12649378666.666666 0.9123398585052183 0.40943373405532885 -1.370061215528705e-16 -1.7604427503372725e-17 -1.370061215528705e-16 -1.7604427503372725e-17 0.9123395744853467 0.40943436693529506
12649996000.0 0.9172020131403497 0.39842247312507306 -1.371827334705163e-16 -1.5938764893738443e-17 -1.371827334705163e-16 -1.5938764893738443e-17 0.9172017367723534 0.39842310934682085
12650613333.333334 0.9219312758285395 0.38735348539670156 -1.3733910632472275e-16 -1.4271408834836013e-17 -1.3733910632472275e-16 -1.4271408834836013e-17 0.9219310071517102 0.38735412486772725
12651230666.666666 0.926526961354458 0.37622837463844333 -1.37475225025533e-16 -1.2602605109169405e-17 -1.37475225025533e-16 -1.2602605109169405e-17 0.9265267004069732 0.3762290172657831
12651848000.0 0.9309884038566628 0.3650487527498681 -1.3759107746610288e-16 -1.0932599616086818e-17 -1.3759107746610288e-16 -1.0932599616086818e-17 0.9309881506755736 0.36504939844010886
12652465333.333334 0.9353149569238915 0.3538162395287575 -1.376866545233122e-16 -9.261638335637267e-18 -1.376866545233122e-16 -9.261638335637267e-18 0.9353147115451214 0.35381688818805196
12653082666.666666 0.9395059936888103 0.3425324624362066 -1.3776195005794088e-16 -7.589967292398164e-18 -1.3776195005794088e-16 -7.589967292398164e-18 0.93950575614715 0.34253311397028696
12653700000.0 0.9435609069188622 0.3311990563607715 -1.378169609144114e-16 -5.917832519232176e-18 -1.378169609144114e-16 -5.917832519232176e-18 0.9435606772479614 0.3311997106749617
12654317333.333334 0.947479109104179 0.3198176633817489 -1.3785168692008289e-16 -4.245480021205733e-18 -1.3785168692008289e-16 -4.245480021205733e-18 0.9474788873365458 0.31981832038097996
12654934666.666666 0.9512600325427358 0.30838993253120855 -1.3786613088411634e-16 -2.5731557393926295e-18 -1.3786613088411634e-16 -2.5731557393926295e-18 0.9512598187097288 0.3083905921200316
12655552000.0 0.9549031294226684 0.29691751955484985 -1.3786029859589694e-16 -9.01105514740247e-19 -1.3786029859589694e-16 -9.01105514740247e-19 0.9549029235544941 0.2969181816374502
12656169333.333334 0.9584078719015061 0.2854020866725356 -1.3783419882302098e-16 7.70424947960922e-19 -1.3783419882302098e-16 7.70424947960922e-19 0.9584076740272134 0.28540275115274644
12656786666.666666 0.961773752182763 0.27384530233710463 -1.3778784330884454e-16 2.4411901162069313e-18 -1.3778784330884454e-16 2.4411901162069313e-18 0.9617735623302411 0.27384596911842146
12657404000.0 0.9650002825894941 0.26224884099268586 -1.3772124676959792e-16 4.110944665749156e-18 -1.3772124676959792e-16 4.110944665749156e-18 0.9650001007854672 0.2622495099782801
12658021333.333334 0.9680869956349133 0.2506143828322272 -1.3763442689106155e-16 5.779443516608516e-18 -1.3763442689106155e-16 5.779443516608516e-18 0.968086821904936 0.25061505392496025
12658638666.666666 0.971033444090151 0.23894361355397284 -1.3752740432481064e-16 7.446441868949749e-18 -1.3752740432481064e-16 7.446441868949749e-18 0.9710332784586065 0.2389442866564106
12659256000.0 0.9738392010490671 0.2272382241171708 -1.3740020268401974e-16 9.111695239021767e-18 -1.3740020268401974e-16 9.111695239021767e-18 0.9738390435391624 0.22723889913159712
12659873333.333334 0.9765038599900941 0.21549991049709852 -1.3725284853884007e-16 1.0774959494900662e-17 -1.3725284853884007e-16 1.0774959494900662e-17 0.9765037106238577 0.21550058732553007
12660490666.666666 0.9790270348350902 0.20373037343955883 -1.3708537141134079e-16 1.2435990892264929e-17 -1.3708537141134079e-16 1.2435990892264929e-17 0.9790268936333679 0.2037310519837588
12661108000.0 0.9814083600053863 0.19193131821396117 -1.3689780377001638e-16 1.4094546110076067e-17 -1.3689780377001638e-16 1.4094546110076067e-17 0.98140822698784 0.19193199837545394
12661725333.333334 0.9836474904746296 0.1801044543668318 -1.36690181023869e-16 1.575038228615215e-17 -1.36690181023869e-16 1.575038228615215e-17 0.9836473656597331 0.18010513604691697
12662342666.666666 0.9857441018188573 0.16825149547373108 -1.3646254151605568e-16 1.7403257052694955e-17 -1.3646254151605568e-16 1.7403257052694955e-17 0.9857439852238931 0.16825217857349764
12662960000.0 0.987697890263482 0.15637415889103046 -1.3621492651710773e-16 1.905292857173064e-17 -1.3621492651710773e-16 1.905292857173064e-17 0.9876977819045433 0.156374843311372
12663577333.333334 0.9895085727272864 0.14447416550725714 -1.3594738021772719e-16 2.0699155570419993e-17 -1.3594738021772719e-16 2.0699155570419993e-17 0.9895084726192687 0.14447485114888498
12664194666.666666 0.9911758868634676 0.1325532394935317 -1.356599497211486e-16 2.2341697376329844e-17 -1.356599497211486e-16 2.2341697376329844e-17 0.9911757950200699 0.1325539262569901
12664812000.0 0.9926995910976132 0.12061310805398046 -1.353526850350856e-16 2.398031395254075e-17 -1.353526850350856e-16 2.398031395254075e-17 0.9926995075313373 0.12061379583966093
12665429333.333334 0.9940794646627452 0.10865550117523105 -1.350256390632429e-16 2.5614765932713118e-17 -1.350256390632429e-16 2.5614765932713118e-17 0.99407938938489 0.1086561898833865
12666046666.666666 0.9953153076312526 0.09668215137612325 -1.3467886759642115e-16 2.724481465595656e-17 -1.3467886759642115e-16 2.724481465595656e-17 0.995315240651918 0.09668284090688291
12666664000.0 0.9964069409439248 0.08469479345615091 -1.3431242930317684e-16 2.8870222201704585e-17 -1.3431242930317684e-16 2.8870222201704585e-17 0.996406882272006 0.08469548370953447
12667281333.333334 0.9973542064358311 0.0726951642447032 -1.3392638572009504e-16 3.049075142431399e-17 -1.3392638572009504e-16 3.049075142431399e-17 0.9973541560790179 0.0726958551206353
12667898666.666666 0.9981569668592742 0.06068500234905034 -1.3352080124161653e-16 3.2106165987666746e-17 -1.3352080124161653e-16 3.2106165987666746e-17 0.9981569248240534 0.06068569374737534
12668516000.0 0.9988151059036785 0.04866604790235439 -1.3309574310945602e-16 3.3716230399600946e-17 -1.3309574310945602e-16 3.3716230399600946e-17 0.9988150721953286 0.04866673972285064
12669133333.333334 0.9993285282124126 0.036640042311997786 -1.326512814016253e-16 3.5320710046132717e-17 -1.326512814016253e-16 3.5320710046132717e-17 0.9993285028350053 0.036640734454392254
12669750666.666666 0.9996971593966345 0.024608728006763007 -1.3218748902101054e-16 3.69193712256641e-17 -1.3218748902101054e-16 3.69193712256641e-17 0.9996971423530363 0.024609420370745833
12670368000.0 0.9999209460460561 0.012573848184686995 -1.317044416835683e-16 3.8511981182930316e-17 -1.317044416835683e-16 3.8511981182930316e-17 0.9999209373379234 0.012574540669925943
