! Parameters = {f0=12700.012000; bw=77.238000; Q=6100.000000; N=10; m_0_1=1.314209; m_1_1=0.948392; m_1_2=1.149021; m_2_2=0.947743; m_2_3=0.785984; m_2_8=0.002774; m_2_9=0.039478; m_3_3=0.945806; m_3_4=0.674513; m_3_7=0.003374; m_3_8=-0.093714; m_3_9=0.002774; m_4_4=0.942881; m_4_5=0.510848; m_4_6=0.006891; m_4_7=-0.114263; m_4_8=0.003374; m_5_5=0.943263; m_5_6=0.918203; m_5_7=0.006891; m_6_6=0.943262; m_6_7=0.511190; m_7_7=0.942895; m_7_8=0.674631; m_8_8=0.945804; m_8_9=0.786297; m_9_9=0.947738; m_9_10=1.150099; m_10_10=0.948382; m_10_11=1.315004}
!
! Created with skrf (http://scikit-rf.org).
# Hz S RI R 50.0 
!freq ReS11 ImS11 ReS21 ImS21 ReS12 ImS12 ReS22 ImS22
12607400000.0 0.6897570836787953 -0.7240408590091678 -6.180663158229781e-17 1.207330447370774e-16 -6.180663158229781e-17 1.207330447370774e-16 0.6897575849467884 -0.7240403814761888
12608017333.333334 0.6811436975483437 -0.732149754688193 -6.03514902786404e-17 1.2143731610976802e-16 -6.03514902786404e-17 1.2143731610976802e-16 0.6811442044054768 -0.7321492831415197
12608634666.666666 0.6724349890309738 -0.7401561899536644 -5.888834573096804e-17 1.2212406133467013e-16 -5.888834573096804e-17 1.2212406133467013e-16 0.6724355014057711 -0.7401557244586981
12609252000.0 0.6636321768635444 -0.7480590443482147 -5.741740888731909e-17 1.227931897344948e-16 -5.741740888731909e-17 1.227931897344948e-16 0.6636326946837653 -0.7480585849695033
12609869333.333334 0.6547364929522534 -0.7558572119100239 -5.593889171973617e-17 1.2344461316928628e-16 -5.593889171973617e-17 1.2344461316928628e-16 0.6547370161449022 -0.7558567587112531
12610486666.666666 0.64574918220022 -0.7635496013276136 -5.4453007193784143e-17 1.2407824604793642e-16 -5.4453007193784143e-17 1.2407824604793642e-16 0.6457497106915563 -0.763549154371598
12611104000.0 0.6366715023331143 -0.7711351360926988 -5.295996923787872e-17 1.2469400533935833e-16 -5.295996923787872e-17 1.2469400533935833e-16 0.6366720360486638 -0.7711346954413737
12611721333.333334 0.6275047237234276 -0.7786127546505998 -5.14599927125967e-17 1.2529181058324676e-16 -5.14599927125967e-17 1.2529181058324676e-16 0.6275052625879913 -0.7786123203650112
12612338666.666666 0.618250129212473 -0.7859814105489844 -4.995329337974901e-17 1.2587158390051961e-16 -4.995329337974901e-17 1.2587158390051961e-16 0.6182506731501398 -0.7859809826892821
12612956000.0 0.608909013930857 -0.7932400725843106 -4.8440087871386834e-17 1.2643325000336565e-16 -4.8440087871386834e-17 1.2643325000336565e-16 0.6089095628650129 -0.7932396512097396
12613573333.333334 0.5994826851174337 -0.8003877249459808 -4.692059365876532e-17 1.2697673620489628e-16 -4.692059365876532e-17 1.2697673620489628e-16 0.5994832389707733 -0.8003873101148725
12614190666.666666 0.5899724619361186 -0.8074233673586902 -4.539502902106348e-17 1.2750197242847602e-16 -4.539502902106348e-17 1.2750197242847602e-16 0.5899730206306553 -0.8074229591284554
12614808000.0 0.5803796752914796 -0.814346015222256 -4.386361301410958e-17 1.2800889121663748e-16 -4.386361301410958e-17 1.2800889121663748e-16 0.5803802387485576 -0.8143456136493755
12615425333.333334 0.5707056676423283 -0.8211546997495262 -4.232656543896513e-17 1.2849742773963734e-16 -4.232656543896513e-17 1.2849742773963734e-16 0.5707062357826324 -0.8211543048895436
12616042666.666666 0.5609517928139381 -0.8278484681018865 -4.078410681042304e-17 1.28967519803634e-16 -4.078410681042304e-17 1.28967519803634e-16 0.5609523655575049 -0.8278480800093999
12616660000.0 0.5511194158085607 -0.8344263835226218 -3.923645832541607e-17 1.2941910785848618e-16 -3.923645832541607e-17 1.2941910785848618e-16 0.5511199930747925 -0.834426002251279
12617277333.333334 0.5412099126143812 -0.8408875254680288 -3.7683841831337777e-17 1.2985213500517583e-16 -3.7683841831337777e-17 1.2985213500517583e-16 0.5412104943220537 -0.8408871510705163
12617894666.666666 0.5312246700130714 -0.8472309897361606 -3.61264797943053e-17 1.3026654700284455e-16 -3.61264797943053e-17 1.3026654700284455e-16 0.5312252560803471 -0.847230622264198
12618512000.0 0.5211650853854318 -0.8534558885935503 -3.456459526728388e-17 1.306622922754676e-16 -3.456459526728388e-17 1.306622922754676e-16 0.5211656757298716 -0.8534555280978835
12619129333.333334 0.5110325665162676 -0.8595613508991705 -3.2998411858251746e-17 1.310393219181165e-16 -3.2998411858251746e-17 1.310393219181165e-16 0.5110331610548414 -0.859560997429564
12619746666.666666 0.5008285313970171 -0.8655465222265741 -3.142815369817641e-17 1.3139758970287366e-16 -3.142815369817641e-17 1.3139758970287366e-16 0.5008291300461164 -0.8655461758318045
12620364000.0 0.4905544080272816 -0.871410564983472 -2.9854045408980505e-17 1.317370520843482e-16 -2.9854045408980505e-17 1.317370520843482e-16 0.4905550107027304 -0.8714102257113204
12620981333.333334 0.48021163421542895 -0.8771526585286955 -2.827631207152229e-17 1.3205766820479493e-16 -2.827631207152229e-17 1.3205766820479493e-16 0.4802122408324967 -0.877152326425943
12621598666.666666 0.4698016573768876 -0.8827719992873257 -2.6695179193380988e-17 1.3235939989888135e-16 -2.6695179193380988e-17 1.3235939989888135e-16 0.46980226785029966 -0.8827716743997438
12622216000.0 0.45932593433183394 -0.8882678008630047 -2.5110872676706482e-17 1.3264221169804513e-16 -2.5110872676706482e-17 1.3264221169804513e-16 0.4593265485757854 -0.8882674832353529
12622833333.333334 0.4487859311012464 -0.8936392941480354 -2.3523618785976923e-17 1.32906070834478e-16 -2.3523618785976923e-17 1.32906070834478e-16 0.44878654902941223 -0.8936389838240512
12623450666.666666 0.43818312270181564 -0.898885727430966 -2.1933644115743877e-17 1.3315094724471964e-16 -2.1933644115743877e-17 1.3315094724471964e-16 0.4381837442273643 -0.8988854244533613
12624068000.0 0.4275189929395285 -0.9040063665017978 -2.0341175558309128e-17 1.3337681357287165e-16 -2.0341175558309128e-17 1.3337681357287165e-16 0.4275196179751332 -0.9040060709122522
12624685333.333334 0.4167950342017068 -0.9090004947548758 -1.8746440271386985e-17 1.3358364517342338e-16 -1.8746440271386985e-17 1.3358364517342338e-16 0.41679566265955825 -0.909000206594031
12625302666.666666 0.4060127472487738 -0.9138674132888835 -1.714966564578345e-17 1.337714201136866e-16 -1.714966564578345e-17 1.337714201136866e-16 0.40601337904059226 -0.9138671325963377
12625920000.0 0.39517364100355945 -0.9186064410049611 -1.555107927295589e-17 1.3394011917585593e-16 -1.555107927295589e-17 1.3394011917585593e-16 0.3951742760406076 -0.918606167819264
12626537333.333334 0.3842792323406275 -0.9232169147017991 -1.3950908912686492e-17 1.3408972585866844e-16 -1.3950908912686492e-17 1.3408972585866844e-16 0.38427987053372226 -0.9232166490604451
12627154666.666666 0.3733310458738161 -0.9276981891685324 -1.2349382460630162e-17 1.342202263786898e-16 -1.2349382460630162e-17 1.342202263786898e-16 0.37333168713334175 -0.9276979311079574
12627772000.0 0.3623306137427168 -0.9320496372750957 -1.074672791589376e-17 1.3433160967120843e-16 -1.074672791589376e-17 1.3433160967120843e-16 0.36233125797863697 -0.9320493868306712
12628389333.333334 0.35127947539862997 -0.9362706500598401 -9.143173348670781e-18 1.3442386739074012e-16 -9.143173348670781e-18 1.3442386739074012e-16 0.3512801225205008 -0.9362704072658676
12629006666.666666 0.3401791773887295 -0.9403606368149081 -7.538946867771558e-18 1.3449699391115355e-16 -7.538946867771558e-18 1.3449699391115355e-16 0.34017982730571195 -0.9403604017046162
12629624000.0 0.3290312731399236 -0.9443190251687893 -5.934276588260045e-18 1.3455098632540367e-16 -5.934276588260045e-18 1.3455098632540367e-16 0.329031925760797 -0.9443187977743286
12630241333.333334 0.3178373227412757 -0.9481452611664898 -4.329390599037407e-18 1.3458584444488272e-16 -4.329390599037407e-18 1.3458584444488272e-16 0.3178379779744489 -0.9481450415189259
12630858666.666666 0.3065988927259446 -0.951838809346959 -2.7245169304878363e-18 1.3460157079838287e-16 -2.7245169304878363e-18 1.3460157079838287e-16 0.30659955047947085 -0.9518385974762725
12631476000.0 0.29531755585150193 -0.9553991528181854 -1.1198835220803553e-18 1.3459817063067696e-16 -1.1198835220803553e-18 1.3459817063067696e-16 0.2953182160330904 -0.9553989487532654
12632093333.333334 0.2839948908802889 -0.958825793329374 4.842818099158717e-19 1.345756519007101e-16 4.842818099158717e-19 1.345756519007101e-16 0.28399555339731786 -0.9588255970980137
12632710666.666666 0.27263248235829046 -0.9621182513407422 2.087751404735838e-18 1.3453402527941047e-16 2.087751404735838e-18 1.3453402527941047e-16 0.27263314711782033 -0.962118062969636
12633328000.0 0.2612319203932484 -0.9652760660906634 3.690297789445632e-18 1.3447330414711198e-16 3.690297789445632e-18 1.3447330414711198e-16 0.2612325873020352 -0.9652758856054037
12633945333.333334 0.24979480043238023 -0.9682987956600783 5.291693711080959e-18 1.343935045905976e-16 5.291693711080959e-18 1.343935045905976e-16 0.24979546939688835 -0.9682986230851512
12634562666.666666 0.23832272303894186 -0.9711860170343861 6.891712168890996e-18 1.3429464539975616e-16 6.891712168890996e-18 1.3429464539975616e-16 0.23832339396535684 -0.9711858523931681
12635180000.0 0.22681729366837333 -0.9739373261626053 8.490126446449687e-18 1.3417674806385787e-16 8.490126446449687e-18 1.3417674806385787e-16 0.22681796646261576 -0.9739371694773615
12635797333.333334 0.21528012244343267 -0.9765523380139707 1.0086710143744755e-17 1.3403983676744841e-16 1.0086710143744755e-17 1.3403983676744841e-16 0.21528079701117048 -0.9765521893058491
12636414666.666666 0.20371282392908707 -0.9790306866317564 1.1681237209186341e-17 1.338839383858626e-16 1.1681237209186341e-17 1.338839383858626e-16 0.20371350017574963 -0.979030545920788
12637032000.0 0.19211701690637117 -0.9813720251845415 1.3273481971591771e-17 1.3370908248035492e-16 1.3273481971591771e-17 1.3370908248035492e-16 0.192117694737162 -0.9813718924896361
12637649333.333334 0.1804943241459572 -0.9835760260147183 1.48632191720657e-17 1.3351530129285381e-16 1.48632191720657e-17 1.3351530129285381e-16 0.18049500346586744 -0.9835759013536617
12638266666.666666 0.16884637218102944 -0.9856423806843521 1.6450223995828404e-17 1.3330262974033614e-16 1.6450223995828404e-17 1.3330262974033614e-16 0.16884705289485114 -0.9856422640738044
12638884000.0 0.15717479107965976 -0.9875708000183465 1.8034272103964633e-17 1.3307110540882355e-16 1.8034272103964633e-17 1.3307110540882355e-16 0.15717547309199917 -0.9875706914738397
12639501333.333334 0.14548121421663218 -0.9893610141449208 1.9615139665100173e-17 1.3282076854700207e-16 1.9615139665100173e-17 1.3282076854700207e-16 0.1454818974319232 -0.9893609136808564
12640118666.666666 0.13376727804517002 -0.9910127725333302 2.1192603386944877e-17 1.3255166205947318e-16 2.1192603386944877e-17 1.3255166205947318e-16 0.1337679623676876 -0.9910126801629778
12640736000.0 0.12203462186716395 -0.9925258440290364 2.276644054789008e-17 1.3226383149960782e-16 2.276644054789008e-17 1.3226383149960782e-16 0.12203530720103725 -0.9925257597645316
12641353333.333334 0.1102848876048293 -0.9939000168859057 2.4336429028267868e-17 1.3195732506206703e-16 2.4336429028267868e-17 1.3195732506206703e-16 0.11028557385405552 -0.9938999407382484
12641970666.666666 0.09851971957002764 -0.9951350987959653 2.5902347341776084e-17 1.316321935749067e-16 2.5902347341776084e-17 1.316321935749067e-16 0.09852040663848527 -0.9951350307750196
12642588000.0 0.08674076423457638 -0.9962309169162611 2.7463974666624333e-17 1.3128849049134111e-16 2.7463974666624333e-17 1.3128849049134111e-16 0.08674145202603856 -0.9962308570307519
12643205333.333334 0.0749496699997776 -0.9971873178930513 2.902109087663762e-17 1.3092627188112725e-16 2.902109087663762e-17 1.3092627188112725e-16 0.07495035841792573 -0.9971872661505641
12643822666.666666 0.06314808696562006 -0.9980041678832787 3.057347657225601e-17 1.3054559642157685e-16 3.057347657225601e-17 1.3054559642157685e-16 0.06314877591405721 -0.9980041242902594
12644440000.0 0.05133766669996963 -0.9986813525732899 3.2120913111386024e-17 1.3014652538821148e-16 3.2120913111386024e-17 1.3014652538821148e-16 0.051338356082234186 -0.9986813171350434
12645057333.333334 0.03952006200752682 -0.9992187771948317 3.366318264015813e-17 1.297291226450451e-16 3.366318264015813e-17 1.297291226450451e-16 0.039520751727105785 -0.9992187499155208
12645674666.666666 0.02769692669835527 -0.9996163665383222 3.520006812353474e-17 1.292934546345101e-16 3.520006812353474e-17 1.292934546345101e-16 0.02769761665869792 -0.9996163474209692
12646292000.0 0.01586991535635476 -0.9998740649633806 3.673135337587424e-17 1.2883959036699785e-16 3.673135337587424e-17 1.2883959036699785e-16 0.015870605460886027 -0.9998740540098621
12646909333.333334 0.004040683108051748 -0.9999918364065944 3.825682309119756e-17 1.283676014100849e-16 3.825682309119756e-17 1.283676014100849e-16 0.004041373260185882 -0.9999918336176469
12647526666.666666 -0.007789114609310486 -0.9999696643865832 3.97762628734939e-17 1.278775618773501e-16 3.97762628734939e-17 1.278775618773501e-16 -0.007788424506156486 -0.9999696697618002
12648144000.0 -0.019617822279413097 -0.9998075520062983 4.1289459266786465e-17 1.2736954841686322e-16 4.1289459266786465e-17 1.2736954841686322e-16 -0.019617132321805942 -0.9998075655441302
12648761333.333334 -0.0314437845384569 -0.9995055219525862 4.279619978506424e-17 1.2684364019931586e-16 4.279619978506424e-17 1.2684364019931586e-16 -0.03144309482293354 -0.9995055436503433
12649378666.666666 -0.04326534640670807 -0.9990636164930241 4.429627294207524e-17 1.2629991890579445e-16 4.429627294207524e-17 1.2629991890579445e-16 -0.04326465702976213 -0.9990636463468727
12649996000.0 -0.055080853520416105 -0.9984818974699919 4.578946828098421e-17 1.2573846871519647e-16 4.578946828098421e-17 1.2573846871519647e-16 -0.055080164578484386 -0.9984819354749581
12650613333.333334 -0.06688865236313414 -0.9977604462920229 4.727557640384359e-17 1.2515937629130607e-16 4.727557640384359e-17 1.2515937629130607e-16 -0.06688796395258326 -0.9977604924419942
12651230666.666666 -0.07868709049703473 -0.9968993639224196 4.875438900089949e-17 1.2456273076952368e-16 4.875438900089949e-17 1.2456273076952368e-16 -0.07868640271414742 -0.9968994182101418
12651848000.0 -0.09047451679444317 -0.995898770865104 5.022569887978123e-17 1.2394862374323123e-16 5.022569887978123e-17 1.2394862374323123e-16 -0.09047382973540505 -0.995898833282187
12652465333.333334 -0.10224928166864858 -0.9947588071477719 5.168929999445705e-17 1.2331714924983785e-16 5.168929999445705e-17 1.2331714924983785e-16 -0.10224859542953453 -0.9947588776846878
12653082666.666666 -0.11400973730475522 -0.9934796323023003 5.3144987474026904e-17 1.2266840375648145e-16 5.3144987474026904e-17 1.2266840375648145e-16 -0.114009051981516 -0.9934797109483862
12653700000.0 -0.12575423789059567 -0.9920614253423867 5.4592557651427686e-17 1.2200248614535083e-16 5.4592557651427686e-17 1.2200248614535083e-16 -0.12575355357904458 -0.9920615120858459
12654317333.333334 -0.1374811398465456 -0.9905043847385568 5.603180809178552e-17 1.2131949769874535e-16 5.603180809178552e-17 1.2131949769874535e-16 -0.13748045664234496 -0.9905044795664605
12654934666.666666 -0.149188802055957 -0.9888087283903397 5.74625376207527e-17 1.206195420837248e-16 5.74625376207527e-17 1.206195420837248e-16 -0.14918812005460488 -0.9888088312886294
12655552000.0 -0.16087558609485103 -0.9869746935957634 5.888454635256391e-17 1.1990272533646573e-16 5.888454635256391e-17 1.1990272533646573e-16 -0.1608749053916678 -0.9869748045492522
12656169333.333334 -0.17253985646070047 -0.9850025370182215 6.029763571788886e-17 1.1916915584629424e-16 6.029763571788886e-17 1.1916915584629424e-16 -0.17253917715081568 -0.9850026560105977
12656786666.666666 -0.18417998080187242 -0.9828925346504749 6.170160849154888e-17 1.1841894433936112e-16 6.170160849154888e-17 1.1841894433936112e-16 -0.18417930298021123 -0.9828926616643023
12657404000.0 -0.19579433014578487 -0.9806449817760632 6.30962688199799e-17 1.1765220386201477e-16 6.30962688199799e-17 1.1765220386201477e-16 -0.19579365390705508 -0.9806451167927862
12658021333.333334 -0.20738127912695786 -0.9782601929279751 6.448142224851464e-17 1.168690497638419e-16 6.448142224851464e-17 1.168690497638419e-16 -0.20738060456563628 -0.9782603359279182
12658638666.666666 -0.21893920621433463 -0.975738501844654 6.585687574843191e-17 1.1606959968039915e-16 6.585687574843191e-17 1.1606959968039915e-16 -0.21893853342465439 -0.9757386528070282
12659256000.0 -0.2304664939384846 -0.9730802614232369 6.722243774384215e-17 1.1525397351559844e-16 6.722243774384215e-17 1.1525397351559844e-16 -0.23046582301442162 -0.9730804203261402
12659873333.333334 -0.24196152911773663 -0.9702858436702142 6.857791813829725e-17 1.1442229342381206e-16 6.857791813829725e-17 1.1442229342381206e-16 -0.24196086015299662 -0.970286010490636
12660490666.666666 -0.25342270308382575 -0.9673556396494001 6.992312834119034e-17 1.1357468379165995e-16 6.992312834119034e-17 1.1357468379165995e-16 -0.2534220361718311 -0.9673558143632237
12661108000.0 -0.26484841190745856 -0.9642900594270946 7.125788129401492e-17 1.127112712194348e-16 7.125788129401492e-17 1.127112712194348e-16 -0.26484774714133535 -0.9642902420091019
12661725333.333334 -0.2762370566222785 -0.9610895320148233 7.258199149623864e-17 1.1183218450231846e-16 7.258199149623864e-17 1.1183218450231846e-16 -0.2762363940948435 -0.9610897224386965
12662342666.666666 -0.28758704344896335 -0.9577545053092139 7.389527503110635e-17 1.1093755461119356e-16 7.389527503110635e-17 1.1093755461119356e-16 -0.28758638325271063 -0.9577547035475407
12662960000.0 -0.29889678401812736 -0.9542854460293496 7.519754959110593e-17 1.1002751467321808e-16 7.519754959110593e-17 1.1002751467321808e-16 -0.29889612624521605 -0.9542856520536271
12663577333.333334 -0.310164695592633 -0.9506828396514482 7.648863450323343e-17 1.0910219995207709e-16 7.648863450323343e-17 1.0910219995207709e-16 -0.31016404033487466 -0.9506830534320883
12664194666.666666 -0.3213892012890879 -0.9469471903409263 7.776835075401084e-17 1.0816174782794333e-16 7.776835075401084e-17 1.0816174782794333e-16 -0.3213885486379323 -0.9469474118472558
12664812000.0 -0.3325687302985456 -0.9430790208818277 7.903652101425757e-17 1.0720629777714435e-16 7.903652101425757e-17 1.0720629777714435e-16 -0.332568080345069 -0.9430792500820957
12665429333.333334 -0.34370171810625233 -0.9390788726036935 8.029296966361689e-17 1.0623599135153845e-16 8.029296966361689e-17 1.0623599135153845e-16 -0.3437010709411451 -0.939079109465077
12666046666.666666 -0.3547866067106202 -0.9349473053058001 8.153752281481192e-17 1.0525097215761761e-16 8.153752281481192e-17 1.0525097215761761e-16 -0.35478596242417354 -0.9349475497944071
12666664000.0 -0.3658218448414468 -0.930684897178746 8.277000833769669e-17 1.0425138583528684e-16 8.277000833769669e-17 1.0425138583528684e-16 -0.3658212035235403 -0.93068514925962
12667281333.333334 -0.3768058881766615 -0.9262922447236678 8.399025588295935e-17 1.0323738003643401e-16 8.399025588295935e-17 1.0323738003643401e-16 -0.37680524991674985 -0.9262925043607921
12667898666.666666 -0.3877371995587096 -0.9217699626686601 8.519809690566142e-17 1.0220910440314455e-16 8.519809690566142e-17 1.0220910440314455e-16 -0.387736564445812 -0.921770229824966
12668516000.0 -0.3986142492096698 -0.9171186838827481 8.639336468846902e-17 1.0116671054567428e-16 8.639336468846902e-17 1.0116671054567428e-16 -0.3986136173323559 -0.917118958520118
12669133333.333334 -0.4094355149451015 -0.9123390592874187 8.757589436456177e-17 1.0011035202019843e-16 8.757589436456177e-17 1.0011035202019843e-16 -0.4094348863914795 -0.9123393413666915
12669750666.666666 -0.42019948238735455 -0.9074317577654049 8.87455229403796e-17 9.904018430620049e-17 8.87455229403796e-17 9.904018430620049e-17 -0.4201988572450588 -0.9074320472463815
12670368000.0 -0.4309046451772886 -0.9023974660671692 8.990208931801066e-17 9.795636478366696e-17 8.990208931801066e-17 9.795636478366696e-17 -0.43090402353346785 -0.9023977629086193
