! Parameters = {f0=12700.012000; bw=77.238000; Q=6100.000000; N=10; m_0_1=1.297392; m_1_1=0.696140; m_1_2=1.132204; m_2_2=0.695491; m_2_3=0.769167; m_2_8=0.001933; m_2_9=0.038637; m_3_3=0.693554; m_3_4=0.657696; m_3_7=0.002533; m_3_8=-0.094555; m_3_9=0.001933; m_4_4=0.690629; m_4_5=0.494031; m_4_6=0.006050; m_4_7=-0.115104; m_4_8=0.002533; m_5_5=0.691011; m_5_6=0.901386; m_5_7=0.006050; m_6_6=0.691010; m_6_7=0.494373; m_7_7=0.690643; m_7_8=0.657814; m_8_8=0.693552; m_8_9=0.769480; m_9_9=0.695486; m_9_10=1.133282; m_10_10=0.696130; m_10_11=1.298187}
!
! Created with skrf (http://scikit-rf.org).
# Hz S RI R 50.0 
!freq ReS11 ImS11 ReS21 ImS21 ReS12 ImS12 ReS22 ImS22
12607400000.0 -0.9972065903164914 0.07469281243314672 1.1745803130071735e-16 -4.458358280550094e-17 1.1745803130071735e-16 -4.458358280550094e-17 -0.9972066413682315 0.07469213084995295
12608017333.333334 -0.9962960989279966 0.08598885544459166 1.1691827419285253e-16 -4.5913191621235084e-17 1.1691827419285253e-16 -4.5913191621235084e-17 -0.99629615769762 0.08598817451704771
12608634666.666666 -0.9952576536479446 0.09727385494059078 1.1636347636726513e-16 -4.7236290370149845e-17 1.1636347636726513e-16 -4.7236290370149845e-17 -0.9952577201271482 0.09727317475607945
12609252000.0 -0.9940913878435198 0.10854636159338221 1.1579371607704222e-16 -4.8552709027679705e-17 1.1579371607704222e-16 -4.8552709027679705e-17 -0.9940914620230108 0.10854568223918225
12609869333.333334 -0.9927974512978373 0.1198049276796844 1.1520907349591594e-16 -4.986227850701361e-17 1.1520907349591594e-16 -4.986227850701361e-17 -0.9927975331673358 0.11980424924295945
12610486666.666666 -0.9913760101907291 0.13104810726648608 1.1460963070707168e-16 -5.1164830680743014e-17 1.1460963070707168e-16 -5.1164830680743014e-17 -0.9913760997389678 0.1310474298342733
12611104000.0 -0.9898272470773563 0.1422744563970564 1.1399547169166528e-16 -5.246019840248044e-17 1.1399547169166528e-16 -5.246019840248044e-17 -0.9898273442920845 0.1422737800562557
12611721333.333334 -0.9881513608648218 0.15348253327599795 1.133666823171705e-16 -5.37482155281792e-17 1.133666823171705e-16 -5.37482155281792e-17 -0.988151465732803 0.15348185811336026
12612338666.666666 -0.9863485667865793 0.16467089845469662 1.1272335032541444e-16 -5.502871693746996e-17 1.1272335032541444e-16 -5.502871693746996e-17 -0.9863486792935982 0.16467022455681338
12612956000.0 -0.9844190963747959 0.17583811501619004 1.1206556532040177e-16 -5.630153855479005e-17 1.1206556532040177e-16 -5.630153855479005e-17 -0.9844192165056553 0.1758374424694815
12613573333.333334 -0.9823631974306524 0.18698274875945692 1.1139341875593107e-16 -5.756651737031161e-17 1.1139341875593107e-16 -5.756651737031161e-17 -0.9823633251691785 0.18698207765016142
12614190666.666666 -0.9801811339924679 0.19810336838391945 1.1070700392291328e-16 -5.88234914608433e-17 1.1070700392291328e-16 -5.88234914608433e-17 -0.980181269321513 0.1981026987980828
12614808000.0 -0.9778731863018394 0.20919854567301394 1.1000641593650472e-16 -6.007230001048703e-17 1.1000641593650472e-16 -6.007230001048703e-17 -0.9778733292032799 0.20919787769647707
12615425333.333334 -0.9754396507676046 0.22026685567780938 1.0929175172298706e-16 -6.131278333118007e-17 1.0929175172298706e-16 -6.131278333118007e-17 -0.9754398012223483 0.22026618939619877
12616042666.666666 -0.9728808399278039 0.2313068768999036 1.0856311000641983e-16 -6.25447828830758e-17 1.0856311000641983e-16 -6.25447828830758e-17 -0.9728809979157891 0.23130621239861932
12616660000.0 -0.9701970824095294 0.24231719147401173 1.0782059129506399e-16 -6.376814129476704e-17 1.0782059129506399e-16 -6.376814129476704e-17 -0.9701972479097297 0.24231652883821705
12617277333.333334 -0.9673887228867178 0.2532963853500912 1.0706429786757634e-16 -6.498270238335191e-17 1.0706429786757634e-16 -6.498270238335191e-17 -0.967388895877144 0.2532957246647014
12617894666.666666 -0.9644561220359157 0.2642430484748089 1.0629433375898927e-16 -6.61883111743186e-17 1.0629433375898927e-16 -6.61883111743186e-17 -0.9644563024936189 0.26424238982448056
12618512000.0 -0.9613996564898794 0.27515577497293625 1.0551080474643733e-16 -6.738481392131356e-17 1.0551080474643733e-16 -6.738481392131356e-17 -0.9613998443909555 0.2751551184420567
12619129333.333334 -0.9582197187893112 0.28603316332752177 1.0471381833470958e-16 -6.857205812566621e-17 1.0471381833470958e-16 -6.857205812566621e-17 -0.9582199141089003 0.28603250900019733
12619746666.666666 -0.9549167173323655 0.2968738165601607 1.0390348374153659e-16 -6.974989255581558e-17 1.0390348374153659e-16 -6.974989255581558e-17 -0.9549169200446572 0.29687316452020635
12620364000.0 -0.9514910763221955 0.3076763424104069 1.0307991188267841e-16 -7.091816726653373e-17 1.0307991188267841e-16 -7.091816726653373e-17 -0.9514912864004352 0.3076756927413364
12620981333.333334 -0.9479432357125538 0.31843935351433733 1.0224321535681585e-16 -7.207673361794819e-17 1.0224321535681585e-16 -7.207673361794819e-17 -0.9479434531290415 0.3184387062993513
12621598666.666666 -0.9442736511512007 0.3291614675830015 1.0139350843018986e-16 -7.322544429444212e-17 1.0139350843018986e-16 -7.322544429444212e-17 -0.9442738758772977 0.3291608229049775
12622216000.0 -0.9404827939214302 0.33984130757981257 1.0053090702105938e-16 -7.436415332333042e-17 1.0053090702105938e-16 -7.436415332333042e-17 -0.9404830259275603 0.3398406655212937
12622833333.333334 -0.9365711508815108 0.3504775018974789 9.965552868393616e-17 -7.549271609337419e-17 9.965552868393616e-17 -7.549271609337419e-17 -0.9365713901371681 0.3504768625406647
12623450666.666666 -0.9325392244022452 0.36106868453394847 9.876749259362523e-17 -7.661098937309331e-17 9.876749259362523e-17 -7.661098937309331e-17 -0.9325394708759936 0.3610680479606827
12624068000.0 -0.9283875323023435 0.37161349526810733 9.786691952904015e-17 -7.771883132891694e-17 9.786691952904015e-17 -7.771883132891694e-17 -0.928387785961826 0.37161286155986917
12624685333.333334 -0.9241166077819059 0.38211057983452745 9.69539318568249e-17 -7.881610154313379e-17 9.69539318568249e-17 -7.881610154313379e-17 -0.9241168685938427 0.3821099490724192
12625302666.666666 -0.9197269993541336 0.3925585900968892 9.60286535147994e-17 -7.990266103162039e-17 9.60286535147994e-17 -7.990266103162039e-17 -0.9197272672843312 0.39255796236162727
12625920000.0 -0.9152192707746252 0.4029561842217832 9.509120999515008e-17 -8.097837226144373e-17 9.509120999515008e-17 -8.097837226144373e-17 -0.9152195457879787 0.40295555959368756
12626537333.333334 -0.9105940009691754 0.41330202685054124 9.414172832748878e-17 -8.204309916819211e-17 9.414172832748878e-17 -8.204309916819211e-17 -0.910594283029675 0.4133014054095251
12627154666.666666 -0.9058517839593525 0.423594789270921 9.318033706168569e-17 -8.309670717314577e-17 9.318033706168569e-17 -8.309670717314577e-17 -0.905852073030085 0.42359417109647973
12627772000.0 -0.9009932287861298 0.43383314958790414 9.220716625047214e-17 -8.413906320028862e-17 9.220716625047214e-17 -8.413906320028862e-17 -0.9009935248292876 0.4338325347591071
12628389333.333334 -0.8960189594318416 0.4440157928931091 9.122234743196436e-17 -8.517003569299698e-17 9.122234743196436e-17 -8.517003569299698e-17 -0.8960192624087235 0.4440151814885871
12629006666.666666 -0.8909296147398567 0.4541414114340465 9.022601361185891e-17 -8.618949463067785e-17 9.022601361185891e-17 -8.618949463067785e-17 -0.8909299246108757 0.4541408035319836
12629624000.0 -0.8857258483326697 0.4642087047817925 8.92182992455661e-17 -8.719731154506728e-17 8.92182992455661e-17 -8.719731154506728e-17 -0.8857261650573577 0.46420810045991506
12630241333.333334 -0.8804083285278833 0.47421637999815636 8.819934022009483e-17 -8.819335953639355e-17 8.819934022009483e-17 -8.819335953639355e-17 -0.880408652064895 0.4742157793337234
12630858666.666666 -0.8749777382524526 0.48416315180157943 8.716927383577644e-17 -8.91775132893083e-17 8.716927383577644e-17 -8.91775132893083e-17 -0.8749780685595729 0.4841625548713729
12631476000.0 -0.869434774954831 0.49404774273247987 8.612823878779111e-17 -9.014964908862437e-17 8.612823878779111e-17 -9.014964908862437e-17 -0.8694351119889792 0.4940471496127945
12632093333.333334 -0.8637801505155589 0.5038688833170155 8.507637514756842e-17 -9.110964483479256e-17 8.507637514756842e-17 -9.110964483479256e-17 -0.8637804942327939 0.5038682940836491
12632710666.666666 -0.8580145911558112 0.5136253122301727 8.401382434396991e-17 -9.205738005920615e-17 8.401382434396991e-17 -9.205738005920615e-17 -0.8580149415113395 0.5136247269584173
12633328000.0 -0.852138837343977 0.5233157764580313 8.29407291443035e-17 -9.299273593928302e-17 8.29407291443035e-17 -9.299273593928302e-17 -0.8521391942921553 0.5233151952226617
12633945333.333334 -0.8461536437007401 0.5329390314583643 8.185723363520848e-17 -9.391559531329496e-17 8.185723363520848e-17 -9.391559531329496e-17 -0.8461540071950834 0.5329384543336302
12634562666.666666 -0.8400597789020794 0.5424938413206234 8.076348320333836e-17 -9.482584269500733e-17 8.076348320333836e-17 -9.482584269500733e-17 -0.8400601488952683 0.5424932683802401
12635180000.0 -0.8338580255805683 0.5519789789246443 7.965962451589844e-17 -9.572336428808076e-17 7.965962451589844e-17 -9.572336428808076e-17 -0.8338584020244515 0.5519784102417817
12635797333.333334 -0.8275491802248373 0.5613932260982645 7.854580550101782e-17 -9.660804800025095e-17 7.854580550101782e-17 -9.660804800025095e-17 -0.8275495630704398 0.5613926617455384
12636414666.666666 -0.8211340530773485 0.5707353737736803 7.742217532797883e-17 -9.747978345727015e-17 7.742217532797883e-17 -9.747978345727015e-17 -0.8211344422748793 0.5707348138231441
12637032000.0 -0.8146134680302437 0.5800042221428702 7.628888438726522e-17 -9.83384620166414e-17 7.628888438726522e-17 -9.83384620166414e-17 -0.8146138635290997 0.5800036666660041
12637649333.333334 -0.8079882625195915 0.5891985808115879 7.514608427048552e-17 -9.918397678109887e-17 7.514608427048552e-17 -9.918397678109887e-17 -0.8079886642683659 0.5891980298792912
12638266666.666666 -0.801259287417821 0.5983172689522696 7.399392775013483e-17 -1.0001622261186718e-16 7.399392775013483e-17 -1.0001622261186718e-16 -0.8012596953643099 0.598316722634851
12638884000.0 -0.7944274069244472 0.6073591154556874 7.283256875921276e-17 -1.0083509614168364e-16 7.283256875921276e-17 -1.0083509614168364e-16 -0.7944278210156553 0.6073585738228565
12639501333.333334 -0.7874934984550619 0.616322959081377 7.166216237069529e-17 -1.0164049578758667e-16 7.166216237069529e-17 -1.0164049578758667e-16 -0.7874939186372095 0.6163224222022337
12640118666.666666 -0.7804584525287526 0.6252076486066385 7.048286477688651e-17 -1.0243232176345251e-16 7.048286477688651e-17 -1.0243232176345251e-16 -0.7804588787472844 0.6252071165496669
12640736000.0 -0.7733231726534365 0.6340120429747702 6.929483326856787e-17 -1.0321047609233623e-16 6.929483326856787e-17 -1.0321047609233623e-16 -0.7733236048530255 0.634011515807827
12641353333.333334 -0.7660885752103154 0.6427350114409877 6.809822621413001e-17 -1.0397486261849349e-16 6.809822621413001e-17 -1.0397486261849349e-16 -0.766089013334874 0.642734489231297
12641970666.666666 -0.7587555893357096 0.6513754337182481 6.689320303843998e-17 -1.0472538701924875e-16 6.689320303843998e-17 -1.0472538701924875e-16 -0.758756033328394 0.6513749165323897
12642588000.0 -0.7513251568019774 0.6599322001208159 6.567992420166991e-17 -1.0546195681655827e-16 6.567992420166991e-17 -1.0546195681655827e-16 -0.751325606605195 0.6599316880247175
12643205333.333334 -0.743798231896526 0.6684042117068226 6.445855117796674e-17 -1.0618448138835046e-16 6.445855117796674e-17 -1.0618448138835046e-16 -0.7437986874519441 0.668403704765752
12643822666.666666 -0.7361757812991799 0.6767903804194906 6.322924643398913e-17 -1.0689287197962487e-16 6.322924643398913e-17 -1.0689287197962487e-16 -0.7361762425477331 0.6767898786980477
12644440000.0 -0.7284587839581254 0.6850896292267652 6.199217340735025e-17 -1.0758704171328698e-16 6.199217340735025e-17 -1.0758704171328698e-16 -0.7284592508400223 0.685089132788873
12645057333.333334 -0.7206482309641636 0.6933008922596586 6.07474964849215e-17 -1.0826690560074684e-16 6.07474964849215e-17 -1.0826690560074684e-16 -0.7206487034188966 0.6933004011685558
12645674666.666666 -0.71274512542343 0.7014231149491407 5.949538098103919e-17 -1.0893238055225671e-16 5.949538098103919e-17 -1.0893238055225671e-16 -0.7127456033897807 0.701422629267373
12646292000.0 -0.7047504823284245 0.7094552541617193 5.82359931155461e-17 -1.0958338538702588e-16 5.82359931155461e-17 -1.0958338538702588e-16 -0.7047509657444723 0.7094547739511311
12646909333.333334 -0.6966653284279128 0.7173962783331433 5.69694999918169e-17 -1.1021984084303249e-16 5.69694999918169e-17 -1.1021984084303249e-16 -0.6966658172310441 0.7173958036548709
12647526666.666666 -0.6884907020948666 0.7252451676010908 5.569606957458965e-17 -1.1084166958662779e-16 5.569606957458965e-17 -1.1084166958662779e-16 -0.688491196221782 0.7252446985155542
12648144000.0 -0.6802276531931203 0.7330009139361267 5.441587066773097e-17 -1.1144879622186497e-16 5.441587066773097e-17 -1.1144879622186497e-16 -0.6802281525798425 0.7330004505030209
12648761333.333334 -0.6718772429426211 0.740662521271084 5.3129072891910135e-17 -1.1204114729956768e-16 5.3129072891910135e-17 -1.1204114729956768e-16 -0.671877747524504 0.7406620635493736
12649378666.666666 -0.6634405437831387 0.7482290056289923 5.1835846662163125e-17 -1.1261865132614814e-16 5.1835846662163125e-17 -1.1261865132614814e-16 -0.6634410534948748 0.7482285536769014
12649996000.0 -0.6549186392364263 0.7556993952495428 5.053636316534527e-17 -1.1318123877217258e-16 5.053636316534527e-17 -1.1318123877217258e-16 -0.6549191540120567 0.7556989491245497
12650613333.333334 -0.646312623767107 0.7630727307138526 4.923079433751791e-17 -1.137288420806567e-16 4.923079433751791e-17 -1.137288420806567e-16 -0.6463131435400278 0.7630722904726817
12651230666.666666 -0.6376236026422821 0.7703480650675347 4.791931284124978e-17 -1.142613956750994e-16 4.791931284124978e-17 -1.142613956750994e-16 -0.637624127345255 0.770347630766149
12651848000.0 -0.6288526917892395 0.7775244639426107 4.6602092042786814e-17 -1.1477883596727418e-16 4.6602092042786814e-17 -1.1477883596727418e-16 -0.6288532213543999 0.7775240356362055
12652465333.333334 -0.620001017652416 0.7846010056772714 4.52793059892008e-17 -1.1528110136473198e-16 4.52793059892008e-17 -1.1528110136473198e-16 -0.62000155201128 0.7846005834202655
12653082666.666666 -0.6110697170487069 0.7915767814342655 4.39511293854294e-17 -1.1576813227805455e-16 4.39511293854294e-17 -1.1576813227805455e-16 -0.611070256132183 0.7915763652802966
12653700000.0 -0.6020599370212437 0.7984508953177973 4.26177375712059e-17 -1.162398711278548e-16 4.26177375712059e-17 -1.162398711278548e-16 -0.6020604807596405 0.7984504853197144
12654317333.333334 -0.5929728346923949 0.8052224644883444 4.1279306497994737e-17 -1.1669626235148358e-16 4.1279306497994737e-17 -1.1669626235148358e-16 -0.5929733830154289 0.8052220606981995
12654934666.666666 -0.5838095771149283 0.811890619276209 3.9936012705776634e-17 -1.1713725240949965e-16 3.9936012705776634e-17 -1.1713725240949965e-16 -0.5838101299517349 0.8118902217452525
12655552000.0 -0.5745713411221286 0.8184545032932106 3.8588033299799157e-17 -1.1756278979186102e-16 3.8588033299799157e-17 -1.1756278979186102e-16 -0.5745718984012707 0.8184541120718846
12656169333.333334 -0.5652593131768637 0.8249132735425206 3.7235545927293055e-17 -1.179728250238401e-16 3.7235545927293055e-17 -1.179728250238401e-16 -0.5652598748263404 0.8249128886804518
12656786666.666666 -0.5558746892189771 0.8312661005270955 3.587872875406314e-17 -1.1836731067169167e-16 3.587872875406314e-17 -1.1836731067169167e-16 -0.5558752551662327 0.8312657220730881
12657404000.0 -0.5464186745118087 0.8375121683561237 3.4517760441071195e-17 -1.187462013480364e-16 3.4517760441071195e-17 -1.187462013480364e-16 -0.5464192446837435 0.8375117963581553
12658021333.333334 -0.5368924834873328 0.8436506748498582 3.3152820120939616e-17 -1.1910945371698225e-16 3.3152820120939616e-17 -1.1910945371698225e-16 -0.5368930578103117 0.8436503093550732
12658638666.666666 -0.5272973395904295 0.8496808316424891 3.178408737442684e-17 -1.1945702649897105e-16 3.178408737442684e-17 -1.1945702649897105e-16 -0.5272979179902911 0.8496804726971909
12659256000.0 -0.5176344751212778 0.8556018642836959 3.0411742206802284e-17 -1.1978888047536733e-16 3.0411742206802284e-17 -1.1978888047536733e-16 -0.5176350575233442 0.8556015119333421
12659873333.333334 -0.5079051310775223 0.8614130123378345 2.903596502423988e-17 -1.2010497849276092e-16 2.903596502423988e-17 -1.2010497849276092e-16 -0.5079057174066093 0.8614126666270322
12660490666.666666 -0.49811055699489787 0.8671135294816075 2.7656936610137963e-17 -1.204052854670059e-16 2.7656936610137963e-17 -1.204052854670059e-16 -0.49811114717532406 0.8671131904541065
12661108000.0 -0.4882520107862606 0.8727026836002005 2.6274838101361414e-17 -1.206897683869968e-16 2.6274838101361414e-17 -1.206897683869968e-16 -0.48825260474185767 0.8727023512988884
12661725333.333334 -0.4783307585807228 0.878179756880907 2.4889850964546486e-17 -1.2095839631815106e-16 2.4889850964546486e-17 -1.2095839631815106e-16 -0.47833135623484496 0.8781794313478033
12662342666.666666 -0.4683480745605025 0.8835440459056286 2.3502156972251823e-17 -1.2121114040564566e-16 2.3502156972251823e-17 -1.2121114040564566e-16 -0.4683486758360367 0.8835437271818798
12662960000.0 -0.4583052407975285 0.8887948617410759 2.2111938179168003e-17 -1.2144797387736182e-16 2.2111938179168003e-17 -1.2144797387736182e-16 -0.45830584561690335 0.888794549866949
12663577333.333334 -0.4482035470887322 0.8939315300272699 2.0719376898261914e-17 -1.2166887204656514e-16 2.0719376898261914e-17 -1.2166887204656514e-16 -0.44820415537393005 0.8939312250421501
12664194666.666666 -0.43804429079040363 0.8989533910641581 1.932465567690362e-17 -1.2187381231431168e-16 1.932465567690362e-17 -1.2187381231431168e-16 -0.4380449024629682 0.8989530930065404
12664812000.0 -0.4278287766515695 0.903859799896334 1.7927957272971933e-17 -1.220627741715806e-16 1.7927957272971933e-17 -1.220627741715806e-16 -0.42782939163261696 0.9038595088038194
12665429333.333334 -0.4175583166463978 0.9086501263958771 1.65294646309384e-17 -1.2223573920113387e-16 1.65294646309384e-17 -1.2223573920113387e-16 -0.4175589348566291 0.9086498423051725
12666046666.666666 -0.407234229805836 0.9133237553432318 1.512936085795718e-17 -1.2239269107910032e-16 1.512936085795718e-17 -1.2239269107910032e-16 -0.40723485116554314 0.9133234782901375
12666664000.0 -0.39685784204791935 0.9178800865063402 1.3727829199887342e-17 -1.2253361557629285e-16 1.3727829199887342e-17 -1.2253361557629285e-16 -0.39685846647699774 0.9178798165257489
12667281333.333334 -0.38643048600784624 0.9223185347175653 1.232505301739338e-17 -1.2265850055924078e-16 1.232505301739338e-17 -1.2265850055924078e-16 -0.38643111342580627 0.9223182718434614
12667898666.666666 -0.375953500866573 0.9266385299489682 1.0921215761956695e-17 -1.227673359909605e-16 1.0921215761956695e-17 -1.227673359909605e-16 -0.37595413119254784 0.9266382742144174
12668516000.0 -0.36542823217879206 0.9308395173855164 9.516500951919106e-18 -1.2286011393144485e-16 9.516500951919106e-18 -1.2286011393144485e-16 -0.3654288653315498 0.930839268822665
12669133333.333334 -0.3548560317004664 0.9349209574962019 8.111092148558718e-18 -1.2293682853788007e-16 8.111092148558718e-18 -1.2293682853788007e-16 -0.35485666759842033 0.9349207161362729
12669750666.666666 -0.3442382572148044 0.938882326103507 6.705172932102989e-18 -1.2299747606459255e-16 6.705172932102989e-18 -1.2299747606459255e-16 -0.3442388957760226 0.9388820919767945
12670368000.0 -0.33357627235808784 0.9427231144506326 5.298926877797616e-18 -1.2304205486271833e-16 5.298926877797616e-18 -1.2304205486271833e-16 -0.3335769135003049 0.9427228875864997
