! Parameters = {f0=12700.012000; bw=77.238000; Q=6100.000000; N=10; m_0_1=1.177673; m_1_1=-1.099656; m_1_2=1.012485; m_2_2=-1.100305; m_2_3=0.649448; m_2_8=-0.004053; m_2_9=0.032651; m_3_3=-1.102242; m_3_4=0.537977; m_3_7=-0.003453; m_3_8=-0.100541; m_3_9=-0.004053; m_4_4=-1.105167; m_4_5=0.374312; m_4_6=0.000064; m_4_7=-0.121090; m_4_8=-0.003453; m_5_5=-1.104785; m_5_6=0.781667; m_5_7=0.000064; m_6_6=-1.104786; m_6_7=0.374654; m_7_7=-1.105153; m_7_8=0.538095; m_8_8=-1.102244; m_8_9=0.649761; m_9_9=-1.100310; m_9_10=1.013563; m_10_10=-1.099666; m_10_11=1.178468}
!
! Created with skrf (http://scikit-rf.org).
# Hz S RI R 50.0 
!freq ReS11 ImS11 ReS21 ImS21 ReS12 ImS12 ReS22 ImS22
12607400000.0 0.9999907700354121 -0.004296492037911343 -6.708464432633863e-17 2.0187475158403624e-17 -6.708464432633863e-17 2.0187475158403624e-17 0.9999907727017321 -0.0042958714181236335
12608017333.333334 0.9999269166743131 -0.012089719188194258 -6.691033164163159e-17 2.071155919472566e-17 -6.691033164163159e-17 2.071155919472566e-17 0.9999269241769415 -0.01208909863842546
12608634666.666666 0.9998023292855595 -0.019882212025267618 -6.673192907351484e-17 2.1234150818115834e-17 -6.673192907351484e-17 2.1234150818115834e-17 0.9998023416235665 -0.019881591583200263
12609252000.0 0.9996170154364493 -0.02767349724506639 -6.654944930763056e-17 2.1755218146617537e-17 -6.654944930763056e-17 2.1755218146617537e-17 0.9996170326086129 -0.0276728769483728
12609869333.333334 0.9993709863827143 -0.035463101616875055 -6.636290527787316e-17 2.2274729405435106e-17 -6.636290527787316e-17 2.2274729405435106e-17 0.9993710083875166 -0.035462481503214995
12610486666.666666 0.9990642570678325 -0.04325055201207088 -6.617231016549205e-17 2.2792652928855196e-17 -6.617231016549205e-17 2.2792652928855196e-17 0.9990642839034644 -0.04324993211908932
12611104000.0 0.9986968461221215 -0.051035375432889364 -6.597767739816916e-17 2.3308957162190772e-17 -6.597767739816916e-17 2.3308957162190772e-17 0.9986968777864808 -0.05103475579821425
12611721333.333334 0.9982687758616134 -0.05881709904103998 -6.577902064909813e-17 2.382361066367058e-17 -6.577902064909813e-17 2.382361066367058e-17 0.9982688123523039 -0.058816479702279836
12612338666.666666 0.9977800722866924 -0.0665952501865676 -6.557635383603255e-17 2.4336582106365798e-17 -6.557635383603255e-17 2.4336582106365798e-17 0.9977801136010247 -0.06659463118130923
12612956000.0 0.9972307650805081 -0.0743693564365885 -6.536969112032557e-17 2.48478402800899e-17 -6.536969112032557e-17 2.48478402800899e-17 0.9972308112155013 -0.07436873780239492
12613573333.333334 0.9966208876071958 -0.08213894560373043 -6.515904690596222e-17 2.5357354093274212e-17 -6.515904690596222e-17 2.5357354093274212e-17 0.9966209385595757 -0.08213832737813836
12614190666.666666 0.9959504769098282 -0.08990354577509592 -6.494443583856246e-17 2.5865092574870266e-17 -6.494443583856246e-17 2.5865092574870266e-17 0.9959505326760276 -0.08990292799561349
12614808000.0 0.995219573708172 -0.09766268534078354 -6.472587280438114e-17 2.6371024876216305e-17 -6.472587280438114e-17 2.6371024876216305e-17 0.9952196342843344 -0.09766206804488835
12615425333.333334 0.9944282223962188 -0.10541589302256155 -6.45033729292885e-17 2.6875120272906506e-17 -6.45033729292885e-17 2.6875120272906506e-17 0.9944282877781935 -0.10541527624769798
12616042666.666666 0.9935764710394854 -0.11316269790249239 -6.427695157773764e-17 2.7377348166650032e-17 -6.427695157773764e-17 2.7377348166650032e-17 0.9935765412228305 -0.11316208168606955
12616660000.0 0.9926643713720927 -0.12090262945153538 -6.404662435171675e-17 2.787767808712135e-17 -6.404662435171675e-17 2.787767808712135e-17 0.9926644463520766 -0.12090201383092487
12617277333.333334 0.9916919787936279 -0.1286352175581263 -6.381240708968756e-17 2.837607969380191e-17 -6.381240708968756e-17 2.837607969380191e-17 0.9916920585652261 -0.12863460257065976
12617894666.666666 0.990659352365775 -0.13635999255673084 -6.35743158655097e-17 2.887252277781336e-17 -6.35743158655097e-17 2.887252277781336e-17 0.990659436923674 -0.13635937823969788
12618512000.0 0.9895665548087298 -0.14407648525637157 -6.333236698734987e-17 2.936697726374123e-17 -6.333236698734987e-17 2.936697726374123e-17 0.989566644147326 -0.1440758716470175
12619129333.333334 0.9884136524973914 -0.15178422696912602 -6.30865769965783e-17 2.985941321145038e-17 -6.30865769965783e-17 2.985941321145038e-17 0.98841374661079 -0.15178361410464933
12619746666.666666 0.9872007154573272 -0.15948274953859354 -6.283696266664997e-17 3.034980081789067e-17 -6.283696266664997e-17 3.034980081789067e-17 0.987200814339346 -0.1594821374561441
12620364000.0 0.9859278173605249 -0.16717158536833127 -6.258354100197251e-17 3.0838110418893886e-17 -6.258354100197251e-17 3.0838110418893886e-17 0.9859279210046904 -0.1671709741050075
12620981333.333334 0.9845950355209105 -0.17485026745025406 -6.232632923676008e-17 3.1324312490961087e-17 -6.232632923676008e-17 3.1324312490961087e-17 0.9845951439204634 -0.1748496570431015
12621598666.666666 0.983202450889661 -0.1825183293930012 -6.206534483387333e-17 3.180837765304066e-17 -6.206534483387333e-17 3.180837765304066e-17 0.9832025640375515 -0.18251771987900925
12622216000.0 0.9817501480502809 -0.19017530545026323 -6.180060548364573e-17 3.2290276668296746e-17 -6.180060548364573e-17 3.2290276668296746e-17 0.9817502659391719 -0.19017469686636362
12622833333.333334 0.9802382152134599 -0.19782073054909874 -6.153212910269515e-17 3.276998044586973e-17 -6.153212910269515e-17 3.276998044586973e-17 0.9802383378357286 -0.19782012293216325
12623450666.666666 0.9786667442117416 -0.20545414031807105 -6.125993383272679e-17 3.324746004261843e-17 -6.125993383272679e-17 3.324746004261843e-17 0.978666871559477 -0.20545353370490899
12624068000.0 0.9770358304939147 -0.2130750711155929 -6.09840380393141e-17 3.372268666486808e-17 -6.09840380393141e-17 3.372268666486808e-17 0.9770359625589198 -0.21307446554294893
12624685333.333334 0.9753455731192077 -0.220683060058114 -6.070446031066948e-17 3.4195631670141005e-17 -6.070446031066948e-17 3.4195631670141005e-17 0.9753457098929998 -0.22068245556266608
12625302666.666666 0.9735960747513347 -0.22827764504795914 -6.042121945641331e-17 3.4666266568858914e-17 -6.042121945641331e-17 3.4666266568858914e-17 0.9735962162251467 -0.22827704166631632
12625920000.0 0.9717874416521671 -0.2358583648018109 -6.01343345063044e-17 3.5134563026077485e-17 -6.01343345063044e-17 3.5134563026077485e-17 0.9717875878169472 -0.23585776257051103
12626537333.333334 0.9699197836753666 -0.24342475887833961 -5.984382470898633e-17 3.5600492863161214e-17 -5.984382470898633e-17 3.5600492863161214e-17 0.9699199345217783 -0.2434241578338469
12627154666.666666 0.9679932142596782 -0.2509763677063364 -5.954970953070102e-17 3.6064028059482226e-17 -5.954970953070102e-17 3.6064028059482226e-17 0.967993369778101 -0.25097576788503934
12627772000.0 0.9660078504219916 -0.25851273261279106 -5.92520086539881e-17 3.652514075410798e-17 -5.92520086539881e-17 3.652514075410798e-17 0.9660080106025237 -0.25851213405100054
12628389333.333334 0.963963812750339 -0.2660333958503665 -5.895074197639376e-17 3.6983803247445497e-17 -5.895074197639376e-17 3.6983803247445497e-17 0.9639639775827965 -0.26603279858431356
12629006666.666666 0.961861225396461 -0.2735379006256145 -5.864592960913443e-17 3.7439988002922734e-17 -5.864592960913443e-17 3.7439988002922734e-17 0.9618613948703764 -0.27353730469144727
12629624000.0 0.9597002160683401 -0.2810257911264165 -5.833759187577712e-17 3.789366764861656e-17 -5.833759187577712e-17 3.789366764861656e-17 0.9597003901729689 -0.28102519656019975
12630241333.333334 0.9574809160224123 -0.2884966125498367 -5.802574931088759e-17 3.8344814978897545e-17 -5.802574931088759e-17 3.8344814978897545e-17 0.9574810947467255 -0.2884960193875475
12630858666.666666 0.955203460055628 -0.2959499111295791 -5.771042265867956e-17 3.8793402956044256e-17 -5.771042265867956e-17 3.8793402956044256e-17 0.9552036433883188 -0.295949319407106
12631476000.0 0.9528679864971821 -0.3033852341638492 -5.73916328716326e-17 3.9239404711874335e-17 -5.73916328716326e-17 3.9239404711874335e-17 0.9528681744266673 -0.30338464391699077
12632093333.333334 0.9504746372002226 -0.3108021300424988 -5.70694011091255e-17 3.9682793549323536e-17 -5.70694011091255e-17 3.9682793549323536e-17 0.9504748297146369 -0.31080154130695903
12632710666.666666 0.948023557533177 -0.3182001482746159 -5.674374873602908e-17 4.012354294405428e-17 -5.674374873602908e-17 4.012354294405428e-17 0.9480237546203804 -0.31819956108600445
12633328000.0 0.9455148963708857 -0.3255788395160247 -5.641469732130626e-17 4.0561626546025185e-17 -5.641469732130626e-17 4.0561626546025185e-17 0.9455150980184609 -0.3255782539098534
12633945333.333334 0.942948806085635 -0.33293775559633326 -5.608226863658734e-17 4.099701818106704e-17 -5.608226863658734e-17 4.099701818106704e-17 0.9429490122808891 -0.3329371716080148
12634562666.666666 0.9403254425378583 -0.34027644954629027 -5.574648465474583e-17 4.1429691852429434e-17 -5.574648465474583e-17 4.1429691852429434e-17 0.9403256532678237 -0.34027586721113523
12635180000.0 0.9376449650666795 -0.34759447562490636 -5.5407367548451155e-17 4.185962174233206e-17 -5.5407367548451155e-17 4.185962174233206e-17 0.9376451803181136 -0.3475938949781213
12635797333.333334 0.934907536480224 -0.3548913893465538 -5.5064939688713434e-17 4.22867822134974e-17 -5.5064939688713434e-17 4.22867822134974e-17 0.9349077562396118 -0.3548908104232398
12636414666.666666 0.9321133230457701 -0.3621667475078581 -5.471922364342228e-17 4.271114781066602e-17 -5.471922364342228e-17 4.271114781066602e-17 0.9321135472993238 -0.3621661703430079
12637032000.0 0.9292624944795902 -0.36942010821477667 -5.4370242175860927e-17 4.31326932621149e-17 -5.4370242175860927e-17 4.31326932621149e-17 0.929262723213251 -0.36941953284327295
12637649333.333334 0.9263552239366846 -0.37665103090933305 -5.401801824322184e-17 4.355139348114889e-17 -5.401801824322184e-17 4.355139348114889e-17 0.9263554571361217 -0.37665045736594593
12638266666.666666 0.9233916880002493 -0.38385907639640116 -5.366257499510387e-17 4.396722356758713e-17 -5.366257499510387e-17 4.396722356758713e-17 0.9233919256508633 -0.3838585047157865
12638884000.0 0.920372066670957 -0.3910438068703827 -5.33039357720002e-17 4.438015880923655e-17 -5.33039357720002e-17 4.438015880923655e-17 0.9203723087578781 -0.39104323708707944
12639501333.333334 0.9172965433560054 -0.39820478594182307 -5.294212410377279e-17 4.479017468335379e-17 -5.294212410377279e-17 4.479017468335379e-17 0.9172967898640985 -0.39820421809025236
12640118666.666666 0.9141653048580531 -0.40534157866376275 -5.2577163708125785e-17 4.5197246858085296e-17 -5.2577163708125785e-17 4.5197246858085296e-17 0.9141655557719138 -0.40534101277822454
12640736000.0 0.9109785413636862 -0.41245375155857056 -5.2209078489038244e-17 4.56013511939267e-17 -5.2209078489038244e-17 4.56013511939267e-17 0.9109787966676448 -0.4124531876732422
12641353333.333334 0.9077364464321432 -0.41954087264364853 -5.1837892535238804e-17 4.600246374511131e-17 -5.1837892535238804e-17 4.600246374511131e-17 0.9077367061102647 -0.41954031079258225
12641970666.666666 0.904439216983315 -0.42660251145821493 -5.1463630118610255e-17 4.6400560761051855e-17 -5.1463630118610255e-17 4.6400560761051855e-17 0.9044394810194007 -0.42660195167533665
12642588000.0 0.9010870532859038 -0.4336382390891919 -5.108631569262408e-17 4.679561868772423e-17 -5.108631569262408e-17 4.679561868772423e-17 0.9010873216634913 -0.43363768140829784
12643205333.333334 0.8976801589452443 -0.4406476281972811 -5.070597389075014e-17 4.718761416905473e-17 -5.070597389075014e-17 4.718761416905473e-17 0.8976804316476099 -0.4406470726520374
12643822666.666666 0.8942187408908887 -0.44763025304302306 -5.032262952485129e-17 4.7576524048298363e-17 -5.032262952485129e-17 4.7576524048298363e-17 0.8942190179010479 -0.44762969966696253
12644440000.0 0.8907030093641018 -0.4545856895125286 -4.993630758358001e-17 4.7962325369391694e-17 -4.993630758358001e-17 4.7962325369391694e-17 0.8907032906648078 -0.4545851383390484
12645057333.333334 0.8871331779050752 -0.46151351514326266 -4.9547033230756527e-17 4.8344995378301175e-17 -4.9547033230756527e-17 4.8344995378301175e-17 0.8871334634788249 -0.4615129662056238
12645674666.666666 0.8835094633399636 -0.4684133091497076 -4.915483180373822e-17 4.8724511524357165e-17 -4.915483180373822e-17 4.8724511524357165e-17 0.8835097531689948 -0.4684127624810313
12646292000.0 0.8798320857676162 -0.47528465244909285 -4.8759728811769925e-17 4.91008514615826e-17 -4.8759728811769925e-17 4.91008514615826e-17 0.8798323798339113 -0.47528410808236055
12646909333.333334 0.8761012685463865 -0.4821271276865271 -4.836174993434589e-17 4.94739930499883e-17 -4.836174993434589e-17 4.94739930499883e-17 0.8761015668316715 -0.4821265856545761
12647526666.666666 0.8723172382804292 -0.48894031926059595 -4.7960921019541806e-17 4.9843914356873915e-17 -4.7960921019541806e-17 4.9843914356873915e-17 0.8723175407661753 -0.4889397795961189
12648144000.0 0.868480224805949 -0.49572381334857973 -4.7557268082345306e-17 5.021059365810723e-17 -4.7557268082345306e-17 5.021059365810723e-17 0.8684805314733742 -0.495723276084122
12648761333.333334 0.8645904611772953 -0.5024771979314886 -4.715081730297582e-17 5.0574009439391715e-17 -4.715081730297582e-17 5.0574009439391715e-17 0.8645907720073664 -0.5024766630994473
12649378666.666666 0.8606481836528107 -0.5092000628190902 -4.6741595025194546e-17 5.093414039752037e-17 -4.6741595025194546e-17 5.093414039752037e-17 0.8606484986262428 -0.509199530451711
12649996000.0 0.8566536316804094 -0.5158919996749465 -4.632962775460486e-17 5.129096544161579e-17 -4.632962775460486e-17 5.129096544161579e-17 0.8566539507776669 -0.515891469804322
12650613333.333334 0.8526070478830711 -0.5225526020411392 -4.591494215694196e-17 5.164446369435816e-17 -4.591494215694196e-17 5.164446369435816e-17 0.8526073710843713 -0.5225520746992077
12651230666.666666 0.8485086780441682 -0.5291814653628625 -4.549756505636222e-17 5.199461449319164e-17 -4.549756505636222e-17 5.199461449319164e-17 0.848509005329482 -0.5291809405814063
12651848000.0 0.8443587710923923 -0.5357781870132402 -4.507752343370091e-17 5.234139739153621e-17 -4.507752343370091e-17 5.234139739153621e-17 0.844359102441442 -0.5357776648238816
12652465333.333334 0.8401575790867583 -0.5423423663175554 -4.4654844424749327e-17 5.268479215996136e-17 -4.4654844424749327e-17 5.268479215996136e-17 0.8401579144790234 -0.5423418467517573
12653082666.666666 0.8359053572013082 -0.5488736045775965 -4.4229555318509554e-17 5.3024778787357395e-17 -4.4229555318509554e-17 5.3024778787357395e-17 0.8359056966160225 -0.5488730876666579
12653700000.0 0.8316023637094463 -0.5553715050961036 -4.380168355542503e-17 5.336133748210501e-17 -4.380168355542503e-17 5.336133748210501e-17 0.8316027071256042 -0.5553709908711613
12654317333.333334 0.8272488599684791 -0.5618356732005372 -4.337125672563927e-17 5.36944486732013e-17 -4.337125672563927e-17 5.36944486732013e-17 0.8272492073648324 -0.5618351616925609
12654934666.666666 0.8228451104035802 -0.5682657162672846 -4.293830256720887e-17 5.402409301140087e-17 -4.293830256720887e-17 5.402409301140087e-17 0.8228454617586405 -0.5682652075070751
12655552000.0 0.8183913824917269 -0.5746612437455044 -4.25028489643237e-17 5.4350251370330657e-17 -4.25028489643237e-17 5.4350251370330657e-17 0.8183917377837684 -0.5746607377636935
12656169333.333334 0.8138879467456022 -0.5810218671806403 -4.2064923945532494e-17 5.4672904847579726e-17 -4.2064923945532494e-17 5.4672904847579726e-17 0.8138883059526621 -0.5810213640076883
12656786666.666666 0.8093350766970014 -0.5873472002382479 -4.1624555681930703e-17 5.499203476579726e-17 -4.1624555681930703e-17 5.499203476579726e-17 0.8093354397968812 -0.5873466999044413
12657404000.0 0.8047330488802995 -0.5936368587273435 -4.118177248536366e-17 5.5307622673758647e-17 -4.118177248536366e-17 5.5307622673758647e-17 0.8047334158505661 -0.5936363612627931
12658021333.333334 0.8000821428156196 -0.5998904606237841 -4.073660280661044e-17 5.561965034742476e-17 -4.073660280661044e-17 5.561965034742476e-17 0.8000825136336078 -0.599889966058424
12658638666.666666 0.7953826409919452 -0.6061076260933601 -4.028907523357154e-17 5.592809979097972e-17 -4.028907523357154e-17 5.592809979097972e-17 0.7953830156347571 -0.6061071344569444
12659256000.0 0.7906348288497866 -0.6122879775150898 -3.983921848942406e-17 5.623295323786984e-17 -3.983921848942406e-17 5.623295323786984e-17 0.7906352072942954 -0.6122874888371933
12659873333.333334 0.7858389947639992 -0.6184311395039527 -3.9387061430800186e-17 5.653419315180761e-17 -3.9387061430800186e-17 5.653419315180761e-17 0.785839376986849 -0.6184306538139668
12660490666.666666 0.7809954300262708 -0.6245367389336911 -3.8932633045943336e-17 5.68318022277703e-17 -3.8932633045943336e-17 5.68318022277703e-17 0.7809958160038787 -0.6245362562608231
12661108000.0 0.7761044288272524 -0.6306044049596972 -3.8475962452841074e-17 5.712576339299561e-17 -3.8475962452841074e-17 5.712576339299561e-17 0.7761048185358093 -0.6306039253329678
12661725333.333334 0.771166288238935 -0.6366337690412228 -3.801707889738903e-17 5.741605980793537e-17 -3.801707889738903e-17 5.741605980793537e-17 0.7711666816544082 -0.6366332924894657
12662342666.666666 0.7661813081964134 -0.642624464964012 -3.755601175150906e-17 5.770267486722113e-17 -3.755601175150906e-17 5.770267486722113e-17 0.7661817052945469 -0.6426239915158705
12662960000.0 0.7611497914797549 -0.6485761288624302 -3.709279051127804e-17 5.79855922006027e-17 -3.709279051127804e-17 5.79855922006027e-17 0.7611501922360716 -0.648575658546357
12663577333.333334 0.7560720436955936 -0.6544883992415892 -3.662744479505624e-17 5.826479567386741e-17 -3.662744479505624e-17 5.826479567386741e-17 0.7560724480853966 -0.6544879320858437
12664194666.666666 0.7509483732585666 -0.6603609169993034 -3.616000434159421e-17 5.85402693897542e-17 -3.616000434159421e-17 5.85402693897542e-17 0.7509487812569415 -0.660360453031951
12664812000.0 0.7457790913725836 -0.6661933254479019 -3.569049900814091e-17 5.881199768884703e-17 -3.569049900814091e-17 5.881199768884703e-17 0.7457795029543971 -0.6661928646968096
12665429333.333334 0.7405645120119002 -0.6719852703359096 -3.5218958768542106e-17 5.907996515045528e-17 -3.5218958768542106e-17 5.907996515045528e-17 0.7405649271518064 -0.6719848128287488
12666046666.666666 0.7353049519021512 -0.677736399869466 -3.4745413711342343e-17 5.93441565934735e-17 -3.4745413711342343e-17 5.93441565934735e-17 0.7353053705745893 -0.6777359456337073
12666664000.0 0.730000730500896 -0.6834463647339182 -3.4269894037853416e-17 5.960455707724096e-17 -3.4269894037853416e-17 5.960455707724096e-17 0.7300011526800929 -0.6834459137968303
12667281333.333334 0.7246521699784871 -0.6891148181147461 -3.3792430060259e-17 5.98611519023621e-17 -3.3792430060259e-17 5.98611519023621e-17 0.7246525956384602 -0.6891143705033959
12667898666.666666 0.7192595951983091 -0.6947414157188366 -3.331305219967245e-17 6.011392661153473e-17 -3.331305219967245e-17 6.011392661153473e-17 0.7192600243128664 -0.6947409714600858
12668516000.0 0.7138233336970454 -0.700325815795395 -3.283179098420542e-17 6.036286699035312e-17 -3.283179098420542e-17 6.036286699035312e-17 0.7138237662397878 -0.7003253749158993
12669133333.333334 0.7083437156649613 -0.7058676791565165 -3.234867704704621e-17 6.060795906808751e-17 -3.234867704704621e-17 6.060795906808751e-17 0.708344151609283 -0.7058672416827224
12669750666.666666 0.7028210739256509 -0.7113666691979919 -3.186374112449961e-17 6.084918911846578e-17 -3.186374112449961e-17 6.084918911846578e-17 0.7028215132447435 -0.7113662351561385
12670368000.0 0.6972557439159016 -0.7168224519196729 -3.137701405404527e-17 6.108654366042657e-17 -3.137701405404527e-17 6.108654366042657e-17 0.6972561865827548 -0.7168220213357879
