! Parameters = {f0=12700.012000; bw=77.238000; Q=6100.000000; N=10; m_0_1=1.217312; m_1_1=-0.505061; m_1_2=1.052124; m_2_2=-0.505710; m_2_3=0.689087; m_2_8=-0.002071; m_2_9=0.034633; m_3_3=-0.507647; m_3_4=0.577616; m_3_7=-0.001471; m_3_8=-0.098559; m_3_9=-0.002071; m_4_4=-0.510572; m_4_5=0.413951; m_4_6=0.002046; m_4_7=-0.119108; m_4_8=-0.001471; m_5_5=-0.510190; m_5_6=0.821306; m_5_7=0.002046; m_6_6=-0.510191; m_6_7=0.414293; m_7_7=-0.510558; m_7_8=0.577734; m_8_8=-0.507649; m_8_9=0.689400; m_9_9=-0.505715; m_9_10=1.053202; m_10_10=-0.505071; m_10_11=1.218107}
!
! Created with skrf (http://scikit-rf.org).
# Hz S RI R 50.0 
!freq ReS11 ImS11 ReS21 ImS21 ReS12 ImS12 ReS22 ImS22
12607400000.0 0.38029990138994224 0.9248632250244565 -5.375883892580331e-17 -6.673370207998877e-17 -5.375883892580331e-17 -6.673370207998877e-17 0.3802993081408528 0.9248634689657856
12608017333.333334 0.3885762387535001 0.9214165760805584 -5.4350190435272556e-17 -6.623126396499695e-17 -5.4350190435272556e-17 -6.623126396499695e-17 0.38857564774418724 0.9214168253184998
12608634666.666666 0.39682134346461945 0.917895866300079 -5.493685427209534e-17 -6.572359247289489e-17 -5.493685427209534e-17 -6.572359247289489e-17 0.39682075474236467 0.9178961208140811
12609252000.0 0.40503455280531425 0.9143013786676893 -5.551878418427765e-17 -6.521073126676066e-17 -5.551878418427765e-17 -6.521073126676066e-17 0.40503396641721107 0.9143016384367793
12609869333.333334 0.41321520662131095 0.9106334020980915 -5.60959343258853e-17 -6.469272441786482e-17 -5.60959343258853e-17 -6.469272441786482e-17 0.4132146226142611 0.9106336671008773
12610486666.666666 0.4213626473748762 0.9068922314129024 -5.666825926063379e-17 -6.416961640190609e-17 -5.666825926063379e-17 -6.416961640190609e-17 0.4213620657955849 0.9068925016275716
12611104000.0 0.429476220198107 0.9030781673167527 -5.723571396547043e-17 -6.364145209519124e-17 -5.723571396547043e-17 -6.364145209519124e-17 0.42947564109307984 0.9030784427210772
12611721333.333334 0.4375552729451023 0.8991915163733333 -5.7798253834076e-17 -6.310827677082432e-17 -5.7798253834076e-17 -6.310827677082432e-17 0.43755469636064154 0.8991917969446697
12612338666.666666 0.44559915624466523 0.8952325909806231 -5.835583468037599e-17 -6.257013609482419e-17 -5.835583468037599e-17 -6.257013609482419e-17 0.4455985822268663 0.8952328766959157
12612956000.0 0.4536072235524951 0.8912017093457761 -5.89084127419888e-17 -6.202707612223525e-17 -5.89084127419888e-17 -6.202707612223525e-17 0.4536066521472424 0.8912020001815573
12613573333.333334 0.4615788312029531 0.8870991954596473 -5.945594468364039e-17 -6.147914329320743e-17 -5.945594468364039e-17 -6.147914329320743e-17 0.46157826245591593 0.8870994913920395
12614190666.666666 0.46951333846094867 0.8829253790706734 -5.999838760055785e-17 -6.092638442903019e-17 -5.999838760055785e-17 -6.092638442903019e-17 0.46951277241757927 0.8829256800753932
12614808000.0 0.477410107573468 0.8786805956583588 -6.053569902180908e-17 -6.036884672815392e-17 -6.053569902180908e-17 -6.036884672815392e-17 0.4774095442789964 0.878680901710717
12615425333.333334 0.48526850382075604 0.8743651864063449 -6.106783691361427e-17 -5.98065777621736e-17 -6.106783691361427e-17 -5.98065777621736e-17 0.4852679433201872 0.8743654974812495
12616042666.666666 0.4930878955673612 0.869979498174979 -6.159475968262046e-17 -5.923962547178352e-17 -6.159475968262046e-17 -5.923962547178352e-17 0.4930873379054709 0.8699798142469363
12616660000.0 0.5008676543129273 0.8655238834734161 -6.211642617912992e-17 -5.866803816271179e-17 -6.211642617912992e-17 -5.866803816271179e-17 0.5008670995342586 0.8655242045165329
12617277333.333334 0.5086071547426368 0.8609987004313283 -6.263279570030981e-17 -5.80918645016076e-17 -6.263279570030981e-17 -5.80918645016076e-17 0.508606602891497 0.860999026419315
12617894666.666666 0.5163057747774986 0.8564043127701101 -6.314382799333728e-17 -5.751115351192877e-17 -6.314382799333728e-17 -5.751115351192877e-17 0.5163052258979549 0.8564046436762817
12618512000.0 0.5239628956245177 0.8517410897735351 -6.364948325854024e-17 -5.692595456976343e-17 -6.364948325854024e-17 -5.692595456976343e-17 0.5239623497603949 0.8517414255708148
12619129333.333334 0.531577901826115 0.8470094062582676 -6.41497221524589e-17 -5.633631739967262e-17 -6.41497221524589e-17 -5.633631739967262e-17 0.5315773590209909 0.8470097469191878
12619746666.666666 0.5391501813098662 0.8422096425435749 -6.464450579090798e-17 -5.574229207045964e-17 -6.464450579090798e-17 -5.574229207045964e-17 0.5391496416070687 0.8422099880402799
12620364000.0 0.5466791254375979 0.8373421844208142 -6.513379575197614e-17 -5.5143928990940223e-17 -6.513379575197614e-17 -5.5143928990940223e-17 0.5466785888802007 0.8373425347250616
12620981333.333334 0.5541641290542391 0.8324074231224733 -6.561755407898871e-17 -5.454127890568548e-17 -6.561755407898871e-17 -5.454127890568548e-17 0.5541635956850588 0.8324077782056369
12621598666.666666 0.5616045905366019 0.8274057552906268 -6.609574328344462e-17 -5.3934392890721537e-17 -6.609574328344462e-17 -5.3934392890721537e-17 0.5616040603981968 0.8274061151237021
12622216000.0 0.5689999118416491 0.8223375829451266 -6.656832634789845e-17 -5.332332234922275e-17 -6.656832634789845e-17 -5.332332234922275e-17 0.568999384976311 0.8223379474987267
12622833333.333334 0.5763494985546029 0.8172033134512464 -6.703526672881191e-17 -5.27081190071682e-17 -6.703526672881191e-17 -5.27081190071682e-17 0.5763489750043572 0.8172036826956087
12623450666.666666 0.5836527599366563 0.8120033594869923 -6.749652835935667e-17 -5.208883490898543e-17 -6.749652835935667e-17 -5.208883490898543e-17 0.5836522397432586 0.8120037333919815
12624068000.0 0.5909091089724795 0.80673813900992 -6.795207565219171e-17 -5.146552241315016e-17 -6.795207565219171e-17 -5.146552241315016e-17 0.5909085921774109 0.8067385175450275
12624685333.333334 0.5981179624175609 0.8014080752234177 -6.840187350218655e-17 -5.08382341877792e-17 -6.840187350218655e-17 -5.08382341877792e-17 0.5981174490620257 0.8014084583577674
12625302666.666666 0.6052787408447672 0.7960135965429302 -6.884588728910378e-17 -5.02070232062025e-17 -6.884588728910378e-17 -5.02070232062025e-17 0.605278230969689 0.7960139842452781
12625920000.0 0.6123908686912812 0.7905551365612505 -6.928408288026088e-17 -4.957194274248159e-17 -6.928408288026088e-17 -4.957194274248159e-17 0.6123903623372994 0.7905555287999884
12626537333.333334 0.619453774304565 0.7850331340138881 -6.971642663311795e-17 -4.893304636695308e-17 -6.971642663311795e-17 -4.893304636695308e-17 0.6194532715120338 0.7850335307570482
12627154666.666666 0.6264668899883618 0.7794480327437799 -7.014288539785078e-17 -4.829038794171175e-17 -7.014288539785078e-17 -4.829038794171175e-17 0.6264663907973428 0.7794484339590331
12627772000.0 0.6334296520485857 0.7738002816653964 -7.056342651988341e-17 -4.7644021616069423e-17 -7.056342651988341e-17 -4.7644021616069423e-17 0.6334291564988488 0.7738006873200589
12628389333.333334 0.6403415008382337 0.7680903347289805 -7.097801784234583e-17 -4.699400182204244e-17 -7.097801784234583e-17 -4.699400182204244e-17 0.6403410089692518 0.7680907447900146
12629006666.666666 0.6472018808027207 0.7623186508837747 -7.138662770854172e-17 -4.634038326973894e-17 -7.138662770854172e-17 -4.634038326973894e-17 0.6472013926536673 0.7623190653177918
12629624000.0 0.6540102405243148 0.7564856940413125 -7.178922496432695e-17 -4.568322094279822e-17 -7.178922496432695e-17 -4.568322094279822e-17 0.6540097561340598 0.756486112814575
12630241333.333334 0.6607660327664997 0.7505919330380916 -7.218577896047428e-17 -4.502257009376446e-17 -7.218577896047428e-17 -4.502257009376446e-17 0.660765552173608 0.7505923561165175
12630858666.666666 0.6674687145179657 0.7446378415978958 -7.257625955497989e-17 -4.435848623946728e-17 -7.257625955497989e-17 -4.435848623946728e-17 0.6674682377606923 0.7446382689470599
12631476000.0 0.6741177470363989 0.7386238982935823 -7.296063711534786e-17 -4.3691025156346914e-17 -7.296063711534786e-17 -4.3691025156346914e-17 0.6741172741526882 0.7386243298787201
12632093333.333334 0.6807125958915324 0.7325505865088435 -7.33388825208042e-17 -4.3020242875807937e-17 -7.33388825208042e-17 -4.3020242875807937e-17 0.6807121269190121 0.7325510222948524
12632710666.666666 0.6872527310082487 0.726418394399221 -7.371096716448518e-17 -4.2346195679524785e-17 -7.371096716448518e-17 -4.2346195679524785e-17 0.6872522659842302 0.7264188343506657
12633328000.0 0.6937376267092088 0.7202278148528516 -7.407686295559334e-17 -4.1668940094709624e-17 -7.407686295559334e-17 -4.1668940094709624e-17 0.6937371656706807 0.7202282589339637
12633945333.333334 0.7001667617570381 0.7139793454509045 -7.443654232148146e-17 -4.098853288941222e-17 -7.443654232148146e-17 -4.098853288941222e-17 0.7001663047406667 0.7139797936255888
12634562666.666666 0.7065396193962459 0.70767348842757 -7.478997820971669e-17 -4.0305031067762404e-17 -7.478997820971669e-17 -4.0305031067762404e-17 0.7065391664383702 0.7076739406594055
12635180000.0 0.7128556873947604 0.7013107506296924 -7.513714409009195e-17 -3.9618491865209303e-17 -7.513714409009195e-17 -3.9618491865209303e-17 0.7128552385313889 0.7013112068819345
12635797333.333334 0.7191144580851176 0.6948916434760074 -7.547801395659785e-17 -3.8928972743737286e-17 -7.547801395659785e-17 -3.8928972743737286e-17 0.7191140133519268 0.694892103711593
12636414666.666666 0.7253154284052097 0.688416682916099 -7.581256232933968e-17 -3.823653138708689e-17 -7.581256232933968e-17 -3.823653138708689e-17 0.7253149878375413 0.6884171470976489
12637032000.0 0.7314580999387603 0.6818863893888906 -7.614076425643254e-17 -3.7541225695916115e-17 -7.614076425643254e-17 -3.7541225695916115e-17 0.7314576635716161 0.6818868574787101
12637649333.333334 0.7375419789554201 0.6753012877807667 -7.646259531583045e-17 -3.684311378298909e-17 -7.646259531583045e-17 -3.684311378298909e-17 0.7375415468234625 0.6753017597408532
12638266666.666666 0.7435665764503973 0.6686619073834503 -7.677803161712244e-17 -3.6142253968327654e-17 -7.677803161712244e-17 -3.6142253968327654e-17 0.7435661485879446 0.6686623831754925
12638884000.0 0.7495314081837807 0.6619687818514385 -7.708704980328216e-17 -3.543870477435218e-17 -7.708704980328216e-17 -3.543870477435218e-17 0.749530984624804 0.661969261436821
12639501333.333334 0.7554359947194969 0.655222449159064 -7.738962705237502e-17 -3.473252492100327e-17 -7.738962705237502e-17 -3.473252492100327e-17 0.7554355754976192 0.6552229324988708
12640118666.666666 0.7612798614636624 0.6484234515574718 -7.768574107920932e-17 -3.402377332087574e-17 -7.768574107920932e-17 -3.402377332087574e-17 0.7612794466121539 0.648423938612488
12640736000.0 0.7670625387031376 0.6415723355305586 -7.797537013697319e-17 -3.331250907426784e-17 -7.797537013697319e-17 -3.331250907426784e-17 0.7670621282549142 0.6415728262612751
12641353333.333334 0.7727835616427622 0.6346696517516539 -7.825849301877982e-17 -3.2598791464327996e-17 -7.825849301877982e-17 -3.2598791464327996e-17 0.7727831556303827 0.6346701461182701
12641970666.666666 0.7784424704431206 0.6277159550387816 -7.853508905921432e-17 -3.1882679952077284e-17 -7.853508905921432e-17 -3.1882679952077284e-17 0.7784420688987844 0.6277164530012085
12642588000.0 0.7840388102573363 0.6207118043102602 -7.880513813580622e-17 -3.116423417149061e-17 -7.880513813580622e-17 -3.116423417149061e-17 0.7840384132128808 0.6207123058281242
12643205333.333334 0.7895721312675796 0.6136577625398469 -7.906862067046775e-17 -3.044351392453878e-17 -7.906862067046775e-17 -3.044351392453878e-17 0.7895717387544763 0.6136582675724914
12643822666.666666 0.7950419887213979 0.6065543967112629 -7.932551763088505e-17 -2.972057917622318e-17 -7.932551763088505e-17 -2.972057917622318e-17 0.7950416007707519 0.6065549052177539
12644440000.0 0.8004479429673049 0.5994022777728225 -7.95758105318655e-17 -2.899549004959704e-17 -7.95758105318655e-17 -2.899549004959704e-17 0.8004475596098528 0.5994027897119512
12645057333.333334 0.8057895594901586 0.5922019805914995 -7.981948143663575e-17 -2.826830682078444e-17 -7.981948143663575e-17 -2.826830682078444e-17 0.8057891807562623 0.5922024959217835
12645674666.666666 0.8110664089460976 0.5849540839066953 -8.005651295809836e-17 -2.7539089913979945e-17 -8.005651295809836e-17 -2.7539089913979945e-17 0.8110660348657455 0.5849546025863848
12646292000.0 0.8162780671971038 0.5776591702836543 -8.028688826004643e-17 -2.6807899896424024e-17 -8.028688826004643e-17 -2.6807899896424024e-17 0.8162776977999082 0.5776596922707347
12646909333.333334 0.8214241153449775 0.5703178260668001 -8.051059105831848e-17 -2.6074797473414722e-17 -8.051059105831848e-17 -2.6074797473414722e-17 0.8214237506601704 0.5703183513189943
12647526666.666666 0.8265041397651044 0.562930641332468 -8.072760562192508e-17 -2.5339843483254927e-17 -8.072760562192508e-17 -2.5339843483254927e-17 0.8265037798215376 0.5629311698072417
12648144000.0 0.8315177321397029 0.5554982098414754 -8.093791677411786e-17 -2.460309889222726e-17 -8.093791677411786e-17 -2.460309889222726e-17 0.8315173769658429 0.5554987414960386
12648761333.333334 0.8364644894905768 0.5480211289914911 -8.11415098934182e-17 -2.386462478954464e-17 -8.11415098934182e-17 -2.386462478954464e-17 0.8364641391145035 0.5480216637828019
12649378666.666666 0.8413440142115217 0.5404999997689935 -8.133837091459535e-17 -2.312448238230633e-17 -8.133837091459535e-17 -2.312448238230633e-17 0.8413436686609287 0.5405005376537635
12649996000.0 0.8461559141003034 0.5329354267009444 -8.152848632960609e-17 -2.2382732990423412e-17 -8.152848632960609e-17 -2.2382732990423412e-17 0.846155573402493 0.5329359676356403
12650613333.333334 0.8508998023902268 0.5253280178061263 -8.171184318848133e-17 -2.1639438041557564e-17 -8.171184318848133e-17 -2.1639438041557564e-17 0.8508994665721064 0.5253285617469725
12651230666.666666 0.8555752977810939 0.5176783845464593 -8.188842910016786e-17 -2.0894659066053287e-17 -8.188842910016786e-17 -2.0894659066053287e-17 0.85557496686918 0.5176789314494457
12651848000.0 0.8601820244700289 0.5099871417775954 -8.205823223332878e-17 -2.0148457691842552e-17 -8.205823223332878e-17 -2.0148457691842552e-17 0.8601816984904386 0.5099876915984759
12652465333.333334 0.8647196121815561 0.5022549076996857 -8.222124131709263e-17 -1.9400895639364523e-17 -8.222124131709263e-17 -1.9400895639364523e-17 0.8647192911600072 0.502255460393984
12653082666.666666 0.8691876961973052 0.4944823038077905 -8.237744564175574e-17 -1.8652034716481972e-17 -8.237744564175574e-17 -1.8652034716481972e-17 0.8691873801591173 0.49448285933080577
12653700000.0 0.8735859173855627 0.4866699548415375 -8.252683505944658e-17 -1.7901936813357443e-17 -8.252683505944658e-17 -1.7901936813357443e-17 0.8735856063556489 0.4866705131483435
12654317333.333334 0.8779139222298735 0.47881848873534405 -8.266939998473091e-17 -1.7150663897383317e-17 -8.266939998473091e-17 -1.7150663897383317e-17 0.8779136162327441 0.47881904978079637
12654934666.666666 0.8821713628576167 0.4709285365676774 -8.280513139518223e-17 -1.639827800805108e-17 -8.280513139518223e-17 -1.639827800805108e-17 0.8821710619173749 0.4709291003064161
12655552000.0 0.8863578970679747 0.46300073251030377 -8.293402083190159e-17 -1.564484125183788e-17 -8.293402083190159e-17 -1.564484125183788e-17 0.8863576012083138 0.46300129889675595
12656169333.333334 0.8904731883592639 0.4550357137776397 -8.305606039998537e-17 -1.4890415797122666e-17 -8.305606039998537e-17 -1.4890415797122666e-17 0.890472897603468 0.4550362827660253
12656786666.666666 0.8945169059562004 0.44703412057513653 -8.317124276895869e-17 -1.4135063869030764e-17 -8.317124276895869e-17 -1.4135063869030764e-17 0.8945166203271404 0.4470346921194701
12657404000.0 0.8984887248363598 0.4389965960480449 -8.327956117315181e-17 -1.3378847744334792e-17 -8.327956117315181e-17 -1.3378847744334792e-17 0.8984884443564934 0.4389971701021406
12658021333.333334 0.9023883257563474 0.43092378622964755 -8.338100941203552e-17 -1.2621829746325089e-17 -8.338100941203552e-17 -1.2621829746325089e-17 0.9023880504477143 0.4309243627471215
12658638666.666666 0.9062153952774025 0.42281633998943297 -8.347558185050667e-17 -1.186407223969719e-17 -8.347558185050667e-17 -1.186407223969719e-17 0.9062151251616261 0.4228169189237085
12659256000.0 0.9099696257906706 0.4146749089807899 -8.356327341913323e-17 -1.110563762540004e-17 -8.356327341913323e-17 -1.110563762540004e-17 0.9099693608889539 0.41467549028510015
12659873333.333334 0.9136507155418861 0.4065001475887031 -8.364407961434412e-17 -1.034658833554005e-17 -8.364407961434412e-17 -1.034658833554005e-17 0.9136504558750124 0.4065007312160961
12660490666.666666 0.917258368655587 0.3982927128772633 -8.371799649858049e-17 -9.586986828239778e-18 -8.371799649858049e-17 -9.586986828239778e-18 0.9172581142439155 0.39829329878060415
12661108000.0 0.9207922951590153 0.3900532645365649 -8.378502070039765e-17 -8.826895582496043e-18 -8.378502070039765e-17 -8.826895582496043e-18 0.9207920460224812 0.39005385266854065
12661725333.333334 0.9242522110052708 0.3817824648300488 -8.384514941451845e-17 -8.066377093083959e-18 -8.384514941451845e-17 -8.066377093083959e-18 0.9242519671633838 0.3817830551431721
12662342666.666666 0.9276378380962733 0.37348097854095696 -8.389838040184401e-17 -7.30549386540422e-18 -8.389838040184401e-17 -7.30549386540422e-18 0.9276375995681158 0.37348157098756996
12662960000.0 0.9309489043050194 0.36514947291913635 -8.394471198941574e-17 -6.544308410367438e-18 -8.394471198941574e-17 -6.544308410367438e-18 0.9309486711092437 0.3651500674514138
12663577333.333334 0.9341851434975268 0.3567886176272214 -8.398414307033122e-17 -5.782883239277572e-18 -8.398414307033122e-17 -5.782883239277572e-18 0.9341849156523566 0.3567892141971758
12664194666.666666 0.937346295554188 0.3483990846869159 -8.401667310361491e-17 -5.021280858695854e-18 -8.401667310361491e-17 -5.021280858695854e-18 0.9373460730774132 0.3483996832464
12664812000.0 0.9404321063906809 0.33998154842494865 -8.404230211404113e-17 -4.25956376533098e-18 -8.404230211404113e-17 -4.25956376533098e-18 0.9404318892996604 0.3399821489256607
12665429333.333334 0.9434423279784195 0.3315366854188227 -8.40610306919119e-17 -3.497794440917786e-18 -8.40610306919119e-17 -3.497794440917786e-18 0.943442116290076 0.33153728781230896
12666046666.666666 0.9463767183643973 0.32306517444267246 -8.407285999278733e-17 -2.736035347115848e-18 -8.407285999278733e-17 -2.736035347115848e-18 0.9463765120952177 0.32306577868033204
12666664000.0 0.9492350416907966 0.3145676964122508 -8.407779173717137e-17 -1.9743489203734953e-18 -8.407779173717137e-17 -1.9743489203734953e-18 0.9492348408568326 0.3145683024453399
12667281333.333334 0.9520170682137832 0.3060449343306837 -8.407582821015002e-17 -1.2127975668532522e-18 -8.407582821015002e-17 -1.2127975668532522e-18 0.9520168728306451 0.30604554211031787
12667898666.666666 0.9547225743220656 0.29749757323327397 -8.406697226098414e-17 -4.514436573163137e-19 -8.406697226098414e-17 -4.514436573163137e-19 0.9547223844049263 0.2974981827104341
12668516000.0 0.9573513425548814 0.2889263001324144 -8.405122730265594e-17 3.0965047798806487e-19 -8.405122730265594e-17 3.0965047798806487e-19 0.9573511581184723 0.28892691125794934
12669133333.333334 0.9599031616193621 0.28033180396271945 -8.40285973113699e-17 1.0704225543824799e-18 -8.40285973113699e-17 1.0704225543824799e-18 0.9599029826779731 0.2803324166873504
12669750666.666666 0.9623778264076543 0.2717147755252167 -8.3999086826007e-17 1.8308103378729218e-18 -8.3999086826007e-17 1.8308103378729218e-18 0.9623776529751312 0.271715389799541
12670368000.0 0.9647751380133348 0.2630759074320389 -8.396270094753373e-17 2.590751650218339e-18 -8.396270094753373e-17 2.590751650218339e-18 0.9647749701030809 0.2630765232065345
12670985333.333334 0.9670949037473873 0.25441589405080967 -8.391944533836534e-17 3.3501843739984515e-18 -8.391944533836534e-17 3.3501843739984515e-18 0.9670947413723593 0.25441651127583853
