! Parameters = {f0=12700.012000; bw=77.238000; Q=6100.000000; N=10; m_0_1=1.347242; m_1_1=1.443888; m_1_2=1.182054; m_2_2=1.443239; m_2_3=0.819017; m_2_8=0.004426; m_2_9=0.041130; m_3_3=1.441302; m_3_4=0.707546; m_3_7=0.005026; m_3_8=-0.092062; m_3_9=0.004426; m_4_4=1.438377; m_4_5=0.543881; m_4_6=0.008543; m_4_7=-0.112611; m_4_8=0.005026; m_5_5=1.438759; m_5_6=0.951236; m_5_7=0.008543; m_6_6=1.438758; m_6_7=0.544223; m_7_7=1.438391; m_7_8=0.707664; m_8_8=1.441300; m_8_9=0.819330; m_9_9=1.443234; m_9_10=1.183132; m_10_10=1.443878; m_10_11=1.348037}
!
! Created with skrf (http://scikit-rf.org).
# Hz S RI R 50.0 
!freq ReS11 ImS11 ReS21 ImS21 ReS12 ImS12 ReS22 ImS22
12607400000.0 -0.3389134875088216 -0.9408175423451721 9.30342779141943e-17 1.2659341683559344e-16 9.30342779141943e-17 1.2659341683559344e-16 -0.33891281984960503 -0.9408177828577596
12608017333.333334 -0.35093388188506847 -0.936400240572843 9.464040145653004e-17 1.2535868793649268e-16 9.464040145653004e-17 1.2535868793649268e-16 -0.35093321739315425 -0.9364004896036152
12608634666.666666 -0.3628967222472121 -0.9318293668810999 9.623015952960881e-17 1.2410359808802577e-16 9.623015952960881e-17 1.2410359808802577e-16 -0.36289606103126304 -0.931829624388383
12609252000.0 -0.3748000466602273 -0.9271056709045057 9.78032942299165e-17 1.2282836393214428e-16 9.78032942299165e-17 1.2282836393214428e-16 -0.37479938882835834 -0.9271059368452401
12609869333.333334 -0.38664190295006307 -0.9222299273407665 9.935955051838241e-17 1.215332053747587e-16 9.935955051838241e-17 1.215332053747587e-16 -0.38664124860982396 -0.9222302016705143
12610486666.666666 -0.3984203490233829 -0.9172029358238495 1.0089867626164365e-16 1.2021834554791346e-16 1.0089867626164365e-16 1.2021834554791346e-16 -0.39841969828173956 -0.9172032184968002
12611104000.0 -0.41013345318649047 -0.9120255207926619 1.0242042227285087e-16 1.1888401077140542e-16 1.0242042227285087e-16 1.1888401077140542e-16 -0.4101328061498092 -0.9120258117616431
12611721333.333334 -0.4217792944617174 -0.9066985313560278 1.0392454235186068e-16 1.1753043051398132e-16 1.0392454235186068e-16 1.1753043051398132e-16 -0.4217786512357456 -0.9066988305725097
12612338666.666666 -0.4333559629028292 -0.9012228411532648 1.0541079332507749e-16 1.1615783735388666e-16 1.0541079332507749e-16 1.1615783735388666e-16 -0.43335532359267964 -0.9012231485673705
12612956000.0 -0.44486155990810705 -0.8955993482109771 1.0687893508464822e-16 1.1476646693902347e-16 1.0687893508464822e-16 1.1476646693902347e-16 -0.4448609246182397 -0.89559966377149
12613573333.333334 -0.45629419853156905 -0.8898289747958513 1.0832873062714103e-16 1.133565579466105e-16 1.0832873062714103e-16 1.133565579466105e-16 -0.45629356736577403 -0.8898292984502235
12614190666.666666 -0.4676520037927403 -0.8839126672632522 1.0975994609177769e-16 1.1192835204227606e-16 1.0975994609177769e-16 1.1192835204227606e-16 -0.4676513768541222 -0.8839129989576151
12614808000.0 -0.4789331129839519 -0.8778513959021216 1.1117235079806865e-16 1.1048209383872394e-16 1.1117235079806865e-16 1.1048209383872394e-16 -0.47893249037491165 -0.8778517355812924
12615425333.333334 -0.4901356759759279 -0.8716461547757911 1.1256571728288034e-16 1.0901803085395138e-16 1.1256571728288034e-16 1.0901803085395138e-16 -0.490135057798146 -0.8716465023832826
12616042666.666666 -0.5012578555210133 -0.8652979615590667 1.1393982133701073e-16 1.0753641346894488e-16 1.1393982133701073e-16 1.0753641346894488e-16 -0.5012572418754342 -0.8652983170370981
12616660000.0 -0.5122978275547865 -0.8588078573711629 1.1529444204117802e-16 1.0603749488494773e-16 1.1529444204117802e-16 1.0603749488494773e-16 -0.512297218541601 -0.8588082206606674
12617277333.333334 -0.5232537814950573 -0.8521769066050338 1.1662936180145405e-16 1.0452153108026869e-16 1.1662936180145405e-16 1.0452153108026869e-16 -0.5232531772136867 -0.8521772776456692
12617894666.666666 -0.5341239205386641 -0.8454061967529033 1.1794436638412637e-16 1.029887807666538e-16 1.1794436638412637e-16 1.029887807666538e-16 -0.5341233210877445 -0.8454065754830631
12618512000.0 -0.5449064619564937 -0.8384968382277055 1.1923924495002212e-16 1.0143950534517928e-16 1.1923924495002212e-16 1.0143950534517928e-16 -0.5449058674338588 -0.8384972245845276
12619129333.333334 -0.5555996373854651 -0.831449964181214 1.2051379008816232e-16 9.9873968861824e-17 1.2051379008816232e-16 9.9873968861824e-17 -0.555599047888132 -0.8314503581005925
12619746666.666666 -0.5662016931188841 -0.8242667303179904 1.217677978489717e-16 9.829243796245648e-17 1.217677978489717e-16 9.829243796245648e-17 -0.5662011087430352 -0.8242671317345851
12620364000.0 -0.5767108903939085 -0.8169483147059347 1.2300106777678948e-16 9.669518184753592e-17 1.2300106777678948e-16 9.669518184753592e-17 -0.5767103112348773 -0.8169487235531822
12620981333.333334 -0.5871255056765712 -0.8094959175831782 1.24213402941796e-16 9.508247222640173e-17 1.24213402941796e-16 9.508247222640173e-17 -0.587124931828826 -0.8094963337933027
12621598666.666666 -0.5974438309447248 -0.8019107611610491 1.2540460997141137e-16 9.345458327107273e-17 1.2540460997141137e-16 9.345458327107273e-17 -0.597443262501854 -0.8019111846650743
12622216000.0 -0.6076641739680173 -0.7941940894237179 1.2657449908104009e-16 9.181179156971708e-17 1.2657449908104009e-16 9.181179156971708e-17 -0.6076636110227143 -0.7941945201514786
12622833333.333334 -0.6177848585853364 -0.7863471679242561 1.2772288410419266e-16 9.015437607976113e-17 1.2772288410419266e-16 9.015437607976113e-17 -0.6177843012293824 -0.7863476058044081
12623450666.666666 -0.6278042249797925 -0.7783712835770115 1.2884958252201071e-16 8.848261808060218e-17 1.2884958252201071e-16 8.848261808060218e-17 -0.6278036733040452 -0.7783717285370464
12624068000.0 -0.6377206299509798 -0.7702677444465196 1.299544154922246e-16 8.67968011258802e-17 1.299544154922246e-16 8.67968011258802e-17 -0.6377200840453549 -0.7702681964127734
12624685333.333334 -0.6475324471845476 -0.7620378795328967 1.3103720787739166e-16 8.509721099552877e-17 1.3103720787739166e-16 8.509721099552877e-17 -0.647531907138007 -0.7620383384305655
12625302666.666666 -0.6572380675185289 -0.753683038554214 1.3209778827258004e-16 8.338413564737322e-17 1.3209778827258004e-16 8.338413564737322e-17 -0.657237533419064 -0.7536835043073628
12625920000.0 -0.6668358992077239 -0.7452045917247337 1.3313598903241808e-16 8.165786516838388e-17 1.3313598903241808e-16 8.165786516838388e-17 -0.6668353711423436 -0.7452050642563123
12626537333.333334 -0.6763243681844088 -0.7366039295304921 1.3415164629744337e-16 7.991869172570041e-17 1.3415164629744337e-16 7.991869172570041e-17 -0.6763238462391218 -0.736604408762344
12627154666.666666 -0.6857019183166112 -0.7278824625011393 1.3514460001990254e-16 7.816690951718694e-17 1.3514460001990254e-16 7.816690951718694e-17 -0.6857014025764154 -0.7278829483540185
12627772000.0 -0.6949670116634461 -0.7190416209784959 1.3611469398886139e-16 7.640281472173487e-17 1.3611469398886139e-16 7.640281472173487e-17 -0.6949665022123135 -0.7190421133720779
12628389333.333334 -0.7041181287270113 -0.7100828548822838 1.3706177585462802e-16 7.462670544933529e-17 1.3706177585462802e-16 7.462670544933529e-17 -0.704117625647875 -0.7100833537351802
12629006666.666666 -0.7131537687020393 -0.7010076334719041 1.3798569715262306e-16 7.283888169067116e-17 1.3798569715262306e-16 7.283888169067116e-17 -0.7131532720767787 -0.7010081387016744
12629624000.0 -0.7220724497216648 -0.6918174451058285 1.3888631332650786e-16 7.103964526657145e-17 1.3888631332650786e-16 7.103964526657145e-17 -0.7220719596310919 -0.6918179566289939
12630241333.333334 -0.7308727091005361 -0.6825137969974273 1.397634837506856e-16 6.922929977712715e-17 1.397634837506856e-16 6.922929977712715e-17 -0.7308722256243849 -0.6825143147294859
12630858666.666666 -0.739553103574706 -0.673098214967788 1.4061707175213241e-16 6.740815055054741e-17 1.4061707175213241e-16 6.740815055054741e-17 -0.7395526267916177 -0.6730987388232282
12631476000.0 -0.7481122095385949 -0.6635722431951805 1.4144694463160486e-16 6.557650459166026e-17 1.4144694463160486e-16 6.557650459166026e-17 -0.7481117395261048 -0.6635727730874943
12632093333.333334 -0.756548623278004 -0.6539374439623096 1.422529736841094e-16 6.37346705302986e-17 1.422529736841094e-16 6.37346705302986e-17 -0.7565481601125302 -0.653937979804008
12632710666.666666 -0.7648609612006008 -0.6441953973998075 1.4303503421873586e-16 6.188295856936492e-17 1.4303503421873586e-16 6.188295856936492e-17 -0.7648605049574304 -0.6441959391024337
12633328000.0 -0.7730478600628636 -0.6343477012270408 1.4379300557784642e-16 6.002168043258121e-17 1.4379300557784642e-16 6.002168043258121e-17 -0.7730474108161416 -0.6343482487011858
12633945333.333334 -0.7811079771935455 -0.6243959704902092 1.4452677115551674e-16 5.815114931216925e-17 1.4452677115551674e-16 5.815114931216925e-17 -0.7811075350162631 -0.6243965236455273
12634562666.666666 -0.78903999071395 -0.61434183729739 1.4523621841536588e-16 5.627167981614414e-17 1.4523621841536588e-16 5.627167981614414e-17 -0.7890395556779303 -0.6143423960426109
12635180000.0 -0.7968425997545785 -0.6041869505510418 1.4592123890764827e-16 5.438358791552414e-17 1.4592123890764827e-16 5.438358791552414e-17 -0.7968421719304679 -0.6041875147939888
12635797333.333334 -0.8045145246687246 -0.5939329756772719 1.4658172828569692e-16 5.248719089124437e-17 1.4658172828569692e-16 5.248719089124437e-17 -0.804514104125979 -0.5939335453248751
12636414666.666666 -0.8120545072420596 -0.5835815943530595 1.4721758632166175e-16 5.058280728091456e-17 1.4721758632166175e-16 5.058280728091456e-17 -0.8120540940489342 -0.5835821693113717
12637032000.0 -0.8194613108992558 -0.5731345042300942 1.4782871692155984e-16 4.867075682538046e-17 1.4782871692155984e-16 4.867075682538046e-17 -0.8194609051227945 -0.5731350844043069
12637649333.333334 -0.8267337209065213 -0.5625934186567244 1.4841502813963348e-16 4.6751360415106285e-17 1.4841502813963348e-16 4.6751360415106285e-17 -0.826733322612545 -0.5625940039511831
12638266666.666666 -0.8338705445710499 -0.55196006639664 1.4897643219201032e-16 4.482494003639538e-17 1.4897643219201032e-16 4.482494003639538e-17 -0.833870153824145 -0.551960656714859
12638884000.0 -0.8408706114365238 -0.5412361913454883 1.4951284546967925e-16 4.2891818717407526e-17 1.4951284546967925e-16 4.2891818717407526e-17 -0.8408702283000336 -0.5412367865901683
12639501333.333334 -0.8477327734749802 -0.5304235522450151 1.5002418855074402e-16 4.0952320474100246e-17 1.5002418855074402e-16 4.0952320474100246e-17 -0.8477323980109943 -0.5304241523180584
12640118666.666666 -0.8544559052752507 -0.5195239223943909 1.5051038621198594e-16 3.9006770256002146e-17 1.5051038621198594e-16 3.9006770256002146e-17 -0.8544555375445939 -0.5195245271969173
12640736000.0 -0.8610389042275814 -0.5085390893592837 1.5097136743975855e-16 3.705549389171524e-17 1.5097136743975855e-16 3.705549389171524e-17 -0.8610385442898032 -0.5085396987916465
12641353333.333334 -0.8674806907040785 -0.49747085467932395 1.5140706544010357e-16 3.509881803458325e-17 1.5140706544010357e-16 3.509881803458325e-17 -0.8674803386174473 -0.4974714686411285
12641970666.666666 -0.873780208236278 -0.4863210335718258 1.5181741764823758e-16 3.313707010794446e-17 1.5181741764823758e-16 3.313707010794446e-17 -0.8737798640577663 -0.48632165196194294
12642588000.0 -0.879936423688024 -0.475091454634718 1.5220236573728763e-16 3.117057825045797e-17 1.5220236573728763e-16 3.117057825045797e-17 -0.8799360874733034 -0.47509207735130293
12643205333.333334 -0.8859483274251372 -0.4637839595462577 1.5256185562633154e-16 2.919967126128094e-17 1.5256185562633154e-16 2.919967126128094e-17 -0.8859479992285679 -0.46378458648676607
12643822666.666666 -0.8918149334808815 -0.4524004027631865 1.5289583748773426e-16 2.7224678545131434e-17 1.5289583748773426e-16 2.7224678545131434e-17 -0.8918146133555028 -0.4524010338243912
12644440000.0 -0.8975352797177211 -0.4409426512164966 1.5320426575376737e-16 2.524593005730667e-17 1.5320426575376737e-16 2.524593005730667e-17 -0.8975349677152445 -0.44094328629450513
12645057333.333334 -0.9031084279850377 -0.4294125840054021 1.534870991225116e-16 2.3263756248674917e-17 1.534870991225116e-16 2.3263756248674917e-17 -0.9031081241558356 -0.4294132229956724
12645674666.666666 -0.9085334642730132 -0.4178120920891104 1.5374430056306875e-16 2.1278488010484633e-17 1.5374430056306875e-16 2.1278488010484633e-17 -0.9085331686661149 -0.4178127348864702
12646292000.0 -0.9138094988627034 -0.4061430779763425 1.5397583732004751e-16 1.9290456619191288e-17 1.5397583732004751e-16 1.9290456619191288e-17 -0.9138092115257835 -0.40614372447500463
12646909333.333334 -0.9189356664716583 -0.3944074554139314 1.541816809173291e-16 1.729999368132074e-17 1.541816809173291e-16 1.729999368132074e-17 -0.9189353874510315 -0.3944081055075125
12647526666.666666 -0.9239111263959837 -0.3826071490726586 1.54361807161141e-16 1.5307431078141875e-17 1.54361807161141e-16 1.5307431078141875e-17 -0.9239108557365967 -0.3826078026541963
12648144000.0 -0.9287350626483452 -0.3707440942312857 1.5451619614240385e-16 1.3313100910402311e-17 1.5451619614240385e-16 1.3313100910402311e-17 -0.9287348003937689 -0.370744751193256
12648761333.333334 -0.9334066840915274 -0.35882023645979316 1.5464483223836494e-16 1.1317335443084702e-17 1.5464483223836494e-16 1.1317335443084702e-17 -0.9334064302839492 -0.35882089669412776
12649378666.666666 -0.937925224568339 -0.34683753129993583 1.5474770411352502e-16 9.320467050078138e-18 1.5474770411352502e-16 9.320467050078138e-18 -0.9379249792485573 -0.34683819469804056
12649996000.0 -0.9422899430272801 -0.3347979439444751 1.5482480471984827e-16 7.322828158896978e-18 1.5482480471984827e-16 7.322828158896978e-18 -0.9422897062346987 -0.33479861039724795
12650613333.333334 -0.9465001236440364 -0.3227034489149881 1.5487613129626065e-16 5.324751195403569e-18 1.5487613129626065e-16 5.324751195403569e-18 -0.9464998954166547 -0.32270411831283613
12651230666.666666 -0.9505550759388162 -0.3105560297382017 1.5490168536743586e-16 3.3265685285616263e-18 1.5490168536743586e-16 3.3265685285616263e-18 -0.9505548563132278 -0.3105567019710605
12651848000.0 -0.954454134889711 -0.2983576786203696 1.5490147274186965e-16 1.3286124151765616e-18 1.5490147274186965e-16 1.3286124151765616e-18 -0.954453923901094 -0.29835835357772
12652465333.333334 -0.958196661041697 -0.2861103961207044 1.5487550350924166e-16 -6.68785055235892e-19 1.5487550350924166e-16 -6.68785055235892e-19 -0.9581964587238087 -0.2861110736915911
12653082666.666666 -0.961782040611458 -0.27381619082344427 1.5482379203706938e-16 -2.6652920156110058e-18 1.5482379203706938e-16 -2.6652920156110058e-18 -0.9617818469966332 -0.273816870896495
12653700000.0 -0.9652096855881702 -0.2614770790080616 1.5474635696664832e-16 -4.6605768764466484e-18 1.5474635696664832e-16 -4.6605768764466484e-18 -0.96520950070731 -0.2614777614715035
12654317333.333334 -0.9684790338297996 -0.24909508431902197 1.5464322120828942e-16 -6.654308380724094e-18 1.5464322120828942e-16 -6.654308380724094e-18 -0.9684788577123719 -0.24909576906070177
12654934666.666666 -0.9715895491553976 -0.23667223743357577 1.5451441193584276e-16 -8.646155658919298e-18 1.5451441193584276e-16 -8.646155658919298e-18 -0.9715893818294294 -0.23667292434097742
12655552000.0 -0.9745407214330367 -0.22421057572866426 1.5435996058051657e-16 -1.063578828384023e-17 1.5435996058051657e-16 -1.063578828384023e-17 -0.9745405629251124 -0.22421126468892777
12656169333.333334 -0.9773320666633712 -0.21171214294722734 1.54179902823995e-16 -1.2622876325334363e-17 1.54179902823995e-16 -1.2622876325334363e-17 -0.9773319169986238 -0.21171283384716655
12656786666.666666 -0.9799631270590943 -0.1991789888626936 1.5397427859084673e-16 -1.460709040497111e-17 1.5397427859084673e-16 -1.460709040497111e-17 -0.979962986261206 -0.19917968158881572
12657404000.0 -0.9824334711200268 -0.1866131689427565 1.5374313204023437e-16 -1.6588101750567424e-17 1.5374313204023437e-16 -1.6588101750567424e-17 -0.9824333392112238 -0.18661386338128036
12658021333.333334 -0.9847426937038585 -0.17401674401238337 1.5348651155692213e-16 -1.8565582250600068e-17 1.5348651155692213e-16 -1.8565582250600068e-17 -0.9847425707049057 -0.17401744004925782
12658638666.666666 -0.9868904160925607 -0.16139177991600262 1.5320446974158673e-16 -2.0539204508478234e-17 1.5320446974158673e-16 -2.0539204508478234e-17 -0.9868903020227597 -0.1613924774369255
12659256000.0 -0.9888762860545611 -0.1487403471783655 1.528970634004251e-16 -2.2508641896719673e-17 1.528970634004251e-16 -2.2508641896719673e-17 -0.9888761809317489 -0.14874104606880267
12659873333.333334 -0.9906999779024774 -0.136064520665142 1.5256435353407818e-16 -2.4473568610890695e-17 1.5256435353407818e-16 -2.4473568610890695e-17 -0.9906998817430204 -0.1360652208103457
12660490666.666666 -0.9923611925465059 -0.12336637924280676 1.522064053258536e-16 -2.6433659723467055e-17 1.522064053258536e-16 -2.6433659723467055e-17 -0.9923611053653009 -0.1233670805278349
12661108000.0 -0.9938596575435333 -0.11064800543730678 1.5182328812925223e-16 -2.838859123753602e-17 1.5182328812925223e-16 -2.838859123753602e-17 -0.9938595793540014 -0.11064870774704125
12661725333.333334 -0.9951951271417542 -0.09791148509297187 1.5141507545483028e-16 -3.03380401402023e-17 1.5141507545483028e-16 -3.03380401402023e-17 -0.9951950579558418 -0.09791218831213797
12662342666.666666 -0.9963673823210252 -0.08515890703003684 1.509818449563451e-16 -3.228168445597352e-17 1.509818449563451e-16 -3.228168445597352e-17 -0.9963673221492012 -0.0851596110432219
12662960000.0 -0.9973762308287628 -0.0723923627022388 1.5052367841623296e-16 -3.421920329986599e-17 1.5052367841623296e-16 -3.421920329986599e-17 -0.9973761796800159 -0.07239306739391112
12663577333.333334 -0.9982215072114612 -0.0596139458539839 1.5004066173041451e-16 -3.6150276930274404e-17 1.5004066173041451e-16 -3.6150276930274404e-17 -0.9982214650932995 -0.059614651108511794
12664194666.666666 -0.9989030728418536 -0.04682575217662807 1.4953288489240619e-16 -3.807458680170813e-17 1.4953288489240619e-16 -3.807458680170813e-17 -0.9989030397603038 -0.04682645787829887
12664812000.0 -0.9994208159416299 -0.034029878964948496 1.4900044197676574e-16 -3.999181561726528e-17 1.4900044197676574e-16 -3.999181561726528e-17 -0.9994207919012382 -0.03403058499798755
12665429333.333334 -0.9997746515997734 -0.021228424773296093 1.4844343112186446e-16 -4.190164738088736e-17 1.4844343112186446e-16 -4.190164738088736e-17 -0.9997746366035991 -0.021229131021885537
12666046666.666666 -0.999964521786482 -0.00842348907137042 1.4786195451199262e-16 -4.380376744936886e-17 1.4786195451199262e-16 -4.380376744936886e-17 -0.9999645158361038 -0.008424195419668438
12666664000.0 -0.9999903953626981 0.004382828100496062 1.4725611835878478e-16 -4.569786258417223e-17 1.4725611835878478e-16 -4.569786258417223e-17 -0.9999903984582101 0.004382121768336377
12667281333.333334 -0.9998522680851986 0.017188426475010978 1.4662603288202342e-16 -4.75836210028549e-17 1.4662603288202342e-16 -4.75836210028549e-17 -0.9998522802252126 0.01718772027482261
12667898666.666666 -0.9995501626073034 0.029991205902996157 1.4597181228972264e-16 -4.9460732430435476e-17 1.4597181228972264e-16 -4.9460732430435476e-17 -0.9995501837889464 0.02999049995057914
12668516000.0 -0.999084128475151 0.0427890666975898 1.4529357475760463e-16 -5.132888815032986e-17 1.4529357475760463e-16 -5.132888815032986e-17 -0.9990841586940686 0.04278836110869227
12669133333.333334 -0.9984542421195842 0.055579909978429834 1.4459144240792545e-16 -5.318778105501799e-17 1.4459144240792545e-16 -5.318778105501799e-17 -0.9984542813699394 0.055579204868728985
12669750666.666666 -0.9976606068435974 0.06836163801627289 1.4386554128761488e-16 -5.5037105696530795e-17 1.4386554128761488e-16 -5.5037105696530795e-17 -0.9976606551180744 0.06836093350135618
