! Parameters = {f0=12700.012000; bw=77.238000; Q=6100.000000; N=10; m_0_1=1.228924; m_1_1=-0.330887; m_1_2=1.063736; m_2_2=-0.331536; m_2_3=0.700699; m_2_8=-0.001490; m_2_9=0.035214; m_3_3=-0.333473; m_3_4=0.589228; m_3_7=-0.000890; m_3_8=-0.097978; m_3_9=-0.001490; m_4_4=-0.336398; m_4_5=0.425563; m_4_6=0.002627; m_4_7=-0.118527; m_4_8=-0.000890; m_5_5=-0.336016; m_5_6=0.832918; m_5_7=0.002627; m_6_6=-0.336017; m_6_7=0.425905; m_7_7=-0.336384; m_7_8=0.589346; m_8_8=-0.333475; m_8_9=0.701012; m_9_9=-0.331541; m_9_10=1.064814; m_10_10=-0.330897; m_10_11=1.229719}
!
! Created with skrf (http://scikit-rf.org).
# Hz S RI R 50.0 
!freq ReS11 ImS11 ReS21 ImS21 ReS12 ImS12 ReS22 ImS22
12607400000.0 0.9009431296770676 0.433937181038367 -8.958726182963371e-17 -1.4535612942435297e-17 -8.958726182963371e-17 -1.4535612942435297e-17 0.9009428486838827 0.43393776443771825
12608017333.333334 0.9049433987411101 0.4255319554096053 -8.970232818130672e-17 -1.369042172566529e-17 -8.970232818130672e-17 -1.369042172566529e-17 0.9049431232041624 0.42553254137061103
12608634666.666666 0.9088652544853878 0.41708985745166033 -8.980942692053908e-17 -1.2844352388138539e-17 -8.980942692053908e-17 -1.2844352388138539e-17 0.9088649844280163 0.4170904459232982
12609252000.0 0.9127083570812647 0.40861161867212376 -8.990855171111112e-17 -1.1997479982770313e-17 -8.990855171111112e-17 -1.1997479982770313e-17 0.9127080925263333 0.4086122096031599
12609869333.333334 0.916472373524112 0.4000979737100845 -8.999969692324188e-17 -1.1149879603973153e-17 -8.999969692324188e-17 -1.1149879603973153e-17 0.9164721144940037 0.4000985670490761
12610486666.666666 0.9201569776620199 0.39154966027278226 -9.008285763380891e-17 -1.0301626381017745e-17 -9.008285763380891e-17 -1.0301626381017745e-17 0.9201567241786385 0.3915502559680837
12611104000.0 0.9237618502242793 0.3829674190711925 -9.015802962650686e-17 -9.45279547137784e-18 -9.015802962650686e-17 -9.45279547137784e-18 0.9237616023090442 0.3829680170709583
12611721333.333334 0.927286678848807 0.37435199375638956 -9.022520939194148e-17 -8.603462054101003e-18 -9.022520939194148e-17 -8.603462054101003e-18 0.9272864365226539 0.3743525940085799
12612338666.666666 0.9307311581093599 0.3657041308547721 -9.028439412766304e-17 -7.753701323156919e-18 -9.028439412766304e-17 -7.753701323156919e-18 0.9307309213927385 0.36570473330715736
12612956000.0 0.934094989542027 0.35702457970329415 -9.033558173813767e-17 -6.903588480787053e-18 -9.033558173813767e-17 -6.903588480787053e-18 0.934094758454899 0.3570251843034592
12613573333.333334 0.9373778816709375 0.3483140923849338 -9.037877083465447e-17 -6.0531987308792324e-18 -9.037877083465447e-17 -6.0531987308792324e-18 0.9373776562327735 0.34831469908028195
12614190666.666666 0.9405795500336491 0.33957342366317955 -9.041396073517137e-17 -5.202607272321558e-18 -9.041396073517137e-17 -5.202607272321558e-18 0.9405793302634294 0.33957403240093814
12614808000.0 0.9436997172057761 0.3308033309166828 -9.044115146409976e-17 -4.351889292359425e-18 -9.044115146409976e-17 -4.351889292359425e-18 0.943699503121989 0.33080394164390775
12615425333.333334 0.946738112824972 0.32200457407379285 -9.046034375202438e-17 -3.501119959979222e-18 -9.046034375202438e-17 -3.501119959979222e-18 0.94673790444561 0.3220051867373724
12616042666.666666 0.9496944736144296 0.31317791554649327 -9.047153903536311e-17 -2.6503744192731518e-18 -9.047153903536311e-17 -2.6503744192731518e-18 0.9496942709569888 0.31317853009315283
12616660000.0 0.9525685434056286 0.3043241201645267 -9.047473945596394e-17 -1.799727782808819e-18 -9.047473945596394e-17 -1.799727782808819e-18 0.9525683464871095 0.3043247365408347
12617277333.333334 0.9553600731605734 0.29544395510901683 -9.046994786063925e-17 -9.492551250273441e-19 -9.046994786063925e-17 -9.492551250273441e-19 0.955359881997476 0.2954445732613876
12617894666.666666 0.9580688209933497 0.28653818984604396 -9.045716780063945e-17 -9.903147562428873e-20 -9.045716780063945e-17 -9.903147562428873e-20 0.9580686356016747 0.28653880972074347
12618512000.0 0.9606945521911285 0.2776075960598361 -9.043640353106268e-17 7.508681870654621e-19 -9.043640353106268e-17 7.508681870654621e-19 0.9606943725863744 0.2776082176029864
12619129333.333334 0.9632370392344137 0.26865294758620195 -9.040766001020494e-17 1.6003689426371239e-18 -9.040766001020494e-17 1.6003689426371239e-18 0.9632368654315763 0.2686535707437857
12619746666.666666 0.9656960618168615 0.2596750203451237 -9.037094289884648e-17 2.4493959352394546e-18 -9.037094289884648e-17 2.4493959352394546e-18 0.965695893830431 0.25967564506298857
12620364000.0 0.9680714068643164 0.25067459227368544 -9.032625855947716e-17 3.297874380138482e-18 -9.032625855947716e-17 3.297874380138482e-18 0.9680712447082809 0.2506752184975502
12620981333.333334 0.9703628685532392 0.24165244325883267 -9.027361405546104e-17 4.1457295702878515e-18 -9.027361405546104e-17 4.1457295702878515e-18 0.9703627122410781 0.24165307093429025
12621598666.666666 0.972570248328631 0.2326093550694362 -9.021301715013802e-17 4.992886882899977e-18 -9.021301715013802e-17 4.992886882899977e-18 0.9725700978733165 0.2326099841419592
12622216000.0 0.9746933549211532 0.22354611128888224 -9.014447630586507e-17 5.839271785994373e-18 -9.014447630586507e-17 5.839271785994373e-18 0.9746932103351479 0.22354674170382738
12622833333.333334 0.9767320043637683 0.21446349724689903 -9.006800068299499e-17 6.684809844953348e-18 -9.006800068299499e-17 6.684809844953348e-18 0.9767318656590258 0.21446412894951225
12623450666.666666 0.978686020007611 0.20536229995181274 -8.998360013879675e-17 7.529426729025555e-18 -8.998360013879675e-17 7.529426729025555e-18 0.978685887195574 0.20536293288723367
12624068000.0 0.9805552325373452 0.19624330802213144 -8.989128522631051e-17 8.373048217879306e-18 -8.989128522631051e-17 8.373048217879306e-18 0.9805551056289459 0.19624394213539859
12624685333.333334 0.9823394799858567 0.18710731161809963 -8.979106719314443e-17 9.215600208094857e-18 -8.979106719314443e-17 9.215600208094857e-18 0.9823393589915136 0.18710794685415455
12625302666.666666 0.9840386077481967 0.1779551023736768 -8.968295798021313e-17 1.0057008719641497e-17 -8.968295798021313e-17 1.0057008719641497e-17 0.9840384926778153 0.17795573867736916
12625920000.0 0.9856524685950794 0.16878747332744015 -8.956697022040676e-17 1.08971999024048e-17 -8.956697022040676e-17 1.08971999024048e-17 0.9856523594580502 0.16878811064353258
12626537333.333334 0.9871809226855766 0.159605218854175 -8.944311723721188e-17 1.1736100042600578e-17 -8.944311723721188e-17 1.1736100042600578e-17 0.9871808194907756 0.15960585712734768
12627154666.666666 0.9886238375792405 0.15040913459604258 -8.931141304326093e-17 1.2573635569263395e-17 -8.931141304326093e-17 1.2573635569263395e-17 0.9886237403350285 0.15040977377089834
12627772000.0 0.9899810882476209 0.1412000173933854 -8.917187233882598e-17 1.3409733060681697e-17 -8.917187233882598e-17 1.3409733060681697e-17 0.989980996961841 0.1412006574144542
12628389333.333334 0.9912525570850458 0.13197866521598922 -8.902451051025661e-17 1.4244319250792008e-17 -8.902451051025661e-17 1.4244319250792008e-17 0.9912524717650256 0.1319793060277334
12629006666.666666 0.9924381339188507 0.1227458770937151 -8.88693436283465e-17 1.507732103563033e-17 -8.88693436283465e-17 1.507732103563033e-17 0.9924380545713994 0.12274651864053361
12629624000.0 0.9935377160189086 0.11350245304734674 -8.870638844665448e-17 1.5908665479675553e-17 -8.870638844665448e-17 1.5908665479675553e-17 0.9935376426503183 0.11350309527358059
12630241333.333334 0.9945512081065322 0.10424919401929802 -8.85356623997529e-17 1.6738279822256474e-17 -8.85356623997529e-17 1.6738279822256474e-17 0.9945511407225736 0.1042498368692344
12630858666.666666 0.9954785223627163 0.09498690180429518 -8.835718360142874e-17 1.7566091483872797e-17 -8.835718360142874e-17 1.7566091483872797e-17 0.9954784609686441 0.09498754522217305
12631476000.0 0.996319578435793 0.08571637897950644 -8.817097084281184e-17 1.839202807256546e-17 -8.817097084281184e-17 1.839202807256546e-17 0.9963195230363417 0.0857170229095209
12632093333.333334 0.9970743034483389 0.07643842883553556 -8.797704359045716e-17 1.9216017390207852e-17 -8.797704359045716e-17 1.9216017390207852e-17 0.9970742540477219 0.0764390732218427
12632710666.666666 0.9977426320035152 0.06715385530656233 -8.777542198436313e-17 2.0037987438799964e-17 -8.777542198436313e-17 2.0037987438799964e-17 0.9977425886054256 0.06715450009328415
12633328000.0 0.9983245061907493 0.05786346290045485 -8.756612683592298e-17 2.08578664267773e-17 -8.756612683592298e-17 2.08578664267773e-17 0.9983244687983625 0.05786410803168432
12633945333.333334 0.9988198755907235 0.04856805662951261 -8.734917962583478e-17 2.1675582775226805e-17 -8.734917962583478e-17 2.1675582775226805e-17 0.9988198442066913 0.048568702049318145
12634562666.666666 0.9992286972797633 0.039268441940343374 -8.712460250193955e-17 2.2491065124141585e-17 -8.712460250193955e-17 2.2491065124141585e-17 0.9992286719062188 0.039269087592773935
12635180000.0 0.9995509358335488 0.029965424644298418 -8.689241827700395e-17 2.330424233863858e-17 -8.689241827700395e-17 2.330424233863858e-17 0.999550916472102 0.029966070473388198
12635797333.333334 0.9997865633301839 0.02065981084753523 -8.665265042645059e-17 2.411504351513433e-17 -8.665265042645059e-17 2.411504351513433e-17 0.9997865499819261 0.020660456797308654
12636414666.666666 0.9999355593526212 0.0113524068811971 -8.64053230860249e-17 2.49233979875227e-17 -8.64053230860249e-17 2.49233979875227e-17 0.9999355520181206 0.011353052895673569
12637032000.0 0.9999979109904261 0.0020440192315443716 -8.615046104940688e-17 2.572923533331668e-17 -8.615046104940688e-17 2.572923533331668e-17 0.9999979096697311 0.002044665254743171
12637649333.333334 0.9999736128408996 -0.007264545529899084 -8.588808976576675e-17 2.6532485379766544e-17 -8.588808976576675e-17 2.6532485379766544e-17 0.9999736175335355 -0.007263899553953961
12638266666.666666 0.9998626670095393 -0.016572480816348958 -8.561823533725943e-17 2.733307820996564e-17 -8.561823533725943e-17 2.733307820996564e-17 0.9998626777145136 -0.01657183494362396
12638884000.0 0.9996650831098652 -0.025878980095480696 -8.53409245164706e-17 2.813094416890436e-17 -8.53409245164706e-17 2.813094416890436e-17 0.999665099825663 -0.025878334381927864
12639501333.333334 0.999380878262583 -0.03518323695942918 -8.505618470379464e-17 2.892601386953775e-17 -8.505618470379464e-17 2.892601386953775e-17 0.9993809009871687 -0.0351825914609813
12640118666.666666 0.9990100770941034 -0.04448444519457881 -8.476404394477344e-17 2.9718218198773624e-17 -8.476404394477344e-17 2.9718218198773624e-17 0.9990101058249206 -0.04448379996714453
12640736000.0 0.9985527117343953 -0.05378179885167726 -8.446453092735274e-17 3.050748832351136e-17 -8.446453092735274e-17 3.050748832351136e-17 0.9985527464683676 -0.0537811539511363
12641353333.333334 0.998008821814223 -0.06307449231521675 -8.415767497911763e-17 3.129375569655759e-17 -8.415767497911763e-17 3.129375569655759e-17 0.9980088625477552 -0.06307384779741512
12641970666.666666 0.9973784544616969 -0.07236172037363824 -8.384350606444152e-17 3.207695206259825e-17 -8.384350606444152e-17 3.207695206259825e-17 0.9973785011906733 -0.07236107629438324
12642588000.0 0.9966616642981961 -0.08164267828890409 -8.352205478159448e-17 3.285700946410409e-17 -8.352205478159448e-17 3.285700946410409e-17 0.9966617170179827 -0.08164203470395964
12643205333.333334 0.9958585134336299 -0.09091656186634206 -8.31933523598003e-17 3.3633860247198266e-17 -8.31933523598003e-17 3.3633860247198266e-17 0.9958585721390733 -0.09091591883142376
12643822666.666666 0.9949690714610575 -0.10018256752427201 -8.285743065622703e-17 3.4407437067525553e-17 -8.285743065622703e-17 3.4407437067525553e-17 0.9949691361464872 -0.10018192509504244
12644440000.0 0.9939934154506673 -0.10943989236357987 -8.251432215293205e-17 3.5177672896070907e-17 -8.251432215293205e-17 3.5177672896070907e-17 0.9939934861098937 -0.10943925059564355
12645057333.333334 0.9929316299430833 -0.1186877342374016 -8.216405995375677e-17 3.5944501024938293e-17 -8.216405995375677e-17 3.5944501024938293e-17 0.9929317065694004 -0.11868709318630034
12645674666.666666 0.991783806942064 -0.12792529182043166 -8.180667778115407e-17 3.67078550731319e-17 -8.180667778115407e-17 3.67078550731319e-17 0.9917838895282507 -0.1279246515416399
12646292000.0 0.9905500459064817 -0.13715176467878135 -8.144220997296993e-17 3.746766899228736e-17 -8.144220997296993e-17 3.746766899228736e-17 0.9905501344447998 -0.1371511252277011
12646909333.333334 0.9892304537417685 -0.14636635333877174 -8.1070691479183e-17 3.8223877072348266e-17 -8.1070691479183e-17 3.8223877072348266e-17 0.9892305482239667 -0.14636571477072807
12647526666.666666 0.9878251447906158 -0.15556825935657548 -8.06921578585672e-17 3.8976413947264153e-17 -8.06921578585672e-17 3.8976413947264153e-17 0.9878252452079263 -0.1555676217268112
12648144000.0 0.9863342408230454 -0.16475668538745675 -8.030664527532338e-17 3.972521460060669e-17 -8.030664527532338e-17 3.972521460060669e-17 0.9863343471661887 -0.1647560487511283
12648761333.333334 0.9847578710259081 -0.17393083525458092 -7.991419049564714e-17 4.0470214371181216e-17 -7.991419049564714e-17 4.0470214371181216e-17 0.9847579832850909 -0.173930199666753
12649378666.666666 0.9830961719916751 -0.18308991401808752 -7.951483088425641e-17 4.1211348958579205e-17 -7.951483088425641e-17 4.1211348958579205e-17 0.983096290156593 -0.18308927953372878
12649996000.0 0.9813492877065635 -0.19223312804419562 -7.910860440085081e-17 4.1948554428730935e-17 -7.910860440085081e-17 4.1948554428730935e-17 0.981349411766402 -0.19223249471817372
12650613333.333334 0.9795173695381049 -0.20135968507372037 -7.869554959652849e-17 4.268176721940535e-17 -7.869554959652849e-17 4.268176721940535e-17 0.979517499481539 -0.20135905296079723
12651230666.666666 0.9776005762220363 -0.21046879429069482 -7.82757056101663e-17 4.341092414565063e-17 -7.82757056101663e-17 4.341092414565063e-17 0.977600712037233 -0.21046816344552202
12651848000.0 0.975599073848472 -0.21955966639125593 -7.784911216471347e-17 4.413596240526376e-17 -7.784911216471347e-17 4.413596240526376e-17 0.9755992155230906 -0.21955903686836978
12652465333.333334 0.9735130358476037 -0.22863151365159243 -7.741580956347731e-17 4.4856819584148735e-17 -7.741580956347731e-17 4.4856819584148735e-17 0.9735131833687967 -0.2286308855054093
12653082666.666666 0.9713426429746269 -0.23768354999642374 -7.697583868633623e-17 4.557343366168084e-17 -7.697583868633623e-17 4.557343366168084e-17 0.9713427963290417 -0.23768292328123558
12653700000.0 0.9690880832940572 -0.24671499106719613 -7.652924098588908e-17 4.6285743016055374e-17 -7.652924098588908e-17 4.6285743016055374e-17 0.969088242467837 -0.2467143658371654
12654317333.333334 0.9667495521635086 -0.2557250542897434 -7.607605848360065e-17 4.699368642952528e-17 -7.607605848360065e-17 4.699368642952528e-17 0.9667497171422937 -0.25572443059889877
12654934666.666666 0.9643272522166769 -0.26471295894245567 -7.561633376584705e-17 4.769720309368591e-17 -7.561633376584705e-17 4.769720309368591e-17 0.9643274229856066 -0.26471233684468704
12655552000.0 0.9618213933458206 -0.27367792622376275 -7.515010997994514e-17 4.8396232614666857e-17 -7.515010997994514e-17 4.8396232614666857e-17 0.9618215698895343 -0.27367730577281707
12656169333.333334 0.9592321926836245 -0.28261917931945446 -7.467743083013421e-17 4.909071501828836e-17 -7.467743083013421e-17 4.909071501828836e-17 0.9592323749862607 -0.2826185605689302
12656786666.666666 0.9565598745842789 -0.2915359434703455 -7.419834057348305e-17 4.978059075521856e-17 -7.419834057348305e-17 4.978059075521856e-17 0.9565600626294801 -0.29153532647368885
12657404000.0 0.9538046706041393 -0.3004274460390821 -7.371288401578446e-17 5.046580070603826e-17 -7.371288401578446e-17 5.046580070603826e-17 0.9538048643750523 -0.30042683084958216
12658021333.333334 0.9509668194815768 -0.30929291657736213 -7.322110650737251e-17 5.114628618631232e-17 -7.322110650737251e-17 5.114628618631232e-17 0.9509670189608533 -0.3092923032481461
12658638666.666666 0.9480465671163938 -0.31813158689236914 -7.272305393892465e-17 5.1821988951574634e-17 -7.272305393892465e-17 5.1821988951574634e-17 0.948046772286194 -0.3181309754763983
12659256000.0 0.9450441665484081 -0.3269426911136897 -7.221877273718122e-17 5.249285120232416e-17 -7.221877273718122e-17 5.249285120232416e-17 0.945044377390399 -0.3269420816637536
12659873333.333334 0.9419598779355713 -0.3357254657595104 -7.17083098606475e-17 5.315881558894049e-17 -7.17083098606475e-17 5.315881558894049e-17 0.9419600944309316 -0.3357248583282238
12660490666.666666 0.9387939685314896 -0.3444791498026157 -7.119171279525231e-17 5.381982521655621e-17 -7.119171279525231e-17 5.381982521655621e-17 0.9387941906609094 -0.344478544442413
12661108000.0 0.935546712662141 -0.3532029847366781 -7.066902954992326e-17 5.4475823649937345e-17 -7.066902954992326e-17 5.4475823649937345e-17 0.9355469404058242 -0.35320238149980926
12661725333.333334 0.9322183917022094 -0.3618962146416882 -7.014030865217786e-17 5.512675491824314e-17 -7.014030865217786e-17 5.512675491824314e-17 0.9322186250398757 -0.3618956135802139
12662342666.666666 0.9288092940506566 -0.3705580862495891 -6.960559914361624e-17 5.577256351981311e-17 -6.960559914361624e-17 5.577256351981311e-17 0.9288095329615426 -0.3705574874153767
12662960000.0 0.925319715105752 -0.37918784900949387 -6.906495057539532e-17 5.64131944268788e-17 -6.906495057539532e-17 5.64131944268788e-17 0.9253199595686138 -0.37918725245421275
12663577333.333334 0.9217499572394344 -0.38778475515282634 -6.851841300366565e-17 5.704859309022384e-17 -6.851841300366565e-17 5.704859309022384e-17 0.921750207232549 -0.38778416092794316
12664194666.666666 0.9181003297711862 -0.39634805975793086 -6.796603698494415e-17 5.76787054438281e-17 -6.796603698494415e-17 5.76787054438281e-17 0.9181005852723532 -0.3963474679147054
12664812000.0 0.9143711489411424 -0.40487702081482896 -6.740787357146728e-17 5.830347790943712e-17 -6.740787357146728e-17 5.830347790943712e-17 0.9143714099276874 -0.40487643140430996
12665429333.333334 0.9105627378827573 -0.41337089928935894 -6.684397430648588e-17 5.892285740110914e-17 -6.684397430648588e-17 5.892285740110914e-17 0.9105630043315317 -0.41337031236237903
12666046666.666666 0.906675426594828 -0.4218289591871608 -6.627439121952731e-17 5.953679132970461e-17 -6.627439121952731e-17 5.953679132970461e-17 0.9066756984822126 -0.42182837479433244
12666664000.0 0.9027095519127347 -0.4302504676178121 -6.569917682160671e-17 6.014522760734163e-17 -6.569917682160671e-17 6.014522760734163e-17 0.9027098292146418 -0.4302498858095236
12667281333.333334 0.8986654574794928 -0.43863469485781714 -6.511838410041488e-17 6.07481146517869e-17 -6.511838410041488e-17 6.07481146517869e-17 0.8986657401713674 -0.4386341156842277
12667898666.666666 0.8945434937158202 -0.4469809144141728 -6.453206651545032e-17 6.134540139081683e-17 -6.453206651545032e-17 6.134540139081683e-17 0.894543781772643 -0.44698033792520875
12668516000.0 0.890344017789734 -0.45528840308739404 -6.394027799311156e-17 6.1937037266532e-17 -6.394027799311156e-17 6.1937037266532e-17 0.8903443111860232 -0.45528782933274387
12669133333.333334 0.8860673935857901 -0.46355644103379706 -6.334307292176605e-17 6.252297223960832e-17 -6.334307292176605e-17 6.252297223960832e-17 0.8860676922956041 -0.4635558700629078
12669750666.666666 0.8817139916733898 -0.47178431182820535 -6.27405061467641e-17 6.310315679351666e-17 -6.27405061467641e-17 6.310315679351666e-17 0.8817142956703283 -0.47178374369027776
12670368000.0 0.8772841892746784 -0.4799713025260004 -6.213263296541286e-17 6.367754193869685e-17 -6.213263296541286e-17 6.367754193869685e-17 0.8772844985318865 -0.4799707372699853
