! Parameters = {f0=12700.012000; bw=77.238000; Q=6100.000000; N=10; m_0_1=1.222718; m_1_1=-0.423980; m_1_2=1.057530; m_2_2=-0.424629; m_2_3=0.694493; m_2_8=-0.001800; m_2_9=0.034904; m_3_3=-0.426566; m_3_4=0.583022; m_3_7=-0.001200; m_3_8=-0.098288; m_3_9=-0.001800; m_4_4=-0.429491; m_4_5=0.419357; m_4_6=0.002317; m_4_7=-0.118837; m_4_8=-0.001200; m_5_5=-0.429109; m_5_6=0.826712; m_5_7=0.002317; m_6_6=-0.429110; m_6_7=0.419699; m_7_7=-0.429477; m_7_8=0.583140; m_8_8=-0.426568; m_8_9=0.694806; m_9_9=-0.424634; m_9_10=1.058608; m_10_10=-0.423990; m_10_11=1.223513}
!
! Created with skrf (http://scikit-rf.org).
# Hz S RI R 50.0 
!freq ReS11 ImS11 ReS21 ImS21 ReS12 ImS12 ReS22 ImS22
12607400000.0 -0.4917798257704297 -0.8707195891703836 6.327506334476786e-17 6.119086411773723e-17 6.327506334476786e-17 6.119086411773723e-17 -0.49177926477975864 -0.8707199060160028
12608017333.333334 -0.49970469494737657 -0.8661958311186823 6.382367014977441e-17 6.059339848999892e-17 6.382367014977441e-17 6.059339848999892e-17 -0.49970413689861537 -0.8661961530544027
12608634666.666666 -0.5075879547425045 -0.8615999467271087 6.436664304243906e-17 5.999102209247308e-17 6.436664304243906e-17 5.999102209247308e-17 -0.5075873996818308 -0.8616002737256262
12609252000.0 -0.5154289487331053 -0.8569323186855085 6.490393813795497e-17 5.938378798276311e-17 6.490393813795497e-17 5.938378798276311e-17 -0.5154283967064422 -0.8569326507190997
12609869333.333334 -0.5232270240158081 -0.8521933356577002 6.543551205057544e-17 5.877174960994834e-17 6.543551205057544e-17 5.877174960994834e-17 -0.5232264750688229 -0.852193672698226
12610486666.666666 -0.5309815312608988 -0.8473833922491439 6.5961321897081e-17 5.815496080991558e-17 6.5961321897081e-17 5.815496080991558e-17 -0.5309809854389973 -0.8473837342680514
12611104000.0 -0.5386918247667273 -0.8425028889738774 6.648132530024476e-17 5.753347580061402e-17 6.648132530024476e-17 5.753347580061402e-17 -0.5386912821150508 -0.8425032359422006
12611721333.333334 -0.546357262512989 -0.8375522322214595 6.699548039221147e-17 5.690734917732559e-17 6.699548039221147e-17 5.690734917732559e-17 -0.5463567230764101 -0.8375525841098236
12612338666.666666 -0.5539772062145003 -0.8325318342229405 6.750374581785743e-17 5.627663590787757e-17 6.750374581785743e-17 5.627663590787757e-17 -0.5539766700376202 -0.8325321910015651
12612956000.0 -0.5615510213744154 -0.8274421130164863 6.800608073810289e-17 5.564139132782665e-17 6.800608073810289e-17 5.564139132782665e-17 -0.561550488501559 -0.8274424746551854
12613573333.333334 -0.5690780773367045 -0.8222834924128035 6.850244483316622e-17 5.500167113563168e-17 6.850244483316622e-17 5.500167113563168e-17 -0.5690775478119172 -0.8222838588809896
12614190666.666666 -0.5765577473389755 -0.8170564019596455 6.899279830578747e-17 5.435753138777759e-17 6.899279830578747e-17 5.435753138777759e-17 -0.5765572212060206 -0.8170567732263335
12614808000.0 -0.5839894085646159 -0.8117612769060784 6.94771018843979e-17 5.370902849388305e-17 6.94771018843979e-17 5.370902849388305e-17 -0.5839888858669686 -0.8117616529398846
12615425333.333334 -0.5913724421945341 -0.8063985581663132 6.995531682625193e-17 5.3056219211767714e-17 6.995531682625193e-17 5.3056219211767714e-17 -0.5913719229753801 -0.806398938935461
12616042666.666666 -0.5987062334587607 -0.8009686922829516 7.042740492049718e-17 5.239916064251421e-17 7.042740492049718e-17 5.239916064251421e-17 -0.5987057177609916 -0.800969077755273
12616660000.0 -0.605990171687704 -0.7954721313897443 7.089332849122019e-17 5.173791022547265e-17 7.089332849122019e-17 5.173791022547265e-17 -0.6059896595539148 -0.7954725215326844
12617277333.333334 -0.6132236503628897 -0.7899093331740357 7.135305040042486e-17 5.107252573326659e-17 7.135305040042486e-17 5.107252573326659e-17 -0.6132231418353731 -0.7899097279546511
12617894666.666666 -0.6204060671674142 -0.7842807608386795 7.18065340509705e-17 5.040306526676497e-17 7.18065340509705e-17 5.040306526676497e-17 -0.6204055622881597 -0.7842811602236462
12618512000.0 -0.6275368240364185 -0.7785868830632339 7.22537433894849e-17 4.972958724999488e-17 7.22537433894849e-17 4.972958724999488e-17 -0.6275363228471069 -0.7785872870188466
12619129333.333334 -0.6346153272064348 -0.7728281739652783 7.269464290918274e-17 4.905215042509921e-17 7.269464290918274e-17 4.905215042509921e-17 -0.6346148297484364 -0.7728285824574551
12619746666.666666 -0.6416409872651229 -0.7670051130607115 7.312919765268218e-17 4.837081384720085e-17 7.312919765268218e-17 4.837081384720085e-17 -0.6416404935794929 -0.7670055260549962
12620364000.0 -0.6486132192004107 -0.7611181852237642 7.355737321476038e-17 4.7685636879263424e-17 7.355737321476038e-17 4.7685636879263424e-17 -0.6486127293278862 -0.7611186026853284
12620981333.333334 -0.6555314424488797 -0.755167880646898 7.397913574503599e-17 4.6996679186965025e-17 7.397913574503599e-17 4.6996679186965025e-17 -0.6555309564298761 -0.7551683025405452
12621598666.666666 -0.6623950809443924 -0.7491546947997516 7.439445195064197e-17 4.630400073349017e-17 7.439445195064197e-17 4.630400073349017e-17 -0.6623945988190004 -0.7491551210899197
12622216000.0 -0.6692035631660129 -0.7430791283879187 7.480328909882933e-17 4.5607661774329465e-17 7.480328909882933e-17 4.5607661774329465e-17 -0.6692030849739956 -0.7430795590386832
12622833333.333334 -0.6759563221855135 -0.7369416873113307 7.520561501951892e-17 4.490772285206348e-17 7.520561501951892e-17 4.490772285206348e-17 -0.675955847966302 -0.7369421222864072
12623450666.666666 -0.6826527957145603 -0.7307428826221523 7.560139810781622e-17 4.420424479110481e-17 7.560139810781622e-17 4.420424479110481e-17 -0.6826523255072512 -0.7307433218849
12624068000.0 -0.689292426151701 -0.724483230482072 7.599060732646898e-17 4.349728869243118e-17 7.599060732646898e-17 4.349728869243118e-17 -0.6892919599950537 -0.7244836739954972
12624685333.333334 -0.6958746606286916 -0.7181632521194197 7.637321220828371e-17 4.278691592828423e-17 7.637321220828371e-17 4.278691592828423e-17 -0.6958741985611233 -0.7181636998461777
12625302666.666666 -0.7023989510563868 -0.7117834737859013 7.67491828584794e-17 4.207318813687136e-17 7.67491828584794e-17 4.207318813687136e-17 -0.7023984931159718 -0.7117839256883012
12625920000.0 -0.708864754170749 -0.7053444267124257 7.711848995701071e-17 4.135616721701189e-17 7.711848995701071e-17 4.135616721701189e-17 -0.7088643003952134 -0.7053448827524316
12626537333.333334 -0.7152715315776755 -0.6988466470652641 7.748110476081802e-17 4.0635915322807314e-17 7.748110476081802e-17 4.0635915322807314e-17 -0.7152710820043954 -0.6988471072045
12627154666.666666 -0.7216187497980174 -0.6922906759012319 7.783699910605133e-17 3.991249485824801e-17 7.783699910605133e-17 3.991249485824801e-17 -0.7216183044640136 -0.6922911401009827
12627772000.0 -0.7279058803121696 -0.6856770591224425 7.818614541023275e-17 3.9185968471820257e-17 7.818614541023275e-17 3.9185968471820257e-17 -0.7279054392541099 -0.6856775273436619
12628389333.333334 -0.7341323996036956 -0.6790063474312701 7.852851667435781e-17 3.845639905111975e-17 7.852851667435781e-17 3.845639905111975e-17 -0.7341319628578852 -0.6790068196345784
12629006666.666666 -0.7402977892032675 -0.6722790962841193 7.886408648497752e-17 3.772384971738176e-17 7.886408648497752e-17 3.772384971738176e-17 -0.740297356805649 -0.6722795724298087
12629624000.0 -0.7464015357316769 -0.6654958658453336 7.9192829016192e-17 3.6988383820071974e-17 7.9192829016192e-17 3.6988383820071974e-17 -0.7464011077178295 -0.665496345893374
12630241333.333334 -0.7524431309425942 -0.6586572209405618 7.951471903162205e-17 3.625006493140213e-17 7.951471903162205e-17 3.625006493140213e-17 -0.7524427073477264 -0.6586577048506004
12630858666.666666 -0.7584220717648222 -0.6517637310097824 7.982973188631654e-17 3.550895684085548e-17 7.982973188631654e-17 3.550895684085548e-17 -0.758421652623773 -0.6517642187411499
12631476000.0 -0.7643378603444572 -0.6448159700595935 8.013784352861634e-17 3.476512354968031e-17 8.013784352861634e-17 3.476512354968031e-17 -0.7643374456916903 -0.6448164615713058
12632093333.333334 -0.7701900040859819 -0.6378145166158194 8.043903050195797e-17 3.4018629265388e-17 8.043903050195797e-17 3.4018629265388e-17 -0.7701895939555848 -0.6378150118665823
12632710666.666666 -0.7759780156934594 -0.6307599536751508 8.073326994663065e-17 3.326953839622693e-17 8.073326994663065e-17 3.326953839622693e-17 -0.7759776101191378 -0.6307604526233613
12633328000.0 -0.7817014132112452 -0.6236528686564178 8.102053960148979e-17 3.2517915545620454e-17 8.102053960148979e-17 3.2517915545620454e-17 -0.7817010122263244 -0.6236533712601708
12633945333.333334 -0.7873597200638522 -0.6164938533520096 8.130081780560634e-17 3.1763825506622915e-17 8.130081780560634e-17 3.1763825506622915e-17 -0.7873593237012712 -0.6164943595690993
12634562666.666666 -0.7929524650957782 -0.6092835038784211 8.15740834998693e-17 3.1007333256350274e-17 8.15740834998693e-17 3.1007333256350274e-17 -0.7929520733880875 -0.6092840136663443
12635180000.0 -0.7984791826107709 -0.6020224206265687 8.184031622853882e-17 3.0248503950390154e-17 8.184031622853882e-17 3.0248503950390154e-17 -0.7984787955901307 -0.6020229339425296
12635797333.333334 -0.8039394124105176 -0.5947112082119095 8.209949614074978e-17 2.948740291719448e-17 8.209949614074978e-17 2.948740291719448e-17 -0.8039390301086952 -0.594711725012823
12636414666.666666 -0.809332699832952 -0.587350475424121 8.235160399195108e-17 2.872409565249215e-17 8.235160399195108e-17 2.872409565249215e-17 -0.8093323222813186 -0.587350995666616
12637032000.0 -0.8146585957902637 -0.579940835176203 8.2596621145309e-17 2.795864781364536e-17 8.2596621145309e-17 2.795864781364536e-17 -0.814658223019791 -0.5799413588166253
12637649333.333334 -0.8199166568061228 -0.5724829044536679 8.283452957305028e-17 2.719112521401776e-17 8.283452957305028e-17 2.719112521401776e-17 -0.8199162888473814 -0.572483431448085
12638266666.666666 -0.8251064450526757 -0.5649773042630762 8.306531185774884e-17 2.6421593817343437e-17 8.306531185774884e-17 2.6421593817343437e-17 -0.8251060819358337 -0.5649778345672811
12638884000.0 -0.8302275283870518 -0.5574246595802563 8.328895119357124e-17 2.5650119732052255e-17 8.328895119357124e-17 2.5650119732052255e-17 -0.8302271701418704 -0.5574251931497701
12639501333.333334 -0.8352794803872624 -0.5498255992983787 8.35054313874594e-17 2.4876769205618356e-17 8.35054313874594e-17 2.4876769205618356e-17 -0.8352791270430955 -0.5498261360884562
12640118666.666666 -0.8402618803876842 -0.5421807561756417 8.371473686026314e-17 2.4101608618891887e-17 8.371473686026314e-17 2.4101608618891887e-17 -0.840261531973473 -0.5421812961412723
12640736000.0 -0.8451743135142982 -0.5344907667822452 8.391685264783448e-17 2.3324704480369192e-17 8.391685264783448e-17 2.3324704480369192e-17 -0.8451739700585714 -0.5344913098781592
12641353333.333334 -0.8500163707189299 -0.5267562714478649 8.41117644020381e-17 2.2546123420571507e-17 8.41117644020381e-17 2.2546123420571507e-17 -0.8500160322498009 -0.5267568176285365
12641970666.666666 -0.8547876488135393 -0.5189779142079733 8.429945839174281e-17 2.1765932186286208e-17 8.429945839174281e-17 2.1765932186286208e-17 -0.8547873153587034 -0.5189784634276242
12642588000.0 -0.8594877505036884 -0.5111563427503817 8.447992150374177e-17 2.0984197634874874e-17 8.447992150374177e-17 2.0984197634874874e-17 -0.8594874220904211 -0.5111568949629849
12643205333.333334 -0.8641162844216819 -0.5032922083612102 8.46531412436201e-17 2.020098672856917e-17 8.46531412436201e-17 2.020098672856917e-17 -0.8641159610768347 -0.5032927635204938
12643822666.666666 -0.8686728651591229 -0.49538616587070455 8.481910573657803e-17 1.9416366528731485e-17 8.481910573657803e-17 1.9416366528731485e-17 -0.8686725469091243 -0.4953867239301561
12644440000.0 -0.8731571132989807 -0.48743887359876054 8.497780372819468e-17 1.8630404190130803e-17 8.497780372819468e-17 1.8630404190130803e-17 -0.8731568001698319 -0.4874394345116305
12645057333.333334 -0.8775686554472388 -0.4794509933000072 8.512922458513787e-17 1.784316695522276e-17 8.512922458513787e-17 1.784316695522276e-17 -0.8775683474645118 -0.47945155701931336
12645674666.666666 -0.8819071242639039 -0.47142319010885403 8.527335829582797e-17 1.7054722148390613e-17 8.527335829582797e-17 1.7054722148390613e-17 -0.8819068214527401 -0.4714237565873849
12646292000.0 -0.8861721584937318 -0.46335613248385715 8.541019547104412e-17 1.6265137170200706e-17 8.541019547104412e-17 1.6265137170200706e-17 -0.8861718608788397 -0.4633567016741762
12646909333.333334 -0.8903634029961696 -0.45525049215230684 8.553972734447349e-17 1.5474479491678203e-17 8.553972734447349e-17 1.5474479491678203e-17 -0.8903631106018227 -0.4552510640067563
12647526666.666666 -0.894480508774985 -0.4471069440541957 8.566194577321764e-17 1.4682816648523094e-17 8.566194577321764e-17 1.4682816648523094e-17 -0.8944802216250192 -0.4471075185249007
12648144000.0 -0.8985231330073495 -0.4389261662859658 8.57768432382367e-17 1.3890216235371573e-17 8.57768432382367e-17 1.3890216235371573e-17 -0.8985228511251618 -0.43892674332483805
12648761333.333334 -0.9024909390723703 -0.4307088400440699 8.588441284474356e-17 1.3096745900040154e-17 8.588441284474356e-17 1.3096745900040154e-17 -0.9024906624809179 -0.43070941960281256
12649378666.666666 -0.9063835965790501 -0.4224556495684047 8.598464832254664e-17 1.2302473337757775e-17 8.598464832254664e-17 1.2302473337757775e-17 -0.906383325300846 -0.42245623159851525
12649996000.0 -0.910200781393893 -0.4141672820851296 8.607754402633681e-17 1.1507466285405704e-17 8.607754402633681e-17 1.1507466285405704e-17 -0.9102005154510063 -0.4141678665379047
12650613333.333334 -0.9139421756678947 -0.40584442774944224 8.61630949359234e-17 1.071179251575401e-17 8.61630949359234e-17 1.071179251575401e-17 -0.9139419150819481 -0.4058450145759818
12651230666.666666 -0.91760746786289 -0.39748777958836934 8.624129665641515e-17 9.915519831699437e-18 8.624129665641515e-17 9.915519831699437e-18 -0.917607212655058 -0.39748836873958016
12651848000.0 -0.9211963527776491 -0.38909803344272426 8.631214541835045e-17 9.118716060490853e-18 8.631214541835045e-17 9.118716060490853e-18 -0.921196102968656 -0.3890986248693242
12652465333.333334 -0.924708531573214 -0.3806758879093178 8.637563807777109e-17 8.321449047979345e-18 8.637563807777109e-17 8.321449047979345e-18 -0.9247082871833336 -0.3806764815618406
12653082666.666666 -0.9281437117977258 -0.3722220442829494 8.643177211624616e-17 7.523786652846963e-18 8.643177211624616e-17 7.523786652846963e-18 -0.928143472846778 -0.37222264011174805
12653700000.0 -0.9315016074109114 -0.36373720649766733 8.648054564084162e-17 6.7257967408365576e-18 8.648054564084162e-17 6.7257967408365576e-18 -0.9315013739182612 -0.3637378044529183
12654317333.333334 -0.9347819388077846 -0.3552220810684438 8.652195738403603e-17 5.9275471790054266e-18 8.652195738403603e-17 5.9275471790054266e-18 -0.9347817107923421 -0.3552226811001518
12654934666.666666 -0.937984432841976 -0.34667737703224094 8.655600670358447e-17 5.1291058299589666e-18 8.655600670358447e-17 5.1291058299589666e-18 -0.9379842103221907 -0.3466779790902421
12655552000.0 -0.941108822848499 -0.33810380588888844 8.658269358232912e-17 4.330540546086909e-18 8.658269358232912e-17 4.330540546086909e-18 -0.9411086058423628 -0.3381044099228555
12656169333.333334 -0.9441548486658989 -0.3295020815419996 8.660201862795645e-17 3.5319191638248855e-18 8.660201862795645e-17 3.5319191638248855e-18 -0.9441546371909436 -0.3295026875014458
12656786666.666666 -0.9471222566579585 -0.3208729202394201 8.661398307270195e-17 2.7333094978949107e-18 8.661398307270195e-17 2.7333094978949107e-18 -0.947122050731252 -0.32087352807370284
12657404000.0 -0.9500107997347924 -0.31221704051363924 8.661858877300186e-17 1.934779335564764e-18 8.661858877300186e-17 1.934779335564764e-18 -0.9500105993729406 -0.3122176501719652
12658021333.333334 -0.9528202373734742 -0.3035351631218267 8.661583820909226e-17 1.1363964308946919e-18 8.661583820909226e-17 1.1363964308946919e-18 -0.9528200425926151 -0.30353577455325487
12658638666.666666 -0.9555503356379565 -0.29482801098611056 8.660573448455507e-17 3.382284990285627e-19 8.660573448455507e-17 3.382284990285627e-19 -0.9555501464537656 -0.29482862413955835
12659256000.0 -0.9582008671986755 -0.28609630913303286 8.658828132581134e-17 -4.596567895685353e-19 8.658828132581134e-17 -4.596567895685353e-19 -0.9582006836263585 -0.28609692395727854
12659873333.333334 -0.9607716113514199 -0.2773407846333381 8.656348308156241e-17 -1.2571918148198737e-18 8.656348308156241e-17 -1.2571918148198737e-18 -0.9607714334057137 -0.27734140107702593
12660490666.666666 -0.9632623540356599 -0.26856216654159515 8.653134472217814e-17 -2.0543090127377268e-18 8.653134472217814e-17 -2.0543090127377268e-18 -0.9632621817308342 -0.26856278455324023
12661108000.0 -0.9656728878524857 -0.2597611858351386 8.649187183903207e-17 -2.850940881178518e-18 8.649187183903207e-17 -2.850940881178518e-18 -0.9656727212023362 -0.2597618053631296
12661725333.333334 -0.9680030120817776 -0.2509385753534985 8.64450706437858e-17 -3.6470199854945614e-18 8.64450706437858e-17 -3.6470199854945614e-18 -0.9680028510996284 -0.25093919634610323
12662342666.666666 -0.9702525326989653 -0.24209506973724368 8.639094796761924e-17 -4.4424789642639426e-18 8.639094796761924e-17 -4.4424789642639426e-18 -0.9702523773976679 -0.2420956921426132
12662960000.0 -0.9724212623911683 -0.2332314053668644 8.63295112604091e-17 -5.237250534972589e-18 8.63295112604091e-17 -5.237250534972589e-18 -0.9724211127831006 -0.2332320291330372
12663577333.333334 -0.9745090205728225 -0.22434832030134552 8.626076858985629e-17 -6.0312674996801016e-18 8.626076858985629e-17 -6.0312674996801016e-18 -0.9745088766698851 -0.22434894537625144
12664194666.666666 -0.9765156334006707 -0.21544655421687403 8.618472864056024e-17 -6.824462750695839e-18 8.618472864056024e-17 -6.824462750695839e-18 -0.9765154952142893 -0.21544718054833933
12664812000.0 -0.978440933788264 -0.20652684834516646 8.610140071304047e-17 -7.616769276245098e-18 8.610140071304047e-17 -7.616769276245098e-18 -0.9784408013293876 -0.2065274758809179
12665429333.333334 -0.9802847614198973 -0.19758994541163633 8.601079472270831e-17 -8.408120166105358e-18 8.601079472270831e-17 -8.408120166105358e-18 -0.9802846346989958 -0.19759057409930533
12666046666.666666 -0.9820469627638908 -0.1886365895738543 8.591292119878672e-17 -9.198448617239115e-18 8.591292119878672e-17 -9.198448617239115e-18 -0.9820468417909578 -0.1886372193609819
12666664000.0 -0.9837273910854603 -0.17966752635919517 8.580779128317363e-17 -9.98768793945445e-18 8.580779128317363e-17 -9.98768793945445e-18 -0.9837272758700065 -0.17966815719323542
12667281333.333334 -0.9853259064588671 -0.17068350260306453 8.569541672926342e-17 -1.0775771560968399e-17 8.569541672926342e-17 -1.0775771560968399e-17 -0.9853257970099254 -0.1706841344313898
12667898666.666666 -0.9868423757790964 -0.1616852663866006 8.557580990070627e-17 -1.156263303405326e-17 8.557580990070627e-17 -1.156263303405326e-17 -0.986842272105218 -0.16168589915650558
12668516000.0 -0.9882766727729551 -0.1526735669742993 8.544898377012267e-17 -1.2348206040609158e-17 8.544898377012267e-17 -1.2348206040609158e-17 -0.9882765748822089 -0.15267420063300516
12669133333.333334 -0.9896286780095523 -0.14364915475179138 8.531495191776816e-17 -1.3132424397726056e-17 8.531495191776816e-17 -1.3132424397726056e-17 -0.9896285859095258 -0.1436497892464507
12669750666.666666 -0.9908982789102692 -0.13461278116324854 8.517372853013918e-17 -1.3915222063278148e-17 8.517372853013918e-17 -1.3915222063278148e-17 -0.9908981926080666 -0.1346134164409494
12670368000.0 -0.9920853697581249 -0.12556519864883964 8.502532839853646e-17 -1.4696533141448322e-17 8.502532839853646e-17 -1.4696533141448322e-17 -0.9920852892603671 -0.12556583465661006
