! Parameters = {f0=12700.012000; bw=77.238000; Q=6100.000000; N=10; m_0_1=1.266762; m_1_1=0.236681; m_1_2=1.101574; m_2_2=0.236032; m_2_3=0.738537; m_2_8=0.000402; m_2_9=0.037106; m_3_3=0.234095; m_3_4=0.627066; m_3_7=0.001002; m_3_8=-0.096086; m_3_9=0.000402; m_4_4=0.231170; m_4_5=0.463401; m_4_6=0.004519; m_4_7=-0.116635; m_4_8=0.001002; m_5_5=0.231552; m_5_6=0.870756; m_5_7=0.004519; m_6_6=0.231551; m_6_7=0.463743; m_7_7=0.231184; m_7_8=0.627184; m_8_8=0.234093; m_8_9=0.738850; m_9_9=0.236027; m_9_10=1.102652; m_10_10=0.236671; m_10_11=1.267557}
!
! Created with skrf (http://scikit-rf.org).
# Hz S RI R 50.0 
!freq ReS11 ImS11 ReS21 ImS21 ReS12 ImS12 ReS22 ImS22
12607400000.0 -0.9134043188370701 0.40705349811739966 8.279980866656138e-17 -7.077166397027025e-17 8.279980866656138e-17 -7.077166397027025e-17 -0.9134045905089816 0.4070528885009218
12608017333.333334 -0.9091103055800438 0.4165554612389381 8.203494800620145e-17 -7.16244205798916e-17 8.203494800620145e-17 -7.16244205798916e-17 -0.9091105835800615 0.41655485451803853
12608634666.666666 -0.9047174485306435 0.4260121340103193 8.126131460627246e-17 -7.24689222681355e-17 8.126131460627246e-17 -7.24689222681355e-17 -0.9047177328279247 0.426011530250678
12609252000.0 -0.900226225306073 0.43542248824676494 8.047899744400441e-17 -7.330507889037283e-17 8.047899744400441e-17 -7.330507889037283e-17 -0.9002265158690911 0.4354218875137326
12609869333.333334 -0.8956371242184533 0.4447855007995696 7.968808642179015e-17 -7.413280125983934e-17 7.968808642179015e-17 -7.413280125983934e-17 -0.8956374210150047 0.4447849031581618
12610486666.666666 -0.8909506442218611 0.45410015366709033 7.888867235689885e-17 -7.495200115710514e-17 7.888867235689885e-17 -7.495200115710514e-17 -0.8909509472190683 0.4540995591819808
12611104000.0 -0.8861672948577999 0.4633654341059905 7.808084697103676e-17 -7.576259133949194e-17 7.808084697103676e-17 -7.576259133949194e-17 -0.8861676040221137 0.4633648428415028
12611721333.333334 -0.881287596200157 0.47258033474063854 7.726470287990613e-17 -7.656448555028017e-17 7.726470287990613e-17 -7.656448555028017e-17 -0.8812879114973605 0.47257974676073977
12612338666.666666 -0.8763120787983999 0.48174385367314304 7.644033358258596e-17 -7.73575985278904e-17 7.644033358258596e-17 -7.73575985278904e-17 -0.8763124001936146 0.48174326904143755
12612956000.0 -0.8712412836198903 0.4908549945922836 7.560783345085299e-17 -7.814184601491531e-17 7.560783345085299e-17 -7.814184601491531e-17 -0.8712416110775756 0.4908544133720044
12613573333.333334 -0.8660757619913069 0.49991276688138453 7.476729771842948e-17 -7.891714476702097e-17 7.476729771842948e-17 -7.891714476702097e-17 -0.866076095475269 0.4999121891353889
12614190666.666666 -0.8608160755384351 0.5089161857265215 7.391882247009641e-17 -7.96834125617722e-17 7.391882247009641e-17 -7.96834125617722e-17 -0.8608164150118274 0.508915611517282
12614808000.0 -0.8554627961252372 0.5178642722233462 7.306250463075154e-17 -8.044056820731082e-17 7.306250463075154e-17 -8.044056820731082e-17 -0.8554631415505655 0.5178637016129449
12615425333.333334 -0.850016505791663 0.526756053483543 7.219844195436423e-17 -8.118853155092798e-17 7.219844195436423e-17 -8.118853155092798e-17 -0.85001685713079 0.5267554865336649
12616042666.666666 -0.8444777966903085 0.5355905627407054 7.13267330128465e-17 -8.192722348751748e-17 7.13267330128465e-17 -8.192722348751748e-17 -0.844478153904459 0.535589999512632
12616660000.0 -0.838847271022126 0.5443668394553041 7.044747718483715e-17 -8.265656596790917e-17 7.044747718483715e-17 -8.265656596790917e-17 -0.838847634071887 0.5443662800099046
12617277333.333334 -0.8331255409708509 0.553083929419263 6.956077464439897e-17 -8.337648200708463e-17 6.956077464439897e-17 -8.337648200708463e-17 -0.8331259098161806 0.5530833738169907
12617894666.666666 -0.8273132286366196 0.5617408848594486 6.866672634964701e-17 -8.408689569226032e-17 6.866672634964701e-17 -8.408689569226032e-17 -0.8273136032368508 0.5617403331603337
12618512000.0 -0.8214109659679846 0.5703367645412384 6.776543403125609e-17 -8.478773219088026e-17 6.776543403125609e-17 -8.478773219088026e-17 -0.821411346281826 0.5703362168048788
12619129333.333334 -0.8154193946936429 0.5788706338701919 6.685700018094753e-17 -8.547891775843746e-17 6.685700018094753e-17 -8.547891775843746e-17 -0.815419780679189 0.5788700901557509
12619746666.666666 -0.8093391662523539 0.5873415649941428 6.594152803983856e-17 -8.61603797462188e-17 6.594152803983856e-17 -8.61603797462188e-17 -0.809339557867085 0.5873410253603398
12620364000.0 -0.8031709417220998 0.5957486369040722 6.501912158673737e-17 -8.683204660890604e-17 6.501912158673737e-17 -8.683204660890604e-17 -0.8031713389228883 0.595748101409177
12620981333.333334 -0.7969153917485111 0.6040909355338332 6.40898855263836e-17 -8.749384791203546e-17 6.40898855263836e-17 -8.749384791203546e-17 -0.796915794491627 0.6040904042356606
12621598666.666666 -0.7905731964716182 0.6123675538599948 6.315392527756619e-17 -8.814571433936699e-17 6.315392527756619e-17 -8.814571433936699e-17 -0.7905736047127322 0.6123670268158967
12622216000.0 -0.7841450454520666 0.6205775920002268 6.221134696120419e-17 -8.87875777000993e-17 6.221134696120419e-17 -8.87875777000993e-17 -0.7841454591462581 0.6205770692670886
12622833333.333334 -0.7776316375960991 0.6287201573112126 6.126225738833743e-17 -8.941937093597056e-17 6.126225738833743e-17 -8.941937093597056e-17 -0.7776320566978557 0.628719638945443
12623450666.666666 -0.771033681079626 0.636794364485606 6.030676404806015e-17 -9.004102812822012e-17 6.030676404806015e-17 -9.004102812822012e-17 -0.7710341055428553 0.636793850543136
12624068000.0 -0.764351893271153 0.6447993356484082 5.934497509536227e-17 -9.065248450443811e-17 5.934497509536227e-17 -9.065248450443811e-17 -0.7643523230491829 0.6447988261846814
12624685333.333334 -0.7575870006537555 0.6527342004524282 5.83769993389114e-17 -9.125367644527763e-17 5.83769993389114e-17 -9.125367644527763e-17 -0.7575874356993401 0.6527336955223955
12625302666.666666 -0.7507397387462974 0.6605980961726778 5.74029462287963e-17 -9.184454149101964e-17 5.74029462287963e-17 -9.184454149101964e-17 -0.7507401790116227 0.6605975958307914
12625920000.0 -0.7438108520230876 0.668390167800599 5.64229258441388e-17 -9.242501834804707e-17 5.64229258441388e-17 -9.242501834804707e-17 -0.7438112974597784 0.6683896721008087
12626537333.333334 -0.7368010938333884 0.6761095681365161 5.543704888071733e-17 -9.29950468951419e-17 5.543704888071733e-17 -9.29950468951419e-17 -0.7368015443925103 0.6761090771322604
12627154666.666666 -0.7297112263192065 0.6837554578820896 5.4445426638474534e-17 -9.355456818968136e-17 5.4445426638474534e-17 -9.355456818968136e-17 -0.7297116819512727 0.6837549716262907
12627772000.0 -0.722542020332402 0.6913270057315829 5.344817100896239e-17 -9.4103524473701e-17 5.344817100896239e-17 -9.4103524473701e-17 -0.7225424809873813 0.6913265242766438
12628389333.333334 -0.7152942553511363 0.698823388461984 5.244539446278083e-17 -9.464185917979471e-17 5.244539446278083e-17 -9.464185917979471e-17 -0.7152947209784545 0.6988229118597787
12629006666.666666 -0.7079687193948239 0.7062437910228153 5.143721003688183e-17 -9.516951693692243e-17 5.143721003688183e-17 -9.516951693692243e-17 -0.7079691899433719 0.7062433193246864
12629624000.0 -0.7005662089386734 0.7135874066245284 5.042373132187273e-17 -9.568644357605243e-17 5.042373132187273e-17 -9.568644357605243e-17 -0.7005666843568116 0.7135869398812794
12630241333.333334 -0.6930875288269696 0.7208534368263418 4.940507244924116e-17 -9.619258613567992e-17 4.940507244924116e-17 -9.619258613567992e-17 -0.6930880090625343 0.7208529750882331
12630858666.666666 -0.6855334921856894 0.7280410916229363 4.8381348078547963e-17 -9.668789286719978e-17 4.8381348078547963e-17 -9.668789286719978e-17 -0.685533977185999 0.7280406349396795
12631476000.0 -0.6779049203338686 0.7351495895305638 4.735267338449176e-17 -9.717231324017937e-17 4.735267338449176e-17 -9.717231324017937e-17 -0.6779054100457265 0.7351491379513144
12632093333.333334 -0.6702026426945668 0.742178157671757 4.6319164044037675e-17 -9.764579794743769e-17 4.6319164044037675e-17 -9.764579794743769e-17 -0.6702031370642714 0.7421777112451131
12632710666.666666 -0.6624274967045715 0.7491260318594865 4.52809362234185e-17 -9.810829891002575e-17 4.52809362234185e-17 -9.810829891002575e-17 -0.662427995677919 0.7491255906334796
12633328000.0 -0.6545803277232345 0.7559924566803349 4.4238106565064107e-17 -9.855976928207864e-17 4.4238106565064107e-17 -9.855976928207864e-17 -0.654580831245527 0.7559920207024277
12633945333.333334 -0.6466619889407539 0.7627766855764624 4.319079217457546e-17 -9.900016345548711e-17 4.319079217457546e-17 -9.900016345548711e-17 -0.6466624969568034 0.7627762548935415
12634562666.666666 -0.6386733412853014 0.769477980926871 4.213911060757169e-17 -9.94294370644678e-17 4.213911060757169e-17 -9.94294370644678e-17 -0.6386738537394371 0.7694775555852432
12635180000.0 -0.6306152533294407 0.7760956141275835 4.1083179856525924e-17 -9.984754698997886e-17 4.1083179856525924e-17 -9.984754698997886e-17 -0.6306157701655145 0.77609519417297
12635797333.333334 -0.6224886011956666 0.7826288656708793 4.0023118337549715e-17 -1.0025445136400008e-16 4.0023118337549715e-17 -1.0025445136400008e-16 -0.62248912235706 0.782628451148412
12636414666.666666 -0.6142942684612399 0.7890770252234544 3.89590448771501e-17 -1.0065010957366741e-16 3.89590448771501e-17 -1.0065010957366741e-16 -0.6142947938908688 0.7890766161776688
12637032000.0 -0.6060331460619827 0.7954393917037558 3.789107869891761e-17 -1.0103448226527777e-16 3.789107869891761e-17 -1.0103448226527777e-16 -0.6060336757023056 0.7954389881785895
12637649333.333334 -0.5977061321955024 0.8017152733581403 3.681933941020457e-17 -1.0140753134814284e-16 3.681933941020457e-17 -1.0140753134814284e-16 -0.5977066659885252 0.8017148753969252
12638266666.666666 -0.5893141322235111 0.8079039878361008 3.574394698875168e-17 -1.0176921999830669e-16 3.574394698875168e-17 -1.0176921999830669e-16 -0.5893146701107936 0.8079035954815597
12638884000.0 -0.5808580585733893 0.8140048622644572 3.466502176928179e-17 -1.0211951266212129e-16 3.466502176928179e-17 -1.0211951266212129e-16 -0.5808586004960521 0.8140044755586994
12639501333.333334 -0.5723388306389579 0.8200172333205294 3.3582684430056537e-17 -1.0245837505968078e-16 3.3582684430056537e-17 -1.0245837505968078e-16 -0.5723393765376884 0.8200168523050455
12640118666.666666 -0.5637573746806568 0.8259404473041623 3.249705597942077e-17 -1.0278577418810745e-16 3.249705597942077e-17 -1.0278577418810745e-16 -0.5637579244957167 0.825940072019821
12640736000.0 -0.5551146237244616 0.8317738602090562 3.140825774225123e-17 -1.0310167832471508e-16 3.140825774225123e-17 -1.0310167832471508e-16 -0.5551151773956923 0.8317734906960993
12641353333.333334 -0.5464115174610042 0.8375168377924047 3.031641134649304e-17 -1.0340605702999419e-16 3.031641134649304e-17 -1.0340605702999419e-16 -0.5464120749278332 0.8375164740904416
12641970666.666666 -0.5376490021429071 0.8431687556441839 2.9221638709535593e-17 -1.0369888115049335e-16 2.9221638709535593e-17 -1.0369888115049335e-16 -0.537649563344356 0.8431683977921897
12642588000.0 -0.5288280304821407 0.8487289992548892 2.8124062024653074e-17 -1.0398012282153097e-16 2.8124062024653074e-17 -1.0398012282153097e-16 -0.5288285953568306 0.8487286472911979
12643205333.333334 -0.5199495615464129 0.8541969640823587 2.702380374738739e-17 -1.0424975546977265e-16 2.702380374738739e-17 -1.0424975546977265e-16 -0.5199501300325716 0.8541966180446612
12643822666.666666 -0.5110145606547982 0.8595720556175663 2.5920986581898418e-17 -1.0450775381566686e-16 2.5920986581898418e-17 -1.0450775381566686e-16 -0.5110151326902671 0.8595717155429058
12644440000.0 -0.5020239992729029 0.8648536894491838 2.4815733467318923e-17 -1.0475409387573033e-16 2.4815733467318923e-17 -1.0475409387573033e-16 -0.5020245747951433 0.8648533553739507
12645057333.333334 -0.4929788549072185 0.8700412913271381 2.3708167564071037e-17 -1.0498875296469374e-16 2.3708167564071037e-17 -1.0498875296469374e-16 -0.49297943385331827 0.8700409632870666
12645674666.666666 -0.48388011099884093 0.8751342972250461 2.2598412240166535e-17 -1.0521170969750215e-16 2.2598412240166535e-17 -1.0521170969750215e-16 -0.4838806933055232 0.8751339752552127
12646292000.0 -0.4747287568163735 0.8801321534016393 2.1486591057468524e-17 -1.0542294399117533e-16 2.1486591057468524e-17 -1.0542294399117533e-16 -0.4747293424200013 0.8801318375364561
12646909333.333334 -0.46552578734868766 0.8850343164607857 2.0372827757997105e-17 -1.0562243706651127e-16 2.0372827757997105e-17 -1.0562243706651127e-16 -0.46552637618527204 0.8850340067339978
12647526666.666666 -0.45627220319649586 0.8898402534107128 1.9257246250151425e-17 -1.0581017144965889e-16 1.9257246250151425e-17 -1.0581017144965889e-16 -0.45627279520170244 0.8898399498553943
12648144000.0 -0.44696901046358267 0.8945494417219386 1.8139970594951702e-17 -1.0598613097353887e-16 1.8139970594951702e-17 -1.0598613097353887e-16 -0.4469696055727391 0.8945491443704898
12648761333.333334 -0.4376172206475165 0.8991613693840323 1.7021124992278803e-17 -1.061503007791181e-16 1.7021124992278803e-17 -1.061503007791181e-16 -0.4376178187956194 0.8991610782681763
12649378666.666666 -0.4282178505296758 0.9036755349612882 1.5900833767092e-17 -1.0630266731654252e-16 1.5900833767092e-17 -1.0630266731654252e-16 -0.4282184516513973 0.9036752501120662
12649996000.0 -0.418771922064569 0.9080914476473019 1.477922135562287e-17 -1.0644321834612491e-16 1.477922135562287e-17 -1.0644321834612491e-16 -0.4187725260942647 0.9080911690950714
12650613333.333334 -0.40928046226879916 0.9124086273182991 1.3656412291586693e-17 -1.0657194293918566e-16 1.3656412291586693e-17 -1.0657194293918566e-16 -0.4092810691405151 0.9124083550927305
12651230666.666666 -0.39974450310950504 0.9166266045852917 1.2532531192391367e-17 -1.0668883147874721e-16 1.2532531192391367e-17 -1.0668883147874721e-16 -0.39974511275698393 0.9166263387153629
12651848000.0 -0.39016508139189865 0.920744920845225 1.1407702745303176e-17 -1.0679387566008844e-16 1.1407702745303176e-17 -1.0679387566008844e-16 -0.3901656937485885 0.9207446613592217
12652465333.333334 -0.38054323864677175 0.9247631283307376 1.028205169364951e-17 -1.0688706849114866e-16 1.028205169364951e-17 -1.0688706849114866e-16 -0.3805438536458329 0.9247628752562491
12653082666.666666 -0.3708800210172572 0.9286807901588494 9.15570282304221e-18 -1.0696840429278549e-16 9.15570282304221e-18 -1.0696840429278549e-16 -0.3708806385915685 0.9286805435227642
12653700000.0 -0.36117647914482104 0.9324974803785673 8.028780947492093e-18 -1.0703787869889639e-16 8.028780947492093e-18 -1.0703787869889639e-16 -0.36117709922698815 0.9324972402070714
12654317333.333334 -0.3514336680554004 0.9362127840170484 6.901410895693047e-18 -1.0709548865638181e-16 6.901410895693047e-18 -1.0709548865638181e-16 -0.35143429057776304 0.9362125503356223
12654934666.666666 -0.3416526470444312 0.9398262971248244 5.773717497142561e-18 -1.071412324249762e-16 5.773717497142561e-18 -1.071412324249762e-16 -0.34165327193907036 0.9398260699582416
12655552000.0 -0.33183447956167367 0.9433376268197181 4.645825568377028e-18 -1.0717510957692448e-16 4.645825568377028e-18 -1.0717510957692448e-16 -0.331835106760419 0.9433374061920405
12656169333.333334 -0.32198023309582907 0.9467463913294735 3.51785989919271e-18 -1.0719712099651827e-16 3.51785989919271e-18 -1.0719712099651827e-16 -0.32198086253026637 0.9467461772640496
12656786666.666666 -0.31209097905820826 0.9500522200333594 2.3899452388353026e-18 -1.0720726887948632e-16 2.3899452388353026e-18 -1.0720726887948632e-16 -0.3120916106596868 0.9500520125528225
12657404000.0 -0.3021677926663751 0.9532547535024182 1.2622062822420904e-18 -1.0720555673224003e-16 1.2622062822420904e-18 -1.0720555673224003e-16 -0.3021684263660159 0.9532545526286835
12658021333.333334 -0.2922117528271896 0.9563536435385637 1.3476765627411692e-19 -1.0719198937097433e-16 1.3476765627411692e-19 -1.0719198937097433e-16 -0.2922123885558916 0.9563534492928262
12658638666.666666 -0.28222394201963835 0.9593485532123984 -9.92246094017418e-19 -1.0716657292062497e-16 -9.92246094017418e-19 -1.0716657292062497e-16 -0.2822245797080866 0.9593483656151292
12659256000.0 -0.27220544617686787 0.9622391568999245 -2.118710519156057e-18 -1.0712931481367991e-16 -2.118710519156057e-18 -1.0712931481367991e-16 -0.2722060857555419 0.9622389759708722
12659873333.333334 -0.2621573545683623 0.9650251403178794 -3.2445012789311738e-18 -1.0708022378884856e-16 -3.2445012789311738e-18 -1.0708022378884856e-16 -0.26215799596754225 0.9650249660760638
12660490666.666666 -0.2520807596815115 0.967706200557906 -4.369494156099089e-18 -1.0701930988958675e-16 -4.369494156099089e-18 -1.0701930988958675e-16 -0.25208140283128627 0.9677060330216178
12661108000.0 -0.24197675710255456 0.970282046119559 -5.493565070095615e-18 -1.0694658446247559e-16 -5.493565070095615e-18 -1.0694658446247559e-16 -0.24197740193283004 0.9702818853063595
12661725333.333334 -0.23184644539784613 0.9727523969418984 -6.61659009065522e-18 -1.068620601554621e-16 -6.61659009065522e-18 -1.068620601554621e-16 -0.2318470918383524 0.9727522428686166
12662342666.666666 -0.22169092599411244 0.9751169844340206 -7.73844545148422e-18 -1.0676575091595102e-16 -7.73844545148422e-18 -1.0676575091595102e-16 -0.22169157397441094 0.9751168371167497
12662960000.0 -0.21151130305883362 0.9773755515042208 -8.859007563861953e-18 -1.0665767198875793e-16 -8.859007563861953e-18 -1.0665767198875793e-16 -0.21151195250832544 0.9773754109583183
12663577333.333334 -0.20130868338016536 0.9795278525879549 -9.978153030235146e-18 -1.0653783991391723e-16 -9.978153030235146e-18 -1.0653783991391723e-16 -0.20130933422809874 0.979527718828041
12664194666.666666 -0.1910841762466026 0.9815736536745385 -1.1095758657782979e-17 -1.0640627252434986e-16 -1.1095758657782979e-17 -1.0640627252434986e-16 -0.1910848284220807 0.9815735267144939
12664812000.0 -0.18083889332637118 0.9835127323325914 -1.2211701471954058e-17 -1.062629889433871e-16 -1.2211701471954058e-17 -1.062629889433871e-16 -0.18083954675835967 0.9835126121855565
12665429333.333334 -0.17057394854653224 0.9853448777342224 -1.3325858729977119e-17 -1.0610800958215363e-16 -1.3325858729977119e-17 -1.0610800958215363e-16 -0.17057460316386727 0.9853447644125962
12666046666.666666 -0.1602904579720106 0.9870698906779344 -1.44381079343228e-17 -1.0594135613681183e-16 -1.44381079343228e-17 -1.0594135613681183e-16 -0.1602911137034061 0.9870697841933705
12666664000.0 -0.14998953968394002 0.9886875836103258 -1.5548326846181053e-17 -1.0576305158565705e-16 -1.5548326846181053e-17 -1.0576305158565705e-16 -0.14999019645799613 0.9886874839737367
12667281333.333334 -0.13967231365849286 0.9901977806464267 -1.6656393498829743e-17 -1.0557312018608481e-16 -1.6656393498829743e-17 -1.0557312018608481e-16 -0.13967297140370297 0.9901976878679765
12667898666.666666 -0.12933990164482823 0.9916003175888622 -1.776218621103992e-17 -1.0537158747140607e-16 -1.776218621103992e-17 -1.0537158747140607e-16 -0.12934056028958724 0.9916002316779688
12668516000.0 -0.11899342704312872 0.992895041945702 -1.886558360041431e-17 -1.0515848024752725e-16 -1.886558360041431e-17 -1.0515848024752725e-16 -0.11899408651574087 0.9928949629110374
12669133333.333334 -0.10863401478271166 0.9940818129470107 -1.9966464596660716e-17 -1.049338265894963e-16 -1.9966464596660716e-17 -1.049338265894963e-16 -0.10863467501139794 0.9940817407964969
12669750666.666666 -0.098262791199438 0.9951605015601864 -2.106470845488255e-17 -1.0469765583789929e-16 -2.106470845488255e-17 -1.0469765583789929e-16 -0.09826345211234434 0.995160436300997
12670368000.0 -0.08788088391336331 0.9961309905039752 -2.2160194768786318e-17 -1.0444999859512602e-16 -2.2160194768786318e-17 -1.0444999859512602e-16 -0.08788154543856827 0.9961309321425342
