! Parameters = {f0=12700.012000; bw=77.238000; Q=6100.000000; N=10; m_0_1=1.316612; m_1_1=0.984428; m_1_2=1.151424; m_2_2=0.983779; m_2_3=0.788387; m_2_8=0.002894; m_2_9=0.039598; m_3_3=0.981842; m_3_4=0.676916; m_3_7=0.003494; m_3_8=-0.093594; m_3_9=0.002894; m_4_4=0.978917; m_4_5=0.513251; m_4_6=0.007011; m_4_7=-0.114143; m_4_8=0.003494; m_5_5=0.979299; m_5_6=0.920606; m_5_7=0.007011; m_6_6=0.979298; m_6_7=0.513593; m_7_7=0.978931; m_7_8=0.677034; m_8_8=0.981840; m_8_9=0.788700; m_9_9=0.983774; m_9_10=1.152502; m_10_10=0.984418; m_10_11=1.317407}
!
! Created with skrf (http://scikit-rf.org).
# Hz S RI R 50.0 
!freq ReS11 ImS11 ReS21 ImS21 ReS12 ImS12 ReS22 ImS22
12607400000.0 -0.6367116609632922 -0.7711019782059807 1.1373629644941632e-16 7.657536937112943e-17 1.1373629644941632e-16 7.657536937112943e-17 -0.6367111261412115 -0.7711024198171086
12608017333.333334 -0.6458431700846294 -0.7634701039692691 1.14623759004412e-16 7.519151999500785e-17 1.14623759004412e-16 7.519151999500785e-17 -0.6458426405817956 -0.763470551891914
12608634666.666666 -0.6548832084594552 -0.755730099491651 1.1549439697192012e-16 7.379740375796513e-17 1.1549439697192012e-16 7.379740375796513e-17 -0.6548826843503365 -0.7557305536617579
12609252000.0 -0.6638304957475741 -0.7478830609897117 1.1634809180312324e-16 7.239322505681469e-17 1.1634809180312324e-16 7.239322505681469e-17 -0.663829977105869 -0.7478835213423485
12609869333.333334 -0.6726837647450624 -0.739930099839317 1.171847274305494e-16 7.097918965440345e-17 1.171847274305494e-16 7.097918965440345e-17 -0.6726832516436868 -0.7399305663086815
12610486666.666666 -0.6814417615638029 -0.7318723424181507 1.1800419028375288e-16 6.955550464955403e-17 1.1800419028375288e-16 6.955550464955403e-17 -0.6814412540748827 -0.7318728149375827
12611104000.0 -0.6901032458091624 -0.7237109299461143 1.1880636930469274e-16 6.812237844671938e-17 1.1880636930469274e-16 6.812237844671938e-17 -0.6901027440040188 -0.7237114084481007
12611721333.333334 -0.6986669907554323 -0.715447018323901 1.1959115596266447e-16 6.668002072559965e-17 1.1959115596266447e-16 6.668002072559965e-17 -0.6986664947045765 -0.7154475027400891
12612338666.666666 -0.707131783519824 -0.7070817779690579 1.2035844426894042e-16 6.5228642410453e-17 1.2035844426894042e-16 6.5228642410453e-17 -0.7071312932929453 -0.7070822682302649
12612956000.0 -0.7154964252342036 -0.6986163936502537 1.2110813079098874e-16 6.37684556393272e-17 1.2110813079098874e-16 6.37684556393272e-17 -0.7154959409001597 -0.6986168896864754
12613573333.333334 -0.7237597312146673 -0.6900520643197032 1.2184011466633358e-16 6.22996737331055e-17 1.2184011466633358e-16 6.22996737331055e-17 -0.7237592528414737 -0.6900525660601238
12614190666.666666 -0.7319205311295688 -0.6813900029431168 1.225542976160461e-16 6.082251116438449e-17 1.225542976160461e-16 6.082251116438449e-17 -0.7319200587843917 -0.6813905103161209
12614808000.0 -0.7399776691652331 -0.6726314363279493 1.232505839578597e-16 5.933718352619454e-17 1.232505839578597e-16 5.933718352619454e-17 -0.7399772029143767 -0.672631949261129
12615425333.333334 -0.7479300041895361 -0.663777604949769 1.2392888061889092e-16 5.784390750060696e-17 1.2392888061889092e-16 5.784390750060696e-17 -0.7479295440984364 -0.6637781233699377
12616042666.666666 -0.7557764099136782 -0.6548297627764039 1.245890971480052e-16 5.634290082714419e-17 1.245890971480052e-16 5.634290082714419e-17 -0.7557759560468922 -0.6548302866096046
12616660000.0 -0.7635157750515503 -0.6457891770905129 1.2523114572777493e-16 5.483438227110684e-17 1.2523114572777493e-16 5.483438227110684e-17 -0.7635153274727456 -0.6457897062620281
12617277333.333334 -0.7711470034772875 -0.6366571283099021 1.2585494118608147e-16 5.331857159170534e-17 1.2585494118608147e-16 5.331857159170534e-17 -0.7711465622492377 -0.6366576627442674
12617894666.666666 -0.778669014380282 -0.627434909806468 1.2646040100729872e-16 5.179568951013993e-17 1.2646040100729872e-16 5.179568951013993e-17 -0.7786685795648534 -0.6274354494274801
12618512000.0 -0.7860807424185985 -0.6181238277225978 1.270474453431389e-16 5.02659576774403e-17 1.270474453431389e-16 5.02659576774403e-17 -0.7860803140767434 -0.6181243724533265
12619129333.333334 -0.7933811378694807 -0.6087252007866428 1.2761599702305132e-16 4.8729598642327663e-17 1.2761599702305132e-16 4.8729598642327663e-17 -0.7933807160612294 -0.6087257505494419
12619746666.666666 -0.8005691667782602 -0.5992403601258623 1.2816598156428295e-16 4.7186835818838525e-17 1.2816598156428295e-16 4.7186835818838525e-17 -0.8005687515627109 -0.5992409148423806
12620364000.0 -0.8076438111048392 -0.5896706490778235 1.2869732718153216e-16 4.5637893453871937e-17 1.2869732718153216e-16 4.5637893453871937e-17 -0.8076434025401514 -0.5896712086690157
12620981333.333334 -0.8146040688676057 -0.5800174230005093 1.2920996479618784e-16 4.40829965946998e-17 1.2920996479618784e-16 4.40829965946998e-17 -0.8146036670109911 -0.5800179873866476
12621598666.666666 -0.8214489542856486 -0.5702820490799483 1.297038280452196e-16 4.25223710562504e-17 1.297038280452196e-16 4.25223710562504e-17 -0.8214485591933631 -0.5702826181806337
12622216000.0 -0.8281774979181554 -0.5604659061368796 1.3017885328963518e-16 4.0956243388408067e-17 1.3017885328963518e-16 4.0956243388408067e-17 -0.8281771096454917 -0.5604664798710532
12622833333.333334 -0.8347887468018781 -0.5505703844312365 1.3063497962257086e-16 3.9384840843135283e-17 1.3063497962257086e-16 3.9384840843135283e-17 -0.8347883654031577 -0.5505709627171913
12623450666.666666 -0.8412817645859255 -0.5405968854655033 1.3107214887696128e-16 3.7808391341588426e-17 1.3107214887696128e-16 3.7808391341588426e-17 -0.8412813901144904 -0.5405974682208952
12624068000.0 -0.847655631664505 -0.5305468217860323 1.3149030563284038e-16 3.622712344105727e-17 1.3149030563284038e-16 3.622712344105727e-17 -0.8476552641727121 -0.5305474089278928
12624685333.333334 -0.8539094453072265 -0.5204216167828875 1.3188939722422204e-16 3.464126630190018e-17 1.3188939722422204e-16 3.464126630190018e-17 -0.853909084846439 -0.5204222082276351
12625302666.666666 -0.8600423197866998 -0.5102227044886593 1.3226937374558974e-16 3.3051049654387586e-17 1.3226937374558974e-16 3.3051049654387586e-17 -0.8600419664072793 -0.5102233001521109
12625920000.0 -0.866053386504321 -0.4999515293748062 1.3263018805799404e-16 3.145670376544222e-17 1.3263018805799404e-16 3.145670376544222e-17 -0.8660530402556212 -0.49995212917218945
12626537333.333334 -0.871941794112984 -0.48960954614758384 1.3297179579473895e-16 2.985845940536445e-17 1.3297179579473895e-16 2.985845940536445e-17 -0.8719414550433445 -0.48961014999354924
12627154666.666666 -0.8777067086377899 -0.4791982195417978 1.332941553666715e-16 2.8256547814483154e-17 1.332941553666715e-16 2.8256547814483154e-17 -0.8777063767945303 -0.47919882735043184
12627772000.0 -0.8833473135942884 -0.46871902411312977 1.335972279670827e-16 2.665120066969151e-17 1.335972279670827e-16 2.665120066969151e-17 -0.8833469890236983 -0.468719635797965
12628389333.333334 -0.8888628101038241 -0.45817344402981647 1.338809775761792e-16 2.5042650051069745e-17 1.338809775761792e-16 2.5042650051069745e-17 -0.8888624928511594 -0.45817405950384554
12629006666.666666 -0.8942524170069822 -0.44756297286189967 1.3414537096518598e-16 2.3431128408291965e-17 1.3414537096518598e-16 2.3431128408291965e-17 -0.8942521071164574 -0.4475635920375865
12629624000.0 -0.8995153709740324 -0.4368891133700394 1.3439037770001626e-16 2.1816868527152778e-17 1.3439037770001626e-16 2.1816868527152778e-17 -0.899515068488816 -0.4368897361593328
12630241333.333334 -0.9046509266130985 -0.4261533772925811 1.3461597014456228e-16 2.0200103495933257e-17 1.3461597014456228e-16 2.0200103495933257e-17 -0.9046506315753051 -0.4261540036069266
12630858666.666666 -0.9096583565756755 -0.41535728513154985 1.3482212346356337e-16 1.8581066671843117e-17 1.3482212346356337e-16 1.8581066671843117e-17 -0.9096580690263619 -0.4153579148819024
12631476000.0 -0.9145369516598157 -0.4045023659369411 1.3500881562509031e-16 1.6959991647311343e-17 1.3500881562509031e-16 1.6959991647311343e-17 -0.914536671638973 -0.4045029990337775
12632093333.333334 -0.9192860209103413 -0.3935901570906508 1.3517602740260495e-16 1.5337112216405536e-17 1.3517602740260495e-16 1.5337112216405536e-17 -0.9192857484568914 -0.393590793443983
12632710666.666666 -0.9239048917168183 -0.38262220408850567 1.353237423766317e-16 1.371266234112433e-17 1.353237423766317e-16 1.371266234112433e-17 -0.9239046268686075 -0.3826228436078933
12633328000.0 -0.9283929099088912 -0.37160006032119014 1.3545194693602175e-16 1.208687611768244e-17 1.3545194693602175e-16 1.208687611768244e-17 -0.9283926527026853 -0.37160070291575314
12633945333.333334 -0.9327494398488119 -0.36052528685452756 1.3556063027880567e-16 1.0459987742882026e-17 1.3556063027880567e-16 1.0459987742882026e-17 -0.9327491903202896 -0.36052593243295905
12634562666.666666 -0.9369738645214858 -0.3493994522083336 1.356497844126524e-16 8.83223148037117e-18 1.356497844126524e-16 8.83223148037117e-18 -0.9369736227052369 -0.3494001006789135
12635180000.0 -0.9410655856219268 -0.3382241321341102 1.357194041549167e-16 7.203841626990589e-18 1.357194041549167e-16 7.203841626990589e-18 -0.9410653515514441 -0.33822478340471746
12635797333.333334 -0.9450240236399272 -0.3270009093920284 1.3576948713228812e-16 5.5750524790593866e-18 1.3576948713228812e-16 5.5750524790593866e-18 -0.9450237973476042 -0.3270015633701547
12636414666.666666 -0.9488486179421333 -0.31573137352679226 1.3580003378003216e-16 3.946098298755062e-18 1.3580003378003216e-16 3.946098298755062e-18 -0.948848399459258 -0.3157320301195546
12637032000.0 -0.9525388268515269 -0.3044171206422683 1.3581104734083256e-16 2.3172132804112207e-18 1.3581104734083256e-16 2.3172132804112207e-18 -0.9525386162082778 -0.30441777975642226
12637649333.333334 -0.9560941277240412 -0.2930597531757248 1.3580253386322638e-16 6.886315169385309e-19 1.3580253386322638e-16 6.886315169385309e-19 -0.956093924949486 -0.29306041471767885
12638266666.666666 -0.9595140170226668 -0.28166087967063724 1.357745021996401e-16 -9.394130338076492e-19 1.357745021996401e-16 -9.394130338076492e-19 -0.9595138221447538 -0.2816615435464646
12638884000.0 -0.9627980103886958 -0.2702221145490864 1.3572696400402136e-16 -2.566686582561518e-18 1.3572696400402136e-16 -2.566686582561518e-18 -0.9627978234342534 -0.270222780664539
12639501333.333334 -0.965945642710398 -0.25874507788286283 1.3565993372907002e-16 -4.1929555422093356e-18 1.3565993372907002e-16 -4.1929555422093356e-18 -0.9659454637051278 -0.25874574614338425
12640118666.666666 -0.9689564681887813 -0.2472313951643986 1.3557342862306957e-16 -5.8179865612210865e-18 1.3557342862306957e-16 -5.8179865612210865e-18 -0.9689562971572596 -0.2472320654751385
12640736000.0 -0.971830060400914 -0.23568269707589107 1.3546746872631248e-16 -7.441546557181675e-18 1.3546746872631248e-16 -7.441546557181675e-18 -0.9718298973665846 -0.23568336934171802
12641353333.333334 -0.9745660123600938 -0.22410061925920202 1.3534207686713643e-16 -9.063402750058512e-18 1.3534207686713643e-16 -9.063402750058512e-18 -0.9745658573452631 -0.22410129338471624
12641970666.666666 -0.9771639365736551 -0.21248680208353948 1.3519727865754977e-16 -1.0683322695624434e-17 1.3519727865754977e-16 -1.0683322695624434e-17 -0.9771637895994957 -0.21248747797308815
12642588000.0 -0.9796234650978054 -0.20084289041332676 1.3503310248846553e-16 -1.2301074318699983e-17 1.3503310248846553e-16 -1.2301074318699983e-17 -0.9796233261843468 -0.20084356797101602
12643205333.333334 -0.9819442495896983 -0.18917053337540604 1.3484957952453873e-16 -1.391642594633361e-17 1.3484957952453873e-16 -1.391642594633361e-17 -0.9819441187558258 -0.189171212505115
12643822666.666666 -0.9841259613568366 -0.1774713841251385 1.3464674369860085e-16 -1.552914634097633e-17 1.3464674369860085e-16 -1.552914634097633e-17 -0.9841258386202921 -0.17747206473053356
12644440000.0 -0.9861682914035617 -0.16574709961260287 1.3442463170570592e-16 -1.7139004733507983e-17 1.3442463170570592e-16 -1.7139004733507983e-17 -0.9861681767809359 -0.16574778159715045
12645057333.333334 -0.9880709504748382 -0.15399934034781046 1.341832829967802e-16 -1.8745770856210287e-17 1.341832829967802e-16 -1.8745770856210287e-17 -0.9880708439815721 -0.15400002361479107
12645674666.666666 -0.9898336690972362 -0.14222977016544297 1.3392273977187645e-16 -2.0349214975666362e-17 1.3392273977187645e-16 -2.0349214975666362e-17 -0.9898335707476176 -0.142230454617965
12646292000.0 -0.9914561976170935 -0.130440055989203 1.336430469730308e-16 -2.194910792560098e-17 1.336430469730308e-16 -2.194910792560098e-17 -0.9914561074242565 -0.13044074153021656
12646909333.333334 -0.9929383062358548 -0.11863186759586888 1.3334425227674606e-16 -2.354522113951246e-17 1.3334425227674606e-16 -2.354522113951246e-17 -0.9929382242117765 -0.11863255412817932
12647526666.666666 -0.994279785042627 -0.10680687737874787 1.330264060860628e-16 -2.5137326683350133e-17 1.330264060860628e-16 -2.5137326683350133e-17 -0.9942797111981273 -0.10680756480502969
12648144000.0 -0.9954804440439318 -0.09496676011061755 1.3268956152225715e-16 -2.6725197287985442e-17 1.3268956152225715e-16 -2.6725197287985442e-17 -0.9954803783886699 -0.09496744833342805
12648761333.333334 -0.9965401131905767 -0.08311319270683827 1.323337744161449e-16 -2.8308606381624464e-17 1.323337744161449e-16 -2.8308606381624464e-17 -0.9965400557330515 -0.08311388162863148
12649378666.666666 -0.997458642401754 -0.07124785398776738 1.3195910329900698e-16 -2.988732812206206e-17 1.3195910329900698e-16 -2.988732812206206e-17 -0.9974585931493026 -0.0712485435109079
12649996000.0 -0.9982359015863123 -0.05937242444076131 1.315656093931147e-16 -3.1461137428897676e-17 1.315656093931147e-16 -3.1461137428897676e-17 -0.9982358605451103 -0.05937311446753812
12650613333.333334 -0.9988717806611616 -0.04748858598245145 1.3115335660189e-16 -3.3029810015542755e-17 1.3115335660189e-16 -3.3029810015542755e-17 -0.9988717478362189 -0.04748927641509166
12651230666.666666 -0.9993661895668696 -0.03559802172042102 1.3072241149967878e-16 -3.459312242113554e-17 1.3072241149967878e-16 -3.459312242113554e-17 -0.9993661649620342 -0.035598712461103875
12651848000.0 -0.9997190582804228 -0.023702415714769897 1.3027284332113005e-16 -3.615085204237296e-17 1.3027284332113005e-16 -3.615085204237296e-17 -0.9997190418983773 -0.023703106665640548
12652465333.333334 -0.9999303368251384 -0.011803452739629492 1.2980472395021985e-16 -3.77027771651213e-17 1.2980472395021985e-16 -3.77027771651213e-17 -0.9999303286674 -0.011804143802812842
12653082666.666666 -0.9999999952777398 9.718195522435784e-05 1.29318127908892e-16 -3.9248676995916915e-17 1.29318127908892e-16 -3.9248676995916915e-17 -0.9999999953446612 9.649087760973745e-05
12653700000.0 -0.9999280237726006 0.011997802883564737 1.2881313234530218e-16 -4.0788331693395904e-17 1.2881313234530218e-16 -4.0788331693395904e-17 -0.9999280320633707 0.011997111889392773
12654317333.333334 -0.9997144325031397 0.0238967245608322 1.2828981702173044e-16 -4.2321522399434705e-17 1.2828981702173044e-16 -4.2321522399434705e-17 -0.9997144490157821 0.02389603374795547
12654934666.666666 -0.9993592517203799 0.03579226174321944 1.2774826430208593e-16 -4.38480312702626e-17 1.2774826430208593e-16 -4.38480312702626e-17 -0.9993592764517526 0.03579157120945524
12655552000.0 -0.9988625317286509 0.047682729666437246 1.2718855913905201e-16 -4.536764150737886e-17 1.2718855913905201e-16 -4.536764150737886e-17 -0.9988625646744508 0.04768203950955387
12656169333.333334 -0.9982243428784877 0.05956644428387336 1.2661078906089002e-16 -4.688013738823939e-17 1.2661078906089002e-16 -4.688013738823939e-17 -0.9982243840332479 0.05956575460157619
12656786666.666666 -0.997444775556643 0.07144172250561497 1.2601504415783384e-16 -4.8385304296899655e-17 1.2601504415783384e-16 -4.8385304296899655e-17 -0.9974448249137344 0.07144103339553262
12657404000.0 -0.9965239401733058 0.0833068824364558 1.2540141706816282e-16 -4.988292875437478e-17 1.2540141706816282e-16 -4.988292875437478e-17 -0.9965239977249375 0.08330619399612632
12658021333.333334 -0.9954619671464414 0.09516024361438613 1.2477000296388165e-16 -5.137279844890685e-17 1.2477000296388165e-16 -5.137279844890685e-17 -0.9954620328836637 0.09515955594124319
12658638666.666666 -0.9942590068833546 0.10700012724822863 1.2412089953607657e-16 -5.285470226597138e-17 1.2412089953607657e-16 -5.285470226597138e-17 -0.9942590807960602 0.10699944043958787
12659256000.0 -0.9929152297593404 0.11882485645591492 1.2345420697986796e-16 -5.432843031820919e-17 1.2345420697986796e-16 -5.432843031820919e-17 -0.9929153118362637 0.11882417060895992
12659873333.333334 -0.9914308260935927 0.1306327565015292 1.2277002797906178e-16 -5.579377397504692e-17 1.2277002797906178e-16 -5.579377397504692e-17 -0.9914309163223141 0.13063207171329794
12660490666.666666 -0.9898060061222533 0.1424221550325871 1.220684676904131e-16 -5.725052589221403e-17 1.220684676904131e-16 -5.725052589221403e-17 -0.9898061044891988 0.14242147139995814
12661108000.0 -0.9880409999685771 0.15419138231725624 1.2134963372754656e-16 -5.869848004104124e-17 1.2134963372754656e-16 -5.869848004104124e-17 -0.9880411064590224 0.15419069993693502
12661725333.333334 -0.986136057610428 0.16593877148024955 1.2061363614454625e-16 -6.013743173753186e-17 1.2061363614454625e-16 -6.013743173753186e-17 -0.9861361722085 0.16593809044875485
12662342666.666666 -0.9840914488447939 0.17766265873943887 1.1986058741918426e-16 -6.156717767125901e-17 1.1986058741918426e-16 -6.156717767125901e-17 -0.9840915715334722 0.17766197915308887
12662960000.0 -0.9819074632496327 0.18936138364113142 1.1909060243580868e-16 -6.298751593405452e-17 1.1909060243580868e-16 -6.298751593405452e-17 -0.9819075940107528 0.18936070559603033
12663577333.333334 -0.9795844101428152 0.20103328929549152 1.1830379846790926e-16 -6.439824604845081e-17 1.1830379846790926e-16 -6.439824604845081e-17 -0.9795845489570715 0.20103261288751592
12664194666.666666 -0.9771226185383609 0.21267672261098308 1.1750029516032036e-16 -6.579916899595735e-17 1.1750029516032036e-16 -6.579916899595735e-17 -0.9771227653853094 0.21267604793576841
12664812000.0 -0.974522437099792 0.224290034528719 1.1668021451111912e-16 -6.719008724506213e-17 1.1668021451111912e-16 -6.719008724506213e-17 -0.9745225919578526 0.2242893616816459
12665429333.333334 -0.9717842340907878 0.23587158025585053 1.1584368085316103e-16 -6.857080477906601e-17 1.1584368085316103e-16 -6.857080477906601e-17 -0.9717843969372488 0.23587090933203156
12666046666.666666 -0.9689083973230451 0.2474197194984651 1.1499082083532895e-16 -6.994112712361503e-17 1.1499082083532895e-16 -6.994112712361503e-17 -0.9689085681340643 0.24741905059273095
12666664000.0 -0.965895334101255 0.25893281669428686 1.1412176340339426e-16 -7.13008613741059e-17 1.1412176340339426e-16 -7.13008613741059e-17 -0.9658955128518655 0.2589321499011733
12667281333.333334 -0.9627454711655601 0.2704092412437417 1.132366397806355e-16 -7.264981622272473e-17 1.132366397806355e-16 -7.264981622272473e-17 -0.9627456578296729 0.2704085766574762
12667898666.666666 -0.9594592546309919 0.28184736774139596 1.1233558344806844e-16 -7.398780198535634e-17 1.1233558344806844e-16 -7.398780198535634e-17 -0.9594594491814002 0.28184670545588425
12668516000.0 -0.9560371499243412 0.29324557620594116 1.1141873012437894e-16 -7.531463062821647e-17 1.1141873012437894e-16 -7.531463062821647e-17 -0.9560373523327236 0.2932449163147539
12669133333.333334 -0.95247964171825 0.30460225230960536 1.1048621774558374e-16 -7.66301157941773e-17 1.1048621774558374e-16 -7.66301157941773e-17 -0.952479851955176 0.30460159490596533
12669750666.666666 -0.9487872338625549 0.3159157876068462 1.095381864443069e-16 -7.793407282894863e-17 1.095381864443069e-16 -7.793407282894863e-17 -0.9487874518974855 0.31591513278361394
