! Parameters = {f0=12700.012000; bw=77.238000; Q=6100.000000; N=10; m_0_1=1.151446; m_1_1=-1.493049; m_1_2=0.986258; m_2_2=-1.493698; m_2_3=0.623221; m_2_8=-0.005364; m_2_9=0.031340; m_3_3=-1.495635; m_3_4=0.511750; m_3_7=-0.004764; m_3_8=-0.101852; m_3_9=-0.005364; m_4_4=-1.498560; m_4_5=0.348085; m_4_6=-0.001247; m_4_7=-0.122401; m_4_8=-0.004764; m_5_5=-1.498178; m_5_6=0.755440; m_5_7=-0.001247; m_6_6=-1.498179; m_6_7=0.348427; m_7_7=-1.498546; m_7_8=0.511868; m_8_8=-1.495637; m_8_9=0.623534; m_9_9=-1.493703; m_9_10=0.987336; m_10_10=-1.493059; m_10_11=1.152241}
!
! Created with skrf (http://scikit-rf.org).
# Hz S RI R 50.0 
!freq ReS11 ImS11 ReS21 ImS21 ReS12 ImS12 ReS22 ImS22
12607400000.0 -0.9913043590437495 -0.13158901071410262 6.027200766895679e-17 -9.481761516093318e-18 6.027200766895679e-17 -9.481761516093318e-18 -0.9913042791889506 -0.13158961228580823
12608017333.333334 -0.9922034551835524 -0.12462866252060409 6.019130721316269e-17 -9.907923147102844e-18 6.019130721316269e-17 -9.907923147102844e-18 -0.9922033795563361 -0.1246292646084372
12608634666.666666 -0.9930536805196798 -0.11766217576678224 6.010759711927887e-17 -1.0333417224961521e-17 6.010759711927887e-17 -1.0333417224961521e-17 -0.9930536091233557 -0.11766277834103794
12609252000.0 -0.9938549931744811 -0.11068989358567057 6.002088279438559e-17 -1.0758222520666223e-17 6.002088279438559e-17 -1.0758222520666223e-17 -0.9938549260121519 -0.110690496616623
12609869333.333334 -0.994607353679493 -0.10371215939575489 5.993116979512193e-17 -1.1182317848308061e-17 5.993116979512193e-17 -1.1182317848308061e-17 -0.9946072907540517 -0.1037127628536586
12610486666.666666 -0.9953107249773696 -0.09672931688417134 5.98384638273489e-17 -1.1605682066116285e-17 5.98384638273489e-17 -1.1605682066116285e-17 -0.9953106662915004 -0.09672992073926276
12611104000.0 -0.9959650724237383 -0.08974170998946689 5.974277074579883e-17 -1.2028294077526625e-17 5.974277074579883e-17 -1.2028294077526625e-17 -0.9959650179799164 -0.08974231421196578
12611721333.333334 -0.996570363788868 -0.0827496828850548 5.964409655372678e-17 -1.2450132832204596e-17 5.964409655372678e-17 -1.2450132832204596e-17 -0.9965703135893608 -0.08275028744516592
12612338666.666666 -0.9971265692592891 -0.07575357996198014 5.954244740254573e-17 -1.2871177327106715e-17 5.954244740254573e-17 -1.2871177327106715e-17 -0.9971265233061515 -0.0757541848298942
12612956000.0 -0.997633661439248 -0.06875374581195534 5.943782959145789e-17 -1.329140660752192e-17 5.943782959145789e-17 -1.329140660752192e-17 -0.9976336197343293 -0.06875435095785114
12613573333.333334 -0.9980916153520503 -0.06175052521064386 5.933024956708248e-17 -1.3710799768095057e-17 5.933024956708248e-17 -1.3710799768095057e-17 -0.9980915778969872 -0.061751130604689175
12614190666.666666 -0.9985004084413033 -0.054744263100394 5.92197139230689e-17 -1.4129335953879492e-17 5.92197139230689e-17 -1.4129335953879492e-17 -0.9985003752375258 -0.05474486871274751
12614808000.0 -0.9988600205720221 -0.04773530457339108 5.910622939970806e-17 -1.4546994361361432e-17 5.910622939970806e-17 -1.4546994361361432e-17 -0.9988599916207482 -0.04773591037420348
12615425333.333334 -0.9991704340316193 -0.04072399485463127 5.898980288353416e-17 -1.4963754239493097e-17 5.898980288353416e-17 -1.4963754239493097e-17 -0.9991704093338591 -0.04072460081404699
12616042666.666666 -0.999431633530781 -0.03371067928491783 5.887044140692146e-17 -1.5379594890712747e-17 5.887044140692146e-17 -1.5379594890712747e-17 -0.9994316130873337 -0.03371128537307636
12616660000.0 -0.9996436062042157 -0.026695703303822864 5.874815214766975e-17 -1.579449567197838e-17 5.874815214766975e-17 -1.579449567197838e-17 -0.9996435900156732 -0.02669630949086032
12617277333.333334 -0.9998063416112917 -0.019679412432786505 5.86229424285869e-17 -1.6208435995781528e-17 5.86229424285869e-17 -1.6208435995781528e-17 -0.9998063296780343 -0.019680018688837037
12617894666.666666 -0.9999198317365515 -0.012662152257927804 5.849481971706212e-17 -1.662139533116621e-17 5.849481971706212e-17 -1.662139533116621e-17 -0.9999198240587496 -0.012662758553125065
12618512000.0 -0.9999840709901013 -0.00564426841310811 5.836379162463151e-17 -1.703335320474454e-17 5.836379162463151e-17 -1.703335320474454e-17 -0.9999840675677176 -0.005644874717586789
12619129333.333334 -0.9999990562078944 0.0013738934370076603 5.822986590654031e-17 -1.7444289201700994e-17 5.822986590654031e-17 -1.7444289201700994e-17 -0.9999990570406806 0.0013732871531104331
12619746666.666666 -0.9999647866518803 0.00839198761411889 5.809305046129221e-17 -1.7854182966807996e-17 5.809305046129221e-17 -1.7854182966807996e-17 -0.9999647917393788 0.008391381380662038
12620364000.0 -0.9998812640100434 0.015409668443343945 5.795335333019394e-17 -1.826301420543144e-17 5.795335333019394e-17 -1.826301420543144e-17 -0.9998812733515876 0.015409062290180995
12620981333.333334 -0.9997484923963217 0.02242659026999057 5.781078269689879e-17 -1.8670762684516576e-17 5.781078269689879e-17 -1.8670762684516576e-17 -0.9997485059910355 0.02242598422696818
12621598666.666666 -0.9995664783504002 0.029442407476865228 5.766534688693202e-17 -1.9077408233601333e-17 5.766534688693202e-17 -1.9077408233601333e-17 -0.9995664961971982 0.029441801573821712
12622216000.0 -0.9993352308373942 0.036456774501154386 5.751705436721828e-17 -1.9482930745801713e-17 5.751705436721828e-17 -1.9482930745801713e-17 -0.9993352529349797 0.036456168767918185
12622833333.333334 -0.9990547612473991 0.04346934585150179 5.736591374559753e-17 -1.9887310178804863e-17 5.736591374559753e-17 -1.9887310178804863e-17 -0.9990547875942696 0.04346874031789017
12623450666.666666 -0.9987250833949418 0.050479776124912244 5.721193377033794e-17 -2.029052655584886e-17 5.721193377033794e-17 -2.029052655584886e-17 -0.9987251139893836 0.05047917082072965
12624068000.0 -0.9983462135182908 0.05748772002390619 5.705512332963647e-17 -2.0692559966713402e-17 5.705512332963647e-17 -2.0692559966713402e-17 -0.9983462483583804 0.05748711497894282
12624685333.333334 -0.9979181702786517 0.06449283237355555 5.689549145111487e-17 -2.109339056870014e-17 5.689549145111487e-17 -2.109339056870014e-17 -0.9979182093622588 0.06449222761758601
12625302666.666666 -0.9974409747592687 0.07149476813820167 5.673304730131561e-17 -2.1492998587591657e-17 5.673304730131561e-17 -2.1492998587591657e-17 -0.9974410180840532 0.0714941637009834
12625920000.0 -0.9969146504643579 0.07849318243887549 5.656780018517561e-17 -2.1891364318646736e-17 5.656780018517561e-17 -2.1891364318646736e-17 -0.9969146980277707 0.07849257835014725
12626537333.333334 -0.996339223317975 0.08548773056988727 5.639975954551134e-17 -2.2288468127545197e-17 5.639975954551134e-17 -2.2288468127545197e-17 -0.9963392751172593 0.08548712685936785
12627154666.666666 -0.9957147216627305 0.09247806801597552 5.622893496248444e-17 -2.268429045136091e-17 5.622893496248444e-17 -2.268429045136091e-17 -0.9957147776949201 0.09247746471336207
12627772000.0 -0.9950411762583729 0.09946385046944542 5.605533615306058e-17 -2.3078811799530724e-17 5.605533615306058e-17 -2.3078811799530724e-17 -0.9950412365202956 0.0994632476044123
12628389333.333334 -0.9943186202803144 0.10644473384676027 5.587897297047484e-17 -2.3472012754787565e-17 5.587897297047484e-17 -2.3472012754787565e-17 -0.9943186847685868 0.10644413144895706
12629006666.666666 -0.9935470893179587 0.11342037430579975 5.569985540367093e-17 -2.386387397413549e-17 5.569985540367093e-17 -2.386387397413549e-17 -0.9935471580289923 0.1134197724048504
12629624000.0 -0.9927266213729684 0.12039042826265493 5.551799357675157e-17 -2.425437618977952e-17 5.551799357675157e-17 -2.425437618977952e-17 -0.9927266943029662 0.12038982688815596
12630241333.333334 -0.9918572568573858 0.12735455240860794 5.533339774841041e-17 -2.464350021007803e-17 5.533339774841041e-17 -2.464350021007803e-17 -0.9918573340023429 0.12735395159012697
12630858666.666666 -0.990939038591657 0.13431240372690006 5.514607831136607e-17 -2.5031226920472227e-17 5.514607831136607e-17 -2.5031226920472227e-17 -0.9909391199473616 0.13431180349397448
12631476000.0 -0.9899720118024865 0.14126363950993767 5.49560457917772e-17 -2.541753728443785e-17 5.49560457917772e-17 -2.541753728443785e-17 -0.9899720973645196 0.14126303989207312
12632093333.333334 -0.988956224120654 0.14820791737580524 5.476331084866834e-17 -2.5802412344395043e-17 5.476331084866834e-17 -2.5802412344395043e-17 -0.9889563138843914 0.14820731840247434
12632710666.666666 -0.9878917255786529 0.15514489528529932 5.456788427333605e-17 -2.6185833222643827e-17 5.456788427333605e-17 -2.6185833222643827e-17 -0.9878918195392621 0.15514429698593984
12633328000.0 -0.9867785686081972 0.1620742315589153 5.436977698874827e-17 -2.6567781122293057e-17 5.436977698874827e-17 -2.6567781122293057e-17 -0.9867786667606395 0.1620736339629289
12633945333.333334 -0.9856168080376798 0.16899558489342376 5.416900004894881e-17 -2.6948237328163802e-17 5.416900004894881e-17 -2.6948237328163802e-17 -0.9856169103767123 0.16899498803017501
12634562666.666666 -0.9844065010894522 0.17590861437882271 5.3965564638444077e-17 -2.7327183207709472e-17 5.3965564638444077e-17 -2.7327183207709472e-17 -0.9844066076096251 0.17590801827763686
12635180000.0 -0.9831477073770079 0.18281297951509987 5.375948207158856e-17 -2.7704600211922465e-17 5.375948207158856e-17 -2.7704600211922465e-17 -0.9831478180726655 0.18281238420526177
12635797333.333334 -0.9818404889020425 0.18970834022903263 5.3550763791962094e-17 -2.8080469876239064e-17 5.3550763791962094e-17 -2.8080469876239064e-17 -0.9818406037673243 0.1897077457397853
12636414666.666666 -0.9804849100514184 0.19659435689082597 5.3339421371745206e-17 -2.8454773821432356e-17 5.3339421371745206e-17 -2.8454773821432356e-17 -0.9804850290802609 0.1965937632513695
12637032000.0 -0.9790810375939666 0.20347069033100917 5.312546651107977e-17 -2.8827493754515464e-17 5.312546651107977e-17 -2.8827493754515464e-17 -0.9790811607800997 0.20347009757049853
12637649333.333334 -0.9776289406772143 0.21033700185702917 5.290891103743183e-17 -2.9198611469625054e-17 5.290891103743183e-17 -2.9198611469625054e-17 -0.9776290680141644 0.21033641000457334
12638266666.666666 -0.9761286908239689 0.21719295326998858 5.2689766904943975e-17 -2.956810884890753e-17 5.2689766904943975e-17 -2.956810884890753e-17 -0.9761288223050595 0.2171923623546492
12638884000.0 -0.9745803619288227 0.22403820688119336 5.2468046193781944e-17 -2.9935967863400675e-17 5.2468046193781944e-17 -2.9935967863400675e-17 -0.9745804975471719 0.22403761693198254
12639501333.333334 -0.9729840302544721 0.23087242552895096 5.224376110947864e-17 -3.030217057390267e-17 5.224376110947864e-17 -3.030217057390267e-17 -0.9729841700029964 0.2308718365748308
12640118666.666666 -0.9713397744279935 0.23769527259503892 5.2016923982265504e-17 -3.066669913185008e-17 5.2016923982265504e-17 -3.066669913185008e-17 -0.9713399182994077 0.23769468466491991
12640736000.0 -0.9696476754369274 0.24450641202147924 5.1787547266399745e-17 -3.1029535780184254e-17 5.1787547266399745e-17 -3.1029535780184254e-17 -0.9696478234237419 0.24450582514421812
12641353333.333334 -0.9679078166253816 0.25130550832670345 5.155564353949519e-17 -3.13906628542005e-17 5.155564353949519e-17 -3.13906628542005e-17 -0.9679079687199045 0.25130492253110215
12641970666.666666 -0.966120283689814 0.2580922266225178 5.1321225501833374e-17 -3.17500627824119e-17 5.1321225501833374e-17 -3.17500627824119e-17 -0.9661204398841545 0.258091641937323
12642588000.0 -0.9642851646748791 0.26486623263035125 5.1084305975674055e-17 -3.210771808740137e-17 5.1084305975674055e-17 -3.210771808740137e-17 -0.964285324960944 0.2648656490842516
12643205333.333334 -0.9624025499690851 0.2716271926977477 5.084489790456408e-17 -3.2463611386661195e-17 5.084489790456408e-17 -3.2463611386661195e-17 -0.9624027143385782 0.2716266103193725
12643822666.666666 -0.9604725323003023 0.2783747738149076 5.0603014352631737e-17 -3.281772539344017e-17 5.0603014352631737e-17 -3.281772539344017e-17 -0.9604727007447308 0.2783741926328268
12644440000.0 -0.9584952067312449 0.2851086436309561 5.035866850388542e-17 -3.317004291757172e-17 5.035866850388542e-17 -3.317004291757172e-17 -0.9584953792419146 0.28510806367367747
12645057333.333334 -0.9564706706547769 0.29182847047033905 5.011187366150028e-17 -3.3520546866305114e-17 5.011187366150028e-17 -3.3520546866305114e-17 -0.9564708472227934 0.291827891766307
12645674666.666666 -0.9543990237891139 0.29853392334915946 4.9862643247100276e-17 -3.3869220245129955e-17 4.9862643247100276e-17 -3.3869220245129955e-17 -0.9543992044053851 0.2985333459267544
12646292000.0 -0.9522803681728568 0.3052246719916716 4.961099080002787e-17 -3.4216046158605597e-17 4.961099080002787e-17 -3.4216046158605597e-17 -0.9522805528280917 0.30522409587920774
12646909333.333334 -0.950114808160073 0.31190038684619426 4.93569299766273e-17 -3.4561007811156654e-17 4.93569299766273e-17 -3.4561007811156654e-17 -0.9501149968447805 0.3118998120719182
12647526666.666666 -0.9479024504150585 0.3185607391016406 4.9100474549499755e-17 -3.490408850789572e-17 4.9100474549499755e-17 -3.490408850789572e-17 -0.9479026431195547 0.3185601656937316
12648144000.0 -0.9456434039071386 0.3252054007035815 4.8841638406763967e-17 -3.5245271655425196e-17 4.8841638406763967e-17 -3.5245271655425196e-17 -0.9456436006215383 0.3252048286901471
12648761333.333334 -0.9433377799052802 0.3318340443704268 4.858043555131415e-17 -3.5584540762629634e-17 4.858043555131415e-17 -3.5584540762629634e-17 -0.9433379806195034 0.331833473779504
12649378666.666666 -0.9409856919726067 0.33844634360957404 4.8316880100068457e-17 -3.592187944146798e-17 4.8316880100068457e-17 -3.592187944146798e-17 -0.9409858966763783 0.33844577446912744
12649996000.0 -0.9385872559608458 0.34504197273338444 4.8050986283207e-17 -3.625727140776745e-17 4.8050986283207e-17 -3.625727140776745e-17 -0.9385874646436931 0.34504140507130354
12650613333.333334 -0.9361425900045589 0.3516206068753817 4.778276844341228e-17 -3.659070048200045e-17 4.778276844341228e-17 -3.659070048200045e-17 -0.9361428026558158 0.35162004071948116
12651230666.666666 -0.9336518145153665 0.3581819220061491 4.75122410351058e-17 -3.692215059005512e-17 4.75122410351058e-17 -3.692215059005512e-17 -0.9336520311241723 0.3581813573841665
12651848000.0 -0.9311150521760049 0.3647255949493147 4.723941862366422e-17 -3.725160576401867e-17 4.723941862366422e-17 -3.725160576401867e-17 -0.9311152727313039 0.36472503188890887
12652465333.333334 -0.9285324279342726 0.37125130339749585 4.696431588465058e-17 -3.757905014292991e-17 4.696431588465058e-17 -3.757905014292991e-17 -0.9285326524248178 0.37125074192624696
12653082666.666666 -0.9259040689969327 0.37775872592804394 4.668694760303075e-17 -3.790446797353794e-17 4.668694760303075e-17 -3.790446797353794e-17 -0.9259042974112822 0.37775816607345025
12653700000.0 -0.9232301048233247 0.38424754201916356 4.640732867237336e-17 -3.822784361106827e-17 4.640732867237336e-17 -3.822784361106827e-17 -0.9232303371498457 0.38424698380864153
12654317333.333334 -0.920510667119142 0.3907174320653329 4.6125474094071395e-17 -3.8549161519951797e-17 4.6125474094071395e-17 -3.8549161519951797e-17 -0.9205109033460103 0.3907168755262154
12654934666.666666 -0.9177458898298363 0.3971680773933088 4.584139897653185e-17 -3.8868406274579304e-17 4.584139897653185e-17 -3.8868406274579304e-17 -0.9177461299450371 0.3971675225528438
12655552000.0 -0.9149359091340185 0.40359916027782167 4.555511853437125e-17 -3.9185562560036776e-17 4.555511853437125e-17 -3.9185562560036776e-17 -0.9149361531253453 0.4035986071631704
12656169333.333334 -0.9120808634368518 0.4100103639569903 4.526664808761675e-17 -3.9500615172823944e-17 4.526664808761675e-17 -3.9500615172823944e-17 -0.912081111291909 0.41000981259522645
12656786666.666666 -0.909180893363122 0.41640137264818494 4.4976003060880225e-17 -3.9813549021590557e-17 4.4976003060880225e-17 -3.9813549021590557e-17 -0.9091811450693253 0.41640082306629345
12657404000.0 -0.9062361417503684 0.4227718715634503 4.468319898254486e-17 -4.012434912784809e-17 4.468319898254486e-17 -4.012434912784809e-17 -0.9062363972949458 0.4227713237883261
12658021333.333334 -0.9032467536418257 0.42912154692506377 4.438825148393849e-17 -4.043300062668407e-17 4.438825148393849e-17 -4.043300062668407e-17 -0.903247013011816 0.4291210009835096
12658638666.666666 -0.9002128762793253 0.4354500859808851 4.40911762985105e-17 -4.073948876746181e-17 4.40911762985105e-17 -4.073948876746181e-17 -0.9002131394615805 0.43544954189961094
12659256000.0 -0.8971346590959745 0.44175717701991757 4.379198926098495e-17 -4.1043798914533875e-17 4.379198926098495e-17 -4.1043798914533875e-17 -0.8971349260771602 0.44175663482553923
12659873333.333334 -0.8940122537088261 0.4480425093875816 4.3490706306538285e-17 -4.134591654791846e-17 4.3490706306538285e-17 -4.134591654791846e-17 -0.8940125244754229 0.4480419691066197
12660490666.666666 -0.8908458139114694 0.4543057735009173 4.3187343469943183e-17 -4.1645827264000916e-17 4.3187343469943183e-17 -4.1645827264000916e-17 -0.8908460884497722 0.4543052351597953
12661108000.0 -0.8876354956663093 0.46054666086410995 4.2881916884725897e-17 -4.194351677620864e-17 4.2881916884725897e-17 -4.194351677620864e-17 -0.8876357739624274 0.4605461244891529
12661725333.333334 -0.8843814570970644 0.4667648640833305 4.2574442782311663e-17 -4.2238970915689466e-17 4.2574442782311663e-17 -4.2238970915689466e-17 -0.8843817391369253 0.46676432970076454
12662342666.666666 -0.881083858480839 0.47296007688215524 4.226493749117157e-17 -4.253217563197548e-17 4.226493749117157e-17 -4.253217563197548e-17 -0.881084144250186 0.47295954451810546
12662960000.0 -0.8777428622402914 0.4791319941165241 4.19534174359538e-17 -4.282311699365349e-17 4.19534174359538e-17 -4.282311699365349e-17 -0.8777431517246868 0.4791314637970144
12663577333.333334 -0.8743586329356243 0.4852803117897977 4.163989913662185e-17 -4.3111781189016854e-17 4.163989913662185e-17 -4.3111781189016854e-17 -0.8743589261204471 0.4852797835407477
12664194666.666666 -0.8709313372564733 0.49140472706772714 4.13243992075823e-17 -4.339815452671684e-17 4.13243992075823e-17 -4.339815452671684e-17 -0.8709316341269233 0.4914042009149529
12664812000.0 -0.8674611440137028 0.4975049382933737 4.1006934356809604e-17 -4.368222343640689e-17 4.1006934356809604e-17 -4.368222343640689e-17 -0.8674614445547989 0.4975044142625852
12665429333.333334 -0.8639482241310737 0.5035806450019897 4.0687521384965e-17 -4.396397446938134e-17 4.0687521384965e-17 -4.396397446938134e-17 -0.8639485283276553 0.5035801231187893
12666046666.666666 -0.8603927506368965 0.5096315479356944 4.036617718451883e-17 -4.424339429920108e-17 4.036617718451883e-17 -4.424339429920108e-17 -0.8603930584736242 0.5096310282255767
12666664000.0 -0.8567948986553503 0.5156573490584846 4.0042918738848155e-17 -4.4520469722330836e-17 4.0042918738848155e-17 -4.4520469722330836e-17 -0.8567952101167088 0.5156568315468353
12667281333.333334 -0.8531548453980617 0.5216577515705725 3.971776312136204e-17 -4.479518765874188e-17 3.971776312136204e-17 -4.479518765874188e-17 -0.8531551604683569 0.5216572362826656
12667898666.666666 -0.8494727701552139 0.5276324599232712 3.939072749459205e-17 -4.506753515253524e-17 3.939072749459205e-17 -4.506753515253524e-17 -0.8494730888185759 0.5276319468842691
12668516000.0 -0.8457488542867903 0.5335811798334316 3.9061829109291146e-17 -4.533749937254712e-17 3.9061829109291146e-17 -4.533749937254712e-17 -0.8457491765271739 0.5335806690683835
12669133333.333334 -0.8419832812136104 0.539503618297985 3.873108530354034e-17 -4.560506761293779e-17 3.873108530354034e-17 -4.560506761293779e-17 -0.8419836070147956 0.5395031098318255
12669750666.666666 -0.8381762364083568 0.545399483608278 3.8398513501826746e-17 -4.587022729379521e-17 3.8398513501826746e-17 -4.587022729379521e-17 -0.8381765657539506 0.5453989774658267
