! Parameters = {f0=12700.012000; bw=77.238000; Q=6100.000000; N=10; m_0_1=1.310005; m_1_1=0.885329; m_1_2=1.144817; m_2_2=0.884680; m_2_3=0.781780; m_2_8=0.002564; m_2_9=0.039268; m_3_3=0.882743; m_3_4=0.670309; m_3_7=0.003164; m_3_8=-0.093924; m_3_9=0.002564; m_4_4=0.879818; m_4_5=0.506644; m_4_6=0.006681; m_4_7=-0.114473; m_4_8=0.003164; m_5_5=0.880200; m_5_6=0.913999; m_5_7=0.006681; m_6_6=0.880199; m_6_7=0.506986; m_7_7=0.879832; m_7_8=0.670427; m_8_8=0.882741; m_8_9=0.782093; m_9_9=0.884675; m_9_10=1.145895; m_10_10=0.885319; m_10_11=1.310800}
!
! Created with skrf (http://scikit-rf.org).
# Hz S RI R 50.0 
!freq ReS11 ImS11 ReS21 ImS21 ReS12 ImS12 ReS22 ImS22
12607400000.0 -0.1588002997828116 0.9873107235256295 -1.7057823084109454e-17 -1.3197932383814113e-16 -1.7057823084109454e-17 -1.3197932383814113e-16 -0.15880098113911356 0.9873106139351823
12608017333.333334 -0.14723261963020207 0.9891018934956302 -1.8609558104287454e-17 -1.3174316250130258e-16 -1.8609558104287454e-17 -1.3174316250130258e-16 -0.14723330218919992 0.9891017918931679
12608634666.666666 -0.13564476573830905 0.990757537204544 -2.0158096821936157e-17 -1.3148876748812517e-16 -2.0158096821936157e-17 -1.3148876748812517e-16 -0.13564544940636553 0.9907574436032045
12609252000.0 -0.1240383258692529 0.9922774277969669 -2.1703225108655512e-17 -1.3121618132140415e-16 -2.1703225108655512e-17 -1.3121618132140415e-16 -0.12403901055258844 0.9922773422087934
12609869333.333334 -0.11241489033176615 0.9936613570183302 -2.3244729394179423e-17 -1.3092544903706803e-16 -2.3244729394179423e-17 -1.3092544903706803e-16 -0.11241557593647075 0.9936612794542634
12610486666.666666 -0.10077605176345834 0.9949091352434057 -2.4782396695831328e-17 -1.3061661817693651e-16 -2.4782396695831328e-17 -1.3061661817693651e-16 -0.10077673819550524 0.9949090657132877
12611104000.0 -0.08912340491217058 0.9960205915023409 -2.6316014647949662e-17 -1.302897387811205e-16 -2.6316014647949662e-17 -1.302897387811205e-16 -0.08912409207742884 0.9960205300149121
12611721333.333334 -0.07745854641802917 0.9969955735040249 -2.78453715311197e-17 -1.299448633800977e-16 -2.78453715311197e-17 -1.299448633800977e-16 -0.07745923422227645 0.9969955200669213
12612338666.666666 -0.0657830745942785 0.9978339476569918 -2.937025630141142e-17 -1.2958204698642234e-16 -2.937025630141142e-17 -1.2958204698642234e-16 -0.06578376294321438 0.9978339022767484
12612956000.0 -0.05409858920830959 0.998535599087726 -3.0890458619437855e-17 -1.2920134708610814e-16 -3.0890458619437855e-17 -1.2920134708610814e-16 -0.05409927800756809 0.9985355617697713
12613573333.333334 -0.04240669126271546 0.9991004316563782 -3.240576887930841e-17 -1.2880282362967221e-16 -3.240576887930841e-17 -1.2880282362967221e-16 -0.04240738041787821 0.9991004024050367
12614190666.666666 -0.030708982775667637 0.9995283679699624 -3.391597823751982e-17 -1.283865390228259e-16 -3.391597823751982e-17 -1.283865390228259e-16 -0.03070967219227671 0.9995283467884518
12614808000.0 -0.019007066561436456 0.9998193493929496 -3.5420878641675e-17 -1.2795255811684182e-16 -3.5420878641675e-17 -1.2795255811684182e-16 -0.019007756145007364 0.999819336283383
12615425333.333334 -0.007302546010916339 0.9999733360553027 -3.6920262859120724e-17 -1.2750094819857422e-16 -3.6920262859120724e-17 -1.2750094819857422e-16 -0.007303235666950947 0.9999733310186854
12616042666.666666 0.004402975128183689 0.9999903068579384 -3.841392450542035e-17 -1.2703177898015603e-16 -3.841392450542035e-17 -1.2703177898015603e-16 0.004402285494184172 0.9999903098941713
12616660000.0 0.016107892971056272 0.9998702594756206 -3.990165807273352e-17 -1.2654512258835188e-16 -3.990165807273352e-17 -1.2654512258835188e-16 0.01610720345357839 0.9998702705834981
12617277333.333334 0.02781060371558772 0.9996132103572797 -4.138325895804844e-17 -1.2604105355358424e-16 -4.138325895804844e-17 -1.2604105355358424e-16 0.02780991440909279 0.9996132295344894
12617894666.666666 0.03950950386193965 0.999219194723758 -4.2858523491256097e-17 -1.2551964879863656e-16 -4.2858523491256097e-17 -1.2551964879863656e-16 0.03950881486085086 0.9992192219668832
12618512000.0 0.051202990432714396 0.9986882665629756 -4.4327248963161926e-17 -1.2498098762700185e-16 -4.4327248963161926e-17 -1.2498098762700185e-16 0.0512023018314038 0.9986883018674939
12619129333.333334 0.06288946119188385 0.9980204986225516 -4.578923365320705e-17 -1.2442515171095444e-16 -4.578923365320705e-17 -1.2442515171095444e-16 0.06288877308465962 0.9980205419828385
12619746666.666666 0.07456731486500906 0.9972159823998177 -4.7244276857215733e-17 -1.2385222507923765e-16 -4.7244276857215733e-17 -1.2385222507923765e-16 0.07456662734610238 0.997216033809144
12620364000.0 0.08623495135833328 0.9962748281292859 -4.86921789148658e-17 -1.2326229410447074e-16 -4.86921789148658e-17 -1.2326229410447074e-16 0.08623426452188541 0.9962748875798196
12620981333.333334 0.09789077197791275 0.9951971647675554 -5.013274123702879e-17 -1.2265544749022817e-16 -5.013274123702879e-17 -1.2265544749022817e-16 0.09789008591796233 0.9951972322503646
12621598666.666666 0.10953317964892433 0.993983139975628 -5.156576633299568e-17 -1.22031776257781e-16 -5.156576633299568e-17 -1.22031776257781e-16 0.10953249445939447 0.9939832154806819
12622216000.0 0.12116057913435409 0.9926329200986842 -5.299105783748703e-17 -1.2139137373254272e-16 -5.299105783748703e-17 -1.2139137373254272e-16 0.12115989490903936 0.9926330036148522
12622833333.333334 0.13277137725363236 0.9911466901432845 -5.440842053753735e-17 -1.207343355301817e-16 -5.440842053753735e-17 -1.207343355301817e-16 0.13277069408618605 0.99114678165834
12623450666.666666 0.1443639831007894 0.9895246537520362 -5.581766039915407e-17 -1.2006075954244592e-16 -5.581766039915407e-17 -1.2006075954244592e-16 0.14436330108471096 0.98952475325266
12624068000.0 0.15593680826269543 0.9877670331756658 -5.721858459386735e-17 -1.1937074592264717e-16 -5.721858459386735e-17 -1.1937074592264717e-16 0.15593612749131697 0.9877671406474425
12624685333.333334 0.16748826703656075 0.9858740692425692 -5.861100152507043e-17 -1.1866439707084974e-16 -5.861100152507043e-17 -1.1866439707084974e-16 0.16748758760303514 0.9858741846699953
12625302666.666666 0.17901677664704246 0.983846021325856 -5.999472085414233e-17 -1.179418176187721e-16 -5.999472085414233e-17 -1.179418176187721e-16 0.1790160986443298 0.9838461446923376
12625920000.0 0.19052075746350586 0.9816831673077341 -6.136955352648528e-17 -1.1720311441433245e-16 -6.136955352648528e-17 -1.1720311441433245e-16 0.1905200809843615 0.9816832985955934
12626537333.333334 0.2019986332160742 0.979385803541511 -6.27353117972437e-17 -1.1644839650596004e-16 -6.27353117972437e-17 -1.1644839650596004e-16 0.20199795835303544 0.9793859427319848
12627154666.666666 0.21344883121174787 0.9769542448109594 -6.409180925693092e-17 -1.1567777512655446e-16 -6.409180925693092e-17 -1.1567777512655446e-16 0.21344815805712156 0.976954391884204
12627772000.0 0.22486978255020013 0.9743888242871218 -6.543886085684285e-17 -1.148913636771549e-16 -6.543886085684285e-17 -1.148913636771549e-16 0.22486911119604994 0.9743889792222155
12628389333.333334 0.23625992233805176 0.971689893482808 -6.67762829342111e-17 -1.1408927771035087e-16 -6.67762829342111e-17 -1.1408927771035087e-16 0.23625925287618607 0.971690056257755
12629006666.666666 0.24761768990409774 0.9688578222042551 -6.810389323724421e-17 -1.1327163491334663e-16 -6.810389323724421e-17 -1.1327163491334663e-16 0.24761702242605624 0.9688579927959861
12629624000.0 0.2589415290125387 0.9658929985005911 -6.942151094989524e-17 -1.1243855509077622e-16 -6.942151094989524e-17 -1.1243855509077622e-16 0.2589408636095804 0.9658931768849685
12630241333.333334 0.2702298880765206 0.9627958286105961 -7.072895671644222e-17 -1.1159016014721668e-16 -7.072895671644222e-17 -1.1159016014721668e-16 0.27022922483961187 0.9627960147624186
12630858666.666666 0.28148122037051343 0.9595667369071001 -7.202605266585053e-17 -1.1072657406942137e-16 -7.202605266585053e-17 -1.1072657406942137e-16 0.2814805593903142 0.9595669308001026
12631476000.0 0.29269398424267834 0.9562061658387061 -7.331262243595615e-17 -1.0984792290824492e-16 -7.331262243595615e-17 -1.0984792290824492e-16 0.2926933256095311 0.9562063674455665
12632093333.333334 0.303866643325478 0.9527145758693518 -7.458849119735789e-17 -1.0895433476033612e-16 -7.458849119735789e-17 -1.0895433476033612e-16 0.30386598712939433 0.9527147851616935
12632710666.666666 0.314997666746598 0.9490924454150993 -7.585348567714407e-17 -1.0804593974951712e-16 -7.585348567714407e-17 -1.0804593974951712e-16 0.3149970130772467 0.9490926623634942
12633328000.0 0.32608552933881196 0.9453402707785385 -7.710743418240427e-17 -1.0712287000787724e-16 -7.710743418240427e-17 -1.0712287000787724e-16 0.32608487828550753 0.9453404953525149
12633945333.333334 0.3371287118485822 0.9414585660809125 -7.835016662343994e-17 -1.0618525965664857e-16 -7.835016662343994e-17 -1.0618525965664857e-16 0.3371280635002719 0.9414587982489563
12634562666.666666 0.3481257011444703 0.9374478631915929 -7.958151453681548e-17 -1.0523324478675937e-16 -7.958151453681548e-17 -1.0523324478675937e-16 0.3481250555897216 0.9374481029211513
12635180000.0 0.3590749904244108 0.9333087116552182 -8.080131110814147e-17 -1.0426696343914566e-16 -8.080131110814147e-17 -1.0426696343914566e-16 0.3590743477513999 0.9333089589127062
12635797333.333334 0.36997507942219865 0.9290416786163855 -8.200939119462804e-17 -1.0328655558479245e-16 -8.200939119462804e-17 -1.0328655558479245e-16 0.3699744397186988 0.929041933367191
12636414666.666666 0.38082447461292446 0.9246473487419962 -8.32055913473829e-17 -1.0229216310452648e-16 -8.32055913473829e-17 -1.0229216310452648e-16 0.38082383796629304 0.9246476109504828
12637032000.0 0.3916216894178794 0.9201263241410386 -8.438974983349137e-17 -1.0128392976853005e-16 -8.438974983349137e-17 -1.0128392976853005e-16 0.3916210559150463 0.9201265937705512
12637649333.333334 0.40236524440798127 0.9154792242821893 -8.556170665783409e-17 -1.0026200121561138e-16 -8.556170665783409e-17 -1.0026200121561138e-16 0.40236461413543745 0.9154795012950606
12638266666.666666 0.4130536675066179 0.9107066859088859 -8.672130358464099e-17 -9.922652493223613e-17 -8.672130358464099e-17 -9.922652493223613e-17 0.4130530405504034 0.9107069702664407
12638884000.0 0.42368549419132345 0.9058093629520878 -8.786838415881748e-17 -9.817765023128802e-17 -8.786838415881748e-17 -9.817765023128802e-17 0.4236848706370153 0.9058096546146479
12639501333.333334 0.4342592676944725 0.9007879264406651 -8.900279372700364e-17 -9.711552823059372e-17 -8.900279372700364e-17 -9.711552823059372e-17 0.43425864762717364 0.900788225367556
12640118666.666666 0.4447735392027066 0.8956430644095399 -9.012437945835561e-17 -9.604031183122333e-17 -9.012437945835561e-17 -9.604031183122333e-17 0.4447729227070334 0.8956433705590947
12640736000.0 0.4552268680559853 0.890375481805149 -9.123299036513813e-17 -9.495215569548079e-17 -9.123299036513813e-17 -9.495215569548079e-17 0.45522625521605703 0.8903757951347165
12641353333.333334 0.4656178219440939 0.884985900389295 -9.232847732291878e-17 -9.385121622478917e-17 -9.232847732291878e-17 -9.385121622478917e-17 0.46561721284352003 0.884986220855243
12641970666.666666 0.47594497710378725 0.8794750586398049 -9.341069309064257e-17 -9.273765153719859e-17 -9.341069309064257e-17 -9.273765153719859e-17 0.47594437182565763 0.8794753861975294
12642588000.0 0.4862069185133407 0.8738437116496144 -9.44794923303403e-17 -9.161162144475847e-17 -9.44794923303403e-17 -9.161162144475847e-17 0.4862063171402127 0.8738440462535428
12643205333.333334 0.4964022400865876 0.8680926310232282 -9.55347316265949e-17 -9.047328743063501e-17 -9.55347316265949e-17 -9.047328743063501e-17 0.49640164270047593 0.8680929726268279
12643822666.666666 0.5065295448656301 0.8622226047709665 -9.6576269505752e-17 -8.932281262598222e-17 -9.6576269505752e-17 -8.932281262598222e-17 0.5065289515479948 0.8622229533267498
12644440000.0 0.5165874452122479 0.8562344372009901 -9.760396645480568e-17 -8.816036178664586e-17 -9.760396645480568e-17 -8.816036178664586e-17 0.5165868560439839 0.8562347926605214
12645057333.333334 0.5265745629978117 0.8501289488092245 -9.86176849400444e-17 -8.698610126960616e-17 -9.86176849400444e-17 -8.698610126960616e-17 0.5265739780592376 0.8501293111231272
12645674666.666666 0.5364895297923371 0.8439069761668107 -9.961728942539976e-17 -8.580019900922421e-17 -9.961728942539976e-17 -8.580019900922421e-17 0.5364889491631843 0.8439073452847746
12646292000.0 0.5463309870521271 0.837569371805382 -1.0060264639052906e-16 -8.460282449325488e-17 -1.0060264639052906e-16 -8.460282449325488e-17 0.5463304108115281 0.8375697476761683
12646909333.333334 0.5560975863054849 0.8311170041005226 -1.0157362434856291e-16 -8.339414873871059e-17 -1.0157362434856291e-16 -8.339414873871059e-17 0.5560970145319638 0.8311173866719731
12647526666.666666 0.5657879893378195 0.8245507571525729 -1.0253009386361586e-16 -8.217434426745909e-17 -1.0253009386361586e-16 -8.217434426745909e-17 0.5657874221092809 0.824551146371617
12648144000.0 0.5754008683749579 0.817871530665519 -1.034719275679902e-16 -8.094358508163797e-17 -1.034719275679902e-16 -8.094358508163797e-17 0.5754003057686754 0.8178719264781793
12648761333.333334 0.584934906264979 0.8110802398237758 -1.0439900017905533e-16 -7.970204663891148e-17 -1.0439900017905533e-16 -7.970204663891148e-17 0.5849343483575862 0.8110806421751778
12649378666.666666 0.5943887966586722 0.8041778151668135 -1.0531118851586432e-16 -7.844990582749419e-17 -1.0531118851586432e-16 -7.844990582749419e-17 0.5943882435261507 0.8041782240011918
12649996000.0 0.6037612441887352 0.7971652024614999 -1.0620837151546972e-16 -7.7187340940984e-17 -1.0620837151546972e-16 -7.7187340940984e-17 0.6037606959064056 0.7971656177222061
12650613333.333334 0.61305096464706 0.7900433625726643 -1.0709043024892387e-16 -7.591453165303157e-17 -1.0709043024892387e-16 -7.591453165303157e-17 0.6130504212895704 0.7900437842021754
12651230666.666666 0.6222566851606959 0.7828132713314435 -1.079572479369724e-16 -7.463165899183368e-17 -1.079572479369724e-16 -7.463165899183368e-17 0.6222561468020127 0.7828136992713691
12651848000.0 0.6313771443664586 0.7754759194014142 -1.0880870996548256e-16 -7.333890531438999e-17 -1.0880870996548256e-16 -7.333890531438999e-17 0.6313766110798565 0.7754763535925059
12652465333.333334 0.6404110925835619 0.7680323121430127 -1.0964470390050348e-16 -7.203645428067412e-17 -1.0964470390050348e-16 -7.203645428067412e-17 0.6404105644416123 0.7680327525251698
12653082666.666666 0.6493572919848254 0.7604834694757984 -1.1046511950305793e-16 -7.072449082757574e-17 -1.1046511950305793e-16 -7.072449082757574e-17 0.6493567690593892 0.7604839159880799
12653700000.0 0.6582145167666104 0.752830425738434 -1.1126984874363205e-16 -6.940320114265859e-17 -1.1126984874363205e-16 -6.940320114265859e-17 0.6582139991288257 0.7528308783190629
12654317333.333334 0.6669815533162342 0.745074229547417 -1.120587858163048e-16 -6.807277263783103e-17 -1.120587858163048e-16 -6.807277263783103e-17 0.6669810410365087 0.7450746881337929
12654934666.666666 0.6756572003787802 0.7372159436529588 -1.1283182715262e-16 -6.673339392276449e-17 -1.1283182715262e-16 -6.673339392276449e-17 0.6756566935267799 0.7372164081816632
12655552000.0 0.6842402692214515 0.7292566447935666 -1.1358887143510194e-16 -6.53852547782193e-17 -1.1358887143510194e-16 -6.53852547782193e-17 0.6842397678660916 0.729257115200373
12656169333.333334 0.6927295837963696 0.7211974235485886 -1.1432981961045694e-16 -6.402854612921581e-17 -1.1432981961045694e-16 -6.402854612921581e-17 0.6927290880058072 0.7211978997684728
12656786666.666666 0.7011239809019072 0.7130393841886128 -1.1505457490247888e-16 -6.266346001801057e-17 -1.1505457490247888e-16 -6.266346001801057e-17 0.7011234907435283 0.7130398661557591
12657404000.0 0.7094223103419596 0.7047836445242536 -1.1576304282460697e-16 -6.129018957697723e-17 -1.1576304282460697e-16 -6.129018957697723e-17 0.7094218258823736 0.704784132172066
12658021333.333334 0.7176234350835906 0.6964313357529525 -1.16455131192183e-16 -5.990892900130366e-17 -1.16455131192183e-16 -5.990892900130366e-17 0.7176229563886182 0.6964318290140625
12658638666.666666 0.7257262314127038 0.6879836023041019 -1.1713075013434363e-16 -5.851987352162751e-17 -1.1713075013434363e-16 -5.851987352162751e-17 0.7257257585473704 0.6879841011103796
12659256000.0 0.7337295890882946 0.6794416016819532 -1.1778981210565587e-16 -5.712321937640676e-17 -1.1778981210565587e-16 -5.712321937640676e-17 0.73372912211682 0.679442105964514
12659873333.333334 0.7416324114942734 0.6708065043073176 -1.1843223189734786e-16 -5.571916378430597e-17 -1.1843223189734786e-16 -5.571916378430597e-17 0.7416319504800649 0.6708070139965356
12660490666.666666 0.7494336157898116 0.6620794933571224 -1.1905792664825456e-16 -5.43079049163786e-17 -1.1905792664825456e-16 -5.43079049163786e-17 0.7494331607954524 0.6620800083826357
12661108000.0 0.7571321330578756 0.6532617646020968 -1.1966681585544425e-16 -5.288964186809252e-17 -1.1966681585544425e-16 -5.288964186809252e-17 0.7571316841451193 0.6532622848928205
12661725333.333334 0.7647269084514285 0.6443545262432272 -1.2025882138445478e-16 -5.1464574631370554e-17 -1.2025882138445478e-16 -5.1464574631370554e-17 0.7647264656811891 0.6443550517273613
12662342666.666666 0.772216901338152 0.6353589987459969 -1.208338674792721e-16 -5.003290406634746e-17 -1.208338674792721e-16 -5.003290406634746e-17 0.7722164647704957 0.6353595293510369
12662960000.0 0.7796010854430122 0.6262764146731779 -1.2139188077191262e-16 -4.859483187315666e-17 -1.2139188077191262e-16 -4.859483187315666e-17 0.7796006551371495 0.6262769503259248
12663577333.333334 0.7868784489887891 0.6171080185160555 -1.2193279029170258e-16 -4.71505605635362e-17 -1.2193279029170258e-16 -4.71505605635362e-17 0.7868780250030664 0.6171085591426256
12664194666.666666 0.7940479948347807 0.60785506652382 -1.2245652747421017e-16 -4.570029343235694e-17 -1.2245652747421017e-16 -4.570029343235694e-17 0.7940475772266742 0.6078556120496562
12664812000.0 0.8011087406134174 0.5985188265314614 -1.2296302616984005e-16 -4.424423452905296e-17 -1.2296302616984005e-16 -4.424423452905296e-17 0.8011083294395233 0.5985193768813422
12665429333.333334 0.8080597188648782 0.5891005777860251 -1.2345222265209587e-16 -4.278258862893717e-17 -1.2345222265209587e-16 -4.278258862893717e-17 0.8080593141809044 0.5891011328840746
12666046666.666666 0.8148999771695496 0.579601610771468 -1.2392405562548314e-16 -4.131556120448329e-17 -1.2392405562548314e-16 -4.131556120448329e-17 0.8148995790303118 0.5796021705411688
12666664000.0 0.8216285782787992 0.5700232270314713 -1.2437846623310267e-16 -3.984335839643087e-17 -1.2437846623310267e-16 -3.984335839643087e-17 0.821628186738209 0.570023791395672
12667281333.333334 0.8282446002429756 0.5603667389916784 -1.248153980638665e-16 -3.836618698491419e-17 -1.248153980638665e-16 -3.836618698491419e-17 0.8282442153540354 0.5603673078726056
12667898666.666666 0.8347471365381319 0.5506334697793115 -1.2523479715939887e-16 -3.6884254360428974e-17 -1.2523479715939887e-16 -3.6884254360428974e-17 0.834746758352929 0.5506340430985815
12668516000.0 0.8411352961900546 0.5408247530421317 -1.2563661202058628e-16 -3.539776849474268e-17 -1.2563661202058628e-16 -3.539776849474268e-17 0.8411349247597519 0.5408253307207602
12669133333.333334 0.8474082038962859 0.5309419327658013 -1.2602079361376498e-16 -3.390693791180365e-17 -1.2602079361376498e-16 -3.390693791180365e-17 0.8474078392711162 0.5309425147242138
12669750666.666666 0.8535650001461953 0.5209863630895155 -1.263872953765924e-16 -3.2411971658480905e-17 -1.263872953765924e-16 -3.2411971658480905e-17 0.8535646423754529 0.5209869492475592
12670368000.0 0.8596048413386861 0.510959408120554 -1.2673607322355277e-16 -3.091307927531071e-17 -1.2673607322355277e-16 -3.091307927531071e-17 0.8596044904707236 0.5109599983975089
