! Parameters = {f0=12700.012000; bw=77.238000; Q=6100.000000; N=10; m_0_1=1.331426; m_1_1=1.206651; m_1_2=1.166238; m_2_2=1.206002; m_2_3=0.803201; m_2_8=0.003635; m_2_9=0.040339; m_3_3=1.204065; m_3_4=0.691730; m_3_7=0.004235; m_3_8=-0.092853; m_3_9=0.003635; m_4_4=1.201140; m_4_5=0.528065; m_4_6=0.007752; m_4_7=-0.113402; m_4_8=0.004235; m_5_5=1.201522; m_5_6=0.935420; m_5_7=0.007752; m_6_6=1.201521; m_6_7=0.528407; m_7_7=1.201154; m_7_8=0.691848; m_8_8=1.204063; m_8_9=0.803514; m_9_9=1.205997; m_9_10=1.167316; m_10_10=1.206641; m_10_11=1.332221}
!
! Created with skrf (http://scikit-rf.org).
# Hz S RI R 50.0 
!freq ReS11 ImS11 ReS21 ImS21 ReS12 ImS12 ReS22 ImS22
12607400000.0 0.21395636099990212 0.9768432195534171 -7.070832237067798e-17 -1.2832066631288315e-16 -7.070832237067798e-17 -1.2832066631288315e-16 0.21395567588353281 0.9768433696130746
12608017333.333334 0.2259929135024862 0.974128945800536 -7.228337831993422e-17 -1.2740709668635344e-16 -7.228337831993422e-17 -1.2740709668635344e-16 0.2259922303232361 0.9741291042943613
12608634666.666666 0.2379950595127649 0.9712663649315375 -7.384665404993778e-17 -1.264742079133175e-16 -7.384665404993778e-17 -1.264742079133175e-16 0.2379943783744503 0.9712665318345755
12609252000.0 0.24996097175350396 0.968255912762659 -7.539791276973158e-17 -1.2552215161661736e-16 -7.539791276973158e-17 -1.2552215161661736e-16 0.24996029275962092 0.968256088048679
12609869333.333334 0.2618888284639419 0.9650980476229296 -7.693691963653564e-17 -1.2455108231923736e-16 -7.693691963653564e-17 -1.2455108231923736e-16 0.26188815171764906 0.9650982312644241
12610486666.666666 0.2737768136770062 0.9617932502844214 -7.846344179121908e-17 -1.2356115741932612e-16 -7.846344179121908e-17 -1.2356115741932612e-16 0.27377613928111055 0.9617934422526162
12611104000.0 0.28562311749608976 0.9583420238889765 -7.997724839352884e-17 -1.2255253716473503e-16 -7.997724839352884e-17 -1.2255253716473503e-16 0.28562244555303035 0.9583422241538315
12611721333.333334 0.29742593637021664 0.9547448938717107 -8.147811065685019e-17 -1.215253846272198e-16 -8.147811065685019e-17 -1.215253846272198e-16 0.29742526698204874 0.9547451024019257
12612338666.666666 0.3091834733688718 0.9510024078809507 -8.296580188280696e-17 -1.2047986567610466e-16 -8.296580188280696e-17 -1.2047986567610466e-16 0.3091828066372517 0.9510026246439695
12612956000.0 0.3208939384556825 0.947115135694815 -8.444009749540408e-17 -1.1941614895160438e-16 -8.444009749540408e-17 -1.1941614895160438e-16 0.32089327448185234 0.947115360656832
12613573333.333334 0.332555548760539 0.9430836691346015 -8.590077507485438e-17 -1.1833440583771468e-16 -8.590077507485438e-17 -1.1833440583771468e-16 0.33255488764531177 0.943083902260568
12614190666.666666 0.3441665288514094 0.938908621974566 -8.734761439110302e-17 -1.172348104346578e-16 -8.734761439110302e-17 -1.172348104346578e-16 0.3441658706951521 0.9389088632281911
12614808000.0 0.3557251110044768 0.9345906298485235 -8.878039743695325e-17 -1.1611753953095287e-16 -8.878039743695325e-17 -1.1611753953095287e-16 0.35572445590709656 0.9345908791922842
12615425333.333334 0.3672295354732963 0.9301303501530701 -9.019890846085654e-17 -1.1498277257506846e-16 -9.019890846085654e-17 -1.1498277257506846e-16 0.36722888353422506 0.930130607548216
12616042666.666666 0.37867805075671024 0.9255284619475002 -9.160293399933486e-17 -1.1383069164668e-16 -9.160293399933486e-17 -1.1383069164668e-16 0.37867740207488876 0.9255287273540564
12616660000.0 0.3900689138655044 0.9207856658504142 -9.299226290905369e-17 -1.1266148142751998e-16 -9.299226290905369e-17 -1.1266148142751998e-16 0.39006826853936893 0.9207859392271937
12617277333.333334 0.4014003905878006 0.915902683933052 -9.436668639849447e-17 -1.1147532917186035e-16 -9.436668639849447e-17 -1.1147532917186035e-16 0.4013997487152654 0.9159029652376544
12617894666.666666 0.4126707557529225 0.9108802596094169 -9.572599805926569e-17 -1.1027242467660026e-16 -9.572599805926569e-17 -1.1027242467660026e-16 0.41267011743136783 0.9108805487982425
12618512000.0 0.42387829349446554 0.905719157522919 -9.706999389706748e-17 -1.0905296025094229e-16 -9.706999389706748e-17 -1.0905296025094229e-16 0.4238776588207212 0.9057194545511708
12619129333.333334 0.4350212975109063 0.9004201634302369 -9.839847236219705e-17 -1.0781713068575863e-16 -9.839847236219705e-17 -1.0781713068575863e-16 0.4350206665812371 0.9004204682519287
12619746666.666666 0.44609807132587237 0.8949840840814673 -9.971123437973888e-17 -1.0656513322251996e-16 -9.971123437973888e-17 -1.0656513322251996e-16 0.4460974442359639 0.8949843966494317
12620364000.0 0.45710692854639584 0.8894117470973085 -1.0100808337933006e-16 -1.0529716752188537e-16 -1.0100808337933006e-16 -1.0529716752188537e-16 0.45710630539133945 0.8894120673632023
12620981333.333334 0.4680461931193016 0.8837040008432318 -1.0228882532450089e-16 -1.0401343563195775e-16 -1.0228882532450089e-16 -1.0401343563195775e-16 0.46804557399358115 0.8837043287575463
12621598666.666666 0.47891419958673925 0.8778617143001507 -1.0355326874166663e-16 -1.0271414195613122e-16 -1.0355326874166663e-16 -1.0271414195613122e-16 0.47891358458421474 0.8778620498122156
12622216000.0 0.4897092933395858 0.8718857769321915 -1.0480122474868168e-16 -1.0139949322061549e-16 -1.0480122474868168e-16 -1.0139949322061549e-16 0.4897086825534808 0.8718861199901856
12622833333.333334 0.5004298308694051 0.8657770985512526 -1.0603250708297486e-16 -1.0006969844162421e-16 -1.0603250708297486e-16 -1.0006969844162421e-16 0.5004292243922931 0.8657774491022125
12623450666.666666 0.5110741800185674 0.8595366091785478 -1.0724693212928106e-16 -9.872496889221123e-17 -1.0724693212928106e-16 -9.872496889221123e-17 0.511073577942356 0.8595369671683731
12624068000.0 0.5216407202288611 0.8531652589029407 -1.0844431894696403e-16 -9.736551806875831e-17 -1.0844431894696403e-16 -9.736551806875831e-17 0.5216401226447789 0.8531656242764041
12624685333.333334 0.5321278427882381 0.8466640177362812 -1.0962448929690683e-16 -9.599156165714177e-17 -1.0962448929690683e-16 -9.599156165714177e-17 0.5321272497868216 0.8466643904370376
12625302666.666666 0.5425339510754696 0.8400338754658923 -1.1078726766794317e-16 -9.460331749861297e-17 -1.1078726766794317e-16 -9.460331749861297e-17 0.5425333627465478 0.8400342554364845
12625920000.0 0.5528574608037051 0.8332758415035723 -1.1193248130294e-16 -9.320100555526064e-17 -1.1193248130294e-16 -9.320100555526064e-17 0.5528568772363875 0.8332762286854442
12626537333.333334 0.563096800261098 0.8263909447322857 -1.130599602243273e-16 -9.178484787529933e-17 -1.130599602243273e-16 -9.178484787529933e-17 0.5630962215437607 0.8263913390657883
12627154666.666666 0.573250410550455 0.8193802333492932 -1.1416953725929361e-16 -9.035506855792608e-17 -1.1416953725929361e-16 -9.035506855792608e-17 0.5732498367707266 0.8193806347736943
12627772000.0 0.5833167458267052 0.8122447747064616 -1.1526104806451215e-16 -8.891189371790061e-17 -1.1526104806451215e-16 -8.891189371790061e-17 0.5833161770714543 0.8122451831599555
12628389333.333334 0.5932942735316918 0.804985655148158 -1.1633433115034588e-16 -8.745555144992772e-17 -1.1633433115034588e-16 -8.745555144992772e-17 0.5932937098870141 0.8049860705678766
12629006666.666666 0.6031814746281703 0.7976039798453821 -1.1738922790473607e-16 -8.598627179257392e-17 -1.1738922790473607e-16 -8.598627179257392e-17 0.6031809161793745 0.7976044021674008
12629624000.0 0.6129768438305667 0.7901008726278709 -1.1842558261650915e-16 -8.450428669206553e-17 -1.1842558261650915e-16 -8.450428669206553e-17 0.6129762906621625 0.7901013017872218
12630241333.333334 0.622678889834405 0.7824774758128187 -1.1944324249830975e-16 -8.300982996569842e-17 -1.1944324249830975e-16 -8.300982996569842e-17 0.6226783420300891 0.782477911743498
12630858666.666666 0.6322861355431919 0.7747349500310817 -1.2044205770902602e-16 -8.150313726503565e-17 -1.2044205770902602e-16 -8.150313726503565e-17 0.6322855931858377 0.7747353926660634
12631476000.0 0.6417971182935474 0.7668744740502873 -1.2142188137580824e-16 -7.99844460387551e-17 -1.2142188137580824e-16 -7.99844460387551e-17 0.6417965814651901 0.76687492332153
12632093333.333334 0.6512103900775972 0.7588972445955978 -1.2238256961553038e-16 -7.84539954953679e-17 -1.2238256961553038e-16 -7.84539954953679e-17 0.651209858859422 0.7588977004340559
12632710666.666666 0.6605245177635619 0.7508044761674113 -1.2332398155586977e-16 -7.691202656554958e-17 -1.2332398155586977e-16 -7.691202656554958e-17 0.6605239922358928 0.7508049385030475
12633328000.0 0.6697380833140516 0.7425974008563638 -1.242459793558861e-16 -7.535878186425628e-17 -1.242459793558861e-16 -7.535878186425628e-17 0.6697375635563378 0.7425978696181578
12633945333.333334 0.6788496840017413 0.7342772681559351 -1.2514842822608706e-16 -7.379450565266037e-17 -1.2514842822608706e-16 -7.379450565266037e-17 0.6788491700925461 0.7342777432718953
12634562666.666666 0.6878579326231213 0.7258453447720478 -1.2603119644806466e-16 -7.221944379976547e-17 -1.2603119644806466e-16 -7.221944379976547e-17 0.6878574246401102 0.7258458261692227
12635180000.0 0.6967614577095461 0.7173029144303511 -1.2689415539362598e-16 -7.063384374382708e-17 -1.2689415539362598e-16 -7.063384374382708e-17 0.6967609557294748 0.71730340203484
12635797333.333334 0.7055589037361397 0.708651277680682 -1.2773717954344522e-16 -6.903795445353525e-17 -1.2773717954344522e-16 -6.903795445353525e-17 0.7055584078348427 0.7086517714176467
12636414666.666666 0.7142489313280659 0.6998917516991622 -1.2856014650522018e-16 -6.743202638899485e-17 -1.2856014650522018e-16 -6.743202638899485e-17 0.7142484415804445 0.6998922514928375
12637032000.0 0.7228302174645652 0.6910256700875417 -1.2936293703135658e-16 -6.581631146245365e-17 -1.2936293703135658e-16 -6.581631146245365e-17 0.722829733944576 0.6910261758612478
12637649333.333334 0.7313014556802963 0.6820543826702437 -1.3014543503614017e-16 -6.41910629988624e-17 -1.3014543503614017e-16 -6.41910629988624e-17 0.7313009784609417 0.6820548943463987
12638266666.666666 0.7396613562642602 0.6729792552888395 -1.309075276124322e-16 -6.255653569619514e-17 -1.309075276124322e-16 -6.255653569619514e-17 0.7396608854175766 0.6729797727889703
12638884000.0 0.7479086464561583 0.6638016695941069 -1.3164910504784788e-16 -6.091298558561397e-17 -1.3164910504784788e-16 -6.091298558561397e-17 0.7479081820532032 0.6638021928388608
12639501333.333334 0.7560420706401761 0.6545230228356547 -1.3237006084045493e-16 -5.926066999140253e-17 -1.3237006084045493e-16 -5.926066999140253e-17 0.7560416127510201 0.6545235517448121
12640118666.666666 0.7640603905360198 0.6451447276493485 -1.3307029171395018e-16 -5.75998474907608e-17 -1.3307029171395018e-16 -5.75998474907608e-17 0.764059939229736 0.6451452621418371
12640736000.0 0.7719623853878278 0.6356682118417917 -1.3374969763236944e-16 -5.593077787333484e-17 -1.3374969763236944e-16 -5.593077787333484e-17 0.7719619407324795 0.6356687518356958
12641353333.333334 0.779746852149399 0.6260949181736823 -1.344081818142277e-16 -5.425372210072734e-17 -1.344081818142277e-16 -5.425372210072734e-17 0.7797464142120296 0.6260954635862565
12641970666.666666 0.787412605667919 0.6164263041394853 -1.3504565074622247e-16 -5.256894226567158e-17 -1.3504565074622247e-16 -5.256894226567158e-17 0.7874121745145437 0.6164268548871675
12642588000.0 0.7949584788641054 0.6066638417458844 -1.3566201419637897e-16 -5.087670155116521e-17 -1.3566201419637897e-16 -5.087670155116521e-17 0.7949580545596995 0.6066643977443086
12643205333.333334 0.8023833229099953 0.5968090172875423 -1.3625718522669862e-16 -4.917726418941317e-17 -1.3625718522669862e-16 -4.917726418941317e-17 0.8023829055184861 0.5968095784515519
12643822666.666666 0.8096860074038156 0.586863331120863 -1.3683108020530647e-16 -4.747089542059416e-17 -1.3683108020530647e-16 -4.747089542059416e-17 0.8096855969880715 0.5868638973645232
12644440000.0 0.8168654205420651 0.5768282974355909 -1.373836188180557e-16 -4.5757861451560716e-17 -1.373836188180557e-16 -4.5757861451560716e-17 0.8168650171638858 0.5768288686722015
12645057333.333334 0.8239204692887816 0.5667054440242832 -1.3791472407963856e-16 -4.403842941434454e-17 -1.3791472407963856e-16 -4.403842941434454e-17 0.8239200730088903 0.5667060201663929
12645674666.666666 0.8308500795419573 0.5564963120497115 -1.3842432234417113e-16 -4.231286732455855e-17 -1.3842432234417113e-16 -4.231286732455855e-17 0.8308496904199892 0.5564968930091299
12646292000.0 0.8376531962971722 0.5462024558100589 -1.389123433152665e-16 -4.058144403964676e-17 -1.389123433152665e-16 -4.058144403964676e-17 0.8376528143916676 0.5462030414978711
12646909333.333334 0.8443287838080088 0.5358254425025907 -1.3937872005556533e-16 -3.8844429217100015e-17 -1.3937872005556533e-16 -3.8844429217100015e-17 0.8443284091764047 0.5358260328291717
12647526666.666666 0.8508758257438864 0.5253668519848459 -1.3982338899576844e-16 -3.710209327247727e-17 -1.3982338899576844e-16 -3.710209327247727e-17 0.8508754584425069 0.5253674468598728
12648144000.0 0.8572933253448342 0.5148282765340338 -1.402462899431393e-16 -3.535470733735004e-17 -1.402462899431393e-16 -3.535470733735004e-17 0.8572929654288803 0.5148288758664994
12648761333.333334 0.8635803055731045 0.5042113206048339 -1.4064736608946768e-16 -3.360254321720429e-17 -1.4064736608946768e-16 -3.360254321720429e-17 0.8635799530966493 0.5042119243030618
12649378666.666666 0.8697358092619178 0.49351760058515076 -1.4102656401852399e-16 -3.1845873349199353e-17 -1.4102656401852399e-16 -3.1845873349199353e-17 0.8697354642778947 0.4935182085568086
12649996000.0 0.8757588992613847 0.4827487445496832 -1.4138383371298509e-16 -3.0084970759845466e-17 -1.4138383371298509e-16 -3.0084970759845466e-17 0.8757585618215834 0.4827493567017977
12650613333.333334 0.8816486585810108 0.471906392012349 -1.4171912856082644e-16 -2.832010902263482e-17 -1.4171912856082644e-16 -2.832010902263482e-17 0.8816483287360651 0.4719070082513186
12651230666.666666 0.8874041905292533 0.4609921936767784 -1.4203240536118692e-16 -2.655156221560915e-17 -1.4203240536118692e-16 -2.655156221560915e-17 0.8874038683286388 0.4609928139083898
12651848000.0 0.8930246188502975 0.4500078111845265 -1.4232362432971399e-16 -2.4779604878809206e-17 -1.4232362432971399e-16 -2.4779604878809206e-17 0.8930243043423188 0.4500084353139666
12652465333.333334 0.8985090878572033 0.4389549168625692 -1.42592749103366e-16 -2.300451197174632e-17 -1.42592749103366e-16 -2.300451197174632e-17 0.8985087810889899 0.43895554479444104
12653082666.666666 0.9038567625622513 0.427835193468575 -1.4283974674469082e-16 -2.122655883079363e-17 -1.4283974674469082e-16 -2.122655883079363e-17 0.9038564635797511 0.42783582510691287
12653700000.0 0.9090668288041815 0.41665033393448353 -1.4306458774558301e-16 -1.9446021126470683e-17 -1.4306458774558301e-16 -1.9446021126470683e-17 0.9090665376521506 0.4166509691827657
12654317333.333334 0.9141384933719656 0.405402041109119 -1.4326724603048702e-16 -1.7663174820855613e-17 -1.4326724603048702e-16 -1.7663174820855613e-17 0.9141382100939656 0.40540267987028444
12654934666.666666 0.9190709841256893 0.3940920274987111 -1.43447698959097e-16 -1.5878296124769826e-17 -1.43447698959097e-16 -1.5878296124769826e-17 0.9190707087640768 0.39409266967517276
12655552000.0 0.9238635501141524 0.382722015006038 -1.4360592732850474e-16 -1.4091661455083126e-17 -1.4360592732850474e-16 -1.4091661455083126e-17 0.923863282710077 0.38272266049969916
12656169333.333334 0.9285154616889817 0.371293734668799 -1.4374191537482356e-16 -1.2303547391975597e-17 -1.4374191537482356e-16 -1.2303547391975597e-17 0.9285152022823755 0.37129438338106696
12656786666.666666 0.9330260106159779 0.3598089263954416 -1.438556507742825e-16 -1.0514230636137596e-17 -1.438556507742825e-16 -1.0514230636137596e-17 0.9330257592455528 0.3598095782272434
12657404000.0 0.9373945101827684 0.34826933870068766 -1.4394712464378597e-16 -8.723987966025157e-18 -1.4394712464378597e-16 -8.723987966025157e-18 0.9373942668860092 0.3482699935524855
12658021333.333334 0.9416202953034314 0.33667672843914515 -1.440163315409431e-16 -6.933096195091383e-18 -1.440163315409431e-16 -6.933096195091383e-18 0.9416200601165895 0.33667738621095067
12658638666.666666 0.945702722619691 0.3250328605379934 -1.4406326946356546e-16 -5.141832129061908e-18 -1.4406326946356546e-16 -5.141832129061908e-18 0.9457024955777804 0.3250335211293838
12659256000.0 0.9496411705989652 0.31333950772801383 -1.440879398486356e-16 -3.3504725231462855e-18 -1.440879398486356e-16 -3.3504725231462855e-18 0.9496409517357557 0.3133401710381466
12659873333.333334 0.9534350396289025 0.3015984502739388 -1.4409034757074248e-16 -1.5592940393926492e-18 -1.4409034757074248e-16 -1.5592940393926492e-18 0.9534348289769159 0.30159911620156754
12660490666.666666 0.9570837521086726 0.2898114757034146 -1.4407050093998876e-16 2.314267960044425e-19 -1.4407050093998876e-16 2.314267960044425e-19 0.957083549699179 0.28981214414690465
12661108000.0 0.9605867525369974 0.2779803785345889 -1.4402841169936841e-16 2.021413635378997e-18 -1.4402841169936841e-16 2.021413635378997e-18 0.9605865584000057 0.2779810493919317
12661725333.333334 0.9639435075965919 0.26610696000327894 -1.4396409502161506e-16 3.810390352130228e-18 -1.4396409502161506e-16 3.810390352130228e-18 0.9639433217608521 0.2661076331721092
12662342666.666666 0.967153506235463 0.2541930277884451 -1.4387756950552157e-16 5.59808108331081e-18 -1.4387756950552157e-16 5.59808108331081e-18 0.967153328728457 0.2541937031660553
12662960000.0 0.970216259744668 0.24224039573711384 -1.4376885717173356e-16 7.384210272092357e-18 -1.4376885717173356e-16 7.384210272092357e-18 0.9702160905926072 0.2422410732204701
12663577333.333334 0.9731313018327221 0.2302508835882276 -1.436379834580151e-16 9.16850271019164e-18 -1.436379834580151e-16 9.16850271019164e-18 0.9731311410605425 0.23025156307398548
12664194666.666666 0.9758981886966128 0.2182263166954859 -1.4348497721398956e-16 1.0950683580218257e-17 -1.4348497721398956e-16 1.0950683580218257e-17 0.9758980363279742 0.21822699808000656
12664812000.0 0.9785164990893312 0.20616852574960973 -1.433098706953549e-16 1.2730478497965918e-17 -1.433098706953549e-16 1.2730478497965918e-17 0.9785163551466107 0.2061692089289751
12665429333.333334 0.9809858343840342 0.19407934649948702 -1.431126995575766e-16 1.4507613554583573e-17 -1.431126995575766e-16 1.4507613554583573e-17 0.980985698888325 0.19408003136951618
12666046666.666666 0.9833058186347025 0.1819606194728554 -1.4289350284905951e-16 1.62818153586732e-17 -1.4289350284905951e-16 1.62818153586732e-17 0.9833056916058082 0.1819613059291199
12666664000.0 0.9854760986334333 0.1698141896957817 -1.4265232300379148e-16 1.805281107833583e-17 -1.4265232300379148e-16 1.805281107833583e-17 0.9854759800898677 0.16981487763362188
12667281333.333334 0.9874963439641431 0.15764190641215578 -1.4238920583347964e-16 1.9820328483017472e-17 -1.4238920583347964e-16 1.9820328483017472e-17 0.987496233923126 0.1576425957266967
12667898666.666666 0.9893662470529223 0.14544562280187118 -1.4210420051915734e-16 2.1584095985339268e-17 -1.4210420051915734e-16 2.1584095985339268e-17 0.9893661455303778 0.1454463133880385
12668516000.0 0.9910855232148598 0.1332271956986856 -1.417973596022734e-16 2.334384268279545e-17 -1.417973596022734e-16 2.334384268279545e-17 0.9910854302254134 0.13322788745122166
12669133333.333334 0.992653910697348 0.12098848530777884 -1.414687389752851e-16 2.5099298399228836e-17 -1.414687389752851e-16 2.5099298399228836e-17 0.9926538262543245 0.12098917812125858
12669750666.666666 0.9940711707199731 0.10873135492226259 -1.4111839787170698e-16 2.6850193726355266e-17 -1.4111839787170698e-16 2.6850193726355266e-17 0.9940710948353958 0.10873204869110988
12670368000.0 0.9953370875108534 0.0964576706396148 -1.4074639885567312e-16 2.859626006500012e-17 -1.4074639885567312e-16 2.859626006500012e-17 0.9953370201954408 0.09645836525811821
