! Parameters = {f0=12700.012000; bw=77.238000; Q=6100.000000; N=10; m_0_1=1.168463; m_1_1=-1.237794; m_1_2=1.003275; m_2_2=-1.238443; m_2_3=0.640238; m_2_8=-0.004513; m_2_9=0.032191; m_3_3=-1.240380; m_3_4=0.528767; m_3_7=-0.003913; m_3_8=-0.101001; m_3_9=-0.004513; m_4_4=-1.243305; m_4_5=0.365102; m_4_6=-0.000396; m_4_7=-0.121550; m_4_8=-0.003913; m_5_5=-1.242923; m_5_6=0.772457; m_5_7=-0.000396; m_6_6=-1.242924; m_6_7=0.365444; m_7_7=-1.243291; m_7_8=0.528885; m_8_8=-1.240382; m_8_9=0.640551; m_9_9=-1.238448; m_9_10=1.004353; m_10_10=-1.237804; m_10_11=1.169258}
!
! Created with skrf (http://scikit-rf.org).
# Hz S RI R 50.0 
!freq ReS11 ImS11 ReS21 ImS21 ReS12 ImS12 ReS22 ImS22
12607400000.0 0.7492558516972216 -0.6622806570460302 -3.5405839610269644e-17 5.660785315993599e-17 -3.5405839610269644e-17 5.660785315993599e-17 0.749256259521593 -0.6622801956631063
12608017333.333334 0.7442535212666823 -0.6678972196992543 -3.496718500041617e-17 5.686450715727036e-17 -3.496718500041617e-17 5.686450715727036e-17 0.744253932529525 -0.6678967614191497
12608634666.666666 0.7392090890963224 -0.6734760000157652 -3.45266766231133e-17 5.711776654605775e-17 -3.45266766231133e-17 5.711776654605775e-17 0.7392095037740356 -0.6734755448640987
12609252000.0 0.7341228405450944 -0.6790166824090944 -3.4084340714112087e-17 5.736761799008032e-17 -3.4084340714112087e-17 5.736761799008032e-17 0.7341232586138867 -0.6790162304113059
12609869333.333334 0.7289950633374439 -0.6845189534479579 -3.3640203604679763e-17 5.761404835563213e-17 -3.3640203604679763e-17 5.761404835563213e-17 0.7289954847733349 -0.6845185046293063
12610486666.666666 0.7238260475471333 -0.6899825018738851 -3.319429172004682e-17 5.785704471219517e-17 -3.319429172004682e-17 5.785704471219517e-17 0.7238264723259542 -0.6899820562594474
12611104000.0 0.7186160855806171 -0.6954070186190545 -3.274663157782265e-17 5.809659433311821e-17 -3.274663157782265e-17 5.809659433311821e-17 0.7186165136780126 -0.6954065762337238
12611721333.333334 0.7133654721607733 -0.7007921968234856 -3.229724978644805e-17 5.833268469626065e-17 -3.229724978644805e-17 5.833268469626065e-17 0.7133659035522028 -0.7007917576919699
12612338666.666666 0.7080745043100375 -0.7061377318526072 -3.1846173043603207e-17 5.856530348464624e-17 -3.1846173043603207e-17 5.856530348464624e-17 0.7080749389707753 -0.7061372959994276
12612956000.0 0.7027434813335971 -0.711443321314486 -3.1393428134627557e-17 5.879443858709528e-17 -3.1393428134627557e-17 5.879443858709528e-17 0.7027439192387366 -0.7114428887639761
12613573333.333334 0.6973727048026407 -0.7167086650767519 -3.093904193095063e-17 5.902007809883725e-17 -3.093904193095063e-17 5.902007809883725e-17 0.6973731459270933 -0.7167082358530562
12614190666.666666 0.6919624785370989 -0.721933465283779 -3.048304138848628e-17 5.924221032212736e-17 -3.048304138848628e-17 5.924221032212736e-17 0.691962922855597 -0.7219330394108517
12614808000.0 0.6865131085885579 -0.7271174263734335 -3.0025453546048256e-17 5.946082376683837e-17 -3.0025453546048256e-17 5.946082376683837e-17 0.6865135560756549 -0.7271170038750363
12615425333.333334 0.6810249032229247 -0.7322602550938134 -2.956630552375107e-17 5.967590715104488e-17 -2.956630552375107e-17 5.967590715104488e-17 0.681025353852998 -0.7322598359935153
12616042666.666666 0.6754981729029903 -0.7373616605198371 -2.910562452140888e-17 5.988744940159486e-17 -2.910562452140888e-17 5.988744940159486e-17 0.675498626650242 -0.7373612448410127
12616660000.0 0.6699332302708675 -0.7424213540697026 -2.8643437816930156e-17 6.009543965466871e-17 -2.8643437816930156e-17 6.009543965466871e-17 0.6699336871093252 -0.7424209418355299
12617277333.333334 0.6643303901302817 -0.7474390495212285 -2.8179772764706665e-17 6.029986725632661e-17 -2.8179772764706665e-17 6.029986725632661e-17 0.6643308500338017 -0.7474386407546895
12617894666.666666 0.6586899694288711 -0.7524144630279532 -2.771465679400932e-17 6.050072176303924e-17 -2.771465679400932e-17 6.050072176303924e-17 0.6586904323711377 -0.7524140577518301
12618512000.0 0.6530122872400218 -0.7573473131353975 -2.7248117407352338e-17 6.069799294221808e-17 -2.7248117407352338e-17 6.069799294221808e-17 0.653012753194551 -0.7573469113722743
12619129333.333334 0.6472976647451173 -0.7622373207967243 -2.678018217889729e-17 6.089167077271445e-17 -2.678018217889729e-17 6.089167077271445e-17 0.6472981336852568 -0.7622369225689833
12619746666.666666 0.6415464252151556 -0.7670842093887111 -2.6310878752812e-17 6.108174544532424e-17 -2.6310878752812e-17 6.108174544532424e-17 0.6415468971140879 -0.7670838147185332
12620364000.0 0.6357588939924632 -0.7718877047273983 -2.5840234841644948e-17 6.126820736327167e-17 -2.5840234841644948e-17 6.126820736327167e-17 0.6357593688232038 -0.7718873136367593
12620981333.333334 0.6299353984724806 -0.77664753508343 -2.5368278224703617e-17 6.145104714267807e-17 -2.5368278224703617e-17 6.145104714267807e-17 0.6299358762078842 -0.7766471475941029
12621598666.666666 0.6240762680850319 -0.781363431197616 -2.489503674641365e-17 6.163025561302436e-17 -2.489503674641365e-17 6.163025561302436e-17 0.6240767486977896 -0.7813630473311666
12622216000.0 0.6181818342757911 -0.7860351262960639 -2.4420538314683774e-17 6.180582381759754e-17 -2.4420538314683774e-17 6.180582381759754e-17 0.6181823177384361 -0.7860347460738529
12622833333.333334 0.6122524304875167 -0.7906623561052966 -2.3944810899264168e-17 6.19777430139262e-17 -2.3944810899264168e-17 6.19777430139262e-17 0.6122529167724221 -0.7906619795484746
12623450666.666666 0.6062883921411854 -0.7952448588671962 -2.3467882530110665e-17 6.214600467419982e-17 -2.3467882530110665e-17 6.214600467419982e-17 0.6062888812205675 -0.795244485996705
12624068000.0 0.600290056617018 -0.7997823753538131 -2.298978129573022e-17 6.231060048568155e-17 -2.298978129573022e-17 6.231060048568155e-17 0.6002905484629384 -0.7997820061903842
12624685333.333334 0.5942577632353963 -0.8042746488820319 -2.2510535341530642e-17 6.247152235110565e-17 -2.2510535341530642e-17 6.247152235110565e-17 0.5942582578197615 -0.804274283446184
12625302666.666666 0.5881918532376637 -0.8087214253280869 -2.2030172868187457e-17 6.262876238905578e-17 -2.2030172868187457e-17 6.262876238905578e-17 0.5881923505322304 -0.8087210636401283
12625920000.0 0.5820926697668285 -0.8131224531419464 -2.1548722129963443e-17 6.278231293434568e-17 -2.1548722129963443e-17 6.278231293434568e-17 0.5820931697432005 -0.8131220952219687
12626537333.333334 0.5759605578481214 -0.8174774833615491 -2.1066211433077555e-17 6.293216653836963e-17 -2.1066211433077555e-17 6.293216653836963e-17 0.5759610604777551 -0.8174771292294305
12627154666.666666 0.5697958643695995 -0.8217862696268123 -2.0582669134035876e-17 6.30783159694527e-17 -2.0582669134035876e-17 6.30783159694527e-17 0.5697963696238033 -0.8217859193022141
12627772000.0 0.5635989380622659 -0.8260485681937467 -2.0098123637960004e-17 6.322075421318743e-17 -2.0098123637960004e-17 6.322075421318743e-17 0.5635994459122022 -0.8260482216961125
12628389333.333334 0.5573701294806893 -0.8302641379479968 -1.9612603396949473e-17 6.335947447274709e-17 -1.9612603396949473e-17 6.335947447274709e-17 0.5573706398973781 -0.8302637952965539
12629006666.666666 0.5511097909828282 -0.8344327404187314 -1.912613690838978e-17 6.349447016920226e-17 -1.912613690838978e-17 6.349447016920226e-17 0.5511103039371459 -0.8344324016324858
12629624000.0 0.5448182767103508 -0.8385541397919483 -1.8638752713305325e-17 6.362573494181011e-17 -1.8638752713305325e-17 6.362573494181011e-17 0.5448187921730331 -0.8385538048896855
12630241333.333334 0.538495942568463 -0.8426281029239137 -1.8150479394679802e-17 6.375326264830053e-17 -1.8150479394679802e-17 6.375326264830053e-17 0.5384964605101065 -0.8426277719241978
12630858666.666666 0.5321431462059176 -0.8466543993542576 -1.7661345575796583e-17 6.387704736514315e-17 -1.7661345575796583e-17 6.387704736514315e-17 0.5321436665969822 -0.8466540722754311
12631476000.0 0.5257602469945188 -0.8506328013191788 -1.7171379918546465e-17 6.399708338780982e-17 -1.7171379918546465e-17 6.399708338780982e-17 0.5257607698053286 -0.85063247817936
12632093333.333334 0.5193476060091053 -0.854563083764131 -1.6680611121779363e-17 6.411336523101247e-17 -1.6680611121779363e-17 6.411336523101247e-17 0.5193481312098505 -0.854562764581214
12632710666.666666 0.5129055860069817 -0.8584450243566485 -1.6189067919609046e-17 6.422588762894024e-17 -1.6189067919609046e-17 6.422588762894024e-17 0.5129061135677188 -0.8584447091483
12633328000.0 0.5064345514072721 -0.8622784034989895 -1.569677907974548e-17 6.43346455354755e-17 -1.569677907974548e-17 6.43346455354755e-17 0.5064350812979292 -0.8622780922826524
12633945333.333334 0.499934868270529 -0.8660630043404347 -1.520377340181696e-17 6.443963412440043e-17 -1.520377340181696e-17 6.443963412440043e-17 0.4999354004609043 -0.8660626971333231
12634562666.666666 0.49340690427790046 -0.8697986127896215 -1.4710079715683634e-17 6.454084878959212e-17 -1.4710079715683634e-17 6.454084878959212e-17 0.4934074387376651 -0.8697983096087211
12635180000.0 0.4868510287103562 -0.8734850175266425 -1.4215726879768232e-17 6.463828514520016e-17 -1.4215726879768232e-17 6.463828514520016e-17 0.48685156540905566 -0.8734847183887091
12635797333.333334 0.4802676124277727 -0.8771220100150138 -1.3720743779365666e-17 6.473193902581664e-17 -1.3720743779365666e-17 6.473193902581664e-17 0.48026815133482936 -0.8771217149365736
12636414666.666666 0.473657027848054 -0.880709384513416 -1.3225159324970137e-17 6.482180648662916e-17 -1.3225159324970137e-17 6.482180648662916e-17 0.4736575689327679 -0.8807090935107637
12637032000.0 0.46701964892591374 -0.8842469380874144 -1.272900245058111e-17 6.4907883803565e-17 -1.272900245058111e-17 6.4907883803565e-17 0.4670201921574651 -0.884246651176613
12637649333.333334 0.46035585113182276 -0.8877344706208874 -1.2232302112027095e-17 6.499016747341895e-17 -1.2232302112027095e-17 6.499016747341895e-17 0.4603563964792729 -0.887734187817766
12638266666.666666 0.45366601143074126 -0.8911717848273555 -1.1735087285279496e-17 6.506865421396991e-17 -1.1735087285279496e-17 6.506865421396991e-17 0.4536665588630354 -0.8911715061475105
12638884000.0 0.4469505082607966 -0.8945586862611458 -1.1237386964767959e-17 6.514334096408471e-17 -1.1237386964767959e-17 6.514334096408471e-17 0.44695105774676497 -0.8945584117199383
12639501333.333334 0.4402097215118489 -0.8978949833284025 -1.0739230161693293e-17 6.521422488380899e-17 -1.0739230161693293e-17 6.521422488380899e-17 0.4402102730202081 -0.8978947129409575
12640118666.666666 0.43344403250415414 -0.9011804872978495 -1.0240645902353192e-17 6.52813033544435e-17 -1.0240645902353192e-17 6.52813033544435e-17 0.43344458600350994 -0.901180221079056
12640736000.0 0.42665382396638446 -0.9044150123116673 -9.74166322642677e-18 6.534457397861329e-17 -9.74166322642677e-18 6.534457397861329e-17 0.42665437942523293 -0.9044147502761773
12641353333.333334 0.41983948001459165 -0.9075983753957083 -9.242311185333483e-18 6.540403458031418e-17 -9.242311185333483e-18 6.540403458031418e-17 0.41984003740132103 -0.9075981175579354
12641970666.666666 0.41300138612994036 -0.9107303964701079 -8.742618840508135e-18 6.54596832049569e-17 -8.742618840508135e-18 6.54596832049569e-17 0.4130019454128329 -0.9107301428442268
12642588000.0 0.40613992913715763 -0.9138108983593467 -8.242615261733835e-18 6.551151811939167e-17 -8.242615261733835e-18 6.551151811939167e-17 0.40614049028439186 -0.9138106489592931
12643205333.333334 0.39925549718262593 -0.916839706802288 -7.742329525454549e-18 6.555953781192206e-17 -7.742329525454549e-18 6.555953781192206e-17 0.39925606016227755 -0.9168394616417566
12643822666.666666 0.39234847971232173 -0.919816650462081 -7.241790713082353e-18 6.560374099230689e-17 -7.241790713082353e-18 6.560374099230689e-17 0.39234904449236596 -0.9198164095545254
12644440000.0 0.3854192674499136 -0.9227415609357924 -6.7410279093218194e-18 6.564412659174696e-17 -6.7410279093218194e-18 6.564412659174696e-17 0.3854198339982277 -0.9227413242944258
12645057333.333334 0.37846825237463666 -0.9256142727639519 -6.240070200485632e-18 6.568069376286108e-17 -6.240070200485632e-18 6.568069376286108e-17 0.3784688206589996 -0.9256140404017418
12645674666.666666 0.3714958276991158 -0.9284346234399059 -5.738946672801327e-18 6.571344187964926e-17 -5.738946672801327e-18 6.571344187964926e-17 0.37149639768721276 -0.9284343953695792
12646292000.0 0.36450238784693956 -0.9312024534190888 -5.237686410735518e-18 6.57423705374413e-17 -5.237686410735518e-18 6.57423705374413e-17 0.36450295950636175 -0.931202229653127
12646909333.333334 0.35748832843068923 -0.9339176061279085 -4.736318495309615e-18 6.576747955283461e-17 -4.736318495309615e-18 6.576747955283461e-17 0.3574889017289367 -0.9339173866785486
12647526666.666666 0.3504540462292964 -0.9365799279727087 -4.234872002420065e-18 6.578876896361789e-17 -4.234872002420065e-18 6.578876896361789e-17 0.3504546211337803 -0.9365797128519442
12648144000.0 0.3433999391656241 -0.93918926834845 -3.733376001150214e-18 6.580623902868308e-17 -3.733376001150214e-18 6.580623902868308e-17 0.3434005156436668 -0.9391890575680251
12648761333.333334 0.3363264062840605 -0.9417454796471814 -3.2318595521000645e-18 6.581989022792337e-17 -3.2318595521000645e-18 6.581989022792337e-17 0.3363269843028995 -0.9417452732185964
12649378666.666666 0.3292338477279492 -0.9442484172664001 -2.7303517057078277e-18 6.582972326211945e-17 -2.7303517057078277e-18 6.582972326211945e-17 0.3292344272547372 -0.9442482152009061
12649996000.0 0.3221226647168162 -0.9466979396172722 -2.228881500563345e-18 6.583573905281285e-17 -2.228881500563345e-18 6.583573905281285e-17 0.32212324571862483 -0.9466977419258746
12650613333.333334 0.3149932595237571 -0.9490939081326207 -1.7274779617378366e-18 6.583793874216632e-17 -1.7274779617378366e-18 6.583793874216632e-17 0.3149938419675767 -0.9490937148260739
12651230666.666666 0.3078460354527849 -0.9514361872747192 -1.2261700991169514e-18 6.583632369281132e-17 -1.2261700991169514e-18 6.583632369281132e-17 0.3078466193055284 -0.9514359983635308
12651848000.0 0.30068139681574924 -0.953724644543057 -7.249869057091429e-19 6.583089548768334e-17 -7.249869057091429e-19 6.583089548768334e-17 0.3006819820442528 -0.9537244600374846
12652465333.333334 0.29349974890970565 -0.9559591504817515 -2.239573559912499e-19 6.58216559298442e-17 -2.239573559912499e-19 6.58216559298442e-17 0.29350033548073035 -0.9559589703918
12653082666.666666 0.2863014979939887 -0.9581395786868683 2.768895957610614e-19 6.580860704229199e-17 2.768895957610614e-19 6.580860704229199e-17 0.28630208587422373 -0.9581394030222952
12653700000.0 0.27908705126696054 -0.9602658058136638 7.775250171597321e-19 6.579175106775751e-17 7.775250171597321e-19 6.579175106775751e-17 0.2790876404230236 -0.9602656345839732
12654317333.333334 0.2718568168433537 -0.9623377115834388 1.2779199993439316e-18 6.577109046848942e-17 1.2779199993439316e-18 6.577109046848942e-17 0.27185740724179425 -0.9623375447978848
12654934666.666666 0.264611203730916 -0.9643551787904324 1.77804565866257e-18 6.574662792602586e-17 1.77804565866257e-18 6.574662792602586e-17 0.2646117953382158 -0.9643550164580146
12655552000.0 0.25735062180726903 -0.9663180933084422 2.2778731383359666e-18 6.5718366340953e-17 2.2778731383359666e-18 6.5718366340953e-17 0.2573512145898453 -0.966317935437909
12656169333.333334 0.2500754817969712 -0.9682263440972181 2.7773736100985426e-18 6.568630883265284e-17 2.7773736100985426e-18 6.568630883265284e-17 0.25007607572117757 -0.9682261906970642
12656786666.666666 0.2427861952480076 -0.9700798232088159 3.276518275874688e-18 6.565045873903647e-17 3.276518275874688e-18 6.565045873903647e-17 0.24278679028013664 -0.9700796742872826
12657404000.0 0.23548317450864736 -0.9718784257936697 3.775278369424213e-18 6.561081961626571e-17 3.775278369424213e-18 6.561081961626571e-17 0.2354837706149322 -0.9718782813587438
12658021333.333334 0.2281668327040894 -0.9736220501065265 4.2736251579965375e-18 6.556739523846238e-17 4.2736251579965375e-18 6.556739523846238e-17 0.2281674298507057 -0.9736219101659406
12658638666.666666 0.2208375837130925 -0.9753105975122054 4.771529943980417e-18 6.552018959740476e-17 4.771529943980417e-18 6.552018959740476e-17 0.22083818186616025 -0.9753104620734363
12659256000.0 0.21349584214456246 -0.9769439724911743 5.2689640665509916e-18 6.546920690221143e-17 5.2689640665509916e-18 6.546920690221143e-17 0.21349644127014838 -0.9769438415614451
12659873333.333334 0.20614202331409828 -0.9785220826449561 5.765898903314062e-18 6.541445157901313e-17 5.765898903314062e-18 6.541445157901313e-17 0.206142623378217 -0.9785219562312327
12660490666.666666 0.1987765432204979 -0.9800448387013533 6.262305871945676e-18 6.535592827061207e-17 6.262305871945676e-18 6.535592827061207e-17 0.19877714418911455 -0.9800447168103459
12661108000.0 0.19139981852219778 -0.9815121545195051 6.75815643183982e-18 6.529364183612757e-17 6.75815643183982e-18 6.529364183612757e-17 0.19140042036122965 -0.9815120371576685
12661725333.333334 0.18401226651381467 -0.9829239470947392 7.253422085725319e-18 6.522759735063273e-17 7.253422085725319e-18 6.522759735063273e-17 0.18401286918913276 -0.9829238342682686
12662342666.666666 0.17661430510237147 -0.9842801365632952 7.748074381316626e-18 6.515780010477427e-17 7.748074381316626e-18 6.515780010477427e-17 0.17661490857980328 -0.9842800282781317
12662960000.0 0.16920635278376916 -0.9855806462068266 8.242084912933542e-18 6.508425560438311e-17 8.242084912933542e-18 6.508425560438311e-17 0.16920695702910002 -0.9855805424686526
12663577333.333334 0.1617888286190848 -0.9868254024567445 8.735425323128815e-18 6.50069695700721e-17 8.735425323128815e-18 6.50069695700721e-17 0.16178943359805983 -0.9868253032709846
12664194666.666666 0.154362152210865 -0.9880143348983768 9.228067304310374e-18 6.492594793682071e-17 9.228067304310374e-18 6.492594793682071e-17 0.15436275788919115 -0.988014240270197
12664812000.0 0.14692674367938982 -0.9891473762749526 9.719982600360064e-18 6.484119685354809e-17 9.719982600360064e-18 6.484119685354809e-17 0.14692735002273796 -0.989147286209262
12665429333.333334 0.1394830236389072 -0.9902244624914093 1.0211143008250661e-17 6.475272268267364e-17 1.0211143008250661e-17 6.475272268267364e-17 0.13948363061291377 -0.9902243769928569
12666046666.666666 0.13203141317383857 -0.9912455326180147 1.0701520379648084e-17 6.466053199966681e-17 1.0701520379648084e-17 6.466053199966681e-17 0.1320320207441079 -0.9912454516909919
12666664000.0 0.12457233381495905 -0.992210528893816 1.1191086622539262e-17 6.45646315925802e-17 1.1191086622539262e-17 6.45646315925802e-17 0.12457294194706511 -0.9922104525424559
12667281333.333334 0.11710620751555174 -0.9931193967299079 1.1679813702810209e-17 6.446502846157834e-17 1.1679813702810209e-17 6.446502846157834e-17 0.11710681617503979 -0.9931193249580821
12667898666.666666 0.10963345662753787 -0.9939720847125183 1.2167673645864135e-17 6.43617298184465e-17 1.2167673645864135e-17 6.43617298184465e-17 0.10963406577992693 -0.9939720175238408
12668516000.0 0.10215450387758507 -0.994768544605918 1.265463853821713e-17 6.425474308609065e-17 1.265463853821713e-17 6.425474308609065e-17 0.10215511348836954 -0.9947684820037422
12669133333.333334 0.09466977234319403 -0.9955087313551497 1.314068052907332e-17 6.414407589802911e-17 1.314068052907332e-17 6.414407589802911e-17 0.09467038237784578 -0.9955086733425702
12669750666.666666 0.08717968542876532 -0.9961926030885767 1.3625771831930443e-17 6.402973609786483e-17 1.3625771831930443e-17 6.402973609786483e-17 0.08718029585273562 -0.996192549668427
12670368000.0 0.07968466684161947 -0.9968201211202518 1.410988472615362e-17 6.391173173875124e-17 1.410988472615362e-17 6.391173173875124e-17 0.07968527762034093 -0.9968200722951062
12670985333.333334 0.07218514056814163 -0.9973912499520985 1.459299155855586e-17 6.379007108284457e-17 1.459299155855586e-17 6.379007108284457e-17 0.07218575166703024 -0.9973912057242721
