! Parameters = {f0=12700.012000; bw=77.238000; Q=6100.000000; N=10; m_0_1=1.154650; m_1_1=-1.445001; m_1_2=0.989462; m_2_2=-1.445650; m_2_3=0.626425; m_2_8=-0.005204; m_2_9=0.031500; m_3_3=-1.447587; m_3_4=0.514954; m_3_7=-0.004604; m_3_8=-0.101692; m_3_9=-0.005204; m_4_4=-1.450512; m_4_5=0.351289; m_4_6=-0.001087; m_4_7=-0.122241; m_4_8=-0.004604; m_5_5=-1.450130; m_5_6=0.758644; m_5_7=-0.001087; m_6_6=-1.450131; m_6_7=0.351631; m_7_7=-1.450498; m_7_8=0.515072; m_8_8=-1.447589; m_8_9=0.626738; m_9_9=-1.445655; m_9_10=0.990540; m_10_10=-1.445011; m_10_11=1.155445}
!
! Created with skrf (http://scikit-rf.org).
# Hz S RI R 50.0 
!freq ReS11 ImS11 ReS21 ImS21 ReS12 ImS12 ReS22 ImS22
12607400000.0 0.23031877795455064 0.9731152349651998 -3.0861469164764136e-17 -5.384891855122972e-17 -3.0861469164764136e-17 -5.384891855122972e-17 0.2303181857833 0.9731153751212357
12608017333.333334 0.2372345524230918 0.9714524008599031 -3.1242341360846433e-17 -5.361476834446978e-17 -3.1242341360846433e-17 -5.361476834446978e-17 0.2372339612926787 0.9714525452173344
12608634666.666666 0.2441383244928366 0.9697404181087256 -3.1621443471784784e-17 -5.337792826908145e-17 -3.1621443471784784e-17 -5.337792826908145e-17 0.24413773443306486 0.9697405666598382
12609252000.0 0.25102974488157515 0.9679793733259743 -3.1998756530091854e-17 -5.3138411661866283e-17 -3.1998756530091854e-17 -5.3138411661866283e-17 0.25102915592219155 0.9679795260628432
12609869333.333334 0.2579084649320341 0.9661693556081447 -3.2374261668462416e-17 -5.2896231993158496e-17 -3.2374261668462416e-17 -5.2896231993158496e-17 0.25790787710272634 0.9661695125226315
12610486666.666666 0.2647741366293776 0.9643104565294421 -3.27479401207042e-17 -5.2651402866079214e-17 -3.27479401207042e-17 -5.2651402866079214e-17 0.26477354995977387 0.9643106176132012
12611104000.0 0.27162641261911835 0.962402770137079 -3.3119773222687524e-17 -5.2403938015769307e-17 -3.3119773222687524e-17 -5.2403938015769307e-17 0.2716258271387846 0.962402935381551
12611721333.333334 0.2784649462243047 0.9604463929466079 -3.34897424132513e-17 -5.215385130863875e-17 -3.34897424132513e-17 -5.215385130863875e-17 0.2784643619627443 0.9604465623430263
12612338666.666666 0.28528939146333615 0.9584414239369736 -3.385782923513991e-17 -5.190115674158755e-17 -3.385782923513991e-17 -5.190115674158755e-17 0.28528880844998794 0.958441597476362
12612956000.0 0.29209940306746696 0.9563879645454998 -3.422401533591858e-17 -5.1645868441228776e-17 -3.422401533591858e-17 -5.1645868441228776e-17 0.2920988213317035 0.9563881422186725
12613573333.333334 0.29889463649802783 0.9542861186628284 -3.4588282468870525e-17 -5.138800066311481e-17 -3.4588282468870525e-17 -5.138800066311481e-17 0.29889405606915453 0.954286300460393
12614190666.666666 0.30567474796413097 0.9521359926275865 -3.4950612493915646e-17 -5.1127567790938014e-17 -3.4950612493915646e-17 -5.1127567790938014e-17 0.3056741688713839 0.9521361785399413
12614808000.0 0.31243939443992613 0.9499376952210424 -3.5310987378501525e-17 -5.086458433574019e-17 -3.5310987378501525e-17 -5.086458433574019e-17 0.3124388167124713 0.9499378852383797
12615425333.333334 0.3191882336819839 0.9476913376615981 -3.5669389198497415e-17 -5.0599064935109726e-17 -3.5669389198497415e-17 -5.0599064935109726e-17 0.3191876573489149 0.947691531773903
12616042666.666666 0.3259209242466092 0.9453970335991592 -3.602580013908047e-17 -5.0331024352373297e-17 -3.602580013908047e-17 -5.0331024352373297e-17 0.3259203493369465 0.9453972317962099
12616660000.0 0.3326371255071175 0.9430548991093876 -3.6380202495616435e-17 -5.006047747578184e-17 -3.6380202495616435e-17 -5.006047747578184e-17 0.3326365520498065 0.9430551013807571
12617277333.333334 0.3393364976710662 0.9406650526878251 -3.673257867453378e-17 -4.978743931768972e-17 -3.673257867453378e-17 -4.978743931768972e-17 0.3393359256949769 0.9406652590228831
12617894666.666666 0.3460187017974485 0.938227615243904 -3.708291119419216e-17 -4.9511925013728504e-17 -3.708291119419216e-17 -4.9511925013728504e-17 0.3460181313313717 0.9382278256318126
12618512000.0 0.3526833998138384 0.9357427100948246 -3.7431182685744377e-17 -4.9233949821973974e-17 -3.7431182685744377e-17 -4.9233949821973974e-17 0.352682830886487 0.9357429245245446
12619129333.333334 0.359330254533497 0.9332104629593192 -3.7777375893992526e-17 -4.895352912210778e-17 -3.7777375893992526e-17 -4.895352912210778e-17 0.3593296871735026 0.9332106814196068
12619746666.666666 0.3659589296724306 0.9306310019512903 -3.812147367823622e-17 -4.8670678414573673e-17 -3.812147367823622e-17 -4.8670678414573673e-17 0.3659583639083429 0.9306312244306993
12620364000.0 0.3725690898664052 0.928004457573331 -3.8463459013122965e-17 -4.838541331972153e-17 -3.8463459013122965e-17 -4.838541331972153e-17 0.3725685257266903 0.9280046840602125
12620981333.333334 0.3791604006879124 0.9253309627101189 -3.8803314989471626e-17 -4.809774957696192e-17 -3.8803314989471626e-17 -4.809774957696192e-17 0.37915983820095134 0.9253311931926226
12621598666.666666 0.3857325286630899 0.9226106526216962 -3.9141024815116975e-17 -4.780770304389287e-17 -3.9141024815116975e-17 -4.780770304389287e-17 0.3857319678571776 0.922610887087771
12622216000.0 0.39228514128859304 0.9198436649366252 -3.9476571815727177e-17 -4.751528969543717e-17 -3.9476571815727177e-17 -4.751528969543717e-17 0.3922845821919363 0.9198439033740194
12622833333.333334 0.39881790704844283 0.9170301396450143 -3.980993943562463e-17 -4.722052562296652e-17 -3.980993943562463e-17 -4.722052562296652e-17 0.39881734968915905 0.9170303820412761
12623450666.666666 0.40533049543069327 0.9141702190914793 -4.014111123859205e-17 -4.6923427033426454e-17 -4.014111123859205e-17 -4.6923427033426454e-17 0.4053299398368101 0.9141704654339595
12624068000.0 0.4118225769442855 0.911264047967889 -4.047007090868433e-17 -4.662401024844564e-17 -4.047007090868433e-17 -4.662401024844564e-17 0.41182202314373767 0.9112642982437382
12624685333.333334 0.4182938231357407 0.9083117733060275 -4.079680225102806e-17 -4.632229170344377e-17 -4.079680225102806e-17 -4.632229170344377e-17 0.41829327115637027 0.9083120275022003
12625302666.666666 0.4247439066055209 0.9053135444702767 -4.1121289192600604e-17 -4.6018287946747184e-17 -4.1121289192600604e-17 -4.6018287946747184e-17 0.42474335647507416 0.9053138025735289
12625920000.0 0.4311725010249787 0.902269513149879 -4.14435157830347e-17 -4.571201563866928e-17 -4.14435157830347e-17 -4.571201563866928e-17 0.4311719527711064 0.9022697751467713
12626537333.333334 0.43757928115250755 0.8991798333514323 -4.176346619537774e-17 -4.540349155062112e-17 -4.176346619537774e-17 -4.540349155062112e-17 0.43757873480276244 0.899180099228329
12627154666.666666 0.4439639228501516 0.8960446613910267 -4.2081124726878123e-17 -4.509273256418599e-17 -4.2081124726878123e-17 -4.509273256418599e-17 0.44396337843198763 0.8960449311340977
12627772000.0 0.45032610310015625 0.8928641558862589 -4.239647579974334e-17 -4.4779755670206696e-17 -4.239647579974334e-17 -4.4779755670206696e-17 0.4503255606409271 0.8928644294814803
12628389333.333334 0.4566655000209557 0.8896384777483858 -4.270950396190051e-17 -4.4464577967862e-17 -4.270950396190051e-17 -4.4464577967862e-17 0.4566649595479128 0.8896387551815387
12629006666.666666 0.4629817928838375 0.8863677901739899 -4.3020193887746075e-17 -4.4147216663738583e-17 -4.3020193887746075e-17 -4.4147216663738583e-17 0.4629812544241294 0.8863680714306634
12629624000.0 0.4692746621288908 0.8830522586368654 -4.3328530378895957e-17 -4.3827689070892875e-17 -4.3328530378895957e-17 -4.3827689070892875e-17 0.4692741257095618 0.8830525437024574
12630241333.333334 0.47554378938132597 0.8796920508795695 -4.363449836491689e-17 -4.3506012607918033e-17 -4.363449836491689e-17 -4.3506012607918033e-17 0.4755432550293141 0.8796923397392857
12630858666.666666 0.4817888574674313 0.8762873369050143 -4.393808290405647e-17 -4.318220479800149e-17 -4.393808290405647e-17 -4.318220479800149e-17 0.48178832520956744 0.87628762954387
12631476000.0 0.48800955043089383 0.8728382889677168 -4.4239269183979243e-17 -4.2856283267963245e-17 -4.4239269183979243e-17 -4.2856283267963245e-17 0.48800902029390053 0.8728385853705377
12632093333.333334 0.49420555354846196 0.869345081565263 -4.453804252246786e-17 -4.252826574731827e-17 -4.453804252246786e-17 -4.252826574731827e-17 0.4942050255589516 0.869345381716686
12632710666.666666 0.5003765533460158 0.8658078914293955 -4.4834388368140494e-17 -4.219817006730997e-17 -4.4834388368140494e-17 -4.219817006730997e-17 0.5003760275304903 0.8658081953138699
12633328000.0 0.5065222376145534 0.8622268975170053 -4.512829230115966e-17 -4.186601415993992e-17 -4.512829230115966e-17 -4.186601415993992e-17 0.5065217139994009 0.8622272051187919
12633945333.333334 0.5126422954257595 0.8586022810011992 -4.541974003391734e-17 -4.153181605701066e-17 -4.541974003391734e-17 -4.153181605701066e-17 0.5126417740372551 0.8586025923043734
12634562666.666666 0.5187364171478639 0.8549342252620676 -4.570871741172969e-17 -4.119559388914582e-17 -4.570871741172969e-17 -4.119559388914582e-17 0.518735898012167 0.8549345402505182
12635180000.0 0.5248042944612789 0.8512229158774179 -4.599521041351733e-17 -4.0857365884813095e-17 -4.599521041351733e-17 -4.0857365884813095e-17 0.5248037776044329 0.8512232345348495
12635797333.333334 0.530845620374224 0.8474685406133728 -4.627920515248105e-17 -4.051715036934013e-17 -4.627920515248105e-17 -4.051715036934013e-17 0.5308451058221539 0.8474688629233054
12636414666.666666 0.5368600892381609 0.8436712894149293 -4.656068787676435e-17 -4.017496576393222e-17 -4.656068787676435e-17 -4.017496576393222e-17 0.5368595770166731 0.8436716153607002
12637032000.0 0.5428473967634005 0.839831354396259 -4.683964497012003e-17 -3.9830830584672084e-17 -4.683964497012003e-17 -3.9830830584672084e-17 0.5428468868981807 0.8398316839610233
12637649333.333334 0.5488072400344035 0.835948929831049 -4.711606295255848e-17 -3.948476344152869e-17 -4.711606295255848e-17 -3.948476344152869e-17 0.5488067325510159 0.8359492629977802
12638266666.666666 0.5547393175251281 0.8320242121426578 -4.738992848099414e-17 -3.9136783037354786e-17 -4.738992848099414e-17 -3.9136783037354786e-17 0.5547388124490137 0.832024548894149
12638884000.0 0.5606433291142856 0.8280573998941773 -4.7661228349882176e-17 -3.878690816688253e-17 -4.7661228349882176e-17 -3.878690816688253e-17 0.5606428264707616 0.8280577402130421
12639501333.333334 0.5665189761005254 0.8240486937783874 -4.792994949185471e-17 -3.8435157715706895e-17 -4.792994949185471e-17 -3.8435157715706895e-17 0.5665184759147827 0.8240490376470603
12640118666.666666 0.572365961217522 0.8199982966076188 -4.819607897833205e-17 -3.808155065928649e-17 -4.819607897833205e-17 -3.808155065928649e-17 0.5723654635146251 0.8199986440083559
12640736000.0 0.5781839886491328 0.8159064133034093 -4.8459604020154513e-17 -3.772610606190428e-17 -4.8459604020154513e-17 -3.772610606190428e-17 0.5781834934540184 0.8159067642182908
12641353333.333334 0.5839727640441308 0.8117732508863011 -4.872051196817494e-17 -3.7368843075665954e-17 -4.872051196817494e-17 -3.7368843075665954e-17 0.5839722713816053 0.8117736052972301
12641970666.666666 0.589731994531328 0.8075990184652014 -4.897879031387084e-17 -3.7009780939457385e-17 -4.897879031387084e-17 -3.7009780939457385e-17 0.5897315044260688 0.8075993763539071
12642588000.0 0.5954613887342795 0.8033839272268885 -4.9234426689932663e-17 -3.664893897792096e-17 -4.9234426689932663e-17 -3.664893897792096e-17 0.5954609012108314 0.8033842885749253
12643205333.333334 0.6011606567860457 0.7991281904253069 -4.948740887084953e-17 -3.6286336600420526e-17 -4.948740887084953e-17 -3.6286336600420526e-17 0.6011601718688202 0.7991285552140561
12643822666.666666 0.606829510343858 0.79483202337078 -4.9737724773491316e-17 -3.59219932999967e-17 -4.9737724773491316e-17 -3.59219932999967e-17 0.6068290280571333 0.7948323915814511
12644440000.0 0.6124676626037084 0.7904956434191178 -4.998536245767428e-17 -3.5555928652331087e-17 -4.998536245767428e-17 -3.5555928652331087e-17 0.6124671829716263 0.790496015032748
12645057333.333334 0.61807482831488 0.7861192699606004 -5.023031012672499e-17 -3.518816231469817e-17 -5.023031012672499e-17 -3.518816231469817e-17 0.618074351361446 0.7861196449580574
12645674666.666666 0.6236507237942679 0.7817031244089675 -5.0472556128035675e-17 -3.4818714024914656e-17 -5.0472556128035675e-17 -3.4818714024914656e-17 0.6236502495433497 0.7817035027709496
12646292000.0 0.629195066940977 0.7772474301900231 -5.071208895361866e-17 -3.4447603600275116e-17 -5.071208895361866e-17 -3.4447603600275116e-17 0.6291945954163035 0.7772478118970604
12646909333.333334 0.6347075772502836 0.7727524127305789 -5.0948897240633476e-17 -3.407485093651258e-17 -5.0948897240633476e-17 -3.407485093651258e-17 0.634707108475443 0.7727527977630337
12647526666.666666 0.6401879758280474 0.7682182994468717 -5.118296977192897e-17 -3.3700476006722555e-17 -5.118296977192897e-17 -3.3700476006722555e-17 0.6401875098264871 0.7682186877849408
12648144000.0 0.6456359854047993 0.7636453197330738 -5.1414295476566314e-17 -3.332449886029883e-17 -5.1414295476566314e-17 -3.332449886029883e-17 0.6456355221998239 0.7636457113567885
12648761333.333334 0.6510513303496828 0.7590337049497624 -5.1642863430331376e-17 -3.29469396218723e-17 -5.1642863430331376e-17 -3.29469396218723e-17 0.6510508699644528 0.7590340998389891
12649378666.666666 0.6564337366843979 0.754383688412212 -5.186866285624698e-17 -3.256781849023261e-17 -5.186866285624698e-17 -3.256781849023261e-17 0.6564332791419288 0.7543840865466538
12649996000.0 0.6617829320971714 0.7496955053785002 -5.209168312507312e-17 -3.21871557372539e-17 -5.209168312507312e-17 -3.21871557372539e-17 0.6617824774203337 0.7496959067376991
12650613333.333334 0.6670986459564696 0.7449693930376595 -5.231191375580094e-17 -3.1804971706814194e-17 -5.231191375580094e-17 -3.1804971706814194e-17 0.6670981941679851 0.7449697976009955
12651230666.666666 0.6723806093246045 0.7402055904977539 -5.2529344416133686e-17 -3.142128681372058e-17 -5.2529344416133686e-17 -3.142128681372058e-17 0.6723801604470474 0.7402059982444466
12651848000.0 0.6776285549715512 0.7354043387735897 -5.274396492297281e-17 -3.1036121542608413e-17 -5.274396492297281e-17 -3.1036121542608413e-17 0.6776281090273472 0.7354047496827013
12652465333.333334 0.6828422173882811 0.7305658807746972 -5.2955765242879494e-17 -3.0649496446866e-17 -5.2955765242879494e-17 -3.0649496446866e-17 0.6828417743997036 0.7305662948251302
12653082666.666666 0.6880213328001916 0.7256904612930382 -5.316473549253648e-17 -3.026143214754274e-17 -5.316473549253648e-17 -3.026143214754274e-17 0.6880208927893631 0.725690878463539
12653700000.0 0.693165639180661 0.7207783269904282 -5.337086593920981e-17 -2.987194933223869e-17 -5.337086593920981e-17 -2.987194933223869e-17 0.6931652021695514 0.7207787472595875
12654317333.333334 0.6982748762640152 0.7158297263863314 -5.3574147001182936e-17 -2.9481068754027984e-17 -5.3574147001182936e-17 -2.9481068754027984e-17 0.6982744422744399 0.7158301497325847
12654934666.666666 0.7033487855589012 0.7108449098450893 -5.377456924820262e-17 -2.90888112303424e-17 -5.377456924820262e-17 -2.90888112303424e-17 0.7033483546125223 0.7108453362467203
12655552000.0 0.7083871103613658 0.7058241295632567 -5.397212340190825e-17 -2.869519764186734e-17 -5.397212340190825e-17 -2.869519764186734e-17 0.7083866824796872 0.7058245589983945
12656169333.333334 0.7133895957676569 0.7007676395570174 -5.416680033624631e-17 -2.8300248931448914e-17 -5.416680033624631e-17 -2.8300248931448914e-17 0.7133891709720266 0.7007680720036407
12656786666.666666 0.7183559886873264 0.6956756956491358 -5.435859107789195e-17 -2.7903986102969e-17 -5.435859107789195e-17 -2.7903986102969e-17 0.7183555669989335 0.695676131085073
12657404000.0 0.7232860378559303 0.6905485554561136 -5.454748680665028e-17 -2.750643022024055e-17 -5.454748680665028e-17 -2.750643022024055e-17 0.7232856192958053 0.6905489938590443
12658021333.333334 0.728179493847783 0.6853864783751152 -5.473347885585526e-17 -2.7107602405889444e-17 -5.473347885585526e-17 -2.7107602405889444e-17 0.7281790784367957 0.6853869197225708
12658638666.666666 0.7330361090884779 0.6801897255709481 -5.491655871275535e-17 -2.670752384024489e-17 -5.491655871275535e-17 -2.670752384024489e-17 0.733035696847337 0.6801901698403136
12659256000.0 0.737855637867607 0.6749585599626411 -5.509671801890182e-17 -2.630621576020338e-17 -5.509671801890182e-17 -2.630621576020338e-17 0.7378552288168592 0.6749590071311556
12659873333.333334 0.7426378363510192 0.6696932462103314 -5.5273948570514386e-17 -2.590369945812182e-17 -5.5273948570514386e-17 -2.590369945812182e-17 0.7426374305110474 0.6696936962550899
12660490666.666666 0.7473824625931562 0.6643940507018744 -5.5448242318849934e-17 -2.549999628068471e-17 -5.5448242318849934e-17 -2.549999628068471e-17 0.7473820599841781 0.6643945035998278
12661108000.0 0.7520892765494828 0.6590612415391542 -5.561959137055788e-17 -2.509512762777796e-17 -5.561959137055788e-17 -2.509512762777796e-17 0.7520888771915516 0.659061697267112
12661725333.333334 0.7567580400883668 0.6536950885248174 -5.578798798802904e-17 -2.4689114951359354e-17 -5.578798798802904e-17 -2.4689114951359354e-17 0.7567576440013696 0.6536955470594482
12662342666.666666 0.7613885170033367 0.6482958631483899 -5.595342458973588e-17 -2.4281979754326498e-17 -5.595342458973588e-17 -2.4281979754326498e-17 0.761388124206992 0.6482963244662221
12662960000.0 0.7659804730249322 0.6428638385726445 -5.611589375056413e-17 -2.3873743589382408e-17 -5.611589375056413e-17 -2.3873743589382408e-17 0.765980083538792 0.6428643026500694
12663577333.333334 0.7705336758325839 0.6373992896197659 -5.627538820213693e-17 -2.3464428057899307e-17 -5.627538820213693e-17 -2.3464428057899307e-17 0.7705332896760284 0.6373997564330354
12664194666.666666 0.7750478950663571 0.6319024927574382 -5.643190083313034e-17 -2.305405480878014e-17 -5.643190083313034e-17 -2.305405480878014e-17 0.7750475122585986 0.6319029622826698
12664812000.0 0.7795229023386145 0.6263737260848645 -5.658542468958031e-17 -2.2642645537318047e-17 -5.658542468958031e-17 -2.2642645537318047e-17 0.7795225228986924 0.6263741982980403
12665429333.333334 0.7839584712455684 0.6208132693186951 -5.67359529751826e-17 -2.2230221984052335e-17 -5.67359529751826e-17 -2.2230221984052335e-17 0.7839580951923496 0.6208137441956626
12666046666.666666 0.7883543773787319 0.6152214037788726 -5.688347905158048e-17 -2.1816805933632346e-17 -5.688347905158048e-17 -2.1816805933632346e-17 0.7883540047309121 0.615221881295349
12666664000.0 0.7927103983362787 0.6095984123744046 -5.702799643865346e-17 -2.1402419213653286e-17 -5.702799643865346e-17 -2.1402419213653286e-17 0.792710029112377 0.6095988925059737
12667281333.333334 0.7970263137342876 0.603944579589045 -5.716949881478332e-17 -2.0987083693531153e-17 -5.716949881478332e-17 -2.0987083693531153e-17 0.7970259479526505 0.6039450623111626
12667898666.666666 0.8013019052178998 0.5982601914669059 -5.730798001712584e-17 -2.0570821283336776e-17 -5.730798001712584e-17 -2.0570821283336776e-17 0.8013015428966968 0.598260676754898
12668516000.0 0.8055369564723613 0.5925455355979828 -5.744343404186807e-17 -2.0153653932644463e-17 -5.744343404186807e-17 -2.0153653932644463e-17 0.8055365976295846 0.5925460234270482
12669133333.333334 0.8097312532339686 0.5868009011036055 -5.757585504447234e-17 -1.9735603629393772e-17 -5.757585504447234e-17 -1.9735603629393772e-17 0.8097308978874325 0.5868013914488166
12669750666.666666 0.8138845833009066 0.5810265786218094 -5.770523733992274e-17 -1.9316692398718743e-17 -5.770523733992274e-17 -1.9316692398718743e-17 0.8138842314682486 0.581027071458115
12670368000.0 0.8179967365440055 0.5752228602926108 -5.783157540295494e-17 -1.8896942301800175e-17 -5.783157540295494e-17 -1.8896942301800175e-17 0.8179963882426825 0.5752233555948351
