! Parameters = {f0=12700.012000; bw=77.238000; Q=6100.000000; N=10; m_0_1=1.323018; m_1_1=1.080525; m_1_2=1.157830; m_2_2=1.079876; m_2_3=0.794793; m_2_8=0.003215; m_2_9=0.039919; m_3_3=1.077939; m_3_4=0.683322; m_3_7=0.003815; m_3_8=-0.093273; m_3_9=0.003215; m_4_4=1.075014; m_4_5=0.519657; m_4_6=0.007332; m_4_7=-0.113822; m_4_8=0.003815; m_5_5=1.075396; m_5_6=0.927012; m_5_7=0.007332; m_6_6=1.075395; m_6_7=0.519999; m_7_7=1.075028; m_7_8=0.683440; m_8_8=1.077937; m_8_9=0.795106; m_9_9=1.079871; m_9_10=1.158908; m_10_10=1.080515; m_10_11=1.323813}
!
! Created with skrf (http://scikit-rf.org).
# Hz S RI R 50.0 
!freq ReS11 ImS11 ReS21 ImS21 ReS12 ImS12 ReS22 ImS22
12607400000.0 0.9884979545052428 0.15123423533962155 -1.398099256797487e-16 1.9159641741875426e-17 -1.398099256797487e-16 1.9159641741875426e-17 0.9884978491032002 0.1512349242673639
12608017333.333334 0.99025413098884 0.13927223721670523 -1.3953889011374536e-16 2.0856837335872963e-17 -1.3953889011374536e-16 2.0856837335872963e-17 0.9902540339283924 0.13927292733462104
12608634666.666666 0.9918655585054684 0.12728988117852735 -1.3924726348436501e-16 2.2550274773271242e-17 -1.3924726348436501e-16 2.2550274773271242e-17 0.9918654697999861 0.12729057238562802
12609252000.0 0.9933320015071428 0.11528891872865053 -1.3893509710455077e-16 2.4239704377974278e-17 -1.3893509710455077e-16 2.4239704377974278e-17 0.9933319211687739 0.11528961092379814
12609869333.333334 0.9946532456387733 0.10327110409045703 -1.3860244531293595e-16 2.5924877165965442e-17 -1.3860244531293595e-16 2.5924877165965442e-17 0.9946531736784412 0.10327179717237919
12610486666.666666 0.9958290977695033 0.09123819395069988 -1.38249365464609e-16 2.760554488192147e-17 -1.38249365464609e-16 2.760554488192147e-17 0.9958290341969057 0.09123888781800445
12611104000.0 0.9968593860209602 0.07919194720249503 -1.378759179214153e-16 2.9281460035802305e-17 -1.378759179214153e-16 2.9281460035802305e-17 0.9968593308445682 0.07919264175368505
12611721333.333334 0.997743959792336 0.06713412468869895 -1.3748216604184384e-16 3.095237593917962e-17 -1.3748216604184384e-16 3.095237593917962e-17 0.9977439130193935 0.06713481982218751
12612338666.666666 0.9984826897824428 0.055066488944067196 -1.370681761704544e-16 3.2618046741526517e-17 -1.370681761704544e-16 3.2618046741526517e-17 0.9984826514189629 0.055067184558192046
12612956000.0 0.9990754680085974 0.042990803937702673 -1.3663401762686605e-16 3.427822746636462e-17 -1.3663401762686605e-16 3.427822746636462e-17 0.9990754380593657 0.04299149993074145
12613573333.333334 0.9995222078223955 0.030908834815522652 -1.3617976269432612e-16 3.5932674047197465e-17 -1.3617976269432612e-16 3.5932674047197465e-17 0.9995221862909649 0.030909531085707403
12614190666.666666 0.9998228439223903 0.018822347641900307 -1.3570548660782567e-16 3.758114336336871e-17 -1.3570548660782567e-16 3.758114336336871e-17 0.9998228308110847 0.01882304408743263
12614808000.0 0.9999773323636372 0.0067331091415980945 -1.3521126754178895e-16 3.922339327574298e-17 -1.3521126754178895e-16 3.922339327574298e-17 0.9999773276735492 0.0067338056606639
12615425333.333334 0.9999856505641123 -0.005357113558452417 -1.3469718659733342e-16 4.085918266221535e-17 -1.3469718659733342e-16 4.085918266221535e-17 0.999985654295103 -0.005356417067668017
12616042666.666666 0.9998477973080142 -0.017446553187372447 -1.3416332778910301e-16 4.248827145305248e-17 -1.3416332778910301e-16 4.248827145305248e-17 0.9998478094587152 -0.017445856826670245
12616660000.0 0.9995637927459464 -0.029533442588834835 -1.3360977803166492e-16 4.4110420666098626e-17 -1.3360977803166492e-16 4.4110420666098626e-17 0.999563813313757 -0.029532746459986634
12617277333.333334 0.9991336783919611 -0.04161601497931856 -1.3303662712548937e-16 4.572539244177547e-17 -1.3303662712548937e-16 4.572539244177547e-17 0.9991337073730515 -0.04161531918405232
12617894666.666666 0.9985575171175078 -0.05369250420613868 -1.3244396774251725e-16 4.7332950077879987e-17 -1.3244396774251725e-16 4.7332950077879987e-17 0.9985575545068198 -0.0536918088461237
12618512000.0 0.9978353931422211 -0.06576114500612229 -1.318318954112712e-16 4.8932858064294464e-17 -1.318318954112712e-16 4.8932858064294464e-17 0.9978354389334666 -0.06576045018295426
12619129333.333334 0.9969674120216379 -0.07782017326301884 -1.3120050850160498e-16 5.0524882117356345e-17 -1.3120050850160498e-16 5.0524882117356345e-17 0.996967466207301 -0.077819479078205
12619746666.666666 0.9959537006317409 -0.08986782626584948 -1.305499082089827e-16 5.210878921417871e-17 -1.305499082089827e-16 5.210878921417871e-17 0.9959537632030814 -0.08986713282079392
12620364000.0 0.9947944071504174 -0.10190234296648362 -1.2988019853837242e-16 5.3684347626695416e-17 -1.2988019853837242e-16 5.3684347626695416e-17 0.9947944780974681 -0.1019016503624723
12620981333.333334 0.9934897010358268 -0.1139219642367178 -1.2919148628774558e-16 5.5251326955468317e-17 -1.2919148628774558e-16 5.5251326955468317e-17 0.9934897803473992 -0.11392127257490395
12621598666.666666 0.9920397730015947 -0.12592493312586697 -1.2848388103112473e-16 5.680949816338732e-17 -1.2848388103112473e-16 5.680949816338732e-17 0.9920398606652773 -0.1259242425072561
12622216000.0 0.9904448349889479 -0.1379094951173569 -1.2775749510126352e-16 5.835863360906692e-17 -1.2775749510126352e-16 5.835863360906692e-17 0.9904449309911115 -0.13790880564279234
12622833333.333334 0.9887051201357473 -0.14987389838516105 -1.2701244357191386e-16 5.989850708004852e-17 -1.2701244357191386e-16 5.989850708004852e-17 0.9887052244615437 -0.14987321015530888
12623450666.666666 0.986820882742394 -0.1618163940499552 -1.262488442396875e-16 6.142889382579278e-17 -1.262488442396875e-16 6.142889382579278e-17 0.9868209953757602 -0.16181570716528976
12624068000.0 0.9847923982346721 -0.17373523643467334 -1.2546681760553049e-16 6.294957059042025e-17 -1.2546681760553049e-16 6.294957059042025e-17 0.9847925191583323 -0.17373455099546256
12624685333.333334 0.9826199631234437 -0.18562868331993132 -1.2466648685578449e-16 6.446031564525693e-17 -1.2466648685578449e-16 6.446031564525693e-17 0.9826200923189125 -0.18562799942622202
12625302666.666666 0.9803038949613971 -0.19749499619818975 -1.2384797784289762e-16 6.596090882106282e-17 -1.2384797784289762e-16 6.596090882106282e-17 0.9803040324089815 -0.1974943139497931
12625920000.0 0.9778445322965169 -0.20933244052849273 -1.2301141906569022e-16 6.745113154012594e-17 -1.2301141906569022e-16 6.745113154012594e-17 0.97784467797532 -0.20933176002496973
12626537333.333334 0.9752422346226841 -0.2211392859895369 -1.2215694164929978e-16 6.893076684798858e-17 -1.2215694164929978e-16 6.893076684798858e-17 0.9752423885106081 -0.2211386073301837
12627154666.666666 0.9724973823271197 -0.23291380673268366 -1.2128467932469773e-16 7.039959944500822e-17 -1.2128467932469773e-16 7.039959944500822e-17 0.9724975444008682 -0.23291313001651714
12627772000.0 0.9696103766346931 -0.24465428163459185 -1.2039476840782532e-16 7.185741571765963e-17 -1.2039476840782532e-16 7.185741571765963e-17 0.9696105468697761 -0.24465360696033508
12628389333.333334 0.9665816395494218 -0.2563589945481924 -1.194873477784069e-16 7.330400376948989e-17 -1.194873477784069e-16 7.330400376948989e-17 0.96658181792016 -0.2563583220142608
12629006666.666666 0.9634116137926366 -0.26802623455415114 -1.1856255885832044e-16 7.473915345192195e-17 -1.1856255885832044e-16 7.473915345192195e-17 0.963411800272162 -0.26802556425863716
12629624000.0 0.960100762738367 -0.27965429621054577 -1.1762054558966697e-16 7.616265639467928e-17 -1.1762054558966697e-16 7.616265639467928e-17 0.9601009572986301 -0.2796536282512054
12630241333.333334 0.9566495703455531 -0.2912414798023764 -1.1666145441241736e-16 7.757430603602534e-17 -1.1666145441241736e-16 7.757430603602534e-17 0.9566497729573261 -0.2912408142766145
12630858666.666666 0.9530585410873849 -0.3027860915897467 -1.1568543424174635e-16 7.897389765265046e-17 -1.1568543424174635e-16 7.897389765265046e-17 0.9530587517202661 -0.30278542859460306
12631476000.0 0.9493281998774118 -0.3142864440559332 -1.146926364449553e-16 8.036122838934935e-17 -1.146926364449553e-16 8.036122838934935e-17 0.9493284184998287 -0.3142857836880677
12632093333.333334 0.9454590919929875 -0.32574085615348464 -1.1368321481810726e-16 8.173609728831557e-17 -1.1368321481810726e-16 8.173609728831557e-17 0.9454593185722053 -0.3257401985091645
12632710666.666666 0.9414517829954527 -0.33714765355032794 -1.1265732556225729e-16 8.309830531822238e-17 -1.1265732556225729e-16 8.309830531822238e-17 0.9414520174975759 -0.33714699872541265
12633328000.0 0.9373068586474841 -0.34850516887442834 -1.1161512725933532e-16 8.444765540300149e-17 -1.1161512725933532e-16 8.444765540300149e-17 0.9373071010374616 -0.34850451696435564
12633945333.333334 0.9330249248274918 -0.3598117419574618 -1.1055678084773161e-16 8.578395245026089e-17 -1.1055678084773161e-16 8.578395245026089e-17 0.9330251750691227 -0.359811093057234
12634562666.666666 0.9286066074410335 -0.37106572007754035 -1.0948244959749704e-16 8.710700337945785e-17 -1.0948244959749704e-16 8.710700337945785e-17 0.9286068654969751 -0.3710650742817112
12635180000.0 0.9240525523293709 -0.38226545820069185 -1.083922990852366e-16 8.841661714972486e-17 -1.083922990852366e-16 8.841661714972486e-17 0.92405281816114 -0.3822648156033514
12635797333.333334 0.9193634251749746 -0.39340931922153 -1.0728649716863794e-16 8.971260478742242e-17 -1.0728649716863794e-16 8.971260478742242e-17 0.9193636987429561 -0.3934086799162922
12636414666.666666 0.9145399114043538 -0.4044956742022422 -1.0616521396072312e-16 9.099477941331374e-17 -1.0616521396072312e-16 9.099477941331374e-17 0.9145401926678051 -0.40449503828223005
12637032000.0 0.9095827160877173 -0.4155229026110362 -1.0502862180371105e-16 9.226295626949382e-17 -1.0502862180371105e-16 9.226295626949382e-17 0.9095830050047758 -0.4155222701688694
12637649333.333334 0.9044925638359913 -0.4264893925588365 -1.0387689524261213e-16 9.351695274593331e-17 -1.0387689524261213e-16 9.351695274593331e-17 0.9044928603636789 -0.4264887636866169
12638266666.666666 0.8992701986949229 -0.43739354103484807 -1.0271021099849308e-16 9.475658840670851e-17 -1.0271021099849308e-16 9.475658840670851e-17 0.8992705027891547 -0.4373929158241474
12638884000.0 0.8939163840362521 -0.44823375414103045 -1.0152874794140934e-16 9.598168501592323e-17 -1.0152874794140934e-16 9.598168501592323e-17 0.8939166956518403 -0.4482331326828757
12639501333.333334 0.8884319024461446 -0.4590084473250286 -1.0033268706304926e-16 9.719206656326935e-17 -1.0033268706304926e-16 9.719206656326935e-17 0.8884322215368069 -0.4590078297098896
12640118666.666666 0.8828175556109202 -0.46971604561156766 -9.912221144909568e-17 9.838755928922925e-17 -9.912221144909568e-17 9.838755928922925e-17 0.8828178821292865 -0.4697154319293436
12640736000.0 0.8770741641995652 -0.4803549838332521 -9.789750625119743e-17 9.956799171002406e-17 -9.789750625119743e-17 9.956799171002406e-17 0.8770744980971835 -0.4803543741732586
12641353333.333334 0.8712025677441932 -0.49092370685854625 -9.665875865880078e-17 1.0073319464206134e-16 -9.665875865880078e-17 1.0073319464206134e-16 0.8712029089715378 -0.49092310130950195
12641970666.666666 0.8652036245169559 -0.5014206698197956 -9.540615787051948e-17 1.0188300122619854e-16 -9.540615787051948e-17 1.0188300122619854e-16 0.8652039730234362 -0.5014200684698108
12642588000.0 0.8590782114047617 -0.511844338338722 -9.413989506533523e-17 1.030172469515395e-16 -9.413989506533523e-17 1.030172469515395e-16 0.8590785671387274 -0.5118437412752839
12643205333.333334 0.8528272237811285 -0.5221931887506601 -9.286016337348443e-17 1.0413576967890388e-16 -9.286016337348443e-17 1.0413576967890388e-16 0.8528275866898765 -0.5221925960606203
12643822666.666666 0.8464515753751555 -0.5324657083275194 -9.15671578470314e-17 1.0523840966396736e-16 -9.15671578470314e-17 1.0523840966396736e-16 0.8464519454049406 -0.5324651200970824
12644440000.0 0.8399521981380795 -0.5426603954987119 -9.026107543022168e-17 1.0632500957999055e-16 -9.026107543022168e-17 1.0632500957999055e-16 0.8399525752341203 -0.5426598118134216
12645057333.333334 0.8333300421070632 -0.5527757600706178 -8.894211492954883e-17 1.0739541454019659e-16 -8.894211492954883e-17 1.0739541454019659e-16 0.833330426213552 -0.5527751810153462
12645674666.666666 0.8265860752663011 -0.5628103234444637 -8.761047698353267e-17 1.0844947211979901e-16 -8.761047698353267e-17 1.0844947211979901e-16 0.8265864663264096 -0.5628097491033974
12646292000.0 0.8197212834053763 -0.572762618832664 -8.626636403224236e-17 1.0948703237764894e-16 -8.626636403224236e-17 1.0948703237764894e-16 0.819721681361266 -0.572762049289292
12646909333.333334 0.8127366699754044 -0.5826311914728736 -8.490998028662797e-17 1.1050794787745851e-16 -8.490998028662797e-17 1.1050794787745851e-16 0.8127370747682336 -0.582630626809975
12647526666.666666 0.8056332559422453 -0.5924145988408006 -8.354153169750111e-17 1.1151207370872205e-16 -8.354153169750111e-17 1.1151207370872205e-16 0.80563366751218 -0.5924140391404343
12648144000.0 0.7984120796371805 -0.6021114108611806 -8.216122592433163e-17 1.124992675072052e-16 -8.216122592433163e-17 1.124992675072052e-16 0.7984124979234023 -0.6021108562046722
12648761333.333334 0.7910741966052527 -0.611720210116654 -8.076927230381404e-17 1.1346938947504315e-16 -8.076927230381404e-17 1.1346938947504315e-16 0.7910746215459659 -0.6117196605845828
12649378666.666666 0.783620679451025 -0.6212395920548872 -7.936588181815567e-17 1.1442230240048056e-16 -7.936588181815567e-17 1.1442230240048056e-16 0.7836211109834685 -0.6212390477270765
12649996000.0 0.7760526176816084 -0.6306681651941319 -7.795126706314584e-17 1.1535787167721073e-16 -7.795126706314584e-17 1.1535787167721073e-16 0.7760530557420627 -0.6306676261496358
12650613333.333334 0.7683711175475016 -0.6400045513264836 -7.652564221602392e-17 1.162759653233025e-16 -7.652564221602392e-17 1.162759653233025e-16 0.7683715620713003 -0.6400040176435768
12651230666.666666 0.7605773018810187 -0.6492473857191879 -7.508922300310064e-17 1.1717645399975012e-16 -7.508922300310064e-17 1.1717645399975012e-16 0.7605777528025568 -0.6492468574753543
12651848000.0 0.7526723099318503 -0.6583953173145013 -7.364222666714443e-17 1.1805921102863321e-16 -7.364222666714443e-17 1.1805921102863321e-16 0.7526727671845941 -0.6583947945864211
12652465333.333334 0.7446572972008457 -0.6674470089268072 -7.218487193461913e-17 1.1892411241083465e-16 -7.218487193461913e-17 1.1892411241083465e-16 0.7446577607173424 -0.667446491790348
12653082666.666666 0.7365334352709825 -0.6764011374382322 -7.071737898265559e-17 1.197710368433943e-16 -7.071737898265559e-17 1.197710368433943e-16 0.7365339049828711 -0.676400625968437
12653700000.0 0.7283019116359778 -0.6852563939921976 -6.923996940581557e-17 1.20599865736455e-16 -6.923996940581557e-17 1.20599865736455e-16 0.7283023874739968 -0.6852558882632723
12654317333.333334 0.7199639295270316 -0.6940114841843796 -6.775286618274175e-17 1.2141048322975414e-16 -6.775286618274175e-17 1.2141048322975414e-16 0.7199644114210321 -0.6940109842696851
12654934666.666666 0.7115207077366408 -0.7026651282522554 -6.625629364250197e-17 1.2220277620876808e-16 -6.625629364250197e-17 1.2220277620876808e-16 0.7115211956155959 -0.7026646342242955
12655552000.0 0.7029734804404992 -0.711216061262104 -6.475047743081169e-17 1.2297663432040628e-16 -6.475047743081169e-17 1.2297663432040628e-16 0.7029739742325127 -0.7112155731925143
12656169333.333334 0.6943234970173311 -0.7196630332936628 -6.323564447610586e-17 1.2373194998827325e-16 -6.323564447610586e-17 1.2373194998827325e-16 0.6943239966496505 -0.7196625512532012
12656786666.666666 0.6855720218659257 -0.7280048096231753 -6.171202295533302e-17 1.2446861842756716e-16 -6.171202295533302e-17 1.2446861842756716e-16 0.6855725272649529 -0.7280043336817132
12657404000.0 0.6767203342205825 -0.7362401709036208 -6.017984225968229e-17 1.2518653765950346e-16 -6.017984225968229e-17 1.2518653765950346e-16 0.676720845311882 -0.7362397011301293
12658021333.333334 0.6677697279639087 -0.7443679133431386 -5.863933296006288e-17 1.2588560852535794e-16 -5.863933296006288e-17 1.2588560852535794e-16 0.6677702446722205 -0.7443674498056807
12658638666.666666 0.6587215114379623 -0.752386848880745 -5.709072677250408e-17 1.2656573470004723e-16 -5.709072677250408e-17 1.2656573470004723e-16 0.6587220336872143 -0.7523863916464671
12659256000.0 0.6495770072526518 -0.7602958053603213 -5.553425652329121e-17 1.27226822705333e-16 -5.553425652329121e-17 1.27226822705333e-16 0.6495775349659673 -0.7602953544954402
12659873333.333334 0.6403375520926523 -0.7680936267017188 -5.397015611405511e-17 1.278687819225524e-16 -5.397015611405511e-17 1.278687819225524e-16 0.6403380851923659 -0.7680931822715161
12660490666.666666 0.6310044965220929 -0.7757791730697019 -5.2398660486683593e-17 1.2849152460493426e-16 -5.2398660486683593e-17 1.2849152460493426e-16 0.631005034929757 -0.7757787351385098
12661108000.0 0.6215792047867624 -0.7833513210408646 -5.082000558802284e-17 1.2909496588951328e-16 -5.082000558802284e-17 1.2909496588951328e-16 0.6215797484231624 -0.7833508896720603
12661725333.333334 0.6120630546151775 -0.7908089637674504 -4.9234428334564257e-17 1.2967902380856286e-16 -4.9234428334564257e-17 1.2967902380856286e-16 0.612063603400343 -0.7908085390234463
12662342666.666666 0.6024574370168009 -0.7981510111394695 -4.7642166576909734e-17 1.3024361930063067e-16 -4.7642166576909734e-17 1.3024361930063067e-16 0.6024579908700156 -0.798150593081703
12662960000.0 0.5927637560788849 -0.8053763899438963 -4.604345906413811e-17 1.3078867622112973e-16 -4.604345906413811e-17 1.3078867622112973e-16 0.5927643149187 -0.8053759786328213
12663577333.333334 0.5829834287612794 -0.8124840440215135 -4.4438545408062984e-17 1.313141213524871e-16 -4.4438545408062984e-17 1.313141213524871e-16 0.5829839925055249 -0.8124836395165924
12664194666.666666 0.5731178846891738 -0.8194729344213987 -4.2827666047380977e-17 1.3181988441385587e-16 -4.2827666047380977e-17 1.3181988441385587e-16 0.5731184532549712 -0.8194725367810928
12664812000.0 0.5631685659441897 -0.8263420395527358 -4.121106221167719e-17 1.3230589807039727e-16 -4.121106221167719e-17 1.3230589807039727e-16 0.5631691392479642 -0.8263416488344979
12665429333.333334 0.5531369268536364 -0.8330903553341172 -3.958897588535782e-17 1.3277209794211382e-16 -3.958897588535782e-17 1.3277209794211382e-16 0.5531375048111281 -0.8330899715943828
12666046666.666666 0.5430244337779012 -0.8397168953403288 -3.796164977150726e-17 1.3321842261223354e-16 -3.796164977150726e-17 1.3321842261223354e-16 0.5430250163041789 -0.8397165186345072
12666664000.0 0.5328325648959183 -0.8462206909466631 -3.6329327255554723e-17 1.3364481363518103e-16 -3.6329327255554723e-17 1.3364481363518103e-16 0.5328331519053906 -0.8462203213291305
12667281333.333334 0.5225628099895012 -0.8526007914702438 -3.469225236900531e-17 1.3405121554406147e-16 -3.469225236900531e-17 1.3405121554406147e-16 0.5225634013959307 -0.8526004289943357
12667898666.666666 0.5122166702251968 -0.8588562643092394 -3.30506697529415e-17 1.3443757585774154e-16 -3.30506697529415e-17 1.3443757585774154e-16 0.5122172659417107 -0.8588559090272414
12668516000.0 0.50179565793492 -0.8649861950791304 -3.140482462152791e-17 1.3480384508746176e-16 -3.140482462152791e-17 1.3480384508746176e-16 0.5017962578740245 -0.8649858470422711
12669133333.333334 0.4913012963951871 -0.8709896877461972 -2.975496272545741e-17 1.3514997674300244e-16 -2.975496272545741e-17 1.3514997674300244e-16 0.4913019004687802 -0.8709893470046431
12669750666.666666 0.48073511960403803 -0.8768658647587456 -2.810133031528196e-17 1.3547592733841336e-16 -2.810133031528196e-17 1.3547592733841336e-16 0.48073572772342105 -0.8768655313615895
12670368000.0 0.4700986720570972 -0.8826138671752016 -2.6444174104694896e-17 1.3578165639729232e-16 -2.6444174104694896e-17 1.3578165639729232e-16 0.47009928413299007 -0.8826135411704608
