! Parameters = {f0=12700.012000; bw=77.238000; Q=6100.000000; N=10; m_0_1=1.326622; m_1_1=1.134579; m_1_2=1.161434; m_2_2=1.133930; m_2_3=0.798397; m_2_8=0.003395; m_2_9=0.040099; m_3_3=1.131993; m_3_4=0.686926; m_3_7=0.003995; m_3_8=-0.093093; m_3_9=0.003395; m_4_4=1.129068; m_4_5=0.523261; m_4_6=0.007512; m_4_7=-0.113642; m_4_8=0.003995; m_5_5=1.129450; m_5_6=0.930616; m_5_7=0.007512; m_6_6=1.129449; m_6_7=0.523603; m_7_7=1.129082; m_7_8=0.687044; m_8_8=1.131991; m_8_9=0.798710; m_9_9=1.133925; m_9_10=1.162512; m_10_10=1.134569; m_10_11=1.327417}
!
! Created with skrf (http://scikit-rf.org).
# Hz S RI R 50.0 
!freq ReS11 ImS11 ReS21 ImS21 ReS12 ImS12 ReS22 ImS22
12607400000.0 -0.4389740655065211 -0.898499732783758 9.69600998652494e-17 1.0566465438548988e-16 9.69600998652494e-17 1.0566465438548988e-16 -0.4389734376028525 -0.8985000395542236
12608017333.333334 -0.44989999233324224 -0.893078942142494 9.823165742044908e-17 1.0444505055582599e-16 9.823165742044908e-17 1.0444505055582599e-16 -0.44989936824836557 -0.8930792565329959
12608634666.666666 -0.46075899165301964 -0.8875252963215753 9.948789085955094e-17 1.0321016024439275e-16 9.948789085955094e-17 1.0321016024439275e-16 -0.4607583714793957 -0.8875256182846003
12609252000.0 -0.4715494480719513 -0.8818396214861549 1.0072861660210316e-16 1.019601757967664e-16 1.0072861660210316e-16 1.019601757967664e-16 -0.4715488319014504 -0.8818399509730688
12609869333.333334 -0.48226975639266245 -0.8760227634421202 1.0195365347954224e-16 1.006952917608037e-16 1.0195365347954224e-16 1.006952917608037e-16 -0.4822691443165503 -0.8760231004031741
12610486666.666666 -0.4929183218529709 -0.8700755875103368 1.0316282276156782e-16 9.94157048564419e-17 1.0316282276156782e-16 9.94157048564419e-17 -0.4929177139618951 -0.8700759318946749
12611104000.0 -0.5034935603633993 -0.8639989783977734 1.04355948182185e-16 9.812161394513643e-17 1.04355948182185e-16 9.812161394513643e-17 -0.5034929567473757 -0.8639993301534398
12611721333.333334 -0.5139938987424766 -0.8577938400660824 1.055328559652941e-16 9.681321999906054e-17 1.055328559652941e-16 9.681321999906054e-17 -0.5139932994908774 -0.8577941991400319
12612338666.666666 -0.5244177749510174 -0.8514610955969931 1.0669337484995959e-16 9.549072606993121e-17 1.0669337484995959e-16 9.549072606993121e-17 -0.5244171801525557 -0.8514614619350948
12612956000.0 -0.5347636383244858 -0.8450016870549826 1.0783733611527711e-16 9.415433725754424e-17 1.0783733611527711e-16 9.415433725754424e-17 -0.5347630480672044 -0.8450020606020319
12613573333.333334 -0.5450299498034583 -0.8384165753472718 1.0896457360478353e-16 9.280426067808606e-17 1.0896457360478353e-16 9.280426067808606e-17 -0.5450293641747158 -0.838416956046997
12614190666.666666 -0.5552151821628174 -0.8317067400807309 1.1007492375057641e-16 9.144070543203579e-17 1.1007492375057641e-16 9.144070543203579e-17 -0.5552146012492755 -0.8317071278758017
12614808000.0 -0.5653178202388224 -0.8248731794162266 1.1116822559695086e-16 9.006388257187031e-17 1.1116822559695086e-16 9.006388257187031e-17 -0.5653172441264321 -0.8248735742482622
12615425333.333334 -0.5753363611545279 -0.8179169099201173 1.1224432082366736e-16 8.867400506945251e-17 1.1224432082366736e-16 8.867400506945251e-17 -0.5753357899285186 -0.817917311729697
12616042666.666666 -0.5852693145433578 -0.8108389664130333 1.1330305376880647e-16 8.727128778314805e-17 1.1330305376880647e-16 8.727128778314805e-17 -0.5852687482882228 -0.8108393751397032
12616660000.0 -0.5951152027708081 -0.8036404018159294 1.1434427145121369e-16 8.585594742467057e-17 1.1434427145121369e-16 8.585594742467057e-17 -0.5951146415702938 -0.8036408173982132
12617277333.333334 -0.6048725611542874 -0.7963222869934391 1.1536782359253356e-16 8.442820252565686e-17 1.1536782359253356e-16 8.442820252565686e-17 -0.6048720050913798 -0.796322709368847
12617894666.666666 -0.6145399381808901 -0.7888857105946557 1.1637356263881354e-16 8.29882734040007e-17 1.1637356263881354e-16 8.29882734040007e-17 -0.6145393873378032 -0.7888861396996938
12618512000.0 -0.6241158957235736 -0.7813317788909968 1.173613437817256e-16 8.15363821298772e-17 1.173613437817256e-16 8.15363821298772e-17 -0.624115350181736 -0.7813322146611748
12619129333.333334 -0.6335990092547781 -0.7736616156118717 1.18331024979307e-16 8.007275249159886e-17 1.18331024979307e-16 8.007275249159886e-17 -0.6335984690948231 -0.7736620579817158
12619746666.666666 -0.6429878680585679 -0.7658763617773467 1.1928246697633188e-16 7.859760996114679e-17 1.1928246697633188e-16 7.859760996114679e-17 -0.6429873333603195 -0.7658768106804072
12620364000.0 -0.652281075440487 -0.757977175528399 1.2021553332423025e-16 7.711118165949333e-17 1.2021553332423025e-16 7.711118165949333e-17 -0.6522805462829493 -0.7579776308972609
12620981333.333334 -0.6614772489351362 -0.7499652319547967 1.2113009040055661e-16 7.561369632172121e-17 1.2113009040055661e-16 7.561369632172121e-17 -0.6614767253964812 -0.7499656937210895
12621598666.666666 -0.6705750205120482 -0.7418417229201081 1.2202600742806694e-16 7.410538426184807e-17 1.2202600742806694e-16 7.410538426184807e-17 -0.670574502669605 -0.7418421910145173
12622216000.0 -0.6795730367790884 -0.7336078568844908 1.2290315649332517e-16 7.258647733747722e-17 1.2290315649332517e-16 7.258647733747722e-17 -0.679572524709331 -0.733608331236767
12622833333.333334 -0.6884699591838498 -0.7252648587248641 1.2376141256488593e-16 7.105720891420562e-17 1.2376141256488593e-16 7.105720891420562e-17 -0.688469452962385 -0.725265339263833
12623450666.666666 -0.6972644642126096 -0.7168139695528476 1.2460065351102383e-16 6.95178138298398e-17 1.2460065351102383e-16 6.95178138298398e-17 -0.6972639639141683 -0.7168144562064227
12624068000.0 -0.7059552435874282 -0.708256446529944 1.2542076011703532e-16 6.796852835837114e-17 1.2542076011703532e-16 6.796852835837114e-17 -0.7059547492858523 -0.7082569392251357
12624685333.333334 -0.714541004460802 -0.699593562680473 1.2622161610208556e-16 6.640959017376276e-17 1.2622161610208556e-16 6.640959017376276e-17 -0.7145405162290343 -0.6995940613434002
12625302666.666666 -0.7230204696076088 -0.6908266067025799 1.2700310813558686e-16 6.484123831357969e-17 1.2700310813558686e-16 6.484123831357969e-17 -0.723019987517682 -0.6908271112584816
12625920000.0 -0.7313923776156103 -0.6819568827760248 1.2776512585317044e-16 6.326371314233637e-17 1.2776512585317044e-16 6.326371314233637e-17 -0.7313919017386367 -0.6819573931492705
12626537333.333334 -0.7396554830727212 -0.6729857103685547 1.2850756187215254e-16 6.167725631476407e-17 1.2850756187215254e-16 6.167725631476407e-17 -0.7396550134788815 -0.6729862264826554
12627154666.666666 -0.7478085567524186 -0.6639144240394791 1.2923031180658106e-16 6.008211073882535e-17 1.2923031180658106e-16 6.008211073882535e-17 -0.7478080935109523 -0.6639149458170999
12627772000.0 -0.7558503857967162 -0.6547443732410106 1.2993327428182187e-16 5.847852053855301e-17 1.2993327428182187e-16 5.847852053855301e-17 -0.7558499289759112 -0.6547449006039816
12628389333.333334 -0.7637797738963235 -0.6454769221178165 1.3061635094865406e-16 5.686673101679484e-17 1.3061635094865406e-16 5.686673101679484e-17 -0.763779323563506 -0.6454774549871447
12629006666.666666 -0.7715955414688918 -0.6361134493037669 1.3127944649694897e-16 5.524698861768693e-17 1.3127944649694897e-16 5.524698861768693e-17 -0.7715950976904166 -0.6361139875996479
12629624000.0 -0.7792965258342855 -0.6266553477170841 1.319224686688449e-16 5.3619540889066676e-17 1.319224686688449e-16 5.3619540889066676e-17 -0.7792960886755258 -0.6266558913589144
12630241333.333334 -0.7868815813876551 -0.6171040243530028 1.3254532827148184e-16 5.1984636444670126e-17 1.3254532827148184e-16 5.1984636444670126e-17 -0.7868811509129915 -0.6171045732593904
12630858666.666666 -0.7943495797697465 -0.6074609000745935 1.3314793918925198e-16 5.034252492622884e-17 1.3314793918925198e-16 5.034252492622884e-17 -0.7943491560425611 -0.6074614541633722
12631476000.0 -0.8016994100349558 -0.5977274094011511 1.3373021839560517e-16 4.8693456965361905e-17 1.3373021839560517e-16 4.8693456965361905e-17 -0.8016989931176207 -0.5977279685893925
12632093333.333334 -0.8089299788163808 -0.587905000295062 1.342920859643489e-16 4.703768414542437e-17 1.342920859643489e-16 4.703768414542437e-17 -0.8089295687702479 -0.5879055644990858
12632710666.666666 -0.816040210488495 -0.5779951339463854 1.348334650805051e-16 4.537545896315552e-17 1.348334650805051e-16 4.537545896315552e-17 -0.8160398073738886 -0.5779957030817743
12633328000.0 -0.8230290473274069 -0.5679992845551393 1.3535428205068866e-16 4.370703479020711e-17 1.3535428205068866e-16 4.370703479020711e-17 -0.823028651203614 -0.5679998585367501
12633945333.333334 -0.8298954496678881 -0.5579189391124324 1.3585446631299482e-16 4.2032665834608955e-17 1.3585446631299482e-16 4.2032665834608955e-17 -0.8298950605931515 -0.5579195178544105
12634562666.666666 -0.8366383960582077 -0.5477555971790319 1.3633395044642762e-16 4.0352607102069486e-17 1.3633395044642762e-16 4.0352607102069486e-17 -0.8366380140897142 -0.5477561805948218
12635180000.0 -0.8432568834120452 -0.5375107706623303 1.3679267017984339e-16 3.866711435719416e-17 1.3679267017984339e-16 3.866711435719416e-17 -0.8432565086059205 -0.5375113586646906
12635797333.333334 -0.8497499271577437 -0.5271859835913858 1.3723056440041745e-16 3.697644408459674e-17 1.3723056440041745e-16 3.697644408459674e-17 -0.8497495595690414 -0.5271865760924008
12636414666.666666 -0.8561165613846536 -0.516782771890399 1.3764757516162704e-16 3.528085344993685e-17 1.3764757516162704e-16 3.528085344993685e-17 -0.8561162010673486 -0.5167833688014924
12637032000.0 -0.8623558389870052 -0.506302683149939 1.3804364769076183e-16 3.358060026083068e-17 1.3804364769076183e-16 3.358060026083068e-17 -0.8623554859939851 -0.5063032843818871
12637649333.333334 -0.8684668318046758 -0.4957472763969133 1.3841873039594432e-16 3.1875942927719406e-17 1.3841873039594432e-16 3.1875942927719406e-17 -0.8684664861877349 -0.495747881859859
12638266666.666666 -0.8744486307612996 -0.48511812186260045 1.3877277487267194e-16 3.016714042464243e-17 1.3877277487267194e-16 3.016714042464243e-17 -0.8744482925711295 -0.4851187314660658
12638884000.0 -0.8803003459994987 -0.47441680074905834 1.391057359098747e-16 2.845445224994464e-17 1.391057359098747e-16 2.845445224994464e-17 -0.8803000152856805 -0.474417414401958
12639501333.333334 -0.8860211070132723 -0.4636449049938793 1.3941757149548932e-16 2.673813838691608e-17 1.3941757149548932e-16 2.673813838691608e-17 -0.8860207838242711 -0.463645522604535
12640118666.666666 -0.891610062777405 -0.45280403703354927 1.3970824282154469e-16 2.5018459264401798e-17 1.3970824282154469e-16 2.5018459264401798e-17 -0.8916097471605612 -0.4528046585097026
12640736000.0 -0.8970663818743362 -0.44189580956453595 1.3997771428877526e-16 2.3295675717272e-17 1.3997771428877526e-16 2.3295675717272e-17 -0.8970660738758591 -0.44189643481336227
12641353333.333334 -0.9023892526174028 -0.4309218453042434 1.4022595351072385e-16 2.1570048947005983e-17 1.4022595351072385e-16 2.1570048947005983e-17 -0.9023889522823647 -0.4309224742323667
12641970666.666666 -0.9075778831719875 -0.41988377674883065 1.4045293131738609e-16 1.9841840482056694e-17 1.4045293131738609e-16 1.9841840482056694e-17 -0.9075775905443165 -0.4198844092623364
12642588000.0 -0.9126315016731218 -0.40878324593074117 1.4065862175834914e-16 1.8111312138305088e-17 1.4065862175834914e-16 1.8111312138305088e-17 -0.9126312167955932 -0.40878388193518994
12643205333.333334 -0.9175493563403282 -0.3976219041743789 1.4084300210545022e-16 1.6378725979442664e-17 1.4084300210545022e-16 1.6378725979442664e-17 -0.9175490792545632 -0.3976225435748226
12643822666.666666 -0.9223307155895114 -0.3864014118503567 1.4100605285494912e-16 1.4644344277320056e-17 1.4100605285494912e-16 1.4644344277320056e-17 -0.9223304463359666 -0.3864020545513505
12644440000.0 -0.9269748681417245 -0.37512343812862436 1.4114775772920925e-16 1.2908429472315783e-17 1.4114775772920925e-16 1.2908429472315783e-17 -0.9269746067596885 -0.37512408403424236
12645057333.333334 -0.9314811231289977 -0.36378966073013846 1.412681036778954e-16 1.1171244133667052e-17 1.412681036778954e-16 1.1171244133667052e-17 -0.9314808696565824 -0.3637903097439866
12645674666.666666 -0.9358488101971082 -0.3524017656772819 1.413670808786806e-16 9.43305091982458e-18 1.413670808786806e-16 9.43305091982458e-18 -0.935848564671246 -0.3524024177025134
12646292000.0 -0.9400772796053766 -0.3409614470428644 1.4144468273747263e-16 7.694112538717137e-18 1.4144468273747263e-16 7.694112538717137e-18 -0.9400770420618151 -0.34096210198219434
12646909333.333334 -0.9441659023231893 -0.329470406698456 1.4150090588814173e-16 5.954691708208944e-18 1.4150090588814173e-16 5.954691708208944e-18 -0.9441656727964856 -0.3294710644541757
12647526666.666666 -0.9481140701236791 -0.31793035406095044 1.4153575019177391e-16 4.215051116358004e-18 1.4153575019177391e-16 4.215051116358004e-18 -0.9481138486471922 -0.31793101453494105
12648144000.0 -0.951921195674184 -0.30634300583829405 1.415492187354289e-16 2.475453381843145e-18 1.415492187354289e-16 2.475453381843145e-18 -0.951920982280075 -0.3063436689320428
12648761333.333334 -0.9555867126236001 -0.29471008577419006 1.4154131783041593e-16 7.361610143647712e-19 1.4154131783041593e-16 7.361610143647712e-19 -0.9555865073428227 -0.2947107513888035
12649378666.666666 -0.9591100756865956 -0.28303332439178047 1.4151205701008341e-16 -1.0025636249144787e-18 1.4151205701008341e-16 -1.0025636249144787e-18 -0.9591098785488941 -0.28303399242800004
12649996000.0 -0.9624907607248222 -0.27131445873591425 1.4146144902712237e-16 -2.7404583629153673e-18 1.4146144902712237e-16 -2.7404583629153673e-18 -0.9624905717587281 -0.2713151290941311
12650613333.333334 -0.9657282648248274 -0.25955523211493275 1.4138950985038585e-16 -4.4772612541157016e-18 1.4138950985038585e-16 -4.4772612541157016e-18 -0.9657280840576524 -0.25955590469520207
12651230666.666666 -0.968822106372846 -0.247757393841416 1.41296258661226e-16 -6.212710619946165e-18 1.41296258661226e-16 -6.212710619946165e-18 -0.968821933830679 -0.247758068543472
12651848000.0 -0.9717718251265194 -0.23592269897167925 1.4118171784934298e-16 -7.946545088246973e-18 1.4118171784934298e-16 -7.946545088246973e-18 -0.9717716608342252 -0.23592337569495084
12652465333.333334 -0.9745769822832959 -0.22405290804493666 1.410459130081575e-16 -9.678503632510247e-18 1.410459130081575e-16 -9.678503632510247e-18 -0.9745768262645075 -0.22405358668856132
12653082666.666666 -0.97723716054571 -0.21214978682140223 1.4088887292970088e-16 -1.1408325611127394e-17 1.4088887292970088e-16 -1.1408325611127394e-17 -0.9772370128228295 -0.21215046728424214
12653700000.0 -0.9797519641835241 -0.2002151060193372 1.4071062959901627e-16 -1.3135750806643024e-17 1.4071062959901627e-16 -1.3135750806643024e-17 -0.9797518247777158 -0.2002157881999935
12654317333.333334 -0.9821210190925099 -0.18825064105202488 1.4051121818809642e-16 -1.486051946473747e-17 1.4051121818809642e-16 -1.486051946473747e-17 -0.9821208880236998 -0.1882513248488531
12654934666.666666 -0.9843439728501614 -0.17625817176338032 1.4029067704932668e-16 -1.658237233331629e-17 1.4029067704932668e-16 -1.658237233331629e-17 -0.9843438501370332 -0.17625885707450567
12655552000.0 -0.9864204947681183 -0.1642394821631794 1.4004904770845724e-16 -1.8301050701424624e-17 1.4004904770845724e-16 -1.8301050701424624e-17 -0.9864203804281108 -0.16424016888651163
12656169333.333334 -0.9883502759413142 -0.15219636016191926 1.3978637485710695e-16 -2.001629643801314e-17 1.3978637485710695e-16 -2.001629643801314e-17 -0.9883501699906194 -0.15219704819516813
12656786666.666666 -0.9901330292939797 -0.14013059730456778 1.3950270634477859e-16 -2.1727852030712813e-17 1.3950270634477859e-16 -2.1727852030712813e-17 -0.9901329317475405 -0.14013128654525814
12657404000.0 -0.9917684896223244 -0.12804398850419157 1.3919809317041085e-16 -2.3435460624421687e-17 1.3919809317041085e-16 -2.3435460624421687e-17 -0.9917684004938306 -0.12804467884967857
12658021333.333334 -0.9932564136339953 -0.11593833177488713 1.3887258947345307e-16 -2.5138866059813075e-17 1.3887258947345307e-16 -2.5138866059813075e-17 -0.9932563329358838 -0.11593902312237157
12658638666.666666 -0.9945965799842503 -0.10381542796444738 1.3852625252447967e-16 -2.6837812911672605e-17 1.3852625252447967e-16 -2.6837812911672605e-17 -0.9945965077277044 -0.10381612021099132
12659256000.0 -0.995788789308927 -0.09167708048618477 1.3815914271531356e-16 -2.853204652722776e-17 1.3815914271531356e-16 -2.853204652722776e-17 -0.9957887255038712 -0.09167777352872629
12659873333.333334 -0.9968328642540596 -0.07952509505090688 1.3777132354870994e-16 -3.0221313064196116e-17 1.3777132354870994e-16 -3.0221313064196116e-17 -0.9968328089091618 -0.07952578878627585
12660490666.666666 -0.9977286495022748 -0.06736127939829857 1.373628616275637e-16 -3.1905359528767795e-17 1.373628616275637e-16 -3.1905359528767795e-17 -0.997728602624942 -0.06736197372323174
12661108000.0 -0.9984760117959126 -0.0551874430277172 1.3693382664363352e-16 -3.3583933813522835e-17 1.3693382664363352e-16 -3.3583933813522835e-17 -0.9984759733922929 -0.0551881378388738
12661725333.333334 -0.999074839956824 -0.043005396929407046 1.3648429136584846e-16 -3.525678473501283e-17 1.3648429136584846e-16 -3.525678473501283e-17 -0.9990748100318033 -0.043006092123384
12662342666.666666 -0.9995250449029295 -0.030816953314782923 1.3601433162810825e-16 -3.692366207138341e-17 1.3601433162810825e-16 -3.692366207138341e-17 -0.9995250234601335 -0.030817648788130328
12662960000.0 -0.9998265596614642 -0.018623925346985884 1.3552402631665618e-16 -3.858431659971227e-17 1.3552402631665618e-16 -3.858431659971227e-17 -0.9998265467032548 -0.018624620996222325
12663577333.333334 -0.9999793393789388 -0.006428126871127135 1.3501345735698577e-16 -4.0238500133229005e-17 1.3501345735698577e-16 -4.0238500133229005e-17 -0.9999793349064168 -0.006428822592755159
12664194666.666666 -0.999983361327814 0.005768627855541044 1.3448270970029476e-16 -4.188596555835585e-17 1.3448270970029476e-16 -4.188596555835585e-17 -0.9999833653408184 0.005767932165019584
12664812000.0 -0.9998386249098834 0.017964524433515736 1.3393187130948972e-16 -4.352646687156853e-17 1.3393187130948972e-16 -4.352646687156853e-17 -0.9998386374069896 0.017963828877584277
12665429333.333334 -0.9995451516563576 0.030157748591011835 1.3336103314473407e-16 -4.5159759216102204e-17 1.3336103314473407e-16 -4.5159759216102204e-17 -0.9995451726348796 0.030157053273123693
12666046666.666666 -0.9991029852246696 0.0423464864535705 1.3277028914857509e-16 -4.6785598918385826e-17 1.3277028914857509e-16 -4.6785598918385826e-17 -0.9991030146806604 0.04234579147713353
12666664000.0 -0.9985121913919631 0.05452892481451763 1.3215973623057505e-16 -4.8403743524443644e-17 1.3215973623057505e-16 -4.8403743524443644e-17 -0.9985122293202153 0.05452823028287882
12667281333.333334 -0.9977728580453356 0.06670325140390289 1.3152947425157187e-16 -5.0013951835890416e-17 1.3152947425157187e-16 -5.0013951835890416e-17 -0.9977729044393802 0.06670255742033288
12667898666.666666 -0.9968850951687358 0.07886765515869046 1.3087960600743535e-16 -5.16159839459079e-17 1.3087960600743535e-16 -5.16159839459079e-17 -0.9968851500208473 0.07886696182636846
12668516000.0 -0.9958490348266112 0.09102032649203261 1.3021023721241283e-16 -5.320960127493672e-17 1.3021023721241283e-16 -5.320960127493672e-17 -0.9958490981278059 0.0910196339140308
12669133333.333334 -0.9946648311442774 0.10315945756223843 1.2952147648206973e-16 -5.479456660608814e-17 1.2952147648206973e-16 -5.479456660608814e-17 -0.9946649028843163 0.10315876584150686
12669750666.666666 -0.9933326602849687 0.1152832425419934 1.2881343531574107e-16 -5.637064412047673e-17 1.2881343531574107e-16 -5.637064412047673e-17 -0.9933327404523578 0.11528255178134443
