! Parameters = {f0=12700.012000; bw=77.238000; Q=6100.000000; N=10; m_0_1=1.295390; m_1_1=0.666110; m_1_2=1.130202; m_2_2=0.665461; m_2_3=0.767165; m_2_8=0.001833; m_2_9=0.038537; m_3_3=0.663524; m_3_4=0.655694; m_3_7=0.002433; m_3_8=-0.094655; m_3_9=0.001833; m_4_4=0.660599; m_4_5=0.492029; m_4_6=0.005950; m_4_7=-0.115204; m_4_8=0.002433; m_5_5=0.660981; m_5_6=0.899384; m_5_7=0.005950; m_6_6=0.660980; m_6_7=0.492371; m_7_7=0.660613; m_7_8=0.655812; m_8_8=0.663522; m_8_9=0.767478; m_9_9=0.665456; m_9_10=1.131280; m_10_10=0.666100; m_10_11=1.296185}
!
! Created with skrf (http://scikit-rf.org).
# Hz S RI R 50.0 
!freq ReS11 ImS11 ReS21 ImS21 ReS12 ImS12 ReS22 ImS22
12607400000.0 -0.4223856021966377 -0.9064162416113255 8.24646298258741e-17 9.325194757831559e-17 8.24646298258741e-17 9.325194757831559e-17 -0.4223849836205053 -0.9064165298645659
12608017333.333334 -0.4325770771907661 -0.9015969566768239 8.350248066900623e-17 9.22908895926555e-17 8.350248066900623e-17 9.22908895926555e-17 -0.4325764619336348 -0.9015972518706982
12608634666.666666 -0.4427135752394072 -0.896663086280772 8.452914471326202e-17 9.131829294936804e-17 8.452914471326202e-17 9.131829294936804e-17 -0.442712963379142 -0.8966633883770848
12609252000.0 -0.4527938080781633 -0.8916152574770638 8.554449381404209e-17 9.033428771314007e-17 8.554449381404209e-17 9.033428771314007e-17 -0.4527931996921905 -0.8916155664367487
12609869333.333334 -0.46281649459350405 -0.8864541118027476 8.654840133729398e-17 8.933900537015772e-17 8.654840133729398e-17 8.933900537015772e-17 -0.46281588975879984 -0.8864544275858665
12610486666.666666 -0.4727803609853802 -0.8811803051965872 8.754074217524126e-17 8.833257881060133e-17 8.754074217524126e-17 8.833257881060133e-17 -0.47277975977846315 -0.881180627762342
12611104000.0 -0.48268414092957 -0.8757945079154701 8.852139276195083e-17 8.731514231092725e-17 8.852139276195083e-17 8.731514231092725e-17 -0.48268354342648934 -0.8757948372222027
12611721333.333334 -0.49252657573806385 -0.8702974044495108 8.949023108865506e-17 8.628683151601758e-17 8.949023108865506e-17 8.628683151601758e-17 -0.49252598201439085 -0.8702977404547112
12612338666.666666 -0.5023064145194598 -0.8646896934348312 9.044713671890372e-17 8.5247783421122e-17 9.044713671890372e-17 8.5247783421122e-17 -0.5023058246502784 -0.8646900360951429
12612956000.0 -0.5120224143378636 -0.8589720875648063 9.139199080348277e-17 8.419813635365824e-17 9.139199080348277e-17 8.419813635365824e-17 -0.512021828397761 -0.8589724368360316
12613573333.333334 -0.521673340370563 -0.8531453134996612 9.232467609512297e-17 8.313802995484801e-17 9.232467609512297e-17 8.313802995484801e-17 -0.5216727584336183 -0.8531456693367646
12614190666.666666 -0.5312579660653539 -0.8472101117738862 9.324507696301957e-17 8.206760516116444e-17 9.324507696301957e-17 8.206760516116444e-17 -0.5312573882051308 -0.847210474131003
12614808000.0 -0.5407750732962289 -0.841167236702236 9.415307940710198e-17 8.09870041856586e-17 9.415307940710198e-17 8.09870041856586e-17 -0.5407744995857665 -0.8411676055326784
12615425333.333334 -0.550223452518145 -0.8350174562838963 9.50485710721234e-17 7.989637049908978e-17 9.50485710721234e-17 7.989637049908978e-17 -0.5502228830299478 -0.8350178315401587
12616042666.666666 -0.5596019029209146 -0.8287615521047711 9.593144126150863e-17 7.879584881092666e-17 9.593144126150863e-17 7.879584881092666e-17 -0.5596013377269421 -0.8287619337385334
12616660000.0 -0.5689092325816238 -0.8224003192382675 9.680158095098301e-17 7.76855850501967e-17 9.680158095098301e-17 7.76855850501967e-17 -0.5689086717532849 -0.8224007072004069
12617277333.333334 -0.5781442586163119 -0.8159345661441315 9.765888280200285e-17 7.656572634615838e-17 9.765888280200285e-17 7.656572634615838e-17 -0.5781437022244518 -0.8159349603847236
12617894666.666666 -0.587305807330112 -0.8093651145658197 9.85032411749294e-17 7.54364210088671e-17 9.85032411749294e-17 7.54364210088671e-17 -0.587305255445006 -0.8093655150341483
12618512000.0 -0.5963927143666077 -0.802692799425937 9.933455214201364e-17 7.42978185095521e-17 9.933455214201364e-17 7.42978185095521e-17 -0.5963921670579517 -0.8026932060704991
12619129333.333334 -0.6054038248556265 -0.7959184687202543 1.0015271350012084e-16 7.315006946089613e-17 1.0015271350012084e-16 7.315006946089613e-17 -0.6054032821925278 -0.7959188814887675
12619746666.666666 -0.6143379935601775 -0.789042983409822 1.0095762478325933e-16 7.199332559713321e-17 1.0095762478325933e-16 7.199332559713321e-17 -0.6143374556111459 -0.7890434022492296
12620364000.0 -0.6231940850219279 -0.7820672173115935 1.0174918727485867e-16 7.082773975403733e-17 1.0174918727485867e-16 7.082773975403733e-17 -0.6231935518548682 -0.782067642168074
12620981333.333334 -0.6319709737054698 -0.77499205698741 1.0252730401981882e-16 6.965346584877801e-17 1.0252730401981882e-16 6.965346584877801e-17 -0.6319704453876719 -0.7749924878063814
12621598666.666666 -0.640667544141411 -0.7678184016312912 1.0329187983634594e-16 6.847065885961423e-17 1.0329187983634594e-16 6.847065885961423e-17 -0.6406670207395417 -0.7678188383574194
12622216000.0 -0.6492826910681827 -0.7605471629551156 1.0404282132752592e-16 6.727947480550356e-17 1.0404282132752592e-16 6.727947480550356e-17 -0.6492821726482788 -0.7605476055323217
12622833333.333334 -0.6578153195724912 -0.7531792650727712 1.0478003689269583e-16 6.608007072553509e-17 1.0478003689269583e-16 6.608007072553509e-17 -0.6578148061999477 -0.7531797134442366
12623450666.666666 -0.6662643452283145 -0.745715644382832 1.0550343673853925e-16 6.487260465830084e-17 1.0550343673853925e-16 6.487260465830084e-17 -0.6662638369678812 -0.7457160984910098
12624068000.0 -0.6746286942349693 -0.738157249449354 1.0621293288998949e-16 6.365723562107513e-17 1.0621293288998949e-16 6.365723562107513e-17 -0.674628191150739 -0.738157709235973
12624685333.333334 -0.6829073035535316 -0.7305050408813493 1.0690843920086621e-16 6.243412358891651e-17 1.0690843920086621e-16 6.243412358891651e-17 -0.6829068057089315 -0.7305055062874207
12625302666.666666 -0.6910991210416669 -0.7227599912109496 1.0758987136425467e-16 6.120342947368928e-17 1.0758987136425467e-16 6.120342947368928e-17 -0.6910986284994544 -0.7227604621767784
12625920000.0 -0.6992031055878121 -0.7149230847693866 1.0825714692270264e-16 5.996531510286811e-17 1.0825714692270264e-16 5.996531510286811e-17 -0.6992026184100636 -0.7149235612345761
12626537333.333334 -0.7072182272430331 -0.7069953175623148 1.0891018527810777e-16 5.871994319834855e-17 1.0891018527810777e-16 5.871994319834855e-17 -0.707217745491137 -0.7069957994657754
12627154666.666666 -0.7151434673521934 -0.6989776971429771 1.0954890770139738e-16 5.746747735509014e-17 1.0954890770139738e-16 5.746747735509014e-17 -0.7151429910868426 -0.6989781844229339
12627772000.0 -0.722977818683472 -0.690871242484087 1.1017323734197634e-16 5.62080820196262e-17 1.1017323734197634e-16 5.62080820196262e-17 -0.7229773479646571 -0.6908717350780887
12628389333.333334 -0.7307202855560374 -0.6826769838486729 1.1078309923688083e-16 5.494192246856611e-17 1.1078309923688083e-16 5.494192246856611e-17 -0.7307198204430372 -0.6826774816935979
12629006666.666666 -0.7383698839670055 -0.6743959626587105 1.1137842031974057e-16 5.3669164786889197e-17 1.1137842031974057e-16 5.3669164786889197e-17 -0.7383694245183814 -0.6743964656907769
12629624000.0 -0.7459256417162219 -0.666029231363054 1.1195912942944314e-16 5.2389975846243483e-17 1.1195912942944314e-16 5.2389975846243483e-17 -0.7459251879898097 -0.6660297395178271
12630241333.333334 -0.7533865985298799 -0.6575778533036177 1.1252515731859154e-16 5.110452328306292e-17 1.1252515731859154e-16 5.110452328306292e-17 -0.7533861505827825 -0.6575783665160178
12630858666.666666 -0.7607518061825678 -0.6490429025802364 1.1307643666167207e-16 4.981297547668065e-17 1.1307643666167207e-16 4.981297547668065e-17 -0.7607513640711473 -0.6490434207845469
12631476000.0 -0.7680203286179218 -0.6404254639139804 1.1361290206301598e-16 4.851550152725179e-17 1.1361290206301598e-16 4.851550152725179e-17 -0.7680198923977939 -0.6404259870438569
12632093333.333334 -0.7751912420673004 -0.6317266325096437 1.1413449006446206e-16 4.721227123370195e-17 1.1413449006446206e-16 4.721227123370195e-17 -0.775190811793326 -0.6317271604981227
12632710666.666666 -0.782263635167425 -0.6229475139162713 1.1464113915279286e-16 4.590345507153272e-17 1.1464113915279286e-16 4.590345507153272e-17 -0.7822632108937059 -0.6229480466957792
12633328000.0 -0.7892366090761531 -0.6140892238867196 1.151327897669264e-16 4.458922417052224e-17 1.151327897669264e-16 4.458922417052224e-17 -0.7892361908560213 -0.6140897613890788
12633945333.333334 -0.7961092775866734 -0.605152888235892 1.1560938430482247e-16 4.326975029242832e-17 1.1560938430482247e-16 4.326975029242832e-17 -0.7961088654726871 -0.6051534303923328
12634562666.666666 -0.8028807672401755 -0.5961396426976189 1.160708671301592e-16 4.1945205808553644e-17 1.160708671301592e-16 4.1945205808553644e-17 -0.8028803612841117 -0.596140189438786
12635180000.0 -0.8095502174367862 -0.5870506327804013 1.1651718457873835e-16 4.0615763677280176e-17 1.1651718457873835e-16 4.0615763677280176e-17 -0.8095498176896343 -0.5870511840363639
12635797333.333334 -0.8161167805450842 -0.5778870136216471 1.1694828496464912e-16 3.928159742149394e-17 1.1694828496464912e-16 3.928159742149394e-17 -0.8161163870570391 -0.5778875693219074
12636414666.666666 -0.8225796220096214 -0.5686499498411351 1.1736411858615134e-16 3.794288110601187e-17 1.1736411858615134e-16 3.794288110601187e-17 -0.8225792348300796 -0.5686505099146382
12637032000.0 -0.8289379204572109 -0.5593406153927064 1.1776463773132838e-16 3.659978931486459e-17 1.1776463773132838e-16 3.659978931486459e-17 -0.82893753963476 -0.5593411797678471
12637649333.333334 -0.8351908678011929 -0.5499601934152211 1.1814979668345853e-16 3.525249712858754e-17 1.1814979668345853e-16 3.525249712858754e-17 -0.8351904933836091 -0.5499607620198556
12638266666.666666 -0.8413376693441085 -0.5405098760822413 1.1851955172613335e-16 3.390118010144038e-17 1.1851955172613335e-16 3.390118010144038e-17 -0.8413373013783497 -0.5405104488436954
12638884000.0 -0.847377543878796 -0.5309908644503754 1.1887386114812393e-16 3.254601423854746e-17 1.1887386114812393e-16 3.254601423854746e-17 -0.8473771824109941 -0.5309914412954526
12639501333.333334 -0.8533097237876368 -0.521404368306676 1.19212685247977e-16 3.11871759730155e-17 1.19212685247977e-16 3.11871759730155e-17 -0.8533093688630953 -0.5214049491616697
12640118666.666666 -0.8591334551399874 -0.51175160601511 1.1953598633834633e-16 2.982484214302924e-17 1.1953598633834633e-16 2.982484214302924e-17 -0.8591331068031721 -0.5117521908058097
12640736000.0 -0.8648479977883315 -0.5020338043611519 1.1984372875008738e-16 2.8459189968798316e-17 1.1984372875008738e-16 2.8459189968798316e-17 -0.8648476560828681 -0.502034393012855
12641353333.333334 -0.8704526254618812 -0.49225219839665074 1.2013587883604973e-16 2.7090397029630308e-17 1.2013587883604973e-16 2.7090397029630308e-17 -0.8704522904305477 -0.492252790834171
12641970666.666666 -0.8759466258592857 -0.4824080312821811 1.2041240497464394e-16 2.571864124081356e-17 1.2041240497464394e-16 2.571864124081356e-17 -0.8759462975440082 -0.48240862742985885
12642588000.0 -0.8813293007389706 -0.4725025541293658 1.2067327757312768e-16 2.4344100830540374e-17 1.2067327757312768e-16 2.4344100830540374e-17 -0.8813289791808174 -0.47250315391107695
12643205333.333334 -0.8865999660078538 -0.462537025841921 1.2091846907062996e-16 2.296695431679551e-17 1.2091846907062996e-16 2.296695431679551e-17 -0.8865996512470302 -0.4625376291810871
12643822666.666666 -0.8917579518084221 -0.45251271295540957 1.2114795394091793e-16 2.15873804841855e-17 1.2114795394091793e-16 2.15873804841855e-17 -0.8917576438842664 -0.45251331977500775
12644440000.0 -0.8968026026037568 -0.4424308894764753 1.2136170869489102e-16 2.0205558360794217e-17 1.2136170869489102e-16 2.0205558360794217e-17 -0.8968023015547342 -0.442431499699048
12645057333.333334 -0.9017332772608243 -0.43229283672097935 1.2155971188282138e-16 1.882166719495747e-17 1.2155971188282138e-16 1.882166719495747e-17 -0.9017329831245217 -0.43229345026864346
12645674666.666666 -0.906549349132035 -0.4220998431510034 1.2174194409632113e-16 1.7435886432073498e-17 1.2174194409632113e-16 1.7435886432073498e-17 -0.9065490619451584 -0.4221004599454615
12646292000.0 -0.9112502061349321 -0.4118532042109931 1.2190838797005678e-16 1.6048395691320935e-17 1.2190838797005678e-16 1.6048395691320935e-17 -0.9112499259333003 -0.41185382417354255
12646909333.333334 -0.9158352508297883 -0.40155422216352915 1.220590281831848e-16 1.4659374742467386e-17 1.220590281831848e-16 1.4659374742467386e-17 -0.9158349776483294 -0.4015548452150728
12647526666.666666 -0.9203039004957287 -0.39120420592340943 1.2219385146053378e-16 1.3269003482587903e-17 1.2219385146053378e-16 1.3269003482587903e-17 -0.9203036343684748 -0.3912048319844648
12648144000.0 -0.9246555872047386 -0.3808044708913979 1.2231284657352065e-16 1.1877461912783044e-17 1.2231284657352065e-16 1.1877461912783044e-17 -0.9246553281648219 -0.38080509988210787
12648761333.333334 -0.9288897578937643 -0.37035633878723134 1.224160043407979e-16 1.0484930114934232e-17 1.224160043407979e-16 1.0484930114934232e-17 -0.928889505973413 -0.3703569706273744
12649378666.666666 -0.9330058744350804 -0.3598611374814569 1.2250331762863882e-16 9.091588228443998e-18 1.2250331762863882e-16 9.091588228443998e-18 -0.9330056296656157 -0.3598617720904575
12649996000.0 -0.9370034137046548 -0.3493202008267515 1.2257478135106187e-16 7.697616426929055e-18 1.2257478135106187e-16 7.697616426929055e-18 -0.9370031761164846 -0.3493208381236896
12650613333.333334 -0.9408818676486737 -0.338734868488264 1.2263039246968537e-16 6.3031948949772334e-18 1.2263039246968537e-16 6.3031948949772334e-18 -0.9408816372712923 -0.3387355083918863
12651230666.666666 -0.944640743348002 -0.32810648577367785 1.2267014999332017e-16 4.908503804915654e-18 1.2267014999332017e-16 4.908503804915654e-18 -0.9446405202099827 -0.3281071282024074
12651848000.0 -0.9482795630809884 -0.31743640346177776 1.2269405497730027e-16 3.5137232935092964e-18 1.2269405497730027e-16 3.5137232935092964e-18 -0.9482793472099823 -0.31743704833372477
12652465333.333334 -0.9517978643840644 -0.30672597763109755 1.2270211052254636e-16 2.1190334387709137e-18 1.2270211052254636e-16 2.1190334387709137e-18 -0.951797655806797 -0.30672662486406993
12653082666.666666 -0.955195200110499 -0.29597656948765755 1.2269432177436789e-16 7.24614236756182e-19 1.2269432177436789e-16 7.24614236756182e-19 -0.9551949988527655 -0.29597721899917095
12653700000.0 -0.9584711384873644 -0.2851895451915325 1.2267069592100112e-16 -6.693544216877697e-19 1.2267069592100112e-16 -6.693544216877697e-19 -0.9584709445740281 -0.28519019689882125
12654317333.333334 -0.9616252631702654 -0.27436627568368493 1.2263124219188494e-16 -2.0626927740361144e-18 1.2263124219188494e-16 -2.0626927740361144e-18 -0.9616250766252527 -0.27436692950371216
12654934666.666666 -0.9646571732963136 -0.2635081365115405 1.2257597185567266e-16 -3.4552212092581992e-18 1.2257597185567266e-16 -3.4552212092581992e-18 -0.9646569941426127 -0.263508792361009
12655552000.0 -0.9675664835351176 -0.25261650765400245 1.2250489821798178e-16 -4.846760290957296e-18 1.2250489821798178e-16 -4.846760290957296e-18 -0.9675663117947761 -0.2526171654493655
12656169333.333334 -0.9703528241376665 -0.2416927733463971 1.2241803661888357e-16 -6.237130780416124e-18 1.2241803661888357e-16 -6.237130780416124e-18 -0.9703526598317862 -0.24169343300386856
12656786666.666666 -0.9730158409833725 -0.23073832190435659 1.2231540443012898e-16 -7.626153659674038e-18 1.2231540443012898e-16 -7.626153659674038e-18 -0.9730156841321094 -0.23073898333992193
12657404000.0 -0.9755551956250841 -0.2197545455473483 1.2219702105211386e-16 -9.013650154545826e-18 1.2219702105211386e-16 -9.013650154545826e-18 -0.975555046247645 -0.21975520867677534
12658021333.333334 -0.9779705653320915 -0.20874284022176243 1.2206290791058396e-16 -1.0399441757593095e-17 1.2206290791058396e-16 -1.0399441757593095e-17 -0.9779704234467305 -0.20874350496061173
12658638666.666666 -0.9802616431310923 -0.19770460542372045 1.2191308845308274e-16 -1.1783350251028049e-17 1.2191308845308274e-16 -1.1783350251028049e-17 -0.9802615087551109 -0.1977052716873565
12659256000.0 -0.9824281378453079 -0.18664124402076784 1.2174758814513175e-16 -1.3165197729654193e-17 1.2174758814513175e-16 -1.3165197729654193e-17 -0.9824280109950504 -0.18664191172436942
12659873333.333334 -0.9844697741314076 -0.1755541620739126 1.2156643446616074e-16 -1.4544806623660585e-17 1.2156643446616074e-16 -1.4544806623660585e-17 -0.9844696548222616 -0.17555483113248402
12660490666.666666 -0.9863862925145003 -0.16444476865901328 1.213696569051787e-16 -1.5921999721395405e-17 1.213696569051787e-16 -1.5921999721395405e-17 -0.986386180760893 -0.16444543898739475
12661108000.0 -0.9881774494211911 -0.15331447568722006 1.2115728695617645e-16 -1.7296600192149717e-17 1.2115728695617645e-16 -1.7296600192149717e-17 -0.9881773452365873 -0.15331514720009867
12661725333.333334 -0.9898430172104314 -0.14216469772614937 1.2092935811328933e-16 -1.8668431608769563e-17 1.2092935811328933e-16 -1.8668431608769563e-17 -0.9898429206073341 -0.1421653703380701
12662342666.666666 -0.9913827842025358 -0.13099685181959925 1.206859058656903e-16 -2.003731797029322e-17 1.206859058656903e-16 -2.003731797029322e-17 -0.9913826951924826 -0.13099752544497587
12662960000.0 -0.992796554706046 -0.1198123573076794 1.2042696769223248e-16 -2.1403083724500632e-17 1.2042696769223248e-16 -2.1403083724500632e-17 -0.9927964732996083 -0.11981303186080502
12663577333.333334 -0.9940841490425967 -0.10861263564648138 1.2015258305583706e-16 -2.276555379038563e-17 1.2015258305583706e-16 -2.276555379038563e-17 -0.9940840752493784 -0.10861331104153964
12664194666.666666 -0.9952454035697711 -0.09739911022725407 1.1986279339762937e-16 -2.412455358055547e-17 1.1986279339762937e-16 -2.412455358055547e-17 -0.9952453373984094 -0.09739978637833012
12664812000.0 -0.9962801707018921 -0.08617320619558756 1.1955764213081654e-16 -2.5479909023588614e-17 1.1955764213081654e-16 -2.5479909023588614e-17 -0.996280112160052 -0.08617388301667857
12665429333.333334 -0.997188318928766 -0.07493635027034484 1.1923717463431614e-16 -2.6831446586289618e-17 1.1923717463431614e-16 -2.6831446586289618e-17 -0.9971882680231445 -0.07493702767537147
12666046666.666666 -0.9979697328324092 -0.06368997056231043 1.189014382461417e-16 -2.8178993295846175e-17 1.189014382461417e-16 -2.8178993295846175e-17 -0.997969689568731 -0.06369064846512738
12666664000.0 -0.9986243131017255 -0.05243549639246185 1.1855048225651444e-16 -2.9522376761992607e-17 1.1855048225651444e-16 -2.9522376761992607e-17 -0.998624277484745 -0.052436174706869086
12667281333.333334 -0.999151976545101 -0.04117435811079741 1.1818435790076085e-16 -3.086142519895494e-17 1.1818435790076085e-16 -3.086142519895494e-17 -0.9991519485785978 -0.04117503675055081
12667898666.666666 -0.9995526561010006 -0.029907986914067996 1.1780311835192784e-16 -3.2195967447440617e-17 1.1780311835192784e-16 -3.2195967447440617e-17 -0.9995526357877842 -0.02990866579289065
12668516000.0 -0.9998263008464844 -0.01863781466411124 1.1740681871316892e-16 -3.3525832996468074e-17 1.1740681871316892e-16 -3.3525832996468074e-17 -0.9998262881883898 -0.0186384936957042
12669133333.333334 -0.9999728760036722 -0.007365273705930393 1.1699551600988765e-16 -3.4850852005094395e-17 1.1699551600988765e-16 -3.4850852005094395e-17 -0.9999728710015626 -0.007365952803983734
12669750666.666666 -0.9999923629441723 0.003908203314543491 1.1656926918162428e-16 -3.6170855324091446e-17 1.1656926918162428e-16 -3.6170855324091446e-17 -0.999992365597938 0.003907524236339742
