! Parameters = {f0=12700.012000; bw=77.238000; Q=6100.000000; N=10; m_0_1=1.329024; m_1_1=1.170615; m_1_2=1.163836; m_2_2=1.169966; m_2_3=0.800799; m_2_8=0.003515; m_2_9=0.040219; m_3_3=1.168029; m_3_4=0.689328; m_3_7=0.004115; m_3_8=-0.092973; m_3_9=0.003515; m_4_4=1.165104; m_4_5=0.525663; m_4_6=0.007632; m_4_7=-0.113522; m_4_8=0.004115; m_5_5=1.165486; m_5_6=0.933018; m_5_7=0.007632; m_6_6=1.165485; m_6_7=0.526005; m_7_7=1.165118; m_7_8=0.689446; m_8_8=1.168027; m_8_9=0.801112; m_9_9=1.169961; m_9_10=1.164914; m_10_10=1.170605; m_10_11=1.329819}
!
! Created with skrf (http://scikit-rf.org).
# Hz S RI R 50.0 
!freq ReS11 ImS11 ReS21 ImS21 ReS12 ImS12 ReS22 ImS22
12607400000.0 -0.9443971822682231 0.3288068766367988 1.177178690334676e-16 -8.458287807711753e-17 1.177178690334676e-16 -8.458287807711753e-17 -0.9443974124645466 0.32880621546752303
12608017333.333334 -0.9402924640617574 0.34036756900221177 1.1664091432278068e-16 -8.601412458774787e-17 1.1664091432278068e-16 -8.601412458774787e-17 -0.9402927023400173 0.34036691073885855
12608634666.666666 -0.9360462334205676 0.35187703661787223 1.1554657244571407e-16 -8.743167796534739e-17 1.1554657244571407e-16 -8.743167796534739e-17 -0.9360464797441135 0.3518763813592195
12609252000.0 -0.9316591293953452 0.36333354732822876 1.1443501727469462e-16 -8.883532716532181e-17 1.1443501727469462e-16 -8.883532716532181e-17 -0.9316593837263207 0.3633328951725931
12609869333.333334 -0.9271318122379383 0.37473537694779024 1.1330642524153855e-16 -9.022486334810091e-17 1.1330642524153855e-16 -9.022486334810091e-17 -0.9271320745372851 0.3747347279930114
12610486666.666666 -0.9224649633021198 0.38608080952026863 1.121609753095548e-16 -9.160007991010688e-17 1.121609753095548e-16 -9.160007991010688e-17 -0.9224652335295834 0.386080163863695
12611104000.0 -0.9176592849408394 0.39736813757732753 1.1099884894519021e-16 -9.296077251447185e-17 1.1099884894519021e-16 -9.296077251447185e-17 -0.9176595630549779 0.39736749531580173
12611721333.333334 -0.9127155004007642 0.4085956623949765 1.0982023008941164e-16 -9.430673912126759e-17 1.0982023008941164e-16 -9.430673912126759e-17 -0.912715786358951 0.4085950236248207
12612338666.666666 -0.9076343537132407 0.41976169424967097 1.0862530512861843e-16 -9.563778001749604e-17 1.0862530512861843e-16 -9.563778001749604e-17 -0.9076346474716748 0.4197610590666727
12612956000.0 -0.9024166095823507 0.4308645526725328 1.0741426286524566e-16 -9.695369784664917e-17 1.0741426286524566e-16 -9.695369784664917e-17 -0.9024169110960606 0.43086392117193045
12613573333.333334 -0.8970630532699548 0.4419025667019744 1.0618729448803573e-16 -9.825429763787147e-17 1.0618729448803573e-16 -9.825429763787147e-17 -0.8970633624928057 0.4419019389784423
12614190666.666666 -0.8915744904773715 0.452874075135486 1.0494459354187775e-16 -9.953938683483497e-17 1.0494459354187775e-16 -9.953938683483497e-17 -0.8915748073620747 0.4528734512831217
12614808000.0 -0.885951747224141 0.46377742677959094 1.0368635589738158e-16 -1.0080877532414339e-16 1.0368635589738158e-16 -1.0080877532414339e-16 -0.8859520717222575 0.4637768068918991
12615425333.333334 -0.8801956697237865 0.47461098069819424 1.0241277972004827e-16 -1.0206227546341904e-16 1.0241277972004827e-16 -1.0206227546341904e-16 -0.8801960017857384 0.47461036486807534
12616042666.666666 -0.8743071242563728 0.48537310645972037 1.0112406543914937e-16 -1.0329970210895014e-16 1.0112406543914937e-16 -1.0329970210895014e-16 -0.8743074638314466 0.48537249477945343
12616660000.0 -0.868286997038167 0.4960621843824113 9.982041571623116e-17 -1.045208726429913e-16 9.982041571623116e-17 -1.045208726429913e-16 -0.8682873440745251 0.49606157694364306
12617277333.333334 -0.8621361940882819 0.5066766057780631 9.850203541331535e-17 -1.0572560700064044e-16 9.850203541331535e-17 -1.0572560700064044e-16 -0.8621365485329692 0.5066760026717928
12617894666.666666 -0.8558556410923668 0.5172147731940588 9.716913156079576e-17 -1.0691372769629995e-16 9.716913156079576e-17 -1.0691372769629995e-16 -0.8558560028913164 0.5172141745106241
12618512000.0 -0.8494462832630858 0.5276751006541219 9.582191332493739e-17 -1.0808505984980563e-16 9.582191332493739e-17 -1.0808505984980563e-16 -0.8494466523611315 0.5276745064831868
12619129333.333334 -0.8429090851981749 0.5380560138964926 9.446059197518398e-17 -1.0923943121203758e-16 9.446059197518398e-17 -1.0923943121203758e-16 -0.8429094615390573 0.5380554243270335
12619746666.666666 -0.8362450307350238 0.5483559506112666 9.308538085103581e-17 -1.1037667219022966e-16 9.308538085103581e-17 -1.1037667219022966e-16 -0.8362454142613978 0.5483553657315575
12620364000.0 -0.8294551228026443 0.558573360675441 9.169649532870275e-17 -1.1149661587279122e-16 9.169649532870275e-17 -1.1149661587279122e-16 -0.8294555134560904 0.5585727805730429
12620981333.333334 -0.8225403832709252 0.5687067063859249 9.029415278744023e-17 -1.1259909805373163e-16 9.029415278744023e-17 -1.1259909805373163e-16 -0.8225407809919554 0.5687061311476701
12621598666.666666 -0.8155018527965722 0.5787544626913607 8.887857257558177e-17 -1.1368395725666802e-16 8.887857257558177e-17 -1.1368395725666802e-16 -0.8155022575246424 0.5787538924033416
12622216000.0 -0.8083405906666994 0.5887151174213369 8.7449975976281e-17 -1.1475103475841024e-16 8.7449975976281e-17 -1.1475103475841024e-16 -0.8083410023402172 0.5887145521688933
12622833333.333334 -0.8010576746392457 0.5985871715142014 8.600858617300159e-17 -1.15800174612094e-16 8.600858617300159e-17 -1.15800174612094e-16 -0.8010580931955775 0.5985866113819055
12623450666.666666 -0.7936542007809715 0.6083691392423882 8.455462821469793e-17 -1.1683122366990594e-16 8.455462821469793e-17 -1.1683122366990594e-16 -0.7936546261564563 0.608368584314035
12624068000.0 -0.7861312833022872 0.6180595484363184 8.308832898074738e-17 -1.1784403160535556e-16 8.308832898074738e-17 -1.1784403160535556e-16 -0.7861317154322425 0.6180589987949101
12624685333.333334 -0.778490054389681 0.6276569407057955 8.160991714557722e-17 -1.1883845093513643e-16 8.160991714557722e-17 -1.1883845093513643e-16 -0.778490493208415 0.6276563964335314
12625302666.666666 -0.7707316640353827 0.6371598716594268 8.011962314312207e-17 -1.198143370404817e-16 8.011962314312207e-17 -1.198143370404817e-16 -0.7707321094762026 0.6371593328376898
12625920000.0 -0.7628572798640768 0.6465669111222665 7.861767913089172e-17 -1.2077154818816661e-16 7.861767913089172e-17 -1.2077154818816661e-16 -0.762857731859301 0.6465663778316117
12626537333.333334 -0.754868086957465 0.6558766433507025 7.710431895392216e-17 -1.2170994555097356e-16 7.710431895392216e-17 -1.2170994555097356e-16 -0.7548685454384308 0.6558761156708444
12627154666.666666 -0.7467652876757715 0.6650876672457013 7.557977810841558e-17 -1.2262939322775105e-16 7.557977810841558e-17 -1.2262939322775105e-16 -0.7467657525728484 0.6650871452555028
12627772000.0 -0.7385501014766195 0.6741985965638624 7.404429370510694e-17 -1.2352975826303907e-16 7.404429370510694e-17 -1.2352975826303907e-16 -0.7385505727192172 0.6741980803413219
12628389333.333334 -0.7302237647318982 0.6832080601255962 7.24981044325212e-17 -1.2441091066616308e-16 7.24981044325212e-17 -1.2441091066616308e-16 -0.7302242422484785 0.6832075497478367
12629006666.666666 -0.721787530541276 0.6921147020219519 7.09414505198494e-17 -1.2527272342996035e-16 7.09414505198494e-17 -1.2527272342996035e-16 -0.7217880142593633 0.6921141975652089
12629624000.0 -0.7132426685438737 0.700917181818381 6.93745736997309e-17 -1.261150725489684e-16 6.93745736997309e-17 -1.261150725489684e-16 -0.7132431583900676 0.7009166833579927
12630241333.333334 -0.7045904647271166 0.7096141747565603 6.779771717075779e-17 -1.2693783703718686e-16 6.779771717075779e-17 -1.2693783703718686e-16 -0.7045909606270998 0.7096136823669537
12630858666.666666 -0.6958322212332698 0.7182043719536809 6.621112555979826e-17 -1.277408989453542e-16 6.621112555979826e-17 -1.277408989453542e-16 -0.6958327231118231 0.7182038857083636
12631476000.0 -0.6869692561631896 0.7266864805997156 6.461504488405539e-17 -1.2852414337778753e-16 6.461504488405539e-17 -1.2852414337778753e-16 -0.6869697639442003 0.7266860005712626
12632093333.333334 -0.6780029033783539 0.7350592241515844 6.30097225130299e-17 -1.2928745850869607e-16 6.30097225130299e-17 -1.2928745850869607e-16 -0.6780034169848287 0.7350587504116282
12632710666.666666 -0.668934512299857 0.7433213425255327 6.139540713022675e-17 -1.300307355980552e-16 6.139540713022675e-17 -1.300307355980552e-16 -0.6689350316539329 0.7433208751447514
12633328000.0 -0.6597654477052759 0.751471592286804 5.977234869464205e-17 -1.307538690070173e-16 5.977234869464205e-17 -1.307538690070173e-16 -0.6597659727282337 0.7514711313349135
12633945333.333334 -0.6504970895235294 0.7595087468365488 5.814079840217779e-17 -1.3145675621279302e-16 5.814079840217779e-17 -1.3145675621279302e-16 -0.6504976201358041 0.7595082923822903
12634562666.666666 -0.641130832626946 0.7674315965966516 5.650100864677561e-17 -1.3213929782310196e-16 5.650100864677561e-17 -1.3213929782310196e-16 -0.6411313687481395 0.7674311487077814
12635180000.0 -0.6316680866215312 0.7752389491916035 5.4853232981442165e-17 -1.328013975901119e-16 5.4853232981442165e-17 -1.328013975901119e-16 -0.6316686281704229 0.7752385079348828
12635797333.333334 -0.6221102756346255 0.7829296296281144 5.319772607910166e-17 -1.334429624238979e-16 5.319772607910166e-17 -1.334429624238979e-16 -0.6221108225291879 0.7829291950693015
12636414666.666666 -0.6124588381008459 0.7905024804717373 5.153474369329693e-17 -1.3406390240541392e-16 5.153474369329693e-17 -1.3406390240541392e-16 -0.6124593902582535 0.7905020526755742
12637032000.0 -0.6027152265452864 0.7979563620213024 4.986454261870281e-17 -1.3466413079898916e-16 4.986454261870281e-17 -1.3466413079898916e-16 -0.6027157838819303 0.7979559410515077
12637649333.333334 -0.5928809073651886 0.8052901524802344 4.8187380651549025e-17 -1.3524356406431323e-16 4.8187380651549025e-17 -1.3524356406431323e-16 -0.592881469796689 0.8052897383994939
12638266666.666666 -0.5829573606090451 0.8125027481255331 4.650351654989086e-17 -1.3580212186793528e-16 4.650351654989086e-17 -1.3580212186793528e-16 -0.5829579280502637 0.8125023409954898
12638884000.0 -0.5729460797540398 0.8195930634737498 4.481320999371391e-17 -1.3633972709428185e-16 4.481320999371391e-17 -1.3633972709428185e-16 -0.572946652119092 0.8195926633549934
12639501333.333334 -0.5628485714810715 0.8265600314444955 4.31167215449677e-17 -1.3685630585616008e-16 4.31167215449677e-17 -1.3685630585616008e-16 -0.562849148683341 0.826559638396556
12640118666.666666 -0.5526663554483309 0.8334026035208122 4.1414312607449355e-17 -1.3735178750477525e-16 4.1414312607449355e-17 -1.3735178750477525e-16 -0.5526669374004816 0.8334022176021492
12640736000.0 -0.5424009640620272 0.8401197499073526 3.970624538652746e-17 -1.3782610463926298e-16 3.970624538652746e-17 -1.3782610463926298e-16 -0.5424015506760167 0.8401193711753469
12641353333.333334 -0.5320539422465215 0.846710459684858 3.799278284891209e-17 -1.3827919311567857e-16 3.799278284891209e-17 -1.3827919311567857e-16 -0.5320545334336146 0.846710088195804
12641970666.666666 -0.5216268472111301 0.8531737409627554 3.6274188682132324e-17 -1.3871099205554047e-16 3.6274188682132324e-17 -1.3871099205554047e-16 -0.5216274428819121 0.8531733767718521
12642588000.0 -0.5111212482161966 0.8595086210281572 3.45507272540412e-17 -1.3912144385383765e-16 3.45507272540412e-17 -1.3912144385383765e-16 -0.5111218482805865 0.8595082641894987
12643205333.333334 -0.5005387263367278 0.8657141464923709 3.282266357220501e-17 -1.3951049418654175e-16 3.282266357220501e-17 -1.3951049418654175e-16 -0.5005393307039916 0.8657137970589397
12643822666.666666 -0.4898808742244186 0.8717893834343975 3.109026324320319e-17 -1.398780920176181e-16 3.109026324320319e-17 -1.398780920176181e-16 -0.4898814828031851 0.8717890414580581
12644440000.0 -0.47914929586813415 0.877733417541385 2.935379243184857e-17 -1.40224189605533e-16 2.935379243184857e-17 -1.40224189605533e-16 -0.4791499085664066 0.8777330830728737
12645057333.333334 -0.4683456063524379 0.8835453542462747 2.761351782037417e-17 -1.4054874250924754e-16 2.761351782037417e-17 -1.4054874250924754e-16 -0.4683462230776084 0.8835450273351928
12645674666.666666 -0.4574714316144765 0.889224318862462 2.586970656749744e-17 -1.4085170959371925e-16 2.586970656749744e-17 -1.4085170959371925e-16 -0.45747205227334037 0.8892239995572689
12646292000.0 -0.4465284081991492 0.8947694567154948 2.412262626746307e-17 -1.41133053034887e-16 2.412262626746307e-17 -1.41133053034887e-16 -0.4465290326979191 0.894769145063501
12646909333.333334 -0.4355181830131913 0.9001799332715082 2.2372544909052064e-17 -1.413927383241489e-16 2.2372544909052064e-17 -1.413927383241489e-16 -0.43551881125751074 0.900179629318867
12647526666.666666 -0.4244424130770137 0.9054549342629755 2.0619730834518072e-17 -1.4163073427233568e-16 2.0619730834518072e-17 -1.4163073427233568e-16 -0.4244430449719724 0.9054546380546783
12648144000.0 -0.4133027652752983 0.9105936658112668 1.8864452698469943e-17 -1.41847013013179e-16 1.8864452698469943e-17 -1.41847013013179e-16 -0.4133034007254449 0.9105933773911332
12648761333.333334 -0.4021009161062847 0.9155953545460431 1.7106979426774772e-17 -1.4204155000626233e-16 1.7106979426774772e-17 -1.4204155000626233e-16 -0.40210155501564315 0.9155950739567189
12649378666.666666 -0.39083855142954377 0.9204592477216277 1.5347580175419813e-17 -1.4221432403946813e-16 1.5347580175419813e-17 -1.4221432403946813e-16 -0.39083919370162623 0.9204589750045737
12649996000.0 -0.37951736621194326 0.9251846133304199 1.358652428929453e-17 -1.423653172309214e-16 1.358652428929453e-17 -1.423653172309214e-16 -0.37951801174976546 0.9251843485259101
12650613333.333334 -0.36813906427281906 0.9297707402129523 1.1824081261048765e-17 -1.424945150304138e-16 1.1824081261048765e-17 -1.424945150304138e-16 -0.36813971297891496 0.9297704833600657
12651230666.666666 -0.35670535802758235 0.9342169381649115 1.0060520689908313e-17 -1.426019062203257e-16 1.0060520689908313e-17 -1.426019062203257e-16 -0.3567060098040183 0.934216689301526
12651848000.0 -0.3452179682296852 0.9385225380411362 8.296112240437315e-18 -1.4268748291603976e-16 8.296112240437315e-18 -1.4268748291603976e-16 -0.34521862297807493 0.9385222972039236
12652465333.333334 -0.3336786237119402 0.9426868918562057 6.531125601400165e-18 -1.4275124056584113e-16 6.531125601400165e-18 -1.4275124056584113e-16 -0.33367928133346014 0.9426866590806269
12653082666.666666 -0.32208906112641694 0.9467093728819376 4.765830444603332e-18 -1.4279317795031126e-16 4.765830444603332e-18 -1.4279317795031126e-16 -0.3220897215218207 0.9467091482022364
12653700000.0 -0.31045102468262264 0.9505893757418697 3.000496383674635e-18 -1.4281329718121635e-16 3.000496383674635e-18 -1.4281329718121635e-16 -0.3104516877522562 0.9505891591910693
12654317333.333334 -0.2987662658855925 0.9543263165021637 1.2353929330257838e-18 -1.428116036998824e-16 1.2353929330257838e-18 -1.428116036998824e-16 -0.2987669315294087 0.9543261081120592
12654934666.666666 -0.28703654327183337 0.957919632759641 -5.292105333122238e-19 -1.427881062750679e-16 -5.292105333122238e-19 -1.427881062750679e-16 -0.28703721138940785 0.9579194325607977
12655552000.0 -0.2752636221447466 0.9613687837263922 -2.2930448227350483e-18 -1.4274281700032524e-16 -2.2930448227350483e-18 -1.4274281700032524e-16 -0.2752642926352924 0.961368591748139
12656169333.333334 -0.26344927430925286 0.9646732503110763 -4.05584096503075e-18 -1.426757512908602e-16 -4.05584096503075e-18 -1.426757512908602e-16 -0.26344994707163577 0.9646730665815026
12656786666.666666 -0.2515952778048119 0.9678325351971422 -5.8173302534132395e-18 -1.4258692787988075e-16 -5.8173302534132395e-18 -1.4258692787988075e-16 -0.2515959527375658 0.9678323597430932
12657404000.0 -0.2397034166378844 0.9708461629176546 -7.57724428537788e-18 -1.4247636881444625e-16 -7.57724428537788e-18 -1.4247636881444625e-16 -0.23970409363922615 0.9708459957647273
12658021333.333334 -0.22777548051357888 0.9737136799268138 -9.335315003587914e-18 -1.423440994508072e-16 -9.335315003587914e-18 -1.423440994508072e-16 -0.22777615948142416 0.9737135210993535
12658638666.666666 -0.21581326456625 0.9764346546682301 -1.1091274736599153e-17 -1.4219014844924796e-16 -1.1091274736599153e-17 -1.4219014844924796e-16 -0.21581394539822876 0.976434504189328
12659256000.0 -0.20381856908914026 0.9790086776399192 -1.284485623963128e-17 -1.420145477684193e-16 -1.284485623963128e-17 -1.420145477684193e-16 -0.20381925168261145 0.979008535531406
12659873333.333334 -0.19179319926374244 0.9814353614558559 -1.4595792735140826e-17 -1.4181733265917753e-16 -1.4595792735140826e-17 -1.4181733265917753e-16 -0.19179388351581014 0.9814352277383015
12660490666.666666 -0.17973896488806937 0.9837143409042968 -1.6343817953343544e-17 -1.4159854165792218e-16 -1.6343817953343544e-17 -1.4159854165792218e-16 -0.179739650695598 0.9837142155970059
12661108000.0 -0.16765768010391827 0.985845273002808 -1.808866617272391e-17 -1.4135821657942545e-16 -1.808866617272391e-17 -1.4135821657942545e-16 -0.16765836736354853 0.9858451561238192
12661725333.333334 -0.15555116312443318 0.9878278370497788 -1.9830072260288368e-17 -1.410964025091827e-16 -1.9830072260288368e-17 -1.410964025091827e-16 -0.1555518517325971 0.9878277286158595
12662342666.666666 -0.143421235959963 0.9896617346727747 -2.156777171187774e-17 -1.4081314779524625e-16 -2.156777171187774e-17 -1.4081314779524625e-16 -0.14342192581289973 0.9896616346994195
12662960000.0 -0.1312697241440755 0.9913466898734 -2.3301500692239473e-17 -1.4050850403958047e-16 -2.3301500692239473e-17 -1.4050850403958047e-16 -0.13127041513784707 0.9913465983748295
12663577333.333334 -0.1190984564588746 0.9928824490688324 -2.5030996075070494e-17 -1.4018252608891283e-16 -2.5030996075070494e-17 -1.4018252608891283e-16 -0.11909914848938145 0.9928823660579899
12664194666.666666 -0.10690926465957444 0.9942687811300107 -2.6755995482868187e-17 -1.398352720251029e-16 -2.6755995482868187e-17 -1.398352720251029e-16 -0.10690995762257129 0.994268706618562
12664812000.0 -0.09470398319904907 0.9955054774163944 -2.847623732671142e-17 -1.3946680315501143e-16 -2.847623732671142e-17 -1.3946680315501143e-16 -0.09470467699016016 0.9955054114147232
12665429333.333334 -0.08248444895149572 0.9965923518073863 -3.019146084586984e-17 -1.3907718399988754e-16 -3.019146084586984e-17 -1.3907718399988754e-16 -0.08248514346623115 0.9965922943245966
12666046666.666666 -0.07025250093635654 0.9975292407303133 -3.1901406147247716e-17 -1.3866648228427495e-16 -3.1901406147247716e-17 -1.3866648228427495e-16 -0.07025319607012762 0.997529191774226
12666664000.0 -0.058009980041011225 0.9983160031850893 -3.360581424478268e-17 -1.3823476892441116e-16 -3.360581424478268e-17 -1.3823476892441116e-16 -0.058010675689146154 0.9983159627622394
12667281333.333334 -0.04575872874434951 0.9989525207653812 -3.5304427098533025e-17 -1.3778211801618027e-16 -3.5304427098533025e-17 -1.3778211801618027e-16 -0.04575942480210947 0.9989524888810217
12667898666.666666 -0.03350059083897152 0.9994386976764746 -3.6996987653758824e-17 -1.3730860682254853e-16 -3.6996987653758824e-17 -1.3730860682254853e-16 -0.033501287201566164 0.9994386743345717
12668516000.0 -0.02123741115392648 0.999774460749667 -3.8683239879758607e-17 -1.3681431576053985e-16 -3.8683239879758607e-17 -1.3681431576053985e-16 -0.02123810771652979 0.9997744459529004
12669133333.333334 -0.008971035277097632 0.9999597594532824 -4.036292880850403e-17 -1.3629932838774564e-16 -4.036292880850403e-17 -1.3629932838774564e-16 -0.008971731934863746 0.9999597532030461
12669750666.666666 0.0032966907226122965 0.9999945659002796 -4.2035800573186555e-17 -1.3576373138833458e-16 -4.2035800573186555e-17 -1.3576373138833458e-16 0.003295994074533356 0.9999945681966821
