! Parameters = {f0=12700.012000; bw=77.238000; Q=6100.000000; N=10; m_0_1=1.333629; m_1_1=1.239684; m_1_2=1.168441; m_2_2=1.239035; m_2_3=0.805404; m_2_8=0.003745; m_2_9=0.040449; m_3_3=1.237098; m_3_4=0.693933; m_3_7=0.004345; m_3_8=-0.092743; m_3_9=0.003745; m_4_4=1.234173; m_4_5=0.530268; m_4_6=0.007862; m_4_7=-0.113292; m_4_8=0.004345; m_5_5=1.234555; m_5_6=0.937623; m_5_7=0.007862; m_6_6=1.234554; m_6_7=0.530610; m_7_7=1.234187; m_7_8=0.694051; m_8_8=1.237096; m_8_9=0.805717; m_9_9=1.239030; m_9_10=1.169519; m_10_10=1.239674; m_10_11=1.334424}
!
! Created with skrf (http://scikit-rf.org).
# Hz S RI R 50.0 
!freq ReS11 ImS11 ReS21 ImS21 ReS12 ImS12 ReS22 ImS22
12607400000.0 0.9996939424858295 0.02473906540160727 -1.4285436281549459e-16 3.850257705366283e-17 -1.4285436281549459e-16 3.850257705366283e-17 0.9996939251060584 0.0247397676999595
12608017333.333334 0.9999238926211592 0.012337299751309818 -1.4233435398675031e-16 4.0276270256254345e-17 -1.4233435398675031e-16 4.0276270256254345e-17 0.9999238839542189 0.012338002176820236
12608634666.666666 0.9999999977978076 -6.636407197170287e-05 -1.417923356642313e-16 4.2042983341832003e-17 -1.417923356642313e-16 4.2042983341832003e-17 0.9999999978441779 -6.566162738310863e-05
12609252000.0 0.999922246306591 -0.012470017681904096 -1.4122840104446515e-16 4.380244335910779e-17 -1.4122840104446515e-16 4.380244335910779e-17 0.999922255065412 -0.012469315326309686
12609869333.333334 0.999690650110198 -0.024871752693670864 -1.406426467069615e-16 4.5554378595345665e-17 -1.406426467069615e-16 4.5554378595345665e-17 0.9996906675792693 -0.02487105053511873
12610486666.666666 0.9993052448413571 -0.037269661017533214 -1.4003517259783683e-16 4.7298518618213194e-17 -1.4003517259783683e-16 4.7298518618213194e-17 0.9993052710171377 -0.03726895916403053
12611104000.0 0.9987660897973382 -0.04966183515277156 -1.3940608201287883e-16 4.903459431754475e-17 -1.3940608201287883e-16 4.903459431754475e-17 0.9987661246749499 -0.04966113371226806
12611721333.333334 0.9980732679308475 -0.062046368480712884 -1.387554815801508e-16 5.0762337946719305e-17 -1.387554815801508e-16 5.0762337946719305e-17 0.9980733115040721 -0.06204566756108416
12612338666.666666 0.9972268858372578 -0.07442135555827559 -1.3808348124202862e-16 5.2481483163963827e-17 -1.3808348124202862e-16 5.2481483163963827e-17 0.9972269380985405 -0.0744206552673065
12612956000.0 0.9962270737381912 -0.08678489241133283 -1.3739019423675537e-16 5.4191765073341855e-17 -1.3739019423675537e-16 5.4191765073341855e-17 0.9962271346786417 -0.08678419285670108
12613573333.333334 0.9950739854615217 -0.09913507682717004 -1.3667573707950246e-16 5.589292026547e-17 -1.3667573707950246e-16 5.589292026547e-17 0.9950740550709148 -0.09913437811642942
12614190666.666666 0.9937677984176667 -0.11147000864766299 -1.3594022954289191e-16 5.758468685807618e-17 -1.3594022954289191e-16 5.758468685807618e-17 0.9937678766844446 -0.11146931088822691
12614808000.0 0.992308713572321 -0.12378779006126128 -1.3518379463704018e-16 5.926680453624509e-17 -1.3518379463704018e-16 5.926680453624509e-17 0.9923088004835957 -0.12378709336038644
12615425333.333334 0.990696955415515 -0.13608652589523454 -1.3440655858910258e-16 6.09390145924115e-17 -1.3440655858910258e-16 6.09390145924115e-17 0.990697050957069 -0.1360858303600041
12616042666.666666 0.9889327719270992 -0.14836432390703091 -1.3360865082232736e-16 6.260105996607938e-17 -1.3360865082232736e-16 6.260105996607938e-17 0.9889328760833886 -0.14836362964433833
12616660000.0 0.9870164345385601 -0.1606192950756368 -1.3279020393460213e-16 6.425268528330701e-17 -1.3279020393460213e-16 6.425268528330701e-17 0.9870165472927187 -0.16061860219216936
12617277333.333334 0.9849482380912898 -0.17284955389201842 -1.319513536765373e-16 6.589363689585983e-17 -1.319513536765373e-16 6.589363689585983e-17 0.9849483594251287 -0.17284886249424064
12617894666.666666 0.9827285007912151 -0.1850532186492767 -1.3109223892905278e-16 6.752366292011393e-17 -1.3109223892905278e-16 6.752366292011393e-17 0.9827286306852278 -0.18505252884341417
12618512000.0 0.9803575641597961 -0.19722841173238342 -1.3021300168046947e-16 6.914251327568969e-17 -1.3021300168046947e-16 6.914251327568969e-17 0.9803577025931609 -0.19722772362440644
12619129333.333334 0.9778357929815629 -0.20937325990661765 -1.2931378700317455e-16 7.074993972370117e-17 -1.2931378700317455e-16 7.074993972370117e-17 0.9778359399321475 -0.20937257360222508
12619746666.666666 0.9751635752479361 -0.22148589460611218 -1.2839474302975972e-16 7.234569590480691e-17 -1.2839474302975972e-16 7.234569590480691e-17 0.9751637306922979 -0.22148521021071468
12620364000.0 0.9723413220974984 -0.2335644522214248 -1.2745602092870919e-16 7.392953737691461e-17 -1.2745602092870919e-16 7.392953737691461e-17 0.9723414860108934 -0.23356376984012975
12620981333.333334 0.9693694677528485 -0.245607074385826 -1.2649777487965206e-16 7.550122165252555e-17 -1.2649777487965206e-16 7.550122165252555e-17 0.9693696401092294 -0.24560639412341992
12621598666.666666 0.9662484694536776 -0.2576119082616901 -1.2552016204811692e-16 7.706050823582486e-17 -1.2552016204811692e-16 7.706050823582486e-17 0.9662486502257023 -0.25761123022262367
12622216000.0 0.9629788073864769 -0.2695771068253465 -1.245233425598408e-16 7.860715865942804e-17 -1.245233425598408e-16 7.860715865942804e-17 0.9629789965455097 -0.26957643111371776
12622833333.333334 0.9595609846106504 -0.28150082915125485 -1.2350747947464363e-16 8.014093652076823e-17 -1.2350747947464363e-16 8.014093652076823e-17 0.9595611821267699 -0.281500155870794
12623450666.666666 0.9559955269811446 -0.2933812406951923 -1.2247273875983403e-16 8.166160751818325e-17 -1.2247273875983403e-16 8.166160751818325e-17 0.955995732823145 -0.293380569949245
12624068000.0 0.9522829830674756 -0.30521651357669866 -1.2141928926318672e-16 8.316893948663534e-17 -1.2141928926318672e-16 8.316893948663534e-17 0.9522831972028756 -0.30521584546821123
12624685333.333334 0.9484239240693418 -0.31700482686028203 -1.2034730268545407e-16 8.466270243312588e-17 -1.2034730268545407e-16 8.466270243312588e-17 0.9484241464643847 -0.31700416149178406
12625302666.666666 0.9444189437288467 -0.32874436683522823 -1.192569535525064e-16 8.614266857166401e-17 -1.192569535525064e-16 8.614266857166401e-17 0.9444191743485104 -0.32874370430881844
12625920000.0 0.9402686582389593 -0.3404333272952481 -1.1814841918694534e-16 8.760861235801836e-17 -1.1814841918694534e-16 8.760861235801836e-17 0.9402688970469584 -0.3404326677125776
12626537333.333334 0.9359737061488937 -0.35206990981580727 -1.1702187967940013e-16 8.906031052395129e-17 -1.1702187967940013e-16 8.906031052395129e-17 0.9359739531076874 -0.35206925327806443
12627154666.666666 0.9315347482657897 -0.36365232403107023 -1.1587751785931875e-16 9.049754211120483e-17 -1.1587751785931875e-16 9.049754211120483e-17 0.9315350033365868 -0.3636516706389653
12627772000.0 0.9269524675529441 -0.37517878790959686 -1.1471551926536585e-16 9.19200885050768e-17 -1.1471551926536585e-16 9.19200885050768e-17 0.92695273069571 -0.3751781377633464
12628389333.333334 0.9222275690249511 -0.3866475280279639 -1.135360721154631e-16 9.33277334675546e-17 -1.135360721154631e-16 9.33277334675546e-17 0.9222278401984116 -0.38664688122727475
12629006666.666666 0.9173607796389991 -0.39805677984419907 -1.1233936727632057e-16 9.47202631701915e-17 -1.1233936727632057e-16 9.47202631701915e-17 0.91736105880065 -0.3980561364882541
12629624000.0 0.9123528481831724 -0.40940478796889834 -1.111255982326758e-16 9.609746622646193e-17 -1.111255982326758e-16 9.609746622646193e-17 0.9123531352892845 -0.40940414815634085
12630241333.333334 0.907204545161214 -0.42068980643538373 -1.0989496105604736e-16 9.745913372382882e-17 -1.0989496105604736e-16 9.745913372382882e-17 0.9072048401668391 -0.42068917026430164
12630858666.666666 0.9019166626739804 -0.4319100989683329 -1.0864765437317485e-16 9.880505925532452e-17 -1.0864765437317485e-16 9.880505925532452e-17 0.9019169655329601 -0.43190946653624473
12631476000.0 0.8964900142974741 -0.44306393925112175 -1.07383879333979e-16 1.001350389508301e-16 -1.07383879333979e-16 1.001350389508301e-16 0.8964903249624459 -0.44306331065496113
12632093333.333334 0.8909254349578482 -0.4541496111910434 -1.0610383957925516e-16 1.0144887150782476e-16 -1.0610383957925516e-16 1.0144887150782476e-16 0.8909257533802543 -0.4541489865271447
12632710666.666666 0.8852237808028589 -0.4651654091835494 -1.0480774120789362e-16 1.0274635822182656e-16 -1.0480774120789362e-16 1.0274635822182656e-16 0.8852241069329524 -0.46516478854763244
12633328000.0 0.8793859290700297 -0.47610963837486736 -1.0349579274375955e-16 1.0402730301638059e-16 -1.0349579274375955e-16 1.0402730301638059e-16 0.8793862628568828 -0.4761090218620228
12633945333.333334 0.8734127779518938 -0.48698061492236216 -1.0216820510225037e-16 1.052915124725865e-16 -1.0216820510225037e-16 1.052915124725865e-16 0.8734131193434052 -0.48698000262703706
12634562666.666666 0.8673052464576277 -0.49777666625393324 -1.0082519155642154e-16 1.065387958582691e-16 -1.0082519155642154e-16 1.065387958582691e-16 0.8673055954005318 -0.4977760582699168
12635180000.0 0.8610642742717792 -0.5084961313251266 -9.946696770282013e-17 1.0776896515665762e-16 -9.946696770282013e-17 1.0776896515665762e-16 0.8610646307116533 -0.5084955277455353
12635797333.333334 0.8546908216095633 -0.5191373608749196 -9.809375142691566e-17 1.0898183509468216e-16 -9.809375142691566e-17 1.0898183509468216e-16 0.8546911854908369 -0.5191367617921832
12636414666.666666 0.8481858690692993 -0.5296987176791766 -9.670576286825118e-17 1.1017722317077143e-16 -9.670576286825118e-17 1.1017722317077143e-16 0.8481862403352632 -0.5296981231850243
12637032000.0 0.8415504174813366 -0.5401785768028888 -9.530322438517631e-17 1.1135494968228025e-16 -9.530322438517631e-17 1.1135494968228025e-16 0.8415507960741505 -0.5401779869883351
12637649333.333334 0.8347854877542465 -0.5505753258498902 -9.388636051932806e-17 1.1251483775239695e-16 -9.388636051932806e-17 1.1251483775239695e-16 0.8347858736149478 -0.5505747408052198
12638266666.666666 0.8278921207176096 -0.5608873652111496 -9.245539795972062e-17 1.1365671335665823e-16 -9.245539795972062e-17 1.1365671335665823e-16 0.827892513786125 -0.560886785025906
12638884000.0 0.8208713769620085 -0.5711131083106951 -9.1010565506567e-17 1.147804053489624e-16 -9.1010565506567e-17 1.147804053489624e-16 0.8208717771771602 -0.571112533073664
12639501333.333334 0.813724336675697 -0.581250981849926 -8.955209403473052e-17 1.1588574548716743e-16 -8.955209403473052e-17 1.1588574548716743e-16 0.813724743975215 -0.5812504116491248
12640118666.666666 0.8064520994786425 -0.5912994260493553 -8.808021645694684e-17 1.1697256845816592e-16 -8.808021645694684e-17 1.1697256845816592e-16 0.8064525137991715 -0.5912988609720162
12640736000.0 0.7990557842529373 -0.6012568948891402 -8.659516768659511e-17 1.1804071190260275e-16 -8.659516768659511e-17 1.1804071190260275e-16 0.799056205530049 -0.6012563350217001
12641353333.333334 0.7915365289711908 -0.6111218563462169 -8.509718460040971e-17 1.1909001643894666e-16 -8.509718460040971e-17 1.1909001643894666e-16 0.7915369571393928 -0.6111213017743018
12641970666.666666 0.783895490520955 -0.620892792630674 -8.358650600063179e-17 1.201203256872853e-16 -8.358650600063179e-17 1.201203256872853e-16 0.7838959255137016 -0.6208922434390878
12642588000.0 0.7761338445270366 -0.6305682004188663 -8.20633725770628e-17 1.211314862925042e-16 -8.20633725770628e-17 1.211314862925042e-16 0.7761342862767375 -0.6305676566915759
12643205333.333334 0.7682527851704797 -0.6401465910848908 -8.052802686878286e-17 1.2212334794702875e-16 -8.052802686878286e-17 1.2212334794702875e-16 0.7682532336085128 -0.6401460529050147
12643822666.666666 0.7602535250048148 -0.6496264909296424 -7.898071322555597e-17 1.2309576341310533e-16 -7.898071322555597e-17 1.2309576341310533e-16 0.7602539800615344 -0.6496259583794369
12644440000.0 0.7521372947696411 -0.6590064414073753 -7.742167776903092e-17 1.2404858854455424e-16 -7.742167776903092e-17 1.2404858854455424e-16 0.7521377563743922 -0.6590059145682244
12645057333.333334 0.7439053432011289 -0.6682849993502894 -7.585116835365681e-17 1.2498168230804823e-16 -7.585116835365681e-17 1.2498168230804823e-16 0.7439058112822544 -0.6682844783026889
12645674666.666666 0.7355589368400406 -0.6774607371903973 -7.426943452733307e-17 1.2589490680390422e-16 -7.426943452733307e-17 1.2589490680390422e-16 0.7355594113248938 -0.6774602220139441
12646292000.0 0.7270993598365754 -0.6865322431794795 -7.267672749178106e-17 1.2678812728639286e-16 -7.267672749178106e-17 1.2678812728639286e-16 0.7270998406515328 -0.6865317339528605
12646909333.333334 0.7185279137531848 -0.6954981216058765 -7.107330006278178e-17 1.2766121218348733e-16 -7.107330006278178e-17 1.2766121218348733e-16 0.7185284008236552 -0.6954976184068549
12647526666.666666 0.7098459173640623 -0.7043569930094961 -6.945940663004355e-17 1.2851403311618505e-16 -6.945940663004355e-17 1.2851403311618505e-16 0.7098464106145002 -0.7043564959149003
12648144000.0 0.7010547064522238 -0.7131074943940738 -6.783530311691578e-17 1.2934646491728073e-16 -6.783530311691578e-17 1.2934646491728073e-16 0.701055205806139 -0.7131070034797852
12648761333.333334 0.6921556336041013 -0.721748279436752 -6.620124693989031e-17 1.3015838564962528e-16 -6.620124693989031e-17 1.3015838564962528e-16 0.6921561389840739 -0.7217477947776951
12649378666.666666 0.6831500680015081 -0.7302780186951694 -6.455749696783503e-17 1.3094967662390274e-16 -6.455749696783503e-17 1.3094967662390274e-16 0.6831505793291973 -0.7302775403652974
12649996000.0 0.674039395210731 -0.7386953998122354 -6.290431348105242e-17 1.317202224158718e-16 -6.290431348105242e-17 1.317202224158718e-16 0.6740399124068894 -0.7386949278845218
12650613333.333334 0.6648250169695588 -0.7469991277178525 -6.124195813010526e-17 1.3246991088310797e-16 -6.124195813010526e-17 1.3246991088310797e-16 0.6648255399540433 -0.746998662264278
12651230666.666666 0.6555083509716383 -0.7551879248281524 -5.957069389451166e-17 1.33198633181195e-16 -5.957069389451166e-17 1.33198633181195e-16 0.6555088796634232 -0.7551874659196949
12651848000.0 0.6460908306480966 -0.7632605312422873 -5.789078504111291e-17 1.3390628377945658e-16 -5.789078504111291e-17 1.3390628377945658e-16 0.6460913649652872 -0.7632600789489116
12652465333.333334 0.6365739049472341 -0.7712157049360677 -5.620249708244299e-17 1.3459276047608353e-16 -5.620249708244299e-17 1.3459276047608353e-16 0.6365744448070765 -0.7712152593267125
12653082666.666666 0.6269590381116594 -0.779052221953002 -5.45060967347754e-17 1.3525796441279938e-16 -5.45060967347754e-17 1.3525796441279938e-16 0.6269595834305559 -0.7790517830955721
12653700000.0 0.6172477094526343 -0.7867688765929193 -5.280185187599797e-17 1.359018000889958e-16 -5.280185187599797e-17 1.359018000889958e-16 0.6172482601461552 -0.7867684445542733
12654317333.333334 0.6074414131229553 -0.7943644815970776 -5.1090031503469226e-17 1.3652417537528165e-16 -5.1090031503469226e-17 1.3652417537528165e-16 0.6074419691058534 -0.7943640564430203
12654934666.666666 0.5975416578866959 -0.8018378683311392 -4.9370905691531726e-17 1.3712500152657358e-16 -4.9370905691531726e-17 1.3712500152657358e-16 0.5975422190729173 -0.8018374501264081
12655552000.0 0.5875499668871322 -0.809187886964911 -4.764474554898934e-17 1.3770419319460784e-16 -4.764474554898934e-17 1.3770419319460784e-16 0.5875505331898312 -0.8091874757731682
12656169333.333334 0.5774678774126502 -0.8164134066490675 -4.5911823176433054e-17 1.3826166843992242e-16 -4.5911823176433054e-17 1.3826166843992242e-16 0.5774684487442029 -0.8164130025328911
12656786666.666666 0.5672969406599525 -0.8235133156893494 -4.417241162335775e-17 1.387973487433266e-16 -4.417241162335775e-17 1.387973487433266e-16 0.5672975169319692 -0.8235129187102217
12657404000.0 0.5570387214954615 -0.830486521717547 -4.2426784845226026e-17 1.3931115901680509e-16 -4.2426784845226026e-17 1.3931115901680509e-16 0.5570393026188015 -0.8304861319358472
12658021333.333334 0.5466947982145536 -0.8373319518595693 -4.067521766036039e-17 1.3980302761389842e-16 -4.067521766036039e-17 1.3980302761389842e-16 0.5466953840993388 -0.8373315693345635
12658638666.666666 0.5362667622989197 -0.8440485529003888 -3.8917985706765536e-17 1.402728863395297e-16 -3.8917985706765536e-17 1.402728863395297e-16 0.5362673528545482 -0.8440481776902211
12659256000.0 0.5257562181713006 -0.8506352914463516 -3.715536539875951e-17 1.4072067045930982e-16 -3.715536539875951e-17 1.4072067045930982e-16 0.5257568133064596 -0.8506349236080328
12659873333.333334 0.5151647829490141 -0.8570911540839181 -3.538763388357277e-17 1.4114631870828048e-16 -3.538763388357277e-17 1.4114631870828048e-16 0.5151653825716963 -0.8570907936733221
12660490666.666666 0.5044940861950861 -0.8634151475356411 -3.36150689978579e-17 1.415497732991106e-16 -3.36150689978579e-17 1.415497732991106e-16 0.5044946902126026 -0.8634147946074918
12661108000.0 0.49374576966723493 -0.8696062988131571 -3.183794922398826e-17 1.4193097992977707e-16 -3.183794922398826e-17 1.4193097992977707e-16 0.4937463779862296 -0.8696059534210232
12661725333.333334 0.4829214870656673 -0.8756636553666549 -3.0056553646474024e-17 1.4228988779065014e-16 -3.0056553646474024e-17 1.4228988779065014e-16 0.4829220995921315 -0.8756633175629401
12662342666.666666 0.47202290377845096 -0.8815862852315515 -2.827116190809185e-17 1.4262644957108049e-16 -2.827116190809185e-17 1.4262644957108049e-16 0.47202352041773793 -0.8815859550674868
12662960000.0 0.4610516966252325 -0.8873732771719026 -2.6482054166114095e-17 1.4294062146539982e-16 -2.6482054166114095e-17 1.4294062146539982e-16 0.4610523172820715 -0.8873729546975383
12663577333.333334 0.45000955359942174 -0.8930237408205094 -2.4689511048345406e-17 1.432323631784e-16 -2.4689511048345406e-17 1.432323631784e-16 0.4500101781779341 -0.893023426084709
12664194666.666666 0.438898173608283 -0.8985368068160144 -2.2893813609192104e-17 1.4350163793024392e-16 -2.2893813609192104e-17 1.4350163793024392e-16 0.43889880201199544 -0.8985364998664456
12664812000.0 0.42771926621174844 -0.903911626936555 -2.1095243285641706e-17 1.4374841246083467e-16 -2.1095243285641706e-17 1.4374841246083467e-16 0.4277198983436085 -0.9039113278196819
12665429333.333334 0.4164745513591613 -0.9091473742303784 -1.9294081853199795e-17 1.4397265703363314e-16 -1.9294081853199795e-17 1.4397265703363314e-16 0.4164751871215527 -0.9091470829914567
12666046666.666666 0.40516575912498476 -0.9142432431429193 -1.7490611381832246e-17 1.4417434543891944e-16 -1.7490611381832246e-17 1.4417434543891944e-16 0.405166398419742 -0.9142429598259878
12666664000.0 0.3937946294421265 -0.9191984496409604 -1.5685114191788503e-17 1.443534549965137e-16 -1.5685114191788503e-17 1.443534549965137e-16 0.3937952721705509 -0.9191981742888362
12667281333.333334 0.38236291183481125 -0.9240122313330119 -1.3877872809526146e-17 1.4450996655793164e-16 -1.3877872809526146e-17 1.4450996655793164e-16 0.3823635578976845 -0.9240119639872805
12667898666.666666 0.37087236514896066 -0.9286838475868 -1.2069169923505484e-17 1.4464386450800053e-16 -1.2069169923505484e-17 1.4464386450800053e-16 0.37087301444656184 -0.9286835882878128
12668516000.0 0.3593247572816606 -0.9332125796431823 -1.0259288340017103e-17 1.4475513676591762e-16 -1.0259288340017103e-17 1.4475513676591762e-16 0.3593254097137804 -0.9332123284300475
12669133333.333334 0.3477218649094483 -0.9375977307266175 -8.448510939090615e-18 1.4484377478575247e-16 -8.448510939090615e-18 1.4484377478575247e-16 0.34772252037540535 -0.9375974876371966
12669750666.666666 0.33606547321464364 -0.9418386261524979 -6.637120630244467e-18 1.4490977355640842e-16 -6.637120630244467e-18 1.4490977355640842e-16 0.3360661316132995 -0.9418383912233984
12670368000.0 0.3243573756107112 -0.9459346134309384 -4.8254003084048394e-18 1.4495313160102333e-16 -4.8254003084048394e-18 1.4495313160102333e-16 0.32435803684048603 -0.9459343866975093
