! Parameters = {f0=12700.012000; bw=77.238000; Q=6100.000000; N=10; m_0_1=1.319615; m_1_1=1.029474; m_1_2=1.154427; m_2_2=1.028825; m_2_3=0.791390; m_2_8=0.003044; m_2_9=0.039748; m_3_3=1.026888; m_3_4=0.679919; m_3_7=0.003644; m_3_8=-0.093444; m_3_9=0.003044; m_4_4=1.023963; m_4_5=0.516254; m_4_6=0.007161; m_4_7=-0.113993; m_4_8=0.003644; m_5_5=1.024345; m_5_6=0.923609; m_5_7=0.007161; m_6_6=1.024344; m_6_7=0.516596; m_7_7=1.023977; m_7_8=0.680037; m_8_8=1.026886; m_8_9=0.791703; m_9_9=1.028820; m_9_10=1.155505; m_10_10=1.029464; m_10_11=1.320410}
!
! Created with skrf (http://scikit-rf.org).
# Hz S RI R 50.0 
!freq ReS11 ImS11 ReS21 ImS21 ReS12 ImS12 ReS22 ImS22
12607400000.0 -0.5949003921830553 0.8037994298208079 4.7541965068431645e-17 -1.3059332304322846e-16 4.7541965068431645e-17 -1.3059332304322846e-16 -0.5949009509502087 0.8037990162710742
12608017333.333334 -0.5852205618610389 0.810874154215596 4.595218120602319e-17 -1.3113233140825282e-16 4.595218120602319e-17 -1.3113233140825282e-16 -0.5852211255186479 0.8108737474147846
12608634666.666666 -0.575456605593764 0.8178323147677111 4.435631608663476e-17 -1.3165199840886986e-16 4.435631608663476e-17 -1.3165199840886986e-16 -0.5754571740603273 0.8178319147736357
12609252000.0 -0.5656099269581586 0.8246729112358403 4.275460487456777e-17 -1.321522558167076e-16 4.275460487456777e-17 -1.321522558167076e-16 -0.5656105001514918 0.8246725181053317
12609869333.333334 -0.5556819414226052 0.8313949602785748 4.114728349465764e-17 -1.32633038260951e-16 4.114728349465764e-17 -1.32633038260951e-16 -0.5556825192598531 0.8313945740674714
12610486666.666666 -0.5456740761435166 0.8379974955957384 3.95345885976205e-17 -1.330942832367406e-16 3.95345885976205e-17 -1.330942832367406e-16 -0.5456746585411634 0.8379971163588775
12611104000.0 -0.5355877697598449 0.8444795680675083 3.791675752518679e-17 -1.3353593111318696e-16 3.791675752518679e-17 -1.3353593111318696e-16 -0.5355883566337283 0.8444791958587206
12611721333.333334 -0.5254244721867781 0.8508402458905292 3.6294028275299255e-17 -1.3395792514091804e-16 3.6294028275299255e-17 -1.3395792514091804e-16 -0.5254250634521006 0.8508398807626292
12612338666.666666 -0.5151856444068832 0.8570786147121362 3.466663946710007e-17 -1.3436021145924135e-16 3.466663946710007e-17 -1.3436021145924135e-16 -0.5151862399782245 0.8570782567169164
12612956000.0 -0.5048727582602558 0.8631937777616866 3.3034830305878416e-17 -1.3474273910286892e-16 3.3034830305878416e-17 -1.3474273910286892e-16 -0.5048733580515844 0.8631934269499076
12613573333.333334 -0.49448729623308757 0.8691848559793832 3.1398840548019787e-17 -1.3510546000820213e-16 3.1398840548019787e-17 -1.3510546000820213e-16 -0.4944879001577746 0.8691845124007701
12614190666.666666 -0.4840307512442419 0.8750509881428314 2.975891046575779e-17 -1.354483290192207e-16 2.975891046575779e-17 -1.354483290192207e-16 -0.48403135921507207 0.8750506518460628
12614808000.0 -0.47350462643093877 0.880791330990666 2.8115280811980065e-17 -1.3577130389291916e-16 2.8115280811980065e-17 -1.3577130389291916e-16 -0.473505238360124 0.8807910020233696
12615425333.333334 -0.46291043493245426 0.8864050593438962 2.6468192784916095e-17 -1.3607434530433023e-16 2.6468192784916095e-17 -1.3607434530433023e-16 -0.4629110507316468 0.8864047377526432
12616042666.666666 -0.4522496996728076 0.8918913662244212 2.481788799277803e-17 -1.3635741685112028e-16 2.481788799277803e-17 -1.3635741685112028e-16 -0.45225031925311115 0.8918910520547161
12616660000.0 -0.44152395314163645 0.8972494629711364 2.31646084183939e-17 -1.3662048505774814e-16 2.31646084183939e-17 -1.3662048505774814e-16 -0.4415245764136199 0.8972491562674122
12617277333.333334 -0.4307347371740505 0.902478579353223 2.1508596383738243e-17 -1.368635193792077e-16 2.1508596383738243e-17 -1.368635193792077e-16 -0.4307353640477616 0.902478280158837
12617894666.666666 -0.41988360272904723 0.9075779636808546 1.9850094514512686e-17 -1.3708649220432782e-16 1.9850094514512686e-17 -1.3708649220432782e-16 -0.41988423311402395 0.9075776720380784
12618512000.0 -0.40897210966619646 0.9125468829134145 1.8189345704571327e-17 -1.3728937885866105e-16 1.8189345704571327e-17 -1.3728937885866105e-16 -0.4089727434714822 0.9125465988634331
12619129333.333334 -0.3980018265219282 0.9173846227646387 1.652659308047703e-17 -1.374721576069218e-16 1.652659308047703e-17 -1.374721576069218e-16 -0.3980024636560819 0.9173843463475376
12619746666.666666 -0.38697433028371525 0.9220904878054428 1.486207996590497e-17 -1.3763480965501296e-16 1.486207996590497e-17 -1.3763480965501296e-16 -0.3869749706548275 0.9220902190602095
12620364000.0 -0.3758912061633028 0.9266638015639262 1.3196049846070286e-17 -1.377773191516161e-16 1.3196049846070286e-17 -1.377773191516161e-16 -0.3758918496790074 0.9266635405284405
12620981333.333334 -0.3647540473692498 0.931103906622435 1.1528746332220501e-17 -1.3789967318934577e-16 1.1528746332220501e-17 -1.3789967318934577e-16 -0.3647546939367381 0.9311036533334656
12621598666.666666 -0.3535644548774344 0.9354101647122682 9.860413125990447e-18 -1.3800186180548711e-16 9.860413125990447e-18 -1.3800186180548711e-16 -0.35356510440346756 0.9354099192054653
12622216000.0 -0.3423240372012249 0.9395819568052934 8.191293983879212e-18 -1.3808387798229174e-16 8.191293983879212e-18 -1.3808387798229174e-16 -0.3423246895921483 0.9395817191151864
12622833333.333334 -0.33103441016012497 0.9436186832029911 6.521632681642967e-18 -1.3814571764685237e-16 6.521632681642967e-18 -1.3814571764685237e-16 -0.3310350653218815 0.9436184533629824
12623450666.666666 -0.3196971966475244 0.9475197636226513 4.8516729787812265e-18 -1.3818737967054221e-16 4.8516729787812265e-18 -1.3818737967054221e-16 -0.3196978544856672 0.9475195416650102
12624068000.0 -0.3083140263974586 0.9512846372807652 3.181658582964812e-18 -1.3820886586802984e-16 3.181658582964812e-18 -1.3820886586802984e-16 -0.3083146868171661 0.9512844232366271
12624685333.333334 -0.29688653575009344 0.9549127629737275 1.5118331145009856e-18 -1.3821018099586318e-16 1.5118331145009856e-18 -1.3821018099586318e-16 -0.29688719865618196 0.9549125568730857
12625302666.666666 -0.28541636741698384 0.95840361915547 -1.5755992909230802e-19 -1.3819133275062435e-16 -1.5755992909230802e-19 -1.3819133275062435e-16 -0.28541703271392166 0.9584034210271737
12625920000.0 -0.27390517024431027 0.9617567040126337 -1.8262772086375394e-18 -1.3815233176665813e-16 -1.8262772086375394e-18 -1.3815233176665813e-16 -0.2739058378362313 0.9617565138843832
12626537333.333334 -0.2623545989764264 0.9649715355365299 -3.4940755786389e-18 -1.3809319161337251e-16 -3.4940755786389e-18 -1.3809319161337251e-16 -0.26235526876714393 0.9649713534348724
12627154666.666666 -0.2507663140177437 0.9680476515925055 -5.160712122699384e-18 -1.3801392879211256e-16 -5.160712122699384e-18 -1.3801392879211256e-16 -0.25076698591076463 0.9680474775428324
12627772000.0 -0.23914198119379942 0.9709846099864378 -6.825944188890516e-18 -1.3791456273260515e-16 -6.825944188890516e-18 -1.3791456273260515e-16 -0.23914265509233773 0.9709844440129807
12628389333.333334 -0.22748327151234218 0.9737819885281572 -8.489529424952109e-18 -1.3779511578898506e-16 -8.489529424952109e-18 -1.3779511578898506e-16 -0.2274839473193331 0.9737818306539844
12629006666.666666 -0.21579186092262803 0.9764393850922645 -1.0151225813606996e-17 -1.3765561323538642e-16 -1.0151225813606996e-17 -1.3765561323538642e-16 -0.21579253854074185 0.9764392353392772
12629624000.0 -0.20406943007472125 0.9789564176758787 -1.18107917076486e-17 -1.3749608326112017e-16 -1.18107917076486e-17 -1.3749608326112017e-16 -0.2040701094063775 0.9789562760648093
12630241333.333334 -0.19231766407789966 0.9813327244535516 -1.3467985865089965e-17 -1.373165569654195e-16 -1.3467985865089965e-17 -1.373165569654195e-16 -0.19231834502528136 0.9813325910039608
12630858666.666666 -0.1805382522585039 0.9835679638292698 -1.512256748413063e-17 -1.371170683517726e-16 -1.512256748413063e-17 -1.371170683517726e-16 -0.18053893472357094 0.9835678385595413
12631476000.0 -0.1687328879167029 0.985661814485628 -1.6774296238174204e-17 -1.3689765432182017e-16 -1.6774296238174204e-17 -1.3689765432182017e-16 -0.16873357180120693 0.9856616974129697
12632093333.333334 -0.15690326808361216 0.9876139754299215 -1.8422932310611166e-17 -1.366583546688505e-16 -1.8422932310611166e-17 -1.366583546688505e-16 -0.1569039532891103 0.987613866570361
12632710666.666666 -0.145051093277093 0.989424166037464 -2.0068236429626715e-17 -1.3639921207086292e-16 -2.0068236429626715e-17 -1.3639921207086292e-16 -0.1450517797049621 0.9894240654058466
12633328000.0 -0.1331780672571044 0.9910921260919553 -2.170996990291117e-17 -1.3612027208321072e-16 -2.170996990291117e-17 -1.3612027208321072e-16 -0.13317875480855534 0.9910920337019427
12633945333.333334 -0.12128589678109519 0.9926176158228386 -2.3347894652179742e-17 -1.3582158313084345e-16 -2.3347894652179742e-17 -1.3582158313084345e-16 -0.12128658535718675 0.9926175316869048
12634562666.666666 -0.10937629135857165 0.99400041593978 -2.4981773247701335e-17 -1.355031965001157e-16 -2.4981773247701335e-17 -1.355031965001157e-16 -0.1093769808602253 0.9940003400692136
12635180000.0 -0.09745096300532673 0.9952403276642003 -2.6611368942634212e-17 -1.3516516633019527e-16 -2.6611368942634212e-17 -1.3516516633019527e-16 -0.0974516533333404 0.995240260069099
12635797333.333334 -0.08551162599722269 0.9963371727578579 -2.823644570731831e-17 -1.3480754960404785e-16 -2.823644570731831e-17 -1.3480754960404785e-16 -0.08551231705228526 0.9963371134471302
12636414666.666666 -0.07355999662404533 0.997290793548442 -2.9856768263372454e-17 -1.3443040613902374e-16 -2.9856768263372454e-17 -1.3443040613902374e-16 -0.07356068830675087 0.9972907425298035
12637032000.0 -0.0615977929425315 0.9981010529522649 -3.147210211774553e-17 -1.3403379857702052e-16 -3.147210211774553e-17 -1.3403379857702052e-16 -0.06159848515339362 0.9981010102322396
12637649333.333334 -0.049626734529424996 0.9987678344939613 -3.3082213596601506e-17 -1.3361779237424501e-16 -3.3082213596601506e-17 -1.3361779237424501e-16 -0.04962742716889103 0.9987678000778791
12638266666.666666 -0.03764854223445617 0.9992910423232222 -3.468686987905273e-17 -1.331824557905738e-16 -3.468686987905273e-17 -1.331824557905738e-16 -0.03764923520292162 0.9992910162152189
12638884000.0 -0.0256649379327413 0.9996706012285845 -3.6285839030809045e-17 -1.3272785987849657e-16 -3.6285839030809045e-17 -1.3272785987849657e-16 -0.025665631130564137 0.9996705834316021
12639501333.333334 -0.013677644277432049 0.9999064566482362 -3.7878890037631e-17 -1.3225407847166846e-16 -3.7878890037631e-17 -1.3225407847166846e-16 -0.013678337604946952 0.9999064471640208
12640118666.666666 -0.001688384452167834 0.999998574677861 -3.9465792838648073e-17 -1.3176118817306177e-16 -3.9465792838648073e-17 -1.3176118817306177e-16 -0.0016890778097005971 0.9999985735069642
12640736000.0 0.010301118077173174 0.9999469420755137 -4.104631835960631e-17 -1.312492683426903e-16 -4.104631835960631e-17 -1.312492683426903e-16 0.010300424789291345 0.9999469492172922
12641353333.333334 0.022289139809342717 0.999751566263524 -4.2620238545773005e-17 -1.307184010849965e-16 -4.2620238545773005e-17 -1.307184010849965e-16 0.02228844669076089 0.9997515817161399
12641970666.666666 0.03427395745630143 0.9994124753274263 -4.4187326394903293e-17 -1.301686712357717e-16 -4.4187326394903293e-17 -1.301686712357717e-16 0.03427326460663457 0.999412499087846
12642588000.0 0.0462538481904597 0.9989297180119254 -4.57473559898653e-17 -1.2960016634873918e-16 -4.57473559898653e-17 -1.2960016634873918e-16 0.04625315570927436 0.9989297500759217
12643205333.333334 0.05822708989244936 0.9983033637138898 -4.7300102531195214e-17 -1.290129766817149e-16 -4.7300102531195214e-17 -1.290129766817149e-16 0.058226397879249554 0.9983034040760447
12643822666.666666 0.07019196139885013 0.9975335024723693 -4.88453423694277e-17 -1.2840719518239306e-16 -4.88453423694277e-17 -1.2840719518239306e-16 0.07019126995306275 0.9975335511260699
12644440000.0 0.08214674274940945 0.9966202449556563 -5.0382853037272476e-17 -1.2778291747373798e-16 -5.0382853037272476e-17 -1.2778291747373798e-16 0.08214605197037012 0.996620301893099
12645057333.333334 0.09408971543425992 0.9955637224453842 -5.1912413281572754e-17 -1.2714024183900325e-16 -5.1912413281572754e-17 -1.2714024183900325e-16 0.09408902542119883 0.9955637876575766
12645674666.666666 0.106019162641042 0.9943640868176514 -5.343380309510737e-17 -1.2647926920635687e-16 -5.343380309510737e-17 -1.2647926920635687e-16 0.10601847349306948 0.9943641602944117
12646292000.0 0.1179333695018383 0.9930215105211736 -5.494680374822315e-17 -1.258001031331143e-16 -5.494680374822315e-17 -1.258001031331143e-16 0.11793268131793054 0.9930215922511322
12646909333.333334 0.12983062333943257 0.9915361865525157 -5.645119782016156e-17 -1.2510284978964164e-16 -5.645119782016156e-17 -1.2510284978964164e-16 0.12982993621841776 0.9915362765231198
12647526666.666666 0.14170921391359395 0.9899083284283462 -5.794676923031802e-17 -1.243876179428245e-16 -5.794676923031802e-17 -1.243876179428245e-16 0.14170852795413771 0.9899084266258584
12648144000.0 0.15356743366712194 0.988138170154713 -5.943330326919737e-17 -1.2365451893920745e-16 -5.943330326919737e-17 -1.2365451893920745e-16 0.15356674896771338 0.9881382765642154
12648761333.333334 0.16540357797099994 0.9862259661934495 -6.091058662920341e-17 -1.2290366668774258e-16 -6.091058662920341e-17 -1.2290366668774258e-16 0.16540289462993737 0.9862260807988446
12649378666.666666 0.1772159453695213 0.9841719914255824 -6.237840743517357e-17 -1.2213517764219078e-16 -6.237840743517357e-17 -1.2213517764219078e-16 0.17721526348489833 0.9841721142095976
12649996000.0 0.18900283782510013 0.9819765411117872 -6.383655527474509e-17 -1.2134917078313174e-16 -6.383655527474509e-17 -1.2134917078313174e-16 0.1890021574947911 0.9819766720559734
12650613333.333334 0.20076256096211192 0.9796399308499752 -6.528482122846785e-17 -1.2054576759962695e-16 -6.528482122846785e-17 -1.2054576759962695e-16 0.2007618822837587 0.979640069934715
12651230666.666666 0.21249342431043586 0.9771624965299456 -6.672299789965068e-17 -1.1972509207054474e-16 -6.672299789965068e-17 -1.1972509207054474e-16 0.21249274738143284 0.977162643734451
12651848000.0 0.2241937415488216 0.9745445942850182 -6.815087944407241e-17 -1.1888727064547436e-16 -6.815087944407241e-17 -1.1888727064547436e-16 0.22419306646630252 0.9745447495873376
12652465333.333334 0.23586183074685513 0.9717866004409365 -6.956826159933971e-17 -1.1803243222535292e-16 -6.956826159933971e-17 -1.1803243222535292e-16 0.23586115760767892 0.9717867638179566
12653082666.666666 0.24749601460696027 0.9688889114617227 -7.097494171406743e-17 -1.1716070814270575e-16 -7.097494171406743e-17 -1.1716070814270575e-16 0.24749534350769672 0.9688890828891706
12653700000.0 0.25909462070559336 0.965851943892663 -7.237071877684556e-17 -1.1627223214151933e-16 -7.237071877684556e-17 -1.1627223214151933e-16 0.2590939517425099 0.9658521233451118
12654317333.333334 0.2706559817333529 0.9626761343005065 -7.375539344484271e-17 -1.1536714035683942e-16 -7.375539344484271e-17 -1.1536714035683942e-16 0.27065531500240037 0.9626763217513777
12654934666.666666 0.28217843573498713 0.9593619392106228 -7.512876807228126e-17 -1.14445571293951e-16 -7.512876807228126e-17 -1.14445571293951e-16 0.2821777713317865 0.9593621346321923
12655552000.0 0.2936603263482453 0.9559098350413875 -7.649064673858702e-17 -1.135076658072606e-16 -7.649064673858702e-17 -1.135076658072606e-16 0.29365966436807334 0.955910038404787
12656169333.333334 0.30510000304168117 0.9523203180357847 -7.784083527625175e-17 -1.12553567078864e-16 -7.784083527625175e-17 -1.12553567078864e-16 0.3050993435794567 0.9523205293110063
12656786666.666666 0.3164958213522453 0.9485939041899744 -7.917914129850323e-17 -1.115834205967318e-16 -7.917914129850323e-17 -1.115834205967318e-16 0.316495164502517 0.9485941233458787
12657404000.0 0.32784614312162436 0.9447311291791365 -8.050537422665936e-17 -1.1059737413259794e-16 -8.050537422665936e-17 -1.1059737413259794e-16 0.32784548897855503 0.9447313561834512
12658021333.333334 0.33914933673161723 0.9407325482804958 -8.181934531720152e-17 -1.095955777195279e-16 -8.181934531720152e-17 -1.095955777195279e-16 0.3391486853889721 0.9407327830998253
12658638666.666666 0.3504037773386306 0.9365987362935259 -8.312086768857773e-17 -1.0857818362916351e-16 -8.312086768857773e-17 -1.0857818362916351e-16 0.35040312888976327 0.9365989788933549
12659256000.0 0.36160784710759913 0.9323302874571966 -8.44097563477683e-17 -1.0754534634861277e-16 -8.44097563477683e-17 -1.0754534634861277e-16 0.36160720164543747 0.9323305378018929
12659873333.333334 0.37275993544414726 0.9279278153646902 -8.568582821647772e-17 -1.0649722255709536e-16 -8.568582821647772e-17 -1.0649722255709536e-16 0.37275929306118155 0.9279280734175142
12660490666.666666 0.3838584392261983 0.9233919528751797 -8.694890215711048e-17 -1.0543397110222066e-16 -8.694890215711048e-17 -1.0543397110222066e-16 0.3838578000144668 0.923392218598286
12661108000.0 0.39490176303476454 0.9187233520227102 -8.819879899843761e-17 -1.0435575297596939e-16 -8.819879899843761e-17 -1.0435575297596939e-16 0.3949011270858411 0.9187236253771554
12661725333.333334 0.4058883193827392 0.9139226839226973 -8.943534156092615e-17 -1.0326273129040854e-16 -8.943534156092615e-17 -1.0326273129040854e-16 0.40588768678771886 0.9139229648684429
12662342666.666666 0.41681652894359567 0.9089906386752424 -9.06583546818411e-17 -1.0215507125304227e-16 -9.06583546818411e-17 -1.0215507125304227e-16 0.41681589979308326 0.9089909271711647
12662960000.0 0.42768482077807823 0.9039279252660775 -9.186766523996753e-17 -1.0103294014193365e-16 -9.186766523996753e-17 -1.0103294014193365e-16 0.4276841951621746 0.9039282212699713
12663577333.333334 0.43849163256026 0.8987352714645452 -9.306310218008683e-17 -9.989650728048021e-17 -9.306310218008683e-17 -9.989650728048021e-17 0.438491010568549 0.8987355749331299
12664194666.666666 0.4492354108019471 0.8934134237190624 -9.424449653709298e-17 -9.874594401194547e-17 -9.424449653709298e-17 -9.874594401194547e-17 0.44923479252348303 0.8934137346079888
12664812000.0 0.4599146110760724 0.8879631470497839 -9.541168145984023e-17 -9.758142367366321e-17 -9.541168145984023e-17 -9.758142367366321e-17 0.45991399659936694 0.8879634653136401
12665429333.333334 0.47052769823880763 0.8823852249385755 -9.656449223463341e-17 -9.640312157099864e-17 -9.656449223463341e-17 -9.640312157099864e-17 0.47052708765181744 0.8823855505308943
12666046666.666666 0.48107314664994005 0.8766804592165471 -9.770276630840976e-17 -9.521121495102252e-17 -9.770276630840976e-17 -9.521121495102252e-17 0.4810725400400541 0.8766807920898124
12666664000.0 0.49154944039266163 0.8708496699485352 -9.882634331163941e-17 -9.40058829758679e-17 -9.882634331163941e-17 -9.40058829758679e-17 0.4915488378466888 0.8708500100541887
12667281333.333334 0.5019550734909564 0.8648936953154992 -9.99350650808038e-17 -9.278730669591486e-17 -9.99350650808038e-17 -9.278730669591486e-17 0.5019544750951132 0.8648940426039485
12667898666.666666 0.5122885501264135 0.8588133914938609 -1.0102877568064642e-16 -9.155566902260488e-17 -1.0102877568064642e-16 -9.155566902260488e-17 0.5122879559663108 0.858813745914485
12668516000.0 0.5225483848533217 0.8526096325323772 -1.0210732142603538e-16 -9.031115470104968e-17 -1.0210732142603538e-16 -9.031115470104968e-17 0.5225477950139538 0.8526099940335353
12669133333.333334 0.5327331028118368 0.8462833102267134 -1.031705509034703e-16 -8.905395028240766e-17 -1.031705509034703e-16 -8.905395028240766e-17 0.5327325173775684 0.8462836787557522
12669750666.666666 0.542841239940313 0.8398353339910604 -1.0421831499230775e-16 -8.778424409594042e-17 -1.0421831499230775e-16 -8.778424409594042e-17 0.542840658994867 0.8398357094943207
