! Parameters = {f0=12700.012000; bw=77.238000; Q=6100.000000; N=10; m_0_1=1.270566; m_1_1=0.293738; m_1_2=1.105378; m_2_2=0.293089; m_2_3=0.742341; m_2_8=0.000592; m_2_9=0.037296; m_3_3=0.291152; m_3_4=0.630870; m_3_7=0.001192; m_3_8=-0.095896; m_3_9=0.000592; m_4_4=0.288227; m_4_5=0.467205; m_4_6=0.004709; m_4_7=-0.116445; m_4_8=0.001192; m_5_5=0.288609; m_5_6=0.874560; m_5_7=0.004709; m_6_6=0.288608; m_6_7=0.467547; m_7_7=0.288241; m_7_8=0.630988; m_8_8=0.291150; m_8_9=0.742654; m_9_9=0.293084; m_9_10=1.106456; m_10_10=0.293728; m_10_11=1.271361}
!
! Created with skrf (http://scikit-rf.org).
# Hz S RI R 50.0 
!freq ReS11 ImS11 ReS21 ImS21 ReS12 ImS12 ReS22 ImS22
12607400000.0 0.9113070791995513 0.41172734594705435 -1.0986871785609505e-16 -1.5072973057368802e-17 -1.0986871785609505e-16 -1.5072973057368802e-17 0.9113068035855783 0.41172795598363165
12608017333.333334 0.9155958522338519 0.40209978285494063 -1.1000116454744503e-16 -1.390169713242711e-17 -1.1000116454744503e-16 -1.390169713242711e-17 0.9155955830778283 0.4021003957324521
12608634666.666666 0.9197829176338684 0.392427553095794 -1.1012113281491852e-16 -1.272930945392988e-17 -1.1012113281491852e-16 -1.272930945392988e-17 0.9197826549650601 0.39242816874588454
12609252000.0 0.9238678102856301 0.38271173109516604 -1.1022861399520547e-16 -1.1555942876496716e-17 -1.1022861399520547e-16 -1.1555942876496716e-17 0.9238675541325786 0.38271234944917887
12609869333.333334 0.9278500764248537 0.372953396121039 -1.1032360083854358e-16 -1.038173031327328e-17 -1.1032360083854358e-16 -1.038173031327328e-17 0.9278498268153741 0.37295401711002385
12610486666.666666 0.931729273687332 0.3631536321639917 -1.1040608750898524e-16 -9.206804720891857e-18 -1.1040608750898524e-16 -9.206804720891857e-18 0.9317290306485096 0.3631542557187122
12611104000.0 0.9355049711582198 0.3533135278164157 -1.1047606958450227e-16 -8.031299084432655e-18 -1.1047606958450227e-16 -8.031299084432655e-18 0.9355047347164076 0.35331415386735726
12611721333.333334 0.9391767494196821 0.34343417615214594 -1.1053354405693122e-16 -6.855346402416252e-18 -1.1053354405693122e-16 -6.855346402416252e-18 0.9391765196004974 0.3434348046295238
12612338666.666666 0.9427442005976593 0.33351667460458817 -1.1057850933175955e-16 -5.679079671775152e-18 -1.1057850933175955e-16 -5.679079671775152e-18 0.9427439774259829 0.33351730543835495
12612956000.0 0.946206928407144 0.32356212484489055 -1.1061096522775307e-16 -4.502631872812574e-18 -1.1061096522775307e-16 -4.502631872812574e-18 0.9462067119071141 0.3235627579647435
12613573333.333334 0.9495645481960945 0.31357163265986043 -1.106309129764213e-16 -3.3261359542476226e-18 -1.106309129764213e-16 -3.3261359542476226e-18 0.949564338391106 0.3135722679952499
12614190666.666666 0.9528166869882797 0.303546307828809 -1.1063835522132699e-16 -2.149724818159797e-18 -1.1063835522132699e-16 -2.149724818159797e-18 0.9528164839009822 0.30354694530894644
12614808000.0 0.9559629835246898 0.29348726400032593 -1.1063329601723414e-16 -9.735313050421665e-19 -1.1063329601723414e-16 -9.735313050421665e-19 0.9559627871769847 0.29348790355419135
12615425333.333334 0.9590030883036135 0.2833956185687333 -1.1061574082909779e-16 2.0231182120185373e-19 -1.1061574082909779e-16 2.0231182120185373e-19 0.9590028987166511 0.2833962601250833
12616042666.666666 0.9619366636195296 0.27327249254974484 -1.1058569653089495e-16 1.3776718881937393e-18 -1.1058569653089495e-16 1.3776718881937393e-18 0.9619364808137078 0.27327313603712083
12616660000.0 0.9647633836005568 0.2631190104561576 -1.1054317140429698e-16 2.552416330049219e-18 -1.1054317140429698e-16 2.552416330049219e-18 0.9647632075955167 0.26311965580289287
12617277333.333334 0.9674829342447203 0.2529363001726901 -1.104881751371837e-16 3.726412702282615e-18 -1.104881751371837e-16 3.726412702282615e-18 0.9674827650593474 0.252936947306919
12617894666.666666 0.9700950134547377 0.2427254928310504 -1.1042071882199912e-16 4.8995286967230695e-18 -1.1042071882199912e-16 4.8995286967230695e-18 0.9700948511071565 0.2427261416807154
12618512000.0 0.9725993310717117 0.23248772268376322 -1.1034081495394868e-16 6.071632156409521e-18 -1.1034081495394868e-16 6.071632156409521e-18 0.9725991755792875 0.23248837317662374
12619129333.333334 0.9749956089072107 0.22222412697877933 -1.1024847742904063e-16 7.242591090434564e-18 -1.1024847742904063e-16 7.242591090434564e-18 0.9749954602865448 0.22222477904241908
12619746666.666666 0.9772835807742927 0.2119358458326495 -1.101437215419684e-16 8.412273688788843e-18 -1.101437215419684e-16 8.412273688788843e-18 0.9772834390412206 0.21193649939448464
12620364000.0 0.979462992517017 0.2016240221040962 -1.1002656398383436e-16 9.580548337197966e-18 -1.1002656398383436e-16 9.580548337197966e-18 0.9794628576866091 0.2016246770913839
12620981333.333334 0.9815336020386769 0.19128980126709014 -1.098970228397235e-16 1.0747283631853325e-17 -1.098970228397235e-16 1.0747283631853325e-17 0.9815334741252343 0.1912904576069362
12621598666.666666 0.9834951793287027 0.180934331283551 -1.0975511758611084e-16 1.1912348394222827e-17 -1.0975511758611084e-16 1.1912348394222827e-17 0.9834950583457569 0.18093498890291806
12622216000.0 0.9853475064882273 0.17055876247574364 -1.0960086908812187e-16 1.3075611685733534e-17 -1.0960086908812187e-16 1.3075611685733534e-17 0.9853473924485385 0.17055942130145926
12622833333.333334 0.9870903777542627 0.16016424739863547 -1.0943429959662986e-16 1.4236942822493198e-17 -1.0943429959662986e-16 1.4236942822493198e-17 0.98709027066982 0.16016490735740083
12623450666.666666 0.9887235995225582 0.14975194071189613 -1.092554327452064e-16 1.5396211389908894e-17 -1.092554327452064e-16 1.5396211389908894e-17 0.9887234994045763 0.1497526017302934
12624068000.0 0.9902469903691429 0.13932299905140863 -1.0906429354690653e-16 1.655328725734716e-17 -1.0906429354690653e-16 1.655328725734716e-17 0.9902468972280608 0.13932366105590943
12624685333.333334 0.9916603810704449 0.12887858090095394 -1.088609083909073e-16 1.7708040592694156e-17 -1.088609083909073e-16 1.7708040592694156e-17 0.9916602949159263 0.12887924381792765
12625302666.666666 0.9929636146220903 0.11841984646357986 -1.0864530503899214e-16 1.8860341876892268e-17 -1.0864530503899214e-16 1.8860341876892268e-17 0.9929635354630219 0.11842051021930164
12625920000.0 0.9941565462563632 0.10794795753252351 -1.0841751262187442e-16 2.0010061918463058e-17 -1.0841751262187442e-16 2.0010061918463058e-17 0.9941564741008542 0.10794862205318267
12626537333.333334 0.9952390434582713 0.09746407736232512 -1.0817756163537727e-16 2.1157071867947856e-17 -1.0817756163537727e-16 2.1157071867947856e-17 0.9952389783136518 0.09746474257403318
12627154666.666666 0.9962109859802587 0.08696937053966583 -1.0792548393645726e-16 2.23012432323162e-17 -1.0792548393645726e-16 2.23012432323162e-17 0.9962109278530785 0.0869700363684647
12627772000.0 0.9970722658556013 0.07646500285360541 -1.0766131273906614e-16 2.3442447889377514e-17 -1.0766131273906614e-16 2.3442447889377514e-17 0.9970722147516318 0.07646566922547578
12628389333.333334 0.997822787410346 0.06595214116670492 -1.0738508260988481e-16 2.4580558102035077e-17 -1.0738508260988481e-16 2.4580558102035077e-17 0.9978227433345764 0.06595280800757432
12629006666.666666 0.9984624672739884 0.055431953284755926 -1.0709682946387535e-16 2.571544653262849e-17 -1.0709682946387535e-16 2.571544653262849e-17 0.9984624302306291 0.05543262052050721
12629624000.0 0.9989912343887003 0.04490560782759537 -1.0679659055971228e-16 2.6846986257097247e-17 -1.0679659055971228e-16 2.6846986257097247e-17 0.9989912043811767 0.04490627538407452
12630241333.333334 0.9994090300172394 0.03437427409889346 -1.0648440449503992e-16 2.7975050779192624e-17 -1.0648440449503992e-16 2.7975050779192624e-17 0.9994090070481975 0.03437494190191824
12630858666.666666 0.9997158077494627 0.023839121956661245 -1.0616031120160193e-16 2.909951404455076e-17 -1.0616031120160193e-16 2.909951404455076e-17 0.9997157918207661 0.023839789932029277
12631476000.0 0.9999115335074978 0.013301321682758752 -1.0582435194019514e-16 3.022025045480995e-17 -1.0582435194019514e-16 3.022025045480995e-17 0.999911524620228 0.013301989756255737
12632093333.333334 0.9999961855495132 0.0027620438534641375 -1.0547656929550925e-16 3.13371348815506e-17 -1.0547656929550925e-16 3.13371348815506e-17 0.9999961837039683 0.002762711950872134
12632710666.666666 0.9999697544721401 -0.007777540790813751 -1.0511700717078903e-16 3.2450042680281785e-17 -1.0511700717078903e-16 3.2450042680281785e-17 0.9999697596678374 -0.007776872743708077
12633328000.0 0.9998322432115166 -0.01831626147581274 -1.0474571078236399e-16 3.35588497043167e-17 -1.0474571078236399e-16 3.35588497043167e-17 0.9998322554471912 -0.018315593553209893
12633945333.333334 0.9995836670429642 -0.02885294752301641 -1.0436272665403083e-16 3.4663432318592446e-17 -1.0436272665403083e-16 3.4663432318592446e-17 0.999583686316568 -0.028852279799095784
12634562666.666666 0.9992240535792808 -0.03938642848006653 -1.0396810261129226e-16 3.576366741342089e-17 -1.0396810261129226e-16 3.576366741342089e-17 0.9992240798879861 -0.03938576102897825
12635180000.0 0.9987534427676876 -0.04991553425052549 -1.035618877754416e-16 3.6859432418204375e-17 -1.035618877754416e-16 3.6859432418204375e-17 0.9987534761078848 -0.0499148671463821
12635797333.333334 0.9981718868853776 -0.060439095224110284 -1.0314413255751677e-16 3.795060531504377e-17 -1.0314413255751677e-16 3.795060531504377e-17 0.9981719272526758 -0.06043842854097856
12636414666.666666 0.9974794505337246 -0.07095594240627627 -1.0271488865210043e-16 3.903706465231137e-17 -1.0271488865210043e-16 3.903706465231137e-17 0.9974794979229534 -0.07095527621816901
12637032000.0 0.9966762106310872 -0.08146490754847072 -1.022742090309839e-16 4.011868955813693e-17 -1.022742090309839e-16 4.011868955813693e-17 0.9966762650362968 -0.08146424192933842
12637649333.333334 0.9957622564042843 -0.09196482327756526 -1.0182214793668175e-16 4.1195359753840145e-17 -1.0182214793668175e-16 4.1195359753840145e-17 0.9957623178187454 -0.09196415830128807
12638266666.666666 0.9947376893786625 -0.10245452322578712 -1.0135876087581967e-16 4.2266955567259604e-17 -1.0135876087581967e-16 4.2266955567259604e-17 0.9947377577948695 -0.10245385896616661
12638884000.0 0.9936026233668446 -0.11293284216005706 -1.0088410461236343e-16 4.3333357946050866e-17 -1.0088410461236343e-16 4.3333357946050866e-17 0.9936026987765137 -0.1129321786908079
12639501333.333334 0.992357184456054 -0.12339861611168178 -1.0039823716072661e-16 4.439444847086639e-17 -1.0039823716072661e-16 4.439444847086639e-17 0.9923572668501252 -0.12339795350642362
12640118666.666666 0.9910015109941568 -0.13385068250525636 -9.990121777873003e-17 4.5450109368484955e-17 -9.990121777873003e-17 4.5450109368484955e-17 0.9910016003627963 -0.13385002083750586
12640736000.0 0.9895357535742102 -0.1442878802884845 -9.939310696041377e-17 4.650022352487941e-17 -9.939310696041377e-17 4.650022352487941e-17 0.9895358499068101 -0.14428721963164687
12641353333.333334 0.9879600750178517 -0.15470905006025018 -9.887396642874563e-17 4.754467449813747e-17 -9.887396642874563e-17 4.754467449813747e-17 0.9879601783030314 -0.15470839048761123
12641970666.666666 0.9862746503570998 -0.1651130342002249 -9.834385912815446e-17 4.858334653138333e-17 -9.834385912815446e-17 4.858334653138333e-17 0.9862747605827069 -0.16511237578494278
12642588000.0 0.9844796668149797 -0.17549867699698182 -9.780284921694846e-17 4.961612456557444e-17 -9.780284921694846e-17 4.961612456557444e-17 0.9844797839680933 -0.17549801981207908
12643205333.333334 0.982575323784711 -0.18586482477648902 -9.725100205960659e-17 5.064289425220075e-17 -9.725100205960659e-17 5.064289425220075e-17 0.982575447851641 -0.18586416889484425
12643822666.666666 0.9805618328075267 -0.1962103260304313 -9.668838421891036e-17 5.166354196595163e-17 -9.668838421891036e-17 5.166354196595163e-17 0.9805619637738174 -0.19620967152477148
12644440000.0 0.9784394175492094 -0.20653403154392794 -9.611506344797878e-17 5.267795481722703e-17 -9.611506344797878e-17 5.267795481722703e-17 0.9784395553996396 -0.20653337848682
12645057333.333334 0.9762083137752523 -0.21683479452316398 -9.553110868214038e-17 5.368602066462115e-17 -9.553110868214038e-17 5.368602066462115e-17 0.9762084584938376 -0.2168341429870068
12645674666.666666 0.9738687693246637 -0.2271114707228368 -9.493659003070022e-17 5.4687628127270616e-17 -9.493659003070022e-17 5.4687628127270616e-17 0.9738689208946579 -0.22711082077985312
12646292000.0 0.9714210440823671 -0.2373629185735388 -9.4331578768542e-17 5.568266659717381e-17 -9.4331578768542e-17 5.568266659717381e-17 0.9714212024862661 -0.2373622702957678
12646909333.333334 0.9688654099504636 -0.24758799930801426 -9.371614732765832e-17 5.667102625132156e-17 -9.371614732765832e-17 5.667102625132156e-17 0.9688655751700045 -0.24758735276730268
12647526666.666666 0.966202150817908 -0.25778557708815436 -9.309036928849198e-17 5.765259806383887e-17 -9.309036928849198e-17 5.765259806383887e-17 0.9662023228340739 -0.25778493235614935
12648144000.0 0.9634315625290372 -0.2679545191309228 -9.245431937119379e-17 5.86272738179597e-17 -9.245431937119379e-17 5.86272738179597e-17 0.9634317413220558 -0.267953876279063
12648761333.333334 0.9605539528506699 -0.27809369583429716 -9.180807342673462e-17 5.959494611794064e-17 -9.180807342673462e-17 5.959494611794064e-17 0.9605541384000214 -0.2780930549338063
12649378666.666666 0.9575696414379906 -0.2882019809025329 -9.115170842791312e-17 6.055550840084544e-17 -9.115170842791312e-17 6.055550840084544e-17 0.9575698337224046 -0.28820134202441033
12649996000.0 0.9544789597989326 -0.2982782514716295 -9.048530246020441e-17 6.15088549482858e-17 -9.048530246020441e-17 6.15088549482858e-17 0.9544791587963933 -0.2982776146866434
12650613333.333334 0.9512822512574434 -0.30832138823376315 -8.980893471252795e-17 6.245488089799974e-17 -8.980893471252795e-17 6.245488089799974e-17 0.9512824569451918 -0.3083207536124421
12651230666.666666 0.9479798709153145 -0.31833027556173193 -8.912268546786908e-17 6.33934822553681e-17 -8.912268546786908e-17 6.33934822553681e-17 0.9479800832698496 -0.3183296431743572
12651848000.0 0.9445721856127166 -0.3283038016329378 -8.842663609378309e-17 6.432455590482259e-17 -8.842663609378309e-17 6.432455590482259e-17 0.9445724046098003 -0.3283031715495359
12652465333.333334 0.9410595738874593 -0.33824085855286473 -8.772086903278664e-17 6.524799962114317e-17 -8.772086903278664e-17 6.524799962114317e-17 0.9410597995021165 -0.338240230843199
12653082666.666666 0.9374424259330132 -0.34814034247793174 -8.700546779264442e-17 6.616371208063279e-17 -8.700546779264442e-17 6.616371208063279e-17 0.9374426581395386 -0.3481397172114957
12653700000.0 0.933721143555001 -0.358001153738596 -8.628051693649099e-17 6.707159287225074e-17 -8.628051693649099e-17 6.707159287225074e-17 0.933721382326958 -0.35800053098460455
12654317333.333334 0.9298961401267613 -0.36782219696094476 -8.554610207291211e-17 6.797154250853963e-17 -8.554610207291211e-17 6.797154250853963e-17 0.9298963854369867 -0.3678215767883271
12654934666.666666 0.9259678405433054 -0.3776023811887221 -8.480230984583901e-17 6.886346243654014e-17 -8.480230984583901e-17 6.886346243654014e-17 0.9259680923639132 -0.37760176366611414
12655552000.0 0.9219366811740828 -0.38734062000459263 -8.404922792436571e-17 6.974725504854565e-17 -8.404922792436571e-17 6.974725504854565e-17 0.9219369394764663 -0.38734000520032913
12656169333.333334 0.9178031098146797 -0.3970358316504047 -8.328694499247323e-17 7.062282369272897e-17 -8.328694499247323e-17 7.062282369272897e-17 0.9178033745695139 -0.3970352196325114
12656786666.666666 0.9135675856368795 -0.40668693914782733 -8.251555073859599e-17 7.149007268371063e-17 -8.251555073859599e-17 7.149007268371063e-17 0.9135678568141271 -0.4066863299840146
12657404000.0 0.9092305791378014 -0.41629287041764607 -8.173513584510709e-17 7.23489073129808e-17 -8.173513584510709e-17 7.23489073129808e-17 0.9092308567067149 -0.41629226417530046
12658021333.333334 0.9047925720875234 -0.42585255839911246 -8.094579197770155e-17 7.319923385919996e-17 -8.094579197770155e-17 7.319923385919996e-17 0.9047928560166459 -0.4258519551452888
12658638666.666666 0.9002540574757139 -0.4353649411681407 -8.014761177465711e-17 7.404095959840323e-17 -8.014761177465711e-17 7.404095959840323e-17 0.9002543477328886 -0.4353643409695564
12659256000.0 0.8956155394566594 -0.44482896205573497 -7.93406888359903e-17 7.487399281408506e-17 -7.93406888359903e-17 7.487399281408506e-17 0.8956158360090267 -0.44482836497876066
12659873333.333334 0.8908775332934595 -0.4542435697649288 -7.8525117712515e-17 7.569824280715962e-17 -7.8525117712515e-17 7.569824280715962e-17 0.8908778361074656 -0.45424297587558227
12660490666.666666 0.8860405653007004 -0.4636077184877746 -7.77009938948135e-17 7.651361990578727e-17 -7.77009938948135e-17 7.651361990578727e-17 0.8860408743420986 -0.46360712785171326
12661108000.0 0.8811051727859582 -0.47292036802156506 -7.68684138020483e-17 7.732003547513819e-17 -7.68684138020483e-17 7.732003547513819e-17 0.8811054880198121 -0.4729197807040777
12661725333.333334 0.8760719039901897 -0.482180483884229 -7.602747477076195e-17 7.811740192694783e-17 -7.602747477076195e-17 7.811740192694783e-17 0.8760722253808817 -0.4821798999502309
12662342666.666666 0.8709413180267981 -0.49138703742932444 -7.517827504348684e-17 7.890563272903943e-17 -7.517827504348684e-17 7.890563272903943e-17 0.8709416455380282 -0.49138645694334815
12662960000.0 0.8657139848194793 -0.5005390059603769 -7.43209137573282e-17 7.968464241465464e-17 -7.43209137573282e-17 7.968464241465464e-17 0.8657143184142712 -0.5005384289865653
12663577333.333334 0.8603904850390115 -0.509635372844311 -7.345549093240144e-17 8.045434659170725e-17 -7.345549093240144e-17 8.045434659170725e-17 0.8603908246797158 -0.5096347994464103
12664194666.666666 0.8549714100386361 -0.5186751276245775 -7.258210746021267e-17 8.121466195187605e-17 -7.258210746021267e-17 8.121466195187605e-17 0.8549717556869378 -0.5186745578659314
12664812000.0 0.8494573617884877 -0.5276572661332042 -7.170086509191116e-17 8.196550627960313e-17 -7.170086509191116e-17 8.196550627960313e-17 0.8494577134054077 -0.527656700076746
12665429333.333334 0.8438489528085902 -0.5365807906025608 -7.081186642646993e-17 8.270679846094648e-17 -7.081186642646993e-17 8.270679846094648e-17 0.8438493103544896 -0.5365802283108063
12666046666.666666 0.8381468061010127 -0.5454447097758811 -6.991521489878978e-17 8.343845849229338e-17 -6.991521489878978e-17 8.343845849229338e-17 0.8381471695355974 -0.545444151310921
12666664000.0 0.8323515550803725 -0.5542480390178306 -6.901101476765166e-17 8.416040748899634e-17 -6.901101476765166e-17 8.416040748899634e-17 0.8323519243626988 -0.554247484441325
12667281333.333334 0.8264638435037964 -0.5629898004233799 -6.809937110367355e-17 8.48725676938022e-17 -6.809937110367355e-17 8.48725676938022e-17 0.8264642185922758 -0.5629892497965518
12667898666.666666 0.8204843253992133 -0.5716690229267484 -6.718038977709975e-17 8.55748624852182e-17 -6.718038977709975e-17 8.55748624852182e-17 0.8204847062516151 -0.5716684763103749
12668516000.0 0.8144136649926461 -0.5802847424093379 -6.625417744552731e-17 8.626721638572552e-17 -6.625417744552731e-17 8.626721638572552e-17 0.8144140515661044 -0.5802841998637455
12669133333.333334 0.8082525366346895 -0.588836001806459 -6.532084154159594e-17 8.694955506982576e-17 -6.532084154159594e-17 8.694955506982576e-17 0.808252928885707 -0.5888354633915158
12669750666.666666 0.8020016247253057 -0.5973218512140628 -6.438049026051379e-17 8.762180537201585e-17 -6.438049026051379e-17 8.762180537201585e-17 0.8020020226097592 -0.5973213169891729
12670368000.0 0.7956616236379987 -0.6057413479939837 -6.343323254756095e-17 8.828389529458369e-17 -6.343323254756095e-17 8.828389529458369e-17 0.7956620271111429 -0.6057408180180794
