! Parameters = {f0=12700.012000; bw=77.238000; Q=6100.000000; N=10; m_0_1=1.159054; m_1_1=-1.378935; m_1_2=0.993866; m_2_2=-1.379584; m_2_3=0.630829; m_2_8=-0.004984; m_2_9=0.031720; m_3_3=-1.381521; m_3_4=0.519358; m_3_7=-0.004384; m_3_8=-0.101472; m_3_9=-0.004984; m_4_4=-1.384446; m_4_5=0.355693; m_4_6=-0.000867; m_4_7=-0.122021; m_4_8=-0.004384; m_5_5=-1.384064; m_5_6=0.763048; m_5_7=-0.000867; m_6_6=-1.384065; m_6_7=0.356035; m_7_7=-1.384432; m_7_8=0.519476; m_8_8=-1.381523; m_8_9=0.631142; m_9_9=-1.379589; m_9_10=0.994944; m_10_10=-1.378945; m_10_11=1.159849}
!
! Created with skrf (http://scikit-rf.org).
# Hz S RI R 50.0 
!freq ReS11 ImS11 ReS21 ImS21 ReS12 ImS12 ReS22 ImS22
12607400000.0 0.2457797785731217 -0.9693256936883496 2.5207568574661614e-18 6.348574254407806e-17 2.5207568574661614e-18 6.348574254407806e-17 0.2457803706810135 -0.9693255435547727
12608017333.333334 0.2387524765891771 -0.9710804574917504 2.9855635483034838e-18 6.345312271649645e-17 2.9855635483034838e-18 6.345312271649645e-17 0.2387530697399084 -0.9710803116579095
12608634666.666666 0.23171264913449088 -0.9727842763074093 3.4500276201160273e-18 6.341710360093833e-17 3.4500276201160273e-18 6.341710360093833e-17 0.231713243296843 -0.9727841347805332
12609252000.0 0.22466066553369204 -0.974437060749339 3.914124240397327e-18 6.33776884653025e-17 3.914124240397327e-18 6.33776884653025e-17 0.2246612606763966 -0.9744369235364311
12609869333.333334 0.21759689574911978 -0.9760387241089356 4.377828606116389e-18 6.333488075869128e-17 4.377828606116389e-18 6.333488075869128e-17 0.21759749184085966 -0.976038591216771
12610486666.666666 0.2105217103615242 -0.9775891823594973 4.8411159450294884e-18 6.328868411115529e-17 4.8411159450294884e-18 6.328868411115529e-17 0.21052230737093572 -0.9775890537946246
12611104000.0 0.20343548055043126 -0.9790883541606792 5.3039615170184915e-18 6.323910233342533e-17 5.3039615170184915e-18 6.323910233342533e-17 0.2034360784461057 -0.9790882299294187
12611721333.333334 0.19633857807489208 -0.9805361608627104 5.766340615382081e-18 6.31861394166397e-17 5.766340615382081e-18 6.31861394166397e-17 0.19633917682537724 -0.9805360409711548
12612338666.666666 0.18923137525381256 -0.9819325265105564 6.228228568167749e-18 6.312979953205723e-17 6.228228568167749e-18 6.312979953205723e-17 0.18923197482761453 -0.9819324109645702
12612956000.0 0.18211424494639286 -0.9832773778479088 6.689600739483433e-18 6.307008703076257e-17 6.689600739483433e-18 6.307008703076257e-17 0.18211484531197766 -0.9832772666531281
12613573333.333334 0.17498756053281755 -0.9845706443209785 7.15043253079061e-18 6.3007006443364e-17 7.15043253079061e-18 6.3007006443364e-17 0.1749881616586128 -0.9845705374828111
12614190666.666666 0.16785169589438814 -0.9858122580822529 7.610699382228885e-18 6.294056247967748e-17 7.610699382228885e-18 6.294056247967748e-17 0.1678522977487846 -0.9858121556058772
12614808000.0 0.16070702539404796 -0.9870021539940275 8.070376773912946e-18 6.287076002840457e-17 8.070376773912946e-18 6.287076002840457e-17 0.16070762794540114 -0.9870020558843912
12615425333.333334 0.1535539238567145 -0.9881402696318272 8.529440227228628e-18 6.279760415680025e-17 8.529440227228628e-18 6.279760415680025e-17 0.15355452707334652 -0.9881401758936497
12616042666.666666 0.14639276654958666 -0.9892265452876865 8.987865306142366e-18 6.272110011032954e-17 8.987865306142366e-18 6.272110011032954e-17 0.14639337039978806 -0.9892264559254582
12616660000.0 0.13922392916257084 -0.990260923973267 9.445627618489981e-18 6.264125331231701e-17 9.445627618489981e-18 6.264125331231701e-17 0.13922453361460183 -0.9902608389912472
12617277333.333334 0.13204778778837378 -0.9912433514228738 9.902702817273263e-18 6.25580693635849e-17 9.902702817273263e-18 6.25580693635849e-17 0.13204839281046601 -0.9912432708250914
12617894666.666666 0.12486471890302532 -0.9921737760962656 1.0359066601941275e-17 6.247155404208476e-17 1.0359066601941275e-17 6.247155404208476e-17 0.12486532446338387 -0.9921736998865199
12618512000.0 0.11767509934579 -0.9930521491814076 1.0814694719696963e-17 6.238171330251408e-17 1.0814694719696963e-17 6.238171330251408e-17 0.11767570541259478 -0.9930520773632675
12619129333.333334 0.11047930629979147 -0.9938784245969783 1.1269562966756405e-17 6.228855327593157e-17 1.1269562966756405e-17 6.228855327593157e-17 0.11047991284119885 -0.9938783571737811
12619746666.666666 0.10327771727194286 -0.9946525589948234 1.1723647189647466e-17 6.219208026935588e-17 1.1723647189647466e-17 6.219208026935588e-17 0.10327832425608752 -0.9946524959696766
12620364000.0 0.09607071007314182 -0.9953745117622294 1.2176923286487496e-17 6.20923007653576e-17 1.2176923286487496e-17 6.20923007653576e-17 0.09607131746813825 -0.9953744531380085
12620981333.333334 0.08885866279870389 -0.9960442450240251 1.2629367208241902e-17 6.198922142164561e-17 1.2629367208241902e-17 6.198922142164561e-17 0.08885927057264818 -0.996044190803375
12621598666.666666 0.08164195380821596 -0.9966617236446025 1.3080954960012908e-17 6.18828490706373e-17 1.3080954960012908e-17 6.18828490706373e-17 0.08164256192918752 -0.9966616738299371
12622216000.0 0.0744209617059415 -0.9972269152297367 1.3531662602298445e-17 6.177319071902502e-17 1.3531662602298445e-17 6.177319071902502e-17 0.07442157014200448 -0.9972268698232373
12622833333.333334 0.06719606532073119 -0.9977397901283005 1.3981466252259922e-17 6.166025354733079e-17 1.3981466252259922e-17 6.166025354733079e-17 0.06719667403993655 -0.9977397491319187
12623450666.666666 0.0599676436863759 -0.998200321433808 1.4430342084975925e-17 6.154404490945409e-17 1.4430342084975925e-17 6.154404490945409e-17 0.0599682526567627 -0.9982002848492623
12624068000.0 0.052736076021551316 -0.998608484985834 1.48782663347098e-17 6.142457233220656e-17 1.48782663347098e-17 6.142457233220656e-17 0.05273668521114868 -0.9986084528146122
12624685333.333334 0.04550174170989511 -0.9989642593712849 1.532521529615785e-17 6.130184351484131e-17 1.532521529615785e-17 6.130184351484131e-17 0.0455023510867237 -0.9989642316146429
12625302666.666666 0.03826502028038727 -0.9992676259255052 1.5771165325692073e-17 6.117586632857362e-17 1.5771165325692073e-17 6.117586632857362e-17 0.038265629812461156 -0.9992676025844673
12625920000.0 0.031026291387013533 -0.9995185687332786 1.621609284262518e-17 6.104664881608586e-17 1.621609284262518e-17 6.104664881608586e-17 0.031026901042341706 -0.9995185498086377
12626537333.333334 0.02378593478924533 -0.9997170746296443 1.6659974330430037e-17 6.091419919103442e-17 1.6659974330430037e-17 6.091419919103442e-17 0.023786544535833468 -0.9997170601219616
12627154666.666666 0.016544330331946553 -0.9998631332006 1.7102786337988236e-17 6.077852583753894e-17 1.7102786337988236e-17 6.077852583753894e-17 0.01654494013779864 -0.9998631231102036
12627772000.0 0.009301857925275348 -0.9999567367836429 1.754450548083446e-17 6.0639637309662e-17 1.754450548083446e-17 6.0639637309662e-17 0.009302467758395425 -0.9999567311106303
12628389333.333334 0.002058897525122786 -0.9999978804681708 1.798510844236245e-17 6.049754233089042e-17 1.798510844236245e-17 6.049754233089042e-17 0.002059507353516588 -0.9999978792124082
12629006666.666666 -0.005184170887133097 -0.9999865620957445 1.842457197507671e-17 6.035224979359263e-17 1.842457197507671e-17 6.035224979359263e-17 -0.005183561095456467 -0.9999865652568657
12629624000.0 -0.01242696732441986 -0.9999227822601955 1.8862872901795314e-17 6.020376875848065e-17 1.8862872901795314e-17 6.020376875848065e-17 -0.012426357601446244 -0.9999227898376025
12630241333.333334 -0.019669111813962456 -0.9998065443075993 1.9299988116877724e-17 6.005210845405446e-17 1.9299988116877724e-17 6.005210845405446e-17 -0.019668502191670944 -0.9998065563004622
12630858666.666666 -0.026910224417075253 -0.9996378543360964 1.973589458742933e-17 5.98972782760433e-17 1.973589458742933e-17 5.98972782760433e-17 -0.026909614927436588 -0.9996378707433561
12631476000.0 -0.0341499252494072 -0.9994167211955751 2.017056935452218e-17 5.973928778683164e-17 2.017056935452218e-17 5.973928778683164e-17 -0.034149315924381946 -0.9994167420159373
12632093333.333334 -0.04138783450050173 -0.9991431564872035 2.060398953438574e-17 5.957814671488506e-17 2.060398953438574e-17 5.957814671488506e-17 -0.04138722537203876 -0.9991431817191454
12632710666.666666 -0.04862357245389323 -0.9988171745628303 2.1036132319618584e-17 5.941386495415865e-17 2.1036132319618584e-17 5.941386495415865e-17 -0.048622963553927964 -0.9988172042045966
12633328000.0 -0.05585675950719787 -0.9984387925242129 2.1466974980376777e-17 5.924645256350291e-17 2.1466974980376777e-17 5.924645256350291e-17 -0.055856150867650646 -0.9984388265738184
12633945333.333334 -0.06308701619165953 -0.9980080302221453 2.1896494865566313e-17 5.907591976605874e-17 2.1896494865566313e-17 5.907591976605874e-17 -0.06308640784443385 -0.9980080686773724
12634562666.666666 -0.0703139631923696 -0.9975249102553958 2.2324669404028968e-17 5.89022769486438e-17 2.2324669404028968e-17 5.89022769486438e-17 -0.07031335516935056 -0.9975249531137964
12635180000.0 -0.07753722136802488 -0.9969894579695314 2.2751476105723484e-17 5.872553466113073e-17 2.2751476105723484e-17 5.872553466113073e-17 -0.07753661370107741 -0.9969895052284268
12635797333.333334 -0.08475641177087467 -0.9964017014555825 2.3176892562903565e-17 5.854570361581586e-17 2.3176892562903565e-17 5.854570361581586e-17 -0.08475580449184202 -0.9964017531120638
12636414666.666666 -0.09197115566648822 -0.9957616715485812 2.3600896451282784e-17 5.836279468678326e-17 2.3600896451282784e-17 5.836279468678326e-17 -0.09197054880719002 -0.9957617275995084
12637032000.0 -0.09918107455379362 -0.9950694018259272 2.402346553121097e-17 5.817681890925305e-17 2.402346553121097e-17 5.817681890925305e-17 -0.09918046814602445 -0.9950694622679306
12637649333.333334 -0.10638579018482164 -0.9943249286056374 2.4444577648829196e-17 5.79877874789286e-17 2.4444577648829196e-17 5.79877874789286e-17 -0.10638518426034928 -0.9943249934351165
12638266666.666666 -0.11358492458457753 -0.9935282909444351 2.4864210737227822e-17 5.779571175133148e-17 2.4864210737227822e-17 5.779571175133148e-17 -0.11358431917514136 -0.9935283601575613
12638884000.0 -0.12077810007089905 -0.9926795306357022 2.5282342817597932e-17 5.760060324112923e-17 2.5282342817597932e-17 5.760060324112923e-17 -0.12077749520820831 -0.9926796042284161
12639501333.333334 -0.12796493927415722 -0.9917786922072968 2.5698952000379094e-17 5.740247362145387e-17 2.5698952000379094e-17 5.740247362145387e-17 -0.12796433498988924 -0.991778770175309
12640118666.666666 -0.1351450651571952 -0.9908258229192007 2.611401648639217e-17 5.720133472321662e-17 2.611401648639217e-17 5.720133472321662e-17 -0.13514446148299417 -0.9908259052579949
12640736000.0 -0.1423181010351649 -0.989820972761034 2.652751456799435e-17 5.699719853440152e-17 2.652751456799435e-17 5.699719853440152e-17 -0.1423174980026395 -0.9898210594658624
12641353333.333334 -0.14948367059492193 -0.988764194449477 2.6939424630180444e-17 5.679007719937427e-17 2.6939424630180444e-17 5.679007719937427e-17 -0.14948306823564447 -0.9887642855153655
12641970666.666666 -0.15664139791521914 -0.9876555434254495 2.7349725151735007e-17 5.657998301815518e-17 2.7349725151735007e-17 5.657998301815518e-17 -0.15664079626072336 -0.9876556388471944
12642588000.0 -0.1637909074861745 -0.9864950778512327 2.7758394706337443e-17 5.636692844570513e-17 2.7758394706337443e-17 5.636692844570513e-17 -0.1637903065679541 -0.9864951776234028
12643205333.333334 -0.17093182422899927 -0.9852828586074158 2.816541196367724e-17 5.61509260911948e-17 2.816541196367724e-17 5.61509260911948e-17 -0.1709312240785062 -0.9852829627243519
12643822666.666666 -0.17806377351581573 -0.9840189492896784 2.857075569056871e-17 5.593198871726409e-17 2.857075569056871e-17 5.593198871726409e-17 -0.1780631741644588 -0.9840190577454948
12644440000.0 -0.18518638118903089 -0.9827034162055025 2.8974404752045586e-17 5.571012923928051e-17 2.8974404752045586e-17 5.571012923928051e-17 -0.1851857826681737 -0.9827035289940856
12645057333.333334 -0.1922992735812735 -0.9813363283706397 2.937633811245972e-17 5.548536072458537e-17 2.937633811245972e-17 5.548536072458537e-17 -0.19229867592223313 -0.9813364454856495
12645674666.666666 -0.1994020775347459 -0.9799177575055372 2.9776534836572015e-17 5.5257696391732043e-17 2.9776534836572015e-17 5.5257696391732043e-17 -0.19940148076879113 -0.9799178789404074
12646292000.0 -0.20649442042102376 -0.9784477780315306 3.0174974090648754e-17 5.502714960971102e-17 3.0174974090648754e-17 5.502714960971102e-17 -0.20649382457937343 -0.9784479037794686
12646909333.333334 -0.21357593016038232 -0.9769264670669855 3.057163514352086e-17 5.479373389718433e-17 3.057163514352086e-17 5.479373389718433e-17 -0.21357533527420386 -0.9769265971209736
12647526666.666666 -0.2206462352414832 -0.9753539044232172 3.0966497367674404e-17 5.4557462921691224e-17 3.0966497367674404e-17 5.4557462921691224e-17 -0.22064564134189082 -0.9753540387760126
12648144000.0 -0.22770496474086507 -0.9737301726003034 3.135954024031048e-17 5.431835049886027e-17 3.135954024031048e-17 5.431835049886027e-17 -0.22770437185891804 -0.9737303112444375
12648761333.333334 -0.234751748342291 -0.9720553567827774 3.175074334440968e-17 5.407641059160757e-17 3.175074334440968e-17 5.407641059160757e-17 -0.23475115650899242 -0.9720554997105586
12649378666.666666 -0.2417862163561778 -0.9703295448351652 3.2140086369781564e-17 5.383165730933308e-17 3.2140086369781564e-17 5.383165730933308e-17 -0.2417856256024726 -0.9703296920386774
12649996000.0 -0.24880799973912754 -0.9685528272973392 3.2527549114122884e-17 5.358410490709973e-17 3.2527549114122884e-17 5.358410490709973e-17 -0.2488074100959011 -0.9685529787684426
12650613333.333334 -0.25581673011320644 -0.9667252973797893 3.2913111484056086e-17 5.3333767784813646e-17 3.2913111484056086e-17 5.3333767784813646e-17 -0.2558161416112828 -0.9667254531101213
12651230666.666666 -0.26281203978518747 -0.9648470509587533 3.3296753496160257e-17 5.3080660486398084e-17 3.3296753496160257e-17 5.3080660486398084e-17 -0.26281145245532794 -0.9648472109397295
12651848000.0 -0.2697935617660064 -0.962918186571148 3.367845527801637e-17 5.282479769894607e-17 3.367845527801637e-17 5.282479769894607e-17 -0.2697929756389072 -0.9629183507939587
12652465333.333334 -0.2767609297899303 -0.9609388054094122 3.405819706921812e-17 5.256619425188452e-17 3.405819706921812e-17 5.256619425188452e-17 -0.2767603448962225 -0.9609389738650304
12653082666.666666 -0.2837137783336658 -0.95890901131624 3.4435959222389606e-17 5.2304865116122026e-17 3.4435959222389606e-17 5.2304865116122026e-17 -0.2837131947039125 -0.9589091839954156
12653700000.0 -0.29065174263583454 -0.9568289107790408 3.481172220421137e-17 5.204082540317955e-17 3.481172220421137e-17 5.204082540317955e-17 -0.290651160300529 -0.956829087672302
12654317333.333334 -0.29757445871572696 -0.954698612924464 3.5185466596404503e-17 5.177409036433781e-17 3.5185466596404503e-17 5.177409036433781e-17 -0.29757387770529187 -0.9546987940221195
12654934666.666666 -0.30448156339269783 -0.9525182295125866 3.5557173096744897e-17 5.1504675389752385e-17 3.5557173096744897e-17 5.1504675389752385e-17 -0.3044809837374835 -0.952518414804726
12655552000.0 -0.311372694305083 -0.9502878749310897 3.592682252004743e-17 5.123259600757778e-17 3.592682252004743e-17 5.123259600757778e-17 -0.3113721160353659 -0.950288064407584
12656169333.333334 -0.3182474899292651 -0.9480076661892439 3.6294395799153966e-17 5.095786788307773e-17 3.6294395799153966e-17 5.095786788307773e-17 -0.3182469130752454 -0.9480078598397433
12656786666.666666 -0.32510558959852953 -0.9456777229117996 3.665987398590541e-17 5.0680506817733936e-17 3.665987398590541e-17 5.0680506817733936e-17 -0.3251050141903312 -0.9456779207257401
12657404000.0 -0.33194663352215054 -0.9432981673326658 3.702323825212184e-17 5.040052874833813e-17 3.702323825212184e-17 5.040052874833813e-17 -0.3319460595898177 -0.9432983692992624
12658021333.333334 -0.3387702628041827 -0.9408691242885162 3.738446989056288e-17 5.011794974608635e-17 3.738446989056288e-17 5.011794974608635e-17 -0.3387696903776799 -0.9408693303967692
12658638666.666666 -0.345576119462185 -0.9383907212122844 3.774355031587943e-17 4.983278601566729e-17 3.774355031587943e-17 4.983278601566729e-17 -0.3455755485713948 -0.9383909314509778
12659256000.0 -0.35236384644626795 -0.9358630881263807 3.8100461065578904e-17 4.954505389432935e-17 3.8100461065578904e-17 4.954505389432935e-17 -0.3523632771209887 -0.9358633024840817
12659873333.333334 -0.3591330876575826 -0.9332863576359541 3.845518380095588e-17 4.925476985096055e-17 3.845518380095588e-17 4.925476985096055e-17 -0.35913251992752854 -0.9332865761010162
12660490666.666666 -0.3658834879670062 -0.9306606649219424 3.8807700308029375e-17 4.896195048515316e-17 3.8807700308029375e-17 4.896195048515316e-17 -0.3658829218618046 -0.9306608874825045
12661108000.0 -0.3726146932340365 -0.9279861477338764 3.915799249848614e-17 4.866661252624953e-17 3.915799249848614e-17 4.866661252624953e-17 -0.3726141287832262 -0.927986374377863
12661725333.333334 -0.37932635032502526 -0.9252629463827838 3.9506042410584056e-17 4.8368772832408677e-17 3.9506042410584056e-17 4.8368772832408677e-17 -0.37932578755805646 -0.9252631770979083
12662342666.666666 -0.3860181071318925 -0.9224912037337617 3.985183221008261e-17 4.806844838963803e-17 3.985183221008261e-17 4.806844838963803e-17 -0.38601754607812305 -0.9224914385075229
12662960000.0 -0.39268961259062285 -0.919671065198466 4.0195344191144366e-17 4.776565631083684e-17 4.0195344191144366e-17 4.776565631083684e-17 -0.39268905327931813 -0.9196713040181513
12663577333.333334 -0.399340516699604 -0.9168026787275149 4.0536560777238665e-17 4.7460413834825127e-17 4.0536560777238665e-17 4.7460413834825127e-17 -0.39933995915993586 -0.9168029215802027
12664194666.666666 -0.40597047053801694 -0.9138861948027203 4.087546452202977e-17 4.715273832537308e-17 4.087546452202977e-17 4.715273832537308e-17 -0.4059699147990604 -0.913886441675276
12664812000.0 -0.4125791262841386 -0.9109217664291874 4.121203811027157e-17 4.684264727021292e-17 4.121203811027157e-17 4.684264727021292e-17 -0.4125785723748722 -0.9109220173082693
12665429333.333334 -0.41916613723361673 -0.9079095491272816 4.154626435868227e-17 4.653015828005437e-17 4.154626435868227e-17 4.653015828005437e-17 -0.41916558518291985 -0.9079098039993372
12666046666.666666 -0.42573115781752896 -0.9048497009245238 4.187812621681089e-17 4.621528908759576e-17 4.187812621681089e-17 4.621528908759576e-17 -0.425730607654181 -0.9048499597757942
12666664000.0 -0.432273843620797 -0.9017423823471742 4.2207606767915515e-17 4.5898057546510496e-17 4.2207606767915515e-17 4.5898057546510496e-17 -0.43227329537347503 -0.9017426451636914
12667281333.333334 -0.4387938513998929 -0.8985877564119732 4.253468922980178e-17 4.557848163045789e-17 4.253468922980178e-17 4.557848163045789e-17 -0.4387933050971708 -0.8985880231795633
12667898666.666666 -0.4452908391011302 -0.8953859886174597 4.2859356955684854e-17 4.5256579432058815e-17 4.2859356955684854e-17 4.5256579432058815e-17 -0.44529029477147775 -0.8953862593217438
12668516000.0 -0.4517644658785068 -0.8921372469353366 4.318159343503057e-17 4.4932369161877174e-17 4.318159343503057e-17 4.4932369161877174e-17 -0.45176392355028666 -0.8921375215617293
12669133333.333334 -0.4582143921115088 -0.8888417018016956 4.350138229437796e-17 4.460586914740714e-17 4.350138229437796e-17 4.460586914740714e-17 -0.45821385181297614 -0.8888419803354081
12669750666.666666 -0.46464027942308117 -0.885499526108002 4.3818707298177913e-17 4.4277097832030526e-17 4.3818707298177913e-17 4.4277097832030526e-17 -0.46463974118238194 -0.8854998085340409
12670368000.0 -0.47104179069730256 -0.8821108951920578 4.4133552349606334e-17 4.3946073773985774e-17 4.4133552349606334e-17 4.3946073773985774e-17 -0.4710412545424723 -0.8821111814952286
