! Parameters = {f0=12700.012000; bw=77.238000; Q=6100.000000; N=10; m_0_1=1.227122; m_1_1=-0.357914; m_1_2=1.061934; m_2_2=-0.358563; m_2_3=0.698897; m_2_8=-0.001580; m_2_9=0.035124; m_3_3=-0.360500; m_3_4=0.587426; m_3_7=-0.000980; m_3_8=-0.098068; m_3_9=-0.001580; m_4_4=-0.363425; m_4_5=0.423761; m_4_6=0.002537; m_4_7=-0.118617; m_4_8=-0.000980; m_5_5=-0.363043; m_5_6=0.831116; m_5_7=0.002537; m_6_6=-0.363044; m_6_7=0.424103; m_7_7=-0.363411; m_7_8=0.587544; m_8_8=-0.360502; m_8_9=0.699210; m_9_9=-0.358568; m_9_10=1.063012; m_10_10=-0.357924; m_10_11=1.227917}
!
! Created with skrf (http://scikit-rf.org).
# Hz S RI R 50.0 
!freq ReS11 ImS11 ReS21 ImS21 ReS12 ImS12 ReS22 ImS22
12607400000.0 0.03339693255992866 0.9994421668588053 -2.841826022090702e-17 -8.53510276043021e-17 -2.841826022090702e-17 -8.53510276043021e-17 0.033396286323789444 0.999442188452946
12608017333.333334 0.04264557133404375 0.9990902638127491 -2.920881072215939e-17 -8.506510030968303e-17 -2.920881072215939e-17 -8.506510030968303e-17 0.04264492535707481 0.9990902913856805
12608634666.666666 0.051890557036876915 0.9986527775409423 -2.999650101767687e-17 -8.477185691664362e-17 -2.999650101767687e-17 -8.477185691664362e-17 0.051889911374385256 0.9986528110897169
12609252000.0 0.0611310977322794 0.9981297455190296 -3.07812634598803e-17 -8.44713258918278e-17 -3.07812634598803e-17 -8.44713258918278e-17 0.06113045243953972 0.9981297850401882
12609869333.333334 0.07036640186489637 0.9975212125506023 -3.1563030683243965e-17 -8.416353632682244e-17 -3.1563030683243965e-17 -8.416353632682244e-17 0.07036575699714628 0.997521258040175
12610486666.666666 0.07959567832780229 0.9968272307633722 -3.234173561004946e-17 -8.38485179353794e-17 -3.234173561004946e-17 -8.38485179353794e-17 0.07959503394023759 0.9968272822168781
12611104000.0 0.08881813653069316 0.9960478596046736 -3.3117311456162117e-17 -8.352630105056489e-17 -3.3117311456162117e-17 -8.352630105056489e-17 0.08881749267846312 0.9960479170171214
12611721333.333334 0.09803298646704266 0.9951831658364143 -3.388969173669643e-17 -8.319691662188868e-17 -3.388969173669643e-17 -8.319691662188868e-17 0.09803234320524536 0.9951832292023033
12612338666.666666 0.10723943878217188 0.9942332235293281 -3.465881027173399e-17 -8.286039621234874e-17 -3.465881027173399e-17 -8.286039621234874e-17 0.1072387961658493 0.9942332928426476
12612956000.0 0.1164367048408377 0.9931981140566288 -3.542460119197431e-17 -8.251677199543841e-17 -3.542460119197431e-17 -8.251677199543841e-17 0.11643606292497108 0.9931981893108579
12613573333.333334 0.12562399679450498 0.9920779260870639 -3.6186998944349634e-17 -8.216607675210482e-17 -3.6186998944349634e-17 -8.216607675210482e-17 0.12562335563401053 0.9920780072751768
12614190666.666666 0.1348005276492313 0.9908727555772858 -3.694593829763092e-17 -8.180834386764627e-17 -3.694593829763092e-17 -8.180834386764627e-17 0.13479988729895495 0.9908728426917471
12614808000.0 0.14396551133277027 0.9895827057636616 -3.770135434799194e-17 -8.144360732856343e-17 -3.770135434799194e-17 -8.144360732856343e-17 0.14396487184748302 0.9895827987964286
12615425333.333334 0.15311816276204848 0.9882078871534111 -3.8453182524542506e-17 -8.107190171935897e-17 -3.8453182524542506e-17 -8.107190171935897e-17 0.15311752419644217 0.9882079860959364
12616042666.666666 0.1622576979103892 0.9867484175151514 -3.9201358594842316e-17 -8.069326221928145e-17 -3.9201358594842316e-17 -8.069326221928145e-17 0.16225706031907128 0.9867485223583808
12616660000.0 0.17138333387464402 0.9852044218688059 -3.9945818670359643e-17 -8.030772459902875e-17 -3.9945818670359643e-17 -8.030772459902875e-17 0.1713826973121334 0.9852045326031816
12617277333.333334 0.1804942889423978 0.9835760324748737 -4.068649921192351e-17 -7.991532521738963e-17 -4.068649921192351e-17 -7.991532521738963e-17 0.18049365346311977 0.9835761490903339
12617894666.666666 0.18958978265862314 0.9818633888231557 -4.142333703511817e-17 -7.951610101784788e-17 -4.142333703511817e-17 -7.951610101784788e-17 0.18958914831690493 0.9818635113091363
12618512000.0 0.19866903589295448 0.9800666376207283 -4.21562693156804e-17 -7.911008952511735e-17 -4.21562693156804e-17 -7.911008952511735e-17 0.19866840274302053 0.9800667659661627
12619129333.333334 0.20773127090601015 0.9781859327794538 -4.288523359481858e-17 -7.869732884165218e-17 -4.288523359481858e-17 -7.869732884165218e-17 0.20773063900197744 0.9781860669727748
12619746666.666666 0.21677571141626598 0.9762214354027509 -4.3610167784528966e-17 -7.82778576440907e-17 -4.3610167784528966e-17 -7.82778576440907e-17 0.2167750808121399 0.9762215754318925
12620364000.0 0.22580158266666328 0.9741733137717671 -4.4331010172877524e-17 -7.785171517965043e-17 -4.4331010172877524e-17 -7.785171517965043e-17 0.22580095341633197 0.9741734596241632
12620981333.333334 0.23480811149055839 0.972041743331054 -4.504769942921389e-17 -7.741894126249425e-17 -4.504769942921389e-17 -7.741894126249425e-17 0.2348074836477891 0.9720418949936415
12621598666.666666 0.24379452637834156 0.9698269066734512 -4.576017460940484e-17 -7.697957627001577e-17 -4.576017460940484e-17 -7.697957627001577e-17 0.243793899996776 0.9698270641326718
12622216000.0 0.25276005754336067 0.9675289935244905 -4.646837516097733e-17 -7.653366113911e-17 -4.646837516097733e-17 -7.653366113911e-17 0.25275943267650935 0.967529156766288
12622833333.333334 0.2617039369878867 0.9651482007261251 -4.717224092826227e-17 -7.608123736237383e-17 -4.717224092826227e-17 -7.608123736237383e-17 0.26170331368912614 0.9651483697359524
12623450666.666666 0.270625398568904 0.9626847322198776 -4.7871712157476e-17 -7.562234698427632e-17 -4.7871712157476e-17 -7.562234698427632e-17 0.27062477689147046 0.9626849069826936
12624068000.0 0.27952367806371037 0.9601387990293748 -4.856672950179678e-17 -7.515703259726128e-17 -4.856672950179678e-17 -7.515703259726128e-17 0.2795230580606965 0.9601389795296473
12624685333.333334 0.2883980132355186 0.957510619242232 -4.925723402637344e-17 -7.468533733782254e-17 -4.925723402637344e-17 -7.468533733782254e-17 0.2883973949598677 0.9575108054639374
12625302666.666666 0.2972476438984483 0.954800417991455 -4.9943167213294803e-17 -7.420730488253582e-17 -4.9943167213294803e-17 -7.420730488253582e-17 0.29724702740295156 0.9548006099180837
12625920000.0 0.3060718119830293 0.9520084274360497 -5.0624470966562646e-17 -7.372297944401606e-17 -5.0624470966562646e-17 -7.372297944401606e-17 0.30607119732031957 0.9520086250506039
12626537333.333334 0.31486976160086333 0.9491348867412107 -5.130108761696473e-17 -7.323240576687075e-17 -5.130108761696473e-17 -7.323240576687075e-17 0.31486914882341166 0.9491350900262072
12627154666.666666 0.32364073910937685 0.946180042057838 -5.197295992696151e-17 -7.273562912357312e-17 -5.197295992696151e-17 -7.273562912357312e-17 0.3236401282694873 0.9461802509953088
12627772000.0 0.3323839931766476 0.9431441465013618 -5.264003109551181e-17 -7.223269531030458e-17 -5.264003109551181e-17 -7.223269531030458e-17 0.3323833843264535 0.9431443610728576
12628389333.333334 0.3410987748453613 0.9400274601301969 -5.330224476283848e-17 -7.172365064276857e-17 -5.330224476283848e-17 -7.172365064276857e-17 0.34109816803682047 0.9400276803167875
12629006666.666666 0.3497843375973714 0.9368302499233275 -5.395954501520063e-17 -7.120854195192621e-17 -5.395954501520063e-17 -7.120854195192621e-17 0.34978373288226144 0.9368304757056033
12629624000.0 0.3584399374173237 0.9335527897575484 -5.4611876389584065e-17 -7.068741657971834e-17 -5.4611876389584065e-17 -7.068741657971834e-17 0.3584393348472381 0.9335530211156223
12630241333.333334 0.3670648328566581 0.9301953603839089 -5.5259183878365236e-17 -7.016032237473471e-17 -5.5259183878365236e-17 -7.016032237473471e-17 0.3670642324830014 0.9301955972974184
12630858666.666666 0.375658285096802 0.926758249403784 -5.590141293392943e-17 -6.962730768784371e-17 -5.590141293392943e-17 -6.962730768784371e-17 0.3756576869707857 0.9267584918518927
12631476000.0 0.38421955801285596 0.9232417512440828 -5.653850947327061e-17 -6.908842136776018e-17 -5.653850947327061e-17 -6.908842136776018e-17 0.38421896218549434 0.9232419992054829
12632093333.333334 0.3927479182362821 0.9196461671321767 -5.717041988250199e-17 -6.854371275661109e-17 -5.717041988250199e-17 -6.854371275661109e-17 0.3927473247583867 0.919646420585089
12632710666.666666 0.4012426352178554 0.9159718050700398 -5.779709102137073e-17 -6.799323168542024e-17 -5.779709102137073e-17 -6.799323168542024e-17 0.40124204414003256 0.9159720639922182
12633328000.0 0.40970298129048155 0.9122189798077696 -5.841847022770793e-17 -6.743702846957023e-17 -5.841847022770793e-17 -6.743702846957023e-17 0.40970239266312625 0.9122192441765004
12633945333.333334 0.41812823173113434 0.9083880128167869 -5.903450532182776e-17 -6.687515390423053e-17 -5.903450532182776e-17 -6.687515390423053e-17 0.4181276456044274 0.9083882826088931
12634562666.666666 0.42651766482317405 0.9044792322622021 -5.964514461089817e-17 -6.630765925973268e-17 -5.964514461089817e-17 -6.630765925973268e-17 0.4265170812470768 0.9044795074540442
12635180000.0 0.4348705619181169 0.900492972974724 -6.025033689326712e-17 -6.573459627690502e-17 -6.025033689326712e-17 -6.573459627690502e-17 0.43486998094236756 0.900493253542202
12635797333.333334 0.4431862074971958 0.8964295764219787 -6.085003146272914e-17 -6.515601716238214e-17 -6.085003146272914e-17 -6.515601716238214e-17 0.4431856291713048 0.8964298623405349
12636414666.666666 0.4514638892326522 0.8922893906792593 -6.14441781127569e-17 -6.457197458386719e-17 -6.14441781127569e-17 -6.457197458386719e-17 0.4514633136058981 0.8922896819238795
12637032000.0 0.4597028980487551 0.8880727703997078 -6.203272714069445e-17 -6.398252166534872e-17 -6.203272714069445e-17 -6.398252166534872e-17 0.4597023251701807 0.8880730669449247
12637649333.333334 0.4679025281825411 0.8837800767839372 -6.261562935189752e-17 -6.338771198228635e-17 -6.261562935189752e-17 -6.338771198228635e-17 0.4679019581009492 0.8837803786038322
12638266666.666666 0.4760620772442719 0.8794116775490907 -6.319283606381883e-17 -6.27875995567678e-17 -6.319283606381883e-17 -6.27875995567678e-17 0.4760615100082204 0.8794119846172949
12638884000.0 0.48418084627757446 0.8749679468973522 -6.376429911006352e-17 -6.218223885261315e-17 -6.376429911006352e-17 -6.218223885261315e-17 0.4841802819353733 0.874968259187051
12639501333.333334 0.49225813981944194 0.8704492654838298 -6.432997084439077e-17 -6.157168477044951e-17 -6.432997084439077e-17 -6.157168477044951e-17 0.4922575784191482 0.8704495829677628
12640118666.666666 0.5002932659595074 0.8658560203841082 -6.488980414465627e-17 -6.095599264276226e-17 -6.488980414465627e-17 -6.095599264276226e-17 0.5002927075489216 0.8658563430345736
12640736000.0 0.50828553639981 0.8611886050608157 -6.544375241675373e-17 -6.033521822886046e-17 -6.544375241675373e-17 -6.033521822886046e-17 0.5082849810264717 0.861188932849671
12641353333.333334 0.5162342665131374 0.8564474193302697 -6.599176959842343e-17 -5.970941770990034e-17 -6.599176959842343e-17 -5.970941770990034e-17 0.5162337142243216 0.8564477522289363
12641970666.666666 0.5241387754021665 0.8516328693279482 -6.653381016310678e-17 -5.907864768377108e-17 -6.653381016310678e-17 -5.907864768377108e-17 0.524138226244879 0.8516332073074111
12642588000.0 0.5319983859576379 0.8467453674737779 -6.706982912368922e-17 -5.844296516001535e-17 -6.706982912368922e-17 -5.844296516001535e-17 0.5319978399786128 0.8467457105045919
12643205333.333334 0.539812424916242 0.8417853324368885 -6.759978203622427e-17 -5.780242755468456e-17 -6.759978203622427e-17 -5.780242755468456e-17 0.539811882161935 0.8417856804891758
12643822666.666666 0.547580222918479 0.8367531890996203 -6.812362500359553e-17 -5.715709268517263e-17 -6.812362500359553e-17 -5.715709268517263e-17 0.5475796834350662 0.8367535421430783
12644440000.0 0.5553011145658565 0.8316493685212257 -6.864131467913292e-17 -5.650701876501651e-17 -6.864131467913292e-17 -5.650701876501651e-17 0.5553005783992292 0.8316497265251263
12645057333.333334 0.5629744384778885 0.8264743079009426 -6.915280827017996e-17 -5.5852264398661e-17 -6.915280827017996e-17 -5.5852264398661e-17 0.562973905673649 0.8264746708341356
12645674666.666666 0.5705995373488439 0.8212284505404819 -6.965806354161056e-17 -5.519288857619445e-17 -6.965806354161056e-17 -5.519288857619445e-17 0.5705990079523026 0.8212288183713987
12646292000.0 0.5781757580040763 0.815912245806036 -7.015703881931361e-17 -5.452895066802796e-17 -7.015703881931361e-17 -5.452895066802796e-17 0.5781752320602462 0.8159126185026901
12646909333.333334 0.5857024514557614 0.8105261490899279 -7.064969299358123e-17 -5.386051041960399e-17 -7.064969299358123e-17 -5.386051041960399e-17 0.5857019290093569 0.8105265266199215
12647526666.666666 0.5931789729587064 0.8050706217714636 -7.113598552249776e-17 -5.3187627946008444e-17 -7.113598552249776e-17 -5.3187627946008444e-17 0.593178454054137 0.8050710041019861
12648144000.0 0.6006046820655272 0.799546131177434 -7.161587643525058e-17 -5.251036372658589e-17 -7.161587643525058e-17 -5.251036372658589e-17 0.6006041667468954 0.799546518275268
12648761333.333334 0.6079789426815125 0.7939531505420873 -7.20893263353959e-17 -5.1828778599520056e-17 -7.20893263353959e-17 -5.1828778599520056e-17 0.6079784309926083 0.7939535423736089
12649378666.666666 0.615301123118974 0.7882921589666905 -7.255629640406303e-17 -5.114293375639665e-17 -7.255629640406303e-17 -5.114293375639665e-17 0.6153006151032726 0.7882925554978748
12649996000.0 0.6225705961515632 0.7825636413783377 -7.301674840312987e-17 -5.04528907367071e-17 -7.301674840312987e-17 -5.04528907367071e-17 0.6225700918522216 0.7825640425747606
12650613333.333334 0.6297867390679099 0.7767680884884783 -7.347064467832568e-17 -4.9758711422352886e-17 -7.347064467832568e-17 -4.9758711422352886e-17 0.6297862385277626 0.7767684943153199
12651230666.666666 0.636948933724853 0.770905996750972 -7.391794816228931e-17 -4.9060458032111733e-17 -7.391794816228931e-17 -4.9060458032111733e-17 0.636948436986407 0.7709064071730174
12651848000.0 0.6440565666007001 0.7649778683193096 -7.435862237757976e-17 -4.835819311606795e-17 -7.435862237757976e-17 -4.835819311606795e-17 0.6440560737061338 0.764978283300955
12652465333.333334 0.6511090288474525 0.758984211003868 -7.479263143962267e-17 -4.765197955003535e-17 -7.479263143962267e-17 -4.765197955003535e-17 0.6511085398386105 0.7589846305091225
12653082666.666666 0.6581057163430496 0.7529255382283422 -7.521994005960912e-17 -4.694188052994563e-17 -7.521994005960912e-17 -4.694188052994563e-17 0.6581052312614396 0.7529259622208304
12653700000.0 0.6650460297433114 0.7468023689855942 -7.564051354735423e-17 -4.6227959566188994e-17 -7.564051354735423e-17 -4.6227959566188994e-17 0.6650455486301015 0.7468027974285609
12654317333.333334 0.6719293745329784 0.7406152277934581 -7.605431781407789e-17 -4.551028047797094e-17 -7.605431781407789e-17 -4.551028047797094e-17 0.6719288974289921 0.7406156606497705
12654934666.666666 0.6787551610768339 0.734364644649644 -7.646131937514983e-17 -4.4788907387613756e-17 -7.646131937514983e-17 -4.4788907387613756e-17 0.6787546880225463 0.734365081881793
12655552000.0 0.6855228046702901 0.7280511549862524 -7.686148535278094e-17 -4.406390471483395e-17 -7.686148535278094e-17 -4.406390471483395e-17 0.6855223357058273 0.7280515965563596
12656169333.333334 0.6922317255891651 0.7216752996242028 -7.725478347864173e-17 -4.3335337171028554e-17 -7.725478347864173e-17 -4.3335337171028554e-17 0.692231260754298 0.7216757454940217
12656786666.666666 0.6988813491396347 0.7152376247266365 -7.764118209645812e-17 -4.260326975348377e-17 -7.764118209645812e-17 -4.260326975348377e-17 0.6988808884737764 0.7152380748575552
12657404000.0 0.7054711057073342 0.7087386817522435 -7.802065016452094e-17 -4.186776773961532e-17 -7.802065016452094e-17 -4.186776773961532e-17 0.7054706492495376 0.7087391361052899
12658021333.333334 0.7120004308061748 0.7021790274080091 -7.839315725816282e-17 -4.112889668114967e-17 -7.839315725816282e-17 -4.112889668114967e-17 0.7119999785951282 0.7021794859438529
12658638666.666666 0.7184687651266786 0.6955592236015438 -7.875867357216516e-17 -4.038672239830989e-17 -7.875867357216516e-17 -4.038672239830989e-17 0.7184683172007023 0.6955596862804996
12659256000.0 0.724875554583967 0.6888798373928675 -7.911716992312792e-17 -3.9641310973947044e-17 -7.911716992312792e-17 -3.9641310973947044e-17 0.7248751109810115 0.6888803041749001
12659873333.333334 0.7312202503651261 0.6821414409459373 -7.946861775176771e-17 -3.8892728747682065e-17 -7.946861775176771e-17 -3.8892728747682065e-17 0.7312198111227672 0.6821419117906632
12660490666.666666 0.7375023089762007 0.6753446114796576 -7.981298912516027e-17 -3.814104231003015e-17 -7.981298912516027e-17 -3.814104231003015e-17 0.7375018741316378 0.6753450863463496
12661108000.0 0.7437211922889256 0.6684899312182467 -8.015025673894858e-17 -3.738631849646e-17 -8.015025673894858e-17 -3.738631849646e-17 0.7437207618789767 0.6684904100658366
12661725333.333334 0.7498763675866259 0.6615779873415709 -8.048039391946381e-17 -3.662862438150245e-17 -8.048039391946381e-17 -3.662862438150245e-17 0.7498759416477271 0.6615784701286546
12662342666.666666 0.7559673076099509 0.6546093719347433 -8.080337462582228e-17 -3.586802727276957e-17 -8.080337462582228e-17 -3.586802727276957e-17 0.7559668861781497 0.6546098586195817
12662960000.0 0.7619934906020157 0.6475846819374229 -8.111917345193988e-17 -3.510459470501532e-17 -8.111917345193988e-17 -3.510459470501532e-17 0.7619930737129719 0.6475851724779481
12663577333.333334 0.7679544003531 0.6405045190926834 -8.142776562850675e-17 -3.4338394434142166e-17 -8.142776562850675e-17 -3.4338394434142166e-17 0.767953988042079 0.640505013446501
12664194666.666666 0.7738495262448442 0.6333694898954858 -8.172912702489826e-17 -3.35694944312066e-17 -8.172912702489826e-17 -3.35694944312066e-17 0.7738491185467185 0.6333699880198802
12664812000.0 0.779678363294068 0.6261802055406419 -8.202323415103575e-17 -3.279796287639456e-17 -8.202323415103575e-17 -3.279796287639456e-17 0.7796779602433097 0.6261807073925773
12665429333.333334 0.7854404121959319 0.618937281870564 -8.231006415918162e-17 -3.2023868153001617e-17 -8.231006415918162e-17 -3.2023868153001617e-17 0.7854400138266114 0.6189377874066895
12666046666.666666 0.7911351793666945 0.6116413393225365 -8.25895948456822e-17 -3.124727884138882e-17 -8.25895948456822e-17 -3.124727884138882e-17 0.7911347857124789 0.6116418484991902
12666664000.0 0.7967621769861675 0.6042930028753439 -8.28618046526626e-17 -3.046826371289758e-17 -8.28618046526626e-17 -3.046826371289758e-17 0.7967617880803167 0.604293515648557
12667281333.333334 0.8023209230392433 0.596892901996073 -8.312667266964362e-17 -2.968689172380925e-17 -8.312667266964362e-17 -2.968689172380925e-17 0.8023205389146069 0.5968934183215721
12667898666.666666 0.8078109413574256 0.5894416705858743 -8.338417863512578e-17 -2.89032320092225e-17 -8.338417863512578e-17 -2.89032320092225e-17 0.8078105620464407 0.5894421904190862
12668516000.0 0.8132317616595148 0.5819399469257968 -8.363430293809904e-17 -2.8117353876964534e-17 -8.363430293809904e-17 -2.8117353876964534e-17 0.813231387194202 0.5819404702218518
12669133333.333334 0.818582919591809 0.5743883736222276 -8.387702661949736e-17 -2.7329326801487768e-17 -8.387702661949736e-17 -2.7329326801487768e-17 0.8185825500037717 0.5743889003359646
12669750666.666666 0.8238639567680318 0.5667875975516382 -8.411233137360453e-17 -2.6539220417722878e-17 -8.411233137360453e-17 -2.6539220417722878e-17 0.8238635920884539 0.5667881276376081
12670368000.0 0.8290744208085196 0.5591382698052909 -8.434019954939754e-17 -2.5747104514939697e-17 -8.434019954939754e-17 -2.5747104514939697e-17 0.8290740610681586 0.5591388032177586
12670985333.333334 0.8342138653789806 0.5514410456334361 -8.456061415182457e-17 -2.4953049030618316e-17 -8.456061415182457e-17 -2.4953049030618316e-17 0.8342135106081697 0.551441582326387
