! Parameters = {f0=12700.012000; bw=77.238000; Q=6100.000000; N=10; m_0_1=1.231927; m_1_1=-0.285842; m_1_2=1.066739; m_2_2=-0.286491; m_2_3=0.703702; m_2_8=-0.001340; m_2_9=0.035364; m_3_3=-0.288428; m_3_4=0.592231; m_3_7=-0.000740; m_3_8=-0.097828; m_3_9=-0.001340; m_4_4=-0.291353; m_4_5=0.428566; m_4_6=0.002777; m_4_7=-0.118377; m_4_8=-0.000740; m_5_5=-0.290971; m_5_6=0.835921; m_5_7=0.002777; m_6_6=-0.290972; m_6_7=0.428908; m_7_7=-0.291339; m_7_8=0.592349; m_8_8=-0.288430; m_8_9=0.704015; m_9_9=-0.286496; m_9_10=1.067817; m_10_10=-0.285852; m_10_11=1.232722}
!
! Created with skrf (http://scikit-rf.org).
# Hz S RI R 50.0 
!freq ReS11 ImS11 ReS21 ImS21 ReS12 ImS12 ReS22 ImS22
12607400000.0 0.20398788262845796 -0.9789734131939395 7.597444571299162e-18 9.179254120892999e-17 7.597444571299162e-18 9.179254120892999e-17 0.20398851809965007 -0.9789732807811162
12608017333.333334 0.1947791994160081 -0.9808471152400324 8.466183993950841e-18 9.169837961723597e-17 8.466183993950841e-18 9.169837961723597e-17 0.1947798360722836 -0.9808469888109401
12608634666.666666 0.1855533151368447 -0.9826341980826644 9.333821246995903e-18 9.159600237445224e-17 9.333821246995903e-18 9.159600237445224e-17 0.18555395292186683 -0.9826340776478819
12609252000.0 0.17631104453435453 -0.9843345039035448 1.020027869447777e-17 9.148542191005927e-17 1.020027869447777e-17 9.148542191005927e-17 0.17631168339169245 -0.9843343894731208
12609869333.333334 0.1670532037990651 -0.9859478825477037 1.1065478836975798e-17 9.136665138661614e-17 1.1065478836975798e-17 9.136665138661614e-17 0.16705384367219867 -0.9859477741311546
12610486666.666666 0.15778061049662317 -0.9874741915367443 1.1929344318516861e-17 9.123970469829039e-17 1.1929344318516861e-17 9.123970469829039e-17 0.1577812513289479 -0.9874740891430546
12611104000.0 0.14849408349520152 -0.9889132960814884 1.2791797933512793e-17 9.110459646931709e-17 1.2791797933512793e-17 9.110459646931709e-17 0.14849472523003415 -0.9889131997191112
12611721333.333334 0.13919444289374647 -0.9902650690937925 1.3652762633590845e-17 9.096134205240503e-17 1.3652762633590845e-17 9.096134205240503e-17 0.1391950854743293 -0.9902649787706458
12612338666.666666 0.12988250994918885 -0.9915293911978268 1.451216153450841e-17 9.080995752706421e-17 1.451216153450841e-17 9.080995752706421e-17 0.12988315331869532 -0.9915293069212963
12612956000.0 0.1205591070038339 -0.992706150740627 1.5369917922985452e-17 9.065045969787718e-17 1.5369917922985452e-17 9.065045969787718e-17 0.12055975110537312 -0.9927060725175625
12613573333.333334 0.1112250574131619 -0.9937952438018979 1.6225955263521705e-17 9.048286609270701e-17 1.6225955263521705e-17 9.048286609270701e-17 0.111225702189784 -0.9937951716386146
12614190666.666666 0.10188118547275102 -0.9947965742032393 1.7080197205244e-17 9.030719496083145e-17 1.7080197205244e-17 9.030719496083145e-17 0.10188183086745216 -0.9947965081055169
12614808000.0 0.09252831634553965 -0.995710053516631 1.7932567588672658e-17 9.012346527102451e-17 1.7932567588672658e-17 9.012346527102451e-17 0.09252896230126696 -0.995709993489713
12615425333.333334 0.08316727598909704 -0.996535601072229 1.8782990452506517e-17 8.993169670956664e-17 1.8782990452506517e-17 8.993169670956664e-17 0.08316792244875346 -0.9965355471208197
12616042666.666666 0.07379889108259709 -0.9972731439654902 1.9631390040384865e-17 8.973190967819172e-17 1.9631390040384865e-17 8.973190967819172e-17 0.07379953798904702 -0.9972730960937615
12616660000.0 0.06442398895372986 -0.9979226170636296 2.0477690807605398e-17 8.95241252919754e-17 2.0477690807605398e-17 8.95241252919754e-17 0.06442463624980367 -0.9979225752752136
12617277333.333334 0.05504339750578066 -0.9984839630113526 2.132181742784593e-17 8.930836537715449e-17 2.132181742784593e-17 8.930836537715449e-17 0.05504404513427983 -0.9984839273093429
12617894666.666666 0.04565794514457434 -0.9989571322359181 2.2163694799848688e-17 8.90846524688869e-17 2.2163694799848688e-17 8.90846524688869e-17 0.04565859304827675 -0.9989571026228733
12618512000.0 0.03626846070492126 -0.9993420829515433 2.3003248054099257e-17 8.885300980894395e-17 2.3003248054099257e-17 8.885300980894395e-17 0.03626910882658598 -0.9993420594294822
12619129333.333334 0.026875773377989836 -0.9996387811630606 2.384040255944193e-17 8.861346134335083e-17 2.384040255944193e-17 8.861346134335083e-17 0.02687642166036232 -0.999638763733464
12619746666.666666 0.01748071263771113 -0.999847200668938 2.4675083929731436e-17 8.836603171994885e-17 2.4675083929731436e-17 8.836603171994885e-17 0.017481361023528253 -0.9998471893327493
12620364000.0 0.008084108167442273 -0.9999673230635939 2.550721803041194e-17 8.811074628590705e-17 2.550721803041194e-17 8.811074628590705e-17 0.008084756599437368 -0.9999673178212185
12620981333.333334 -0.0013132102128772254 -0.9999991377390142 2.633673098507149e-17 8.784763108517463e-17 2.633673098507149e-17 8.784763108517463e-17 -0.0013125617919693023 -0.9999991385903171
12621598666.666666 -0.010710412620376747 -0.9999426418856909 2.716354918201766e-17 8.757671285585524e-17 2.716354918201766e-17 8.757671285585524e-17 -0.010709764267814552 -0.9999426488300024
12622216000.0 -0.020106669182485222 -0.9997978404928778 2.7987599280764637e-17 8.729801902754012e-17 2.7987599280764637e-17 8.729801902754012e-17 -0.02010602095551566 -0.9997978535289872
12622833333.333334 -0.029501150110103902 -0.9995647463481366 2.880880821854815e-17 8.701157771856256e-17 2.880880821854815e-17 8.701157771856256e-17 -0.029500502065957234 -0.9995647654742987
12623450666.666666 -0.038893025770885756 -0.9992433800362249 2.962710321676076e-17 8.671741773320849e-17 2.962710321676076e-17 8.671741773320849e-17 -0.03889237796677044 -0.999243405250154
12624068000.0 -0.04828146676258582 -0.9988337699372637 3.044241178740616e-17 8.641556855885096e-17 3.044241178740616e-17 8.641556855885096e-17 -0.0482808192556836 -0.9988338012361385
12624685333.333334 -0.05766564398644841 -0.9983359522242315 3.125466173951457e-17 8.610606036302694e-17 3.125466173951457e-17 8.610606036302694e-17 -0.05766499683390908 -0.9983359896046917
12625302666.666666 -0.06704472871997065 -0.9977499708597836 3.206378118548043e-17 8.578892399047267e-17 3.206378118548043e-17 8.578892399047267e-17 -0.06704408197890728 -0.9977500143179352
12625920000.0 -0.07641789269059895 -0.9970758775923534 3.2869698547452916e-17 8.546419096006785e-17 3.2869698547452916e-17 8.546419096006785e-17 -0.07641724641808255 -0.9970759271237631
12626537333.333334 -0.08578430814856167 -0.996313731951591 3.367234256362579e-17 8.51318934617476e-17 3.367234256362579e-17 8.51318934617476e-17 -0.08578366240161633 -0.9963137875512914
12627154666.666666 -0.09514314793996843 -0.9954636012431132 3.447164229452306e-17 8.4792064353345e-17 3.447164229452306e-17 8.4792064353345e-17 -0.09514250277556628 -0.9954636629056006
12627772000.0 -0.10449358558011163 -0.9945255605425364 3.52675271292747e-17 8.444473715736551e-17 3.52675271292747e-17 8.444473715736551e-17 -0.10449294105516778 -0.9945256282617733
12628389333.333334 -0.11383479532614224 -0.993499692688875 3.6059926791812567e-17 8.408994605772354e-17 3.6059926791812567e-17 8.408994605772354e-17 -0.11383415149750986 -0.9934997664582896
12629006666.666666 -0.12316595225024629 -0.9923860882772008 3.6848771347081337e-17 8.372772589639946e-17 3.6848771347081337e-17 8.372772589639946e-17 -0.1231653091747113 -0.9923861680896866
12629624000.0 -0.13248623231226866 -0.9911848456506658 3.7633991207176104e-17 8.335811217005743e-17 3.7633991207176104e-17 8.335811217005743e-17 -0.13248559004654503 -0.991184931498584
12630241333.333334 -0.14179481243273848 -0.9898960708917881 3.841551713748673e-17 8.298114102658723e-17 3.841551713748673e-17 8.298114102658723e-17 -0.14179417103346317 -0.9898961627669677
12630858666.666666 -0.15109087056521753 -0.9885198778131264 3.919328026275569e-17 8.259684926161239e-17 3.919328026275569e-17 8.259684926161239e-17 -0.15109023008894557 -0.9885199757068662
12631476000.0 -0.1603735857692905 -0.9870563879471803 3.9967212073177047e-17 8.220527431490682e-17 3.9967212073177047e-17 8.220527431490682e-17 -0.1603729462724897 -0.9870564918502467
12632093333.333334 -0.16964213828278013 -0.9855057305356879 4.07372444303681e-17 8.180645426679771e-17 4.07372444303681e-17 8.180645426679771e-17 -0.16964149982182633 -0.9855058404383185
12632710666.666666 -0.1788957095941423 -0.9838680425182242 4.1503309573374e-17 8.140042783448074e-17 4.1503309573374e-17 8.140042783448074e-17 -0.1788950722253143 -0.9838681584101266
12633328000.0 -0.18813348251497308 -0.9821434685200638 4.226534012463264e-17 8.098723436827881e-17 4.226534012463264e-17 8.098723436827881e-17 -0.18813284629444793 -0.9821435903904195
12633945333.333334 -0.19735464125200675 -0.9803321608394396 4.302326909585009e-17 8.056691384787327e-17 4.302326909585009e-17 8.056691384787327e-17 -0.19735400623585445 -0.9803322886769024
12634562666.666666 -0.20655837147913136 -0.9784342794340981 4.377702989389186e-17 8.013950687845282e-17 4.377702989389186e-17 8.013950687845282e-17 -0.20655773772331 -0.9784344132267951
12635180000.0 -0.2157438604093584 -0.9764499919071644 4.452655632662224e-17 7.970505468681456e-17 4.452655632662224e-17 7.970505468681456e-17 -0.21574322796970954 -0.9764501316426994
12635797333.333334 -0.22491029686671138 -0.9743794734923156 4.5271782608689237e-17 7.926359911741867e-17 4.5271782608689237e-17 7.926359911741867e-17 -0.22490966579895474 -0.974379619157768
12636414666.666666 -0.23405687135758374 -0.9722229070383676 4.6012643367280477e-17 7.881518262838604e-17 4.6012643367280477e-17 7.881518262838604e-17 -0.2340562417173125 -0.9722230586202949
12637032000.0 -0.2431827761424755 -0.9699804829930717 4.674907364786139e-17 7.835984828742717e-17 4.674907364786139e-17 7.835984828742717e-17 -0.2431821479851517 -0.9699806404775113
12637649333.333334 -0.2522872053072972 -0.9676523993863021 4.748100891983142e-17 7.789763976774384e-17 4.748100891983142e-17 7.789763976774384e-17 -0.25228657868824594 -0.9676525627587697
12638266666.666666 -0.2613693548344026 -0.9652388618125995 4.8208385082171135e-17 7.742860134385941e-17 4.8208385082171135e-17 7.742860134385941e-17 -0.2613687298088079 -0.9652390310580925
12638884000.0 -0.27042842267367434 -0.9627400834129958 4.8931138469046085e-17 7.695277788739756e-17 4.8931138469046085e-17 7.695277788739756e-17 -0.27042779929657446 -0.9627402585159959
12639501333.333334 -0.2794636088134643 -0.9601562848561634 4.9649205855351894e-17 7.647021486282022e-17 4.9649205855351894e-17 7.647021486282022e-17 -0.2794629871397461 -0.9601564658006344
12640118666.666666 -0.28847411535091316 -0.957487694319015 5.0362524462221955e-17 7.598095832311117e-17 5.0362524462221955e-17 7.598095832311117e-17 -0.288473495435308 -0.9574878810884085
12640736000.0 -0.29745914656296063 -0.9547345474663989 5.107103196254035e-17 7.548505490537693e-17 5.107103196254035e-17 7.548505490537693e-17 -0.2974585284600395 -0.9547347400436537
12641353333.333334 -0.3064179089759083 -0.9518970874304984 5.177466648630442e-17 7.498255182646888e-17 5.177466648630442e-17 7.498255182646888e-17 -0.30641729274007634 -0.9518972857980411
12641970666.666666 -0.315349611436171 -0.948975564789153 5.247336662607276e-17 7.447349687846787e-17 5.247336662607276e-17 7.447349687846787e-17 -0.31534899712166287 -0.9489757689288995
12642588000.0 -0.3242534651797085 -0.9459702375438592 5.316707144227114e-17 7.39579384241859e-17 5.316707144227114e-17 7.39579384241859e-17 -0.3242528528405852 -0.9459704474372214
12643205333.333334 -0.33312868390179384 -0.9428813710969653 5.3855720468499316e-17 7.343592539258797e-17 5.3855720468499316e-17 7.343592539258797e-17 -0.33312807359193547 -0.9428815867248449
12643822666.666666 -0.3419744838266369 -0.9397092382281553 5.4539253716798835e-17 7.290750727415922e-17 5.4539253716798835e-17 7.290750727415922e-17 -0.3419738755997394 -0.9397094595709509
12644440000.0 -0.3507900837763058 -0.9364541190704683 5.521761168283866e-17 7.237273411625146e-17 5.521761168283866e-17 7.237273411625146e-17 -0.35078947768587626 -0.9364543461080765
12645057333.333334 -0.35957470523982227 -0.9331163010855242 5.589073535108639e-17 7.183165651835845e-17 5.589073535108639e-17 7.183165651835845e-17 -0.35957410133917334 -0.9331165337973392
12645674666.666666 -0.3683275724419903 -0.9296960790381048 5.655856619993143e-17 7.128432562734471e-17 5.655856619993143e-17 7.128432562734471e-17 -0.36832697078423665 -0.9296963174030234
12646292000.0 -0.37704791241193253 -0.9261937549701134 5.722104620675699e-17 7.073079313262948e-17 5.722104620675699e-17 7.073079313262948e-17 -0.3770473130499854 -0.9261939989665348
12646909333.333334 -0.3857349550510875 -0.922609638174006 5.787811785294416e-17 7.017111126134273e-17 5.787811785294416e-17 7.017111126134273e-17 -0.38573435803765005 -0.9226098877798333
12647526666.666666 -0.39438793320156024 -0.9189440451653397 5.852972412887403e-17 6.960533277339654e-17 5.852972412887403e-17 6.960533277339654e-17 -0.39438733858912295 -0.9189443003579831
12648144000.0 -0.4030060827136843 -0.9151972996548915 5.917580853884212e-17 6.903351095654289e-17 5.917580853884212e-17 6.903351095654289e-17 -0.4030054905545217 -0.9151975604112724
12648761333.333334 -0.41158864251348226 -0.9113697325200916 5.981631510593743e-17 6.845569962137722e-17 5.981631510593743e-17 6.845569962137722e-17 -0.41158805285964556 -0.911369998816639
12649378666.666666 -0.42013485466995126 -0.907461681775762 6.045118837687999e-17 6.78719530962893e-17 6.045118837687999e-17 6.78719530962893e-17 -0.4201342675732659 -0.9074619535884193
12649996000.0 -0.42864396446197145 -0.9034734925442797 6.108037342680006e-17 6.72823262223783e-17 6.108037342680006e-17 6.72823262223783e-17 -0.4286433799740327 -0.9034737698485066
12650613333.333334 -0.4371152204449574 -0.8994055170251019 6.170381586398111e-17 6.668687434831141e-17 6.170381586398111e-17 6.668687434831141e-17 -0.43711463861712435 -0.8994057997958742
12651230666.666666 -0.4455478745171908 -0.8952581144636712 6.232146183452306e-17 6.60856533251671e-17 6.232146183452306e-17 6.60856533251671e-17 -0.44554729540058297 -0.895258402675485
12651848000.0 -0.4539411819859895 -0.8910316511196433 6.293325802700018e-17 6.547871950119289e-17 6.293325802700018e-17 6.547871950119289e-17 -0.4539406056314814 -0.891031944746516
12652465333.333334 -0.46229440163331703 -0.8867265002346147 6.353915167703281e-17 6.486612971655379e-17 6.353915167703281e-17 6.486612971655379e-17 -0.4622938280915354 -0.8867267992500896
12653082666.666666 -0.47060679578131903 -0.882343041999128 6.413909057180862e-17 6.424794129803916e-17 6.413909057180862e-17 6.424794129803916e-17 -0.47060622510263656 -0.8823433463762739
12653700000.0 -0.47887763035756575 -0.8778816635190398 6.47330230545868e-17 6.362421205369311e-17 6.47330230545868e-17 6.362421205369311e-17 -0.478877062592098 -0.8778819732304559
12654317333.333334 -0.48710617495960534 -0.8733427587814862 6.532089802910727e-17 6.29950002674477e-17 6.532089802910727e-17 6.29950002674477e-17 -0.48710561015720477 -0.8733430737993013
12654934666.666666 -0.4952917029197888 -0.8687267286199096 6.590266496397472e-17 6.236036469368792e-17 6.590266496397472e-17 6.236036469368792e-17 -0.49529114113004213 -0.8687270489157889
12655552000.0 -0.5034334913692936 -0.8640339806787456 6.647827389698781e-17 6.172036455177772e-17 6.647827389698781e-17 6.172036455177772e-17 -0.5034329326415162 -0.8640343062238893
12656169333.333334 -0.5115308213018119 -0.8592649293775055 6.704767543940064e-17 6.107505952056425e-17 6.704767543940064e-17 6.107505952056425e-17 -0.5115302656850444 -0.8592652601426539
12656786666.666666 -0.5195829776373682 -0.8544199958739973 6.761082078014755e-17 6.042450973282317e-17 6.761082078014755e-17 6.042450973282317e-17 -0.5195824251803719 -0.8544203318294331
12657404000.0 -0.5275892492851973 -0.849499608027289 6.816766169000441e-17 5.976877576967717e-17 6.816766169000441e-17 5.976877576967717e-17 -0.527588700036449 -0.8494999491428382
12658021333.333334 -0.5355489292066632 -0.8445042003598505 6.871815052570775e-17 5.910791865496272e-17 6.871815052570775e-17 5.910791865496272e-17 -0.5355483832143526 -0.8445045466048885
12658638666.666666 -0.5434613144776511 -0.8394342140192155 6.926224023399272e-17 5.84419998495904e-17 6.926224023399272e-17 5.84419998495904e-17 -0.5434607717896747 -0.8394345653626649
12659256000.0 -0.5513257063507374 -0.8342900967389548 6.979988435561634e-17 5.777108124582093e-17 6.979988435561634e-17 5.777108124582093e-17 -0.5513251670146957 -0.834290453149293
12659873333.333334 -0.5591414103167773 -0.8290723027992194 7.033103702929454e-17 5.709522516154246e-17 7.033103702929454e-17 5.709522516154246e-17 -0.5591408743799701 -0.8290726642444786
12660490666.666666 -0.5669077361661904 -0.8237812929866511 7.085565299558213e-17 5.641449433451351e-17 7.085565299558213e-17 5.641449433451351e-17 -0.566907203675613 -0.8237816594344233
12661108000.0 -0.5746239980502453 -0.8184175345534734 7.137368760073753e-17 5.57289519165204e-17 7.137368760073753e-17 5.57289519165204e-17 -0.5746234690525837 -0.81841790597091
12661725333.333334 -0.5822895145411546 -0.8129815011765407 7.18850968004693e-17 5.50386614675785e-17 7.18850968004693e-17 5.50386614675785e-17 -0.5822889890827818 -0.8129818775303586
12662342666.666666 -0.5899036086925815 -0.8074736729152868 7.238983716368188e-17 5.4343686950028e-17 7.238983716368188e-17 5.4343686950028e-17 -0.5899030868195542 -0.807474054171771
12662960000.0 -0.5974656080993753 -0.8018945361693631 7.288786587613938e-17 5.3644092722628316e-17 7.288786587613938e-17 5.3644092722628316e-17 -0.5974650898574282 -0.801894922294368
12663577333.333334 -0.6049748449568333 -0.796244583635763 7.337914074406766e-17 5.2939943534625215e-17 7.337914074406766e-17 5.2939943534625215e-17 -0.6049743303913765 -0.7962449745947165
12664194666.666666 -0.6124306561197483 -0.7905243142652666 7.386362019771241e-17 5.223130451976921e-17 7.386362019771241e-17 5.223130451976921e-17 -0.6124301452758625 -0.7905247100231727
12664812000.0 -0.6198323831610354 -0.7847342332183215 7.434126329483852e-17 5.151824119030085e-17 7.434126329483852e-17 5.151824119030085e-17 -0.6198318760834686 -0.7847346337397649
12665429333.333334 -0.6271793724297665 -0.7788748518205206 7.481202972416046e-17 5.080081943092171e-17 7.481202972416046e-17 5.080081943092171e-17 -0.6271788691629304 -0.7788752570696694
12666046666.666666 -0.634470975108854 -0.7729466875174864 7.52758798087193e-17 5.0079105492728024e-17 7.52758798087193e-17 5.0079105492728024e-17 -0.6344704756968177 -0.7729470974580922
12666664000.0 -0.641706547272652 -0.7669502638289178 7.573277450922317e-17 4.935316598707879e-17 7.573277450922317e-17 4.935316598707879e-17 -0.6417060517591414 -0.7669506784243234
12667281333.333334 -0.6488854499433849 -0.7608861103027215 7.61826754272822e-17 4.8623067879507784e-17 7.61826754272822e-17 4.8623067879507784e-17 -0.6488849583717773 -0.7608865295158621
12667898666.666666 -0.6560070491478628 -0.754754762468014 7.66255448086301e-17 4.7888878483534396e-17 7.66255448086301e-17 4.7888878483534396e-17 -0.656006561561182 -0.7547551862614195
12668516000.0 -0.6630707159735274 -0.7485567617877681 7.70613455462726e-17 4.715066545446724e-17 7.70613455462726e-17 4.715066545446724e-17 -0.6630702324144423 -0.7485571901235688
12669133333.333334 -0.6700758266236709 -0.7422926556112757 7.749004118355104e-17 4.640849678322108e-17 7.749004118355104e-17 4.640849678322108e-17 -0.6700753471344904 -0.7422930884512045
12669750666.666666 -0.6770217624728049 -0.7359629971255713 7.791159591719152e-17 4.566244079003137e-17 7.791159591719152e-17 4.566244079003137e-17 -0.677021287095474 -0.7359634344309663
12670368000.0 -0.6839079101212646 -0.7295683453065931 7.832597460025598e-17 4.491256611820545e-17 7.832597460025598e-17 4.491256611820545e-17 -0.6839074388973622 -0.729568787038403
