! Parameters = {f0=12700.012000; bw=77.238000; Q=6100.000000; N=10; m_0_1=1.313208; m_1_1=0.933377; m_1_2=1.148020; m_2_2=0.932728; m_2_3=0.784983; m_2_8=0.002724; m_2_9=0.039428; m_3_3=0.930791; m_3_4=0.673512; m_3_7=0.003324; m_3_8=-0.093764; m_3_9=0.002724; m_4_4=0.927866; m_4_5=0.509847; m_4_6=0.006841; m_4_7=-0.114313; m_4_8=0.003324; m_5_5=0.928248; m_5_6=0.917202; m_5_7=0.006841; m_6_6=0.928247; m_6_7=0.510189; m_7_7=0.927880; m_7_8=0.673630; m_8_8=0.930789; m_8_9=0.785296; m_9_9=0.932723; m_9_10=1.149098; m_10_10=0.933367; m_10_11=1.314003}
!
! Created with skrf (http://scikit-rf.org).
# Hz S RI R 50.0 
!freq ReS11 ImS11 ReS21 ImS21 ReS12 ImS12 ReS22 ImS22
12607400000.0 0.9790810788898858 -0.20347049161887862 -1.1894852617411097e-16 6.389109307191533e-17 -1.1894852617411097e-16 6.389109307191533e-17 0.9790812196494832 -0.20346981429561214
12608017333.333334 0.9766119564533223 -0.21500950330677512 -1.1815739669467015e-16 6.528793495573593e-17 -1.1815739669467015e-16 6.528793495573593e-17 0.9766121051882665 -0.21500882772470734
12608634666.666666 0.9740068453374893 -0.22651857591712798 -1.173498757643224e-16 6.6675001602945e-17 -1.173498757643224e-16 6.6675001602945e-17 0.9740070020262908 -0.2265179021701557
12609252000.0 0.9712661082921136 -0.23799610686501546 -1.1652608392710024e-16 6.805210080973523e-17 -1.1652608392710024e-16 6.805210080973523e-17 0.9712662729121758 -0.23799543504677034
12609869333.333334 0.9683901269521884 -0.2494404979576026 -1.1568614397905123e-16 6.941904185606417e-17 -1.1568614397905123e-16 6.941904185606417e-17 0.9683902994798134 -0.24943982816143886
12610486666.666666 0.9653793017848813 -0.2608501556164897 -1.1483018095002889e-16 7.077563553198427e-17 -1.1483018095002889e-16 7.077563553198427e-17 0.9653794821952731 -0.26084948793547097
12611104000.0 0.9622340520336657 -0.27222349110002336 -1.1395832208512177e-16 7.212169416383379e-17 -1.1395832208512177e-16 7.212169416383379e-17 0.962234240300932 -0.2722228256269094
12611721333.333334 0.9589548156600852 -0.2835589207239714 -1.1307069682584105e-16 7.34570316401e-17 -1.1307069682584105e-16 7.34570316401e-17 0.9589550117572438 -0.2835582575512058
12612338666.666666 0.9555420492826702 -0.29485486608242867 -1.1216743679094248e-16 7.478146343714835e-17 -1.1216743679094248e-16 7.478146343714835e-17 0.9555422531816496 -0.2948542053021253
12612956000.0 0.9519962281133559 -0.3061097542675731 -1.1124867575698977e-16 7.609480664465252e-17 -1.1124867575698977e-16 7.609480664465252e-17 0.9519964397850027 -0.30610909597150415
12613573333.333334 0.948317845891401 -0.3173220180884163 -1.1031454963862021e-16 7.739687999079094e-17 -1.1031454963862021e-16 7.739687999079094e-17 0.9483180653054804 -0.3173213623679984
12614190666.666666 0.9445074148145103 -0.32849009628940484 -1.0936519646848648e-16 7.868750386724225e-17 -1.0936519646848648e-16 7.868750386724225e-17 0.9445076419397145 -0.3284894432356877
12614808000.0 0.9405654654676152 -0.33961243376752176 -1.0840075637692735e-16 7.996650035390792e-17 -1.0840075637692735e-16 7.996650035390792e-17 0.9405657002715648 -0.33961178347117466
12615425333.333334 0.9364925467489463 -0.35068748178896253 -1.0742137157135854e-16 8.123369324337402e-17 -1.0742137157135854e-16 8.123369324337402e-17 0.9364927891981963 -0.350686834340262
12616042666.666666 0.9322892257936192 -0.36171369820473454 -1.064271863153609e-16 8.248890806514677e-17 -1.064271863153609e-16 8.248890806514677e-17 0.932289475853663 -0.36171305369355156
12616660000.0 0.9279560878946242 -0.3726895476655011 -1.0541834690748554e-16 8.373197210963268e-17 -1.0541834690748554e-16 8.373197210963268e-17 0.9279563455298994 -0.37268890618128925
12617277333.333334 0.9234937364213774 -0.3836135018352382 -1.0439500165979827e-16 8.496271445183615e-17 -1.0439500165979827e-16 8.496271445183615e-17 0.92349400159527 -0.38361286346702067
12617894666.666666 0.9189027927357178 -0.39448403960402395 -1.0335730087614028e-16 8.618096597480889e-17 -1.0335730087614028e-16 8.618096597480889e-17 0.9189030654105679 -0.3944834044403814
12618512000.0 0.914183896105275 -0.4052996473001069 -1.023053968300866e-16 8.738655939286561e-17 -1.023053968300866e-16 8.738655939286561e-17 0.9141841762423815 -0.40529901542916486
12619129333.333334 0.9093377036146195 -0.41605881890028595 -1.0123944374269846e-16 8.857932927445973e-17 -1.0123944374269846e-16 8.857932927445973e-17 0.9093379911742469 -0.4160581904097031
12619746666.666666 0.9043648900736125 -0.42676005623998253 -1.0015959775993665e-16 8.975911206487272e-17 -1.0015959775993665e-16 8.975911206487272e-17 0.9043651850149955 -0.42675943121693866
12620364000.0 0.899266147923504 -0.4374018692216957 -9.906601692986048e-17 9.092574610856994e-17 -9.906601692986048e-17 9.092574610856994e-17 0.8992664502048527 -0.4374012477528785
12620981333.333334 0.8940421871405785 -0.44798277602236325 -9.795886117956981e-17 9.207907167128221e-17 -9.795886117956981e-17 9.207907167128221e-17 0.8940424967190854 -0.4479821581939573
12621598666.666666 0.8886937351371955 -0.4585013032999045 -9.683829229183928e-17 9.321893096185879e-17 -9.683829229183928e-17 9.321893096185879e-17 0.888694051969043 -0.45850068919758
12622216000.0 0.8832215366605148 -0.46895598639835157 -9.570447388156324e-17 9.434516815377115e-17 -9.570447388156324e-17 9.434516815377115e-17 0.883221860700877 -0.4689553761072501
12622833333.333334 0.8776263536888378 -0.4793453695516899 -9.455757137190599e-17 9.545762940637765e-17 -9.455757137190599e-17 9.545762940637765e-17 0.8776266848918918 -0.47934476315641533
12623450666.666666 0.8719089653255152 -0.48966800608657296 -9.33977519702353e-17 9.655616288586936e-17 -9.33977519702353e-17 9.655616288586936e-17 0.8719093036444443 -0.48966740367117784
12624068000.0 0.8660701676904173 -0.4999224586238378 -9.222518464378907e-17 9.76406187859486e-17 -9.222518464378907e-17 9.76406187859486e-17 0.8660705130774181 -0.4999218602718122
12624685333.333334 0.860110773809005 -0.5101072992787756 -9.104004009509941e-17 9.871084934821473e-17 -9.104004009509941e-17 9.871084934821473e-17 0.860111126215295 -0.5101067050730358
12625302666.666666 0.8540316134993456 -0.5202211098595634 -8.984249073724321e-17 9.976670888219607e-17 -8.984249073724321e-17 9.976670888219607e-17 0.8540319728751703 -0.5202205198824402
12625920000.0 0.8478335332562962 -0.5302624820652085 -8.863271066874785e-17 1.0080805378518471e-16 -8.863271066874785e-17 1.0080805378518471e-16 0.8478338995509351 -0.5302618963984365
12626537333.333334 0.8415173961338493 -0.5402300176812822 -8.741087564839354e-17 1.0183474256165641e-16 -8.741087564839354e-17 1.0183474256165641e-16 0.8415177692956233 -0.5402294364059868
12627154666.666666 0.8350840816248833 -0.5501223287747341 -8.617716306970272e-17 1.0284663584246384e-16 -8.617716306970272e-17 1.0284663584246384e-16 0.8350844616011631 -0.5501217519714223
12627772000.0 0.828534485538546 -0.5599380378873982 -8.493175193522215e-17 1.0384359640370875e-16 -8.493175193522215e-17 1.0384359640370875e-16 0.8285348722757576 -0.5599374656359457
12628389333.333334 0.8218695198758224 -0.569675778227316 -8.367482283064636e-17 1.0482548918525479e-16 -8.367482283064636e-17 1.0482548918525479e-16 0.8218699133194564 -0.5696752106069575
12629006666.666666 0.8150901127022645 -0.5793341938594869 -8.240655789862777e-17 1.0579218130900998e-16 -8.240655789862777e-17 1.0579218130900998e-16 0.8150905127968832 -0.5793336309488046
12629624000.0 0.8081972080188886 -0.588911939894485 -8.112714081248335e-17 1.0674354209680749e-16 -8.112714081248335e-17 1.0674354209680749e-16 0.8081976147081327 -0.5889113817713971
12630241333.333334 0.8011917656307244 -0.5984076826757281 -7.983675674961535e-17 1.076794430880325e-16 -7.983675674961535e-17 1.076794430880325e-16 0.8011921788573227 -0.598407129417479
12630858666.666666 0.7940747610132056 -0.60782009996514 -7.853559236478375e-17 1.0859975805688746e-16 -7.853559236478375e-17 1.0859975805688746e-16 0.7940751807189823 -0.6078195516482894
12631476000.0 0.7868471851761677 -0.6171478811274932 -7.722383576311025e-17 1.095043630293863e-16 -7.722383576311025e-17 1.095043630293863e-16 0.7868476113020499 -0.6171473378279044
12632093333.333334 0.7795100445260752 -0.6263897273126117 -7.590167647299269e-17 1.1039313629994837e-16 -7.590167647299269e-17 1.1039313629994837e-16 0.7795104770121032 -0.6263891891054434
12632710666.666666 0.7720643607258046 -0.635544351636349 -7.456930541873935e-17 1.112659584477299e-16 -7.456930541873935e-17 1.112659584477299e-16 0.7720647995111373 -0.6355438185960421
12633328000.0 0.7645111705522152 -0.6446104793599736 -7.322691489303801e-17 1.1212271235260996e-16 -7.322691489303801e-17 1.1212271235260996e-16 0.7645116155751415 -0.6446099515602433
12633945333.333334 0.7568515257520531 -0.6535868480673412 -7.187469852926792e-17 1.1296328321082853e-16 -7.187469852926792e-17 1.1296328321082853e-16 0.7568519769499994 -0.6535863255811654
12634562666.666666 0.7490864928953598 -0.6624722078408588 -7.051285127362042e-17 1.1378755855029978e-16 -7.051285127362042e-17 1.1378755855029978e-16 0.7490869502048985 -0.6624716907404689
12635180000.0 0.7412171532269158 -0.6712653214355697 -6.914156935703605e-17 1.1459542824559666e-16 -6.914156935703605e-17 1.1459542824559666e-16 0.7412176165837747 -0.6712648097924394
12635797333.333334 0.7332446025157758 -0.6799649644513268 -6.776105026696352e-17 1.1538678453260073e-16 -6.776105026696352e-17 1.1538678453260073e-16 0.733245071854847 -0.6799644583361636
12636414666.666666 0.7251699509026909 -0.6885699255032873 -6.637149271899861e-17 1.161615220227864e-16 -6.637149271899861e-17 1.161615220227864e-16 0.7251704261580391 -0.6885694249860211
12637032000.0 0.7169943227454277 -0.6970790063906948 -6.497309662829487e-17 1.16919537717202e-16 -6.497309662829487e-17 1.16919537717202e-16 0.7169948038503019 -0.6970785115404708
12637649333.333334 0.7087188564623084 -0.7054910222636227 -6.356606308086881e-17 1.1766073102007783e-16 -6.356606308086881e-17 1.1766073102007783e-16 0.7087193433491485 -0.7054905331487895
12638266666.666666 0.7003447043735859 -0.7138048017880564 -6.215059430471426e-17 1.183850037521092e-16 -6.215059430471426e-17 1.183850037521092e-16 0.7003451969740346 -0.7138043184761581
12638884000.0 0.6918730325411142 -0.7220191873088792 -6.072689364080345e-17 1.1909226016337358e-16 -6.072689364080345e-17 1.1909226016337358e-16 0.6918735307860236 -0.7220187098666438
12639501333.333334 0.6833050206058744 -0.7301330350111669 -5.929516551390541e-17 1.1978240694591858e-16 -5.929516551390541e-17 1.1978240694591858e-16 0.6833055244253184 -0.7301325635044994
12640118666.666666 0.6746418616238836 -0.7381452150793049 -5.785561540330668e-17 1.2045535324597844e-16 -5.785561540330668e-17 1.2045535324597844e-16 0.6746423709471667 -0.7381447495732778
12640736000.0 0.6658847618996492 -0.7460546118546956 -5.640844981329868e-17 1.2111101067588466e-16 -5.640844981329868e-17 1.2111101067588466e-16 0.6658852766553165 -0.7460541524135392
12641353333.333334 0.657034940818823 -0.7538601239905299 -5.495387624370339e-17 1.217492933255425e-16 -5.495387624370339e-17 1.217492933255425e-16 0.6570354609346711 -0.753859670677625
12641970666.666666 0.6480936306778872 -0.761560664605629 -5.349210316008074e-17 1.2237011777364146e-16 -5.349210316008074e-17 1.2237011777364146e-16 0.6480941560809711 -0.7615602174834941
12642588000.0 0.6390620765127875 -0.7691551614355691 -5.2023339963938834e-17 1.229734030984511e-16 -5.2023339963938834e-17 1.229734030984511e-16 0.6390626071294354 -0.7691547205658573
12643205333.333334 0.6299415359255764 -0.7766425569819996 -5.054779696276463e-17 1.2355907088828588e-16 -5.054779696276463e-17 1.2355907088828588e-16 0.6299420716813963 -0.7766421224254857
12643822666.666666 0.6207332789091164 -0.784021808660033 -4.906568533996267e-17 1.241270452516002e-16 -4.906568533996267e-17 1.241270452516002e-16 0.6207338197290093 -0.7840213804766085
12644440000.0 0.6114385876704844 -0.791291888943224 -4.75772171246785e-17 1.2467725282672603e-16 -4.75772171246785e-17 1.2467725282672603e-16 0.6114391334786524 -0.7912914671918859
12645057333.333334 0.6020587564523198 -0.7984517855067389 -4.608260516151092e-17 1.252096227912505e-16 -4.608260516151092e-17 1.252096227912505e-16 0.6020593071722782 -0.798451370245583
12645674666.666666 0.5925950913526524 -0.8055005013682822 -4.458206308012426e-17 1.2572408687102954e-16 -4.458206308012426e-17 1.2572408687102954e-16 0.592595646907241 -0.8055000926544956
12646292000.0 0.5830489101427856 -0.8124370550271098 -4.307580526471881e-17 1.2622057934885318e-16 -4.307580526471881e-17 1.2622057934885318e-16 0.5830494704541771 -0.8124366529169618
12646909333.333334 0.573421542084232 -0.8192604806003723 -4.156404682351382e-17 1.2669903707270873e-16 -4.156404682351382e-17 1.2669903707270873e-16 0.573422107073946 -0.8192600851492087
12647526666.666666 0.5637143277433059 -0.8259698279578533 -4.004700355802564e-17 1.2715939946371824e-16 -4.004700355802564e-17 1.2715939946371824e-16 0.5637148973322165 -0.8259694392200846
12648144000.0 0.5539286188045167 -0.8325641628542105 -3.852489193229904e-17 1.2760160852369461e-16 -3.852489193229904e-17 1.2760160852369461e-16 0.5539291929128671 -0.8325637808833102
12648761333.333334 0.5440657778823588 -0.8390425670590717 -3.699792904210062e-17 1.2802560884231826e-16 -3.699792904210062e-17 1.2802560884231826e-16 0.5440663564297691 -0.8390421919075629
12649378666.666666 0.5341271783317117 -0.8454041384847942 -3.546633258398419e-17 1.2843134760395964e-16 -3.546633258398419e-17 1.2843134760395964e-16 0.534127761237193 -0.845403770204248
12649996000.0 0.5241142040563961 -0.8516479913122221 -3.39303208242871e-17 1.2881877459413258e-16 -3.39303208242871e-17 1.2881877459413258e-16 0.5241147912383602 -0.8516476299532468
12650613333.333334 0.5140282493165661 -0.8577732561139688 -3.239011256806517e-17 1.291878422055743e-16 -3.239011256806517e-17 1.291878422055743e-16 0.5140288406928369 -0.8577729017262031
12651230666.666666 0.5038707185346849 -0.8637790799754029 -3.0845927128004035e-17 1.295385054439444e-16 -3.0845927128004035e-17 1.295385054439444e-16 0.5038713140225114 -0.8637787326075124
12651848000.0 0.493643026099627 -0.8696646266136251 -2.9297984293186714e-17 1.2987072193317494e-16 -2.9297984293186714e-17 1.2987072193317494e-16 0.4936436256156929 -0.8696642863132911
12652465333.333334 0.483346596170095 -0.8754290764936912 -2.7746504297875626e-17 1.3018445192043017e-16 -2.7746504297875626e-17 1.3018445192043017e-16 0.48334719963053124 -0.8754287433076067
12653082666.666666 0.4729828624762164 -0.881071626942792 -2.6191707790244192e-17 1.3047965828069485e-16 -2.6191707790244192e-17 1.3047965828069485e-16 0.47298346979661376 -0.8810713009166561
12653700000.0 0.4625532681196799 -0.886591492262145 -2.463381580098796e-17 1.3075630652100469e-16 -2.463381580098796e-17 1.3075630652100469e-16 0.4625538792150989 -0.886591173440654
12654317333.333334 0.45205926537316293 -0.8919879038361944 -2.3073049712001672e-17 1.310143647842824e-16 -2.3073049712001672e-17 1.310143647842824e-16 0.45205988015814785 -0.8919875922630388
12654934666.666666 0.44150231547776136 -0.897260110239828 -2.150963122492974e-17 1.3125380385281675e-16 -2.150963122492974e-17 1.3125380385281675e-16 0.4415029338663498 -0.8972598059576823
12655552000.0 0.4308838884396638 -0.9024073773429204 -1.9943782329702085e-17 1.3147459715136216e-16 -1.9943782329702085e-17 1.3147459715136216e-16 0.43088451034540115 -0.9024070803934423
12656169333.333334 0.4202054628255929 -0.9074289884125052 -1.8375725273112824e-17 1.316767207498545e-16 -1.8375725273112824e-17 1.316767207498545e-16 0.42020608816154253 -0.9074286988363255
12656786666.666666 0.40946852555671537 -0.9123242442126714 -1.6805682527270253e-17 1.3186015336576788e-16 -1.6805682527270253e-17 1.3186015336576788e-16 0.40946915423547203 -0.9123239620493915
12657404000.0 0.39867457170162085 -0.917092463101918 -1.523387675808318e-17 1.3202487636608708e-16 -1.523387675808318e-17 1.3202487636608708e-16 0.3986752036353221 -0.9170921883901023
12658021333.333334 0.3878251042682423 -0.9217329811280165 -1.3660530793739836e-17 1.321708737689044e-16 -1.3660530793739836e-17 1.321708737689044e-16 0.3878257393685811 -0.9217327139051893
12658638666.666666 0.37692163399459827 -0.9262451521204608 -1.2085867593164998e-17 1.3229813224464468e-16 -1.2085867593164998e-17 1.3229813224464468e-16 0.3769222721728354 -0.9262448924230994
12659256000.0 0.3659656791382188 -0.930628347780528 -1.0510110214436942e-17 1.3240664111691572e-16 -1.0510110214436942e-17 1.3240664111691572e-16 0.3659663203051953 -0.9306280956440588
12659873333.333334 0.3549587652648657 -0.9348819577687093 -8.933481783251691e-18 1.3249639236298062e-16 -8.933481783251691e-18 1.3249639236298062e-16 0.35495940933101505 -0.9348817132275021
12660490666.666666 0.3439024250362648 -0.9390053897896385 -7.356205461393763e-18 1.3256738061385505e-16 -7.356205461393763e-18 1.3256738061385505e-16 0.3439030719116248 -0.9390051528770009
12661108000.0 0.33279819799631616 -0.9429980696747039 -5.7785044151387895e-18 1.3261960315403363e-16 -5.7785044151387895e-18 1.3261960315403363e-16 0.3327988475905437 -0.9429978404228818
12661725333.333334 0.32164763035712246 -0.9468594414618574 -4.200601783780871e-18 1.326530599208362e-16 -4.200601783780871e-18 1.326530599208362e-16 0.3216482825795036 -0.9468592199020235
12662342666.666666 0.3104522747834168 -0.9505889674731213 -2.622720648059164e-18 1.3266775350338443e-16 -2.622720648059164e-18 1.3266775350338443e-16 0.3104529295428808 -0.9505887536353751
12662960000.0 0.2992136901763881 -0.9541861283894464 -1.0450839987030467e-18 1.3266368914120004e-16 -1.0450839987030467e-18 1.3266368914120004e-16 0.2992143473815197 -0.9541859223028096
12663577333.333334 0.28793344145674626 -0.9576504233229828 5.320852950580144e-19 1.3264087472243242e-16 5.320852950580144e-19 1.3264087472243242e-16 0.2879341010157988 -0.9576502250153949
12664194666.666666 0.276613099346706 -0.9609813698868575 2.1085645169288014e-18 1.3259932078171072e-16 2.1085645169288014e-18 1.3259932078171072e-16 0.27661376116761427 -0.9609811793851732
12664812000.0 0.26525424015132687 -0.9641785042623355 3.684131134971417e-18 1.3253904049762374e-16 3.684131134971417e-18 1.3253904049762374e-16 0.26525490414171904 -0.9641783215923182
12665429333.333334 0.25385844553888104 -0.9672413812634341 5.25856283295614e-18 1.3246004968982692e-16 5.25856283295614e-18 1.3246004968982692e-16 0.25385911160609265 -0.9672412064497551
12666046666.666666 0.24242730232091617 -0.9701695743988342 6.8316375416809505e-18 1.3236236681577902e-16 6.8316375416809505e-18 1.3236236681577902e-16 0.24242797037200278 -0.9701694074650695
12666664000.0 0.23096240223088782 -0.9729626759313799 8.403133470304075e-18 1.3224601296710257e-16 8.403133470304075e-18 1.3224601296710257e-16 0.23096307217263717 -0.9729625169000035
12667281333.333334 0.21946534170292878 -0.9756202969347395 9.972829137497146e-18 1.3211101186558135e-16 9.972829137497146e-18 1.3211101186558135e-16 0.2194660134418753 -0.9756201458271261
12667898666.666666 0.20793772164930807 -0.9781420673476365 1.1540503402670362e-17 1.3195738985878081e-16 1.1540503402670362e-17 1.3195738985878081e-16 0.20793839509174455 -0.9781419241840534
12668516000.0 0.19638114723739677 -0.9805276360253881 1.3105935497080833e-17 1.3178517591530106e-16 1.3105935497080833e-17 1.3178517591530106e-16 0.19638182228938808 -0.9805275008249954
12669133333.333334 0.18479722766657483 -0.9827766707887206 1.466890505484272e-17 1.315944016196668e-16 1.466890505484272e-17 1.315944016196668e-16 0.18479790423397072 -0.9827765435695668
12669750666.666666 0.1731875759437667 -0.9848888584700991 1.6229192143958136e-17 1.3138510116683934e-16 1.6229192143958136e-17 1.3138510116683934e-16 0.1731882539322154 -0.9848887392491212
12670368000.0 0.16155380865897798 -0.9868639049573108 1.7786577297184895e-17 1.311573113563718e-16 1.7786577297184895e-17 1.311573113563718e-16 0.1615544879739388 -0.9868637937503286
