! Parameters = {f0=12700.012000; bw=77.238000; Q=6100.000000; N=10; m_0_1=1.218914; m_1_1=-0.481037; m_1_2=1.053726; m_2_2=-0.481686; m_2_3=0.690689; m_2_8=-0.001991; m_2_9=0.034713; m_3_3=-0.483623; m_3_4=0.579218; m_3_7=-0.001391; m_3_8=-0.098479; m_3_9=-0.001991; m_4_4=-0.486548; m_4_5=0.415553; m_4_6=0.002126; m_4_7=-0.119028; m_4_8=-0.001391; m_5_5=-0.486166; m_5_6=0.822908; m_5_7=0.002126; m_6_6=-0.486167; m_6_7=0.415895; m_7_7=-0.486534; m_7_8=0.579336; m_8_8=-0.483625; m_8_9=0.691002; m_9_9=-0.481691; m_9_10=1.054804; m_10_10=-0.481047; m_10_11=1.219709}
!
! Created with skrf (http://scikit-rf.org).
# Hz S RI R 50.0 
!freq ReS11 ImS11 ReS21 ImS21 ReS12 ImS12 ReS22 ImS22
12607400000.0 0.9773822780003467 0.2114802181072505 -8.613639355507273e-17 6.465430648082717e-18 -8.613639355507273e-17 6.465430648082717e-18 0.977382142169311 0.21148084586639504
12608017333.333334 0.9792485660676847 0.20266288721475437 -8.605712426419252e-17 7.247693667728533e-18 -8.605712426419252e-17 7.247693667728533e-18 0.9792484359062733 0.20266351614179343
12608634666.666666 0.9810353113841948 0.19382909435158185 -8.597075641313813e-17 8.029049850312407e-18 -8.597075641313813e-17 8.029049850312407e-18 0.9810351869024233 0.1938297243953166
12609252000.0 0.9827423688155541 0.18497955707220906 -8.587729993603501e-17 8.809434832697332e-18 -8.587729993603501e-17 8.809434832697332e-18 0.982742250022979 0.1849801881813556
12609869333.333334 0.9843695997003704 0.1761149942099491 -8.577676535011962e-17 9.588784357383401e-18 -8.577676535011962e-17 9.588784357383401e-18 0.9843694866060827 0.17611562633314143
12610486666.666666 0.9859168718613914 0.16723612581881264 -8.566916375464156e-17 1.0367034277774122e-17 -8.566916375464156e-17 1.0367034277774122e-17 0.9859167644740198 0.16723675890460776
12611104000.0 0.987384059616334 0.15834367311454464 -8.555450682971351e-17 1.114412056347043e-17 -8.555450682971351e-17 1.114412056347043e-17 0.9873839579440413 0.15834430711142622
12611721333.333334 0.9887710437879978 0.14943835841654418 -8.543280683512104e-17 1.1919979305492198e-17 -8.543280683512104e-17 1.1919979305492198e-17 0.988770947838483 0.14943899327292703
12612338666.666666 0.9900777117140045 0.14052090508888432 -8.530407660907731e-17 1.2694546721548482e-17 -8.530407660907731e-17 1.2694546721548482e-17 0.9900776214945006 0.14052154075311843
12612956000.0 0.9913039572559424 0.1315920374815532 -8.516832956693445e-17 1.3467759161258607e-17 -8.516832956693445e-17 1.3467759161258607e-17 0.9913038727732171 0.1315926739019282
12613573333.333334 0.9924496808079588 0.12265248087184226 -8.502557969984875e-17 1.4239553111363006e-17 -8.502557969984875e-17 1.4239553111363006e-17 0.9924496020683126 0.1226531179965912
12614190666.666666 0.9935147893048749 0.11370296140526383 -8.487584157339424e-17 1.500986520094222e-17 -8.487584157339424e-17 1.500986520094222e-17 0.9935147163141407 0.11370359918256769
12614808000.0 0.994499196229746 0.10474420603653929 -8.471913032613325e-17 1.5778632206597938e-17 -8.471913032613325e-17 1.5778632206597938e-17 0.9944991289932902 0.10474484441453116
12615425333.333334 0.9954028216208826 0.09577694247063465 -8.455546166813883e-17 1.6545791057632002e-17 -8.455546166813883e-17 1.6545791057632002e-17 0.9954027601436022 0.0957775813974038
12616042666.666666 0.9962255920783415 0.08680189910362142 -8.438485187946981e-17 1.7311278841208134e-17 -8.438485187946981e-17 1.7311278841208134e-17 0.9962255363646669 0.08680253852721775
12616660000.0 0.9969674407698976 0.07781980496351099 -8.42073178086005e-17 1.80750328074988e-17 -8.42073178086005e-17 1.80750328074988e-17 0.9969673908237899 0.07782044483194908
12617277333.333334 0.9976283074364667 0.06883138965100787 -8.402287687080208e-17 1.8836990374818712e-17 -8.402287687080208e-17 1.8836990374818712e-17 0.9976282632614182 0.06883202991227126
12617894666.666666 0.9982081383969964 0.059837383280359195 -8.383154704648166e-17 1.9597089134730728e-17 -8.383154704648166e-17 1.9597089134730728e-17 0.998208099996031 0.05983802388240469
12618512000.0 0.9987068865528392 0.050838516419850245 -8.363334687946815e-17 2.035526685716137e-17 -8.363334687946815e-17 2.035526685716137e-17 0.9987068539285112 0.050839157310611977
12619129333.333334 0.9991245113915641 0.041835520032688346 -8.342829547526152e-17 2.111146149546415e-17 -8.342829547526152e-17 2.111146149546415e-17 0.9991244845459571 0.041836161160082076
12619746666.666666 0.9994609789902571 0.03282912541745784 -8.321641249922735e-17 2.1865611191498768e-17 -8.321641249922735e-17 2.1865611191498768e-17 0.9994609579249862 0.032829766729385215
12620364000.0 0.9997162620182745 0.023820064148689254 -8.299771817474889e-17 2.261765428068089e-17 -8.299771817474889e-17 2.261765428068089e-17 0.9997162467344854 0.023820705593042092
12620981333.333334 0.9998903397394562 0.014809068017690533 -8.277223328134049e-17 2.3367529296990447e-17 -8.277223328134049e-17 2.3367529296990447e-17 0.9998903302378257 0.014809709542354972
12621598666.666666 0.999983198013821 0.005796868972820744 -8.25399791527029e-17 2.4115174978006235e-17 -8.25399791527029e-17 2.4115174978006235e-17 0.9999831942945553 0.005797510525681473
12622216000.0 0.9999948292987086 -0.0032158009398513413 -8.230097767474349e-17 2.4860530269886364e-17 -8.230097767474349e-17 2.4860530269886364e-17 0.9999948313615427 -0.003215159410906825
12622833333.333334 0.9999252326493904 -0.01222820963595325 -8.205525128354687e-17 2.560353433234598e-17 -8.205525128354687e-17 2.560353433234598e-17 0.9999252404935914 -0.01222756818303039
12623450666.666666 0.9997744137191522 -0.02123962505233164 -8.18028229633044e-17 2.6344126543603678e-17 -8.18028229633044e-17 2.6344126543603678e-17 0.9997744273435183 -0.021238983727524627
12624068000.0 0.9995423847588316 -0.03024931520654503 -8.154371624419626e-17 2.7082246505317288e-17 -8.154371624419626e-17 2.7082246505317288e-17 0.9995424041616905 -0.03024867406193255
12624685333.333334 0.9992291646158216 -0.03925654825637836 -8.12779552002242e-17 2.7817834047512965e-17 -8.12779552002242e-17 2.7817834047512965e-17 0.9992291897950317 -0.039255907344019354
12625302666.666666 0.9988347787325443 -0.048260592559005146 -8.100556444701667e-17 2.8550829233444946e-17 -8.100556444701667e-17 2.8550829233444946e-17 0.9988348096854961 -0.04825995193093461
12625920000.0 0.9983592591443764 -0.05726071673084384 -8.07265691395663e-17 2.92811723645034e-17 -8.07265691395663e-17 2.92811723645034e-17 0.9983592958679904 -0.05726007643906857
12626537333.333334 0.9978026444770534 -0.0662561897065975 -8.044099496994769e-17 3.000880398503152e-17 -8.044099496994769e-17 3.000880398503152e-17 0.997802686967783 -0.06625554980309194
12627154666.666666 0.99716497994354 -0.07524628079869412 -8.01488681649757e-17 3.0733664887166693e-17 -8.01488681649757e-17 3.0733664887166693e-17 0.9971650281973704 -0.07524564133539614
12627772000.0 0.9964463173403322 -0.0842302597569797 -7.985021548381905e-17 3.1455696115658814e-17 -7.985021548381905e-17 3.1455696115658814e-17 0.996446371352779 -0.08422962078578612
12628389333.333334 0.99564671504328 -0.09320739682752423 -7.954506421558877e-17 3.217483897262311e-17 -7.954506421558877e-17 3.217483897262311e-17 0.9956467748093939 -0.09320675840028704
12629006666.666666 0.9947662380028186 -0.10217696281235243 -7.923344217686149e-17 3.2891035022323804e-17 -7.923344217686149e-17 3.2891035022323804e-17 0.9947663035171831 -0.10217632498087434
12629624000.0 0.9938049577387146 -0.11113822912836359 -7.891537770917495e-17 3.36042260958983e-17 -7.891537770917495e-17 3.36042260958983e-17 0.9938050289954456 -0.1111375919443938
12630241333.333334 0.9927629523342415 -0.12009046786668288 -7.859089967647442e-17 3.431435429607313e-17 -7.859089967647442e-17 3.431435429607313e-17 0.9927630293269897 -0.1200898313819129
12630858666.666666 0.9916403064298508 -0.12903295185164676 -7.826003746252353e-17 3.5021362001839775e-17 -7.826003746252353e-17 3.5021362001839775e-17 0.9916403891518022 -0.12903231611770638
12631476000.0 0.990437111216278 -0.13796495470006842 -7.792282096825747e-17 3.572519187314168e-17 -7.792282096825747e-17 3.572519187314168e-17 0.9904371996601535 -0.13796431976852136
12632093333.333334 0.989153464427155 -0.14688575088004252 -7.757928060911842e-17 3.642578685548267e-17 -7.757928060911842e-17 3.642578685548267e-17 0.9891535585852116 -0.14688511680238228
12632710666.666666 0.9877894703310702 -0.15579461576993642 -7.722944731233035e-17 3.7123090184552294e-17 -7.722944731233035e-17 3.7123090184552294e-17 0.9877895701951007 -0.15579398259758198
12633328000.0 0.9863452397230661 -0.16469082571741728 -7.687335251413273e-17 3.781704539082254e-17 -7.687335251413273e-17 3.781704539082254e-17 0.9863453452844023 -0.16469019350170938
12633945333.333334 0.9848208899156857 -0.17357365809798156 -7.651102815698788e-17 3.8507596304090495e-17 -7.651102815698788e-17 3.8507596304090495e-17 0.984821001165196 -0.17357302689017787
12634562666.666666 0.9832165447294104 -0.18244239137382 -7.614250668673718e-17 3.919468705801363e-17 -7.614250668673718e-17 3.919468705801363e-17 0.9832166616575028 -0.18244176122509148
12635180000.0 0.9815323344826298 -0.1912963051522875 -7.5767821049713e-17 3.9878262094627275e-17 -7.5767821049713e-17 3.9878262094627275e-17 0.9815324570792527 -0.19129567611371429
12635797333.333334 0.9797683959810221 -0.2001346802446154 -7.538700468981823e-17 4.055826616881692e-17 -7.538700468981823e-17 4.055826616881692e-17 0.9797685242356625 -0.20013405236718207
12636414666.666666 0.977924872506478 -0.2089567987241057 -7.5000091545567e-17 4.1234644352763585e-17 -7.5000091545567e-17 4.1234644352763585e-17 0.9779250064081675 -0.20895617205869801
12637032000.0 0.9760019138054334 -0.21776194398464369 -7.460711604707424e-17 4.190734204037988e-17 -7.460711604707424e-17 4.190734204037988e-17 0.9760020533427418 -0.21776131858204328
12637649333.333334 0.9739996760767149 -0.22654940079879296 -7.42081131130178e-17 4.257630495169661e-17 -7.42081131130178e-17 4.257630495169661e-17 0.97399982123776 -0.22654877670967496
12638266666.666666 0.9719183219588604 -0.235318455375923 -7.380311814755563e-17 4.3241479137231363e-17 -7.380311814755563e-17 4.3241479137231363e-17 0.9719184727313009 -0.23531783265085005
12638884000.0 0.9697580205168914 -0.2440683954202143 -7.339216703720484e-17 4.39028109823258e-17 -7.339216703720484e-17 4.39028109823258e-17 0.9697581768879328 -0.24406777410963354
12639501333.333334 0.967518947228604 -0.2527985101884351 -7.297529614767932e-17 4.4560247211457597e-17 -7.297529614767932e-17 4.4560247211457597e-17 0.9675191091849977 -0.2527978903426739
12640118666.666666 0.9652012839703165 -0.2615080905476745 -7.255254232070528e-17 4.521373489249827e-17 -7.255254232070528e-17 4.521373489249827e-17 0.9652014514983629 -0.26150747221693643
12640736000.0 0.9628052190020082 -0.2701964290332732 -7.212394287075582e-17 4.586322144100608e-17 -7.212394287075582e-17 4.586322144100608e-17 0.9628053920875558 -0.2701958122676339
12641353333.333334 0.9603309469521962 -0.2788628199056587 -7.168953558181434e-17 4.650865462438673e-17 -7.168953558181434e-17 4.650865462438673e-17 0.9603311255806428 -0.27886220475506157
12641970666.666666 0.9577786688019692 -0.28750655920824697 -7.124935870403335e-17 4.714998256612477e-17 -7.124935870403335e-17 4.714998256612477e-17 0.9577788529582651 -0.28750594572249966
12642588000.0 0.9551485918687385 -0.29612694482435026 -7.080345095039934e-17 4.778715374991928e-17 -7.080345095039934e-17 4.778715374991928e-17 0.955148781537385 -0.29612633305311997
12643205333.333334 0.9524409297893817 -0.30472327653426273 -7.035185149334531e-17 4.842011702381007e-17 -7.035185149334531e-17 4.842011702381007e-17 0.9524411249544344 -0.30472266652707264
12643822666.666666 0.9496559025028891 -0.3132948560721386 -6.989459996132271e-17 4.9048821604278197e-17 -6.989459996132271e-17 4.9048821604278197e-17 0.9496561031479599 -0.31329424787836413
12644440000.0 0.9467937362324904 -0.3218409871827383 -6.943173643534813e-17 4.9673217080298495e-17 -6.943173643534813e-17 4.9673217080298495e-17 0.9467939423407472 -0.3218403808516026
12645057333.333334 0.943854663467307 -0.33036097567790323 -6.896330144551254e-17 5.0293253417361804e-17 -6.896330144551254e-17 5.0293253417361804e-17 0.9438548750214742 -0.3303603712584731
12645674666.666666 0.9408389229434547 -0.3388541294929701 -6.848933596744177e-17 5.090888096148202e-17 -6.848933596744177e-17 5.090888096148202e-17 0.9408391399258179 -0.33885352703415245
12646292000.0 0.9377467596245918 -0.34731975874317494 -6.800988141872584e-17 5.1520050443164116e-17 -6.800988141872584e-17 5.1520050443164116e-17 0.9377469820169968 -0.34731915829371285
12646909333.333334 0.9345784246821369 -0.3557571757793414 -6.752497965533463e-17 5.2126712981309623e-17 -6.752497965533463e-17 5.2126712981309623e-17 0.9345786524659923 -0.35575657738780997
12647526666.666666 0.9313341754747689 -0.3641656952440337 -6.703467296796718e-17 5.272882008713147e-17 -6.703467296796718e-17 5.272882008713147e-17 0.9313344086310459 -0.36416509895883575
12648144000.0 0.9280142755275642 -0.37254463412709143 -6.65390040783816e-17 5.332632366801274e-17 -6.65390040783816e-17 5.332632366801274e-17 0.9280145140368002 -0.37254403999645413
12648761333.333334 0.924618994510574 -0.38089331182116387 -6.60380161356961e-17 5.391917603132631e-17 -6.60380161356961e-17 5.391917603132631e-17 0.9246192383528737 -0.38089271989313483
12649378666.666666 0.9211486082169601 -0.389211050176888 -6.553175271265001e-17 5.450732988822714e-17 -6.553175271265001e-17 5.450732988822714e-17 0.9211488573719975 -0.38921046049933133
12649996000.0 0.9176033985405316 -0.39749717355813297 -6.502025780182142e-17 5.509073835742076e-17 -6.502025780182142e-17 5.509073835742076e-17 0.9176036529875506 -0.3974965861787253
12650613333.333334 0.9139836534528757 -0.4057510088968003 -6.450357581183204e-17 5.566935496887243e-17 -6.450357581183204e-17 5.566935496887243e-17 0.9139839131706927 -0.405750423863027
12651230666.666666 0.9102896669800024 -0.4139718857474194 -6.398175156350545e-17 5.624313366749791e-17 -6.398175156350545e-17 5.624313366749791e-17 0.910289931947007 -0.4139713031065701
12651848000.0 0.9065217391783917 -0.4221591363417613 -6.345483028598534e-17 5.681202881682475e-17 -6.345483028598534e-17 5.681202881682475e-17 0.9065220093725501 -0.4221585561409273
12652465333.333334 0.9026801761106561 -0.4303120956430039 -6.29228576128447e-17 5.737599520259295e-17 -6.29228576128447e-17 5.737599520259295e-17 0.9026804515095112 -0.4303115179290733
12653082666.666666 0.8987652898207262 -0.4384301013996477 -6.238587957815014e-17 5.793498803633359e-17 -6.238587957815014e-17 5.793498803633359e-17 0.8987655704014015 -0.43842952621930253
12653700000.0 0.8947773983083706 -0.4465124941995924 -6.18439426124775e-17 5.848896295892797e-17 -6.18439426124775e-17 5.848896295892797e-17 0.8947776840475711 -0.4465119215993043
12654317333.333334 0.8907168255035414 -0.45455861752334253 -6.12970935389369e-17 5.90378760440885e-17 -6.12970935389369e-17 5.90378760440885e-17 0.8907171163775539 -0.4545580475493685
12654934666.666666 0.8865839012399305 -0.4625678177975882 -6.074537956912586e-17 5.958168380184333e-17 -6.074537956912586e-17 5.958168380184333e-17 0.8865841972246282 -0.4625672504959681
12655552000.0 0.8823789612281698 -0.4705394444483213 -6.018884829906743e-17 6.012034318196858e-17 -6.018884829906743e-17 6.012034318196858e-17 0.8823792622990124 -0.47053887986487253
12656169333.333334 0.8781023470287265 -0.4784728499533494 -5.962754770514189e-17 6.065381157735847e-17 -5.962754770514189e-17 6.065381157735847e-17 0.8781026531607642 -0.47847228813366516
12656786666.666666 0.8737544060239547 -0.48636738989529976 -5.906152613993904e-17 6.118204682740735e-17 -5.906152613993904e-17 6.118204682740735e-17 0.8737547171918271 -0.48636683088474336
12657404000.0 0.8693354913899886 -0.4942224230137334 -5.849083232812352e-17 6.170500722131033e-17 -5.849083232812352e-17 6.170500722131033e-17 0.8693358075679316 -0.494221866857437
12658021333.333334 0.8648459620680239 -0.5020373112573139 -5.791551536225071e-17 6.222265150134635e-17 -5.791551536225071e-17 6.222265150134635e-17 0.8648462832298669 -0.502036758000172
12658638666.666666 0.8602861827352241 -0.5098114198355069 -5.733562469856752e-17 6.273493886610869e-17 -5.733562469856752e-17 6.273493886610869e-17 0.8602865088543945 -0.5098108695221748
12659256000.0 0.8556565237749598 -0.5175441172703921 -5.675121015275833e-17 6.324182897372144e-17 -5.675121015275833e-17 6.324182897372144e-17 0.8556568548244862 -0.517543569945282
12659873333.333334 0.8509573612468374 -0.5252347754477603 -5.616232189569636e-17 6.374328194498515e-17 -5.616232189569636e-17 6.374328194498515e-17 0.8509576971993481 -0.5252342311550358
12660490666.666666 0.8461890768562087 -0.5328827696680349 -5.556901044915005e-17 6.423925836650007e-17 -5.556901044915005e-17 6.423925836650007e-17 0.8461894176839387 -0.5328822284516108
12661108000.0 0.8413520579229354 -0.5404874786974079 -5.497132668145214e-17 6.472971929375643e-17 -5.497132668145214e-17 6.472971929375643e-17 0.8413524035977255 -0.5404869406009438
12661725333.333334 0.8364466973501888 -0.5480482848178614 -5.43693218031682e-17 6.521462625416388e-17 -5.43693218031682e-17 6.521462625416388e-17 0.8364470478434898 -0.5480477498847603
12662342666.666666 0.8314733935923608 -0.5555645738776378 -5.376304736271014e-17 6.569394125006289e-17 -5.376304736271014e-17 6.569394125006289e-17 0.831473748875234 -0.5555640421510405
12662960000.0 0.8264325506227695 -0.5630357353410018 -5.3152555241944164e-17 6.616762676167924e-17 -5.3152555241944164e-17 6.616762676167924e-17 0.8264329106658895 -0.5630352068637844
12663577333.333334 0.8213245779008307 -0.5704611623378603 -5.253789765176375e-17 6.663564575004569e-17 -5.253789765176375e-17 6.663564575004569e-17 0.8213249426744893 -0.5704606371526311
12664194666.666666 0.8161498903387823 -0.5778402517130775 -5.191912712763863e-17 6.709796165988067e-17 -5.191912712763863e-17 6.709796165988067e-17 0.8161502598128901 -0.577839729862174
12664812000.0 0.810908908268049 -0.5851724040753802 -5.129629652513881e-17 6.755453842242617e-17 -5.129629652513881e-17 6.755453842242617e-17 0.8109092824121374 -0.5851718856008643
12665429333.333334 0.8056020574049813 -0.5924570238462029 -5.066945901543186e-17 6.800534045824555e-17 -5.066945901543186e-17 6.800534045824555e-17 0.8056024361882054 -0.592456508789858
12666046666.666666 0.8002297688164267 -0.5996935193078609 -5.003866808076573e-17 6.84503326799728e-17 -5.003866808076573e-17 6.84503326799728e-17 0.8002301522075675 -0.5996930077111887
12666664000.0 0.7947924788845118 -0.6068813026518876 -4.940397750990562e-17 6.888948049503507e-17 -4.940397750990562e-17 6.888948049503507e-17 0.7947928668519797 -0.6068807945561053
12667281333.333334 0.7892906292714348 -0.6140197900264637 -4.8765441393577476e-17 6.932274980831305e-17 -4.8765441393577476e-17 6.932274980831305e-17 0.7892910217832707 -0.6140192854724994
12667898666.666666 0.7837246668833991 -0.6211084015840905 -4.812311411985985e-17 6.975010702477755e-17 -4.812311411985985e-17 6.975010702477755e-17 0.7837250639072797 -0.6211079006125819
12668516000.0 0.7780950438343851 -0.6281465615286017 -4.747705036956334e-17 7.017151905207745e-17 -4.747705036956334e-17 7.017151905207745e-17 0.7780954453376216 -0.6281460641798899
12669133333.333334 0.7724022174094737 -0.6351336981618649 -4.682730511160727e-17 7.058695330307116e-17 -4.682730511160727e-17 7.058695330307116e-17 0.7724026233590181 -0.6351332044759942
12669750666.666666 0.7666466500275994 -0.642069243930356 -4.6173933598336666e-17 7.099637769834121e-17 -4.6173933598336666e-17 7.099637769834121e-17 0.7666470603900455 -0.6420687539470686
12670368000.0 0.7608288092040393 -0.6489526354711903 -4.551699136084517e-17 7.139976066864648e-17 -4.551699136084517e-17 7.139976066864648e-17 0.7608292239456251 -0.6489521492299237
