! Parameters = {f0=12700.012000; bw=77.238000; Q=6100.000000; N=10; m_0_1=1.319815; m_1_1=1.032477; m_1_2=1.154627; m_2_2=1.031828; m_2_3=0.791590; m_2_8=0.003054; m_2_9=0.039758; m_3_3=1.029891; m_3_4=0.680119; m_3_7=0.003654; m_3_8=-0.093434; m_3_9=0.003054; m_4_4=1.026966; m_4_5=0.516454; m_4_6=0.007171; m_4_7=-0.113983; m_4_8=0.003654; m_5_5=1.027348; m_5_6=0.923809; m_5_7=0.007171; m_6_6=1.027347; m_6_7=0.516796; m_7_7=1.026980; m_7_8=0.680237; m_8_8=1.029889; m_8_9=0.791903; m_9_9=1.031823; m_9_10=1.155705; m_10_10=1.032467; m_10_11=1.320610}
!
! Created with skrf (http://scikit-rf.org).
# Hz S RI R 50.0 
!freq ReS11 ImS11 ReS21 ImS21 ReS12 ImS12 ReS22 ImS22
12607400000.0 -0.49357311402353793 0.869704306711722 3.146639224181513e-17 -1.3549725884161242e-16 3.146639224181513e-17 -1.3549725884161242e-16 -0.49357371869638644 0.8697039635485342
12608017333.333334 -0.48310522485709617 0.8755623003051146 2.982090593588671e-17 -1.35841001829435e-16 2.982090593588671e-17 -1.35841001829435e-16 -0.4831058335729903 0.8755619644363015
12608634666.666666 -0.47256782033319533 0.8812943067927657 2.817170923957297e-17 -1.3616477356310498e-16 2.817170923957297e-17 -1.3616477356310498e-16 -0.47256843300415385 0.8812939782659401
12609252000.0 -0.46196241670842014 0.8868995013803562 2.6519044403869915e-17 -1.3646853458913574e-16 2.6519044403869915e-17 -1.3646853458913574e-16 -0.4619630332459012 0.8868991802420698
12609869333.333334 -0.4512905400239583 0.8923770775208723 2.4863154091233378e-17 -1.3675224839085546e-16 2.4863154091233378e-17 -1.3675224839085546e-16 -0.4512911603388725 0.8923767638166089
12610486666.666666 -0.44055372588609226 0.8977262470306253 2.320428134000786e-17 -1.370158813925854e-16 2.320428134000786e-17 -1.370158813925854e-16 -0.4405543498888151 0.8977259408047943
12611104000.0 -0.42975351924487953 0.9029462402028431 2.154266952875219e-17 -1.372594029633981e-16 2.154266952875219e-17 -1.372594029633981e-16 -0.42975414684526486 0.902945941498774
12611721333.333334 -0.4188914741723809 0.9080363059181604 1.987856234064248e-17 -1.3748278542042533e-16 1.987856234064248e-17 -1.3748278542042533e-16 -0.41889210527977394 0.9080360147780965
12612338666.666666 -0.407969153638607 0.912995711752913 1.8212203727754907e-17 -1.3768600403174964e-16 1.8212203727754907e-17 -1.3768600403174964e-16 -0.40796978816185725 0.9129954282180051
12612956000.0 -0.3969881292866926 0.9178237440844857 1.6543837875323067e-17 -1.3786903701886223e-16 1.6543837875323067e-17 -1.3786903701886223e-16 -0.3969887671341666 0.9178234681947852
12613573333.333334 -0.38594998120705915 0.9225197081938574 1.4873709166069307e-17 -1.3803186555867766e-16 1.4873709166069307e-17 -1.3803186555867766e-16 -0.3859506222866551 0.9225194399883144
12614190666.666666 -0.3748562977096134 0.9270829283657699 1.3202062144388108e-17 -1.381744737851332e-16 1.3202062144388108e-17 -1.381744737851332e-16 -0.37485694192877206 0.9270826678822219
12614808000.0 -0.3637086750955352 0.9315127479858019 1.1529141480617626e-17 -1.3829684879034252e-16 1.1529141480617626e-17 -1.3829684879034252e-16 -0.36370932236125586 0.9315124952609737
12615425333.333334 -0.3525087174273486 0.935808529634955 9.855191935283573e-18 -1.3839898062532242e-16 9.855191935283573e-18 -1.3839898062532242e-16 -0.35250936764620056 0.9358082847044508
12616042666.666666 -0.3412580362983175 0.9399696551812863 8.180458323308445e-18 -1.3848086230028914e-16 8.180458323308445e-18 -1.3848086230028914e-16 -0.3412586893764547 0.9399694180795855
12616660000.0 -0.3299582506003391 0.9439955258689385 6.505185478285778e-18 -1.385424897845177e-16 6.505185478285778e-18 -1.385424897845177e-16 -0.3299589064435129 0.9439952966293903
12617277333.333334 -0.31861098629118145 0.9478855624042231 4.829618216698854e-18 -1.3858386200577519e-16 4.829618216698854e-18 -1.3858386200577519e-16 -0.3186116448047551 0.9478853410590431
12617894666.666666 -0.3072178761604687 0.951639205039001 3.15400130224243e-18 -1.386049808493169e-16 3.15400130224243e-18 -1.386049808493169e-16 -0.30721853724942993 0.9516389916192644
12618512000.0 -0.2957805595945163 0.9552559136512924 1.4785794100401541e-18 -1.3860585115645584e-16 1.4785794100401541e-18 -1.3860585115645584e-16 -0.2957812231634921 0.9552557081869326
12619129333.333334 -0.2843006823408691 0.9587351678228595 -1.964029089495932e-19 -1.3858648072269822e-16 -1.964029089495932e-19 -1.3858648072269822e-16 -0.2843013482941388 0.958734970342662
12619746666.666666 -0.2727798962711654 0.9620764669141962 -1.870701263649458e-18 -1.3854688029545025e-16 -1.870701263649458e-18 -1.3854688029545025e-16 -0.27278056451267446 0.9620762774457942
12620364000.0 -0.26121985914336154 0.9652793301365848 -3.5440714584627466e-18 -1.384870635712936e-16 -3.5440714584627466e-18 -1.384870635712936e-16 -0.2612205295767355 0.9652791487064557
12620981333.333334 -0.2496222343636284 0.9683432966211512 -5.216269528795211e-18 -1.3840704719283371e-16 -5.216269528795211e-18 -1.3840704719283371e-16 -0.24962290689218772 0.9683431232546158
12621598666.666666 -0.2379886907465377 0.971267925485321 -6.887051776643363e-18 -1.3830685074511637e-16 -6.887051776643363e-18 -1.3830685074511637e-16 -0.23798936527330952 0.9712677602065339
12622216000.0 -0.22632090227514592 0.9740527958961838 -8.556174806011895e-18 -1.3818649675161922e-16 -8.556174806011895e-18 -1.3818649675161922e-16 -0.22632157870288044 0.9740526387281366
12622833333.333334 -0.21462054786012427 0.9766975071310622 -1.0223395558363614e-17 -1.380460106698126e-16 -1.0223395558363614e-17 -1.380460106698126e-16 -0.21462122609130682 0.976697358095574
12623450666.666666 -0.2028893110982288 0.9792016786351506 -1.188847134791989e-17 -1.3788542088629927e-16 -1.188847134791989e-17 -1.3788542088629927e-16 -0.20288999103509556 0.9792015377528719
12624068000.0 -0.19112888002985073 0.9815649500763278 -1.3551159896987006e-17 -1.3770475871152144e-16 -1.3551159896987006e-17 -1.3770475871152144e-16 -0.1911295615744017 0.9815648173667323
12624685333.333334 -0.17934094689614555 0.9837869813969911 -1.52112193711542e-17 -1.3750405837404676e-16 -1.52112193711542e-17 -1.3750405837404676e-16 -0.17934162995015876 0.9837868568783736
12625302666.666666 -0.16752720789589434 0.9858674528629173 -1.686840841437035e-17 -1.372833570144366e-16 -1.686840841437035e-17 -1.372833570144366e-16 -0.1675278923609405 0.9858673365523938
12625920000.0 -0.15568936294081906 0.9878060651093878 -1.852248618407384e-17 -1.3704269467867604e-16 -1.852248618407384e-17 -1.3704269467867604e-16 -0.15569004871827558 0.9878059570228918
12626537333.333334 -0.14382911541156493 0.9896025391841599 -2.0173212386065782e-17 -1.3678211431120126e-16 -2.0173212386065782e-17 -1.3678211431120126e-16 -0.14382980240262982 0.9896024393364391
12627154666.666666 -0.13194817191234465 0.9912566165876531 -2.1820347309406933e-17 -1.3650166174749495e-16 -2.1820347309406933e-17 -1.3650166174749495e-16 -0.1319488600180509 0.9912565249922678
12627772000.0 -0.12004824202514426 0.9927680593101709 -2.3463651861211268e-17 -1.3620138570625824e-16 -2.3463651861211268e-17 -1.3620138570625824e-16 -0.12004893114637451 0.992767975979495
12628389333.333334 -0.10813103806417787 0.9941366498660902 -2.5102887601243103e-17 -1.3588133778118326e-16 -2.5102887601243103e-17 -1.3588133778118326e-16 -0.10813172810167808 0.9941365748113058
12629006666.666666 -0.09619827482915941 0.9953621913251994 -2.673781677651369e-17 -1.3554157243228903e-16 -2.673781677651369e-17 -1.3554157243228903e-16 -0.09619896568355339 0.9953621245562965
12629624000.0 -0.0842516693586964 0.9964445073410173 -2.836820235569832e-17 -1.351821469768555e-16 -2.836820235569832e-17 -1.351821469768555e-16 -0.08425236093050016 0.9964444488667927
12630241333.333334 -0.07229294068313542 0.9973834421761744 -2.9993808063465386e-17 -1.348031215799366e-16 -2.9993808063465386e-17 -1.348031215799366e-16 -0.07229363287277157 0.9973833920042315
12630858666.666666 -0.0603238095774615 0.9981788607248065 -3.161439841463588e-17 -1.3440455924447334e-16 -3.161439841463588e-17 -1.3440455924447334e-16 -0.0603245022852734 0.9981788188615526
12631476000.0 -0.048345998313180365 0.9988306485320282 -3.3229738748317184e-17 -1.3398652580097088e-16 -3.3229738748317184e-17 -1.3398652580097088e-16 -0.048346691439446594 0.9988306149826752
12632093333.333334 -0.036361230411063365 0.9993387118103672 -3.483959526175847e-17 -1.3354908989680305e-16 -3.483959526175847e-17 -1.3354908989680305e-16 -0.036361923856012 0.9993386865789291
12632710666.666666 -0.02437123039288995 0.999702977453277 -3.644373504417803e-17 -1.3309232298508241e-16 -3.644373504417803e-17 -1.3309232298508241e-16 -0.02437192405671304 0.9997029605425723
12633328000.0 -0.012377723533102618 0.9999233930456619 -3.804192611043926e-17 -1.3261629931312564e-16 -3.804192611043926e-17 -1.3261629931312564e-16 -0.012378417315970407 0.9999233844573102
12633945333.333334 -0.00038243561086464487 0.9999999268714043 -3.96339374345105e-17 -1.3212109591053564e-16 -3.96339374345105e-17 -1.3212109591053564e-16 -0.0003831294129400355 0.9999999266058285
12634562666.666666 0.011612907338323746 0.9999325679179379 -4.1219538982820886e-17 -1.316067925768673e-16 -4.1219538982820886e-17 -1.316067925768673e-16 0.011612213616870875 0.9999325759743635
12635180000.0 0.023606579271160017 0.999721325877829 -4.279850174746965e-17 -1.310734718688919e-16 -4.279850174746965e-17 -1.310734718688919e-16 0.02360588573013843 0.9997213422542833
12635797333.333334 0.03559685438470554 0.9993662311473829 -4.4370597779246133e-17 -1.3052121908746994e-16 -4.4370597779246133e-17 -1.3052121908746994e-16 0.035596161123888276 0.999366255840696
12636414666.666666 0.047582007364829905 0.9988673348222694 -4.5935600220464403e-17 -1.2995012226403708e-16 -4.5935600220464403e-17 -1.2995012226403708e-16 0.04758131448393994 0.9988673678280765
12637032000.0 0.05956031363441437 0.9982247086901737 -4.749328333769943e-17 -1.2936027214667028e-16 -4.749328333769943e-17 -1.2936027214667028e-16 0.059559621233110274 0.9982247500029129
12637649333.333334 0.07153004960161942 0.9974384452204553 -4.9043422554254024e-17 -1.2875176218579502e-16 -4.9043422554254024e-17 -1.2875176218579502e-16 0.07152935777948116 0.9974384948333731
12638266666.666666 0.08348949290769915 0.9965086575508644 -5.058579448252197e-17 -1.2812468851947714e-16 -5.058579448252197e-17 -1.2812468851947714e-16 0.08348880176421336 0.9965087154560094
12638884000.0 0.0954369226750623 0.9954354794712337 -5.212017695610204e-17 -1.2747914995834966e-16 -5.212017695610204e-17 -1.2747914995834966e-16 0.09543623230960846 0.9954355456594649
12639501333.333334 0.10737061975469633 0.9942190654042515 -5.3646349061783823e-17 -1.2681524797013297e-16 -5.3646349061783823e-17 -1.2681524797013297e-16 0.10736993026653219 0.994219139865236
12640118666.666666 0.11928886697356912 0.9928595903832387 -5.516409117125451e-17 -1.2613308666380646e-16 -5.516409117125451e-17 -1.2613308666380646e-16 0.11928817846181657 0.9928596731054552
12640736000.0 0.1311899493820846 0.9913572500269201 -5.667318497274247e-17 -1.2543277277334217e-16 -5.667318497274247e-17 -1.2543277277334217e-16 0.13118926194571523 0.9913573409976587
12641353333.333334 0.1430721545001174 0.98971226051136 -5.817341350225586e-17 -1.2471441564115038e-16 -5.817341350225586e-17 -1.2471441564115038e-16 0.14307146823793862 0.9897123597167263
12641970666.666666 0.15493377256407637 0.987924858538783 -5.966456117482679e-17 -1.239781272010555e-16 -5.966456117482679e-17 -1.239781272010555e-16 0.15493308757471683 0.9879249659636986
12642588000.0 0.16677309677272856 0.9859953013035335 -6.114641381539514e-17 -1.2322402196096469e-16 -6.114641381539514e-17 -1.2322402196096469e-16 0.1667724131546242 0.985995416931739
12643205333.333334 0.17858842353262777 0.9839238664550936 -6.261875868951494e-17 -1.224522169851526e-16 -6.261875868951494e-17 -1.224522169851526e-16 0.17858774138400774 0.9839239902691512
12643822666.666666 0.19037805270355784 0.9817108520580847 -6.408138453387947e-17 -1.2166283187615671e-16 -6.408138453387947e-17 -1.2166283187615671e-16 0.19037737212243008 0.98171098403938
12644440000.0 0.2021402878429459 0.9793565765494104 -6.553408158655734e-17 -1.2085598875634206e-16 -6.553408158655734e-17 -1.2085598875634206e-16 0.20213960892708321 0.979356716678155
12645057333.333334 0.2138734364499407 0.9768613786924449 -6.697664161702218e-17 -1.2003181224909287e-16 -6.697664161702218e-17 -1.2003181224909287e-16 0.21387275929686686 0.9768615269476811
12645674666.666666 0.2255758102090081 0.9742256175282809 -6.840885795595737e-17 -1.1919042945964151e-16 -6.840885795595737e-17 -1.1919042945964151e-16 0.2255751349159838 0.974225773887884
12646292000.0 0.23724572523314413 0.9714496723240011 -6.983052552484788e-17 -1.1833196995552543e-16 -6.983052552484788e-17 -1.1833196995552543e-16 0.23724505189715295 0.9714498367646824
12646909333.333334 0.24888150230562026 0.9685339425182313 -7.124144086522726e-17 -1.1745656574675236e-16 -7.124144086522726e-17 -1.1745656574675236e-16 0.2488808310233543 0.96853411501554
12647526666.666666 0.26048146712208037 0.9654788476635516 -7.26414021678017e-17 -1.1656435126554366e-16 -7.26414021678017e-17 -1.1656435126554366e-16 0.26048079798992735 0.9654790281918822
12648144000.0 0.27204395053135066 0.962284827366153 -7.403020930125042e-17 -1.1565546334577226e-16 -7.403020930125042e-17 -1.1565546334577226e-16 0.27204328364537944 0.9622850158987464
12648761333.333334 0.2835672887754259 0.9589523412226308 -7.540766384076145e-17 -1.1473004120206687e-16 -7.540766384076145e-17 -1.1473004120206687e-16 0.2835666242313724 0.9589525377315784
12649378666.666666 0.2950498237290644 0.9554818687538016 -7.677356909635286e-17 -1.137882264085465e-16 -7.677356909635286e-17 -1.137882264085465e-16 0.295049161622319 0.9554820732100511
12649996000.0 0.3064899031382998 0.9518739093357308 -7.812773014089686e-17 -1.1283016287723999e-16 -7.812773014089686e-17 -1.1283016287723999e-16 0.3064892435638916 0.9518741217090864
12650613333.333334 0.3178858808583204 0.9481289821278224 -7.946995383790126e-17 -1.118559968361552e-16 -7.946995383790126e-17 -1.118559968361552e-16 0.3178852239109062 0.9481292023869551
12651230666.666666 0.32923611709001727 0.9442476259982336 -8.080004886896514e-17 -1.1086587680705741e-16 -8.080004886896514e-17 -1.1086587680705741e-16 0.32923546286386596 0.9442478541106818
12651848000.0 0.34053897861642185 0.940230399446165 -8.211782576104985e-17 -1.0985995358285528e-16 -8.211782576104985e-17 -1.0985995358285528e-16 0.3405383272054017 0.9402306353783403
12652465333.333334 0.35179283903725794 0.9360778805216563 -8.342309691337857e-17 -1.0883838020473046e-16 -8.342309691337857e-17 -1.0883838020473046e-16 0.35179219053482347 0.9360781242388488
12653082666.666666 0.36299607900318465 0.9317906667423348 -8.471567662408124e-17 -1.0780131193892827e-16 -8.471567662408124e-17 -1.0780131193892827e-16 0.36299543350236185 0.9317909182087168
12653700000.0 0.37414708644885986 0.9273693750074136 -8.59953811166127e-17 -1.0674890625318425e-16 -8.59953811166127e-17 -1.0674890625318425e-16 0.3741464440422343 0.9273696341860466
12654317333.333334 0.38524425682474694 0.9228146415089862 -8.72620285657604e-17 -1.0568132279293236e-16 -8.72620285657604e-17 -1.0568132279293236e-16 0.3852436176044505 0.9228149083618269
12654934666.666666 0.3962859933280522 0.9181271216404674 -8.851543912347597e-17 -1.0459872335711052e-16 -8.851543912347597e-17 -1.0459872335711052e-16 0.39628535738574827 0.91812739612837
12655552000.0 0.4072707071327002 0.9133074899021911 -8.975543494434706e-17 -1.0350127187370909e-16 -8.975543494434706e-17 -1.0350127187370909e-16 0.40727007455957215 0.9133077719849162
12656169333.333334 0.4181968176175117 0.9083564398045499 -9.098184021074381e-17 -1.0238913437503954e-16 -9.098184021074381e-17 -1.0238913437503954e-16 0.4181961885042491 0.9083567294407685
12656786666.666666 0.42906275259408655 0.9032746837680086 -9.219448115772778e-17 -1.0126247897264722e-16 -9.219448115772778e-17 -1.0126247897264722e-16 0.4290621270308727 0.9032749809153102
12657404000.0 0.43986694853282204 0.8980629530206855 -9.339318609760697e-17 -1.0012147583196841e-16 -9.339318609760697e-17 -1.0012147583196841e-16 0.43986632660932024 0.8980632576355819
12658021333.333334 0.4506078507878931 0.8927219974931319 -9.457778544418638e-17 -9.896629714668918e-17 -9.457778544418638e-17 -9.896629714668918e-17 0.45060723259323404 0.8927223095310648
12658638666.666666 0.4612839138208795 0.8872525857104634 -9.574811173668113e-17 -9.779711711284108e-17 -9.574811173668113e-17 -9.779711711284108e-17 0.4612832994436491 0.8872529051258112
12659256000.0 0.47189360142346254 0.8816555046816216 -9.690399966337926e-17 -9.661411190254625e-17 -9.690399966337926e-17 -9.661411190254625e-17 0.4718929909516891 0.8816558314277064
12659873333.333334 0.48243538693819454 0.8759315597862686 -9.804528608488684e-17 -9.541745963757677e-17 -9.804528608488684e-17 -9.541745963757677e-17 0.4824347804593349 0.8759318938153606
12660490666.666666 0.4929077534780997 0.8700815746589413 -9.917181005711471e-17 -9.420734036257527e-17 -9.917181005711471e-17 -9.420734036257527e-17 0.49290715107902866 0.8700819159222689
12661108000.0 0.5033091941453687 0.8641063910703072 -1.002834128539329e-16 -9.298393601800273e-17 -1.002834128539329e-16 -9.298393601800273e-17 0.5033085959123647 0.8641067395180614
12661725333.333334 0.5136382122476418 0.8580068688063389 -1.0137993798943352e-16 -9.174743041288704e-17 -1.0137993798943352e-16 -9.174743041288704e-17 0.513637618266376 0.8580072243876828
12662342666.666666 0.5238933215138429 0.8517838855443349 -1.0246123123993384e-16 -9.049800919722672e-17 -1.0246123123993384e-16 -9.049800919722672e-17 0.5238927318693664 0.8517842482074103
12662960000.0 0.5340730463077251 0.8454383367268125 -1.0352714066559843e-16 -8.92358598341815e-17 -1.0352714066559843e-16 -8.92358598341815e-17 0.534072461084456 0.8454387064187463
12663577333.333334 0.5441759218404194 0.8389711354325259 -1.0457751663172468e-16 -8.796117157200419e-17 -1.0457751663172468e-16 -8.796117157200419e-17 0.544175341122133 0.8389715120994402
12664194666.666666 0.5542004943810194 0.8323832122452054 -1.0561221182967921e-16 -8.667413541572873e-17 -1.0561221182967921e-16 -8.667413541572873e-17 0.5541999182508327 0.8323835958322228
12664812000.0 0.5641453214659488 0.8256755151195251 -1.0663108129751108e-16 -8.53749440985832e-17 -1.0663108129751108e-16 -8.53749440985832e-17 0.5641447500063123 0.8256759055707791
12665429333.333334 0.5740089721063595 0.8188490092448134 -1.0763398244018016e-16 -8.40637920532035e-17 -1.0763398244018016e-16 -8.40637920532035e-17 0.5740084053990427 0.8188494065034542
12666046666.666666 0.5837900269940867 0.811904676906135 -1.0862077504945424e-16 -8.274087538258355e-17 -1.0862077504945424e-16 -8.274087538258355e-17 0.5837894651201676 0.8119050809143394
12666664000.0 0.5934870787060615 0.8048435173428168 -1.0959132132346327e-16 -8.140639183077342e-17 -1.0959132132346327e-16 -8.140639183077342e-17 0.5934865217459147 0.8048439280417957
12667281333.333334 0.60309873190646 0.7976665466049273 -1.1054548588583983e-16 -8.006054075342492e-17 -1.1054548588583983e-16 -8.006054075342492e-17 0.6030981799397453 0.7976669639349353
12667898666.666666 0.6126236035477604 0.7903747974068798 -1.1148313580456236e-16 -7.870352308802562e-17 -1.1148313580456236e-16 -7.870352308802562e-17 0.6126230566534113 0.7903752213072229
12668516000.0 0.6220603230697952 0.7829693189787917 -1.1240414061041076e-16 -7.733554132394456e-17 -1.1240414061041076e-16 -7.733554132394456e-17 0.6220597813260073 0.7829697493878357
12669133333.333334 0.631407532596716 0.7754511769156969 -1.1330837231502714e-16 -7.595679947230501e-17 -1.1330837231502714e-16 -7.595679947230501e-17 0.6314069960809366 0.7754516137708777
12669750666.666666 0.6406638871325415 0.7678214530240953 -1.141957054286467e-16 -7.456750303558887e-17 -1.141957054286467e-16 -7.456750303558887e-17 0.6406633559214592 0.7678218962619289
