! Parameters = {f0=12700.012000; bw=77.238000; Q=6100.000000; N=10; m_0_1=1.289785; m_1_1=0.582026; m_1_2=1.124597; m_2_2=0.581377; m_2_3=0.761560; m_2_8=0.001553; m_2_9=0.038257; m_3_3=0.579440; m_3_4=0.650089; m_3_7=0.002153; m_3_8=-0.094935; m_3_9=0.001553; m_4_4=0.576515; m_4_5=0.486424; m_4_6=0.005670; m_4_7=-0.115484; m_4_8=0.002153; m_5_5=0.576897; m_5_6=0.893779; m_5_7=0.005670; m_6_6=0.576896; m_6_7=0.486766; m_7_7=0.576529; m_7_8=0.650207; m_8_8=0.579438; m_8_9=0.761873; m_9_9=0.581372; m_9_10=1.125675; m_10_10=0.582016; m_10_11=1.290580}
!
! Created with skrf (http://scikit-rf.org).
# Hz S RI R 50.0 
!freq ReS11 ImS11 ReS21 ImS21 ReS12 ImS12 ReS22 ImS22
12607400000.0 0.18995414260023002 0.9817929637702792 -5.59229721120456e-17 -1.0764798403850222e-16 -5.59229721120456e-17 -1.0764798403850222e-16 0.189953475473169 0.9817930928436407
12608017333.333334 0.20084779637658667 0.9796224592619789 -5.711353882468104e-17 -1.0699415098670487e-16 -5.711353882468104e-17 -1.0699415098670487e-16 0.20084713075696758 0.979622595730882
12608634666.666666 0.2117166689904017 0.9773310862094923 -5.829647927626868e-17 -1.0632716064155036e-16 -5.829647927626868e-17 -1.0632716064155036e-16 0.2117160049601991 0.9773312300563768
12609252000.0 0.22255941940994975 0.9749191273288894 -5.947164817655145e-17 -1.0564710176003524e-16 -5.947164817655145e-17 -1.0564710176003524e-16 0.22255875705093392 0.9749192785352855
12609869333.333334 0.23337470982656328 0.9723868802144466 -6.063890126615482e-17 -1.0495406470223354e-16 -6.063890126615482e-17 -1.0495406470223354e-16 0.23337404922029018 0.972387038760978
12610486666.666666 0.24416120581955741 0.9697346573019636 -6.179809533424204e-17 -1.0424814141935696e-16 -6.179809533424204e-17 -1.0424814141935696e-16 0.2441605470473589 0.9697348231683506
12611104000.0 0.25491757652117825 0.9669627858301405 -6.294908823609665e-17 -1.0352942544158153e-16 -6.294908823609665e-17 -1.0352942544158153e-16 0.25491691966415203 0.9669629589952027
12611721333.333334 0.26564249478042296 0.9640716078002977 -6.409173891044544e-17 -1.0279801186575152e-16 -6.409173891044544e-17 -1.0279801186575152e-16 0.26564183991942225 0.9640717882419556
12612338666.666666 0.27633463732706237 0.9610614799341086 -6.522590739676696e-17 -1.0205399734281644e-16 -6.522590739676696e-17 -1.0205399734281644e-16 0.2763339845426865 0.961061667629388
12612956000.0 0.28699268493490976 0.9579327736295847 -6.635145485239783e-17 -1.0129748006511047e-16 -6.635145485239783e-17 -1.0129748006511047e-16 0.286992034307494 0.9579329685546188
12613573333.333334 0.29761532258434437 0.9546858749153224 -6.746824356944132e-17 -1.005285597534786e-16 -6.746824356944132e-17 -1.005285597534786e-16 0.2976146741939497 0.9546860770453537
12614190666.666666 0.30820123962483525 0.9513211844027929 -6.857613699163391e-17 -9.974733764414693e-17 -6.857613699163391e-17 -9.974733764414693e-17 0.30820059355123924 0.9513213937121786
12614808000.0 0.3187491299365166 0.9478391172369555 -6.967499973098849e-17 -9.895391647545501e-17 -6.967499973098849e-17 -9.895391647545501e-17 0.318748486259203 0.9478393336991692
12615425333.333334 0.3292576920913681 0.9442401030450269 -7.076469758429084e-17 -9.814840047440152e-17 -7.076469758429084e-17 -9.814840047440152e-17 0.32925705088951723 0.944240326632662
12616042666.666666 0.339725629513788 0.9405245858834727 -7.184509754946406e-17 -9.733089534299359e-17 -7.184509754946406e-17 -9.733089534299359e-17 0.33972499086626673 0.9405248165682458
12616660000.0 0.35015165064056886 0.9366930241832188 -7.29160678417619e-17 -9.650150824442633e-17 -7.29160678417619e-17 -9.650150824442633e-17 0.35015101462592135 0.9366932619359741
12617277333.333334 0.36053446908027964 0.9327458906930758 -7.397747790981087e-17 -9.566034778907779e-17 -7.397747790981087e-17 -9.566034778907779e-17 0.3605338357767182 0.93274613548379
12617894666.666666 0.37087280377185333 0.9286836724214667 -7.502919845146024e-17 -9.480752402035478e-17 -7.502919845146024e-17 -9.480752402035478e-17 0.3708721732572476 0.9286839242192494
12618512000.0 0.3811653791429384 0.9245068705762216 -7.607110142955192e-17 -9.394314840029769e-17 -7.607110142955192e-17 -9.394314840029769e-17 0.38116475149480594 0.9245071293493202
12619129333.333334 0.39141092526691146 0.9202160005028815 -7.710306008740517e-17 -9.306733379510972e-17 -7.710306008740517e-17 -9.306733379510972e-17 0.39141030056240916 0.9202162662186874
12619746666.666666 0.4016081780198297 0.9158115916210123 -7.812494896423916e-17 -9.218019446043225e-17 -7.812494896423916e-17 -9.218019446043225e-17 0.40160755633574374 0.9158118642460636
12620364000.0 0.41175587923639984 0.9112941873588776 -7.913664391038426e-17 -9.128184602648574e-17 -7.913664391038426e-17 -9.128184602648574e-17 0.4117552606491363 0.9112944668588631
12620981333.333334 0.42185277686498124 0.9066643450864951 -8.013802210230274e-17 -9.037240548306322e-17 -8.013802210230274e-17 -9.037240548306322e-17 0.4218521614505562 0.9066646314262577
12621598666.666666 0.43189762512232543 0.9019226360467476 -8.112896205748621e-17 -8.945199116431561e-17 -8.112896205748621e-17 -8.945199116431561e-17 0.4318970129563564 0.9019229291902912
12622216000.0 0.4418891846471564 0.8970696452849637 -8.210934364914117e-17 -8.852072273340936e-17 -8.210934364914117e-17 -8.852072273340936e-17 0.4418885758048527 0.8970699451954554
12622833333.333334 0.45182622265316164 0.892105971576692 -8.30790481207162e-17 -8.757872116700683e-17 -8.30790481207162e-17 -8.757872116700683e-17 0.4518256172093156 0.8921062782164686
12623450666.666666 0.4617075130808957 0.8870322273539295 -8.403795810023725e-17 -8.662610873960291e-17 -8.403795810023725e-17 -8.662610873960291e-17 0.461706911109872 0.8870325406845
12624068000.0 0.47153183674930677 0.8818490386294268 -8.498595761448621e-17 -8.566300900768354e-17 -8.498595761448621e-17 -8.566300900768354e-17 0.4715312383250353 0.8818493586114791
12624685333.333334 0.48129798150621195 0.8765570449194195 -8.592293210298791e-17 -8.468954679373883e-17 -8.592293210298791e-17 -8.468954679373883e-17 0.4812973867021775 0.876557371512825
12625302666.666666 0.4910047423773554 0.8711568991649933 -8.684876843178947e-17 -8.370584817015159e-17 -8.684876843178947e-17 -8.370584817015159e-17 0.4910041512665888 0.8711572323288114
12625920000.0 0.5006509217158297 0.865649267651113 -8.776335490711398e-17 -8.27120404428731e-17 -8.776335490711398e-17 -8.27120404428731e-17 0.5006503343708997 0.8656496073435976
12626537333.333334 0.5102353293491251 0.8600348299248165 -8.866658128876095e-17 -8.17082521350237e-17 -8.866658128876095e-17 -8.17082521350237e-17 0.5102347458421277 0.860035176103418
12627154666.666666 0.5197567827263971 0.8543142787111327 -8.955833880336562e-17 -8.069461297029658e-17 -8.955833880336562e-17 -8.069461297029658e-17 0.5197562031289488 0.8543146313325073
12627772000.0 0.5292141070643958 0.8484883198275932 -9.043852015746908e-17 -7.967125385621738e-17 -9.043852015746908e-17 -7.967125385621738e-17 0.5292135314476227 0.8484886788476051
12628389333.333334 0.5386061354920971 0.8425576720973385 -9.130701955035279e-17 -7.863830686731402e-17 -9.130701955035279e-17 -7.863830686731402e-17 0.5386055639266281 0.8425580374710678
12629006666.666666 0.5479317091950392 0.8365230672602051 -9.216373268674582e-17 -7.759590522807103e-17 -9.216373268674582e-17 -7.759590522807103e-17 0.5479311417509958 0.8365234389419517
12629624000.0 0.5571896775580327 0.830385249882604 -9.300855678928119e-17 -7.654418329581497e-17 -9.300855678928119e-17 -7.654418329581497e-17 0.5571891143050214 0.8303856278258943
12630241333.333334 0.5663788983072724 0.824144977265565 -9.38413906107938e-17 -7.548327654341929e-17 -9.38413906107938e-17 -7.548327654341929e-17 0.5663783393143762 0.8241453614231581
12630858666.666666 0.5754982376511331 0.817803019351395 -9.466213444639729e-17 -7.441332154190913e-17 -9.466213444639729e-17 -7.441332154190913e-17 0.5754976829869024 0.8178034096752874
12631476000.0 0.5845465704203154 0.8113601586284998 -9.547069014539712e-17 -7.333445594288819e-17 -9.547069014539712e-17 -7.333445594288819e-17 0.5845460201527599 0.8113605550699319
12632093333.333334 0.5935227802063718 0.8048171900350523 -9.62669611229556e-17 -7.224681846090329e-17 -9.62669611229556e-17 -7.224681846090329e-17 0.5935222344029512 0.8048175925445137
12632710666.666666 0.6024257594995888 0.7981749208608112 -9.705085237159489e-17 -7.11505488556304e-17 -9.705085237159489e-17 -7.11505488556304e-17 0.602425218227207 0.7981753293880494
12633328000.0 0.6112544098257519 0.7914341706474329 -9.782227047249551e-17 -7.004578791393927e-17 -9.782227047249551e-17 -7.004578791393927e-17 0.6112538731507465 0.7914345851414571
12633945333.333334 0.6200076418814706 0.7845957710875046 -9.858112360656364e-17 -6.893267743187517e-17 -9.858112360656364e-17 -6.893267743187517e-17 0.6200071098696055 0.7845961914965924
12634562666.666666 0.6286843756686947 0.7776605659218434 -9.932732156532129e-17 -6.781136019648247e-17 -9.932732156532129e-17 -6.781136019648247e-17 0.6286838483851519 0.7776609921935482
12635180000.0 0.6372835406279433 0.7706294108354093 -1.000607757615788e-16 -6.668197996752777e-17 -1.000607757615788e-16 -6.668197996752777e-17 0.6372830181373158 0.7706298429165667
12635797333.333334 0.6458040757704178 0.7635031733517125 -1.007813992399037e-16 -6.554468145910272e-17 -1.007813992399037e-16 -6.554468145910272e-17 0.6458035581366999 0.7635036111884453
12636414666.666666 0.6542449298088187 0.7562827327258455 -1.0148910668687192e-16 -6.439961032112877e-17 -1.0148910668687192e-16 -6.439961032112877e-17 0.6542444170954004 0.7562831762635733
12637032000.0 0.6626050612871912 0.7489689798358923 -1.0218381444112762e-16 -6.324691312072322e-17 -1.0218381444112762e-16 -6.324691312072322e-17 0.6626045535568481 0.7489694290193353
12637649333.333334 0.6708834387093322 0.7415628170730791 -1.028654405032136e-16 -6.208673732348616e-17 -1.028654405032136e-16 -6.208673732348616e-17 0.6708829360242201 0.7415632718462672
12638266666.666666 0.6790790406660844 0.7340651582304197 -1.0353390454519902e-16 -6.091923127466818e-17 -1.0353390454519902e-16 -6.091923127466818e-17 0.6790785430877297 0.7340656185366983
12638884000.0 0.6871908559613558 0.726476928389965 -1.0418912792009204e-16 -5.974454418023762e-17 -1.0418912792009204e-16 -5.974454418023762e-17 0.6871903635506503 0.7264773941720034
12639501333.333334 0.6952178837369106 0.7187990638086496 -1.0483103367103992e-16 -5.856282608784499e-17 -1.0483103367103992e-16 -5.856282608784499e-17 0.695217396554101 0.7187995350084455
12640118666.666666 0.7031591335957293 0.7110325118028866 -1.0545954654030195e-16 -5.737422786770956e-17 -1.0545954654030195e-16 -5.737422786770956e-17 0.703158651700412 0.7110329883617759
12640736000.0 0.7110136257245367 0.7031782306313724 -1.0607459297804227e-16 -5.617890119334516e-17 -1.0607459297804227e-16 -5.617890119334516e-17 0.7110131491756502 0.7031787124900356
12641353333.333334 0.7187803910142044 0.6952371893773287 -1.0667610115084035e-16 -5.4976998522312494e-17 -1.0667610115084035e-16 -5.4976998522312494e-17 0.7187799198700209 0.6952376764757974
12641970666.666666 0.726458471179747 0.6872103678285155 -1.0726400095005539e-16 -5.3768673076745534e-17 -1.0726400095005539e-16 -5.3768673076745534e-17 0.7264580054978678 0.6872108601061823
12642588000.0 0.7340469188783598 0.679098756356545 -1.078382239999219e-16 -5.255407882388319e-17 -1.078382239999219e-16 -5.255407882388319e-17 0.734046458715705 0.6790992537521678
12643205333.333334 0.7415447978263204 0.670903355794664 -1.0839870366544273e-16 -5.1333370456482e-17 -1.0839870366544273e-16 -5.1333370456482e-17 0.7415443432391251 0.6709038582463762
12643822666.666666 0.7489511829145896 0.6626251773141856 -1.0894537506006463e-16 -5.0106703373136183e-17 -1.0894537506006463e-16 -5.0106703373136183e-17 0.7489507339583951 0.6626256847595033
12644440000.0 0.7562651603228578 0.6542652422998343 -1.0947817505311879e-16 -4.887423365854468e-17 -1.0947817505311879e-16 -4.887423365854468e-17 0.7562647170525045 0.6542657546756623
12645057333.333334 0.7634858276323147 0.6458245822237023 -1.099970422770483e-16 -4.7636118063681865e-17 -1.099970422770483e-16 -4.7636118063681865e-17 0.7634853901019363 0.6458250994663437
12645674666.666666 0.7706122939369907 0.6373042385179855 -1.1050191713440878e-16 -4.6392513985894985e-17 -1.1050191713440878e-16 -4.6392513985894985e-17 0.7706118622000087 0.6373047605631497
12646292000.0 0.7776436799538102 0.6287052624463352 -1.1099274180465461e-16 -4.514357944890674e-17 -1.1099274180465461e-16 -4.514357944890674e-17 0.7776432540629257 0.6287057892291459
12646909333.333334 0.7845791181308419 0.6200287149744355 -1.1146946025067338e-16 -4.388947308280991e-17 -1.1146946025067338e-16 -4.388947308280991e-17 0.7845786981380287 0.6200292464294368
12647526666.666666 0.7914177527545203 0.6112756666388778 -1.1193201822512512e-16 -4.263035410392183e-17 -1.1193201822512512e-16 -4.263035410392183e-17 0.7914173387110196 0.6112762027000441
12648144000.0 0.7981587400552074 0.602447197415096 -1.1238036327653833e-16 -4.136638229460702e-17 -1.1238036327653833e-16 -4.136638229460702e-17 0.7981583320115223 0.6024477380158407
12648761333.333334 0.8048012483112279 0.5935443965842063 -1.1281444475517785e-16 -4.009771798304739e-17 -1.1281444475517785e-16 -4.009771798304739e-17 0.8048008463171158 0.5935449416573887
12649378666.666666 0.8113444579514921 0.5845683625986092 -1.132342138186878e-16 -3.882452202293864e-17 -1.132342138186878e-16 -3.882452202293864e-17 0.8113440620559598 0.5845689120765436
12649996000.0 0.8177875616567032 0.5755202029463466 -1.136396234375124e-16 -3.754695577311298e-17 -1.136396234375124e-16 -3.754695577311298e-17 0.8177871719079992 0.5755207567608099
12650613333.333334 0.8241297644589267 0.5664010340144994 -1.1403062840007778e-16 -3.626518107713193e-17 -1.1403062840007778e-16 -3.626518107713193e-17 0.8241293809045374 0.5664015920967408
12651230666.666666 0.830370283839535 0.5572119809516566 -1.1440718531774399e-16 -3.4979360242829865e-17 -1.1440718531774399e-16 -3.4979360242829865e-17 0.8303699065261777 0.5572125432324054
12651848000.0 0.8365083498260781 0.5479541775286244 -1.1476925262954016e-16 -3.368965602176192e-17 -1.1476925262954016e-16 -3.368965602176192e-17 0.8365079787996956 0.5479547439380985
12652465333.333334 0.8425432050869925 0.538628765998956 -1.1511679060665033e-16 -3.2396231588665944e-17 -1.1511679060665033e-16 -3.2396231588665944e-17 0.8425428403927467 0.5386293364668705
12653082666.666666 0.8484741050250503 0.5292368969580242 -1.154497613566772e-16 -3.1099250520850505e-17 -1.154497613566772e-16 -3.1099250520850505e-17 0.8484737467073195 0.5292374714136013
12653700000.0 0.8543003178695379 0.5197797292005789 -1.1576812882768214e-16 -2.979887677750725e-17 -1.1576812882768214e-16 -2.979887677750725e-17 0.8542999659719062 0.5197803075725541
12654317333.333334 0.8600211247661099 0.5102584295784391 -1.1607185881197283e-16 -2.849527467906271e-17 -1.1607185881197283e-16 -2.849527467906271e-17 0.8600207793313684 0.5102590117950734
12654934666.666666 0.8656358198657966 0.5006741728560492 -1.1636091894967762e-16 -2.7188608886416963e-17 -1.1636091894967762e-16 -2.7188608886416963e-17 0.8656354809359332 0.5006747588451353
12655552000.0 0.8711437104120803 0.4910281415655247 -1.166352787320829e-16 -2.5879044380160932e-17 -1.166352787320829e-16 -2.5879044380160932e-17 0.871143378028276 0.4910287312543971
12656169333.333334 0.876544116826115 0.48132152586119253 -1.1689490950471986e-16 -2.45667464398412e-17 -1.1689490950471986e-16 -2.45667464398412e-17 0.8765437910287392 0.4813221191767361
12656786666.666666 0.8818363727908598 0.4715555233722546 -1.171397844702462e-16 -2.325188062306628e-17 -1.171397844702462e-16 -2.325188062306628e-17 0.8818360536194666 0.4715561202409146
12657404000.0 0.8870198253331492 0.46173133905526675 -1.1736987869107253e-16 -2.193461274468562e-17 -1.1736987869107253e-16 -2.193461274468562e-17 0.8870195128264713 0.46173193940305723
12658021333.333334 0.8920938349043013 0.45185018504539487 -1.1758516909176315e-16 -2.0615108855901306e-17 -1.1758516909176315e-16 -2.0615108855901306e-17 0.8920935291002442 0.45185078879790724
12658638666.666666 0.8970577754589597 0.44191328050698275 -1.1778563446119877e-16 -1.9293535223388562e-17 -1.1778563446119877e-16 -1.9293535223388562e-17 0.897057476394599 0.4419138875893961
12659256000.0 0.9019110345324666 0.43192185148287543 -1.179712554545139e-16 -1.7970058308330126e-17 -1.179712554545139e-16 -1.7970058308330126e-17 0.901910742244043 0.4319224618199652
12659873333.333334 0.9066530133163158 0.4218771307433758 -1.1814201459478566e-16 -1.6644844745528436e-17 -1.1814201459478566e-16 -1.6644844745528436e-17 0.9066527278392296 0.421877744259523
12660490666.666666 0.9112831267320372 0.4117803576341422 -1.1829789627449571e-16 -1.5318061322460738e-17 -1.1829789627449571e-16 -1.5318061322460738e-17 0.9112828481008446 0.41178097425334287
12661108000.0 0.9158008035035026 0.40163277792301627 -1.1843888675676505e-16 -1.3989874958252437e-17 -1.1843888675676505e-16 -1.3989874958252437e-17 0.9158005317519139 0.4016333975688917
12661725333.333334 0.9202054862272498 0.39143564364667965 -1.1856497417633415e-16 -1.2660452682803663e-17 -1.1856497417633415e-16 -1.2660452682803663e-17 0.9202052213881218 0.3914362662424849
12662342666.666666 0.9244966314413823 0.38119021295588845 -1.1867614854032865e-16 -1.1329961615745267e-17 -1.1867614854032865e-16 -1.1329961615745267e-17 0.9244963735467163 0.38119083842452206
12662960000.0 0.9286737096925674 0.37089774996036945 -1.187724017287786e-16 -9.99856894548258e-18 -1.187724017287786e-16 -9.99856894548258e-18 0.9286734587735037 0.3708983782243827
12663577333.333334 0.932736205601369 0.3605595245728235 -1.1885372749490412e-16 -8.666441908232033e-18 -1.1885372749490412e-16 -8.666441908232033e-18 0.9327359616881855 0.3605601555544309
12664194666.666666 0.9366836179258409 0.35017681235224135 -1.1892012146516972e-16 -7.333747767033058e-18 -1.1892012146516972e-16 -7.333747767033058e-18 0.9366833810479479 0.35017744597332945
12664812000.0 0.9405154596233697 0.33975089434652145 -1.1897158113910112e-16 -6.000653790781583e-18 -1.1897158113910112e-16 -6.000653790781583e-18 0.9405152298093069 0.33975153052865903
12665429333.333334 0.9442312579107769 0.32928305693438353 -1.1900810588886865e-16 -4.667327233260879e-18 -1.1900810588886865e-16 -4.667327233260879e-18 0.9442310351882088 0.32928369559883064
12666046666.666666 0.9478305543226031 0.31877459166678546 -1.190296969586348e-16 -3.3339353122230515e-18 -1.190296969586348e-16 -3.3339353122230515e-18 0.9478303387183187 0.31877523273450414
12666664000.0 0.9513129047677837 0.30822679510727413 -1.1903635746367051e-16 -2.000645188378339e-18 -1.1903635746367051e-16 -2.000645188378339e-18 0.9513126963076883 0.30822743849893686
12667281333.333334 0.9546778795843042 0.2976409686723864 -1.190280923892335e-16 -6.676239445519801e-19 -1.190280923892335e-16 -6.676239445519801e-19 0.9546776782934212 0.2976416143083873
12667898666.666666 0.9579250635923127 0.28701841847080917 -1.1900490858921567e-16 6.649614352729804e-19 -1.1900490858921567e-16 6.649614352729804e-19 0.9579248694947773 0.2870190662712728
12668516000.0 0.9610540561453352 0.2763604551422255 -1.1896681478455503e-16 1.9969440868381892e-18 -1.1896681478455503e-16 1.9969440868381892e-18 0.9610538692643953 0.27636110502701805
12669133333.333334 0.9640644711796438 0.2656683936958516 -1.189138215614164e-16 3.3281572864423064e-18 -1.189138215614164e-16 3.3281572864423064e-18 0.9640642915376512 0.2656690455845885
12669750666.666666 0.9669559372619626 0.254943553347912 -1.188459413691367e-16 4.658434471811837e-18 -1.188459413691367e-16 4.658434471811837e-18 0.9669557648803763 0.2549442071599705
12670368000.0 0.9697280976352691 0.24418725735898225 -1.187631885179391e-16 5.987609262896259e-18 -1.187631885179391e-16 5.987609262896259e-18 0.9697279325346497 0.2441879130135097
