! Parameters = {f0=12700.012000; bw=77.238000; Q=6100.000000; N=10; m_0_1=1.171466; m_1_1=-1.192749; m_1_2=1.006278; m_2_2=-1.193398; m_2_3=0.643241; m_2_8=-0.004363; m_2_9=0.032341; m_3_3=-1.195335; m_3_4=0.531770; m_3_7=-0.003763; m_3_8=-0.100851; m_3_9=-0.004363; m_4_4=-1.198260; m_4_5=0.368105; m_4_6=-0.000246; m_4_7=-0.121400; m_4_8=-0.003763; m_5_5=-1.197878; m_5_6=0.775460; m_5_7=-0.000246; m_6_6=-1.197879; m_6_7=0.368447; m_7_7=-1.198246; m_7_8=0.531888; m_8_8=-1.195337; m_8_9=0.643554; m_9_9=-1.193403; m_9_10=1.007356; m_10_10=-1.192759; m_10_11=1.172261}
!
! Created with skrf (http://scikit-rf.org).
# Hz S RI R 50.0 
!freq ReS11 ImS11 ReS21 ImS21 ReS12 ImS12 ReS22 ImS22
12607400000.0 -0.8233491495530316 -0.5675351777028005 6.447906231549752e-17 2.1046135978646948e-17 6.447906231549752e-17 2.1046135978646948e-17 -0.8233487991762317 -0.5675356860100578
12608017333.333334 -0.8276442303382198 -0.5612530872856782 6.462651675954051e-17 2.0545085485453328e-17 6.462651675954051e-17 2.0545085485453328e-17 -0.8276438838567343 -0.5612535982195482
12608634666.666666 -0.8318913802758866 -0.5549384933688875 6.477008191659019e-17 2.0043013198606575e-17 6.477008191659019e-17 2.0043013198606575e-17 -0.8318910377093983 -0.5549390068995246
12609252000.0 -0.8360903534035159 -0.5485917616456102 6.49097508014482e-17 1.9539949275248377e-17 6.49097508014482e-17 1.9539949275248377e-17 -0.8360900147714795 -0.5485922777430222
12609869333.333334 -0.8402409065486428 -0.5422132596701827 6.50455166625031e-17 1.903592391945771e-17 6.50455166625031e-17 1.903592391945771e-17 -0.8402405718702829 -0.5422137783042312
12610486666.666666 -0.8443427993428566 -0.5358033568369265 6.517737298203606e-17 1.8530967380452648e-17 6.517737298203606e-17 1.8530967380452648e-17 -0.844342468637167 -0.5358038779773291
12611104000.0 -0.8483957942358907 -0.529362424358493 6.530531347652086e-17 1.8025109950760627e-17 6.530531347652086e-17 1.8025109950760627e-17 -0.848395467521634 -0.5293629479748256
12611721333.333334 -0.8523996565091679 -0.5228908352447031 6.54293320968973e-17 1.751838196443328e-17 6.54293320968973e-17 1.751838196443328e-17 -0.8523993338048721 -0.5228913613064001
12612338666.666666 -0.8563541542895554 -0.5163889642806774 6.554942302884272e-17 1.7010813795214927e-17 6.554942302884272e-17 1.7010813795214927e-17 -0.8563538356135162 -0.5163894927570359
12612956000.0 -0.860259058562724 -0.5098571880052557 6.566558069302425e-17 1.6502435854727946e-17 6.566558069302425e-17 1.6502435854727946e-17 -0.8602587439330008 -0.5098577188654353
12613573333.333334 -0.8641141431864345 -0.5032958846891394 6.57777997453331e-17 1.5993278590673486e-17 6.57777997453331e-17 1.5993278590673486e-17 -0.8641138326208526 -0.5032964179021655
12614190666.666666 -0.8679191849035824 -0.4967054343130856 6.588607507711356e-17 1.548337248499525e-17 6.588607507711356e-17 1.548337248499525e-17 -0.8679188784197275 -0.4967059698478489
12614808000.0 -0.8716739633552079 -0.49008621854575113 6.599040181537118e-17 1.497274805207001e-17 6.599040181537118e-17 1.497274805207001e-17 -0.8716736609704289 -0.4900867563710121
12615425333.333334 -0.8753782610932036 -0.4834386207216903 6.609077532296947e-17 1.4461435836885644e-17 6.609077532296947e-17 1.4461435836885644e-17 -0.8753779628246096 -0.48343916080607907
12616042666.666666 -0.8790318635929188 -0.47676302581912794 6.618719119881224e-17 1.3949466413220003e-17 6.618719119881224e-17 1.3949466413220003e-17 -0.8790315694573809 -0.4767635681311482
12616660000.0 -0.8826345592655876 -0.47005982043766714 6.627964527801187e-17 1.3436870381818761e-17 6.627964527801187e-17 1.3436870381818761e-17 -0.8826342692797335 -0.47006036494569525
12617277333.333334 -0.8861861394705915 -0.4633293927758732 6.63681336320438e-17 1.2923678368570472e-17 6.63681336320438e-17 1.2923678368570472e-17 -0.8861858536508086 -0.46332993944816214
12617894666.666666 -0.8896863985274776 -0.45657213260891805 6.645265256888517e-17 1.240992102269228e-17 6.645265256888517e-17 1.240992102269228e-17 -0.8896861168899098 -0.4565726814135987
12618512000.0 -0.8931351337280162 -0.4497884312657319 6.653319863314427e-17 1.1895629014884526e-17 6.653319863314427e-17 1.1895629014884526e-17 -0.8931348562885635 -0.44978898217081426
12619129333.333334 -0.8965321453477545 -0.4429786816066918 6.660976860616823e-17 1.1380833035532318e-17 6.660976860616823e-17 1.1380833035532318e-17 -0.8965318721220719 -0.4429792345800674
12619746666.666666 -0.899877236657715 -0.4361432780006183 6.668235950614429e-17 1.0865563792861083e-17 6.668235950614429e-17 1.0865563792861083e-17 -0.8998769676612135 -0.4361438330100628
12620364000.0 -0.9031702139357862 -0.42928261630193604 6.675096858818309e-17 1.0349852011110655e-17 6.675096858818309e-17 1.0349852011110655e-17 -0.9031699491836291 -0.4292831733151097
12620981333.333334 -0.906410886477831 -0.422397093827979 6.681559334438678e-17 9.83372842872644e-18 6.681559334438678e-17 9.83372842872644e-18 -0.9064106259849343 -0.4223976528124293
12621598666.666666 -0.9095990666088517 -0.4154871093357243 6.68762315039068e-17 9.31722379651411e-18 6.68762315039068e-17 9.31722379651411e-18 -0.9095988103898838 -0.4154876702588877
12622216000.0 -0.9127345696938002 -0.4085530629988278 6.693288103298477e-17 8.800368875822972e-18 6.693288103298477e-17 8.800368875822972e-18 -0.9127343177631806 -0.408553625828032
12622833333.333334 -0.9158172141482923 -0.4015953563843974 6.698554013498034e-17 8.283194436716019e-18 6.698554013498034e-17 8.283194436716019e-18 -0.9158169665201908 -0.40159592108686276
12623450666.666666 -0.9188468214490803 -0.39461439242984203 6.703420725038423e-17 7.765731256151666e-18 6.703420725038423e-17 7.765731256151666e-18 -0.9188465781374153 -0.39461495897268334
12624068000.0 -0.9218232161444456 -0.3876105754194052 6.707888105681871e-17 7.248010116148595e-18 6.707888105681871e-17 7.248010116148595e-18 -0.9218229771628856 -0.38761114376963446
12624685333.333334 -0.9247462258643722 -0.38058431096072615 6.711956046902319e-17 6.730061801958629e-18 6.711956046902319e-17 6.730061801958629e-18 -0.9247459912263329 -0.3805848810852537
12625302666.666666 -0.9276156813304188 -0.3735360059616128 6.71562446388241e-17 6.211917100261194e-18 6.71562446388241e-17 6.211917100261194e-18 -0.9276154510490632 -0.37353657782724936
12625920000.0 -0.9304314163656849 -0.36646606860608166 6.718893295509476e-17 5.6936067973105936e-18 6.718893295509476e-17 5.6936067973105936e-18 -0.9304311904539221 -0.3664666421795404
12626537333.333334 -0.9331932679042817 -0.35937490833108743 6.721762504369674e-17 5.1751616771394785e-18 6.721762504369674e-17 5.1751616771394785e-18 -0.9331930463747677 -0.35937548357898635
12627154666.666666 -0.9359010760008478 -0.352262935802656 6.724232076741028e-17 4.6566125197249165e-18 6.724232076741028e-17 4.6566125197249165e-18 -0.9359008588659816 -0.35226351269151857
12627772000.0 -0.9385546838398617 -0.34513056289193844 6.726302022585022e-17 4.137990099155403e-18 6.726302022585022e-17 4.137990099155403e-18 -0.9385544711117891 -0.3451311413881972
12628389333.333334 -0.9411539377445931 -0.33797820265173467 6.727972375536604e-17 3.619325181837207e-18 6.727972375536604e-17 3.619325181837207e-18 -0.9411537294352004 -0.33797878272173143
12629006666.666666 -0.9436986871861416 -0.3308062692921693 6.729243192893092e-17 3.100648524646395e-18 6.729243192893092e-17 3.100648524646395e-18 -0.9436984833070605 -0.3308068509021589
12629624000.0 -0.9461887847920533 -0.32361517815699997 6.7301145556014e-17 2.581990873131873e-18 6.7301145556014e-17 2.581990873131873e-18 -0.9461885853546579 -0.32361576127315117
12630241333.333334 -0.9486240863549122 -0.3164053456994026 6.730586568244058e-17 2.063382959687288e-18 6.730586568244058e-17 2.063382959687288e-18 -0.9486238913703163 -0.3164059302877998
12630858666.666666 -0.9510044508406413 -0.30917718945798706 6.730659359023746e-17 1.5448555017473842e-18 6.730659359023746e-17 1.5448555017473842e-18 -0.951004260319702 -0.3091777754846334
12631476000.0 -0.953329740396731 -0.30193112803245664 6.730333079746504e-17 1.0264391999534137e-18 6.730333079746504e-17 1.0264391999534137e-18 -0.9533295543500443 -0.30193171546327474
12632093333.333334 -0.9555998203601892 -0.2946675810594449 6.729607905803452e-17 5.081647363661834e-19 6.729607905803452e-17 5.081647363661834e-19 -0.9555996387980915 -0.29466816986027966
12632710666.666666 -0.9578145592653101 -0.2873869691883233 6.72848403615123e-17 -9.937227355449991e-21 6.72848403615123e-17 -9.937227355449991e-21 -0.9578143821978775 -0.28738755932494364
12633328000.0 -0.9599738288513779 -0.28008971405654115 6.726961693290968e-17 -5.278360517722496e-19 6.726961693290968e-17 -5.278360517722496e-19 -0.9599736562884255 -0.2800903054946422
12633945333.333334 -0.9620775040699813 -0.272776238265589 6.725041123245907e-17 -1.0455011214534657e-18 6.725041123245907e-17 -1.0455011214534657e-18 -0.9620773360210608 -0.27277683097079325
12634562666.666666 -0.9641254630923413 -0.26544696535622386 6.722722595537637e-17 -1.5629018467903562e-18 6.722722595537637e-17 -1.5629018467903562e-18 -0.9641252995667438 -0.2654475592940845
12635180000.0 -0.9661175873163306 -0.25810231978407894 6.720006403160958e-17 -2.0800076657960022e-18 6.720006403160958e-17 -2.0800076657960022e-18 -0.9661174283230832 -0.25810291492008053
12635797333.333334 -0.968053761373353 -0.25074272689502597 6.716892862557297e-17 -2.5967880459065848e-18 6.716892862557297e-17 -2.5967880459065848e-18 -0.9680536069212202 -0.2507433231945874
12636414666.666666 -0.9699338731349999 -0.24336861290065392 6.713382313586892e-17 -3.1132124857707067e-18 6.713382313586892e-17 -3.1132124857707067e-18 -0.9699337232324823 -0.2433692103291302
12637032000.0 -0.971757813719584 -0.23598040485341998 6.709475119499411e-17 -3.629250517055214e-18 6.709475119499411e-17 -3.629250517055214e-18 -0.9717576683749181 -0.23598100337610398
12637649333.333334 -0.9735254774984188 -0.22857853062202865 6.70517166690335e-17 -4.144871706229302e-18 6.70517166690335e-17 -4.144871706229302e-18 -0.9735253367195753 -0.22857913020415313
12638266666.666666 -0.97523676210194 -0.22116341886662474 6.700472365733974e-17 -4.6600456563553814e-18 6.700472365733974e-17 -4.6600456563553814e-18 -0.9752366258966257 -0.22116401947336473
12638884000.0 -0.9768915684256364 -0.21373549901396913 6.695377649219963e-17 -5.174742008875204e-18 6.695377649219963e-17 -5.174742008875204e-18 -0.9768914368012918 -0.21373610061044362
12639501333.333334 -0.9784898006357937 -0.20629520123254144 6.689887973848577e-17 -5.688930445394866e-18 6.689887973848577e-17 -5.688930445394866e-18 -0.9784896735995939 -0.20629580378381565
12640118666.666666 -0.9800313661750105 -0.19884295640779528 6.684003819329683e-17 -6.202580689453496e-18 6.684003819329683e-17 -6.202580689453496e-18 -0.9800312437338637 -0.1988435598788824
12640736000.0 -0.9815161757676506 -0.19137919611675905 6.677725688557917e-17 -6.715662508330484e-18 6.677725688557917e-17 -6.715662508330484e-18 -0.9815160579281981 -0.19137980047262237
12641353333.333334 -0.9829441434248751 -0.18390435260371055 6.671054107574361e-17 -7.228145714773561e-18 6.671054107574361e-17 -7.228145714773561e-18 -0.982944030193491 -0.18390495780926566
12641970666.666666 -0.9843151864497414 -0.17641885875455965 6.663989625525883e-17 -7.740000168808834e-18 6.663989625525883e-17 -7.740000168808834e-18 -0.9843150778325338 -0.17641946477467652
12642588000.0 -0.985629225441939 -0.16892314807205816 6.656532814623797e-17 -8.25119577948853e-18 6.656532814623797e-17 -8.25119577948853e-18 -0.9856291214447466 -0.16892375487156278
12643205333.333334 -0.9868861843023895 -0.16141765465066593 6.648684270100937e-17 -8.761702506656035e-18 6.648684270100937e-17 -8.761702506656035e-18 -0.9868860849307834 -0.16141826219434272
12643822666.666666 -0.988085990237675 -0.15390281315129978 6.640444610167318e-17 -9.271490362712877e-18 6.640444610167318e-17 -9.271490362712877e-18 -0.9880858954969586 -0.15390342140389351
12644440000.0 -0.989228573764231 -0.14637905877630164 6.631814475964659e-17 -9.780529414364912e-18 6.631814475964659e-17 -9.780529414364912e-18 -0.989228483659438 -0.14637966770251942
12645057333.333334 -0.9903138687123735 -0.13884682724420647 6.622794531519427e-17 -1.0288789784375941e-17 6.622794531519427e-17 -1.0288789784375941e-17 -0.9903137832482689 -0.1388474368087198
12645674666.666666 -0.9913418122301337 -0.1313065547645093 6.613385463694596e-17 -1.0796241653315475e-17 6.613385463694596e-17 -1.0796241653315475e-17 -0.9913417314112135 -0.13130716493195627
12646292000.0 -0.9923123447869238 -0.12375867801220597 6.603587982139776e-17 -1.1302855261315448e-17 6.603587982139776e-17 -1.1302855261315448e-17 -0.9923122686174145 -0.12375928874719318
12646909333.333334 -0.9932254101769329 -0.11620363410287023 6.593402819240744e-17 -1.180860090978528e-17 6.593402819240744e-17 -1.180860090978528e-17 -0.9932253386607921 -0.11620424536997494
12647526666.666666 -0.9940809555224255 -0.10864186056705814 6.582830730066832e-17 -1.231344896316571e-17 6.582830730066832e-17 -1.231344896316571e-17 -0.9940808886633401 -0.10864247233083017
12648144000.0 -0.9948789312767926 -0.10107379532499709 6.571872492317366e-17 -1.2817369850657599e-17 6.571872492317366e-17 -1.2817369850657599e-17 -0.9948788690781787 -0.10107440754996087
12648761333.333334 -0.9956192912274079 -0.09349987666133769 6.560528906266908e-17 -1.3320334067940627e-17 6.560528906266908e-17 -1.3320334067940627e-17 -0.9956192336924133 -0.09350048931199464
12649378666.666666 -0.9963019924983119 -0.08592054319977248 6.548800794709094e-17 -1.3822312178894959e-17 6.548800794709094e-17 -1.3822312178894959e-17 -0.9963019396298135 -0.08592115624060272
12649996000.0 -0.9969269955527045 -0.07833623387749228 6.536689002898843e-17 -1.432327481732733e-17 6.536689002898843e-17 -1.432327481732733e-17 -0.9969269473533072 -0.07833684727295676
12650613333.333334 -0.9974942641952232 -0.070747387919851 6.52419439849371e-17 -1.482319268867567e-17 6.52419439849371e-17 -1.482319268867567e-17 -0.9974942206672632 -0.07074800163439361
12651230666.666666 -0.9980037655740359 -0.06315444481504265 6.51131787149373e-17 -1.5322036571718183e-17 6.51131787149373e-17 -1.5322036571718183e-17 -0.9980037267195777 -0.06315505881309239
12651848000.0 -0.9984554701827622 -0.055557844288366194 6.498060334179927e-17 -1.581977732027535e-17 6.498060334179927e-17 -1.581977732027535e-17 -0.9984554360035999 -0.055558458534339016
12652465333.333334 -0.9988493518621635 -0.047958026277014905 6.484422721051579e-17 -1.6316385864908924e-17 6.484422721051579e-17 -1.6316385864908924e-17 -0.99884932235982 -0.0479586407353159
12653082666.666666 -0.9991853878016621 -0.040355430904570416 6.470405988762417e-17 -1.6811833214604478e-17 6.470405988762417e-17 -1.6811833214604478e-17 -0.9991853629773891 -0.04035604553959584
12653700000.0 -0.9994635585406682 -0.03275049845537214 6.45601111605477e-17 -1.730609045847815e-17 6.45601111605477e-17 -1.730609045847815e-17 -0.9994635383954471 -0.03275111323151152
12654317333.333334 -0.9996838479697024 -0.025143669349132956 6.441239103693676e-17 -1.779912876743208e-17 6.441239103693676e-17 -1.779912876743208e-17 -0.9996838325042438 -0.02514428423077113
12654934666.666666 -0.9998462433313311 -0.017535384115405055 6.426090974398512e-17 -1.8290919395848356e-17 6.426090974398512e-17 -1.8290919395848356e-17 -0.9998462325460726 -0.01753599906692418
12655552000.0 -0.9999507352209015 -0.009926083368039337 6.410567772773815e-17 -1.8781433683258966e-17 6.410567772773815e-17 -1.8781433683258966e-17 -0.9999507291160118 -0.009926698353821034
12656169333.333334 -0.9999973175870888 -0.0023162077797821584 6.394670565239386e-17 -1.927064305599378e-17 6.394670565239386e-17 -1.927064305599378e-17 -0.9999973161624633 -0.00231682276420953
12656786666.666666 -0.9999859877322459 0.005293801943415601 6.378400439958038e-17 -1.975851902885723e-17 6.378400439958038e-17 -1.975851902885723e-17 -0.9999859909875122 0.005293186995955888
12657404000.0 -0.999916746312562 0.012903505087807184 6.361758506762966e-17 -2.024503320677196e-17 6.361758506762966e-17 -2.024503320677196e-17 -0.9999167542470744 0.012902890212922857
12658021333.333334 -0.9997895973380203 0.020512460957429587 6.344745897083397e-17 -2.0730157286428965e-17 6.344745897083397e-17 -2.0730157286428965e-17 -0.9997896099508631 0.0205118461907207
12658638666.666666 -0.9996045481721717 0.028120228899483235 6.327363763869494e-17 -2.1213863057919362e-17 6.327363763869494e-17 -2.1213863057919362e-17 -0.999604565462158 0.028119614276540097
12659256000.0 -0.9993616095316992 0.03572636833013533 6.309613281515026e-17 -2.1696122406386645e-17 6.309613281515026e-17 -2.1696122406386645e-17 -0.9993616314973722 0.03572575388653648
12659873333.333334 -0.9990607954858083 0.043330438759779544 6.291495645780008e-17 -2.2176907313638735e-17 6.291495645780008e-17 -2.2176907313638735e-17 -0.999060822125438 0.04332982453108958
12660490666.666666 -0.9987021234554052 0.05093199981854557 6.27301207371155e-17 -2.2656189859769827e-17 6.27301207371155e-17 -2.2656189859769827e-17 -0.9987021547669934 0.050931385840313245
12661108000.0 -0.9982856142120833 0.058530611282086184 6.254163803562806e-17 -2.313394222479351e-17 6.254163803562806e-17 -2.313394222479351e-17 -0.9982856501933624 0.05852999758984233
12661725333.333334 -0.9978112918769372 0.0661258330966742 6.234952094712294e-17 -2.3610136690226703e-17 6.234952094712294e-17 -2.3610136690226703e-17 -0.997811332525367 0.06612521972592952
12662342666.666666 -0.9972791839191466 0.07371722540499909 6.215378227580311e-17 -2.4084745640711315e-17 6.215378227580311e-17 -2.4084745640711315e-17 -0.997279229231919 0.07371661239124232
12662960000.0 -0.9966893211543981 0.08130434857149856 6.195443503545234e-17 -2.4557741565600823e-17 6.195443503545234e-17 -2.4557741565600823e-17 -0.9966893711284334 0.08130373595019416
12663577333.333334 -0.9960417377430943 0.08888676320784687 6.175149244858199e-17 -2.5029097060550672e-17 6.175149244858199e-17 -2.5029097060550672e-17 -0.9960417923750439 0.08888615101443322
12664194666.666666 -0.9953364711883784 0.09646403019840125 6.154496794556629e-17 -2.5498784829099915e-17 6.154496794556629e-17 -2.5498784829099915e-17 -0.9953365304746241 0.09646341846828843
12664812000.0 -0.9945735623339598 0.10403571072563171 6.133487516376581e-17 -2.5966777684245935e-17 6.133487516376581e-17 -2.5966777684245935e-17 -0.9945736262706161 0.1040350994941997
12665429333.333334 -0.9937530553617501 0.11160136629556278 6.112122794663836e-17 -2.6433048550013793e-17 6.112122794663836e-17 -2.6433048550013793e-17 -0.9937531239446601 0.11160075559815903
12666046666.666666 -0.9928749977893159 0.11916055876302611 6.090404034284239e-17 -2.689757046300796e-17 6.090404034284239e-17 -2.689757046300796e-17 -0.9928750710140545 0.11915994863496371
12666664000.0 -0.9919394404670926 0.12671285035734525 6.068332660531626e-17 -2.7360316573984395e-17 6.068332660531626e-17 -2.7360316573984395e-17 -0.9919395183289669 0.12671224083390092
12667281333.333334 -0.9909464375754853 0.13425780370729248 6.045910119036559e-17 -2.782126014937231e-17 6.045910119036559e-17 -2.782126014937231e-17 -0.9909465200695347 0.13425719482370457
12667898666.666666 -0.989896046621701 0.14179498186670106 6.023137875671963e-17 -2.8280374572829645e-17 6.023137875671963e-17 -2.8280374572829645e-17 -0.9898961337426967 0.14179437365816736
12668516000.0 -0.9887883284364113 0.1493239483397686 6.000017416458378e-17 -2.873763334677364e-17 6.000017416458378e-17 -2.873763334677364e-17 -0.9887884201788575 0.14932334084144444
12669133333.333334 -0.987623347170269 0.15684426710608299 5.976550247468887e-17 -2.9193010093888924e-17 5.976550247468887e-17 -2.9193010093888924e-17 -0.9876234435284019 0.15684366035307903
12669750666.666666 -0.9864011702901518 0.1643555026461545 5.952737894731213e-17 -2.9646478558659795e-17 5.952737894731213e-17 -2.9646478558659795e-17 -0.9864012712579414 0.1643548966735349
