! Parameters = {f0=12700.012000; bw=77.238000; Q=6100.000000; N=10; m_0_1=1.317212; m_1_1=0.993437; m_1_2=1.152024; m_2_2=0.992788; m_2_3=0.788987; m_2_8=0.002924; m_2_9=0.039628; m_3_3=0.990851; m_3_4=0.677516; m_3_7=0.003524; m_3_8=-0.093564; m_3_9=0.002924; m_4_4=0.987926; m_4_5=0.513851; m_4_6=0.007041; m_4_7=-0.114113; m_4_8=0.003524; m_5_5=0.988308; m_5_6=0.921206; m_5_7=0.007041; m_6_6=0.988307; m_6_7=0.514193; m_7_7=0.987940; m_7_8=0.677634; m_8_8=0.990849; m_8_9=0.789300; m_9_9=0.992783; m_9_10=1.153102; m_10_10=0.993427; m_10_11=1.318007}
!
! Created with skrf (http://scikit-rf.org).
# Hz S RI R 50.0 
!freq ReS11 ImS11 ReS21 ImS21 ReS12 ImS12 ReS22 ImS22
12607400000.0 -0.8689472663177833 -0.49490468613528144 1.3387212986515138e-16 3.130518174862599e-17 1.3387212986515138e-16 3.130518174862599e-17 -0.8689469229049046 -0.4949052890946995
12608017333.333334 -0.8747840112625368 -0.48451308923416775 1.3421207791296201e-16 2.968969928416383e-17 1.3421207791296201e-16 2.968969928416383e-17 -0.8747836750768089 -0.48451369621396895
12608634666.666666 -0.8804964906198002 -0.47405266585689254 1.34532542782549e-16 2.8070568865946543e-17 1.34532542782549e-16 2.8070568865946543e-17 -0.8804961617082698 -0.47405327677046455
12609252000.0 -0.8860838929155431 -0.46352490193672 1.3483348590608145e-16 2.6448025330009287e-17 1.3483348590608145e-16 2.6448025330009287e-17 -0.8860835713242187 -0.4635255166969
12609869333.333334 -0.8915454244432924 -0.4529312929728305 1.3511487154463728e-16 2.4822303912380395e-17 1.3511487154463728e-16 2.4822303912380395e-17 -0.8915451102171374 -0.45293191149191736
12610486666.666666 -0.8968803093768265 -0.4422733438179805 1.3537666679223908e-16 2.3193640215061468e-17 1.3537666679223908e-16 2.3193640215061468e-17 -0.8968800025597554 -0.4422739660077486
12611104000.0 -0.9020877898805306 -0.431552568464458 1.3561884157950265e-16 2.1562270171845167e-17 1.3561884157950265e-16 2.1562270171845167e-17 -0.9020874905153993 -0.4315531942361681
12611721333.333334 -0.9071671262168759 -0.4207704898293419 1.3584136867684077e-16 1.9928430014290647e-17 1.3584136867684077e-16 1.9928430014290647e-17 -0.9071668343454797 -0.4207711190937555
12612338666.666666 -0.912117596851577 -0.409928639538046 1.360442236972901e-16 1.8292356237481087e-17 1.360442236972901e-16 1.8292356237481087e-17 -0.9121173125146408 -0.40992927220543646
12612956000.0 -0.9169384985562088 -0.3990285577064581 1.362273850989084e-16 1.6654285565856437e-17 1.362273850989084e-16 1.6654285565856437e-17 -0.9169382217933838 -0.39902919368662443
12613573333.333334 -0.9216291465078321 -0.38807179272275827 1.3639083418676226e-16 1.5014454919038517e-17 1.3639083418676226e-16 1.5014454919038517e-17 -0.9216288773576905 -0.38807243192503804
12614190666.666666 -0.926188874386525 -0.37705990102692327 1.3653455511451148e-16 1.3373101377571481e-17 1.3653455511451148e-16 1.3373101377571481e-17 -0.9261886128865533 -0.377060543360205
12614808000.0 -0.9306170344699134 -0.365994446889887 1.3665853488557573e-16 1.1730462148706813e-17 1.3665853488557573e-16 1.1730462148706813e-17 -0.9306167806565084 -0.3659950922626238
12615425333.333334 -0.9349129977252103 -0.3548770021912813 1.3676276335389174e-16 1.008677453217963e-17 1.3676276335389174e-16 1.008677453217963e-17 -0.9349127516336729 -0.35487765051150294
12616042666.666666 -0.9390761538985783 -0.34370914619611825 1.368472332242613e-16 8.442275885950003e-18 1.368472332242613e-16 8.442275885950003e-18 -0.9390759155631083 -0.34370979737144475
12616660000.0 -0.9431059116017769 -0.3324924653305567 1.3691194005228603e-16 6.797203591988215e-18 1.3691194005228603e-16 6.797203591988215e-18 -0.9431056810554714 -0.33249311926821246
12617277333.333334 -0.947001698396245 -0.32122855295636155 1.3695688224389207e-16 5.151795022046592e-18 1.3695688224389207e-16 5.151795022046592e-18 -0.9470014756710893 -0.3212292095631868
12617894666.666666 -0.9507629608743262 -0.30991900914480086 1.3698206105444494e-16 3.506287503473506e-18 1.3698206105444494e-16 3.506287503473506e-18 -0.9507627460011918 -0.30991966832726603
12618512000.0 -0.954389164737995 -0.29856544044902955 1.3698748058745352e-16 1.8609182849847622e-18 1.3698748058745352e-16 1.8609182849847622e-18 -0.9543889577466366 -0.2985661021132488
12619129333.333334 -0.9578797948746373 -0.287169459676224 1.3697314779286376e-16 2.1592450255323997e-19 1.3697314779286376e-16 2.1592450255323997e-19 -0.9578795957936853 -0.2871701237279675
12619746666.666666 -0.9612343554302709 -0.2757326856583438 1.3693907246494387e-16 -1.4284568547420094e-18 1.3693907246494387e-16 -1.4284568547420094e-18 -0.9612341642872305 -0.2757333520030523
12620364000.0 -0.9644523698800699 -0.26425674302187185 1.3688526723975916e-16 -3.071988978855444e-18 1.3688526723975916e-16 -3.071988978855444e-18 -0.9644521867013166 -0.2642574115646698
12620981333.333334 -0.9675333810958734 -0.25274326195765917 1.368117475922408e-16 -4.7144352767429866e-18 1.368117475922408e-16 -4.7144352767429866e-18 -0.9675332059066474 -0.25274393260336764
12621598666.666666 -0.9704769514112874 -0.24119387798877798 1.3671853183284315e-16 -6.355559404456906e-18 1.3671853183284315e-16 -6.355559404456906e-18 -0.9704767842356915 -0.24119455064192857
12622216000.0 -0.9732826626837758 -0.22961023173846362 1.366056411037966e-16 -7.995125301070846e-18 1.366056411037966e-16 -7.995125301070846e-18 -0.9732825035447736 -0.22961090630331255
12622833333.333334 -0.9759501163540912 -0.21799396869695026 1.364730993749523e-16 -9.632897222601381e-18 1.364730993749523e-16 -9.632897222601381e-18 -0.9759499652735018 -0.21799464507749133
12623450666.666666 -0.9784789335028379 -0.206346738987945 1.3632093343922277e-16 -1.1268639775847324e-17 1.3632093343922277e-16 -1.1268639775847324e-17 -0.9784787905013337 -0.20634741708792362
12624068000.0 -0.9808687549043718 -0.1946701971339197 1.3614917290761666e-16 -1.2902117952176955e-17 1.3614917290761666e-16 -1.2902117952176955e-17 -0.9808686200014748 -0.19467087685684625
12624685333.333334 -0.9831192410778001 -0.18296600182116154 1.3595785020386383e-16 -1.4533097161292903e-17 1.3595785020386383e-16 -1.4533097161292903e-17 -0.9831191142918817 -0.1829666830703256
12625302666.666666 -0.9852300723351667 -0.17123581566440532 1.3574700055865244e-16 -1.6161343264784463e-17 1.3574700055865244e-16 -1.6161343264784463e-17 -0.9852299536834416 -0.17123649834288876
12625920000.0 -0.9872009488269359 -0.15948130497023397 1.3551666200344284e-16 -1.778662260979479e-17 1.3551666200344284e-16 -1.778662260979479e-17 -0.9872008383254636 -0.1594819889809255
12626537333.333334 -0.9890315905845266 -0.1477041395007391 1.352668753638999e-16 -1.940870206243135e-17 1.352668753638999e-16 -1.940870206243135e-17 -0.9890314882482061 -0.14770482474634747
12627154666.666666 -0.9907217375600905 -0.13590599223627045 1.349976842529135e-16 -2.1027349041188706e-17 1.349976842529135e-16 -2.1027349041188706e-17 -0.9907216434026617 -0.13590667861933883
12627772000.0 -0.992271149663511 -0.12408853913744808 1.347091350632184e-16 -2.2642331550278464e-17 1.347091350632184e-16 -2.2642331550278464e-17 -0.9922710636975465 -0.12408922656036703
12628389333.333334 -0.9936796067964222 -0.11225345890759164 1.3440127695963414e-16 -2.4253418212762326e-17 1.3440127695963414e-16 -2.4253418212762326e-17 -0.9936795290333342 -0.11225414727261407
12629006666.666666 -0.9949469088835481 -0.10040243275380681 1.3407416187087755e-16 -2.5860378303755048e-17 1.3407416187087755e-16 -2.5860378303755048e-17 -0.9949468393335805 -0.10040312196306116
12629624000.0 -0.9960728759010774 -0.08853714414847437 1.3372784448101615e-16 -2.7462981783325666e-17 1.3372784448101615e-16 -2.7462981783325666e-17 -0.9960728145733058 -0.08853783410397867
12630241333.333334 -0.9970573479022588 -0.07665927858991044 1.333623822204974e-16 -2.9060999329447365e-17 1.333623822204974e-16 -2.9060999329447365e-17 -0.9970572948045912 -0.07665996919358636
12630858666.666666 -0.9979001850400978 -0.06477052336324823 1.3297783525680737e-16 -3.0654202370724566e-17 1.3297783525680737e-16 -3.0654202370724566e-17 -0.9979001401792728 -0.06477121451693506
12631476000.0 -0.9986012675872707 -0.052872567300131054 1.3257426648471893e-16 -3.224236311908602e-17 1.3257426648471893e-16 -3.224236311908602e-17 -0.9986012309688549 -0.05287325890559943
12632093333.333334 -0.9991604959530731 -0.04096710053957396 1.3215174151617185e-16 -3.3825254602261635e-17 1.3215174151617185e-16 -3.3825254602261635e-17 -0.9991604675814628 -0.04096779249854
12632710666.666666 -0.9995777906976062 -0.029055814287392984 1.3171032866975543e-16 -3.540265069617847e-17 1.3171032866975543e-16 -3.540265069617847e-17 -0.9995777705760256 -0.029056506501532166
12633328000.0 -0.9998530925430534 -0.017140400575964047 1.3125009895978735e-16 -3.697432615727739e-17 1.3125009895978735e-16 -3.697432615727739e-17 -0.9998530806735536 -0.017141092946925222
12633945333.333334 -0.9999863623820909 -0.005222552024092147 1.3077112608504975e-16 -3.8540056654544736e-17 1.3077112608504975e-16 -3.8540056654544736e-17 -0.9999863587655532 -0.005223244453511549
12634562666.666666 -0.9999775812834554 0.006696038403600335 1.3027348641710205e-16 -4.009961880154546e-17 1.3027348641710205e-16 -4.009961880154546e-17 -0.9999775859195859 0.0066953460140852135
12635180000.0 -0.9998267504946226 0.01861367763702214 1.2975725898823628e-16 -4.16527901882257e-17 1.2975725898823628e-16 -4.16527901882257e-17 -0.9998267633819572 0.018612985385758517
12635797333.333334 -0.9995338914416384 0.03052867274131751 1.2922252547904485e-16 -4.319934941259182e-17 1.2922252547904485e-16 -4.319934941259182e-17 -0.9995339125775401 0.03052798072662336
12636414666.666666 -0.9990990457260719 0.042439331157125115 1.2866937020561955e-16 -4.473907611220998e-17 1.2866937020561955e-16 -4.473907611220998e-17 -0.9990990751067327 0.042438639477275206
12637032000.0 -0.9985222751191044 0.0543439609412099 1.2809788010636235e-16 -4.627175099557999e-17 1.2809788010636235e-16 -4.627175099557999e-17 -0.998522312739545 0.054343269694421784
12637649333.333334 -0.9978036615527537 0.06624087100672305 1.2750814472843512e-16 -4.779715587330976e-17 1.2750814472843512e-16 -4.779715587330976e-17 -0.9978037074068266 0.06624018029114331
12638266666.666666 -0.9969433071082441 0.07812837136334091 1.269002562138394e-16 -4.9315073689118845e-17 1.269002562138394e-16 -4.9315073689118845e-17 -0.9969433611886309 0.07812768127703097
12638884000.0 -0.9959413340014946 0.0900047733575032 1.262743092851153e-16 -5.082528855069932e-17 1.262743092851153e-16 -5.082528855069932e-17 -0.9959413962997096 0.09000408399842551
12639501333.333334 -0.9947978845657579 0.10186838991220543 1.2563040123068546e-16 -5.232758576036391e-17 1.2563040123068546e-16 -5.232758576036391e-17 -0.9947979550721495 0.10186770137820964
12640118666.666666 -0.9935131212314225 0.11371753576651233 1.2496863188984065e-16 -5.382175184550381e-17 1.2496863188984065e-16 -5.382175184550381e-17 -0.9935131999351746 0.11371684815532138
12640736000.0 -0.9920872265028854 0.12555052771543423 1.2428910363732839e-16 -5.530757458893145e-17 1.2428910363732839e-16 -5.530757458893145e-17 -0.9920873133920174 0.12554984112463033
12641353333.333334 -0.9905204029327138 0.13736568484824016 1.2359192136764606e-16 -5.678484305889381e-17 1.2359192136764606e-16 -5.678484305889381e-17 -0.9905204979940838 0.13736499937525104
12641970666.666666 -0.9888128730927859 0.14916132878799843 1.2287719247891173e-16 -5.825334763902893e-17 1.2287719247891173e-16 -5.825334763902893e-17 -0.9888129763120934 0.1491606445300837
12642588000.0 -0.9869648795427205 0.16093578392960003 1.2214502685641523e-16 -5.971288005804786e-17 1.2214502685641523e-16 -5.971288005804786e-17 -0.9869649909045067 0.16093510098383704
12643205333.333334 -0.9849766847954132 0.17268737767783918 1.2139553685581495e-16 -6.116323341921433e-17 1.2139553685581495e-16 -6.116323341921433e-17 -0.9849768042830647 0.17268669614110949
12643822666.666666 -0.982848571279729 0.1844144406851229 1.2062883728597202e-16 -6.260420222964279e-17 1.2062883728597202e-16 -6.260420222964279e-17 -0.9828486988754798 0.18441376065409848
12644440000.0 -0.9805808413004039 0.1961153070884662 1.198450453914553e-16 -6.40355824293483e-17 1.198450453914553e-16 -6.40355824293483e-17 -0.9805809769853377 0.19611462865959572
12645057333.333334 -0.9781738169950934 0.2077883147461887 1.1904428083469126e-16 -6.54571714200991e-17 1.1904428083469126e-16 -6.54571714200991e-17 -0.9781739607491473 0.20778763801568376
12645674666.666666 -0.9756278402886362 0.21943180547391583 1.182266656777749e-16 -6.686876809404424e-17 1.182266656777749e-16 -6.686876809404424e-17 -0.9756279920906028 0.21943113053773752
12646292000.0 -0.9729432728444061 0.23104412528048984 1.1739232436392562e-16 -6.827017286214133e-17 1.1739232436392562e-16 -6.827017286214133e-17 -0.9729434326719367 0.23104345223433495
12646909333.333334 -0.9701204960130368 0.2426236246024518 1.1654138369865626e-16 -6.966118768227149e-17 1.1654138369865626e-16 -6.966118768227149e-17 -0.9701206638426451 0.2426229535417392
12647526666.666666 -0.9671599107781831 0.2541686585386716 1.1567397283054427e-16 -7.104161608722981e-17 1.1567397283054427e-16 -7.104161608722981e-17 -0.967160086585249 0.25416798955852915
12648144000.0 -0.9640619376995675 0.26567758708398415 1.147902232317145e-16 -7.241126321240857e-17 1.147902232317145e-16 -7.241126321240857e-17 -0.9640621214583386 0.26567692027923434
12648761333.333334 -0.9608270168532504 0.27714877536207105 1.1389026867799032e-16 -7.376993582324508e-17 1.1389026867799032e-16 -7.376993582324508e-17 -0.9608272085368497 0.27714811082721885
12649378666.666666 -0.9574556077691593 0.2885805938575941 1.1297424522871537e-16 -7.511744234243436e-17 1.1297424522871537e-16 -7.511744234243436e-17 -0.9574558073495849 0.28857993168681234
12649996000.0 -0.9539481893657202 0.2999714186479716 1.1204229120624302e-16 -7.645359287690791e-17 1.1204229120624302e-16 -7.645359287690791e-17 -0.9539483968138521 0.29997075893508823
12650613333.333334 -0.9503052598818786 0.311319631633869 1.1109454717512207e-16 -7.777819924453684e-17 1.1109454717512207e-16 -7.777819924453684e-17 -0.950305475167482 0.31131897447235374
12651230666.666666 -0.9465273368063535 0.3226236207689751 1.1013115592098429e-16 -7.909107500055635e-17 1.1013115592098429e-16 -7.909107500055635e-17 -0.9465275598980837 0.3226229662519263
12651848000.0 -0.942614956804039 0.33388178028926807 1.0915226242905225e-16 -8.039203546382358e-17 1.0915226242905225e-16 -8.039203546382358e-17 -0.9426151876694444 0.33388112850939905
12652465333.333334 -0.9385686756398358 0.3450925109409012 1.0815801386243782e-16 -8.168089774267315e-17 1.0815801386243782e-16 -8.168089774267315e-17 -0.9385689142453645 0.34509186199052755
12653082666.666666 -0.9343890680997482 0.35625422020727676 1.0714855954005868e-16 -8.29574807606115e-17 1.0714855954005868e-16 -8.29574807606115e-17 -0.9343893144107525 0.35625357417830333
12653700000.0 -0.9300767279090775 0.3673653225356947 1.0612405091426552e-16 -8.422160528171989e-17 1.0612405091426552e-16 -8.422160528171989e-17 -0.9300769818898172 0.367364679519602
12654317333.333334 -0.9256322676482569 0.3784242395621041 1.0508464154821337e-16 -8.547309393572793e-17 1.0508464154821337e-16 -8.547309393572793e-17 -0.925632529261908 0.3784235996499363
12654934666.666666 -0.921056318665726 0.3894294003356085 1.0403048709288289e-16 -8.671177124287811e-17 1.0403048709288289e-16 -8.671177124287811e-17 -0.9210565878743818 0.3894287636179596
12655552000.0 -0.9163495309882401 0.4003792415416213 1.0296174526383069e-16 -8.793746363848055e-17 1.0296174526383069e-16 -8.793746363848055e-17 -0.9163498077529202 0.4003786081086229
12656169333.333334 -0.9115125732286203 0.41127220772373013 1.0187857581768699e-16 -8.914999949714189e-17 1.0187857581768699e-16 -8.914999949714189e-17 -0.9115128575092739 0.41127157766503825
12656786666.666666 -0.906546132490712 0.4221067515048115 1.007811405282953e-16 -9.034920915678956e-17 1.007811405282953e-16 -9.034920915678956e-17 -0.9065464242462254 0.42210612490959437
12657404000.0 -0.9014509142717649 0.4328813338068653 9.966960316263351e-17 -9.153492494233114e-17 9.966960316263351e-17 -9.153492494233114e-17 -0.901451213459967 0.43288071076379075
12658021333.333334 -0.8962276423622385 0.4435944240695933 9.854412945642685e-17 -9.270698118905275e-17 9.854412945642685e-17 -9.270698118905275e-17 -0.8962279489399061 0.44359380466681586
12658638666.666666 -0.8908770587430366 0.45424450046771836 9.740488708950802e-17 -9.386521426569651e-17 9.740488708950802e-17 -9.386521426569651e-17 -0.8908773726659002 0.4542438847928661
12659256000.0 -0.8853999234799799 0.46483005012741746 9.625204566086619e-17 -9.500946259727705e-17 9.625204566086619e-17 -9.500946259727705e-17 -0.8854002447027316 0.464829438267581
12659873333.333334 -0.8797970146159358 0.4753495693410263 9.508577666347752e-17 -9.613956668754317e-17 9.508577666347752e-17 -9.613956668754317e-17 -0.8797973430922357 0.4753489613827459
12660490666.666666 -0.8740691280603538 0.48580156378054656 9.390625345886559e-17 -9.72553691411407e-17 9.390625345886559e-17 -9.72553691411407e-17 -0.874069463742836 0.4858009598098
12661108000.0 -0.8682170774759883 0.4961845487103209 9.271365125132963e-17 -9.835671468553218e-17 9.271365125132963e-17 -9.835671468553218e-17 -0.8682174203162679 0.49618394881251104
12661725333.333334 -0.8622416941635592 0.506497049197493 9.15081470620539e-17 -9.944345019247271e-17 9.15081470620539e-17 -9.944345019247271e-17 -0.8622420441122388 0.5064964534574353
12662342666.666666 -0.8561438269434963 0.5167376003218241 9.028991970282556e-17 -1.0051542469930009e-16 9.028991970282556e-17 -1.0051542469930009e-16 -0.8561441839501746 0.516737008823736
12662960000.0 -0.8499243420354345 0.5269047473836664 8.905914974959464e-17 -1.0157248942982075e-16 8.905914974959464e-17 -1.0157248942982075e-16 -0.8499247060487123 0.5269041602111546
12663577333.333334 -0.8435841229351354 0.5369970461106568 8.781601951575622e-17 -1.0261449781490386e-16 8.781601951575622e-17 -1.0261449781490386e-16 -0.8435844939026221 0.5369964633467046
12664194666.666666 -0.8371240702890409 0.5470130628627807 8.656071302519815e-17 -1.0364130551274377e-16 8.656071302519815e-17 -1.0364130551274377e-16 -0.8371244481573654 0.547012484589738
12664812000.0 -0.8305451017662488 0.5569513748361724 8.529341598511326e-17 -1.0465277042879417e-16 8.529341598511326e-17 -1.0465277042879417e-16 -0.8305454864810632 0.5569508011357426
12665429333.333334 -0.8238481519281957 0.5668105702651538 8.401431575857314e-17 -1.0564875273537505e-16 8.401431575857314e-17 -1.0564875273537505e-16 -0.8238485434341853 0.566810001218383
12666046666.666666 -0.8170341720959644 0.5765892486226863 8.272360133690734e-17 -1.0662911489091936e-16 8.272360133690734e-17 -1.0662911489091936e-16 -0.8170345703368559 0.5765886843099518
12666664000.0 -0.8101041302149554 0.586286020819601 8.14214633117801e-17 -1.0759372165894404e-16 8.14214633117801e-17 -1.0759372165894404e-16 -0.8101045351335238 0.5862854613206
12667281333.333334 -0.8030590107176793 0.5958995094015048 8.010809384715387e-17 -1.0854244012659994e-16 8.010809384715387e-17 -1.0854244012659994e-16 -0.8030594222557565 0.5958989547952425
12667898666.666666 -0.7958998143836514 0.6054283487448205 7.878368665094803e-17 -1.0947513972294602e-16 7.878368665094803e-17 -1.0947513972294602e-16 -0.7959002324821357 0.6054277991095999
12668516000.0 -0.7886275581972957 0.6148711852506864 7.744843694652029e-17 -1.1039169223685438e-16 7.744843694652029e-17 -1.1039169223685438e-16 -0.7886279827961574 0.6148706406640957
12669133333.333334 -0.7812432752036097 0.6242266775370532 7.6102541443969e-17 -1.1129197183454805e-16 7.6102541443969e-17 -1.1129197183454805e-16 -0.7812437062419044 0.6242261380759581
12669750666.666666 -0.7737480143612563 0.6334934966294643 7.47461983111698e-17 -1.121758550768338e-16 7.47461983111698e-17 -1.121758550768338e-16 -0.773748451777128 0.6334929623699925
