! Parameters = {f0=12700.012000; bw=77.238000; Q=6100.000000; N=10; m_0_1=1.323418; m_1_1=1.086531; m_1_2=1.158230; m_2_2=1.085882; m_2_3=0.795193; m_2_8=0.003235; m_2_9=0.039939; m_3_3=1.083945; m_3_4=0.683722; m_3_7=0.003835; m_3_8=-0.093253; m_3_9=0.003235; m_4_4=1.081020; m_4_5=0.520057; m_4_6=0.007352; m_4_7=-0.113802; m_4_8=0.003835; m_5_5=1.081402; m_5_6=0.927412; m_5_7=0.007352; m_6_6=1.081401; m_6_7=0.520399; m_7_7=1.081034; m_7_8=0.683840; m_8_8=1.083943; m_8_9=0.795506; m_9_9=1.085877; m_9_10=1.159308; m_10_10=1.086521; m_10_11=1.324213}
!
! Created with skrf (http://scikit-rf.org).
# Hz S RI R 50.0 
!freq ReS11 ImS11 ReS21 ImS21 ReS12 ImS12 ReS22 ImS22
12607400000.0 0.9959455510406267 -0.08995809781331707 -1.3138525639598154e-16 5.218602081771796e-17 -1.3138525639598154e-16 5.218602081771796e-17 0.9959456137550532 -0.08995740348564217
12608017333.333334 0.9947839594220313 -0.10200428459842155 -1.3071371947228531e-16 5.377326681534882e-17 -1.3071371947228531e-16 5.377326681534882e-17 0.9947840305310259 -0.10200359111450315
12608634666.666666 0.9934766718334409 -0.11403553184230443 -1.3002301960621953e-16 5.535189985145401e-17 -1.3002301960621953e-16 5.535189985145401e-17 0.9934767513257697 -0.11403483930362279
12609252000.0 0.9920238797401826 -0.1260500774495758 -1.293132669358394e-16 5.692168872187993e-17 -1.293132669358394e-16 5.692168872187993e-17 0.9920239676033813 -0.1260493859574624
12609869333.333334 0.9904257959181479 -0.1380461617710238 -1.285845743868555e-16 5.848240362703641e-17 -1.285845743868555e-16 5.848240362703641e-17 0.99042589213853 -0.13804547142664714
12610486666.666666 0.9886826544226747 -0.1500220278610518 -1.2783705765477432e-16 6.003381620546641e-17 -1.2783705765477432e-16 6.003381620546641e-17 0.9886827589853303 -0.15002133876540238
12611104000.0 0.9867947105541784 -0.16197592173561953 -1.270708351866084e-16 6.157569956724795e-17 -1.270708351866084e-16 6.157569956724795e-17 0.9867948234429772 -0.16197523398949498
12611721333.333334 0.9847622408208743 -0.17390609262834364 -1.2628602816222692e-16 6.310782832707296e-17 -1.2628602816222692e-16 6.310782832707296e-17 0.9847623620184688 -0.1739054063323343
12612338666.666666 0.9825855428981954 -0.18581079324750585 -1.2548276047526615e-16 6.462997863717693e-17 -1.2548276047526615e-16 6.462997863717693e-17 0.9825856723860221 -0.18581010850197965
12612956000.0 0.9802649355852069 -0.1976882800318189 -1.246611587136614e-16 6.614192821999067e-17 -1.246611587136614e-16 6.614192821999067e-17 0.9802650733434909 -0.19768759693690696
12613573333.333334 0.9778007587579639 -0.20953681340556624 -1.238213521398025e-16 6.764345640051844e-17 -1.238213521398025e-16 6.764345640051844e-17 0.9778009047657202 -0.20953613206114804
12614190666.666666 0.9751933733196767 -0.2213546580336584 -1.229634726702721e-16 6.913434413851418e-17 -1.229634726702721e-16 6.913434413851418e-17 0.9751935275547159 -0.22135397853934766
12614808000.0 0.9724431611478823 -0.23314008307565146 -1.2208765485520833e-16 7.061437406038539e-17 -1.2208765485520833e-16 7.061437406038539e-17 0.9724433235868104 -0.23313940553078075
12615425333.333334 0.9695505250385005 -0.24489136243930062 -1.2119403585729135e-16 7.208333049082234e-17 -1.2119403585729135e-16 7.208333049082234e-17 0.969550695656725 -0.24489068694290744
12616042666.666666 0.9665158886468661 -0.25660677503325263 -1.2028275543034216e-16 7.354099948417677e-17 -1.2028275543034216e-16 7.354099948417677e-17 0.9665160674185997 -0.25660610168406506
12616660000.0 0.9633396964256453 -0.268284605019284 -1.1935395589754788e-16 7.498716885556841e-17 -1.1935395589754788e-16 7.498716885556841e-17 0.9633398833239085 -0.2682839339157057
12617277333.333334 0.9600224135597546 -0.2799231420635175 -1.1840778212931004e-16 7.642162821172002e-17 -1.1840778212931004e-16 7.642162821172002e-17 0.96002260855638 -0.2799224733036136
12617894666.666666 0.956564525898264 -0.2915206815868094 -1.1744438152073846e-16 7.784416898149565e-17 -1.1744438152073846e-16 7.784416898149565e-17 0.9565647289639015 -0.2915200152682923
12618512000.0 0.9529665398831543 -0.3030755250147023 -1.164639039687417e-16 7.925458444620843e-17 -1.164639039687417e-16 7.925458444620843e-17 0.9529667509872752 -0.3030748612349174
12619129333.333334 0.9492289824752536 -0.3145859800258163 -1.1546650184881144e-16 8.065266976955885e-17 -1.1546650184881144e-16 8.065266976955885e-17 0.9492292015861554 -0.31458531888172775
12619746666.666666 0.9453524010769806 -0.32605036079997896 -1.1445232999139399e-16 8.203822202736105e-17 -1.1445232999139399e-16 8.203822202736105e-17 0.94535262816179 -0.32604970238815517
12620364000.0 0.9413373634521552 -0.3374669882651553 -1.1342154565792584e-16 8.341104023694352e-17 -1.1342154565792584e-16 8.341104023694352e-17 0.9413375984768356 -0.3374663326817554
12620981333.333334 0.9371844576429668 -0.348834190343016 -1.1237430851655111e-16 8.477092538620472e-17 -1.1237430851655111e-16 8.477092538620472e-17 0.9371847005723212 -0.3488335376837753
12621598666.666666 0.9328942918837011 -0.36015030219425925 -1.113107806174226e-16 8.611768046245847e-17 -1.113107806174226e-16 8.611768046245847e-17 0.9328945426813793 -0.3601496525544756
12622216000.0 0.9284674945117425 -0.37141366646220186 -1.1023112636771758e-16 8.745111048089045e-17 -1.1023112636771758e-16 8.745111048089045e-17 0.9284677531402443 -0.3714130199367212
12622833333.333334 0.9239047138755165 -0.3826226335155948 -1.0913551250628451e-16 8.877102251274034e-17 -1.0913551250628451e-16 8.877102251274034e-17 0.9239049802961989 -0.382621990198798
12623450666.666666 0.9192066182395758 -0.3937755616901227 -1.0802410807797169e-16 9.007722571314672e-17 -1.0802410807797169e-16 9.007722571314672e-17 0.9192068924126596 -0.3937749216759117
12624068000.0 0.9143738956866762 -0.40487081752897475 -1.0689708440759904e-16 9.136953134869813e-17 -1.0689708440759904e-16 9.136953134869813e-17 0.9143741775712495 -0.40487018091075844
12624685333.333334 0.9094072540169703 -0.41590677602213033 -1.0575461507361267e-16 9.264775282464791e-17 -1.0575461507361267e-16 9.264775282464791e-17 0.9094075435709966 -0.41590614289281114
12625302666.666666 0.9043074206445207 -0.42688182084396964 -1.0459687588144354e-16 9.391170571176774e-17 -1.0459687588144354e-16 9.391170571176774e-17 0.9043077178248438 -0.4268811912959298
12625920000.0 0.8990751424904553 -0.4377943445906726 -1.0342404483647967e-16 9.516120777294364e-17 -1.0342404483647967e-16 9.516120777294364e-17 0.8990754472528069 -0.43779371871576106
12626537333.333334 0.8937111858739083 -0.44864274901491724 -1.0223630211679654e-16 9.639607898935258e-17 -1.0223630211679654e-16 9.639607898935258e-17 0.8937114981729133 -0.4486421269044359
12627154666.666666 0.8882163363995821 -0.45942544526039736 -1.0103383004553601e-16 9.761614158634441e-17 -1.0103383004553601e-16 9.761614158634441e-17 0.8882166561887669 -0.4594248270050881
12627772000.0 0.8825913988426684 -0.4701408540945485 -9.981681306294901e-17 9.882122005900838e-17 -9.981681306294901e-17 9.882122005900838e-17 0.882591726074467 -0.47014023978457953
12628389333.333334 0.8768371970311513 -0.4807874061395141 -9.858543769821793e-17 1.0001114119730674e-16 -9.858543769821793e-17 1.0001114119730674e-16 0.8768375316569131 -0.4807867958644679
12629006666.666666 0.8709545737249537 -0.4913635421023753 -9.73398925408846e-17 1.0118573411095387e-16 -9.73398925408846e-17 1.0118573411095387e-16 0.8709549156949478 -0.491362935951233
12629624000.0 0.8649443904926489 -0.5018677130032466 -9.608036821206011e-17 1.0234483025386584e-16 -9.608036821206011e-17 1.0234483025386584e-16 0.8649447397560751 -0.5018671110643778
12630241333.333334 0.8588075275851826 -0.5122983804023145 -9.480705733529502e-17 1.0348826344829901e-16 -9.480705733529502e-17 1.0348826344829901e-16 0.8588078840901779 -0.5122977827634632
12630858666.666666 0.8525448838070959 -0.5226540166249132 -9.3520154507199e-17 1.0461586990859494e-16 -9.3520154507199e-17 1.0461586990859494e-16 0.8525452475007409 -0.522653423373185
12631476000.0 0.8461573763846358 -0.5329331049856811 -9.221985626772789e-17 1.0572748826460581e-16 -9.221985626772789e-17 1.0572748826460581e-16 0.8461577472129647 -0.5329325162075308
12632093333.333334 0.8396459408316704 -0.543134140010281 -9.0906361070263e-17 1.0682295958469155e-16 -9.0906361070263e-17 1.0682295958469155e-16 0.8396463187396769 -0.5431335557914996
12632710666.666666 0.8330115308125717 -0.5532556276560637 -8.95798692513787e-17 1.0790212739837975e-16 -8.95798692513787e-17 1.0790212739837975e-16 0.833011915744218 -0.5532550480817656
12633328000.0 0.8262551180024605 -0.5632960855310016 -8.824058300029608e-17 1.089648377186892e-16 -8.824058300029608e-17 1.089648377186892e-16 0.8262555099006862 -0.5632955106856136
12633945333.333334 0.8193776919450364 -0.5732540431105865 -8.688870632819293e-17 1.1001093906397678e-16 -8.688870632819293e-17 1.1001093906397678e-16 0.8193780907517663 -0.5732534730778341
12634562666.666666 0.8123802599075554 -0.5831280419533446 -8.552444503713527e-17 1.1104028247950243e-16 -8.552444503713527e-17 1.1104028247950243e-16 0.8123806655637082 -0.5831274768162408
12635180000.0 0.8052638467333862 -0.5929166359143231 -8.414800668882251e-17 1.1205272155855443e-16 -8.414800668882251e-17 1.1205272155855443e-16 0.8052642591788834 -0.5929160757551554
12635797333.333334 0.7980294946917968 -0.6026183913570548 -8.275960057305931e-17 1.1304811246320896e-16 -8.275960057305931e-17 1.1304811246320896e-16 0.7980299138655709 -0.6026178362573732
12636414666.666666 0.7906782633254361 -0.6122318873633428 -8.135943767600138e-17 1.1402631394468431e-16 -8.135943767600138e-17 1.1402631394468431e-16 0.7906786891654409 -0.6122313374039494
12637032000.0 0.7832112292950368 -0.6217557159415302 -7.994773064813021e-17 1.1498718736332727e-16 -7.994773064813021e-17 1.1498718736332727e-16 0.7832116617382563 -0.6217551712024665
12637649333.333334 0.7756294862217958 -0.6311884822326228 -7.852469377202491e-17 1.1593059670818009e-16 -7.852469377202491e-17 1.1593059670818009e-16 0.7756299252042513 -0.6311879427931562
12638266666.666666 0.7679341445271824 -0.6405288047145999 -7.709054292988818e-17 1.168564086161607e-16 -7.709054292988818e-17 1.168564086161607e-16 0.767934589983945 -0.6405282706532155
12638884000.0 0.7601263312703089 -0.6497753154047557 -7.564549557085083e-17 1.1776449239084105e-16 -7.564549557085083e-17 1.1776449239084105e-16 0.7601267831355087 -0.6497747867991432
12639501333.333334 0.7522071899828245 -0.658926660060095 -7.418977067804913e-17 1.1865472002082458e-16 -7.418977067804913e-17 1.1865472002082458e-16 0.7522076481896586 -0.6589261369871375
12640118666.666666 0.7441778805016384 -0.6679814983754406 -7.272358873553167e-17 1.1952696619769208e-16 -7.272358873553167e-17 1.1952696619769208e-16 0.7441783449823813 -0.6679809809112028
12640736000.0 0.7360395787985422 -0.6769385041803089 -7.124717169482679e-17 1.203811083336165e-16 -7.124717169482679e-17 1.203811083336165e-16 0.7360400494845573 -0.6769379924000275
12641353333.333334 0.7277934768086964 -0.6857963656323347 -6.976074294152652e-17 1.2121702657843415e-16 -6.976074294152652e-17 1.2121702657843415e-16 0.7277939536304442 -0.6857958596104061
12641970666.666666 0.7194407822554519 -0.6945537854100808 -6.826452726143187e-17 1.2203460383644482e-16 -6.826452726143187e-17 1.2203460383644482e-16 0.7194412651425015 -0.6945532852200512
12642588000.0 0.710982718473753 -0.7032094809027274 -6.675875080666361e-17 1.22833725782701e-16 -6.675875080666361e-17 1.22833725782701e-16 0.7109832073547915 -0.7032089866172807
12643205333.333334 0.7024205242309273 -0.7117621843979618 -6.524364106152572e-17 1.236142808789138e-16 -6.524364106152572e-17 1.236142808789138e-16 0.7024210190337726 -0.7117616960889125
12643822666.666666 0.6937554535451832 -0.7202106432677373 -6.37194268081766e-17 1.2437616038894197e-16 -6.37194268081766e-17 1.2437616038894197e-16 0.6937559541967904 -0.7202101610060145
12644440000.0 0.6849887755020156 -0.7285536201516394 -6.218633809215263e-17 1.2511925839384134e-16 -6.218633809215263e-17 1.2511925839384134e-16 0.6849892819284933 -0.7285531440072825
12645057333.333334 0.676121774068408 -0.7367898931380621 -6.064460618769333e-17 1.2584347180650422e-16 -6.064460618769333e-17 1.2584347180650422e-16 0.6761222861950248 -0.7367894231802068
12645674666.666666 0.6671557479046579 -0.744918255943286 -5.909446356292199e-17 1.2654870038585935e-16 -5.909446356292199e-17 1.2654870038585935e-16 0.6671562656558537 -0.7449177922401534
12646292000.0 0.6580920101741045 -0.752937518088198 -5.753614384478011e-17 1.2723484675068192e-16 -5.753614384478011e-17 1.2723484675068192e-16 0.6580925334735057 -0.7529370607070899
12646909333.333334 0.6489318883510639 -0.7608465050724307 -5.596988178396533e-17 1.2790181639289918e-16 -5.596988178396533e-17 1.2790181639289918e-16 0.6489324171214891 -0.7608460540797134
12647526666.666666 0.6396767240261908 -0.7686440585465619 -5.4395913219543324e-17 1.2854951769054326e-16 -5.4395913219543324e-17 1.2854951769054326e-16 0.6396772581896668 -0.7686436140076619
12648144000.0 0.6303278727100109 -0.7763290364817501 -5.2814475043508684e-17 1.2917786192022468e-16 -5.2814475043508684e-17 1.2917786192022468e-16 0.6303284121877815 -0.7763285984611409
12648761333.333334 0.6208867036344569 -0.7839003133369369 -5.122580516519328e-17 1.297867632691779e-16 -5.122580516519328e-17 1.297867632691779e-16 0.6208872483469954 -0.7838998818981318
12649378666.666666 0.6113545995524221 -0.7913567802236277 -4.963014247552607e-17 1.303761388468726e-16 -4.963014247552607e-17 1.303761388468726e-16 0.6113551494194432 -0.7913563554291704
12649996000.0 0.6017329565349978 -0.7986973450684934 -4.8027726811142625e-17 1.3094590869619472e-16 -4.8027726811142625e-17 1.3094590869619472e-16 0.6017335114754688 -0.7986969269799473
12650613333.333334 0.5920231837671591 -0.8059209327731888 -4.6418798918394e-17 1.3149599580417627e-16 -4.6418798918394e-17 1.3149599580417627e-16 0.5920237436993123 -0.8059205214511297
12651230666.666666 0.5822267033414453 -0.8130264853717626 -4.4803600417260834e-17 1.320263261122755e-16 -4.4803600417260834e-17 1.320263261122755e-16 0.5822272681827906 -0.8130260808757702
12651848000.0 0.5723449500494545 -0.8200129621857802 -4.318237376504333e-17 1.3253682852625204e-16 -4.318237376504333e-17 1.3253682852625204e-16 0.5723455197167893 -0.8200125645744268
12652465333.333334 0.5623793711718801 -0.8268793399765952 -4.1555362220082945e-17 1.3302743492554727e-16 -4.1555362220082945e-17 1.3302743492554727e-16 0.562379945581305 -0.8268789493074413
12653082666.666666 0.5523314262666698 -0.8336246130951481 -3.9922809805309027e-17 1.3349808017224711e-16 -3.9922809805309027e-17 1.3349808017224711e-16 0.552332005333598 -0.8336242294247308
12653700000.0 0.5422025869547586 -0.8402477936295795 -3.8284961271631974e-17 1.3394870211961107e-16 -3.8284961271631974e-17 1.3394870211961107e-16 0.5422031705939295 -0.8402474170134053
12654317333.333334 0.5319943367051988 -0.8467479115494795 -3.6642062061368396e-17 1.343792416201177e-16 -3.6642062061368396e-17 1.343792416201177e-16 0.5319949248306912 -0.8467475420420172
12654934666.666666 0.5217081706173934 -0.8531240148482883 -3.4994358271467096e-17 1.347896425330927e-16 -3.4994358271467096e-17 1.347896425330927e-16 0.5217087631426368 -0.8531236525029592
12655552000.0 0.5113455952022411 -0.8593751696826455 -3.334209661669432e-17 1.3517985173187565e-16 -3.334209661669432e-17 1.3517985173187565e-16 0.5113461920400295 -0.8593748145518179
12656169333.333334 0.500908128161687 -0.8655004605090425 -3.168552439277619e-17 1.3554981911052816e-16 -3.168552439277619e-17 1.3554981911052816e-16 0.5009087292241913 -0.8655001126440227
12656786666.666666 0.4903972981661978 -0.8714989902180625 -3.002488943939602e-17 1.3589949759010815e-16 -3.002488943939602e-17 1.3589949759010815e-16 0.49039790336497857 -0.8714986496690875
12657404000.0 0.4798146446309946 -0.8773698802656961 -2.836044010318322e-17 1.3622884312447837e-16 -2.836044010318322e-17 1.3622884312447837e-16 0.4798152538770156 -0.8773695470819268
12658021333.333334 0.469161717490515 -0.8831122708020536 -2.669242520061024e-17 1.3653781470566906e-16 -2.669242520061024e-17 1.3653781470566906e-16 0.4691623306941554 -0.8831119450315671
12658638666.666666 0.45844007697163586 -0.8887253207971794 -2.5021093980884812e-17 1.368263743687776e-16 -2.5021093980884812e-17 1.368263743687776e-16 0.4584406940427049 -0.8887250024869634
12659256000.0 0.44765129336476234 -0.8942082081644438 -2.33466960886758e-17 1.3709448719643632e-16 -2.33466960886758e-17 1.3709448719643632e-16 0.44765191421251055 -0.8942078973603873
12659873333.333334 0.4367969467941668 -0.8995601298807675 -2.166948152694235e-17 1.3734212132279716e-16 -2.166948152694235e-17 1.3734212132279716e-16 0.43679757132730135 -0.8995598266276575
12660490666.666666 0.4258786269865435 -0.9047803021042552 -1.9989700619650923e-17 1.3756924793707802e-16 -1.9989700619650923e-17 1.3756924793707802e-16 0.4258792551132401 -0.9047800064457666
12661108000.0 0.4148979330379191 -0.9098679602891148 -1.830760397440404e-17 1.3777584128665958e-16 -1.830760397440404e-17 1.3777584128665958e-16 0.4148985646658366 -0.9098676722678076
12661725333.333334 0.4038564731798084 -0.9148223592974625 -1.662344244517058e-17 1.3796187867970811e-16 -1.662344244517058e-17 1.3796187867970811e-16 0.40385710821610254 -0.9148220789547753
12662342666.666666 0.39275586454339345 -0.9196427735085956 -1.493746709487673e-17 1.381273404873599e-16 -1.493746709487673e-17 1.381273404873599e-16 0.3927565028947282 -0.9196425008848347
12662960000.0 0.3815977329227755 -0.9243284969252056 -1.324992915804689e-17 1.3827221014543977e-16 -1.324992915804689e-17 1.3827221014543977e-16 0.38159837449533957 -0.9243282320595453
12663577333.333334 0.37038371253694413 -0.9288788432767541 -1.1561080003410266e-17 1.3839647415572752e-16 -1.1561080003410266e-17 1.3839647415572752e-16 0.3703843572364638 -0.9288785862072293
12664194666.666666 0.359115445790273 -0.9332931461200514 -9.871171096506033e-18 1.3850012208676822e-16 -9.871171096506033e-18 1.3850012208676822e-16 0.35911609352202534 -0.9332928968835508
12664812000.0 0.3477945830320757 -0.9375707589368147 -8.180453962288601e-18 1.385831465742256e-16 -8.180453962288601e-18 1.385831465742256e-16 0.3477952337009029 -0.9375705175690754
12665429333.333334 0.3364227823148447 -0.9417110552283805 -6.48918014773084e-18 1.3864554332078109e-16 -6.48918014773084e-18 1.3864554332078109e-16 0.33642343582516815 -0.9417108217639845
12666046666.666666 0.32500170915154525 -0.945713428607411 -4.797601184485857e-18 1.3868731109557464e-16 -4.797601184485857e-18 1.3868731109557464e-16 0.32500236540737987 -0.9457132030797805
12666664000.0 0.313533036271392 -0.9495772928868148 -3.1059685514395356e-18 1.3870845173319604e-16 -3.1059685514395356e-18 1.3870845173319604e-16 0.3135336951763599 -0.9495770753282051
12667281333.333334 0.3020184433752356 -0.9533020821654646 -1.414533637482509e-18 1.3870897013221339e-16 -1.414533637482509e-18 1.3870897013221339e-16 0.3020191048325796 -0.9533018726069603
12667898666.666666 0.29045961688928457 -0.9568872509111721 2.7645229588307365e-19 1.3868887425325366e-16 2.7645229588307365e-19 1.3868887425325366e-16 0.2904602808018841 -0.9568870493826848
12668516000.0 0.2788582497180848 -0.9603322740405931 1.966738151800813e-18 1.3864817511662542e-16 1.966738151800813e-18 1.3864817511662542e-16 0.2788589159884686 -0.9603320805708546
12669133333.333334 0.26721604099692925 -0.963636646996023 3.656073035266538e-18 1.3858688679949005e-16 3.656073035266538e-18 1.3858688679949005e-16 0.26721670952729043 -0.9636364616125822
12669750666.666666 0.25553469584256827 -0.966799885819427 5.344206290361226e-18 1.3850502643257857e-16 5.344206290361226e-18 1.3850502643257857e-16 0.25553536653477854 -0.9667997085486457
12670368000.0 0.24381592510369524 -0.9698215272232519 7.03088753738267e-18 1.3840261419645646e-16 7.03088753738267e-18 1.3840261419645646e-16 0.2438165978593192 -0.9698213580903013
