! Parameters = {f0=12700.012000; bw=77.238000; Q=6100.000000; N=10; m_0_1=1.329825; m_1_1=1.182627; m_1_2=1.164637; m_2_2=1.181978; m_2_3=0.801600; m_2_8=0.003555; m_2_9=0.040259; m_3_3=1.180041; m_3_4=0.690129; m_3_7=0.004155; m_3_8=-0.092933; m_3_9=0.003555; m_4_4=1.177116; m_4_5=0.526464; m_4_6=0.007672; m_4_7=-0.113482; m_4_8=0.004155; m_5_5=1.177498; m_5_6=0.933819; m_5_7=0.007672; m_6_6=1.177497; m_6_7=0.526806; m_7_7=1.177130; m_7_8=0.690247; m_8_8=1.180039; m_8_9=0.801913; m_9_9=1.181973; m_9_10=1.165715; m_10_10=1.182617; m_10_11=1.330620}
!
! Created with skrf (http://scikit-rf.org).
# Hz S RI R 50.0 
!freq ReS11 ImS11 ReS21 ImS21 ReS12 ImS12 ReS22 ImS22
12607400000.0 -0.6830738664150275 0.7303492952147151 6.509702384922835e-17 -1.3009434710623477e-16 6.509702384922835e-17 -1.3009434710623477e-16 -0.6830743780368533 0.7303488167097775
12608017333.333334 -0.6740453855378356 0.7386899337577014 6.346905078159792e-17 -1.3086464362167853e-16 6.346905078159792e-17 -1.3086464362167853e-16 -0.6740459029770893 0.7386894616004798
12608634666.666666 -0.6649150700758233 0.7469189712317325 6.183198747315878e-17 -1.3161458136083885e-16 6.183198747315878e-17 -1.3161458136083885e-16 -0.664915593253765 0.7469185054929354
12609252000.0 -0.6556842994345049 0.7550351643962611 6.018608835888249e-17 -1.323440533694895e-16 6.018608835888249e-17 -1.323440533694895e-16 -0.6556848282715352 0.7550347051456207
12609869333.333334 -0.6463544681961524 0.7630372870592075 5.853160912800457e-17 -1.3305295587121056e-16 5.853160912800457e-17 -1.3305295587121056e-16 -0.6463550026118243 0.7630368343654683
12610486666.666666 -0.636926985909236 0.7709241302621045 5.686880668437878e-17 -1.337411882820364e-16 5.686880668437878e-17 -1.337411882820364e-16 -0.6369275258222681 0.7709236841930142
12611104000.0 -0.6274032768750346 0.778694502463113 5.5197939106599627e-17 -1.3440865322463332e-16 5.5197939106599627e-17 -1.3440865322463332e-16 -0.6274038222033227 0.7786940630854119
12611721333.333334 -0.6177847799329746 0.7863472297166002 5.3519265608055855e-17 -1.3505525654194119e-16 5.3519265608055855e-17 -1.3505525654194119e-16 -0.6177853305936053 0.7863467970960119
12612338666.666666 -0.6080729482429261 0.7938811558507751 5.1833046496738024e-17 -1.3568090731035254e-16 5.1833046496738024e-17 -1.3568090731035254e-16 -0.6080735041521868 0.7938807300519936
12612956000.0 -0.5982692490656738 0.8012951426423358 5.0139543134909056e-17 -1.3628551785238415e-16 5.0139543134909056e-17 -1.3628551785238415e-16 -0.5982698101390693 0.8012947237290213
12613573333.333334 -0.588375163541452 0.8085880699882825 4.843901789872577e-17 -1.3686900374881037e-16 4.843901789872577e-17 -1.3686900374881037e-16 -0.5883757296937139 0.8085876580230469
12614190666.666666 -0.5783921864659467 0.8157588360753117 4.673173413755077e-17 -1.3743128385035584e-16 4.673173413755077e-17 -1.3743128385035584e-16 -0.578392757611048 0.8157584311197117
12614808000.0 -0.5683218260645749 0.822806357546193 4.501795613328621e-17 -1.3797228028882647e-16 4.501795613328621e-17 -1.3797228028882647e-16 -0.5683224021157427 0.8228059596607199
12615425333.333334 -0.5581656037645997 0.8297295696634576 4.3297949059494664e-17 -1.3849191848776216e-16 4.3297949059494664e-17 -1.3849191848776216e-16 -0.5581661846343287 0.8297291789075293
12616042666.666666 -0.5479250539652741 0.8365274264702609 4.157197894042764e-17 -1.3899012717257465e-16 4.157197894042764e-17 -1.3899012717257465e-16 -0.5479256395653395 0.8365270429022121
12616660000.0 -0.5376017238060248 0.8431989009484047 3.9840312609934894e-17 -1.394668383801741e-16 3.9840312609934894e-17 -1.394668383801741e-16 -0.5376023140474956 0.8431985246254786
12617277333.333334 -0.5271971729326846 0.8497429851735119 3.810321767026255e-17 -1.3992198746808752e-16 3.810321767026255e-17 -1.3992198746808752e-16 -0.527197767725938 0.8497426161518524
12617894666.666666 -0.5167129732619846 0.8561586904672321 3.636096245077312e-17 -1.4035551312305738e-16 3.636096245077312e-17 -1.4035551312305738e-16 -0.5167135725167181 0.856158328801873
12618512000.0 -0.5061507087438027 0.8624450475467718 3.461381596650662e-17 -1.407673573691442e-16 3.461381596650662e-17 -1.407673573691442e-16 -0.5061513123690492 0.8624446932916312
12619129333.333334 -0.4955119751221986 0.8686011066711257 3.286204787675272e-17 -1.411574655752892e-16 3.286204787675272e-17 -1.411574655752892e-16 -0.49551258302633944 0.8686007598789971
12619746666.666666 -0.4847983796941147 0.874625937784701 3.110592844344845e-17 -1.4152578646238453e-16 3.110592844344845e-17 -1.4152578646238453e-16 -0.4847989917848938 0.874625598507245
12620364000.0 -0.47401154106641674 0.8805186306578914 2.9345728489515624e-17 -1.41872272109822e-16 2.9345728489515624e-17 -1.41872272109822e-16 -0.47401215725095447 0.880518298945628
12620981333.333334 -0.46315308891182855 0.8862782950243338 2.758171935722937e-17 -1.4219687796150423e-16 2.758171935722937e-17 -1.4219687796150423e-16 -0.46315370909663617 0.8862779709266357
12621598666.666666 -0.4522246637222247 0.8919040607156847 2.5814172866346217e-17 -1.4249956283137495e-16 2.5814172866346217e-17 -1.4249956283137495e-16 -0.4522252878132187 0.8919037442807706
12622216000.0 -0.44122791656106025 0.8973950777929379 2.4043361272336544e-17 -1.427802889083977e-16 2.4043361272336544e-17 -1.427802889083977e-16 -0.4412285444635753 0.897394769067862
12622833333.333334 -0.4301645088137238 0.9027505166749312 2.2269557224473845e-17 -1.4303902176103384e-16 2.2269557224473845e-17 -1.4303902176103384e-16 -0.43016514043252857 0.9027502157055793
12623450666.666666 -0.4190361119368946 0.9079695682635058 2.0493033723928687e-17 -1.4327573034119298e-16 2.0493033723928687e-17 -1.4327573034119298e-16 -0.41903674717620565 0.9079692750945881
12624068000.0 -0.4078444072056631 0.9130514440659241 1.8714064081784486e-17 -1.434903869876695e-16 1.8714064081784486e-17 -1.434903869876695e-16 -0.4078450459691589 0.9130511587409665
12624685333.333334 -0.39659108545951866 0.9179953763139811 1.6932921877038376e-17 -1.4368296742905582e-16 1.6932921877038376e-17 -1.4368296742905582e-16 -0.3965917276503556 0.9179950988753225
12625302666.666666 -0.3852778468472909 0.9228006180798336 1.5149880914622575e-17 -1.4385345078613096e-16 1.5149880914622575e-17 -1.4385345078613096e-16 -0.3852784923681163 0.9228003485686156
12625920000.0 -0.37390640056979485 0.9274664433890567 1.336521518330524e-17 -1.4400181957373912e-16 1.336521518330524e-17 -1.4400181957373912e-16 -0.37390704932276314 0.9274661818452206
12626537333.333334 -0.3624784646219727 0.931992147330172 1.1579198813698316e-17 -1.4412805970213593e-16 1.1579198813698316e-17 -1.4412805970213593e-16 -0.36247911650875875 0.9319918937924496
12627154666.666666 -0.3509957655333135 0.936377046161155 9.792106036178219e-18 -1.442321604778218e-16 9.792106036178219e-18 -1.442321604778218e-16 -0.3509964204551294 0.9363768006670676
12627772000.0 -0.33946003810658737 0.9406204774129054 8.004211138807595e-18 -1.4431411460385382e-16 8.004211138807595e-18 -1.4431411460385382e-16 -0.33946069596419537 0.9406202399987528
12628389333.333334 -0.32787302515638583 0.9447217999890798 6.2157884253468e-18 -1.4437391817963232e-16 6.2157884253468e-18 -1.4437391817963232e-16 -0.32787368585011545 0.94472157068994
12629006666.666666 -0.3162364772452893 0.9486803942631563 4.427112173164424e-18 -1.4441157070017302e-16 4.427112173164424e-18 -1.4441157070017302e-16 -0.31623714067505027 0.9486801731128759
12629624000.0 -0.30455215241970884 0.952495662171922 2.638456591254598e-18 -1.444270750548564e-16 2.638456591254598e-18 -1.444270750548564e-16 -0.30455281848500826 0.9524954492031154
12630241333.333334 -0.2928218159441244 0.956167027305895 8.500957782482669e-19 -1.4442043752565744e-16 8.500957782482669e-19 -1.4442043752565744e-16 -0.29282248454408033 0.956166822549935
12630858666.666666 -0.28104724003454806 0.959693934996346 -9.376963195093456e-19 -1.4439166778485746e-16 -9.376963195093456e-19 -1.4439166778485746e-16 -0.28104791106790583 0.9596937384833631
12631476000.0 -0.2692302035904809 0.9630758523991944 -2.7246459499523627e-18 -1.443407788922366e-16 -2.7246459499523627e-18 -1.443407788922366e-16 -0.26923087695562836 0.9630756641580716
12632093333.333334 -0.25737249192651124 0.9663122685754048 -4.510479597069361e-18 -1.4426778729174953e-16 -4.510479597069361e-18 -1.4426778729174953e-16 -0.2573731675214934 0.9663120886337708
12632710666.666666 -0.2454758965024261 0.9694026945682259 -6.29492402274091e-18 -1.441727128076836e-16 -6.29492402274091e-18 -1.441727128076836e-16 -0.24547657422496164 0.9694025229524544
12633328000.0 -0.233542214652421 0.9723466634771005 -8.077706308550911e-18 -1.4405557864029834e-16 -8.077706308550911e-18 -1.4405557864029834e-16 -0.23354289439991668 0.9723465002123041
12633945333.333334 -0.2215732493138053 0.9751437305281355 -9.858553897397352e-18 -1.4391641136095376e-16 -9.858553897397352e-18 -1.4391641136095376e-16 -0.2215739309833724 0.9751435756381636
12634562666.666666 -0.20957080875447895 0.9777934731413385 -1.1637194635150393e-17 -1.4375524090672152e-16 -1.1637194635150393e-17 -1.4375524090672152e-16 -0.2095714922429482 0.9777933266487717
12635180000.0 -0.19753670629976589 0.9802954909944482 -1.341335681218315e-17 -1.435721005744824e-16 -1.341335681218315e-17 -1.435721005744824e-16 -0.1975373915037035 0.9802953529205983
12635797333.333334 -0.18547276005843102 0.9826494060834287 -1.5186769204830472e-17 -1.433670270145119e-16 -1.5186769204830472e-17 -1.433670270145119e-16 -0.18547344687415376 0.9826492764483308
12636414666.666666 -0.17338079264811085 0.9848548627795466 -1.695716111673679e-17 -1.4314006022355685e-16 -1.695716111673679e-17 -1.4314006022355685e-16 -0.17338148097170267 0.9848547416019616
12637032000.0 -0.16126263091978718 0.9869115278831412 -1.8724262420147606e-17 -1.42891243537397e-16 -1.8724262420147606e-17 -1.42891243537397e-16 -0.1612633206471139 0.9869114151805488
12637649333.333334 -0.14912010568189704 0.9888190906739346 -2.0487803597057138e-17 -1.4262062362290267e-16 -2.0487803597057138e-17 -1.4262062362290267e-16 -0.14912079670862302 0.988818986462534
12638266666.666666 -0.13695505142373604 0.9905772629579831 -2.2247515780262764e-17 -1.4232825046958435e-16 -2.2247515780262764e-17 -1.4232825046958435e-16 -0.13695574364533925 0.990577167252688
12638884000.0 -0.12476930603819102 0.9921857791112287 -2.400313079431986e-17 -1.420141773806324e-16 -2.400313079431986e-17 -1.420141773806324e-16 -0.12476999934997925 0.9921856919256666
12639501333.333334 -0.1125647105441843 0.993644396119613 -2.575438119634229e-17 -1.4167846096345912e-16 -2.575438119634229e-17 -1.4167846096345912e-16 -0.11256540484131089 0.9936443174661239
12640118666.666666 -0.10034310880873135 0.9949528936157759 -2.750100031666298e-17 -1.4132116111974088e-16 -2.750100031666298e-17 -1.4132116111974088e-16 -0.1003438039862109 0.994952823505408
12640736000.0 -0.08810634726763493 0.9961110739124241 -2.9242722299488406e-17 -1.4094234103493384e-16 -2.9242722299488406e-17 -1.4094234103493384e-16 -0.08810704322035938 0.9961110123549349
12641353333.333334 -0.07585627464762842 0.9971187620320818 -3.0979282143175946e-17 -1.4054206716733857e-16 -3.0979282143175946e-17 -1.4054206716733857e-16 -0.07585697127038288 0.9971187090359358
12641970666.666666 -0.06359474168605293 0.9979758057336316 -3.2710415740605087e-17 -1.4012040923661777e-16 -3.2710415740605087e-17 -1.4012040923661777e-16 -0.06359543887353161 0.9979757613060002
12642588000.0 -0.05132360085184245 0.9986820755352568 -3.4435859919247783e-17 -1.396774402118509e-16 -3.4435859919247783e-17 -1.396774402118509e-16 -0.051324298498664385 0.9986820396820136
12643205333.333334 -0.039044706065483444 0.9992374647340173 -3.6155352481127874e-17 -1.3921323629908414e-16 -3.6155352481127874e-17 -1.3921323629908414e-16 -0.03904540406620871 0.9992374374597429
12643822666.666666 -0.026759912418840147 0.999641889421978 -3.786863224262354e-17 -1.3872787692838826e-16 -3.786863224262354e-17 -1.3872787692838826e-16 -0.026760610667985567 0.9996418707299549
12644440000.0 -0.014471075895029453 0.9998952884988747 -3.9575439074086846e-17 -1.3822144474042965e-16 -3.9575439074086846e-17 -1.3822144474042965e-16 -0.01447177428708462 0.9998952783910877
12645057333.333334 -0.0021800530879913255 0.9999976236813473 -4.127551393925119e-17 -1.3769402557256579e-16 -4.127551393925119e-17 -1.3769402557256579e-16 -0.0021807515174345864 0.9999976221584863
12645674666.666666 0.010111299078004843 0.9999488795087288 -4.296859893452654e-17 -1.3714570844443614e-16 -4.296859893452654e-17 -1.3714570844443614e-16 0.010110600716690512 0.9999488865701862
12646292000.0 0.02240112362910285 0.9997490633453782 -4.465443732809753e-17 -1.3657658554307198e-16 -4.465443732809753e-17 -1.3657658554307198e-16 0.02240042544141388 0.9997490789892489
12646909333.333334 0.034687563822041294 0.9993982053795671 -4.633277359871393e-17 -1.359867522075627e-16 -4.633277359871393e-17 -1.359867522075627e-16 0.03468686591343757 0.9993982296026499
12647526666.666666 0.046968763424954 0.9988963586189203 -4.800335347444049e-17 -1.3537630691319573e-16 -4.800335347444049e-17 -1.3537630691319573e-16 0.04696806590084296 0.998896391416718
12648144000.0 0.059242866997780454 0.9982435988824021 -4.966592397111762e-17 -1.3474535125514566e-16 -4.966592397111762e-17 -1.3474535125514566e-16 0.059242169963501255 0.9982436402491245
12648761333.333334 0.07150802017247178 0.9974400247888697 -5.132023343058396e-17 -1.340939899317043e-16 -5.132023343058396e-17 -1.340939899317043e-16 0.0715073237332791 0.9974400747174295
12649378666.666666 0.08376236993314784 0.9964857577421717 -5.296603155873041e-17 -1.3342233072702277e-16 -5.296603155873041e-17 -1.3342233072702277e-16 0.08376167419419636 0.9964858162241911
12649996000.0 0.0960040648961926 0.9953809419128015 -5.460306946333051e-17 -1.327304844933884e-16 -5.460306946333051e-17 -1.327304844933884e-16 0.0960033699625209 0.9953810089386109
12650613333.333334 0.10823125558987515 0.994125744216117 -5.623109969161415e-17 -1.320185651330468e-16 -5.623109969161415e-17 -1.320185651330468e-16 0.10823056156638984 0.9941258197747562
12651230666.666666 0.12044209473365428 0.9927203542871362 -5.784987626760306e-17 -1.3128668957956829e-16 -5.784987626760306e-17 -1.3128668957956829e-16 0.12044140172511446 0.9927204383663595
12651848000.0 0.13263473751752003 0.9911649844518652 -5.945915472925766e-17 -1.3053497777873245e-16 -5.945915472925766e-17 -1.3053497777873245e-16 0.1326340456285211 0.9911650770381388
12652465333.333334 0.14480734188059316 0.9894598696952217 -6.105869216530636e-17 -1.297635526689909e-16 -6.105869216530636e-17 -1.297635526689909e-16 0.14480665121555109 0.9894599707737278
12653082666.666666 0.15695806878911356 0.9876052676255824 -6.264824725185704e-17 -1.2897254016146478e-16 -6.264824725185704e-17 -1.2897254016146478e-16 0.15695737945224947 0.9876053771802232
12653700000.0 0.16908508251498527 0.9856014584357661 -6.422758028878721e-17 -1.281620691194758e-16 -6.422758028878721e-17 -1.281620691194758e-16 0.16908439461030905 0.9856015764491622
12654317333.333334 0.18118655091230115 0.9834487448608148 -6.579645323578367e-17 -1.2733227133767674e-16 -6.579645323578367e-17 -1.2733227133767674e-16 0.18118586454359664 0.9834488713143138
12654934666.666666 0.19326064569470655 0.9811474521321828 -6.73546297481977e-17 -1.2648328152069933e-16 -6.73546297481977e-17 -1.2648328152069933e-16 0.19325996096551512 0.9811475870058572
12655552000.0 0.20530554271158533 0.978697927928587 -6.890187521260785e-17 -1.2561523726137278e-16 -6.890187521260785e-17 -1.2561523726137278e-16 0.20530485972519086 0.9786980712012404
12656169333.333334 0.2173194222232628 0.9761005423235638 -7.043795678203574e-17 -1.2472827901854543e-16 -7.043795678203574e-17 -1.2472827901854543e-16 0.21731874108267565 0.9761006939727322
12656786666.666666 0.22930046917632144 0.9733556877294792 -7.196264341098141e-17 -1.2382255009442006e-16 -7.196264341098141e-17 -1.2382255009442006e-16 0.22929978998426298 0.9733558477314355
12657404000.0 0.2412468734776511 0.9704637788382756 -7.347570589009742e-17 -1.2289819661150102e-16 -7.347570589009742e-17 -1.2289819661150102e-16 0.24124619633653865 0.9704639471680341
12658021333.333334 0.2531568302679736 0.9674252525588111 -7.49769168805968e-17 -1.219553674891031e-16 -7.49769168805968e-17 -1.219553674891031e-16 0.25315615527990437 0.967425429190129
12658638666.666666 0.26502854019438205 0.9642405679508836 -7.646605094833642e-17 -1.2099421441945512e-16 -7.646605094833642e-17 -1.2099421441945512e-16 0.2650278674611179 0.964240752856267
12659256000.0 0.2768602096824616 0.9609102061558051 -7.794288459764715e-17 -1.2001489184335614e-16 -7.794288459764715e-17 -1.2001489184335614e-16 0.27685953930541407 0.9609103993065127
12659873333.333334 0.2886500512070146 0.9574346703237752 -7.94071963047886e-17 -1.190175569254613e-16 -7.94071963047886e-17 -1.190175569254613e-16 0.2886493832872295 0.9574348716898241
12660490666.666666 0.300396283562121 0.9538144855378713 -8.085876655111982e-17 -1.180023695291409e-16 -8.085876655111982e-17 -1.180023695291409e-16 0.30039561820026295 0.9538146950880396
12661108000.0 0.31209713213051365 0.9500501987346343 -8.229737785598307e-17 -1.1696949219091234e-16 -8.229737785598307e-17 -1.1696949219091234e-16 0.31209646942685093 0.9500504164364661
12661725333.333334 0.32375082915130654 0.946142378621553 -8.372281480918243e-17 -1.1591909009452786e-16 -8.372281480918243e-17 -1.1591909009452786e-16 0.3237501692056964 0.9461426044413658
12662342666.666666 0.33535561398736696 0.942091615591055 -8.513486410321607e-17 -1.148513310446092e-16 -8.513486410321607e-17 -1.148513310446092e-16 0.33535495689924 0.9420918494939422
12662960000.0 0.3469097333911758 0.9378985216313505 -8.653331456511696e-17 -1.137663854399303e-16 -8.653331456511696e-17 -1.137663854399303e-16 0.34690907925952114 0.9378987635811872
12663577333.333334 0.35841144176973394 0.9335637302339614 -8.79179571879907e-17 -1.1266442624628723e-16 -8.79179571879907e-17 -1.1266442624628723e-16 0.3584107906930849 0.9335639801934122
12664194666.666666 0.3698590014482881 0.929087896298022 -8.928858516217346e-17 -1.1154562896901188e-16 -8.928858516217346e-17 -1.1154562896901188e-16 0.36985835352470625 0.9290881542285431
12664812000.0 0.381250682932856 0.9244716960313278 -9.064499390607305e-17 -1.1041017162508298e-16 -9.064499390607305e-17 -1.1041017162508298e-16 0.3812500382599174 0.9244719618931767
12665429333.333334 0.3925847651715452 0.9197158268481689 -9.198698109664476e-17 -1.0925823471487332e-16 -9.198698109664476e-17 -1.0925823471487332e-16 0.3925841238463255 0.9197161006004086
12666046666.666666 0.4038595358144125 0.9148210072640311 -9.331434669949264e-17 -1.0809000119354008e-16 -9.331434669949264e-17 -1.0809000119354008e-16 0.4038588979334716 0.9148212888645353
12666664000.0 0.41507329147258093 0.9097879767868587 -9.462689299865843e-17 -1.0690565644200836e-16 -9.462689299865843e-17 -1.0690565644200836e-16 0.4150726571319499 0.9097882661923217
12667281333.333334 0.42622433797496545 0.9046174958056096 -9.592442462596724e-17 -1.0570538823766116e-16 -9.592442462596724e-17 -1.0570538823766116e-16 0.4262237072701298 0.904617792971548
12667898666.666666 0.43731099062471857 0.8993103454751513 -9.720674859007504e-17 -1.0448938672460908e-16 -9.720674859007504e-17 -1.0448938672460908e-16 0.4373103636506068 0.8993106503559168
12668516000.0 0.4483315744537282 0.8938673275982565 -9.847367430510986e-17 -1.0325784438363562e-16 -9.847367430510986e-17 -1.0325784438363562e-16 0.4483309513046951 0.8938676401470381
12669133333.333334 0.45928442447531176 0.8882892645046375 -9.972501361890753e-17 -1.0201095600182179e-16 -9.972501361890753e-17 -1.0201095600182179e-16 0.4592838052451251 0.88828958467347
12669750666.666666 0.4701678859361203 0.8825769989265344 -1.0096058084091954e-16 -1.0074891864177648e-16 -1.0096058084091954e-16 -1.0074891864177648e-16 0.47016727071794695 0.8825773266663071
