! Parameters = {f0=12700.012000; bw=77.238000; Q=6100.000000; N=10; m_0_1=1.272968; m_1_1=0.329774; m_1_2=1.107780; m_2_2=0.329125; m_2_3=0.744743; m_2_8=0.000712; m_2_9=0.037416; m_3_3=0.327188; m_3_4=0.633272; m_3_7=0.001312; m_3_8=-0.095776; m_3_9=0.000712; m_4_4=0.324263; m_4_5=0.469607; m_4_6=0.004829; m_4_7=-0.116325; m_4_8=0.001312; m_5_5=0.324645; m_5_6=0.876962; m_5_7=0.004829; m_6_6=0.324644; m_6_7=0.469949; m_7_7=0.324277; m_7_8=0.633390; m_8_8=0.327186; m_8_9=0.745056; m_9_9=0.329120; m_9_10=1.108858; m_10_10=0.329764; m_10_11=1.273763}
!
! Created with skrf (http://scikit-rf.org).
# Hz S RI R 50.0 
!freq ReS11 ImS11 ReS21 ImS21 ReS12 ImS12 ReS22 ImS22
12607400000.0 0.5173618022847123 -0.8557667705260219 -2.8373639295571966e-17 1.0851067422650549e-16 -2.8373639295571966e-17 1.0851067422650549e-16 0.5173623762215164 -0.8557664235468977
12608017333.333334 0.508252574704599 -0.8612080586629276 -2.720571221264022e-17 1.0878672999438103e-16 -2.720571221264022e-17 1.0878672999438103e-16 0.5082531522624336 -0.8612077178097755
12608634666.666666 0.4990861251834329 -0.8665523871349095 -2.6035127940327063e-17 1.0905022354511297e-16 -2.6035127940327063e-17 1.0905022354511297e-16 0.49908670629692187 -0.866552052445502
12609252000.0 0.4898634857318242 -0.8717991542474037 -2.4862021507530023e-17 1.0930112963819575e-16 -2.4862021507530023e-17 1.0930112963819575e-16 0.489864070335198 -0.8717988257588185
12609869333.333334 0.48058569468666135 -0.8769477692898038 -2.3686528178895414e-17 1.095394244835653e-16 -2.3686528178895414e-17 1.095394244835653e-16 0.4805862827137627 -0.876947447038413
12610486666.666666 0.47125379659410754 -0.8819976526020129 -2.2508783439298293e-17 1.0976508574374274e-16 -2.2508783439298293e-17 1.0976508574374274e-16 0.47125438797840197 -0.8819973366234869
12611104000.0 0.4618688420918545 -0.8869482356397983 -2.132892297817554e-17 1.0997809253583783e-16 -2.132892297817554e-17 1.0997809253583783e-16 0.46186943676643466 -0.8869479259690948
12611721333.333334 0.45243188779118154 -0.8917989610386023 -2.0147082673997512e-17 1.1017842543335276e-16 -2.0147082673997512e-17 1.1017842543335276e-16 0.45243248568877664 -0.8917986577099661
12612338666.666666 0.44294399615764646 -0.896549282676484 -1.8963398578599466e-17 1.1036606646784453e-16 -1.8963398578599466e-17 1.1036606646784453e-16 0.44294459721062973 -0.8965489857234434
12612956000.0 0.43340623539161766 -0.9011986657355239 -1.7778006901549007e-17 1.1054099913040866e-16 -1.7778006901549007e-17 1.1054099913040866e-16 0.4334068395320138 -0.9011983751908862
12613573333.333334 0.42381967930811243 -0.9057465867619875 -1.6591043994526973e-17 1.1070320837299246e-16 -1.6591043994526973e-17 1.1070320837299246e-16 0.4238202864676053 -0.9057463026578355
12614190666.666666 0.4141854072158008 -0.9101925337253128 -1.5402646335638428e-17 1.1085268060955033e-16 -1.5402646335638428e-17 1.1085268060955033e-16 0.4141860173257401 -0.9101922560929993
12614808000.0 0.4045045037953321 -0.914536006075821 -1.4212950513762415e-17 1.1098940371702293e-16 -1.4212950513762415e-17 1.1098940371702293e-16 0.40450511678674356 -0.9145357349459701
12615425333.333334 0.3947780589775815 -0.9187765148009153 -1.3022093212876343e-17 1.111133670361524e-16 -1.3022093212876343e-17 1.111133670361524e-16 0.3947786747811718 -0.9187762502034127
12616042666.666666 0.385007167820521 -0.922913582480313 -1.1830211196378855e-17 1.1122456137212943e-16 -1.1830211196378855e-17 1.1122456137212943e-16 0.38500778636668775 -0.9229133244443082
12616660000.0 0.3751929303863499 -0.9269467433396196 -1.0637441291409565e-17 1.1132297899507146e-16 -1.0637441291409565e-17 1.1132297899507146e-16 0.3751935516051893 -0.9269464918935216
12617277333.333334 0.3653364516172259 -0.9308755433029475 -9.443920373164638e-18 1.1140861364033445e-16 -9.443920373164638e-18 1.1140861364033445e-16 0.3653370754385392 -0.9308752984744185
12617894666.666666 0.3554388412112826 -0.9346995400438597 -8.249785349235148e-18 1.1148146050865507e-16 -8.249785349235148e-18 1.1148146050865507e-16 0.35543946756458555 -0.9346993018598155
12618512000.0 0.3455012134972738 -0.9384183030353436 -7.055173143878046e-18 1.1154151626612945e-16 -7.055173143878046e-18 1.1154151626612945e-16 0.34550184231180336 -0.9384180715219486
12619129333.333334 0.33552468730948404 -0.9420314135981329 -5.860220682421469e-18 1.1158877904401623e-16 -5.860220682421469e-18 1.1158877904401623e-16 0.3355253185142074 -0.9420311887807977
12619746666.666666 0.32551038586160724 -0.9455384649479105 -4.6650648755205865e-18 1.1162324843838168e-16 -4.6650648755205865e-18 1.1162324843838168e-16 0.3255110193852295 -0.9455382468512905
12620364000.0 0.3154594366201272 -0.9489390622411614 -3.469842603532314e-18 1.1164492550957052e-16 -3.469842603532314e-18 1.1164492550957052e-16 0.3154600723910996 -0.948938850889153
12620981333.333334 0.30537297117775675 -0.9522328226194954 -2.2746907008773986e-18 1.1165381278151158e-16 -2.2746907008773986e-18 1.1165381278151158e-16 0.30537360912428396 -0.952232618035232
12621598666.666666 0.2952521251256058 -0.9554193752528976 -1.079745940372635e-18 1.1164991424085713e-16 -1.079745940372635e-18 1.1164991424085713e-16 0.2952527651756548 -0.9554191774587489
12622216000.0 0.28509803792576177 -0.9584983613813347 1.148549823793253e-19 1.1163323533595403e-16 1.148549823793253e-19 1.1163323533595403e-16 0.2850986800070703 -0.9584981703989056
12622833333.333334 0.2749118527825706 -0.9614694343552878 1.3089754646074303e-18 1.116037829756484e-16 1.3089754646074303e-18 1.116037829756484e-16 0.2749124968226541 -0.9614692502054123
12623450666.666666 0.26469471651430665 -0.9643322596746592 2.5024790119539227e-18 1.11561565527924e-16 2.5024790119539227e-18 1.11561565527924e-16 0.2646953624404674 -0.9643320823774002
12624068000.0 0.25444777942389596 -0.9670865150264844 3.695229254066085e-18 1.1150659281837384e-16 3.695229254066085e-18 1.1150659281837384e-16 0.25444842716323124 -0.9670863446011327
12624685333.333334 0.24417219516924363 -0.9697318903212655 4.887089960154994e-18 1.1143887612850502e-16 4.887089960154994e-18 1.1143887612850502e-16 0.24417284464865346 -0.9697317267863352
12625302666.666666 0.23386912063378745 -0.9722680877277633 6.077925054497398e-18 1.113584281938802e-16 6.077925054497398e-18 1.113584281938802e-16 0.23386977177998322 -0.9722679311009916
12625920000.0 0.22353971579553322 -0.9746948217067098 7.267598631992932e-18 1.1126526320208862e-16 7.267598631992932e-18 1.1126526320208862e-16 0.22354036853504564 -0.9746946720050537
12626537333.333334 0.21318514359739657 -0.9770118190427286 8.455974973603993e-18 1.1115939679055836e-16 8.455974973603993e-18 1.1115939679055836e-16 0.21318579785658434 -0.977011676282364
12627154666.666666 0.20280656981560982 -0.9792188188752544 9.64291856183151e-18 1.1104084604419795e-16 9.64291856183151e-18 1.1104084604419795e-16 0.2028072255206681 -0.9792186830715762
12627772000.0 0.19240516292830434 -0.981315572727935 1.0828294096161586e-17 1.1090962949287414e-16 1.0828294096161586e-17 1.1090962949287414e-16 0.19240582000527218 -0.981315443895551
12628389333.333334 0.18198209398490153 -0.9833018445364037 1.2011966508415036e-17 1.1076576710873088e-16 1.2011966508415036e-17 1.1076576710873088e-16 0.18198275235967093 -0.9833017226891358
12629006666.666666 0.17153853647304482 -0.9851774106751077 1.3193800978171502e-17 1.1060928030333391e-16 1.3193800978171502e-17 1.1060928030333391e-16 0.17153919607136897 -0.9851772958259908
12629624000.0 0.1610756661875413 -0.986942059982278 1.437366294804578e-17 1.1044019192466346e-16 1.437366294804578e-17 1.1044019192466346e-16 0.16107632693504312 -0.9869419521435588
12630241333.333334 0.15059466109725844 -0.9885955937838408 1.5551418139013176e-17 1.1025852625393523e-16 1.5551418139013176e-17 1.1025852625393523e-16 0.15059532291943845 -0.9885954929669737
12630858666.666666 0.14009670121300488 -0.9901378259156942 1.672693256564346e-17 1.1006430900226427e-16 1.672693256564346e-17 1.1006430900226427e-16 0.14009736403524992 -0.9901377321313424
12631476000.0 0.1295829684542295 -0.9915685827447412 1.7900072551351734e-17 1.0985756730715857e-16 1.7900072551351734e-17 1.0985756730715857e-16 0.12958363220182126 -0.9915684960027757
12632093333.333334 0.11905464651634748 -0.9928877031883769 1.907070474353294e-17 1.0963832972886303e-16 1.907070474353294e-17 1.0963832972886303e-16 0.11905531111447082 -0.9928876234978761
12632710666.666666 0.10851292073730541 -0.9940950387326567 2.023869612871284e-17 1.0940662624653242e-16 2.023869612871284e-17 1.0940662624653242e-16 0.10851358611105653 -0.9940949661019018
12633328000.0 0.09795897796395864 -0.9951904534490267 2.1403914047650866e-17 1.0916248825424292e-16 2.1403914047650866e-17 1.0916248825424292e-16 0.09795964403835394 -0.9951903878855052
12633945333.333334 0.08739400641884545 -0.9961738240095882 2.2566226210353238e-17 1.0890594855685242e-16 2.2566226210353238e-17 1.0890594855685242e-16 0.08739467311882967 -0.9961737655199899
12634562666.666666 0.07681919556595761 -0.9970450397010266 2.372550071108135e-17 1.0863704136569226e-16 2.372550071108135e-17 1.0863704136569226e-16 0.07681986281641248 -0.9970449882912461
12635180000.0 0.06623573597727687 -0.9978040024370373 2.4881606043291795e-17 1.0835580229410382e-16 2.4881606043291795e-17 1.0835580229410382e-16 0.06623640370302945 -0.9978039581121699
12635797333.333334 0.05564481919828026 -0.9984506267694033 2.6034411114530866e-17 1.0806226835281417e-16 2.6034411114530866e-17 1.0806226835281417e-16 0.05564548732411139 -0.9984505895337462
12636414666.666666 0.045047637614185926 -0.998984839897585 2.7183785261260845e-17 1.0775647794515895e-16 2.7183785261260845e-17 1.0775647794515895e-16 0.045048306064838894 -0.998984809754639
12637032000.0 0.034445384315537945 -0.9994065816769356 2.8329598263658674e-17 1.0743847086213927e-16 2.8329598263658674e-17 1.0743847086213927e-16 0.034446053015726716 -0.9994065586294005
12637649333.333334 0.023839252963710734 -0.9997158046254727 2.9471720360342965e-17 1.071082882773268e-16 2.9471720360342965e-17 1.071082882773268e-16 0.023839921838128532 -0.999715788675249
12638266666.666666 0.013230437656917513 -0.9999124739292085 3.0610022263027425e-17 1.0676597274161595e-16 3.0610022263027425e-17 1.0676597274161595e-16 0.013231106630245387 -0.9999124650774
12638884000.0 0.0026201327953176787 -0.999996567446088 3.174437517114208e-17 1.064115681778139e-16 3.174437517114208e-17 1.064115681778139e-16 0.0026208017922328426 -0.9999965656929976
12639501333.333334 -0.00799046705305789 -0.9999680757084689 3.2874650786380455e-17 1.0604511987507831e-16 3.2874650786380455e-17 1.0604511987507831e-16 -0.007989798107873503 -0.9999680810535995
12640118666.666666 -0.018600167286911624 -0.9998270019241942 3.4000721327166057e-17 1.0566667448320767e-16 3.4000721327166057e-17 1.0566667448320767e-16 -0.01859949846876291 -0.999827014366252
12640736000.0 -0.029207773406628907 -0.9995733619762233 3.512245954311951e-17 1.0527628000675522e-16 3.512245954311951e-17 1.0527628000675522e-16 -0.029207104790799104 -0.9995733815131143
12641353333.333334 -0.03981209114779548 -0.9992071844208608 3.6239738729340043e-17 1.0487398579903159e-16 3.6239738729340043e-17 1.0487398579903159e-16 -0.03981142280953767 -0.9992072110496918
12641970666.666666 -0.050411926616677205 -0.9987285104845155 3.7352432740753217e-17 1.0445984255590915e-16 3.7352432740753217e-17 1.0445984255590915e-16 -0.05041125863120592 -0.9987285442015968
12642588000.0 -0.06100608642389699 -0.9981373940590866 3.846041600629649e-17 1.0403390230950698e-16 3.846041600629649e-17 1.0403390230950698e-16 -0.06100541886637966 -0.9981374348599299
12643205333.333334 -0.07159337781924746 -0.9974339016958743 3.956356354306647e-17 1.0359621842171409e-16 3.956356354306647e-17 1.0359621842171409e-16 -0.07159271076479605 -0.9974339495751945
12643822666.666666 -0.08217260882575045 -0.9966181125980972 4.0661750970402023e-17 1.0314684557755976e-16 4.0661750970402023e-17 1.0314684557755976e-16 -0.08217194234941294 -0.9966181675498134
12644440000.0 -0.09274258837396995 -0.9956901186119708 4.175485452386662e-17 1.0268583977844513e-16 4.175485452386662e-17 1.0268583977844513e-16 -0.0927419225507218 -0.995690180629205
12645057333.333334 -0.10330212643599583 -0.99465002421637 4.28427510691724e-17 1.0221325833522018e-16 4.28427510691724e-17 1.0221325833522018e-16 -0.10330146134073184 -0.994650093291451
12645674666.666666 -0.11385003415925489 -0.9934979465110934 4.3925318116020746e-17 1.0172915986111592e-16 4.3925318116020746e-17 1.0172915986111592e-16 -0.11384936986678053 -0.9934980226355561
12646292000.0 -0.1243851240010934 -0.9922340152035989 4.5002433831901385e-17 1.0123360426451372e-16 4.5002433831901385e-17 1.0123360426451372e-16 -0.1243844605861164 -0.9922340983681844
12646909333.333334 -0.13490620986157253 -0.9908583725944944 4.607397705570686e-17 1.0072665274161502e-16 4.607397705570686e-17 1.0072665274161502e-16 -0.13490554739869454 -0.9908584627891522
12647526666.666666 -0.14541210721745887 -0.9893711735614706 4.7139827311403505e-17 1.0020836776890584e-16 4.7139827311403505e-17 1.0020836776890584e-16 -0.14541144578116716 -0.9893712707753615
12648144000.0 -0.15590163325564071 -0.9877725855418573 4.8199864821514574e-17 9.967881309552274e-17 4.8199864821514574e-17 9.967881309552274e-17 -0.15590097292029978 -0.9877726897633521
12648761333.333334 -0.16637360700618306 -0.9860627885137824 4.92539705205561e-17 9.913805373546087e-17 4.92539705205561e-17 9.913805373546087e-17 -0.1663729478460258 -0.9860628997304619
12649378666.666666 -0.1768268494751747 -0.9842419749759242 5.0302026068380163e-17 9.858615595964226e-17 5.0302026068380163e-17 9.858615595964226e-17 -0.17682619156429494 -0.9842420931745859
12649996000.0 -0.18726018377758036 -0.9823103499258322 5.134391386344684e-17 9.802318728783506e-17 5.134391386344684e-17 9.802318728783506e-17 -0.18725952718992392 -0.9823104750924883
12650613333.333334 -0.19767243526990685 -0.9802681308368068 5.237951705598379e-17 9.744921648044422e-17 5.237951705598379e-17 9.744921648044422e-17 -0.19767178007926348 -0.9802682629566862
12651230666.666666 -0.2080624316820615 -0.9781155476334942 5.340871956105252e-17 9.686431353016563e-17 5.340871956105252e-17 9.686431353016563e-17 -0.20806177796205613 -0.9781156866910438
12651848000.0 -0.21842900324977765 -0.9758528426659068 5.443140607156015e-17 9.626854965348082e-17 5.443140607156015e-17 9.626854965348082e-17 -0.2184283510738627 -0.9758529886447944
12652465333.333334 -0.22877098284592448 -0.9734802706822225 5.5447462071125034e-17 9.566199728204398e-17 5.5447462071125034e-17 9.566199728204398e-17 -0.22877033228737115 -0.9734804235653377
12653082666.666666 -0.23908720611207565 -0.9709980988000676 5.645677384687206e-17 9.504473005392059e-17 5.645677384687206e-17 9.504473005392059e-17 -0.23908655724396624 -0.9709982585695257
12653700000.0 -0.24937651158976495 -0.9684066064764034 5.745922850215721e-17 9.441682280467368e-17 5.745922850215721e-17 9.441682280467368e-17 -0.24937586448498422 -0.9684067731135458
12654317333.333334 -0.25963774085086344 -0.9657060854761575 5.845471396912997e-17 9.377835155835692e-17 5.845471396912997e-17 9.377835155835692e-17 -0.2596370955820905 -0.9657062589615543
12654934666.666666 -0.26986973862838737 -0.9628968398392783 5.944311902125699e-17 9.312939351833652e-17 5.944311902125699e-17 9.312939351833652e-17 -0.2698690952680877 -0.9628970201527304
12655552000.0 -0.2800713529463998 -0.9599791858465462 6.042433328573154e-17 9.247002705799056e-17 6.042433328573154e-17 9.247002705799056e-17 -0.2800707115668164 -0.9599793729670868
12656169333.333334 -0.29024143524959567 -0.9569534519839918 6.139824725573014e-17 9.180033171130993e-17 6.139824725573014e-17 9.180033171130993e-17 -0.29024079592274243 -0.9569536458898922
12656786666.666666 -0.3003788405327254 -0.9538199789058941 6.236475230264179e-17 9.112038816332093e-17 6.236475230264179e-17 9.112038816332093e-17 -0.3003782033303772 -0.953820179574661
12657404000.0 -0.3104824274696658 -0.950579119396365 6.332374068813948e-17 9.043027824041429e-17 6.332374068813948e-17 9.043027824041429e-17 -0.31048179246335195 -0.9505793268047483
12658021333.333334 -0.32055105854159227 -0.9472312383297378 6.427510557616566e-17 8.973008490053302e-17 6.427510557616566e-17 8.973008490053302e-17 -0.3205504258025878 -0.9472314524537305
12658638666.666666 -0.3305836001652116 -0.9437767126294397 6.521874104479275e-17 8.901989222324836e-17 6.521874104479275e-17 8.901989222324836e-17 -0.33058296976452894 -0.9437769334442799
12659256000.0 -0.3405789228204923 -0.9402159312255131 6.615454209801139e-17 8.829978539968228e-17 6.615454209801139e-17 8.829978539968228e-17 -0.34057829482887403 -0.9402161587056888
12659873333.333334 -0.3505359011777247 -0.9365492950108633 6.708240467736084e-17 8.756985072234277e-17 6.708240467736084e-17 8.756985072234277e-17 -0.3505352756656356 -0.9365495291301156
12660490666.666666 -0.3604534142240586 -0.9327772167961883 6.800222567347054e-17 8.683017557482097e-17 6.800222567347054e-17 8.683017557482097e-17 -0.3604527912616769 -0.9327774575275123
12661108000.0 -0.370330345390085 -0.9289001212633603 6.891390293751253e-17 8.608084842134675e-17 6.891390293751253e-17 8.608084842134675e-17 -0.37032972504729517 -0.928900368579009
12661725333.333334 -0.3801655826751734 -0.9249184449177511 6.981733529248096e-17 8.532195879627243e-17 6.981733529248096e-17 8.532195879627243e-17 -0.38016496502155833 -0.9249186987892402
12662342666.666666 -0.3899580187728279 -0.9208326360390338 7.071242254441693e-17 8.455359729338866e-17 7.071242254441693e-17 8.455359729338866e-17 -0.3899574038776611 -0.9208328964371433
12662960000.0 -0.3997065511954582 -0.9166431546306646 7.159906549347783e-17 8.377585555515509e-17 7.159906549347783e-17 8.377585555515509e-17 -0.3997059391276957 -0.9166434215254428
12663577333.333334 -0.40941008239839777 -0.9123504723681363 7.247716594490288e-17 8.298882626180327e-17 7.247716594490288e-17 8.298882626180327e-17 -0.40940947322667065 -0.9123507457289023
12664194666.666666 -0.4190675199033165 -0.9079550725459431 7.334662671985474e-17 8.219260312032903e-17 7.334662671985474e-17 8.219260312032903e-17 -0.41906691369592275 -0.9079553523412913
12664812000.0 -0.428677776421581 -0.9034574500230068 7.420735166615268e-17 8.138728085336176e-17 7.420735166615268e-17 8.138728085336176e-17 -0.4286771732464788 -0.9034577362208109
12665429333.333334 -0.43823976997630626 -0.8988581111671294 7.5059245668862e-17 8.057295518793939e-17 7.5059245668862e-17 8.057295518793939e-17 -0.4382391699011055 -0.898858403734545
12666046666.666666 -0.4477524240243251 -0.8941575737979102 7.590221466077208e-17 7.974972284416653e-17 7.590221466077208e-17 7.974972284416653e-17 -0.44775182711628037 -0.8941578727013797
12666664000.0 -0.4572146675775454 -0.8893563671283738 7.673616563277325e-17 7.891768152373792e-17 7.673616563277325e-17 7.891768152373792e-17 -0.457214073903548 -0.8893566723336287
12667281333.333334 -0.46662543532316997 -0.8844550317055621 7.75610066440558e-17 7.807692989840681e-17 7.75610066440558e-17 7.807692989840681e-17 -0.4666248449497402 -0.8844553431776274
12667898666.666666 -0.47598366774399165 -0.8794541193494981 7.837664683223606e-17 7.72275675982946e-17 7.837664683223606e-17 7.72275675982946e-17 -0.47598308073727275 -0.8794544370526987
12668516000.0 -0.48528831123752775 -0.8743541930911374 7.918299642333276e-17 7.636969520011672e-17 7.918299642333276e-17 7.636969520011672e-17 -0.4852877276632762 -0.8743545169890976
12669133333.333334 -0.4945383182345379 -0.8691558271090282 7.997996674159555e-17 7.550341421532556e-17 7.997996674159555e-17 7.550341421532556e-17 -0.49453773815811897 -0.8691561571646811
12669750666.666666 -0.5037326473170723 -0.8638596066646242 8.076747021924535e-17 7.462882707810813e-17 8.076747021924535e-17 7.462882707810813e-17 -0.5037320708034493 -0.8638599428402108
12670368000.0 -0.5128702633358608 -0.8584661280362961 8.154542040605373e-17 7.374603713331446e-17 8.154542040605373e-17 7.374603713331446e-17 -0.512869690449591 -0.858466470293374
