! Parameters = {f0=12700.012000; bw=77.238000; Q=6100.000000; N=10; m_0_1=1.245540; m_1_1=-0.081638; m_1_2=1.080352; m_2_2=-0.082287; m_2_3=0.717315; m_2_8=-0.000659; m_2_9=0.036045; m_3_3=-0.084224; m_3_4=0.605844; m_3_7=-0.000059; m_3_8=-0.097147; m_3_9=-0.000659; m_4_4=-0.087149; m_4_5=0.442179; m_4_6=0.003458; m_4_7=-0.117696; m_4_8=-0.000059; m_5_5=-0.086767; m_5_6=0.849534; m_5_7=0.003458; m_6_6=-0.086768; m_6_7=0.442521; m_7_7=-0.087135; m_7_8=0.605962; m_8_8=-0.084226; m_8_9=0.717628; m_9_9=-0.082292; m_9_10=1.081430; m_10_10=-0.081648; m_10_11=1.246335}
!
! Created with skrf (http://scikit-rf.org).
# Hz S RI R 50.0 
!freq ReS11 ImS11 ReS21 ImS21 ReS12 ImS12 ReS22 ImS22
12607400000.0 -0.9864061062689854 0.16432587597541987 8.848500368140437e-17 -4.308015568268775e-17 8.848500368140437e-17 -4.308015568268775e-17 -0.9864062141107051 0.1643252286279126
12608017333.333334 -0.9847483957871821 0.17398447342910034 8.803743938471402e-17 -4.3944415583083567e-17 8.803743938471402e-17 -4.3944415583083567e-17 -0.9847485099619471 0.1739838272011382
12608634666.666666 -0.9829961135078455 0.18362636201891477 8.75814409946661e-17 -4.480403958486773e-17 8.75814409946661e-17 -4.480403958486773e-17 -0.9829962340040707 0.1836257169724465
12609252000.0 -0.9811494277141076 0.19325061577161404 8.71170563988898e-17 -4.5658945455662333e-17 8.71170563988898e-17 -4.5658945455662333e-17 -0.9811495545196032 0.19324997196846905
12609869333.333334 -0.9792085157552977 0.20285631040748303 8.66443342860418e-17 -4.6509051456514603e-17 8.66443342860418e-17 -4.6509051456514603e-17 -0.9792086488572677 0.202855667909365
12610486666.666666 -0.9771735640299097 0.21244252342907632 8.616332414074145e-17 -4.735427634967741e-17 8.616332414074145e-17 -4.735427634967741e-17 -0.9771737034149561 0.21244188229755787
12611104000.0 -0.9750447679676513 0.22200833421009142 8.567407623840319e-17 -4.819453940638981e-17 8.567407623840319e-17 -4.819453940638981e-17 -0.9750449136217733 0.22200769450660757
12611721333.333334 -0.9728223320107516 0.23155282408339178 8.51766416400394e-17 -4.9029760414518375e-17 8.51766416400394e-17 -4.9029760414518375e-17 -0.9728224839193476 0.23155218586923462
12612338666.666666 -0.9705064695942778 0.24107507642948353 8.467107218694439e-17 -4.985985968622912e-17 8.467107218694439e-17 -4.985985968622912e-17 -0.9705066277421488 0.24107443976579646
12612956000.0 -0.9680974031256082 0.2505741767646543 8.415742049532371e-17 -5.0684758065565024e-17 8.415742049532371e-17 -5.0684758065565024e-17 -0.9680975674969553 0.2505735417124252
12613573333.333334 -0.9655953639631716 0.2600492128283824 8.363573995085611e-17 -5.150437693596234e-17 8.363573995085611e-17 -5.150437693596234e-17 -0.9655955345416006 0.2600485794484388
12614190666.666666 -0.9630005923941348 0.2694992746713335 8.31060847031688e-17 -5.23186382277325e-17 8.31060847031688e-17 -5.23186382277325e-17 -0.9630007691626582 0.2694986430243365
12614808000.0 -0.9603133376113716 0.2789234547425849 8.256850966024733e-17 -5.312746442547576e-17 8.256850966024733e-17 -5.312746442547576e-17 -0.9603135205524066 0.2789228248890228
12615425333.333334 -0.9575338576895235 0.28832084797678154 8.202307048277245e-17 -5.3930778575440073e-17 8.202307048277245e-17 -5.3930778575440073e-17 -0.9575340467848988 0.28832021997696494
12616042666.666666 -0.9546624195601908 0.2976905518811662 8.146982357838689e-17 -5.472850429282005e-17 8.146982357838689e-17 -5.472850429282005e-17 -0.954662614791145 0.2976899257952217
12616660000.0 -0.9516992989863418 0.30703166662208736 8.09088260958839e-17 -5.552056576900891e-17 8.09088260958839e-17 -5.552056576900891e-17 -0.9516995003335257 0.3070310425099517
12617277333.333334 -0.9486447805357889 0.3163432951115524 8.034013591933932e-17 -5.630688777877042e-17 8.034013591933932e-17 -5.630688777877042e-17 -0.9486449879792689 0.31634267303296726
12617894666.666666 -0.9454991575539151 0.32562454309321875 7.976381166216866e-17 -5.708739568736085e-17 7.976381166216866e-17 -5.708739568736085e-17 -0.9454993710731727 0.32562392310772426
12618512000.0 -0.9422627321353979 0.33487451922857087 7.917991266109604e-17 -5.786201545761429e-17 7.917991266109604e-17 -5.786201545761429e-17 -0.9422629517093339 0.3348739013955006
12619129333.333334 -0.9389358150953376 0.3440923351821186 7.858849897009735e-17 -5.863067365691164e-17 7.858849897009735e-17 -5.863067365691164e-17 -0.938936040702275 0.3440917195605939
12619746666.666666 -0.9355187259392805 0.35327710570708587 7.798963135422655e-17 -5.939329746415195e-17 7.798963135422655e-17 -5.939329746415195e-17 -0.9355189575569621 0.3532764923560093
12620364000.0 -0.9320117928325818 0.3624279487302639 7.738337128340808e-17 -6.014981467661666e-17 7.738337128340808e-17 -6.014981467661666e-17 -0.9320120304381769 0.3624273377083144
12620981333.333334 -0.9284153525689487 0.3715439854365914 7.676978092616278e-17 -6.090015371677384e-17 7.676978092616278e-17 -6.090015371677384e-17 -0.9284155961390539 0.3715433768022187
12621598666.666666 -0.9247297505380001 0.38062434035379106 7.614892314324416e-17 -6.16442436390464e-17 7.614892314324416e-17 -6.16442436390464e-17 -0.924730000048642 0.3806237341652102
12622216000.0 -0.9209553406921634 0.3896681414362894 7.552086148122574e-17 -6.23820141364966e-17 7.552086148122574e-17 -6.23820141364966e-17 -0.9209555961187997 0.3896675377514743
12622833333.333334 -0.9170924855126114 0.3986745201491205 7.488566016602882e-17 -6.311339554743864e-17 7.488566016602882e-17 -6.311339554743864e-17 -0.9170927468301341 0.3986739190257992
12623450666.666666 -0.9131415559745639 0.4076426115510761 7.424338409638005e-17 -6.383831886199524e-17 7.424338409638005e-17 -6.383831886199524e-17 -0.9131418231573033 0.40764201304672537
12624068000.0 -0.9091029315115648 0.41657155437800875 7.359409883719799e-17 -6.455671572859534e-17 7.359409883719799e-17 -6.455671572859534e-17 -0.9091032045332872 0.4165709585498472
12624685333.333334 -0.9049769999790293 0.4254604911255394 7.293787061292402e-17 -6.52685184603967e-17 7.293787061292402e-17 -6.52685184603967e-17 -0.9049772788129468 0.42545989803052464
12625302666.666666 -0.9007641576171408 0.43430856813113056 7.227476630080384e-17 -6.597366004162942e-17 7.227476630080384e-17 -6.597366004162942e-17 -0.9007644422359065 0.4343079778259505
12625920000.0 -0.8964648090125568 0.44311493565655385 7.160485342407834e-17 -6.667207413390105e-17 7.160485342407834e-17 -6.667207413390105e-17 -0.8964650993882727 0.4431143481976238
12626537333.333334 -0.8920793670598011 0.4518787479689831 7.092820014515063e-17 -6.736369508239503e-17 7.092820014515063e-17 -6.736369508239503e-17 -0.8920796631640197 0.45187816341243986
12627154666.666666 -0.8876082529214929 0.460599163422475 7.024487525866515e-17 -6.804845792203062e-17 7.024487525866515e-17 -6.804845792203062e-17 -0.8876085547252192 0.460598581824171
12627772000.0 -0.8830518959878326 0.4692753445389225 6.955494818452667e-17 -6.872629838355206e-17 6.955494818452667e-17 -6.872629838355206e-17 -0.8830522034615251 0.46927476595441986
12628389333.333334 -0.8784107338355399 0.47790645808812676 6.885848896089033e-17 -6.939715289951789e-17 6.885848896089033e-17 -6.939715289951789e-17 -0.8784110469491178 0.47790588257269356
12629006666.666666 -0.8736852121856552 0.4864916751681743 6.815556823705747e-17 -7.006095861025725e-17 6.815556823705747e-17 -7.006095861025725e-17 -0.8736855309084982 0.48649110277677843
12629624000.0 -0.8688757848608222 0.49503017128486365 6.744625726634537e-17 -7.071765336972282e-17 6.744625726634537e-17 -7.071765336972282e-17 -0.8688761091617736 0.49502960207216706
12630241333.333334 -0.8639829137417028 0.5035211264308862 6.673062789887891e-17 -7.136717575129323e-17 6.673062789887891e-17 -7.136717575129323e-17 -0.8639832435890747 0.5035205604512409
12630858666.666666 -0.8590070687226545 0.5119637251645307 6.600875257433981e-17 -7.200946505349219e-17 6.600875257433981e-17 -7.200946505349219e-17 -0.8590074040842292 0.5119631624719728
12631476000.0 -0.8539487276664574 0.5203571566882395 6.528070431464491e-17 -7.264446130564576e-17 6.528070431464491e-17 -7.264446130564576e-17 -0.8539490685094903 0.5203565973364842
12632093333.333334 -0.848808376358607 0.528700614926156 6.45465567166011e-17 -7.32721052734422e-17 6.45465567166011e-17 -7.32721052734422e-17 -0.8488087226498308 0.5287000589685924
12632710666.666666 -0.8435865084605954 0.5369932986016617 6.380638394447707e-17 -7.389233846444223e-17 6.380638394447707e-17 -7.389233846444223e-17 -0.8435868601662215 0.536992746091347
12633328000.0 -0.8382836254623585 0.545234411314542 6.306026072252448e-17 -7.450510313351289e-17 6.306026072252448e-17 -7.450510313351289e-17 -0.8382839825480842 0.5452338623041985
12633945333.333334 -0.8329002366343478 0.553423161617111 6.230826232746651e-17 -7.511034228817015e-17 6.230826232746651e-17 -7.511034228817015e-17 -0.832900599065355 0.5534226161591189
12634562666.666666 -0.8274368589784796 0.5615587630904342 6.155046458092681e-17 -7.57079996938531e-17 6.155046458092681e-17 -7.57079996938531e-17 -0.8274372267194414 0.5615582212368277
12635180000.0 -0.8218940171785195 0.5696404344198066 6.078694384179988e-17 -7.629801987912911e-17 6.078694384179988e-17 -7.629801987912911e-17 -0.8218943901936022 0.569639896222269
12635797333.333334 -0.8162722435496902 0.5776673994697867 6.001777699857784e-17 -7.688034814081696e-17 6.001777699857784e-17 -7.688034814081696e-17 -0.8162726218025572 0.5776668649796445
12636414666.666666 -0.8105720779875504 0.5856388873587328 5.924304146164006e-17 -7.745493054902464e-17 5.924304146164006e-17 -7.745493054902464e-17 -0.8105724614413656 0.5856383566269523
12637032000.0 -0.8047940679161467 0.5935541325328388 5.846281515546122e-17 -7.802171395213465e-17 5.846281515546122e-17 -7.802171395213465e-17 -0.8047944565335778 0.5935536056100191
12637649333.333334 -0.7989387682354392 0.6014123748396522 5.767717651081663e-17 -7.858064598167793e-17 5.767717651081663e-17 -7.858064598167793e-17 -0.7989391619786619 0.6014118517760227
12638266666.666666 -0.7930067412680106 0.6092128596010776 5.688620445690786e-17 -7.91316750571543e-17 5.688620445690786e-17 -7.91316750571543e-17 -0.7930071400987124 0.6092123404464921
12638884000.0 -0.7869985567050815 0.6169548376858309 5.60899784134585e-17 -7.967475039076273e-17 5.60899784134585e-17 -7.967475039076273e-17 -0.7869989605844652 0.6169543224897631
12639501333.333334 -0.7809147915517117 0.6246375655814963 5.528857828274874e-17 -8.020982199206305e-17 5.528857828274874e-17 -8.020982199206305e-17 -0.7809152004404986 0.6246370543930344
12640118666.666666 -0.7747560300715961 0.6322603054656608 5.44820844416453e-17 -8.073684067253145e-17 5.44820844416453e-17 -8.073684067253145e-17 -0.7747564439300314 0.6322597983335044
12640736000.0 -0.7685228637306019 0.6398223252772178 5.367057773351415e-17 -8.125575805008549e-17 5.367057773351415e-17 -8.125575805008549e-17 -0.7685232825184555 0.6398218222496708
12641353333.333334 -0.7622158911404091 0.6473228987861174 5.285413946019514e-17 -8.17665265534598e-17 5.285413946019514e-17 -8.17665265534598e-17 -0.7622163148169836 0.6473223999110861
12641970666.666666 -0.755835718000651 0.6547613056635772 5.20328513738301e-17 -8.226909942656841e-17 5.20328513738301e-17 -8.226909942656841e-17 -0.7558361465247813 0.6547608109885631
12642588000.0 -0.7493829570409358 0.6621368315510135 5.12067956687111e-17 -8.27634307327474e-17 5.12067956687111e-17 -8.27634307327474e-17 -0.7493833903709969 0.6621363411231113
12643205333.333334 -0.7428582279619167 0.6694487681287588 5.0376054973086174e-17 -8.324947535891696e-17 5.0376054973086174e-17 -8.324947535891696e-17 -0.7428586660558263 0.6694482819946507
12643822666.666666 -0.7362621573758121 0.676696413184041 4.9540712340895126e-17 -8.372718901968029e-17 4.9540712340895126e-17 -8.372718901968029e-17 -0.736262600191034 0.676695931389992
12644440000.0 -0.7295953787462469 0.6838790706784 4.870085124350277e-17 -8.419652826131863e-17 4.870085124350277e-17 -8.419652826131863e-17 -0.7295958262397955 0.6838785932702539
12645057333.333334 -0.7228585323274183 0.6909960508145347 4.7856555561365864e-17 -8.465745046572049e-17 4.7856555561365864e-17 -8.465745046572049e-17 -0.722858984455863 0.6909955778377094
12645674666.666666 -0.7160522651026279 0.6980466701025279 4.7007909575689763e-17 -8.510991385421245e-17 4.7007909575689763e-17 -8.510991385421245e-17 -0.716052721822098 0.6980462016020119
12646292000.0 -0.7091772307219322 0.7050302514257123 4.6154997960007975e-17 -8.555387749132905e-17 4.6154997960007975e-17 -8.555387749132905e-17 -0.7091776919881193 0.7050297874460592
12646909333.333334 -0.7022340894397398 0.7119461241053083 4.529790577178742e-17 -8.598930128846591e-17 4.529790577178742e-17 -8.598930128846591e-17 -0.7022345552079043 0.7119456646906339
12647526666.666666 -0.6952235080511302 0.7187936239651211 4.443671844394372e-17 -8.641614600747918e-17 4.443671844394372e-17 -8.641614600747918e-17 -0.6952239782761035 0.7187931691590975
12648144000.0 -0.6881461598278518 0.7255720933952821 4.357152177633707e-17 -8.68343732641917e-17 4.357152177633707e-17 -8.68343732641917e-17 -0.6881466344640426 0.7255716432411359
12648761333.333334 -0.6810027244537468 0.7322808814153249 4.2702401927268064e-17 -8.724394553179842e-17 4.2702401927268064e-17 -8.724394553179842e-17 -0.6810032034551446 0.7322804359558315
12649378666.666666 -0.673793887959498 0.7389193437366859 4.182944540490737e-17 -8.764482614420494e-17 4.182944540490737e-17 -8.764482614420494e-17 -0.6737943712796768 0.7389189030141643
12649996000.0 -0.6665203426565575 0.7454868428247519 4.095273905869421e-17 -8.803697929927936e-17 4.095273905869421e-17 -8.803697929927936e-17 -0.666520830248682 0.7454864068810637
12650613333.333334 -0.6591827870708467 0.7519827479599136 4.00723700707248e-17 -8.842037006200946e-17 4.00723700707248e-17 -8.842037006200946e-17 -0.659183278887675 0.7519823168364564
12651230666.666666 -0.6517819258756734 0.7584064352981386 3.918842594710193e-17 -8.879496436757867e-17 3.918842594710193e-17 -8.879496436757867e-17 -0.6517824218695639 0.758406009035844
12651848000.0 -0.6443184698238676 0.7647572879310538 3.83009945092458e-17 -8.916072902436007e-17 3.83009945092458e-17 -8.916072902436007e-17 -0.6443189699467814 0.7647568665703823
12652465333.333334 -0.6367931356797344 0.771034695945003 3.741016388520043e-17 -8.95176317168139e-17 3.741016388520043e-17 -8.95176317168139e-17 -0.6367936398832403 0.77103427952594
12653082666.666666 -0.6292066461501334 0.7772380564796937 3.6516022500906076e-17 -8.986564100830238e-17 3.6516022500906076e-17 -8.986564100830238e-17 -0.6292071543854146 0.7772376450417471
12653700000.0 -0.6215597298149864 0.7833667737861696 3.561865907140465e-17 -9.020472634383316e-17 3.561865907140465e-17 -9.020472634383316e-17 -0.6215602420328419 0.7833663673683638
12654317333.333334 -0.6138531210575248 0.7894202592838412 3.471816259210766e-17 -9.053485805268134e-17 3.471816259210766e-17 -9.053485805268134e-17 -0.6138536372083768 0.7894198579247155
12654934666.666666 -0.6060875599935652 0.7953979316171742 3.381462232995299e-17 -9.085600735095855e-17 3.381462232995299e-17 -9.085600735095855e-17 -0.6060880800274632 0.7953975353547779
12655552000.0 -0.5982637924004277 0.801299216711516 3.290812781457665e-17 -9.116814634407813e-17 3.290812781457665e-17 -9.116814634407813e-17 -0.5982643162670533 0.8012988255834065
12656169333.333334 -0.5903825696455431 0.8071235478280611 3.1998768829486434e-17 -9.147124802912608e-17 3.1998768829486434e-17 -9.147124802912608e-17 -0.5903830972942143 0.8071231618712978
12656786666.666666 -0.5824446486139744 0.8128703656185128 3.10866354031512e-17 -9.176528629716446e-17 3.10866354031512e-17 -9.176528629716446e-17 -0.5824451799936516 0.8128699848696558
12657404000.0 -0.574450791635979 0.8185391181786169 3.017181780013502e-17 -9.205023593542437e-17 3.017181780013502e-17 -9.205023593542437e-17 -0.5744513266952682 0.8185387426737216
12658021333.333334 -0.5664017664136605 0.8241292611012656 2.9254406512167534e-17 -9.232607262942605e-17 2.9254406512167534e-17 -9.232607262942605e-17 -0.56640230510082 0.8241288908758805
12658638666.666666 -0.5582983459473787 0.8296402575286789 2.8334492249229384e-17 -9.259277296499895e-17 2.8334492249229384e-17 -9.259277296499895e-17 -0.5582988882103245 0.8296398926178438
12659256000.0 -0.5501413084613072 0.8350715782041153 2.741216593056474e-17 -9.285031443023e-17 2.741216593056474e-17 -9.285031443023e-17 -0.5501418542476155 0.8350712186423543
12659873333.333334 -0.5419314373288079 0.8404227015226116 2.6487518675753117e-17 -9.309867541729984e-17 2.6487518675753117e-17 -9.309867541729984e-17 -0.541931986585722 0.8404223473439318
12660490666.666666 -0.533669520997342 0.8456931135809843 2.556064179571526e-17 -9.333783522424569e-17 2.556064179571526e-17 -9.333783522424569e-17 -0.5336700736717778 0.845692764818874
12661108000.0 -0.5253563529124193 0.8508823082274029 2.4631626783690163e-17 -9.356777405663707e-17 2.4631626783690163e-17 -9.356777405663707e-17 -0.5253569089509688 0.8508819649148258
12661725333.333334 -0.5169927314417553 0.855989787109767 2.3700565306261976e-17 -9.378847302914667e-17 2.3700565306261976e-17 -9.378847302914667e-17 -0.5169932907906931 0.8559894492791608
12662342666.666666 -0.5085794597983353 0.8610150597237343 2.2767549194293234e-17 -9.399991416705129e-17 2.2767549194293234e-17 -9.399991416705129e-17 -0.5085800224036233 0.8610147274070066
12662960000.0 -0.5001173459634203 0.8659576434597341 2.1832670433915057e-17 -9.4202080407626e-17 2.1832670433915057e-17 -9.4202080407626e-17 -0.500117911770713 0.8659573166882606
12663577333.333334 -0.49160720260883145 0.8708170636493932 2.089602115746302e-17 -9.439495560145972e-17 2.089602115746302e-17 -9.439495560145972e-17 -0.4916077715634812 0.8708167424540132
12664194666.666666 -0.48304984701904846 0.8755928536110295 1.995769363441826e-17 -9.457852451367663e-17 1.995769363441826e-17 -9.457852451367663e-17 -0.4830504190661109 0.875592538022045
12664812000.0 -0.4744461010126241 0.8802845546945313 1.9017780262338653e-17 -9.475277282506772e-17 1.9017780262338653e-17 -9.475277282506772e-17 -0.474446676096863 0.8802842447417026
12665429333.333334 -0.46579679086325876 0.8848917163254049 1.8076373557765036e-17 -9.49176871331364e-17 1.8076373557765036e-17 -9.49176871331364e-17 -0.4657973689291513 0.8848914120379469
12666046666.666666 -0.4571027472205981 0.8894138960479616 1.7133566147162283e-17 -9.507325495304482e-17 1.7133566147162283e-17 -9.507325495304482e-17 -0.4571033282123409 0.8894135974545433
12666664000.0 -0.44836480503008264 0.8938506595680106 1.61894507577831e-17 -9.521946471848384e-17 1.61894507577831e-17 -9.521946471848384e-17 -0.448365388891597 0.8938503666967519
12667281333.333334 -0.43958380345326836 0.898201580794306 1.524412020860665e-17 -9.535630578243844e-17 1.524412020860665e-17 -9.535630578243844e-17 -0.4395843901282052 0.8982012936727742
12667898666.666666 -0.4307605857868818 0.9024662418796479 1.429766740120672e-17 -9.548376841787384e-17 1.429766740120672e-17 -9.548376841787384e-17 -0.4307611752186274 0.902465960534855
12668516000.0 -0.42189599938185673 0.9066442332609945 1.3350185310628877e-17 -9.560184381832889e-17 1.3350185310628877e-17 -9.560184381832889e-17 -0.42189659151353825 0.906643957719396
12669133333.333334 -0.41299089556218915 0.9107351536986884 1.2401766976315732e-17 -9.571052409841251e-17 1.2401766976315732e-17 -9.571052409841251e-17 -0.41299149033668026 0.9107348839861796
12669750666.666666 -0.4040461295429479 0.9147386103150974 1.1452505492950487e-17 -9.580980229421997e-17 1.1452505492950487e-17 -9.580980229421997e-17 -0.40404672690287363 0.9147383464570114
12670368000.0 -0.39506256034814197 0.9186542186323446 1.0502494001353168e-17 -9.589967236365268e-17 1.0502494001353168e-17 -9.589967236365268e-17 -0.3950631602358845 0.9186539606534487
12670985333.333334 -0.3860410507284556 0.9224816026091262 9.551825679356795e-18 -9.598012918664972e-17 9.551825679356795e-18 -9.598012918664972e-17 -0.3860416530861607 0.9224813505336227
