! Parameters = {f0=12700.012000; bw=77.238000; Q=6100.000000; N=10; m_0_1=1.350445; m_1_1=1.491936; m_1_2=1.185257; m_2_2=1.491287; m_2_3=0.822220; m_2_8=0.004586; m_2_9=0.041290; m_3_3=1.489350; m_3_4=0.710749; m_3_7=0.005186; m_3_8=-0.091902; m_3_9=0.004586; m_4_4=1.486425; m_4_5=0.547084; m_4_6=0.008703; m_4_7=-0.112451; m_4_8=0.005186; m_5_5=1.486807; m_5_6=0.954439; m_5_7=0.008703; m_6_6=1.486806; m_6_7=0.547426; m_7_7=1.486439; m_7_8=0.710867; m_8_8=1.489348; m_8_9=0.822533; m_9_9=1.491282; m_9_10=1.186335; m_10_10=1.491926; m_10_11=1.351240}
!
! Created with skrf (http://scikit-rf.org).
# Hz S RI R 50.0 
!freq ReS11 ImS11 ReS21 ImS21 ReS12 ImS12 ReS22 ImS22
12607400000.0 -0.7582716559094047 0.6519387209272111 8.632890527489743e-17 -1.3390303809707737e-16 8.632890527489743e-17 -1.3390303809707737e-16 -0.7582721196590372 0.6519381815383964
12608017333.333334 -0.7497980433608342 0.6616667546220419 8.456573500137499e-17 -1.3498667184646854e-16 8.456573500137499e-17 -1.3498667184646854e-16 -0.7497985140073632 0.6616662212869489
12608634666.666666 -0.7411996368653571 0.6712846626509974 8.278898640703093e-17 -1.3604710520482758e-16 8.278898640703093e-17 -1.3604710520482758e-16 -0.7412001143297798 0.6712841354577966
12609252000.0 -0.7324778675138452 0.6807908442408508 8.099896456260437e-17 -1.3708416835089815e-16 8.099896456260437e-17 -1.3708416835089815e-16 -0.7324783517160304 0.680790323276681
12609869333.333334 -0.7236341869292781 0.6901837172137593 7.919597665842522e-17 -1.380976954722609e-16 7.919597665842522e-17 -1.380976954722609e-16 -0.7236346777879809 0.690183202564714
12610486666.666666 -0.7146700670252614 0.6994617182504773 7.73803319518564e-17 -1.390875247916823e-16 7.73803319518564e-17 -1.390875247916823e-16 -0.7146705644581367 0.69946121000159
12611104000.0 -0.7055869997607671 0.7086233031508336 7.555234171421158e-17 -1.4005349859288407e-16 7.555234171421158e-17 -1.4005349859288407e-16 -0.705587503684386 0.7086228013860665
12611721333.333334 -0.6963864968921429 0.7176669470904248 7.371231917755154e-17 -1.409954632455079e-16 7.371231917755154e-17 -1.409954632455079e-16 -0.6963870072220011 0.7176664518926495
12612338666.666666 -0.68707008972125 0.7265911448746358 7.186057948105141e-17 -1.4191326922944597e-16 7.186057948105141e-17 -1.4191326922944597e-16 -0.687070606371788 0.7265906563256258
12612956000.0 -0.6776393288405613 0.7353944111892025 6.999743961706683e-17 -1.428067711584676e-16 6.999743961706683e-17 -1.428067711584676e-16 -0.6776398517251748 0.7353939293696155
12613573333.333334 -0.6680957838754122 0.7440752808471052 6.812321837703052e-17 -1.4367582780308005e-16 6.812321837703052e-17 -1.4367582780308005e-16 -0.6680963129064683 0.7440748058364711
12614190666.666666 -0.6584410432225143 0.7526323090326699 6.623823629686333e-17 -1.4452030211277843e-16 6.623823629686333e-17 -1.4452030211277843e-16 -0.6584415783113653 0.7526318409093774
12614808000.0 -0.6486767137855398 0.7610640715420702 6.434281560231565e-17 -1.4534006123748248e-16 6.434281560231565e-17 -1.4534006123748248e-16 -0.6486772548425392 0.7610636103833551
12615425333.333334 -0.6388044207078044 0.7693691650202575 6.24372801539237e-17 -1.4613497654831743e-16 6.24372801539237e-17 -1.4613497654831743e-16 -0.6388049676423205 0.7693687109021878
12616042666.666666 -0.6288258071016918 0.7775462071945989 6.052195539171868e-17 -1.4690492365766835e-16 6.052195539171868e-17 -1.4690492365766835e-16 -0.6288263598221249 0.777545760192065
12616660000.0 -0.6187425337753626 0.7855938371048011 5.859716827976604e-17 -1.47649782438479e-16 5.859716827976604e-17 -1.47649782438479e-16 -0.6187430921891575 0.7855933972915001
12617277333.333334 -0.6085562789560198 0.79351071532967 5.666324725038656e-17 -1.4836943704286145e-16 5.666324725038656e-17 -1.4836943704286145e-16 -0.6085568429696834 0.7935102827780957
12617894666.666666 -0.5982687380109939 0.8012955242097225 5.472052214820164e-17 -1.4906377591995515e-16 5.472052214820164e-17 -1.4906377591995515e-16 -0.5982693075301104 0.801295098991154
12618512000.0 -0.5878816231650303 0.8089469680669121 5.2769324173902854e-17 -1.4973269183307611e-16 5.2769324173902854e-17 -1.4973269183307611e-16 -0.5878821980942772 0.8089465502514008
12619129333.333334 -0.5773966632159013 0.816463773419828 5.0809985827942347e-17 -1.5037608187608641e-16 5.0809985827942347e-17 -1.5037608187608641e-16 -0.5773972434590642 0.8164633630761855
12619746666.666666 -0.5668156032463998 0.8238446891958586 4.884284085386468e-17 -1.5099384748908472e-16 4.884284085386468e-17 -1.5099384748908472e-16 -0.5668161887063902 0.8238442863916474
12620364000.0 -0.5561402043336127 0.8310884869396093 4.686822418153577e-17 -1.5158589447332615e-16 4.686822418153577e-17 -1.5158589447332615e-16 -0.5561407949124828 0.8310880917411301
12620981333.333334 -0.5453722432564171 0.8381939610169373 4.4886471870228835e-17 -1.5215213300539153e-16 4.4886471870228835e-17 -1.5215213300539153e-16 -0.5453728388553778 0.8381935734892192
12621598666.666666 -0.5345135121992014 0.8451599288160051 4.2897921051473344e-17 -1.5269247765063466e-16 4.2897921051473344e-17 -1.5269247765063466e-16 -0.5345141127186362 0.8451595490227928
12622216000.0 -0.5235658184539997 0.8519852309438203 4.09029098717451e-17 -1.5320684737588314e-16 4.09029098717451e-17 -1.5320684737588314e-16 -0.5235664237934838 0.8519848589475654
12622833333.333334 -0.5125309841193136 0.8586687314194507 3.8901777435076983e-17 -1.5369516556137235e-16 3.8901777435076983e-17 -1.5369516556137235e-16 -0.5125315941776304 0.8586683672813026
12623450666.666666 -0.5014108457972326 0.8652093178628534 3.689486374549644e-17 -1.541573600119417e-16 3.689486374549644e-17 -1.541573600119417e-16 -0.5014114604723894 0.8652089616426465
12624068000.0 -0.49020725428741696 0.8716059016802211 3.4882509649254566e-17 -1.5459336296749867e-16 3.4882509649254566e-17 -1.5459336296749867e-16 -0.4902078734766628 0.8716055534364667
12624685333.333334 -0.47892207427920025 0.8778574182450749 3.286505677704928e-17 -1.5500311111270183e-16 3.286505677704928e-17 -1.5500311111270183e-16 -0.47892269787904257 0.8778570780349502
12625302666.666666 -0.46755718404143765 0.8839628270753488 3.084284748614828e-17 -1.5538654558589129e-16 3.084284748614828e-17 -1.5538654558589129e-16 -0.4675578119476602 0.8839624949546884
12625920000.0 -0.4561144751093433 0.8899211120068623 2.881622480224462e-17 -1.5574361198729998e-16 2.881622480224462e-17 -1.5574361198729998e-16 -0.45611510721702375 0.8899207880301502
12626537333.333334 -0.4445958519703198 0.8957312813620982 2.6785532361424866e-17 -1.560742603864658e-16 2.6785532361424866e-17 -1.560742603864658e-16 -0.4445964881738473 0.8957309655824585
12627154666.666666 -0.4330032317466334 0.9013923681154458 2.4751114351969195e-17 -1.5637844532890786e-16 2.4751114351969195e-17 -1.5637844532890786e-16 -0.43300387193972456 0.9013920605846312
12627772000.0 -0.4213385438762802 0.9069034300541687 2.2713315456000785e-17 -1.5665612584205535e-16 2.2713315456000785e-17 -1.5665612584205535e-16 -0.42133918795199854 0.9069031308225546
12628389333.333334 -0.4096037297920086 0.9122635499351467 2.0672480791252592e-17 -1.5690726544039148e-16 2.0672480791252592e-17 -1.5690726544039148e-16 -0.40960437764278207 0.9122632590517227
12629006666.666666 -0.39780074259814446 0.9174718356375667 1.8628955852605477e-17 -1.5713183212986438e-16 1.8628955852605477e-17 -1.5713183212986438e-16 -0.39780139411578297 0.9174715531499279
12629624000.0 -0.3859315467455215 0.9225274203114023 1.6583086453728076e-17 -1.573297984115196e-16 1.6583086453728076e-17 -1.573297984115196e-16 -0.38593220182123567 0.9225271462657424
12630241333.333334 -0.37399811770447233 0.9274294625217119 1.4535218668587754e-17 -1.575011412843859e-16 1.4535218668587754e-17 -1.575011412843859e-16 -0.3739987762288914 0.9274291969628156
12630858666.666666 -0.36200244163624906 0.9321771463886002 1.2485698772994009e-17 -1.576458422475953e-16 1.2485698772994009e-17 -1.576458422475953e-16 -0.3620031034994383 0.932176889359834
12631476000.0 -0.34994651506208246 0.9367696817231567 1.0434873186067898e-17 -1.5776388730174702e-16 1.0434873186067898e-17 -1.5776388730174702e-16 -0.3499471801535626 0.9367694332664638
12632093333.333334 -0.3378323445312576 0.9412063041588248 8.383088411844748e-18 -1.5785526694950316e-16 8.383088411844748e-18 -1.5785526694950316e-16 -0.337833012740023 0.9412060643147178
12632710666.666666 -0.3256619462870473 0.9454862752786706 6.330690980715073e-18 -1.5791997619543806e-16 6.330690980715073e-18 -1.5791997619543806e-16 -0.32566261750158415 0.9454860440862246
12633328000.0 -0.313437345930757 0.949608882738406 4.27802739097339e-18 -1.5795801454511814e-16 4.27802739097339e-18 -1.5795801454511814e-16 -0.31343802003906257 0.9496086602352534
12633945333.333334 -0.30116057808528984 0.9535734403847117 2.2254440504314018e-18 -1.5796938600342643e-16 2.2254440504314018e-18 -1.5796938600342643e-16 -0.30116125497489027 0.9535732266070341
12634562666.666666 -0.28883368605591786 0.9573792883696373 1.7328721799733457e-19 -1.5795409907212885e-16 1.7328721799733457e-19 -1.5795409907212885e-16 -0.2888343656138878 0.957379083352161
12635180000.0 -0.276458721490471 0.9610257932603344 -1.8780970546967247e-18 -1.5791216674668385e-16 -1.8780970546967247e-18 -1.5791216674668385e-16 -0.276459403603452 0.9610255970363251
12635797333.333334 -0.2640377440377589 0.9645123481445186 -3.928362981528958e-18 -1.5784360651229355e-16 -3.928362981528958e-18 -1.5784360651229355e-16 -0.26403842859197796 0.9645121607457733
12636414666.666666 -0.2515728210049326 0.9678383727314293 -5.9771651001441834e-18 -1.5774844033920118e-16 -5.9771651001441834e-18 -1.5774844033920118e-16 -0.25157350788622207 0.9678381941882754
12637032000.0 -0.23906602701330187 0.9710033134484541 -8.02415833008798e-18 -1.5762669467723262e-16 -8.02415833008798e-18 -1.5762669467723262e-16 -0.23906671610711752 0.9710031437897408
12637649333.333334 -0.22651944365292942 0.9740066435332816 -1.0068998030862621e-17 -1.5747840044958454e-16 -1.0068998030862621e-17 -1.5747840044958454e-16 -0.22652013484437028 0.9740064827863771
12638266666.666666 -0.21393515913634395 0.9768478631215347 -1.2111340059877279e-17 -1.5730359304586264e-16 -1.2111340059877279e-17 -1.5730359304586264e-16 -0.21393585231017118 0.9768477113123221
12638884000.0 -0.2013152679508738 0.979526499329992 -1.4150840830336234e-17 -1.5710231231436422e-16 -1.4150840830336234e-17 -1.5710231231436422e-16 -0.20131596299152985 0.9795263564828636
12639501333.333334 -0.18866187051021413 0.9820421063352569 -1.618715736893027e-17 -1.568746025536183e-16 -1.618715736893027e-17 -1.568746025536183e-16 -0.18866256730184197 0.9820419724731112
12640118666.666666 -0.17597707280484234 0.984394265447966 -1.8219947373429163e-17 -1.5662051250317936e-16 -1.8219947373429163e-17 -1.5662051250317936e-16 -0.17597777123130495 0.9843941405922039
12640736000.0 -0.16326298605083206 0.9865825851825931 -2.0248869270280714e-17 -1.5634009533365639e-16 -2.0248869270280714e-17 -1.5634009533365639e-16 -0.16326368599573152 0.986582469353114
12641353333.333334 -0.15052172633975539 0.9886067013223725 -2.2273582271761846e-17 -1.560334086360354e-16 -2.2273582271761846e-17 -1.560334086360354e-16 -0.1505224276864527 0.9886065945375733
12641970666.666666 -0.1377554142852569 0.9904662769801401 -2.429374643327742e-17 -1.557005144102242e-16 -2.429374643327742e-17 -1.557005144102242e-16 -0.137756116916891 0.9904661792569096
12642588000.0 -0.12496617467088995 0.9921610026542697 -2.6309022710351923e-17 -1.55341479052874e-16 -2.6309022710351923e-17 -1.55341479052874e-16 -0.12496687847039746 0.9921609140079878
12643205333.333334 -0.11215613609608197 0.9936905962802502 -2.8319073015412026e-17 -1.5495637334447214e-16 -2.8319073015412026e-17 -1.5495637334447214e-16 -0.11215684094621632 0.9936905167247828
12643822666.666666 -0.09932743062179906 0.995054803277625 -3.032356027450921e-17 -1.5454527243567922e-16 -3.032356027450921e-17 -1.5454527243567922e-16 -0.09932813640515056 0.9950547328253257
12644440000.0 -0.0864821934161457 0.9962533965923202 -3.232214848371705e-17 -1.541082558329585e-16 -3.232214848371705e-17 -1.541082558329585e-16 -0.08648290001516065 0.9962533352540252
12645057333.333334 -0.07362256239859835 0.9972861767344751 -3.431450276543165e-17 -1.5364540738345616e-16 -3.431450276543165e-17 -1.5364540738345616e-16 -0.07362326969559889 0.9972861245195037
12645674666.666666 -0.060750677884403984 0.9981529718116287 -3.630028942436366e-17 -1.531568152591753e-16 -3.630028942436366e-17 -1.531568152591753e-16 -0.060751385761607504 0.9981529287277806
12646292000.0 -0.047868682227899036 0.998853637557358 -3.827917600344874e-17 -1.5264257194039552e-16 -3.827917600344874e-17 -1.5264257194039552e-16 -0.047869390567437824 0.9988536036109115
12646909333.333334 -0.03497871946667997 0.9993880573552361 -4.025083133935306e-17 -1.5210277419841247e-16 -4.025083133935306e-17 -1.5210277419841247e-16 -0.03497942815062094 0.9993880325509493
12647526666.666666 -0.02208293496413304 0.9997561422582868 -4.22149256178609e-17 -1.51537523077532e-16 -4.22149256178609e-17 -1.51537523077532e-16 -0.02208364387449727 0.9997561265993953
12648144000.0 -0.009183475052650467 0.999957831003767 -4.417113042900393e-17 -1.5094692387635163e-16 -4.417113042900393e-17 -1.5094692387635163e-16 -0.009184184071432908 0.9999578244919851
12648761333.333334 0.0037175133237115996 0.9999930900233709 -4.611911882185497e-17 -1.5033108612835363e-16 -4.611911882185497e-17 -1.5033108612835363e-16 0.003716804314522559 0.9999930926588888
12649378666.666666 0.016617882966336203 0.9998619134488116 -4.8058565359140043e-17 -1.4969012358176715e-16 -4.8058565359140043e-17 -1.4969012358176715e-16 0.016617174084739048 0.9998619252302986
12649996000.0 0.029515486779759306 0.9995643231128029 -4.998914617153096e-17 -1.4902415417873934e-16 -4.998914617153096e-17 -1.4902415417873934e-16 0.029514778143719774 0.9995643440374058
12650613333.333334 0.04240817812885481 0.9991003685454196 -5.191053901166096e-17 -1.4833330003380539e-16 -5.191053901166096e-17 -1.4833330003380539e-16 0.042407469856286246 0.9991003986087633
12651230666.666666 0.05529381119594317 0.9984701269658646 -5.3822423307837275e-17 -1.4761768741166616e-16 -5.3822423307837275e-17 -1.4761768741166616e-16 0.055293103404686954 0.9984701661620542
12651848000.0 0.06817024133827512 0.9976737032696027 -5.572448021749185e-17 -1.4687744670425843e-16 -5.572448021749185e-17 -1.4687744670425843e-16 0.06816953414608101 0.9976737515912242
12652465333.333334 0.08103532544480843 0.9967112300109072 -5.761639268023605e-17 -1.4611271240716998e-16 -5.761639268023605e-17 -1.4611271240716998e-16 0.08103461896931508 0.9967112874490286
12653082666.666666 0.09388692229273063 0.9955828673808134 -5.94978454706696e-17 -1.4532362309534386e-16 -5.94978454706696e-17 -1.4532362309534386e-16 0.09388621665144568 0.9955829339249842
12653700000.0 0.10672289290423323 0.9942888031804207 -6.136852525086678e-17 -1.4451032139809852e-16 -6.136852525086678e-17 -1.4451032139809852e-16 0.10672218821451443 0.9942888788186799
12654317333.333334 0.11954110090206417 0.9928292527896854 -6.322812062240089e-17 -1.436729539735272e-16 -6.322812062240089e-17 -1.436729539735272e-16 0.11954039728109915 0.9928293375085565
12654934666.666666 0.1323394128654383 0.9912044591315317 -6.507632217822633e-17 -1.4281167148213967e-16 -6.507632217822633e-17 -1.4281167148213967e-16 0.13233871043022555 0.9912045529160302
12655552000.0 0.1451156986851731 0.989414692631414 -6.691282255399965e-17 -1.4192662855992718e-16 -6.691282255399965e-17 -1.4192662855992718e-16 0.14511499755250223 0.9894147954650464
12656169333.333334 0.157867831917766 0.9874602511723632 -6.873731647916743e-17 -1.4101798379071207e-16 -6.873731647916743e-17 -1.4101798379071207e-16 0.1578671322041984 0.9874603630371317
12656786666.666666 0.17059369013965137 0.9853414600453685 -7.054950082762354e-17 -1.4008589967786584e-16 -7.054950082762354e-17 -1.4008589967786584e-16 0.17059299196150113 0.9853415809217759
12657404000.0 0.18329115530050577 0.9830586718952276 -7.234907466803356e-17 -1.3913054261535548e-16 -7.234907466803356e-17 -1.3913054261535548e-16 0.18329045877381994 0.9830588017622773
12658021333.333334 0.19595811407565591 0.9806122666618621 -7.413573931369677e-17 -1.3815208285817855e-16 -7.413573931369677e-17 -1.3815208285817855e-16 0.1959574193161955 0.9806124054970643
12658638666.666666 0.20859245821764721 0.9780026515171224 -7.590919837204379e-17 -1.3715069449214668e-16 -7.590919837204379e-17 -1.3715069449214668e-16 0.2085917653408677 0.978002799296496
12659256000.0 0.221192084907468 0.9752302607969514 -7.766915779379701e-17 -1.3612655540299298e-16 -7.766915779379701e-17 -1.3612655540299298e-16 0.22119139402850044 0.97523041749503
12659873333.333334 0.23375489710436836 0.9722955559291265 -7.941532592161515e-17 -1.3507984724490698e-16 -7.941532592161515e-17 -1.3507984724490698e-16 0.23375420833799979 0.9722957215189608
12660490666.666666 0.24627880389466336 0.969199025356514 -8.114741353830885e-17 -1.340107554084527e-16 -8.114741353830885e-17 -1.340107554084527e-16 0.2462781173553185 0.9691991998096791
12661108000.0 0.25876172084034654 0.9659411844556298 -8.286513391477158e-17 -1.3291946898778247e-16 -8.286513391477158e-17 -1.3291946898778247e-16 0.258761036642068 0.9659413677422272
12661725333.333334 0.27120157032529857 0.962522575451036 -8.45682028572883e-17 -1.3180618074734857e-16 -8.45682028572883e-17 -1.3180618074734857e-16 0.2712008885817281 0.9625227675396997
12662342666.666666 0.2835962819014661 0.9589437673250019 -8.625633875452035e-17 -1.3067108708793475e-16 -8.625633875452035e-17 -1.3067108708793475e-16 0.2835956027258262 0.9589439681829053
12662960000.0 0.29594379263351406 0.9552053557227859 -8.792926262398341e-17 -1.29514388012121e-16 -8.792926262398341e-17 -1.29514388012121e-16 0.29594311613858904 0.9552055653156465
12663577333.333334 0.3082420474420099 0.9513079628535437 -8.958669815810851e-17 -1.283362870891248e-16 -8.958669815810851e-17 -1.283362870891248e-16 0.3082413737401262 0.9513081811456273
12664194666.666666 0.32048899944557224 0.9472522373867358 -9.122837176976007e-17 -1.2713699141910403e-16 -9.122837176976007e-17 -1.2713699141910403e-16 0.3204883286485812 0.9472524643408649
12664812000.0 0.3326826103013325 0.943038854344239 -9.285401263735125e-17 -1.2591671159682867e-16 -9.285401263735125e-17 -1.2591671159682867e-16 0.3326819425205901 0.9430390899217955
12665429333.333334 0.34482085054456507 0.9386685149878652 -9.446335274943817e-17 -1.2467566167480182e-16 -9.446335274943817e-17 -1.2467566167480182e-16 0.34482018589091595 0.9386687591488041
12666046666.666666 0.3569016999259854 0.9341419467028251 -9.605612694882409e-17 -1.2341405912581383e-16 -9.605612694882409e-17 -1.2341405912581383e-16 0.3569010385097419 0.934142199405674
12666664000.0 0.3689231477486311 0.9294599028764202 -9.763207297620537e-17 -1.221321248048988e-16 -9.763207297620537e-17 -1.221321248048988e-16 0.36892248967955615 0.9294601640782889
12667281333.333334 0.38088319320182373 0.9246231627729121 -9.919093151320142e-17 -1.2083008291082596e-16 -9.919093151320142e-17 -1.2083008291082596e-16 0.3808825385891134 0.9246234324295026
12667898666.666666 0.39277984569450153 0.9196325314037154 -1.007324462250388e-16 -1.1950816094690843e-16 -1.007324462250388e-16 -1.1950816094690843e-16 0.39277919464676453 0.9196328094693234
12668516000.0 0.4046111251868351 0.9144888393932681 -1.0225636380258194e-16 -1.1816658968137418e-16 -1.0225636380258194e-16 -1.1816658968137418e-16 0.40461047781207715 0.9144891258207964
12669133333.333334 0.41637506251910006 0.9091929428410767 -1.0376243400384079e-16 -1.1680560310720578e-16 -1.0376243400384079e-16 -1.1680560310720578e-16 0.41637441892470545 0.9091932375820421
12669750666.666666 0.42806969974004594 0.9037457231789651 -1.0525040969507145e-16 -1.154254384013398e-16 -1.0525040969507145e-16 -1.154254384013398e-16 0.42806906003275846 0.9037460261835031
