! Parameters = {f0=12700.012000; bw=77.238000; Q=6100.000000; N=10; m_0_1=1.334830; m_1_1=1.257702; m_1_2=1.169642; m_2_2=1.257053; m_2_3=0.806605; m_2_8=0.003805; m_2_9=0.040509; m_3_3=1.255116; m_3_4=0.695134; m_3_7=0.004405; m_3_8=-0.092683; m_3_9=0.003805; m_4_4=1.252191; m_4_5=0.531469; m_4_6=0.007922; m_4_7=-0.113232; m_4_8=0.004405; m_5_5=1.252573; m_5_6=0.938824; m_5_7=0.007922; m_6_6=1.252572; m_6_7=0.531811; m_7_7=1.252205; m_7_8=0.695252; m_8_8=1.255114; m_8_9=0.806918; m_9_9=1.257048; m_9_10=1.170720; m_10_10=1.257692; m_10_11=1.335625}
!
! Created with skrf (http://scikit-rf.org).
# Hz S RI R 50.0 
!freq ReS11 ImS11 ReS21 ImS21 ReS12 ImS12 ReS22 ImS22
12607400000.0 0.7642309511322816 -0.6449426744535152 -8.174289918340464e-17 1.2426709735648448e-16 -8.174289918340464e-17 1.2426709735648448e-16 0.7642314046195596 -0.6449421370890728
12608017333.333334 0.7561492735954662 -0.6543991717910813 -8.016398602162846e-17 1.2525687805432384e-16 -8.016398602162846e-17 1.2525687805432384e-16 0.7561497337094986 -0.6543986401352456
12608634666.666666 0.7479505903887217 -0.6637544081488029 -7.857310925072646e-17 1.262266119951696e-16 -7.857310925072646e-17 1.262266119951696e-16 0.7479510570576657 -0.6637538822832793
12609252000.0 0.7396361701669301 -0.673006935908243 -7.69705232145712e-17 1.2717615484619838e-16 -7.69705232145712e-17 1.2717615484619838e-16 0.7396366433179354 -0.6730064159138318
12609869333.333334 0.7312072994940213 -0.6821553233439329 -7.535648399478683e-17 1.2810536549933685e-16 -7.535648399478683e-17 1.2810536549933685e-16 0.731207779053243 -0.6821548093005197
12610486666.666666 0.722665282643935 -0.6911981548448789 -7.373124936989896e-17 1.2901410609213488e-16 -7.373124936989896e-17 1.2901410609213488e-16 0.722665768536543 -0.6911976468314198
12611104000.0 0.7140114413985252 -0.7001340311339009 -7.20950787741748e-17 1.2990224202815332e-16 -7.20950787741748e-17 1.2990224202815332e-16 0.7140119335487157 -0.7001335292284103
12611721333.333334 0.705247114843415 -0.7089615694837372 -7.044823325634476e-17 1.3076964199676102e-16 -7.044823325634476e-17 1.3076964199676102e-16 0.7052476131744253 -0.7089610737632785
12612338666.666666 0.6963736591605417 -0.7176794039312829 -6.879097543796616e-17 1.3161617799247773e-16 -6.879097543796616e-17 1.3161617799247773e-16 0.6963741635946599 -0.7176789144719544
12612956000.0 0.6873924474182347 -0.7262861854890084 -6.712356947159203e-17 1.3244172533376867e-16 -6.712356947159203e-17 1.3244172533376867e-16 0.6873929578768109 -0.7262857023659314
12613573333.333334 0.6783048693590515 -0.7347805823534025 -6.54462809987842e-17 1.3324616268127572e-16 -6.54462809987842e-17 1.3324616268127572e-16 0.6783053857625123 -0.7347801056407111
12614190666.666666 0.6691123311844497 -0.7431612801113338 -6.375937710780067e-17 1.3402937205557432e-16 -6.375937710780067e-17 1.3402937205557432e-16 0.6691128534523098 -0.7431608098821632
12614808000.0 0.659816255337335 -0.7514269819433036 -6.206312629115104e-17 1.3479123885435468e-16 -6.206312629115104e-17 1.3479123885435468e-16 0.6598167833882093 -0.7514265182697788
12615425333.333334 0.6504180802818476 -0.7595764088242083 -6.035779840290323e-17 1.3553165186908978e-16 -6.035779840290323e-17 1.3553165186908978e-16 0.6504186140334642 -0.7595759517774325
12616042666.666666 0.6409192602809046 -0.7676082997211419 -5.864366461583503e-17 1.3625050330114414e-16 -5.864366461583503e-17 1.3625050330114414e-16 0.640919799650118 -0.7676078493711864
12616660000.0 0.6313212651711059 -0.7755214117885844 -5.692099737835753e-17 1.3694768877735973e-16 -5.692099737835753e-17 1.3694768877735973e-16 0.6313218100739088 -0.7755209682044768
12617277333.333334 0.6216255801352031 -0.7833145205607878 -5.519007037127417e-17 1.3762310736508877e-16 -5.519007037127417e-17 1.3762310736508877e-16 0.6216261304867408 -0.7833140838105026
12617894666.666666 0.6118337054725292 -0.7909864201410536 -5.3451158464368004e-17 1.3827666158668096e-16 -5.3451158464368004e-17 1.3827666158668096e-16 0.6118342611871115 -0.790985990291501
12618512000.0 0.6019471563665089 -0.7985359233885968 -5.1704537672771105e-17 1.38908257433439e-16 -5.1704537672771105e-17 1.38908257433439e-16 0.6019477173576252 -0.798535500505613
12619129333.333334 0.5919674626505601 -0.8059618621019629 -4.9950485113298504e-17 1.3951780437897874e-16 -4.9950485113298504e-17 1.3951780437897874e-16 0.5919680288308914 -0.8059614462502998
12619746666.666666 0.5818961685710532 -0.8132630872000359 -4.8189278960428776e-17 1.4010521539211093e-16 -4.8189278960428776e-17 1.4010521539211093e-16 0.5818967398524861 -0.813262678443351
12620364000.0 0.5717348325484916 -0.8204384688997421 -4.642119840233306e-17 1.4067040694909586e-16 -4.642119840233306e-17 1.4067040694909586e-16 0.5717354088421319 -0.8204380673005888
12620981333.333334 0.561485026936502 -0.8274868968907728 -4.4646523596636515e-17 1.4121329904539074e-16 -4.4646523596636515e-17 1.4121329904539074e-16 0.561485608152689 -0.8274865025105912
12621598666.666666 0.5511483377782304 -0.834407280507607 -4.286553562609164e-17 1.4173381520682197e-16 -4.286553562609164e-17 1.4173381520682197e-16 0.5511489238265495 -0.8344068934067128
12622216000.0 0.540726364561172 -0.8411985488980968 -4.1078516454116344e-17 1.4223188250020217e-16 -4.1078516454116344e-17 1.4223188250020217e-16 0.540726955350472 -0.8411981691356766
12622833333.333334 0.5302207199695336 -0.8478596511892724 -3.928574888021127e-17 1.427074315433882e-16 -3.928574888021127e-17 1.427074315433882e-16 0.5302213154079365 -0.8478592788233686
12623450666.666666 0.5196330296348268 -0.8543895566498558 -3.7487516495263305e-17 1.431603965147782e-16 -3.7487516495263305e-17 1.431603965147782e-16 0.519633629629745 -0.8543891917373617
12624068000.0 0.5089649318841055 -0.8607872548498923 -3.5684103636750514e-17 1.435907151622434e-16 -3.5684103636750514e-17 1.435907151622434e-16 0.5089655363422557 -0.8607868974465428
12624685333.333334 0.49821807748657243 -0.8670517558170274 -3.3875795343806667e-17 1.43998328811507e-16 -3.3875795343806667e-17 1.43998328811507e-16 0.49821868631398936 -0.8670514059773895
12625302666.666666 0.48739412939831234 -0.8731820901895933 -3.206287731227509e-17 1.4438318237393915e-16 -3.206287731227509e-17 1.4438318237393915e-16 0.4873947425003646 -0.873181747967059
12625920000.0 0.47649476250452744 -0.8791773093668646 -3.0245635849595234e-17 1.447452243538054e-16 -3.0245635849595234e-17 1.447452243538054e-16 0.47649537978593093 -0.8791769748136419
12626537333.333334 0.4655216633608591 -0.8850364856555608 -2.842435782964358e-17 1.4508440685494082e-16 -2.842435782964358e-17 1.4508440685494082e-16 0.4655222847256919 -0.8850361588226646
12627154666.666666 0.45447652993219173 -0.8907587124135243 -2.6599330647544745e-17 1.4540068558684924e-16 -2.6599330647544745e-17 1.4540068558684924e-16 0.45447715528391075 -0.8907583933507727
12627772000.0 0.4433610713296842 -0.8963431041901317 -2.4770842174294502e-17 1.4569401987025775e-16 -2.4770842174294502e-17 1.4569401987025775e-16 0.44336170057113783 -0.8963427929461328
12628389333.333334 0.4321770075468072 -0.9017887968630423 -2.2939180711499593e-17 1.4596437264207085e-16 -2.2939180711499593e-17 1.4596437264207085e-16 0.43217764058025215 -0.9017884934851917
12629006666.666666 0.42092606919273956 -0.9070949477721477 -2.1104634945901975e-17 1.462117104597836e-16 -2.1104634945901975e-17 1.462117104597836e-16 0.420926705919855 -0.9070946523066185
12629624000.0 0.4096099972247768 -0.912260735849858 -1.926749390399327e-17 1.4643600350530454e-16 -1.926749390399327e-17 1.4643600350530454e-16 0.40961063754668015 -0.9122604483415947
12630241333.333334 0.39823054267893887 -0.9172853617481552 -1.7428046906493907e-17 1.4663722558822285e-16 -1.7428046906493907e-17 1.4663722558822285e-16 0.39823118649620093 -0.9172850822408666
12630858666.666666 0.3867894663990956 -0.9221680479622514 -1.558658352289556e-17 1.4681535414849389e-16 -1.558658352289556e-17 1.4681535414849389e-16 0.386790113611756 -0.9221677764984041
12631476000.0 0.37528853876412976 -0.9269080389510549 -1.3743393525848648e-17 1.4697037025856768e-16 -1.3743393525848648e-17 1.4697037025856768e-16 0.37528918927171284 -0.9269077755718668
12632093333.333334 0.3637295394144876 -0.93150460125387 -1.1898766845694708e-17 1.4710225862493197e-16 -1.1898766845694708e-17 1.4710225862493197e-16 0.36373019311601723 -0.9315043459993037
12632710666.666666 0.35211425697653814 -0.9359570236040042 -1.0052993524916402e-17 1.472110075890915e-16 -1.0052993524916402e-17 1.472110075890915e-16 0.3521149137705544 -0.9359567765127622
12633328000.0 0.34044448878572353 -0.9402646170388603 -8.20636367251258e-18 1.4729660912798173e-16 -8.20636367251258e-18 1.4729660912798173e-16 0.34044514857029734 -0.9402643781483769
12633945333.333334 0.3287220406085717 -0.9444267150064867 -6.359167418548006e-18 1.47359058853801e-16 -6.359167418548006e-18 1.47359058853801e-16 0.3287227032813217 -0.944426484352925
12634562666.666666 0.31694872636330307 -0.9484426734687166 -4.511694868550194e-18 1.4739835601328243e-16 -4.511694868550194e-18 1.4739835601328243e-16 0.316949391821411 -0.9484424510869613
12635180000.0 0.30512636783909336 -0.9523118710008438 -2.6642360580618164e-18 1.4741450348638893e-16 -2.6642360580618164e-18 1.4741450348638893e-16 0.30512703597931995 -0.9523116569244966
12635797333.333334 0.29325679441406344 -0.956033708887816 -8.170809071214169e-19 1.4740750778444342e-16 -8.170809071214169e-19 1.4740750778444342e-16 0.2932574651327644 -0.9560335031491892
12636414666.666666 0.28134184277247365 -0.9596076112167904 1.0294808251278693e-18 1.473773790476878e-16 1.0294808251278693e-18 1.473773790476878e-16 0.28134251596561577 -0.9596074138469037
12637032000.0 0.2693833566202471 -0.9630330249663381 2.875159585920651e-18 1.473241310422742e-16 2.875159585920651e-18 1.473241310422742e-16 0.2693840321834247 -0.9630328359949133
12637649333.333334 0.25738318639983926 -0.9663094200919657 4.719666074133914e-18 1.4724778115668816e-16 4.719666074133914e-18 1.4724778115668816e-16 0.25738386422829024 -0.9663092395474226
12638266666.666666 0.24534318900376698 -0.9694362896081765 6.5627112856201776e-18 1.4714835039760622e-16 6.5627112856201776e-18 1.4714835039760622e-16 0.24534386899238858 -0.9694361175176277
12638884000.0 0.2332652274874371 -0.9724131496668682 8.40400655842604e-18 1.4702586338518538e-16 8.40400655842604e-18 1.4702586338518538e-16 0.233265909530803 -0.9724129860561161
12639501333.333334 0.2211511707807251 -0.9752395396322487 1.024326361794782e-17 1.468803483477899e-16 1.024326361794782e-17 1.468803483477899e-16 0.22115185477310095 -0.9752393845257801
12640118666.666666 0.2090028933989978 -0.9779150221520545 1.2080194622000444e-17 1.467118371161533e-16 1.2080194622000444e-17 1.467118371161533e-16 0.20900357923435844 -0.9779148755730394
12640736000.0 0.19682227515249986 -0.9804391832253542 1.391451220585079e-17 1.4652036511697296e-16 1.391451220585079e-17 1.4652036511697296e-16 0.19682296272454508 -0.98043904519564
12641353333.333334 0.1846112008563062 -0.982811632266427 1.574592952703377e-17 1.4630597136595594e-16 1.574592952703377e-17 1.4630597136595594e-16 0.18461189005847753 -0.9828115028065367
12641970666.666666 0.17237156003800172 -0.9850320021653469 1.7574160310227108e-17 1.4606869846028872e-16 1.7574160310227108e-17 1.4606869846028872e-16 0.17237225076349874 -0.9850318812944748
12642588000.0 0.16010524664549142 -0.9870999493447419 1.9398918891936232e-17 1.458085925705548e-16 1.9398918891936232e-17 1.458085925705548e-16 0.16010593878728863 -0.9870998370807522
12643205333.333334 0.14781415875410203 -0.9890151538129349 2.121992026502451e-17 1.4552570343210247e-16 2.121992026502451e-17 1.4552570343210247e-16 0.14781485220496504 -0.9890150501723572
12643822666.666666 0.13550019827253884 -0.9907773192135096 2.3036880123239026e-17 1.4522008433584016e-16 2.3036880123239026e-17 1.4522008433584016e-16 0.1355008929250414 -0.9907772242115392
12644440000.0 0.1231652706489237 -0.9923861728711182 2.4849514905493148e-17 1.4489179211849395e-16 2.4849514905493148e-17 1.4489179211849395e-16 0.12316596639546391 -0.992386086521611
12645057333.333334 0.11081128457580762 -0.9938414658336937 2.6657541840064697e-17 1.4454088715230666e-16 2.6657541840064697e-17 1.4454088715230666e-16 0.11081198130862506 -0.9938413881491669
12645674666.666666 0.09844015169487927 -0.9951429729109754 2.8460678988685964e-17 1.4416743333418015e-16 2.8460678988685964e-17 1.4416743333418015e-16 0.09844084930607126 -0.9951429039026035
12646292000.0 0.0860537863008477 -0.9962904927093773 3.025864529046047e-17 1.4377149807427064e-16 3.025864529046047e-17 1.4377149807427064e-16 0.08605448468238613 -0.9962904323869899
12646909333.333334 0.07365410504576404 -0.9972838476630981 3.20511606055437e-17 1.4335315228405658e-16 3.20511606055437e-17 1.4335315228405658e-16 0.07365480408951226 -0.9972837960351817
12647526666.666666 0.06124302664207371 -0.9981228840616394 3.3837945758809476e-17 1.429124703638315e-16 3.3837945758809476e-17 1.429124703638315e-16 0.061243726239803155 -0.9981228411353338
12648144000.0 0.04882247156565968 -0.9988074720735859 3.561872258326579e-17 1.4244953018966969e-16 3.561872258326579e-17 1.4244953018966969e-16 0.0488231716090666 -0.9988074378546835
12648761333.333334 0.03639436175898234 -0.9993375057666766 3.7393213963263335e-17 1.4196441309986057e-16 3.7393213963263335e-17 1.4196441309986057e-16 0.03639506213970468 -0.9993374802596238
12649378666.666666 0.023960620333425147 -0.9997129031242141 3.916114387759563e-17 1.414572038807892e-16 3.916114387759563e-17 1.414572038807892e-16 0.023961320943059104 -0.9997128863321059
12649996000.0 0.011523171271913133 -0.9999336060577445 4.092223744236951e-17 1.4092799075228862e-16 4.092223744236951e-17 1.4092799075228862e-16 0.011523872002030167 -0.99993359798233
12650613333.333334 -0.0009160608691143205 -0.9999995804160574 4.267622095368889e-17 1.4037686535245908e-16 4.267622095368889e-17 1.4037686535245908e-16 -0.0009153601269508609 -0.9999995810577343
12651230666.666666 -0.013355151257081024 -0.9999108159904597 4.442282193012897e-17 1.3980392272195973e-16 4.442282193012897e-17 1.3980392272195973e-16 -0.013354450611299057 -0.9999108253482791
12651848000.0 -0.025792175081518178 -0.9996673265163621 4.6161769155041436e-17 1.392092612877584e-16 4.6161769155041436e-17 1.392092612877584e-16 -0.025791474640520128 -0.9996673445880253
12652465333.333334 -0.03822520785173678 -0.9992691496711479 4.789279271857327e-17 1.3859298284637998e-16 4.789279271857327e-17 1.3859298284637998e-16 -0.03822450772388281 -0.9992691764530082
12653082666.666666 -0.05065232569445067 -0.9987163470683506 4.961562405949674e-17 1.379551925466248e-16 4.961562405949674e-17 1.379551925466248e-16 -0.05065162598804196 -0.9987163825554153
12653700000.0 -0.06307160565187214 -0.9980090042481089 5.1329996006889205e-17 1.3729599887173727e-16 5.1329996006889205e-17 1.3729599887173727e-16 -0.06307090647513401 -0.9980090484340366
12654317333.333334 -0.07548112597881393 -0.9971472306639464 5.303564282142984e-17 1.3661551362111305e-16 5.303564282142984e-17 1.3661551362111305e-16 -0.07548042743987925 -0.9971472835410522
12654934666.666666 -0.08787896644045516 -0.9961311596658166 5.4732300236565244e-17 1.359138518914531e-16 5.4732300236565244e-17 1.359138518914531e-16 -0.08787826864734757 -0.996131221225071
12655552000.0 -0.10026320860930583 -0.9949609484794739 5.641970549942749e-17 1.351911320574065e-16 5.641970549942749e-17 1.351911320574065e-16 -0.100262511669923 -0.9949610187105048
12656169333.333334 -0.11263193616189252 -0.9936367781821643 5.809759741138333e-17 1.3444747575175472e-16 5.809759741138333e-17 1.3444747575175472e-16 -0.11263124018398947 -0.9936368570732584
12656786666.666666 -0.12498323517562746 -0.992158853674572 5.97657163685159e-17 1.3368300784501175e-16 5.97657163685159e-17 1.3368300784501175e-16 -0.12498254026680014 -0.992158941212679
12657404000.0 -0.13731519442479714 -0.9905274036491304 6.142380440164839e-17 1.328978564246053e-16 6.142380440164839e-17 1.328978564246053e-16 -0.1373145006924653 -0.9905274998198612
12658021333.333334 -0.14962590567618989 -0.9887426805546464 6.307160521622623e-17 1.320921527735063e-16 6.307160521622623e-17 1.320921527735063e-16 -0.14962521322758093 -0.9887427853422788
12658638666.666666 -0.16191346398443127 -0.9868049605572369 6.470886423182986e-17 1.3126603134840617e-16 6.470886423182986e-17 1.3126603134840617e-16 -0.16191277292656348 -0.9868050739447164
12659256000.0 -0.17417596798714544 -0.9847145434975288 6.633532862152292e-17 1.3041962975734705e-16 6.633532862152292e-17 1.3041962975734705e-16 -0.1741752784268117 -0.9847146654664737
12659873333.333334 -0.18641152019849652 -0.9824717528443715 6.795074735076076e-17 1.2955308873693924e-16 6.795074735076076e-17 1.2955308873693924e-16 -0.18641083224224714 -0.982471883375071
12660490666.666666 -0.19861822730314035 -0.9800769356447306 6.955487121610742e-17 1.2866655212904675e-16 6.955487121610742e-17 1.2866655212904675e-16 -0.19861754105726723 -0.9800770747161525
12661108000.0 -0.21079420044952804 -0.9775304624699174 7.114745288364876e-17 1.2776016685699107e-16 7.114745288364876e-17 1.2776016685699107e-16 -0.21079351602004834 -0.9775306100597114
12661725333.333334 -0.2229375555415156 -0.9748327273583813 7.272824692699616e-17 1.2683408290133914e-16 7.272824692699616e-17 1.2683408290133914e-16 -0.22293687303415494 -0.97483288344288
12662342666.666666 -0.23504641353029762 -0.9719841477546592 7.429700986511384e-17 1.2588845327514342e-16 7.429700986511384e-17 1.2588845327514342e-16 -0.23504573305047358 -0.9719843123088826
12662960000.0 -0.2471189007052235 -0.9689851644447656 7.585350019975378e-17 1.2492343399875675e-16 7.585350019975378e-17 1.2492343399875675e-16 -0.24711822235803016 -0.9689853374424269
12663577333.333334 -0.2591531489836218 -0.9658362414880068 7.739747845253615e-17 1.239391840742015e-16 7.739747845253615e-17 1.239391840742015e-16 -0.2591524728738128 -0.9658364229015147
12664194666.666666 -0.27114729619970157 -0.9625378661452226 7.892870720176346e-17 1.2293586545904458e-16 7.892870720176346e-17 1.2293586545904458e-16 -0.27114662243167414 -0.9625380559456863
12664812000.0 -0.2830994863930303 -0.9590905488032963 8.044695111886154e-17 1.219136430398387e-16 8.044695111886154e-17 1.219136430398387e-16 -0.2830988150708095 -0.9590907469605312
12665429333.333334 -0.29500787009555945 -0.9554948228962252 8.195197700448518e-17 1.2087268460511106e-16 8.195197700448518e-17 1.2087268460511106e-16 -0.29500720132278097 -0.9554950293787542
12666046666.666666 -0.3068706046176437 -0.9517512448226209 8.344355382426896e-17 1.198131608179118e-16 8.344355382426896e-17 1.198131608179118e-16 -0.3068699384975396 -0.9517514595976845
12666664000.0 -0.3186858543335599 -0.9478603938595052 8.492145274426508e-17 1.1873524518789353e-16 8.492145274426508e-17 1.1873524518789353e-16 -0.3186851909689409 -0.9478606168930617
12667281333.333334 -0.33045179096511373 -0.9438228720728035 8.63854471659207e-17 1.1763911404302715e-16 8.63854471659207e-17 1.1763911404302715e-16 -0.33045113045835495 -0.943823103329539
12667898666.666666 -0.34216659386492565 -0.9396393042240635 8.783531276081961e-17 1.1652494650079541e-16 8.783531276081961e-17 1.1652494650079541e-16 -0.3421659363179495 -0.9396395436673936
12668516000.0 -0.3538284502979913 -0.9353103376738274 8.927082750498593e-17 1.1539292443900741e-16 8.927082750498593e-17 1.1539292443900741e-16 -0.3538277958122525 -0.9353105852659048
12669133333.333334 -0.365435555722024 -0.9308366422815243 9.069177171278736e-17 1.1424323246621246e-16 9.069177171278736e-17 1.1424323246621246e-16 -0.3654349043984938 -0.930836897983245
12669750666.666666 -0.37698611406706 -0.9262189103016764 9.209792807051762e-17 1.1307605789165181e-16 9.209792807051762e-17 1.1307605789165181e-16 -0.37698546600621025 -0.9262191740726851
12670368000.0 -0.3884783380130078 -0.9214578562769211 9.348908166956094e-17 1.1189159069482372e-16 9.348908166956094e-17 1.1189159069482372e-16 -0.3884776933147961 -0.9214581280756182
