! Parameters = {f0=12700.012000; bw=77.238000; Q=6100.000000; N=10; m_0_1=1.181677; m_1_1=-1.039596; m_1_2=1.016489; m_2_2=-1.040245; m_2_3=0.653452; m_2_8=-0.003852; m_2_9=0.032852; m_3_3=-1.042182; m_3_4=0.541981; m_3_7=-0.003252; m_3_8=-0.100340; m_3_9=-0.003852; m_4_4=-1.045107; m_4_5=0.378316; m_4_6=0.000265; m_4_7=-0.120889; m_4_8=-0.003252; m_5_5=-1.044725; m_5_6=0.785671; m_5_7=0.000265; m_6_6=-1.044726; m_6_7=0.378658; m_7_7=-1.045093; m_7_8=0.542099; m_8_8=-1.042184; m_8_9=0.653765; m_9_9=-1.040250; m_9_10=1.017567; m_10_10=-1.039606; m_10_11=1.182472}
!
! Created with skrf (http://scikit-rf.org).
# Hz S RI R 50.0 
!freq ReS11 ImS11 ReS21 ImS21 ReS12 ImS12 ReS22 ImS22
12607400000.0 -0.7529061540817042 -0.6581278926969621 6.500416136181907e-17 2.983749112219738e-17 6.500416136181907e-17 2.983749112219738e-17 -0.7529057442464361 -0.6581283615530996
12608017333.333334 -0.7580895619066667 -0.6521504551313335 6.522801616195918e-17 2.9310729356032715e-17 6.522801616195918e-17 2.9310729356032715e-17 -0.7580891558136074 -0.6521509271922099
12608634666.666666 -0.7632255152366353 -0.6461321945945887 6.544760705806976e-17 2.87822973058533e-17 6.544760705806976e-17 2.87822973058533e-17 -0.7632251129108382 -0.6461326698303422
12609252000.0 -0.7683136925739517 -0.6400734878146628 6.566292166539565e-17 2.825222944867012e-17 6.566292166539565e-17 2.825222944867012e-17 -0.7683132940402302 -0.6400739661952347
12609869333.333334 -0.7733537754115754 -0.6339747140513652 6.587394787765887e-17 2.7720560352655804e-17 6.587394787765887e-17 2.7720560352655804e-17 -0.7733533806945045 -0.6339751955465038
12610486666.666666 -0.7783454482530628 -0.6278362550725982 6.608067386771843e-17 2.718732467491284e-17 6.608067386771843e-17 2.718732467491284e-17 -0.7783450573769767 -0.6278367396518602
12611104000.0 -0.78328839863237 -0.6216584951303931 6.628308808823016e-17 2.665255715918977e-17 6.628308808823016e-17 2.665255715918977e-17 -0.783288011621358 -0.6216589827631438
12611721333.333334 -0.7881823171332807 -0.6154418209370067 6.648117927226302e-17 2.6116292633656825e-17 6.648117927226302e-17 2.6116292633656825e-17 -0.7881819340111902 -0.6154423115924247
12612338666.666666 -0.7930268974089087 -0.6091866216405666 6.667493643391517e-17 2.5578566008631798e-17 6.667493643391517e-17 2.5578566008631798e-17 -0.7930265181993394 -0.6091871152876431
12612956000.0 -0.7978218362008132 -0.6028932888007708 6.68643488689111e-17 2.5039412274303336e-17 6.68643488689111e-17 2.5039412274303336e-17 -0.7978214609271186 -0.6028937854083135
12613573333.333334 -0.802566833357952 -0.5965622163644267 6.70494061551674e-17 2.449886649848429e-17 6.70494061551674e-17 2.449886649848429e-17 -0.8025664620432366 -0.5965627159010607
12614190666.666666 -0.8072615918555028 -0.590193800640744 6.723009815335396e-17 2.3956963824324743e-17 6.723009815335396e-17 2.3956963824324743e-17 -0.807261224522622 -0.5901943030749148
12614808000.0 -0.8119058178134931 -0.5837884402764831 6.740641500743299e-17 2.341373946803067e-17 6.740641500743299e-17 2.341373946803067e-17 -0.8119054544850499 -0.5837889455764578
12615425333.333334 -0.8164992205151584 -0.5773465362310443 6.757834714517402e-17 2.2869228716596042e-17 6.757834714517402e-17 2.2869228716596042e-17 -0.8164988612135029 -0.5773470443649127
12616042666.666666 -0.8210415124250928 -0.5708684917514386 6.774588527865972e-17 2.232346692550451e-17 6.774588527865972e-17 2.232346692550451e-17 -0.821041157172321 -0.570869002687117
12616660000.0 -0.8255324092073634 -0.5643547123468836 6.79090204047667e-17 2.1776489516446708e-17 6.79090204047667e-17 2.1776489516446708e-17 -0.8255320580253153 -0.5643552260521159
12617277333.333334 -0.8299716297431922 -0.5578056057635818 6.806774380562841e-17 2.1228331975032296e-17 6.806774380562841e-17 2.1228331975032296e-17 -0.8299712826534523 -0.5578061222059421
12617894666.666666 -0.8343588961485917 -0.5512215819591527 6.822204704908246e-17 2.067902984849328e-17 6.822204704908246e-17 2.067902984849328e-17 -0.8343585531724848 -0.5512221011060466
12618512000.0 -0.8386939337918807 -0.5446030530767785 6.837192198910215e-17 2.0128618743370298e-17 6.837192198910215e-17 2.0128618743370298e-17 -0.8386935949504728 -0.5446035748954456
12619129333.333334 -0.84297647131061 -0.5379504334198082 6.851736076619603e-17 1.9577134323244873e-17 6.851736076619603e-17 1.9577134323244873e-17 -0.8429761366247067 -0.5379509578773247
12619746666.666666 -0.8472062406288171 -0.531264139425422 6.865835580780761e-17 1.9024612306404654e-17 6.865835580780761e-17 1.9024612306404654e-17 -0.8472059101189606 -0.5312646664887011
12620364000.0 -0.8513829769736784 -0.5245445896387503 6.879489982868554e-17 1.847108846354296e-17 6.879489982868554e-17 1.847108846354296e-17 -0.8513826506601482 -0.524545119274546
12620981333.333334 -0.8555064188920559 -0.5177922046867239 6.892698583123095e-17 1.7916598615473623e-17 6.892698583123095e-17 1.7916598615473623e-17 -0.8555060967948671 -0.517792736861632
12621598666.666666 -0.8595763082669685 -0.5110074072515749 6.905460710584081e-17 1.736117863078869e-17 6.905460710584081e-17 1.736117863078869e-17 -0.8595759904058697 -0.5110079419320359
12622216000.0 -0.8635923903336313 -0.504190622044572 6.917775723122028e-17 1.6804864423560942e-17 6.917775723122028e-17 1.6804864423560942e-17 -0.8635920767281047 -0.5041911591968729
12622833333.333334 -0.8675544136955188 -0.4973422757792393 6.929643007468018e-17 1.6247691951030764e-17 6.929643007468018e-17 1.6247691951030764e-17 -0.8675541043647775 -0.49734281536951525
12623450666.666666 -0.8714621303400001 -0.49046279714481555 6.94106197924174e-17 1.5689697211285224e-17 6.94106197924174e-17 1.5689697211285224e-17 -0.8714618253029889 -0.490463339139053
12624068000.0 -0.8753152956538968 -0.48355261677937295 6.952032082977659e-17 1.5130916240935452e-17 6.952032082977659e-17 1.5130916240935452e-17 -0.8753149949292892 -0.48355316114341085
12624685333.333334 -0.8791136684388879 -0.47661216724268407 6.962552792149101e-17 1.457138511280025e-17 6.962552792149101e-17 1.457138511280025e-17 -0.8791133720450863 -0.4766127139422168
12625302666.666666 -0.8828570109264308 -0.46964188298946896 6.972623609190553e-17 1.4011139933590515e-17 6.972623609190553e-17 1.4011139933590515e-17 -0.8828567188815641 -0.46964243199004774
12625920000.0 -0.8865450887928106 -0.462642200341901 6.982244065518402e-17 1.3450216841572353e-17 6.982244065518402e-17 1.3450216841572353e-17 -0.8865448011147322 -0.46264275160893553
12626537333.333334 -0.890177671173694 -0.4556135574624913 6.991413721549291e-17 1.2888652004256974e-17 6.991413721549291e-17 1.2888652004256974e-17 -0.8901773878799851 -0.4556141109612543
12627154666.666666 -0.8937545306786284 -0.4485563943265895 7.000132166717063e-17 1.2326481616069812e-17 7.000132166717063e-17 1.2326481616069812e-17 -0.8937542517865933 -0.4485569500222169
12627772000.0 -0.897275443405314 -0.4414711526947654 7.008399019487686e-17 1.1763741896018617e-17 7.008399019487686e-17 1.1763741896018617e-17 -0.8972751689319781 -0.44147171055225853
12628389333.333334 -0.9007401889535228 -0.434358276085331 7.016213927372136e-17 1.1200469085383107e-17 7.016213927372136e-17 1.1200469085383107e-17 -0.9007399189156349 -0.43435883606955983
12629006666.666666 -0.9041485504389898 -0.4272182097464016 7.023576566937887e-17 1.063669944536392e-17 7.023576566937887e-17 1.063669944536392e-17 -0.9041482848530201 -0.4272187718221067
12629624000.0 -0.907500314506953 -0.42005140062810137 7.030486643817836e-17 1.0072469254783305e-17 7.030486643817836e-17 1.0072469254783305e-17 -0.9075000533890891 -0.42005196475989487
12630241333.333334 -0.9107952713454769 -0.4128582973546336 7.036943892718124e-17 9.50781480773357e-18 7.036943892718124e-17 9.50781480773357e-18 -0.9107950147116269 -0.41285886350700324
12630858666.666666 -0.9140332146986077 -0.4056393501961765 7.042948077423488e-17 8.942772411267465e-18 7.042948077423488e-17 8.942772411267465e-18 -0.9140329625643977 -0.4056399183334869
12631476000.0 -0.9172139418793729 -0.39839501104048747 7.048498990801184e-17 8.377378383054636e-18 7.048498990801184e-17 8.377378383054636e-18 -0.9172136942601443 -0.3983955811269821
12632093333.333334 -0.9203372537822827 -0.3911257333650315 7.053596454802716e-17 7.811669049068323e-18 7.053596454802716e-17 7.811669049068323e-18 -0.9203370106930941 -0.3911263053648357
12632710666.666666 -0.9234029548959367 -0.3838319722082847 7.058240320463928e-17 7.24568074125247e-18 7.058240320463928e-17 7.24568074125247e-18 -0.923402716351561 -0.3838325460854073
12633328000.0 -0.9264108533152766 -0.37651418414119403 7.06243046790317e-17 6.679449795191237e-18 7.06243046790317e-17 6.679449795191237e-18 -0.9264106193302016 -0.3765147598595303
12633945333.333334 -0.9293607607534734 -0.369172827238915 7.066166806317566e-17 6.113012547789363e-18 7.066166806317566e-17 6.113012547789363e-18 -0.929360531341899 -0.36917340476224786
12634562666.666666 -0.9322524925538385 -0.361808361051819 7.069449273977468e-17 5.546405334943216e-18 7.069449273977468e-17 5.546405334943216e-18 -0.932252267729678 -0.3618089403438226
12635180000.0 -0.9350858677012912 -0.3544212465769663 7.072277838218993e-17 4.97966448922493e-18 7.072277838218993e-17 4.97966448922493e-18 -0.9350856474781696 -0.35442182760120744
12635797333.333334 -0.9378607088337713 -0.347011946229036 7.07465249543484e-17 4.41282633754551e-18 7.07465249543484e-17 4.41282633754551e-18 -0.9378604932250229 -0.3470125289489762
12636414666.666666 -0.9405768422532694 -0.33958092381156557 7.076573271063075e-17 3.845927198847391e-18 7.076573271063075e-17 3.845927198847391e-18 -0.940576631271939 -0.3395815081905642
12637032000.0 -0.9432340979367309 -0.3321286444878386 7.078040219574192e-17 3.2790033817782805e-18 7.078040219574192e-17 3.2790033817782805e-18 -0.9432338915955735 -0.3321292304891549
12637649333.333334 -0.9458323095467291 -0.324655574751687 7.079053424456287e-17 2.7120911823665666e-18 7.079053424456287e-17 2.7120911823665666e-18 -0.9458321078582063 -0.32465616233848177
12638266666.666666 -0.9483713144418081 -0.3171621823984758 7.079612998198346e-17 2.1452268817185763e-18 7.079612998198346e-17 2.1452268817185763e-18 -0.9483711174180903 -0.31716277153381456
12638884000.0 -0.9508509536867336 -0.30964893649563435 7.07971908227174e-17 1.5784467436895021e-18 7.07971908227174e-17 1.5784467436895021e-18 -0.9508507613396967 -0.30964952714248906
12639501333.333334 -0.9532710720624156 -0.3021163073533449 7.079371847109842e-17 1.0117870125764724e-18 7.079371847109842e-17 1.0117870125764724e-18 -0.9532708844036436 -0.3021168994745969
12640118666.666666 -0.9556315180755546 -0.2945647664953486 7.078571492085814e-17 4.452839108157875e-19 7.078571492085814e-17 4.452839108157875e-19 -0.9556313351163351 -0.2945653600537902
12640736000.0 -0.9579321439683082 -0.28699478662883127 7.07731824548849e-17 -1.2102636334975072e-19 7.07731824548849e-17 -1.2102636334975072e-19 -0.957931965719635 -0.2869953815871688
12641353333.333334 -0.9601728057273137 -0.2794068416155668 7.075612364496572e-17 -6.871076381426888e-19 7.075612364496572e-17 -6.871076381426888e-19 -0.9601726321998835 -0.2794074379364223
12641970666.666666 -0.9623533630928544 -0.2718014064417654 7.07345413515082e-17 -1.2529237705805599e-18 7.07345413515082e-17 -1.2529237705805599e-18 -0.9623531942970677 -0.2718020040876794
12642588000.0 -0.9644736795676107 -0.26417895718842127 7.070843872324478e-17 -1.81843864877057e-18 7.070843872324478e-17 -1.81843864877057e-18 -0.9644735155135717 -0.26417955612185523
12643205333.333334 -0.9665336224251546 -0.256539971001704 7.067781919691903e-17 -2.383616194203427e-18 7.067781919691903e-17 -2.383616194203427e-18 -0.9665334631226694 -0.25654057118504237
12643822666.666666 -0.9685330627183395 -0.24888492606278811 7.064268649695298e-17 -2.9484203640501533e-18 7.064268649695298e-17 -2.9484203640501533e-18 -0.9685329081769146 -0.24888552745834036
12644440000.0 -0.9704718752873089 -0.241214301558139 7.060304463509652e-17 -3.512815153455736e-18 7.060304463509652e-17 -3.512815153455736e-18 -0.9704717255161528 -0.24121490412814278
12645057333.333334 -0.9723499387673218 -0.23352857764957313 7.055889791005871e-17 -4.0767645978234185e-18 7.055889791005871e-17 -4.0767645978234185e-18 -0.9723497937753436 -0.23352918135619632
12645674666.666666 -0.9741671355963989 -0.2258282354440088 7.051025090712125e-17 -4.640232775093535e-18 7.051025090712125e-17 -4.640232775093535e-18 -0.9741669953922074 -0.22582884024935165
12646292000.0 -0.9759233520226726 -0.2181137569633764 7.045710849773125e-17 -5.203183808050791e-18 7.045710849773125e-17 -5.203183808050791e-18 -0.9759232166145762 -0.21811436282947422
12646909333.333334 -0.9776184781114677 -0.21038562511461148 7.039947583908027e-17 -5.765581866569672e-18 7.039947583908027e-17 -5.765581866569672e-18 -0.9776183475074741 -0.21038623200343684
12647526666.666666 -0.9792524077522308 -0.2026443236592323 7.033735837366186e-17 -6.327391169902054e-18 7.033735837366186e-17 -6.327391169902054e-18 -0.9792522819600458 -0.20264493153269747
12648144000.0 -0.9808250386651427 -0.19489033718316795 7.027076182881052e-17 -6.888575988958687e-18 7.027076182881052e-17 -6.888575988958687e-18 -0.9808249176921711 -0.19489094600312754
12648761333.333334 -0.9823362724075386 -0.18712415106636976 7.019969221622689e-17 -7.44910064855059e-18 7.019969221622689e-17 -7.44910064855059e-18 -0.9823361562608818 -0.18712476079462242
12649378666.666666 -0.9837860143800488 -0.17934625145251035 7.012415583148043e-17 -8.008929529664004e-18 7.012415583148043e-17 -8.008929529664004e-18 -0.9837859030665053 -0.17934686205080186
12649996000.0 -0.9851741738325329 -0.17155712521849728 7.004415925349536e-17 -8.568027071720915e-18 7.004415925349536e-17 -8.568027071720915e-18 -0.9851740673585986 -0.1715577366485226
12650613333.333334 -0.9865006638697773 -0.1637572599439115 6.995970934402079e-17 -9.12635777481902e-18 6.995970934402079e-17 -9.12635777481902e-18 -0.9865005622416444 -0.16375787216731738
12651230666.666666 -0.9877654014568976 -0.1559471438806821 6.987081324708083e-17 -9.68388620198286e-18 6.987081324708083e-17 -9.68388620198286e-18 -0.9877653046804555 -0.15594775685906948
12651848000.0 -0.9889683074245726 -0.14812726592232706 6.977747838840536e-17 -1.0240576981419956e-17 6.977747838840536e-17 -1.0240576981419956e-17 -0.9889682155054046 -0.1481278796172531
12652465333.333334 -0.9901093064739872 -0.14029811557340538 6.967971247484841e-17 -1.0796394808734185e-17 6.967971247484841e-17 -1.0796394808734185e-17 -0.990109219417373 -0.14029872994638626
12653082666.666666 -0.9911883271815134 -0.13246018291910028 6.957752349378408e-17 -1.1351304449169795e-17 6.957752349378408e-17 -1.1351304449169795e-17 -0.9911882449924276 -0.13246079793161353
12653700000.0 -0.9922053020032521 -0.12461395859406323 6.94709197124831e-17 -1.1905270739851789e-17 6.94709197124831e-17 -1.1905270739851789e-17 -0.9922052246863645 -0.12461457420755011
12654317333.333334 -0.9931601672791938 -0.1167599337521799 6.93599096774813e-17 -1.2458258591973746e-17 6.93599096774813e-17 -1.2458258591973746e-17 -0.9931600948388674 -0.11676054992804762
12654934666.666666 -0.9940528632372273 -0.10889860003562757 6.924450221391758e-17 -1.3010232993044876e-17 6.924450221391758e-17 -1.3010232993044876e-17 -0.9940527956775218 -0.10889921673525225
12655552000.0 -0.994883333996909 -0.10103044954390264 6.912470642486207e-17 -1.3561159009094065e-17 6.912470642486207e-17 -1.3561159009094065e-17 -0.9948832713215772 -0.10103106672863126
12656169333.333334 -0.9956515275729048 -0.09315597480349624 6.90005316906298e-17 -1.4111001786850237e-17 6.90005316906298e-17 -1.4111001786850237e-17 -0.9956514697853928 -0.09315659243464906
12656786666.666666 -0.9963573958782945 -0.08527566873658282 6.887198766806631e-17 -1.46597265559718e-17 6.887198766806631e-17 -1.46597265559718e-17 -0.9963573429817432 -0.08527628677545608
12657404000.0 -0.9970008947275609 -0.07739002463039081 6.873908428982507e-17 -1.520729863122272e-17 6.873908428982507e-17 -1.520729863122272e-17 -0.9970008467248023 -0.0773906430382588
12658021333.333334 -0.9975819838393486 -0.0694995361063521 6.860183176362494e-17 -1.5753683414656116e-17 6.860183176362494e-17 -1.5753683414656116e-17 -0.997581940732912 -0.0695001548444701
12658638666.666666 -0.9981006268389995 -0.06160469708914661 6.846024057148931e-17 -1.62988463977973e-17 6.846024057148931e-17 -1.62988463977973e-17 -0.9981005886311043 -0.06160531611875276
12659256000.0 -0.9985567912608253 -0.053706001775726514 6.8314321468967e-17 -1.6842753163820064e-17 6.8314321468967e-17 -1.6842753163820064e-17 -0.9985567579533855 -0.053706621058044614
12659873333.333334 -0.9989504485501383 -0.04580394460443772 6.816408548433902e-17 -1.7385369389708702e-17 6.816408548433902e-17 -1.7385369389708702e-17 -0.9989504201447612 -0.04580456410067952
12660490666.666666 -0.9992815740650369 -0.03789902022415448 6.800954391780812e-17 -1.792666084841115e-17 6.800954391780812e-17 -1.792666084841115e-17 -0.999281550563022 -0.03789963989552208
12661108000.0 -0.999550147077955 -0.02999172346311677 6.785070834066598e-17 -1.846659341100444e-17 6.785070834066598e-17 -1.846659341100444e-17 -0.9995501284802947 -0.02999234327080511
12661725333.333334 -0.9997561507769489 -0.022082549298182496 6.768759059445175e-17 -1.9005133048824196e-17 6.768759059445175e-17 -1.9005133048824196e-17 -0.9997561370843306 -0.022083169203381825
12662342666.666666 -0.9998995722667632 -0.014171992823616088 6.752020279008471e-17 -1.954224583561761e-17 6.752020279008471e-17 -1.954224583561761e-17 -0.9998995634795642 -0.014172612787514246
12662960000.0 -0.9999804025696248 -0.006260549220323949 6.734855730698892e-17 -2.0077897949658356e-17 6.734855730698892e-17 -2.0077897949658356e-17 -0.9999803986879169 -0.00626116920410894
12663577333.333334 -0.9999986366258136 0.0016512862753698294 6.71726667921927e-17 -2.06120556758827e-17 6.71726667921927e-17 -2.06120556758827e-17 -0.9999986376493616 0.0016506663105074662
12664194666.666666 -0.9999542732939752 0.00956301840249668 6.69925441594168e-17 -2.114468540799881e-17 6.69925441594168e-17 -2.114468540799881e-17 -0.999954279222237 0.009562398495361444
12664812000.0 -0.9998473153511946 0.017474151906644603 6.680820258814634e-17 -2.167575365058838e-17 6.680820258814634e-17 -2.167575365058838e-17 -0.9998473261833211 0.017473532096033598
12665429333.333334 -0.9996777694928203 0.025384191570902985 6.661965552267969e-17 -2.2205227021219292e-17 6.661965552267969e-17 -2.2205227021219292e-17 -0.9996777852276546 0.025383571895603488
12666046666.666666 -0.9994456463320489 0.03329264224663462 6.642691667117031e-17 -2.2733072252521832e-17 6.642691667117031e-17 -2.2733072252521832e-17 -0.999445666968128 0.033292022745421625
12666664000.0 -0.9991509603992499 0.04119900888498209 6.623000000464152e-17 -2.3259256194286824e-17 6.623000000464152e-17 -2.3259256194286824e-17 -0.9991509859348053 0.04119838959661601
12667281333.333334 -0.9987937301410758 0.04910279656723177 6.602891975599606e-17 -2.378374581552564e-17 6.602891975599606e-17 -2.378374581552564e-17 -0.9987937605740314 0.049102177530455836
12667898666.666666 -0.998373977919291 0.057003510536277356 6.582369041899851e-17 -2.4306508206549628e-17 6.582369041899851e-17 -2.4306508206549628e-17 -0.9983740132472633 0.05700289178981524
12668516000.0 -0.9978917300093667 0.06490065622750474 6.561432674724823e-17 -2.4827510581022274e-17 6.561432674724823e-17 -2.4827510581022274e-17 -0.997891770229668 0.06490003781005825
12669133333.333334 -0.9973470165988657 0.07279373929941058 6.540084375313712e-17 -2.534672027800302e-17 6.540084375313712e-17 -2.534672027800302e-17 -0.9973470617085008 0.0727931212496571
12669750666.666666 -0.9967398717855158 0.08068226566502863 6.518325670678281e-17 -2.5864104764000452e-17 6.518325670678281e-17 -2.5864104764000452e-17 -0.9967399217811854 0.08068164802161885
12670368000.0 -0.9960703335751019 0.08856574152251837 6.496158113495657e-17 -2.637963163499073e-17 6.496158113495657e-17 -2.637963163499073e-17 -0.9960703884532002 0.08856512432407368
