! Parameters = {f0=12700.012000; bw=77.238000; Q=6100.000000; N=10; m_0_1=1.283178; m_1_1=0.482927; m_1_2=1.117990; m_2_2=0.482278; m_2_3=0.754953; m_2_8=0.001223; m_2_9=0.037927; m_3_3=0.480341; m_3_4=0.643482; m_3_7=0.001823; m_3_8=-0.095265; m_3_9=0.001223; m_4_4=0.477416; m_4_5=0.479817; m_4_6=0.005340; m_4_7=-0.115814; m_4_8=0.001823; m_5_5=0.477798; m_5_6=0.887172; m_5_7=0.005340; m_6_6=0.477797; m_6_7=0.480159; m_7_7=0.477430; m_7_8=0.643600; m_8_8=0.480339; m_8_9=0.755266; m_9_9=0.482273; m_9_10=1.119068; m_10_10=0.482917; m_10_11=1.283973}
!
! Created with skrf (http://scikit-rf.org).
# Hz S RI R 50.0 
!freq ReS11 ImS11 ReS21 ImS21 ReS12 ImS12 ReS22 ImS22
12607400000.0 0.6119994621689263 -0.7908581783763539 -4.2605791806099117e-17 1.0965967248768045e-16 -4.2605791806099117e-17 1.0965967248768045e-16 0.6119999968128561 -0.7908577646460102
12608017333.333334 0.6033329318014654 -0.7974894189916677 -4.1388741662190976e-17 1.1010017830512177e-16 -4.1388741662190976e-17 1.1010017830512177e-16 0.6033334709019209 -0.7974890111401286
12608634666.666666 0.5945945552831613 -0.8040256928901209 -4.01671588105751e-17 1.1052718612949464e-16 -4.01671588105751e-17 1.1052718612949464e-16 0.5945950987755123 -0.8040252909653764
12609252000.0 0.5857853731982972 -0.8104662217185561 -3.894119285182291e-17 1.1094064957397099e-16 -3.894119285182291e-17 1.1094064957397099e-16 0.5857859210173965 -0.8104658257678852
12609869333.333334 0.5769064345627838 -0.8168102385253729 -3.771099385823603e-17 1.113405239086555e-16 -3.771099385823603e-17 1.113405239086555e-16 0.5769069866429757 -0.8168098485953396
12610486666.666666 0.5679587966994498 -0.8230569878517126 -3.64767123555355e-17 1.1172676606533886e-16 -3.64767123555355e-17 1.1172676606533886e-16 0.5679593529745771 -0.8230566039881578
12611104000.0 0.5589435251117145 -0.8292057258217107 -3.5238499304420583e-17 1.120993346420746e-16 -3.5238499304420583e-17 1.120993346420746e-16 0.5589440855151281 -0.8292053480697511
12611721333.333334 0.5498616933572208 -0.8352557202307271 -3.399650608219045e-17 1.1245818990751805e-16 -3.399650608219045e-17 1.1245818990751805e-16 0.5498622578217849 -0.8352553486347442
12612338666.666666 0.5407143829195916 -0.8412062506328063 -3.2750884464246056e-17 1.1280329380508544e-16 -3.2750884464246056e-17 1.1280329380508544e-16 0.5407149513776958 -0.8412058852364477
12612956000.0 0.5315026830797426 -0.8470566084264107 -3.150178660555442e-17 1.1313460995690777e-16 -3.150178660555442e-17 1.1313460995690777e-16 0.5315032554633048 -0.8470562492725783
12613573333.333334 0.5222276907863295 -0.852806096938687 -3.024936502213178e-17 1.1345210366756326e-16 -3.024936502213178e-17 1.1345210366756326e-16 0.5222282670268087 -0.8528057440695367
12614190666.666666 0.5128905105249831 -0.8584540315085263 -2.899377257242948e-17 1.1375574192762232e-16 -2.899377257242948e-17 1.1375574192762232e-16 0.512891090553385 -0.858453684965461
12614808000.0 0.5034922541867584 -0.8639997395681068 -2.7735162438704914e-17 1.1404549341698148e-16 -2.7735162438704914e-17 1.1404549341698148e-16 0.5034928379336446 -0.8639993993917731
12615425333.333334 0.4940340409357754 -0.8694425607229552 -2.647368810837344e-17 1.1432132850798853e-16 -2.647368810837344e-17 1.1432132850798853e-16 0.4940346283312717 -0.869442226953236
12616042666.666666 0.4845169970760215 -0.874781846830542 -2.5209503355314706e-17 1.1458321926836574e-16 -2.5209503355314706e-17 1.1458321926836574e-16 0.48451758804982653 -0.8747815195065558
12616660000.0 0.47494225591708333 -0.8800169620775573 -2.394276222117098e-17 1.1483113946392252e-16 -2.394276222117098e-17 1.1483113946392252e-16 0.47494285039847506 -0.8800166412376482
12617277333.333334 0.4653109576392332 -0.8851472830555829 -2.2673618996584655e-17 1.150650645610693e-16 -2.2673618996584655e-17 1.150650645610693e-16 0.46531155555708037 -0.885146968737322
12617894666.666666 0.45562424915786043 -0.8901721988352346 -2.14022282024652e-17 1.1528497172911414e-16 -2.14022282024652e-17 1.1528497172911414e-16 0.4556248504406289 -0.8901718910754116
12618512000.0 0.44588328398646376 -0.8950911110391311 -2.012874457116352e-17 1.1549083984236575e-16 -2.012874457116352e-17 1.1549083984236575e-16 0.4458838885622259 -0.8950908098737513
12619129333.333334 0.4360892220997185 -0.8999034339129298 -1.8853323027729836e-17 1.1568264948201162e-16 -1.8853323027729836e-17 1.1568264948201162e-16 0.4360898298961612 -0.8999031393772091
12619746666.666666 0.4262432297951667 -0.9046085943951704 -1.757611867104405e-17 1.1586038293780883e-16 -1.757611867104405e-17 1.1586038293780883e-16 0.426243840739601 -0.9046083065235327
12620364000.0 0.4163464795541788 -0.9092060321855892 -1.6297286754994565e-17 1.1602402420955484e-16 -1.6297286754994565e-17 1.1602402420955484e-16 0.4163470935735476 -0.9092057510116616
12620981333.333334 0.4064001499026391 -0.9136951998116949 -1.501698266967581e-17 1.161735590083495e-16 -1.501698266967581e-17 1.161735590083495e-16 0.4064007669235266 -0.9136949253683031
12621598666.666666 0.39640542527042616 -0.9180755626940482 -1.3735361922484132e-17 1.1630897475766116e-16 -1.3735361922484132e-17 1.1630897475766116e-16 0.39640604521906614 -0.9180752950132137
12622216000.0 0.3863634958503404 -0.922346599209931 -1.2452580119289278e-17 1.1643026059417376e-16 -1.2452580119289278e-17 1.1643026059417376e-16 0.3863641186526254 -0.9223463383228665
12622833333.333334 0.3762755574563998 -0.926507800755448 -1.1168792945558608e-17 1.165374073684326e-16 -1.1168792945558608e-17 1.165374073684326e-16 0.3762761830378897 -0.9265075466925545
12623450666.666666 0.36614281138162313 -0.9305586718060187 -9.884156147518636e-18 1.166304076452782e-16 -9.884156147518636e-18 1.166304076452782e-16 0.3661434396675543 -0.9305584245968823
12624068000.0 0.35596646425469064 -0.934498729975507 -8.598825513253752e-18 1.1670925570407866e-16 -8.598825513253752e-18 1.1670925570407866e-16 0.3559670951699845 -0.9344984896488935
12624685333.333334 0.345747727896304 -0.9383275060736331 -7.31295685385022e-18 1.1677394753874966e-16 -7.31295685385022e-18 1.1677394753874966e-16 0.34574836136557663 -0.9383272726574874
12625302666.666666 0.3354878191752291 -0.9420445441617227 -6.026705984581402e-18 1.1682448085756635e-16 -6.026705984581402e-18 1.1682448085756635e-16 0.33548845512279973 -0.9420443176831638
12625920000.0 0.32518795986282883 -0.9456494016072079 -4.740228705986933e-18 1.1686085508277375e-16 -4.740228705986933e-18 1.1686085508277375e-16 0.32518859821272855 -0.9456491820925247
12626537333.333334 0.3148493764880243 -0.9491416491361674 -3.4536807850872436e-18 1.1688307134998368e-16 -3.4536807850872436e-18 1.1688307134998368e-16 0.31485001716400574 -0.9491414366108174
12627154666.666666 0.30447330019115854 -0.9525208708844781 -2.1672179365430558e-18 1.1689113250736774e-16 -2.1672179365430558e-18 1.1689113250736774e-16 0.30447394311670517 -0.9525206653730858
12627772000.0 0.2940609665770677 -0.9557866644474495 -8.809958037987194e-19 1.1688504311464432e-16 -8.809958037987194e-19 1.1688504311464432e-16 0.2940616116754023 -0.9557864659737999
12628389333.333334 0.2836136155684259 -0.9589386409275755 4.048300596588498e-19 1.1686480944185615e-16 4.048300596588498e-19 1.1686480944185615e-16 0.2836142627625202 -0.9589384495146147
12629006666.666666 0.27313249125763406 -0.9619764249809966 1.6901042091392602e-18 1.168304394679439e-16 1.6901042091392602e-18 1.168304394679439e-16 0.2731331404702178 -0.9619762406508268
12629624000.0 0.2626188417590778 -0.9648996548620693 2.9746713274609315e-18 1.167819428791125e-16 2.9746713274609315e-18 1.167819428791125e-16 0.2626194929126477 -0.9648994776359476
12630241333.333334 0.25207391906017224 -0.9677079824665429 4.258376243730312e-18 1.1671933106699203e-16 4.258376243730312e-18 1.1671933106699203e-16 0.2520745720770016 -0.9677078123648778
12630858666.666666 0.24149897887251873 -0.9704010733729382 5.5410639520230085e-18 1.1664261712659277e-16 5.5410639520230085e-18 1.1664261712659277e-16 0.24149963367466684 -0.9704009104152893
12631476000.0 0.2308952804821534 -0.9729786068824368 6.822579630113986e-18 1.1655181585405435e-16 6.822579630113986e-18 1.1655181585405435e-16 0.23089593699147423 -0.9729784510875098
12632093333.333334 0.22026408659975236 -0.975440276057021 8.102768658078725e-18 1.164469437441926e-16 8.102768658078725e-18 1.164469437441926e-16 0.22026474473790428 -0.975440127442667
12632710666.666666 0.20960666321032226 -0.9777857877560178 9.381476636958835e-18 1.1632801898783922e-16 9.381476636958835e-18 1.1632801898783922e-16 0.2096073228987774 -0.9777856463392312
12633328000.0 0.19892427942211102 -0.980014862671079 1.065854940736035e-17 1.1619506146897627e-16 1.065854940736035e-17 1.1619506146897627e-16 0.19892494058216506 -0.9800147284679975
12633945333.333334 0.18821820731584105 -0.9821272353593659 1.1933833067969616e-17 1.160480927616727e-16 1.1933833067969616e-17 1.160480927616727e-16 0.18821886986862138 -0.982127108385264
12634562666.666666 0.17748972179303135 -0.9841226542751935 1.3207173994106709e-17 1.1588713612681088e-16 1.3207173994106709e-17 1.1588713612681088e-16 0.17749038565950762 -0.9841225345444846
12635180000.0 0.16674010042432041 -0.9860008817999651 1.4478418856185267e-17 1.1571221650861454e-16 1.4478418856185267e-17 1.1571221650861454e-16 0.1667407655253134 -0.9860007693261975
12635797333.333334 0.15597062329713363 -0.9877616942704974 1.5747414638155835e-17 1.1552336053097248e-16 1.5747414638155835e-17 1.1552336053097248e-16 0.15597128955332512 -0.9877615890663564
12636414666.666666 0.14518257286344508 -0.9894048820056287 1.7014008655867906e-17 1.1532059649356473e-16 1.7014008655867906e-17 1.1532059649356473e-16 0.14518324019538673 -0.9894047840829302
12637032000.0 0.13437723378697486 -0.9909302493311939 1.8278048575450293e-17 1.1510395436777886e-16 1.8278048575450293e-17 1.1510395436777886e-16 0.13437790211509834 -0.9909301587008876
12637649333.333334 0.12355589279015389 -0.9923376146033408 1.9539382431579662e-17 1.148734657924341e-16 1.9539382431579662e-17 1.148734657924341e-16 0.12355656203477984 -0.9923375312755065
12638266666.666666 0.11271983850095331 -0.9936268102301485 2.0797858645713692e-17 1.1462916406930383e-16 2.0797858645713692e-17 1.1462916406930383e-16 0.11272050858230098 -0.9936267342139947
12638884000.0 0.10187036129951718 -0.9947976826915743 2.2053326044296524e-17 1.1437108415843337e-16 2.2053326044296524e-17 1.1437108415843337e-16 0.10187103213771405 -0.9947976139954385
12639501333.333334 0.0910087531643037 -0.9958500925577608 2.330563387688194e-17 1.1409926267326438e-16 2.330563387688194e-17 1.1409926267326438e-16 0.09100942467939487 -0.9958500311891075
12640118666.666666 0.08013630751851604 -0.9967839145056058 2.4554631834175712e-17 1.138137378755656e-16 2.4554631834175712e-17 1.138137378755656e-16 0.08013697963047399 -0.9967838604710281
12640736000.0 0.06925431907556981 -0.9975990373337373 2.5800170066117774e-17 1.1351454967014478e-16 2.5800170066117774e-17 1.1351454967014478e-16 0.06925499170430362 -0.9975989906389531
12641353333.333334 0.05836408368570858 -0.9982953639756869 2.7042099199740346e-17 1.1320173959939992e-16 2.7042099199740346e-17 1.1320173959939992e-16 0.058364756751073596 -0.9982953246255383
12641970666.666666 0.04746689818089791 -0.9988728115115086 2.82802703571258e-17 1.1287535083763674e-16 2.82802703571258e-17 1.1287535083763674e-16 0.04746757160270542 -0.9988727795099651
12642588000.0 0.036564060220906344 -0.9993313111776209 2.951453517317851e-17 1.12535428185219e-16 2.951453517317851e-17 1.12535428185219e-16 0.03656473391893297 -0.999331286527775
12643205333.333334 0.02565686813855041 -0.9996708083750075 3.074474581339529e-17 1.1218201806250867e-16 3.074474581339529e-17 1.1218201806250867e-16 0.025657542032547716 -0.9996707910790772
12643822666.666666 0.014746620785086224 -0.999891262675718 3.197075499154212e-17 1.1181516850361696e-16 3.197075499154212e-17 1.1181516850361696e-16 0.014747294794790278 -0.9998912527350443
12644440000.0 0.0038346173756247806 -0.9999926478276747 3.3192415987248015e-17 1.1143492914996569e-16 3.3192415987248015e-17 1.1143492914996569e-16 0.0038352914207657207 -0.9999926452427228
12645057333.333334 -0.007077842665495878 -0.9999749517578043 3.4409582663524095e-17 1.1104135124365778e-16 3.4409582663524095e-17 1.1104135124365778e-16 -0.007077168665184306 -0.9999749565281648
12645674666.666666 -0.017989459859619465 -0.9998381765734794 3.5622109484233307e-17 1.1063448762064758e-16 3.5622109484233307e-17 1.1063448762064758e-16 -0.01798878598439033 -0.9998381886978654
12646292000.0 -0.02889893482862969 -0.9995823385622571 3.6829851531474274e-17 1.10214392703722e-16 3.6829851531474274e-17 1.10214392703722e-16 -0.02889826115871336 -0.9995823580385077
12646909333.333334 -0.03980496844922838 -0.9992074681899534 3.8032664522820935e-17 1.0978112249531409e-16 3.8032664522820935e-17 1.0978112249531409e-16 -0.039804295064822894 -0.9992074950150308
12647526666.666666 -0.05070626200809237 -0.9987136100970034 3.9230404828578916e-17 1.093347345700948e-16 3.9230404828578916e-17 1.093347345700948e-16 -0.05070558898935395 -0.9987136442669957
12648144000.0 -0.061601517356413116 -0.9981008230931423 4.042292948889022e-17 1.0887528806739877e-16 4.042292948889022e-17 1.0887528806739877e-16 -0.06160084478344673 -0.9981008646032657
12648761333.333334 -0.07248943706428468 -0.9973691801504214 4.161009623075992e-17 1.0840284368346199e-16 4.161009623075992e-17 1.0840284368346199e-16 -0.07248876501713428 -0.9973692289950155
12649378666.666666 -0.0833687245753744 -0.9965187683945026 4.279176348498705e-17 1.0791746366347607e-16 4.279176348498705e-17 1.0791746366347607e-16 -0.08336805313401349 -0.9965188245670349
12649996000.0 -0.09423808436137628 -0.9955496890942807 4.3967790403049756e-17 1.0741921179344042e-16 4.3967790403049756e-17 1.0741921179344042e-16 -0.09423741360569848 -0.9955497525873473
12650613333.333334 -0.1050962220761151 -0.9944620576498371 4.513803687384429e-17 1.0690815339185131e-16 4.513803687384429e-17 1.0690815339185131e-16 -0.1050955520859247 -0.9944621284551639
12651230666.666666 -0.11594184470973706 -0.9932560035786964 4.63023635403259e-17 1.0638435530121143e-16 4.63023635403259e-17 1.0638435530121143e-16 -0.11594117556473921 -0.993256081687138
12651848000.0 -0.12677366074288116 -0.9919316705003772 4.746063181612126e-17 1.0584788587932753e-16 4.746063181612126e-17 1.0584788587932753e-16 -0.12677299252267274 -0.9919317559019202
12652465333.333334 -0.13759038030013754 -0.9904892161193295 4.86127039019567e-17 1.0529881499046561e-16 4.86127039019567e-17 1.0529881499046561e-16 -0.13758971308419746 -0.9904893088030929
12653082666.666666 -0.1483907153038181 -0.9889288122061375 4.975844280201232e-17 1.0473721399631563e-16 4.975844280201232e-17 1.0473721399631563e-16 -0.14839004917149792 -0.9889289121603743
12653700000.0 -0.1591733796275399 -0.9872506445770329 5.089771234022882e-17 1.0416315574675173e-16 5.089771234022882e-17 1.0416315574675173e-16 -0.15917271465805455 -0.9872507517891316
12654317333.333334 -0.16993708924890247 -0.9854549130718413 5.203037717640788e-17 1.0357671457046424e-16 5.203037717640788e-17 1.0357671457046424e-16 -0.1699364255213206 -0.9854550275283278
12654934666.666666 -0.18068056240284106 -0.9835418315301155 5.31563028222942e-17 1.0297796626537372e-16 5.31563028222942e-17 1.0297796626537372e-16 -0.18067989999607556 -0.9835419532166528
12655552000.0 -0.19140251973417666 -0.9815116277656771 5.427535565750026e-17 1.0236698808889318e-16 5.427535565750026e-17 1.0236698808889318e-16 -0.19140185872697582 -0.9815117566670708
12656169333.333334 -0.20210168444962995 -0.9793645435395559 5.538740294532415e-17 1.017438587480182e-16 5.538740294532415e-17 1.017438587480182e-16 -0.20210102492056758 -0.9793646796397538
12656786666.666666 -0.2127767824703111 -0.9771008345311156 5.649231284848219e-17 1.0110865838922818e-16 5.649231284848219e-17 1.0110865838922818e-16 -0.21277612449777716 -0.9771009778132084
12657404000.0 -0.22342654258318836 -0.9747207703076527 5.7589954444684e-17 1.004614685882423e-16 5.7589954444684e-17 1.004614685882423e-16 -0.22342588624537987 -0.974720920753878
12658021333.333334 -0.23404969659257766 -0.9722246342922726 5.86801977421365e-17 9.980237233958026e-17 5.86801977421365e-17 9.980237233958026e-17 -0.23404904196748966 -0.9722247918840178
12658638666.666666 -0.2446449794709139 -0.9696127237302 5.976291369488102e-17 9.91314540459839e-17 5.976291369488102e-17 9.91314540459839e-17 -0.2446443266363296 -0.9696128884480025
12659256000.0 -0.25521112950983477 -0.9668853496532746 6.083797421806907e-17 9.844879950763663e-17 6.083797421806907e-17 9.844879950763663e-17 -0.25521047854331663 -0.9668855214768255
12659873333.333334 -0.26574688847009575 -0.9640428368429922 6.190525220304586e-17 9.775449591126117e-17 6.190525220304586e-17 9.775449591126117e-17 -0.26574623944897613 -0.9640430157511377
12660490666.666666 -0.2762510017313227 -0.9610855237918543 6.296462153236351e-17 9.704863181902171e-17 6.296462153236351e-17 9.704863181902171e-17 -0.27625035473269505 -0.9610857097626005
12661108000.0 -0.28672221844185286 -0.9580137626629396 6.401595709466997e-17 9.633129715726032e-17 6.401595709466997e-17 9.633129715726032e-17 -0.28672157354256245 -0.9580139556734538
12661725333.333334 -0.2971592916672244 -0.954827919248099 6.505913479940554e-17 9.560258320511752e-17 6.505913479940554e-17 9.560258320511752e-17 -0.29715864894385846 -0.9548281192747112
12662342666.666666 -0.3075609785388817 -0.9515283729243321 6.609403159146279e-17 9.486258258293121e-17 6.609403159146279e-17 9.486258258293121e-17 -0.30756033806776106 -0.9515285799425394
12662960000.0 -0.3179260404022061 -0.9481155166086025 6.71205254656446e-17 9.411138924052559e-17 6.71205254656446e-17 9.411138924052559e-17 -0.3179254022593762 -0.9481157305930723
12663577333.333334 -0.3282532429639626 -0.9445897567110617 6.813849548102212e-17 9.334909844532131e-17 6.813849548102212e-17 9.334909844532131e-17 -0.32825260722518446 -0.9445899776356355
12664194666.666666 -0.33854135643920275 -0.9409515130866871 6.914782177514009e-17 9.257580677030535e-17 6.914782177514009e-17 9.257580677030535e-17 -0.33854072317994316 -0.9409517409243804
12664812000.0 -0.3487891556978698 -0.9372012189852228 7.014838557811212e-17 9.179161208182673e-17 7.014838557811212e-17 9.179161208182673e-17 -0.3487885249932934 -0.9372014537082326
12665429333.333334 -0.35899542041063676 -0.9333393209996097 7.114006922655739e-17 9.09966135272573e-17 7.114006922655739e-17 9.09966135272573e-17 -0.35899479233559595 -0.9333395625793132
12666046666.666666 -0.36915893519401166 -0.929366279012879 7.212275617738299e-17 9.01909115225144e-17 7.212275617738299e-17 9.01909115225144e-17 -0.36915830982303954 -0.929366527419843
12666664000.0 -0.379278489755522 -0.925282566143225 7.3096331021489e-17 8.937460773938336e-17 7.3096331021489e-17 8.937460773938336e-17 -0.37927786716282164 -0.9252828213472042
12667281333.333334 -0.3893528790373856 -0.9210886686878309 7.4060679497245e-17 8.854780509276411e-17 7.4060679497245e-17 8.854780509276411e-17 -0.38935225929682227 -0.921088930657774
12667898666.666666 -0.39938090336019877 -0.9167850860648933 7.501568850388272e-17 8.771060772772151e-17 7.501568850388272e-17 8.771060772772151e-17 -0.39938028654529095 -0.9167853547689465
12668516000.0 -0.4093613685659522 -0.91237233075408 7.596124611474094e-17 8.686312100639463e-17 7.596124611474094e-17 8.686312100639463e-17 -0.40936075474986294 -0.9123726061595911
12669133333.333334 -0.419293086159895 -0.9078509282356503 7.689724159031562e-17 8.600545149480387e-17 7.689724159031562e-17 8.600545149480387e-17 -0.4192924754154231 -0.9078512103091719
12669750666.666666 -0.4291748734523755 -0.9032214169277424 7.78235653912235e-17 8.513770694946462e-17 7.78235653912235e-17 8.513770694946462e-17 -0.42917426585194646 -0.9032217056350362
12670368000.0 -0.43900555369947 -0.8984843481223493 7.874010919096558e-17 8.425999630390417e-17 7.874010919096558e-17 8.425999630390417e-17 -0.43900494931512846 -0.8984846434283911
