! Parameters = {f0=12700.012000; bw=77.238000; Q=6100.000000; N=10; m_0_1=1.249144; m_1_1=-0.027584; m_1_2=1.083956; m_2_2=-0.028233; m_2_3=0.720919; m_2_8=-0.000479; m_2_9=0.036225; m_3_3=-0.030170; m_3_4=0.609448; m_3_7=0.000121; m_3_8=-0.096967; m_3_9=-0.000479; m_4_4=-0.033095; m_4_5=0.445783; m_4_6=0.003638; m_4_7=-0.117516; m_4_8=0.000121; m_5_5=-0.032713; m_5_6=0.853138; m_5_7=0.003638; m_6_6=-0.032714; m_6_7=0.446125; m_7_7=-0.033081; m_7_8=0.609566; m_8_8=-0.030172; m_8_9=0.721232; m_9_9=-0.028238; m_9_10=1.085034; m_10_10=-0.027594; m_10_11=1.249939}
!
! Created with skrf (http://scikit-rf.org).
# Hz S RI R 50.0 
!freq ReS11 ImS11 ReS21 ImS21 ReS12 ImS12 ReS22 ImS22
12607400000.0 0.6971023611598997 0.7169716159410519 -8.732666361990387e-17 -4.901207200247635e-17 -8.732666361990387e-17 -4.901207200247635e-17 0.6971018892770336 0.7169720747464432
12608017333.333334 0.704170642297538 0.7100307785766066 -8.779497587081241e-17 -4.8127374142642737e-17 -8.779497587081241e-17 -4.8127374142642737e-17 0.7041701750057405 0.7100312420113738
12608634666.666666 0.7111698190689141 0.7030202617601555 -8.825433311774193e-17 -4.723821435420108e-17 -8.825433311774193e-17 -4.723821435420108e-17 0.7111693564135907 0.7030207297783675
12609252000.0 0.7180992046041572 0.6959407534745371 -8.870469298236204e-17 -4.634468320360709e-17 -8.870469298236204e-17 -4.634468320360709e-17 0.7180987466302549 0.6959412260298179
12609869333.333334 0.7249581188823584 0.6887929484731836 -8.914601400153025e-17 -4.544687165840853e-17 -8.914601400153025e-17 -4.544687165840853e-17 0.7249576656343606 0.6887934255187167
12610486666.666666 0.7317458887983656 0.6815775482118819 -8.957825563105701e-17 -4.4544871078037675e-17 -8.957825563105701e-17 -4.4544871078037675e-17 0.7317454403202867 0.6815780297004145
12611104000.0 0.7384618482288947 0.6742952607798711 -9.000137824941649e-17 -4.363877320448936e-17 -9.000137824941649e-17 -4.363877320448936e-17 0.7384614045642779 0.6742957466637197
12611721333.333334 0.7451053380977866 0.6669468008304806 -9.04153431613211e-17 -4.272867015305421e-17 -9.04153431613211e-17 -4.272867015305421e-17 0.7451048992896976 0.6669472910615344
12612338666.666666 0.7516757064407243 0.659532889510954 -9.082011260123099e-17 -4.18146544029565e-17 -9.082011260123099e-17 -4.18146544029565e-17 0.7516752725317482 0.6595333840406803
12612956000.0 0.7581723084693446 0.65205425439153 -9.121564973676879e-17 -4.089681878795908e-17 -9.121564973676879e-17 -4.089681878795908e-17 0.7581718795015823 0.6520547531709799
12613573333.333334 0.7645945066342916 0.6445116293942986 -9.160191867201294e-17 -3.997525648699921e-17 -9.160191867201294e-17 -3.997525648699921e-17 0.7645940826493539 0.6445121323741098
12614190666.666666 0.7709416706879131 0.6369057547210263 -9.197888445073575e-17 -3.9050061014702436e-17 -9.197888445073575e-17 -3.9050061014702436e-17 0.7709412517269182 0.6369062618514297
12614808000.0 0.7772131777461453 0.6292373767804716 -9.234651305951094e-17 -3.8121326211947155e-17 -9.234651305951094e-17 -3.8121326211947155e-17 0.7772127638497152 0.6292378880112962
12615425333.333334 0.7834084123495157 0.6215072481152903 -9.27047714307513e-17 -3.7189146236343357e-17 -9.27047714307513e-17 -3.7189146236343357e-17 0.7834080035577705 0.621507763395967
12616042666.666666 0.7895267665236841 0.613716127328007 -9.305362744563157e-17 -3.6253615552727694e-17 -9.305362744563157e-17 -3.6253615552727694e-17 0.7895263628762395 0.6137166466075744
12616660000.0 0.7955676398389627 0.605864779006745 -9.339304993693136e-17 -3.5314828923592134e-17 -9.339304993693136e-17 -3.5314828923592134e-17 0.7955672413749258 0.6058653022338547
12617277333.333334 0.8015304394694014 0.5979539736499944 -9.37230086917728e-17 -3.437288139951051e-17 -9.37230086917728e-17 -3.437288139951051e-17 0.801530046227366 0.5979545007729147
12617894666.666666 0.8074145802507366 0.5899844875912891 -9.404347445425616e-17 -3.342786830955609e-17 -9.404347445425616e-17 -3.342786830955609e-17 0.807414192268782 0.5899850185579123
12618512000.0 0.8132194847381449 0.5819571029225916 -9.435441892802374e-17 -3.247988525162556e-17 -9.435441892802374e-17 -3.247988525162556e-17 0.8132191020538284 0.5819576376804368
12619129333.333334 0.818944583262535 0.5738726074180415 -9.465581477868896e-17 -3.152902808284706e-17 -9.465581477868896e-17 -3.152902808284706e-17 0.8189442059128922 0.5738731459142618
12619746666.666666 0.8245893139867605 0.5657317944562373 -9.494763563620641e-17 -3.057539290985894e-17 -9.494763563620641e-17 -3.057539290985894e-17 0.8245889420082982 0.5657323366376231
12620364000.0 0.8301531229606132 0.5575354629425561 -9.522985609711947e-17 -2.9619076079136914e-17 -9.522985609711947e-17 -2.9619076079136914e-17 0.8301527563893099 0.5575360087555429
12620981333.333334 0.8356354641751813 0.5492844172307825 -9.550245172671787e-17 -2.8660174167285435e-17 -9.550245172671787e-17 -2.8660174167285435e-17 0.8356351030464785 0.5492849666214528
12621598666.666666 0.8410357996164551 0.5409794670441204 -9.576539906110392e-17 -2.7698783971285125e-17 -9.576539906110392e-17 -2.7698783971285125e-17 0.8410354439652595 0.5409800199582129
12622216000.0 0.8463535993181788 0.5326214273956631 -9.601867560914913e-17 -2.6735002498762867e-17 -9.601867560914913e-17 -2.6735002498762867e-17 0.8463532491788549 0.5326219837785751
12622833333.333334 0.8515883414137626 0.5242111185085521 -9.626225985436648e-17 -2.5768926958198426e-17 -9.626225985436648e-17 -2.5768926958198426e-17 0.8515879968201305 0.5242116783053454
12623450666.666666 0.8567395121875585 0.5157493657353875 -9.649613125666863e-17 -2.480065474917215e-17 -9.649613125666863e-17 -2.480065474917215e-17 0.8567391731728912 0.515749928890795
12624068000.0 0.8618066061252313 0.5072369994773064 -9.672027025404656e-17 -2.3830283452529053e-17 -9.672027025404656e-17 -2.3830283452529053e-17 0.8618062727222509 0.5072375659357365
12624685333.333334 0.8667891259634818 0.4986748551022933 -9.693465826413447e-17 -2.285791082058322e-17 -9.693465826413447e-17 -2.285791082058322e-17 0.8667887982043571 0.498675424807836
12625302666.666666 0.8716865827386598 0.4900637728635198 -9.713927768568143e-17 -2.1883634767298482e-17 -9.713927768568143e-17 -2.1883634767298482e-17 0.8716862606550021 0.4900643457599518
12625920000.0 0.8764984958349191 0.48140459781659034 -9.733411189993145e-17 -2.0907553358414784e-17 -9.733411189993145e-17 -2.0907553358414784e-17 0.87649817945778 0.48140517384738074
12626537333.333334 0.8812243930312863 0.47269817973678524 -9.751914527188961e-17 -1.9929764801641166e-17 -9.751914527188961e-17 -1.9929764801641166e-17 0.8812240823911538 0.4726987588451009
12627154666.666666 0.8858638105479748 0.46394537303571753 -9.769436315150347e-17 -1.8950367436771776e-17 -9.769436315150347e-17 -1.8950367436771776e-17 0.885863505674771 0.4639459551644289
12627772000.0 0.8904162930920876 0.45514703667713424 -9.78597518747443e-17 -1.79694597257924e-17 -9.78597518747443e-17 -1.79694597257924e-17 0.8904159940151657 0.45514762176882073
12628389333.333334 0.8948813939020016 0.44630403409317193 -9.801529876457783e-17 -1.6987140243045555e-17 -9.801529876457783e-17 -1.6987140243045555e-17 0.8948811006501456 0.4463046220901293
12629006666.666666 0.8992586747915209 0.43741723309904756 -9.816099213185031e-17 -1.6003507665310235e-17 -9.816099213185031e-17 -1.6003507665310235e-17 0.8992583873929373 0.4374178239432905
12629624000.0 0.9035477061926233 0.42848750580837097 -9.829682127606707e-17 -1.5018660761919826e-17 -9.829682127606707e-17 -1.5018660761919826e-17 0.903547424674942 0.42848809944164057
12630241333.333334 0.9077480671977983 0.41951572854720476 -9.842277648607355e-17 -1.403269838486913e-17 -9.842277648607355e-17 -1.403269838486913e-17 0.9077477915880702 0.41951632491097474
12630858666.666666 0.9118593456011814 0.4105027817684251 -9.853884904063934e-17 -1.3045719458908713e-17 -9.853884904063934e-17 -1.3045719458908713e-17 0.9118590759258757 0.4105033808039071
12631476000.0 0.9158811379392344 0.4014495499648275 -9.864503120894399e-17 -1.205782297161605e-17 -9.864503120894399e-17 -1.205782297161605e-17 0.9158808742242341 0.40145015161297626
12632093333.333334 0.9198130495300898 0.392356921582869 -9.874131625095652e-17 -1.1069107963531666e-17 -9.874131625095652e-17 -1.1069107963531666e-17 0.9198127918006912 0.3923575257843888
12632710666.666666 0.9236546945124496 0.38322578893511805 -9.882769841772564e-17 -1.0079673518212557e-17 -9.882769841772564e-17 -1.0079673518212557e-17 0.9236544427933582 0.38322639563046823
12633328000.0 0.9274056958834123 0.37405704811276214 -9.890417295156499e-17 -9.089618752329988e-18 -9.890417295156499e-17 -9.089618752329988e-18 0.9274054501987432 0.3740576572421637
12633945333.333334 0.9310656855354538 0.36485159889772434 -9.897073608614057e-17 -8.099042805762306e-18 -9.897073608614057e-17 -8.099042805762306e-18 0.9310654459087255 0.36485221040116456
12634562666.666666 0.9346343042925668 0.35561034467430674 -9.902738504645863e-17 -7.10804483169494e-18 -9.902738504645863e-17 -7.10804483169494e-18 0.9346340707467031 0.35561095849154645
12635180000.0 0.9381112019454745 0.3463341923406449 -9.907411804875686e-17 -6.1167239866947944e-18 -9.907411804875686e-17 -6.1167239866947944e-18 0.9381109745027986 0.34633480841122327
12635797333.333334 0.9414960372860746 0.3370240522194943 -9.911093430029352e-17 -5.125179420827578e-18 -9.911093430029352e-17 -5.125179420827578e-18 0.9414958159683098 0.33702467048273566
12636414666.666666 0.9447884781408078 0.3276808379692155 -9.913783399904014e-17 -4.133510267751514e-18 -9.913783399904014e-17 -4.133510267751514e-18 0.944788262969073 0.3276814583642345
12637032000.0 0.9479882014033908 0.31830546649373753 -9.915481833327452e-17 -3.141815634816528e-18 -9.915481833327452e-17 -3.141815634816528e-18 0.9479879923982004 0.31830608895944595
12637649333.333334 0.9510948930664102 0.308898857852898 -9.916188948107477e-17 -2.150194593198135e-18 -9.916188948107477e-17 -2.150194593198135e-18 0.9510946902476729 0.3088994823280107
12638266666.666666 0.9541082482522226 0.2994619351719106 -9.91590506097153e-17 -1.1587461679964991e-18 -9.91590506097153e-17 -1.1587461679964991e-18 0.9541080516392366 0.2994625615949508
12638884000.0 0.957027971242801 0.28999562455098915 -9.91463058749638e-17 -1.6756932838906926e-19 -9.91463058749638e-17 -1.6756932838906926e-19 0.9570277808542536 0.28999625286029496
12639501333.333334 0.9598537755088336 0.2805008549742202 -9.912366042028012e-17 8.232370222552665e-19 -9.912366042028012e-17 8.232370222552665e-19 0.9598535913627998 0.2805014851079507
12640118666.666666 0.9625853837377248 0.2709785582187768 -9.909112037591735e-17 1.8135740561867976e-18 -9.909112037591735e-17 1.8135740561867976e-18 0.9625852058516655 0.2709791901149181
12640736000.0 0.9652225278610056 0.261429668762824 -9.904869285792228e-17 2.8033430311812462e-18 -9.904869285792228e-17 2.8033430311812462e-18 0.9652223562517654 0.26143030235919545
12641353333.333334 0.9677649490803868 0.2518551236946868 -9.899638596704273e-17 3.792445300275938e-18 -9.899638596704273e-17 3.792445300275938e-18 0.9677647837641928 0.25185575892894685
12641970666.666666 0.9702123978933807 0.24225586262009502 -9.893420878753128e-17 4.780782321661572e-18 -9.893420878753128e-17 4.780782321661572e-18 0.9702122388858405 0.24225649942974736
12642588000.0 0.9725646341176504 0.23263282757046758 -9.8862171385855e-17 5.7682556684441985e-18 -9.8862171385855e-17 5.7682556684441985e-18 0.9725644814337517 0.2326334658928676
12643205333.333334 0.9748214269146459 0.22298696291021788 -9.878028480930749e-17 6.754767038422943e-18 -9.878028480930749e-17 6.754767038422943e-18 0.9748212805687548 0.22298760268257878
12643822666.666666 0.9769825548122306 0.21331921524418873 -9.868856108452033e-17 7.740218263887905e-18 -9.868856108452033e-17 7.740218263887905e-18 0.9769824148180885 0.21331985640358717
12644440000.0 0.9790478057264316 0.20363053332467235 -9.858701321588227e-17 8.724511321333442e-18 -9.858701321588227e-17 8.724511321333442e-18 0.9790476720971554 0.20363117580805523
12645057333.333334 0.9810169769822116 0.19392186795849883 -9.847565518385719e-17 9.70754834121504e-18 -9.847565518385719e-17 9.70754834121504e-18 0.9810168497302941 0.1939225117026895
12645674666.666666 0.9828898753334059 0.18419417191353404 -9.835450194320898e-17 1.0689231617639327e-17 -9.835450194320898e-17 1.0689231617639327e-17 0.9828897544707118 0.18419481685523817
12646292000.0 0.9846663169816996 0.17444839982506613 -9.822356942112281e-17 1.1669463618098233e-17 -9.822356942112281e-17 1.1669463618098233e-17 0.984666202519465 0.17444904590087784
12646909333.333334 0.9863461275945832 0.16468550810256852 -9.808287451524232e-17 1.264814699308159e-17 -9.808287451524232e-17 1.264814699308159e-17 0.9863460195434158 0.16468615524897712
12647526666.666666 0.9879291423225502 0.1549064548353674 -9.793243509159749e-17 1.36251845857737e-17 -9.793243509159749e-17 1.36251845857737e-17 0.9879290406924272 0.1549071029887632
12648144000.0 0.9894152058152258 0.14511219969886974 -9.777226998244345e-17 1.460047944166825e-17 -9.777226998244345e-17 1.460047944166825e-17 0.9894151106154939 0.14511284879555056
12648761333.333334 0.9908041722366341 0.13530370386027335 -9.760239898400595e-17 1.5573934818151063e-17 -9.760239898400595e-17 1.5573934818151063e-17 0.9908040834760072 0.1353043538364505
12649378666.666666 0.9920959052794747 0.12548192988446633 -9.742284285412557e-17 1.6545454194096883e-17 -9.742284285412557e-17 1.6545454194096883e-17 0.9920958229660345 0.1254825806762711
12649996000.0 0.993290278178552 0.11564784163919938 -9.723362330981055e-17 1.75149412794124e-17 -9.723362330981055e-17 1.75149412794124e-17 0.9932902023197472 0.1156484931826894
12650613333.333334 0.994387173723173 0.10580240420080576 -9.703476302469148e-17 1.8482300024574754e-17 -9.703476302469148e-17 1.8482300024574754e-17 0.9943871043258171 0.10580305643197097
12651230666.666666 0.9953864842686662 0.09594658375937999 -9.682628562639015e-17 1.9447434630095304e-17 -9.682628562639015e-17 1.9447434630095304e-17 0.9953864213389386 0.09594723661414911
12651848000.0 0.9962881117469483 0.08608134752390313 -9.660821569377862e-17 2.0410249556034728e-17 -9.660821569377862e-17 2.0410249556034728e-17 0.9962880552903939 0.08608200093815009
12652465333.333334 0.9970919676761469 0.07620766362735351 -9.638057875416018e-17 2.137064953140852e-17 -9.638057875416018e-17 2.137064953140852e-17 0.9970919176976738 0.07620831753690346
12653082666.666666 0.9977979731692646 0.06632650103192465 -9.614340128035243e-17 2.232853956358705e-17 -9.614340128035243e-17 2.232853956358705e-17 0.997797929673145 0.06632715537256044
12653700000.0 0.9984060589419592 0.05643882943342533 -9.589671068766385e-17 2.3283824947718525e-17 -9.589671068766385e-17 2.3283824947718525e-17 0.998406021931829 0.05643948414089378
12654317333.333334 0.9989161653192993 0.046545619166741325 -9.564053533080299e-17 2.423641127601328e-17 -9.564053533080299e-17 2.423641127601328e-17 0.9989161347981583 0.046546274176759564
12654934666.666666 0.9993282422416558 0.03664784111012897 -9.537490450066886e-17 2.518620444710381e-17 -9.537490450066886e-17 2.518620444710381e-17 0.9993282182118641 0.03664849635839058
12655552000.0 0.9996422492695968 0.02674646659002165 -9.509984842106512e-17 2.6133110675299444e-17 -9.509984842106512e-17 2.6133110675299444e-17 0.9996422317328807 0.026747122012203264
12656169333.333334 0.9998581555878556 0.016842467286049295 -9.481539824532121e-17 2.7077036499822916e-17 -9.481539824532121e-17 2.7077036499822916e-17 0.9998581445453022 0.016843122817816674
12656786666.666666 0.9999759400083633 0.0069368151351985865 -9.452158605281219e-17 2.801788879403443e-17 -9.452158605281219e-17 2.801788879403443e-17 0.999975935460423 0.006937470712213037
12657404000.0 0.9999955909723219 -0.0029695177631994213 -9.421844484540146e-17 2.895557477457897e-17 -9.421844484540146e-17 2.895557477457897e-17 0.9999955929188071 -0.0029688622052747673
12658021333.333334 0.9999171065513415 -0.012875559243151268 -9.390600854377748e-17 2.9890002010540987e-17 -9.390600854377748e-17 2.9890002010540987e-17 0.999917114991427 -0.012874903768645116
12658638666.666666 0.9997404944476276 -0.02278033716703591 -9.358431198371983e-17 3.082107843250179e-17 -9.358431198371983e-17 3.082107843250179e-17 0.9997405093798525 -0.022779681840262522
12659256000.0 0.9994657719932244 -0.0326828795215178 -9.325339091224766e-17 3.17487123416398e-17 -9.325339091224766e-17 3.17487123416398e-17 0.9994657934154904 -0.032682224406770655
12659873333.333334 0.9990929661483191 -0.04258221451245313 -9.291328198370986e-17 3.26728124186971e-17 -9.291328198370986e-17 3.26728124186971e-17 0.9990929940578903 -0.04258155967399862
12660490666.666666 0.998622113498591 -0.05247737066048491 -9.256402275576448e-17 3.3593287732971315e-17 -9.256402275576448e-17 3.3593287732971315e-17 0.9986221478920968 -0.052476716162556086
12661108000.0 0.9980532602516207 -0.06236737689643679 -9.220565168527315e-17 3.451004775124862e-17 -9.220565168527315e-17 3.451004775124862e-17 0.9980533011250531 -0.062366722803226964
12661725333.333334 0.9973864622323588 -0.0722512626564391 -9.183820812411813e-17 3.5423002346670646e-17 -9.183820812411813e-17 3.5423002346670646e-17 0.9973865095810759 -0.07225060903209571
12662342666.666666 0.9966217848776507 -0.08212805797726158 -9.146173231491533e-17 3.63320618075962e-17 -9.146173231491533e-17 3.63320618075962e-17 0.9966218386963737 -0.08212740488587969
12662960000.0 0.9957593032298006 -0.09199679359158601 -9.107626538665667e-17 3.7237136846376367e-17 -9.107626538665667e-17 3.7237136846376367e-17 0.9957593635126178 -0.09199614109720222
12663577333.333334 0.9947991019292275 -0.1018565010229281 -9.068184935024963e-17 3.8138138608125694e-17 -9.068184935024963e-17 3.8138138608125694e-17 0.9947991686695931 -0.10185584918951412
12664194666.666666 0.9937412752061371 -0.1117062126809059 -9.027852709398644e-17 3.9034978679405016e-17 -9.027852709398644e-17 3.9034978679405016e-17 0.9937413483968721 -0.11170556157236239
12664812000.0 0.9925859268712973 -0.12154496195596909 -8.986634237891117e-17 3.992756909689835e-17 -8.986634237891117e-17 3.992756909689835e-17 0.9925860065045911 -0.12154431163611938
12665429333.333334 0.991333170305824 -0.13137178331451213 -8.944533983411706e-17 4.0815822356002665e-17 -8.944533983411706e-17 4.0815822356002665e-17 0.9913332563732333 -0.13137113384709584
12666046666.666666 0.9899831284500952 -0.1411857123932607 -8.901556495195012e-17 4.169965141939199e-17 -8.901556495195012e-17 4.169965141939199e-17 0.989983220942548 -0.14118506384192775
12666664000.0 0.988535933791622 -0.15098578609444638 -8.857706408311997e-17 4.25789697255461e-17 -8.857706408311997e-17 4.25789697255461e-17 0.9885360326994137 -0.15098513852275025
12667281333.333334 0.9869917283521245 -0.16077104267970066 -8.812988443175743e-17 4.3453691197165705e-17 -8.812988443175743e-17 4.3453691197165705e-17 0.986991833664925 -0.16077039615109287
12667898666.666666 0.9853506636735335 -0.17054052186491497 -8.767407405034819e-17 4.4323730249621535e-17 -8.767407405034819e-17 4.4323730249621535e-17 0.9853507753803852 -0.17053987644273855
12668516000.0 0.9836129008031257 -0.18029326491439426 -8.720968183461266e-17 4.5189001799287764e-17 -8.720968183461266e-17 4.5189001799287764e-17 0.9836130188924416 -0.18029262066187707
12669133333.333334 0.9817786102777734 -0.19002831473460624 -8.673675751829739e-17 4.60494212718405e-17 -8.673675751829739e-17 4.60494212718405e-17 0.9817787347373449 -0.1900276717148557
12669750666.666666 0.9798479721071333 -0.1997447159685838 -8.625535166787914e-17 4.690490461050901e-17 -8.625535166787914e-17 4.690490461050901e-17 0.979848102924125 -0.19974407424457974
12670368000.0 0.9778211757560333 -0.20944151508934283 -8.576551567718557e-17 4.775536828427694e-17 -8.576551567718557e-17 4.775536828427694e-17 0.9778213129169891 -0.2094408747239321
