! Parameters = {f0=12700.012000; bw=77.238000; Q=6100.000000; N=10; m_0_1=1.158854; m_1_1=-1.381938; m_1_2=0.993666; m_2_2=-1.382587; m_2_3=0.630629; m_2_8=-0.004994; m_2_9=0.031710; m_3_3=-1.384524; m_3_4=0.519158; m_3_7=-0.004394; m_3_8=-0.101482; m_3_9=-0.004994; m_4_4=-1.387449; m_4_5=0.355493; m_4_6=-0.000877; m_4_7=-0.122031; m_4_8=-0.004394; m_5_5=-1.387067; m_5_6=0.762848; m_5_7=-0.000877; m_6_6=-1.387068; m_6_7=0.355835; m_7_7=-1.387435; m_7_8=0.519276; m_8_8=-1.384526; m_8_9=0.630942; m_9_9=-1.382592; m_9_10=0.994744; m_10_10=-1.381948; m_10_11=1.159649}
!
! Created with skrf (http://scikit-rf.org).
# Hz S RI R 50.0 
!freq ReS11 ImS11 ReS21 ImS21 ReS12 ImS12 ReS22 ImS22
12607400000.0 0.3609369733455966 -0.9325902107957026 -5.151973369784114e-18 6.325890350737285e-17 -5.151973369784114e-18 6.325890350737285e-17 0.3609375429156937 -0.9325899903568741
12608017333.333334 0.35417826166633776 -0.9351779290396373 -4.687494841856229e-18 6.328254971599129e-17 -4.687494841856229e-18 6.328254971599129e-17 0.3541788327888871 -0.9351777127392176
12608634666.666666 0.34740099938224095 -0.9377166659647649 -4.222946607543799e-18 6.330278925672074e-17 -4.222946607543799e-18 6.330278925672074e-17 0.34740157202717853 -0.9377164538136767
12609252000.0 0.34060554146236477 -0.9402062886010617 -3.75835362512002e-18 6.331962237798826e-17 -3.75835362512002e-18 6.331962237798826e-17 0.34060611559955023 -0.9402060806100111
12609869333.333334 0.3337922438288446 -0.942646666550919 -3.293740845480642e-18 6.333304951087073e-17 -3.293740845480642e-18 6.333304951087073e-17 0.33379281942806155 -0.942646462730391
12610486666.666666 0.3269614633382222 -0.94503767199598 -2.8291332108159994e-18 6.334307126900023e-17 -2.8291332108159994e-18 6.334307126900023e-17 0.32696204036918136 -0.9450374723562416
12611104000.0 0.3201135577625695 -0.9473791797039045 -2.3645556532551815e-18 6.334968844846033e-17 -2.3645556532551815e-18 6.334968844846033e-17 0.32011413619490936 -0.9473789842550021
12611721333.333334 0.31324888577109655 -0.949671067034802 -1.900033093565317e-18 6.335290202767078e-17 -1.900033093565317e-18 6.335290202767078e-17 0.31324946557438504 -0.9496708757865616
12612338666.666666 0.30636780691107157 -0.9519132139477606 -1.4355904397907346e-18 6.335271316726458e-17 -1.4355904397907346e-18 6.335271316726458e-17 0.30636838805480754 -0.9519130269097863
12612956000.0 0.29947068158909473 -0.9541055030070926 -9.712525859293641e-19 6.334912320995397e-17 -9.712525859293641e-19 6.334912320995397e-17 0.29947126404271046 -0.9541053201887693
12613573333.333334 0.29255787105230485 -0.9562478193884656 -5.070444106176146e-19 6.33421336803871e-17 -5.070444106176146e-19 6.33421336803871e-17 0.292558454785167 -0.9562476407989555
12614190666.666666 0.2856297373692958 -0.958340050884967 -4.2990775782368046e-20 6.333174628499516e-17 -4.2990775782368046e-20 6.333174628499516e-17 0.28563032235070623 -0.9583398765332077
12614808000.0 0.2786866434112314 -0.9603820879129488 4.208834746695878e-19 6.331796291182953e-17 4.208834746695878e-19 6.331796291182953e-17 0.2786872296104305 -0.9603819178076584
12615425333.333334 0.27172895283292414 -0.962373823517751 8.845535161894488e-19 6.330078563038943e-17 8.845535161894488e-19 6.330078563038943e-17 0.2717295402190911 -0.9623736576674229
12616042666.666666 0.2647570300536237 -0.9643151533793497 1.3479945449029277e-18 6.328021669144008e-17 1.3479945449029277e-18 6.328021669144008e-17 0.26475761859587843 -0.9643149917922524
12616660000.0 0.2577712402380383 -0.9662059758177847 1.811181778935953e-18 6.325625852682056e-17 1.811181778935953e-18 6.325625852682056e-17 0.2577718299054437 -0.9662058185019654
12617277333.333334 0.25077194927715485 -0.9680461917985057 2.2740904597296863e-18 6.322891374924302e-17 2.2740904597296863e-18 6.322891374924302e-17 0.2507725400387174 -0.9680460387617849
12617894666.666666 0.2437595237691846 -0.9698357049375288 2.736695853360976e-18 6.319818515208186e-17 2.736695853360976e-18 6.319818515208186e-17 0.2437601155938568 -0.9698355561875031
12618512000.0 0.23673433100016927 -0.9715744215065335 3.198973251871703e-18 6.316407570915187e-17 3.198973251871703e-18 6.316407570915187e-17 0.23673492385685085 -0.9715742770505735
12619129333.333334 0.2296967389249643 -0.9732622504377169 3.660897974560368e-18 6.31265885744801e-17 3.660897974560368e-18 6.31265885744801e-17 0.22969733278250412 -0.9732621102829686
12619746666.666666 0.22264711614777394 -0.9748991033286122 4.1224453693147416e-18 6.308572708206468e-17 4.1224453693147416e-18 6.308572708206468e-17 0.2226477109749712 -0.9748989674819944
12620364000.0 0.21558583190292702 -0.9764848944466961 4.5835908139155554e-18 6.304149474562598e-17 4.5835908139155554e-18 6.304149474562598e-17 0.21558642766853361 -0.9764847629149026
12620981333.333334 0.20851325603562212 -0.9780195407338635 5.044309717339896e-18 6.299389525834834e-17 5.044309717339896e-18 6.299389525834834e-17 0.20851385270834333 -0.9780194135233597
12621598666.666666 0.20142975898238852 -0.9795029618108111 5.50457752107853e-18 6.29429324926109e-17 5.50457752107853e-18 6.29429324926109e-17 0.2014303565308857 -0.9795028389278375
12622216000.0 0.1943357117517684 -0.9809350799812318 5.9643697004330515e-18 6.28886104997104e-17 5.9643697004330515e-18 6.28886104997104e-17 0.1943363101446603 -0.9809349614318024
12622833333.333334 0.1872314859049409 -0.9823158202358756 6.423661765821455e-18 6.283093350957341e-17 6.423661765821455e-18 6.283093350957341e-17 0.18723208511080427 -0.9823157060257736
12623450666.666666 0.1801174535362034 -0.9836451102564822 6.882429264072398e-18 6.276990593046041e-17 6.882429264072398e-18 6.276990593046041e-17 0.18011805352357607 -0.9836450003912648
12624068000.0 0.17299398725345655 -0.9849228804195805 7.340647779724124e-18 6.270553234865923e-17 7.340647779724124e-18 6.270553234865923e-17 0.1729945879908385 -0.9849227749045778
12624685333.333334 0.16586146015863165 -0.9861490638001441 7.798292936331546e-18 6.263781752816793e-17 7.798292936331546e-18 6.263781752816793e-17 0.16586206161448633 -0.9861489626404552
12625302666.666666 0.15872024582840005 -0.9873235961750457 8.255340397735127e-18 6.256676641037279e-17 8.255340397735127e-18 6.256676641037279e-17 0.15872084797115685 -0.9873234993755444
12625920000.0 0.15157071829429997 -0.9884464160264846 8.711765869371553e-18 6.24923841137108e-17 8.711765869371553e-18 6.24923841137108e-17 0.15157132109235502 -0.9884463235918134
12626537333.333334 0.14441325202336905 -0.989517464545163 9.167545099546174e-18 6.241467593332829e-17 9.167545099546174e-18 6.241467593332829e-17 0.14441385544508725 -0.9895173764797356
12627154666.666666 0.1372482218984757 -0.9905366856333799 9.622653880720359e-18 6.23336473407271e-17 9.622653880720359e-18 6.23336473407271e-17 0.13724882591219253 -0.9905366019413809
12627772000.0 0.13007600319845852 -0.9915040259079981 1.0077068050804824e-17 6.224930398340016e-17 1.0077068050804824e-17 6.224930398340016e-17 0.13007660777248162 -0.9915039465933845
12628389333.333334 0.1228969715789779 -0.9924194347031752 1.0530763494412894e-17 6.216165168446392e-17 1.0530763494412894e-17 6.216165168446392e-17 0.12289757668158856 -0.9924193597696722
12629006666.666666 0.11571150305224825 -0.9932828640730912 1.0983716144163746e-17 6.207069644227236e-17 1.0983716144163746e-17 6.207069644227236e-17 0.11571210865170323 -0.9932827935241956
12629624000.0 0.10851997396773876 -0.9940942687944111 1.1435901981927928e-17 6.197644443003182e-17 1.1435901981927928e-17 6.197644443003182e-17 0.10852058003227182 -0.9940942026333888
12630241333.333334 0.10132276099237685 -0.9948536063686637 1.188729704011723e-17 6.187890199539718e-17 1.188729704011723e-17 6.187890199539718e-17 0.10132336749020049 -0.9948535445985501
12630858666.666666 0.0941202410908198 -0.995560837024468 1.2337877402932779e-17 6.177807566006709e-17 1.2337877402932779e-17 6.177807566006709e-17 0.0941208479901271 -0.9955607796480699
12631476000.0 0.08691279150551294 -0.9962159237196387 1.2787619207648324e-17 6.167397211936157e-17 1.2787619207648324e-17 6.167397211936157e-17 0.08691339877447887 -0.9962158707395309
12632093333.333334 0.07970078973726984 -0.9968188321430875 1.3236498645846475e-17 6.156659824179975e-17 1.3236498645846475e-17 6.156659824179975e-17 0.0797013973440533 -0.9968187835616156
12632710666.666666 0.07248461352530285 -0.9973695307166454 1.3684491964686567e-17 6.145596106866156e-17 1.3684491964686567e-17 6.145596106866156e-17 0.07248522143804799 -0.9973694865359228
12633328000.0 0.06526464082740951 -0.9978679905967138 1.4131575468158435e-17 6.134206781354171e-17 1.4131575468158435e-17 6.134206781354171e-17 0.06526524901424771 -0.9978679508186251
12633945333.333334 0.05804124980026177 -0.9983141856757709 1.457772551832584e-17 6.122492586189704e-17 1.457772551832584e-17 6.122492586189704e-17 0.0580418582293131 -0.9983141503019686
12634562666.666666 0.050814818779570996 -0.9987080925837408 1.502291853657481e-17 6.110454277058198e-17 1.502291853657481e-17 6.110454277058198e-17 0.05081542741894596 -0.9987080616156472
12635180000.0 0.04358572626024371 -0.9990496906892178 1.546713100484808e-17 6.09809262673784e-17 1.546713100484808e-17 6.09809262673784e-17 0.043586335078044935 -0.9990496641280242
12635797333.333334 0.03635435087664259 -0.9993389621005443 1.591033946689476e-17 6.0854084250511e-17 1.591033946689476e-17 6.0854084250511e-17 0.03635495984096646 -0.9993389399472107
12636414666.666666 0.0291210713826981 -0.9995758916667499 1.6352520529490323e-17 6.072402478816102e-17 1.6352520529490323e-17 6.072402478816102e-17 0.029121680461636504 -0.999575873922007
12637032000.0 0.021886266632014012 -0.9997604669783492 1.6793650863678495e-17 6.059075611796347e-17 1.6793650863678495e-17 6.059075611796347e-17 0.021886875793655863 -0.9997604536426946
12637649333.333334 0.014650315558109406 -0.9998926783679846 1.7233707205990425e-17 6.045428664650128e-17 1.7233707205990425e-17 6.045428664650128e-17 0.01465092477054246 -0.9998926694416863
12638266666.666666 0.0074135971545147995 -0.999972518910937 1.767266635967013e-17 6.031462494878744e-17 1.767266635967013e-17 6.031462494878744e-17 0.007414206385827251 -0.9999725143940317
12638884000.0 0.00017649045503541415 -0.9999999844254869 1.8110505195885495e-17 6.017177976774112e-17 1.8110505195885495e-17 6.017177976774112e-17 0.00017709967331759125 -0.9999999843177796
12639501333.333334 -0.007060625486300196 -0.9999750734731325 1.8547200654954123e-17 6.002576001364968e-17 1.8547200654954123e-17 6.002576001364968e-17 -0.00706001631295416 -0.9999750777741985
12640118666.666666 -0.014297371614837856 -0.999897787358668 1.8982729747537724e-17 5.987657476363048e-17 1.8982729747537724e-17 5.987657476363048e-17 -0.01429676251832837 -0.9998977960678519
12640736000.0 -0.021533368895520835 -0.9997681301301135 1.9417069555867693e-17 5.972423326107165e-17 1.9417069555867693e-17 5.972423326107165e-17 -0.021532759907741148 -0.9997681432465276
12641353333.333334 -0.028768238332230703 -0.9995861085785023 1.9850197234924342e-17 5.956874491507932e-17 1.9850197234924342e-17 5.956874491507932e-17 -0.028767629485065265 -0.9995861261010295
12641970666.666666 -0.0360016009881211 -0.9993517322375275 2.0282090013645417e-17 5.941011929990395e-17 2.0282090013645417e-17 5.941011929990395e-17 -0.036000992313443864 -0.9993517541648189
12642588000.0 -0.04323307800520912 -0.9990650133830382 2.0712725196120036e-17 5.924836615436183e-17 2.0712725196120036e-17 5.924836615436183e-17 -0.04323246953488193 -0.9990650397135159
12643205333.333334 -0.05046229062427557 -0.9987259670324014 2.1142080162771493e-17 5.908349538125034e-17 2.1142080162771493e-17 5.908349538125034e-17 -0.050461682390146444 -0.9987259977642563
12643822666.666666 -0.05768886020470303 -0.998334610943714 2.157013237154204e-17 5.891551704675183e-17 2.157013237154204e-17 5.891551704675183e-17 -0.05768825223860446 -0.9983346460749062
12644440000.0 -0.06491240824433592 -0.9978909656148688 2.199685935907338e-17 5.874444137982993e-17 2.199685935907338e-17 5.874444137982993e-17 -0.06491180057808331 -0.997891005143129
12645057333.333334 -0.07213255639922017 -0.9973950542824884 2.242223874187544e-17 5.857027877161883e-17 2.242223874187544e-17 5.857027877161883e-17 -0.07213194906461011 -0.9973950982053169
12645674666.666666 -0.0793489265034762 -0.9968469029207042 2.2846248217497357e-17 5.839303977480226e-17 2.2846248217497357e-17 5.839303977480226e-17 -0.07934831953228481 -0.9968469512353718
12646292000.0 -0.0865611405891911 -0.9962465402397906 2.3268865565703376e-17 5.821273510297973e-17 2.3268865565703376e-17 5.821273510297973e-17 -0.08656053401317226 -0.9962465929433372
12646909333.333334 -0.09376882090601646 -0.995593997684673 2.3690068649610932e-17 5.802937563003776e-17 2.3690068649610932e-17 5.802937563003776e-17 -0.0937682147569005 -0.9955940547739112
12647526666.666666 -0.10097158994112435 -0.9948893094332737 2.4109835416863454e-17 5.78429723894968e-17 2.4109835416863454e-17 5.78429723894968e-17 -0.1009709842506158 -0.9948893709047834
12648144000.0 -0.10816907043900725 -0.9941325123947087 2.4528143900771672e-17 5.765353657386042e-17 2.4528143900771672e-17 5.765353657386042e-17 -0.10816846523878382 -0.9941325782448434
12648761333.333334 -0.1153608854210121 -0.9933236462073853 2.4944972221461583e-17 5.746107953395184e-17 2.4944972221461583e-17 5.746107953395184e-17 -0.11536028074272257 -0.9933237164322686
12649378666.666666 -0.12254665820525414 -0.9924627532369054 2.5360298587007328e-17 5.726561277824584e-17 2.5360298587007328e-17 5.726561277824584e-17 -0.12254605408051697 -0.9924628278324323
12649996000.0 -0.1297260124263749 -0.9915498785738449 2.5774101294577025e-17 5.706714797218538e-17 2.5774101294577025e-17 5.706714797218538e-17 -0.12972540888677642 -0.9915499575356819
12650613333.333334 -0.1368985720551977 -0.9905850700313937 2.6186358731550367e-17 5.68656969374994e-17 2.6186358731550367e-17 5.68656969374994e-17 -0.13689796913229058 -0.9905851533549794
12651230666.666666 -0.1440639614183392 -0.9895683781428701 2.6597049376645895e-17 5.666127165150678e-17 2.6597049376645895e-17 5.666127165150678e-17 -0.1440633591436404 -0.9895684658234134
12651848000.0 -0.15122180521805348 -0.9884998561590425 2.7006151801048974e-17 5.645388424640833e-17 2.7006151801048974e-17 5.645388424640833e-17 -0.15122120362304348 -0.988499948191527
12652465333.333334 -0.15837172855180578 -0.98737956004536 2.7413644669512112e-17 5.62435470085819e-17 2.7413644669512112e-17 5.62435470085819e-17 -0.158371127667926 -0.9873796564245403
12653082666.666666 -0.165513356931823 -0.9862075484790273 2.781950674146426e-17 5.603027237786263e-17 2.781950674146426e-17 5.603027237786263e-17 -0.1655127567904748 -0.9862076491994323
12653700000.0 -0.17264631630490612 -0.9849838828459078 2.8223716872122484e-17 5.581407294681108e-17 2.8223716872122484e-17 5.581407294681108e-17 -0.17264571693744865 -0.9849839879018379
12654317333.333334 -0.1797702330717955 -0.9837086272373372 2.862625401357583e-17 5.559496145998469e-17 2.862625401357583e-17 5.559496145998469e-17 -0.17976963450954453 -0.9837087366228676
12654934666.666666 -0.18688473410690862 -0.9823818484467455 2.90270972158859e-17 5.5372950813190256e-17 2.90270972158859e-17 5.5372950813190256e-17 -0.18688413638113469 -0.9823819621557248
12655552000.0 -0.1939894467779096 -0.9810036159661462 2.942622562817339e-17 5.5148054052731966e-17 2.942622562817339e-17 5.5148054052731966e-17 -0.19398884991983634 -0.9810037339921973
12656169333.333334 -0.20108399896500365 -0.9795740019825437 2.982361849968549e-17 5.4920284374660406e-17 2.982361849968549e-17 5.4920284374660406e-17 -0.20108340300580596 -0.9795741243190631
12656786666.666666 -0.20816801908059437 -0.9780930813741169 3.021925518087869e-17 5.4689655124000684e-17 3.021925518087869e-17 5.4689655124000684e-17 -0.20816742405139738 -0.9780932080142771
12657404000.0 -0.21524113608877488 -0.9765609317062953 3.061311512448848e-17 5.445617979397824e-17 3.061311512448848e-17 5.445617979397824e-17 -0.2152405420206518 -0.9765610626430433
12658021333.333334 -0.22230297952470443 -0.9749776332277027 3.100517788658809e-17 5.4219872025238776e-17 3.100517788658809e-17 5.4219872025238776e-17 -0.2223023864486753 -0.9749777684537625
12658638666.666666 -0.22935317951392978 -0.9733432688659763 3.1395423127640047e-17 5.398074560506208e-17 3.1395423127640047e-17 5.398074560506208e-17 -0.22935258746095946 -0.973343408373847
12659256000.0 -0.236391366791924 -0.9716579242233859 3.1783830613555356e-17 5.3738814466559847e-17 3.1783830613555356e-17 5.3738814466559847e-17 -0.23639077579292084 -0.971658068005343
12659873333.333334 -0.24341717272334393 -0.9699216875723669 3.217038021673293e-17 5.3494092687874347e-17 3.217038021673293e-17 5.3494092687874347e-17 -0.24341658280915784 -0.9699218356204621
12660490666.666666 -0.2504302293212275 -0.9681346498509237 3.25550519170915e-17 5.32465944913707e-17 3.25550519170915e-17 5.32465944913707e-17 -0.2504296405226491 -0.9681348021569885
12661108000.0 -0.2574301692665992 -0.9662969046577888 3.293782580311758e-17 5.2996334242807126e-17 3.293782580311758e-17 5.2996334242807126e-17 -0.2574295816143571 -0.9662970612134301
12661725333.333334 -0.2644166259272121 -0.9644085482476407 3.331868207287192e-17 5.2743326450521435e-17 3.331868207287192e-17 5.2743326450521435e-17 -0.2644160394519723 -0.9644087090442448
12662342666.666666 -0.27138923337721993 -0.9624696795259472 3.369760103501874e-17 5.2487585764590244e-17 3.369760103501874e-17 5.2487585764590244e-17 -0.27138864810958346 -0.9624698445546789
12662960000.0 -0.2783476264160937 -0.9604804000438429 3.407456310984035e-17 5.222912697598724e-17 3.407456310984035e-17 5.222912697598724e-17 -0.27834704238659563 -0.9604805692956463
12663577333.333334 -0.2852914405878339 -0.9584408139927962 3.4449548830239134e-17 5.1967965015737886e-17 3.4449548830239134e-17 5.1967965015737886e-17 -0.28529085782694125 -0.9584409874583945
12664194666.666666 -0.29222031219994815 -0.9563510281991752 3.4822538842739034e-17 5.1704114954062916e-17 3.4822538842739034e-17 5.1704114954062916e-17 -0.29221973073805907 -0.9563512058690735
12664812000.0 -0.2991338783426658 -0.9542111521186122 3.51935139084807e-17 5.143759199951508e-17 3.51935139084807e-17 5.143759199951508e-17 -0.2991332982101069 -0.954211333983095
12665429333.333334 -0.3060317769078629 -0.9520212978302909 3.556245490420401e-17 5.11684114981123e-17 3.556245490420401e-17 5.11684114981123e-17 -0.3060311981348881 -0.9520214838794233
12666046666.666666 -0.3129136466079464 -0.9497815800310996 3.592934282323034e-17 5.0896588932460504e-17 3.592934282323034e-17 5.0896588932460504e-17 -0.3129130692247361 -0.9497817702547308
12666664000.0 -0.3197791269949678 -0.9474921160295693 3.629415877644608e-17 5.0622139920862306e-17 3.629415877644608e-17 5.0622139920862306e-17 -0.3197785510316261 -0.9474923104173288
12667281333.333334 -0.3266278584792856 -0.9451530257397954 3.665688399325137e-17 5.034508021644031e-17 3.665688399325137e-17 5.034508021644031e-17 -0.3266272839658397 -0.9451532242810967
12667898666.666666 -0.3334594823485611 -0.9427644316751057 3.70174998225363e-17 5.006542570622819e-17 3.70174998225363e-17 5.006542570622819e-17 -0.333458909314959 -0.942764634359145
12668516000.0 -0.3402736407865725 -0.9403264589416306 3.7375987733628594e-17 4.978319241027041e-17 3.7375987733628594e-17 4.978319241027041e-17 -0.34027306926268197 -0.9403266657573889
12669133333.333334 -0.3470699768917421 -0.9378392352318282 3.773232931723648e-17 4.9498396480714786e-17 3.773232931723648e-17 4.9498396480714786e-17 -0.34706940690734916 -0.9378394461680718
12669750666.666666 -0.3538481346959911 -0.9353028908177408 3.808650628639694e-17 4.921105420088808e-17 3.808650628639694e-17 4.921105420088808e-17 -0.3538475662807978 -0.9353031058630197
12670368000.0 -0.3606077591834358 -0.9327175585441484 3.843850047740455e-17 4.89211819843749e-17 3.843850047740455e-17 4.89211819843749e-17 -0.36060719236705924 -0.9327177776867992
