! Parameters = {f0=12700.012000; bw=77.238000; Q=6100.000000; N=10; m_0_1=1.285180; m_1_1=0.512957; m_1_2=1.119992; m_2_2=0.512308; m_2_3=0.756955; m_2_8=0.001323; m_2_9=0.038027; m_3_3=0.510371; m_3_4=0.645484; m_3_7=0.001923; m_3_8=-0.095165; m_3_9=0.001323; m_4_4=0.507446; m_4_5=0.481819; m_4_6=0.005440; m_4_7=-0.115714; m_4_8=0.001923; m_5_5=0.507828; m_5_6=0.889174; m_5_7=0.005440; m_6_6=0.507827; m_6_7=0.482161; m_7_7=0.507460; m_7_8=0.645602; m_8_8=0.510369; m_8_9=0.757268; m_9_9=0.512303; m_9_10=1.121070; m_10_10=0.512947; m_10_11=1.285975}
!
! Created with skrf (http://scikit-rf.org).
# Hz S RI R 50.0 
!freq ReS11 ImS11 ReS21 ImS21 ReS12 ImS12 ReS22 ImS22
12607400000.0 -0.5234515811571268 -0.8520554220142746 8.833654034978856e-17 7.935516678117804e-17 8.833654034978856e-17 7.935516678117804e-17 -0.523451004246201 -0.8520557764333638
12608017333.333334 -0.5327683954284195 -0.846261092590488 8.919135013775339e-17 7.835794806527377e-17 8.919135013775339e-17 7.835794806527377e-17 -0.532767822468777 -0.8462614533001587
12608634666.666666 -0.5420210764863245 -0.840364892558242 9.003491386870124e-17 7.735153385811453e-17 9.003491386870124e-17 7.735153385811453e-17 -0.5420205075465462 -0.8403652595144587
12609252000.0 -0.551208510518295 -0.8343675316861402 9.08671327646561e-17 7.633605086218547e-17 9.08671327646561e-17 7.633605086218547e-17 -0.5512079456664716 -0.8343679048441204
12609869333.333334 -0.5603295915660692 -0.8282697319202368 9.16879094737693e-17 7.531162683944813e-17 9.16879094737693e-17 7.531162683944813e-17 -0.5603290308697925 -0.8282701112344559
12610486666.666666 -0.5693832216586845 -0.8220722272972102 9.249714808165257e-17 7.427839059531896e-17 9.249714808165257e-17 7.427839059531896e-17 -0.5693826651850392 -0.8220726127214069
12611104000.0 -0.5783683109449066 -0.8157757638558254 9.32947541225877e-17 7.323647196245533e-17 9.32947541225877e-17 7.323647196245533e-17 -0.5783677587604628 -0.8157761553430072
12611721333.333334 -0.5872837778240934 -0.8093810995473517 9.408063459045168e-17 7.218600178455143e-17 9.408063459045168e-17 7.218600178455143e-17 -0.5872832299948988 -0.8093814970498018
12612338666.666666 -0.5961285490766319 -0.8028890041441642 9.485469794955977e-17 7.11271118998902e-17 9.485469794955977e-17 7.11271118998902e-17 -0.5961280056682031 -0.8028894076134455
12612956000.0 -0.6049015599931269 -0.7963002591470771 9.561685414528002e-17 7.005993512483526e-17 9.561685414528002e-17 7.005993512483526e-17 -0.604901021070441 -0.7963006685340386
12613573333.333334 -0.6136017545023578 -0.7896156576914167 9.636701461443692e-17 6.898460523724508e-17 9.636701461443692e-17 6.898460523724508e-17 -0.613601220129848 -0.789616072946202
12614190666.666666 -0.6222280852986412 -0.7828360044513836 9.710509229558533e-17 6.790125695970081e-17 9.710509229558533e-17 6.790125695970081e-17 -0.6222275555401847 -0.7828364255234334
12614808000.0 -0.6307795139677835 -0.7759621155432691 9.78310016390563e-17 6.681002594267897e-17 9.78310016390563e-17 6.681002594267897e-17 -0.630778988886697 -0.7759625423813292
12615425333.333334 -0.6392550111121079 -0.7689948184271974 9.854465861682777e-17 6.571104874759815e-17 9.854465861682777e-17 6.571104874759815e-17 -0.6392544907711377 -0.7689952509793236
12616042666.666666 -0.647653556474368 -0.7619349518075166 9.924598073220452e-17 6.460446282976432e-17 9.924598073220452e-17 6.460446282976432e-17 -0.6476530409356848 -0.7619353900210832
12616660000.0 -0.6559741390605651 -0.7547833655318394 9.993488702930568e-17 6.349040652121276e-17 9.993488702930568e-17 6.349040652121276e-17 -0.655973628385755 -0.7547838093535444
12617277333.333334 -0.6642157572616705 -0.7475409204887216 1.0061129810236286e-16 6.236901901344712e-17 1.0061129810236286e-16 6.236901901344712e-17 -0.6642152515117283 -0.7475413698645925
12617894666.666666 -0.6723774189740895 -0.7402084885041249 1.0127513610481484e-16 6.124044034009758e-17 1.0127513610481484e-16 6.124044034009758e-17 -0.6723769182094113 -0.7402089433795264
12618512000.0 -0.6804581417193217 -0.7327869522362607 1.0192632475823438e-16 6.010481135943582e-17 1.0192632475823438e-16 6.010481135943582e-17 -0.6804576459996967 -0.7327874125559003
12619129333.333334 -0.688456952761932 -0.7252772050696034 1.0256478936101899e-16 5.896227373686963e-17 1.0256478936101899e-16 5.896227373686963e-17 -0.6884564621465376 -0.7252776707775394
12619746666.666666 -0.696372889226859 -0.717680151007158 1.0319045679692438e-16 5.78129699272749e-17 1.0319045679692438e-16 5.78129699272749e-17 -0.6963724037742521 -0.7176806220468054
12620364000.0 -0.7042049982153195 -0.7099967045616352 1.0380325554338477e-16 5.665704315726749e-17 1.0380325554338477e-16 5.665704315726749e-17 -0.7042045179834295 -0.709997180875773
12620981333.333334 -0.711952336919332 -0.7022277906455434 1.044031156796206e-16 5.5494637407414385e-17 1.044031156796206e-16 5.5494637407414385e-17 -0.7119518619654549 -0.7022282721763213
12621598666.666666 -0.719613972735415 -0.6943743444596535 1.0498996889457773e-16 5.4325897394303466e-17 1.0498996889457773e-16 5.4325897394303466e-17 -0.7196135031162048 -0.6943748311485978
12622216000.0 -0.7271889833767473 -0.6864373113805176 1.0556374849464243e-16 5.3150968552574465e-17 1.0556374849464243e-16 5.3150968552574465e-17 -0.7271885191482106 -0.6864378031685405
12622833333.333334 -0.7346764569842307 -0.6784176468466295 1.0612438941116685e-16 5.196999701684848e-17 1.0612438941116685e-16 5.196999701684848e-17 -0.7346759982017206 -0.6784181436740355
12623450666.666666 -0.7420754922361811 -0.6703163162434947 1.0667182820778462e-16 5.078312960359752e-17 1.0667182820778462e-16 5.078312960359752e-17 -0.7420750389543899 -0.6703168180499878
12624068000.0 -0.7493851984569232 -0.662134294787316 1.072060030875356e-16 4.959051379290956e-17 1.072060030875356e-16 4.959051379290956e-17 -0.7493847507298749 -0.6621348015120055
12624685333.333334 -0.7566046957240252 -0.6538725674075759 1.0772685389978313e-16 4.839229771019264e-17 1.0772685389978313e-16 4.839229771019264e-17 -0.7566042536050694 -0.6538730789889853
12625302666.666666 -0.7637331149740316 -0.6455321286286859 1.0823432214691097e-16 4.718863010784026e-17 1.0823432214691097e-16 4.718863010784026e-17 -0.7637326785158386 -0.6455326450047607
12625920000.0 -0.770769598107362 -0.6371139824499504 1.0872835099085036e-16 4.597966034675096e-17 1.0872835099085036e-16 4.597966034675096e-17 -0.7707691673619154 -0.6371145035580649
12626537333.333334 -0.777713298091363 -0.6286191422249839 1.0920888525936231e-16 4.476553837786983e-17 1.0920888525936231e-16 4.476553837786983e-17 -0.7777128731099536 -0.6286196680019489
12627154666.666666 -0.7845633790622963 -0.6200486305397116 1.0967587145214078e-16 4.354641472360348e-17 1.0967587145214078e-16 4.354641472360348e-17 -0.7845629598955163 -0.6200491609217823
12627772000.0 -0.7913190164262567 -0.6114034790888926 1.1012925774670755e-16 4.2322440459172016e-17 1.1012925774670755e-16 4.2322440459172016e-17 -0.7913186031239934 -0.6114040140117759
12628389333.333334 -0.7979793969579235 -0.6026847285525742 1.1056899400407642e-16 4.1093767193963543e-17 1.1056899400407642e-16 4.1093767193963543e-17 -0.7979789895693526 -0.6026852679514362
12629006666.666666 -0.8045437188989785 -0.5938934284701448 1.1099503177424361e-16 3.986054705273961e-17 1.1099503177424361e-16 3.986054705273961e-17 -0.8045433174725606 -0.5938939722796205
12629624000.0 -0.811011192054237 -0.5850306371144895 1.1140732430143853e-16 3.8622932656866515e-17 1.1140732430143853e-16 3.8622932656866515e-17 -0.8110107966377099 -0.5850311852686887
12630241333.333334 -0.8173810378869786 -0.5760974213643261 1.118058265291858e-16 3.738107710544011e-17 1.118058265291858e-16 3.738107710544011e-17 -0.8173806485273512 -0.5760979737968415
12630858666.666666 -0.8236524896124612 -0.5670948565760527 1.1219049510514415e-16 3.6135133956397285e-17 1.1219049510514415e-16 3.6135133956397285e-17 -0.8236521063560097 -0.5670954132199697
12631476000.0 -0.8298247922905893 -0.5580240264537899 1.1256128838575197e-16 3.4885257207524546e-17 1.1256128838575197e-16 3.4885257207524546e-17 -0.8298244151828498 -0.5580245872416923
12632093333.333334 -0.8358972029163477 -0.5488860229195546 1.129181664406387e-16 3.3631601277497065e-17 1.129181664406387e-16 3.3631601277497065e-17 -0.8358968320021125 -0.5488865877835349
12632710666.666666 -0.8418689905095232 -0.5396819459814228 1.1326109105684402e-16 3.237432098681284e-17 1.1326109105684402e-16 3.237432098681284e-17 -0.8418686258328345 -0.5396825148530893
12633328000.0 -0.8477394362026919 -0.5304129036011109 1.135900257428232e-16 3.1113571538688295e-17 1.135900257428232e-16 3.1113571538688295e-17 -0.8477390778068363 -0.5304134764115955
12633945333.333334 -0.8535078333276302 -0.5210800115607913 1.1390493573222847e-16 2.9849508499959575e-17 1.1390493573222847e-16 2.9849508499959575e-17 -0.8535074812551344 -0.5210805882407592
12634562666.666666 -0.8591734875004587 -0.5116843933286593 1.1420578798749036e-16 2.858228778190182e-17 1.1420578798749036e-16 2.858228778190182e-17 -0.8591731417930855 -0.5116849738083172
12635180000.0 -0.8647357167052191 -0.502227179923719 1.1449255120318105e-16 2.7312065621033223e-17 1.1449255120318105e-16 2.7312065621033223e-17 -0.8647353774039583 -0.5022277641328218
12635797333.333334 -0.8701938513759802 -0.49270950977960537 1.1476519580916573e-16 2.603899855988012e-17 1.1476519580916573e-16 2.603899855988012e-17 -0.870193518521049 -0.492710097647467
12636414666.666666 -0.8755472344773882 -0.4831325286076453 1.1502369397353815e-16 2.4763243427728826e-17 1.1502369397353815e-16 2.4763243427728826e-17 -0.8755469081082231 -0.48313312006314585
12637032000.0 -0.8807952215838416 -0.4734973892587903 1.15268019605348e-16 2.348495732131695e-17 1.15268019605348e-16 2.348495732131695e-17 -0.8807949017390948 -0.47349798423038525
12637649333.333334 -0.8859371809570089 -0.4638052515849385 1.1549814835710912e-16 2.2204297585532495e-17 1.1549814835710912e-16 2.2204297585532495e-17 -0.885936867674542 -0.46380585000066604
12638266666.666666 -0.8909724936218875 -0.4540572822992889 1.1571405762709513e-16 2.0921421794073582e-17 1.1571405762709513e-16 2.0921421794073582e-17 -0.8909721869387703 -0.45405788408678077
12638884000.0 -0.8959005534413171 -0.44425465483589727 1.1591572656142187e-16 1.9636487730091246e-17 1.1591572656142187e-16 1.9636487730091246e-17 -0.895900253393821 -0.4442552599223863
12639501333.333334 -0.900720767188956 -0.43439854920839494 1.1610313605591458e-16 1.8349653366810728e-17 1.1610313605591458e-16 1.8349653366810728e-17 -0.9007204738125502 -0.43439915752072383
12640118666.666666 -0.9054325546206192 -0.42449015186809624 1.1627626875775733e-16 1.706107684816364e-17 1.1627626875775733e-16 1.706107684816364e-17 -0.9054322679499661 -0.4244907633327264
12640736000.0 -0.9100353485443208 -0.41453065556076546 1.1643510906693997e-16 1.5770916469314092e-17 1.1643510906693997e-16 1.5770916469314092e-17 -0.9100350686132715 -0.4145312701037858
12641353333.333334 -0.914528594888258 -0.4045212591836536 1.165796431374661e-16 1.4479330657356107e-17 1.165796431374661e-16 1.4479330657356107e-17 -0.9145283217298514 -0.40452187673079065
12641970666.666666 -0.9189117527677685 -0.3944631676406403 1.1670985887837447e-16 1.3186477951787139e-17 1.1670985887837447e-16 1.3186477951787139e-17 -0.9189114864142232 -0.39446378811726546
12642588000.0 -0.9231842945503136 -0.384357591697446 1.1682574595452544e-16 1.1892516985127849e-17 1.1682574595452544e-16 1.1892516985127849e-17 -0.923184035033026 -0.38435821502858547
12643205333.333334 -0.9273457059190098 -0.3742057478358588 1.1692729578717972e-16 1.05976064634851e-17 1.1692729578717972e-16 1.05976064634851e-17 -0.927345453268551 -0.37420637394620254
12643822666.666666 -0.9313954859345825 -0.36400885810719263 1.1701450155436357e-16 9.30190514709024e-18 1.1701450155436357e-16 9.30190514709024e-18 -0.931395240180695 -0.364009486921104
12644440000.0 -0.9353331470956167 -0.3537681499853118 1.1708735819101398e-16 8.005571830898197e-18 1.1708735819101398e-16 8.005571830898197e-18 -0.9353329082672075 -0.35376878142683515
12645057333.333334 -0.9391582153972464 -0.3434848562188436 1.1714586238891238e-16 6.708765325153366e-18 1.1714586238891238e-16 6.708765325153366e-18 -0.939157983522388 -0.34348549021171504
12645674666.666666 -0.9428702303882229 -0.3331602146827859 1.171900125964049e-16 5.411644435951261e-18 1.171900125964049e-16 5.411644435951261e-18 -0.9428700054941473 -0.3331608511504416
12646292000.0 -0.946468745226404 -0.32279546822930605 1.17219809017906e-16 4.114367945794797e-18 1.17219809017906e-16 4.114367945794797e-18 -0.946468527339501 -0.3227961070948921
12646909333.333334 -0.949953326732421 -0.31239186453847834 1.1723525361318517e-16 2.8170945942610934e-18 1.1723525361318517e-16 2.8170945942610934e-18 -0.9499531158782333 -0.3123925057248593
12647526666.666666 -0.9533235554419186 -0.30195065596782367 1.1723635009644498e-16 1.5199830585444734e-18 1.1723635009644498e-16 1.5199830585444734e-18 -0.9533233516451414 -0.3019512993975928
12648144000.0 -0.9565790256560396 -0.29147309940158095 1.1722310393518043e-16 2.231919340846121e-19 1.1722310393518043e-16 2.231919340846121e-19 -0.9565788289405138 -0.2914737449970683
12648761333.333334 -0.9597193454902191 -0.2809604560995126 1.1719552234882566e-16 -1.0731202847677342e-18 1.1719552234882566e-16 -1.0731202847677342e-18 -0.9597191558789341 -0.2809611037827959
12649378666.666666 -0.962744136921372 -0.2704139915450816 1.1715361430718856e-16 -2.36879522408844e-18 1.1715361430718856e-16 -2.36879522408844e-18 -0.9627439544364572 -0.27041464123799436
12649996000.0 -0.9656530358334292 -0.2598349752929773 1.1709739052866896e-16 -3.663674649745381e-18 1.1709739052866896e-16 -3.663674649745381e-18 -0.965652860496156 -0.25983562691711903
12650613333.333334 -0.968445692061149 -0.2492246808163721 1.1702686347826636e-16 -4.957600486652581e-18 1.1702686347826636e-16 -4.957600486652581e-18 -0.9684455238919245 -0.24922533429311738
12651230666.666666 -0.9711217694322384 -0.23858438535373455 1.169420473653753e-16 -6.2504148380240885e-18 1.169420473653753e-16 -6.2504148380240885e-18 -0.971121608450606 -0.23858504060424265
12651848000.0 -0.973680945807892 -0.22791536975480328 1.1684295814136322e-16 -7.541960004674951e-18 1.1684295814136322e-16 -7.541960004674951e-18 -0.9736807920325287 -0.22791602670002786
12652465333.333334 -0.976122913121509 -0.2172189183266502 1.1672961349694382e-16 -8.832078504164227e-18 1.1672961349694382e-16 -8.832078504164227e-18 -0.9761227665702211 -0.2172195768873483
12653082666.666666 -0.9784473774157751 -0.20649631867907872 1.1660203285933437e-16 -1.0120613089983787e-17 1.1660203285933437e-16 -1.0120613089983787e-17 -0.9784472381054987 -0.20649697877582093
12653700000.0 -0.9806540588781166 -0.1957488615693487 1.164602373891995e-16 -1.1407406770723965e-17 1.164602373891995e-16 -1.1407406770723965e-17 -0.9806539268249137 -0.1957495231225283
12654317333.333334 -0.9827426918742916 -0.18497784074718596 1.1630424997739187e-16 -1.2692302829124368e-17 1.1630424997739187e-16 -1.2692302829124368e-17 -0.9827425670933502 -0.18497850367702887
12654934666.666666 -0.9847130249804323 -0.17418455279876746 1.1613409524147476e-16 -1.3975144841163223e-17 1.1613409524147476e-16 -1.3975144841163223e-17 -0.9847129074860627 -0.17418521702534154
12655552000.0 -0.986564821013303 -0.16337029699064046 1.159497995220373e-16 -1.5255776695070186e-17 1.159497995220373e-16 -1.5255776695070186e-17 -0.9865647108189374 -0.1633709624338653
12656169333.333334 -0.9882978570588083 -0.15253637511357235 1.1575139087880565e-16 -1.6534042610264087e-17 1.1575139087880565e-16 -1.6534042610264087e-17 -0.9882977541769983 -0.1525370416932289
12656786666.666666 -0.9899119244988765 -0.14168409132556478 1.1553889908653686e-16 -1.7809787156305295e-17 1.1553889908653686e-16 -1.7809787156305295e-17 -0.9899118289412938 -0.14168475896130517
12657404000.0 -0.9914068290365501 -0.13081475199500311 1.1531235563071063e-16 -1.9082855271748463e-17 1.1531235563071063e-16 -1.9082855271748463e-17 -0.9914067408139818 -0.13081542060635995
12658021333.333334 -0.9927823907193779 -0.1199296655433422 1.1507179370301134e-16 -2.0353092282965924e-17 1.1507179370301134e-16 -2.0353092282965924e-17 -0.9927823098417284 -0.11993033504973868
12658638666.666666 -0.9940384439610643 -0.10903014228774399 1.1481724819660657e-16 -2.1620343922893326e-17 1.1481724819660657e-16 -2.1620343922893326e-17 -0.9940383704373539 -0.10903081260850356
12659256000.0 -0.9951748375614372 -0.0981174942830629 1.1454875570121085e-16 -2.2884456349767322e-17 1.1454875570121085e-16 -2.2884456349767322e-17 -0.9951747713997978 -0.09811816533741857
12659873333.333334 -0.996191434724613 -0.08719303516415776 1.1426635449795486e-16 -2.4145276165741845e-17 1.1426635449795486e-16 -2.4145276165741845e-17 -0.9961913759322901 -0.08719370687126216
12660490666.666666 -0.9970881130754694 -0.07625807998776041 1.139700845540454e-16 -2.540265043547238e-17 1.139700845540454e-16 -2.540265043547238e-17 -0.9970880616588225 -0.07625875226669566
12661108000.0 -0.9978647646744047 -0.06531394507389014 1.1365998751721337e-16 -2.6656426704668732e-17 1.1365998751721337e-16 -2.6656426704668732e-17 -0.9978647206389025 -0.06531461784367724
12661725333.333334 -0.9985212960302922 -0.05436194784779452 1.133361067099758e-16 -2.790645301850398e-17 1.133361067099758e-16 -2.790645301850398e-17 -0.9985212593805161 -0.0543626210274034
12662342666.666666 -0.9990576281117621 -0.04340340668105 1.129984871236771e-16 -2.915257794003616e-17 1.129984871236771e-16 -2.915257794003616e-17 -0.9990575988514034 -0.043404080189409104
12662960000.0 -0.9994736963567044 -0.03243964073300159 1.1264717541234083e-16 -3.0394650568507705e-17 1.1264717541234083e-16 -3.0394650568507705e-17 -0.9994736744885654 -0.032440314489007756
12663577333.333334 -0.9997694506800435 -0.021471969791937728 1.122822198863153e-16 -3.163252055759147e-17 1.122822198863153e-16 -3.163252055759147e-17 -0.9997694362060348 -0.021472643714465812
12664194666.666666 -0.9999448554797626 -0.010501714116217597 1.119036705057206e-16 -3.286603813355878e-17 1.119036705057206e-16 -3.286603813355878e-17 -0.9999448484009059 -0.010502388124130384
12664812000.0 -0.9999998896411952 0.00046980572465775525 1.1151157887369667e-16 -3.409505411337041e-17 1.1151157887369667e-16 -3.409505411337041e-17 -0.9999998899576226 0.00046913171249986403
12665429333.333334 -0.9999345465395634 0.011441269009068937 1.1110599822945083e-16 -3.5319419922691144e-17 1.1110599822945083e-16 -3.5319419922691144e-17 -0.999934554250516 0.011440595073798163
12666046666.666666 -0.9997488340407801 0.022411355021978906 1.1068698344111606e-16 -3.6538987613804496e-17 1.1068698344111606e-16 -3.6538987613804496e-17 -0.9997488491446083 0.022410681244710285
12666664000.0 -0.9994427745004908 0.0333787432145422 1.1025459099839424e-16 -3.7753609883493583e-17 1.1025459099839424e-16 -3.7753609883493583e-17 -0.9994427969946554 0.03337806967636383
12667281333.333334 -0.9990164047613976 0.04434211336227333 1.0980887900503213e-16 -3.896314009075828e-17 1.0980887900503213e-16 -3.896314009075828e-17 -0.9990164346424716 0.04434144014423668
12667898666.666666 -0.9984697761488159 0.05530014572454027 1.0934990717107639e-16 -4.016743227451935e-17 1.0934990717107639e-16 -4.016743227451935e-17 -0.9984698134124821 0.055299472907650325
12668516000.0 -0.9978029544644832 0.06625152120343071 1.0887773680494551e-16 -4.136634117120128e-17 1.0887773680494551e-16 -4.136634117120128e-17 -0.9978029991055378 0.06625084886863636
12669133333.333334 -0.9970160199786741 0.07719492150203103 1.0839243080532111e-16 -4.255972223219528e-17 1.0839243080532111e-16 -4.255972223219528e-17 -0.9970160719910235 0.07719424973021512
12669750666.666666 -0.996109067420499 0.08812902928368653 1.0789405365282492e-16 -4.37474316412867e-17 1.0789405365282492e-16 -4.37474316412867e-17 -0.9961091267971645 0.08812835815565634
