! Parameters = {f0=12700.012000; bw=77.238000; Q=6100.000000; N=10; m_0_1=1.161456; m_1_1=-1.342899; m_1_2=0.996268; m_2_2=-1.343548; m_2_3=0.633231; m_2_8=-0.004863; m_2_9=0.031841; m_3_3=-1.345485; m_3_4=0.521760; m_3_7=-0.004263; m_3_8=-0.101351; m_3_9=-0.004863; m_4_4=-1.348410; m_4_5=0.358095; m_4_6=-0.000746; m_4_7=-0.121900; m_4_8=-0.004263; m_5_5=-1.348028; m_5_6=0.765450; m_5_7=-0.000746; m_6_6=-1.348029; m_6_7=0.358437; m_7_7=-1.348396; m_7_8=0.521878; m_8_8=-1.345487; m_8_9=0.633544; m_9_9=-1.343553; m_9_10=0.997346; m_10_10=-1.342909; m_10_11=1.162251}
!
! Created with skrf (http://scikit-rf.org).
# Hz S RI R 50.0 
!freq ReS11 ImS11 ReS21 ImS21 ReS12 ImS12 ReS22 ImS22
12607400000.0 -0.9331420718953289 -0.3595078214152568 6.414472594384036e-17 5.125207828934318e-18 6.414472594384036e-17 5.125207828934318e-18 -0.9331418518378221 -0.35950839259818773
12608017333.333334 -0.935746570117161 -0.3526731581986666 6.41683368167575e-17 4.649310100587091e-18 6.41683368167575e-17 4.649310100587091e-18 -0.9357463542537724 -0.35267373094777943
12608634666.666666 -0.9383010096095479 -0.34581962836940905 6.41884207791404e-17 4.173343920180591e-18 6.41884207791404e-17 4.173343920180591e-18 -0.9383007979514139 -0.34582020265391195
12609252000.0 -0.9408052537201361 -0.33894759856420603 6.4204978112105e-17 3.697335397526497e-18 6.4204978112105e-17 3.697335397526497e-18 -0.9408050462781681 -0.33894817435322855
12609869333.333334 -0.9432591684818763 -0.33205743640932117 6.421800928984855e-17 3.221310634532378e-18 6.421800928984855e-17 3.221310634532378e-18 -0.9432589652667581 -0.3320580136719151
12610486666.666666 -0.9456626226200716 -0.3251495105012137 6.422751497954888e-17 2.7452957237699632e-18 6.422751497954888e-17 2.7452957237699632e-18 -0.9456624236422594 -0.32515008920635463
12611104000.0 -0.9480154875595356 -0.31822419038644467 6.423349604125193e-17 2.2693167470444173e-18 6.423349604125193e-17 2.2693167470444173e-18 -0.9480152928292581 -0.31822477050303444
12611721333.333334 -0.9503176374313548 -0.3112818465422296 6.423595352774915e-17 1.793399773981247e-18 6.423595352774915e-17 1.793399773981247e-18 -0.9503174469586133 -0.3112824280390978
12612338666.666666 -0.9525689490797008 -0.3043228503564056 6.423488868444426e-17 1.3175708605979662e-18 6.423488868444426e-17 1.3175708605979662e-18 -0.9525687628742672 -0.3043234332023106
12612956000.0 -0.9547693020683945 -0.29734757410761525 6.423030294920966e-17 8.418560478770795e-19 6.423030294920966e-17 8.418560478770795e-19 -0.9547691201398117 -0.29734815827124655
12613573333.333334 -0.9569185786872927 -0.29035639094558235 6.422219795223254e-17 3.662813603587033e-19 6.422219795223254e-17 3.662813603587033e-19 -0.9569184010448749 -0.29035697639556235
12614190666.666666 -0.9590166639586961 -0.28334967487079754 6.421057551584998e-17 -1.0912719529275348e-19 6.421057551584998e-17 -1.0912719529275348e-19 -0.9590164906115252 -0.2833502615756822
12614808000.0 -0.9610634456433961 -0.27632780071483515 6.419543765437396e-17 -5.843436316929795e-19 6.419543765437396e-17 -5.843436316929795e-19 -0.9610632766003244 -0.2763283886431168
12615425333.333334 -0.9630588142467538 -0.2692911441200571 6.417678657390599e-17 -1.0593419821588024e-18 6.417678657390599e-17 -1.0593419821588024e-18 -0.963058649516404 -0.26929173324016603
12616042666.666666 -0.9650026630244987 -0.2622400815197369 6.415462467214116e-17 -1.5340963021275354e-18 6.415462467214116e-17 -1.5340963021275354e-18 -0.9650025026152603 -0.26224067180004235
12616660000.0 -0.9668948879884945 -0.25517499011770123 6.412895453816189e-17 -2.0085806705563208e-18 6.412895453816189e-17 -2.0085806705563208e-18 -0.966894731908525 -0.2551755815265134
12617277333.333334 -0.9687353879122526 -0.24809624786834394 6.409977895222086e-17 -2.482769191346984e-18 6.409977895222086e-17 -2.482769191346984e-18 -0.9687352361694772 -0.2480968403739158
12617894666.666666 -0.9705240643363675 -0.24100423345632435 6.406710088551454e-17 -2.9566359947398133e-18 6.406710088551454e-17 -2.9566359947398133e-18 -0.9705239169384795 -0.24100482702685352
12618512000.0 -0.9722608215738165 -0.23389932627619947 6.403092349994482e-17 -3.4301552387363e-18 6.403092349994482e-17 -3.4301552387363e-18 -0.9722606785282754 -0.23389992087982964
12619129333.333334 -0.9739455667149972 -0.22678190641243057 6.399125014787264e-17 -3.903301110481601e-18 6.399125014787264e-17 -3.903301110481601e-18 -0.9739454280290284 -0.22678250201725308
12619746666.666666 -0.9755782096327887 -0.2196523546186914 6.394808437185817e-17 -4.376047827690321e-18 6.394808437185817e-17 -4.376047827690321e-18 -0.9755780753133853 -0.21965295119274755
12620364000.0 -0.9771586629873265 -0.2125110522976932 6.390142990439326e-17 -4.8483696400337105e-18 6.390142990439326e-17 -4.8483696400337105e-18 -0.9771585330412463 -0.2125116498089754
12620981333.333334 -0.9786868422306672 -0.20535838148080843 6.385129066762281e-17 -5.320240830535463e-18 6.385129066762281e-17 -5.320240830535463e-18 -0.9786867166644329 -0.20535897989726187
12621598666.666666 -0.9801626656113265 -0.1981947248075786 6.379767077305585e-17 -5.791635716970636e-18 6.379767077305585e-17 -5.791635716970636e-18 -0.9801625444312269 -0.19819532409710344
12622216000.0 -0.9815860541786666 -0.19102046550516075 6.374057452126505e-17 -6.262528653263842e-18 6.374057452126505e-17 -6.262528653263842e-18 -0.9815859373907551 -0.19102106563561355
12622833333.333334 -0.9829569317870888 -0.1838359873679935 6.368000640157884e-17 -6.732894030868682e-18 6.368000640157884e-17 -6.732894030868682e-18 -0.9829568193971824 -0.18383658830718894
12623450666.666666 -0.9842752251001269 -0.1766416747371543 6.361597109176088e-17 -7.202706280162693e-18 6.361597109176088e-17 -7.202706280162693e-18 -0.9842751171138084 -0.17664227645286704
12624068000.0 -0.9855408635943625 -0.1694379124798544 6.354847345768072e-17 -7.671939871826894e-18 6.354847345768072e-17 -7.671939871826894e-18 -0.9855407600169768 -0.16943851493982046
12624685333.333334 -0.9867537795632146 -0.16222508596873786 6.347751855297145e-17 -8.140569318244303e-18 6.347751855297145e-17 -8.140569318244303e-18 -0.9867536803998714 -0.16222568914065696
12625302666.666666 -0.9879139081205284 -0.15500358106146178 6.340311161868414e-17 -8.608569174846909e-18 6.340311161868414e-17 -8.608569174846909e-18 -0.9879138133761006 -0.1550041849129985
12625920000.0 -0.9890211872040866 -0.14777378407983063 6.33252580829216e-17 -9.07591404153367e-18 6.33252580829216e-17 -9.07591404153367e-18 -0.9890210968832103 -0.14777438857861644
12626537333.333334 -0.9900755575788939 -0.14053608178932522 6.324396356047355e-17 -9.542578564004438e-18 6.324396356047355e-17 -9.542578564004438e-18 -0.990075471685968 -0.14053668690296012
12627154666.666666 -0.9910769628403617 -0.1332908613783286 6.315923385243273e-17 -1.0008537435155729e-17 6.315923385243273e-17 -1.0008537435155729e-17 -0.9910768813795483 -0.13329146707438289
12627772000.0 -0.9920253494173414 -0.1260385104373004 6.307107494580433e-17 -1.0473765396444437e-17 6.307107494580433e-17 -1.0473765396444437e-17 -0.9920252723925645 -0.12603911668331635
12628389333.333334 -0.9929206665749435 -0.11877941693838 6.297949301310761e-17 -1.0938237239241361e-17 6.297949301310761e-17 -1.0938237239241361e-17 -0.9929205939898895 -0.11878002370187368
12629006666.666666 -0.9937628664173174 -0.11151396921412446 6.288449441196288e-17 -1.140192780620463e-17 6.288449441196288e-17 -1.140192780620463e-17 -0.9937627982754346 -0.11151457646258735
12629624000.0 -0.9945519038901506 -0.1042425559372417 6.278608568467223e-17 -1.1864811992631993e-17 6.278608568467223e-17 -1.1864811992631993e-17 -0.9945518401946494 -0.10424316363814255
12630241333.333334 -0.995287736783125 -0.09696556609940299 6.26842735577892e-17 -1.2326864747811361e-17 6.26842735577892e-17 -1.2326864747811361e-17 -0.9952876775369786 -0.09696617422018963
12630858666.666666 -0.9959703257321358 -0.08968338899080079 6.257906494167829e-17 -1.278806107637519e-17 6.257906494167829e-17 -1.278806107637519e-17 -0.9959702709380782 -0.08968399749890173
12631476000.0 -0.9965996342214397 -0.08239641417892761 6.24704669300629e-17 -1.3248376039652841e-17 6.24704669300629e-17 -1.3248376039652841e-17 -0.9965995838819666 -0.08239702304175374
12632093333.333334 -0.9971756285855722 -0.07510503148804634 6.235848679956762e-17 -1.3707784757005322e-17 6.235848679956762e-17 -1.3707784757005322e-17 -0.9971755827029417 -0.0751056406729929
12632710666.666666 -0.9976982780111681 -0.06780963097822373 6.224313200924871e-17 -1.4166262407161504e-17 6.224313200924871e-17 -1.4166262407161504e-17 -0.997698236587398 -0.06781024045267181
12633328000.0 -0.9981675545386057 -0.06051060292437796 6.212441020010902e-17 -1.4623784229577172e-17 6.212441020010902e-17 -1.4623784229577172e-17 -0.9981675175754768 -0.060511212655696395
12633945333.333334 -0.9985834330634983 -0.05320833779559949 6.200232919461557e-17 -1.5080325525737188e-17 6.200232919461557e-17 -1.5080325525737188e-17 -0.9985834005625508 -0.05320894775114651
12634562666.666666 -0.9989458913380441 -0.04590322623403524 6.187689699619465e-17 -1.5535861660506703e-17 6.187689699619465e-17 -1.5535861660506703e-17 -0.9989458633005815 -0.045903836381160405
12635180000.0 -0.9992549099722088 -0.03859565903421808 6.174812178872619e-17 -1.599036806344133e-17 6.174812178872619e-17 -1.599036806344133e-17 -0.9992548863992939 -0.03859626934026376
12635797333.333334 -0.9995104724347711 -0.03128602712190512 6.161601193602349e-17 -1.6443820230114468e-17 6.161601193602349e-17 -1.6443820230114468e-17 -0.9995104533272293 -0.031286637554208456
12636414666.666666 -0.999712565054198 -0.023974721533505754 6.148057598130569e-17 -1.689619372342987e-17 6.148057598130569e-17 -1.689619372342987e-17 -0.9997125504126141 -0.023975332059400264
12637032000.0 -0.9998611770193842 -0.01666213339476487 6.134182264665763e-17 -1.7347464174940472e-17 6.134182264665763e-17 -1.7347464174940472e-17 -0.9998611668441056 -0.01666274398158232
12637649333.333334 -0.9999563003802251 -0.009348653900180274 6.119976083248605e-17 -1.7797607286143895e-17 6.119976083248605e-17 -1.7797607286143895e-17 -0.99995629467136 -0.009349264515252333
12638266666.666666 -0.9999979300480473 -0.0020346742918195345 6.105439961695839e-17 -1.8246598829799638e-17 6.105439961695839e-17 -1.8246598829799638e-17 -0.9999979288054642 -0.0020352849024795503
12638884000.0 -0.9999860637958737 0.0052794141614110265 6.090574825543961e-17 -1.8694414651215753e-17 6.090574825543961e-17 -1.8694414651215753e-17 -0.9999860670192029 0.005278803587826275
12639501333.333334 -0.9999207022585489 0.012593220184811283 6.075381617991405e-17 -1.914103066955019e-17 6.075381617991405e-17 -1.914103066955019e-17 -0.9999207099471817 0.012592609680959843
12640118666.666666 -0.9998018489327032 0.01990635251873373 6.059861299840178e-17 -1.9586422879095562e-17 6.059861299840178e-17 -1.9586422879095562e-17 -0.9998018610857918 0.019905742117266728
12640736000.0 -0.9996295101765632 0.02721841993977008 6.044014849435836e-17 -2.0030567350579762e-17 6.044014849435836e-17 -2.0030567350579762e-17 -0.999629526793021 0.027217809673329957
12641353333.333334 -0.999403695209615 0.03452903128122541 6.027843262608007e-17 -2.047344023241729e-17 6.027843262608007e-17 -2.047344023241729e-17 -0.9994037162881176 0.03452842118244423
12641970666.666666 -0.9991244161121113 0.041837795454413594 6.01134755260802e-17 -2.091501775201602e-17 6.01134755260802e-17 -2.091501775201602e-17 -0.9991244416510953 0.041837185555911253
12642588000.0 -0.9987916878244194 0.049144321469522 5.99452875004735e-17 -2.135527621702585e-17 5.99452875004735e-17 -2.135527621702585e-17 -0.998791717822083 0.0491437118039045
12643205333.333334 -0.9984055281462315 0.05644821845635758 5.977387902833922e-17 -2.1794192016618432e-17 5.977387902833922e-17 -2.1794192016618432e-17 -0.9984055626005343 0.056447609056215244
12643822666.666666 -0.997965957735603 0.0637490956854556 5.959926076108158e-17 -2.223174162274324e-17 5.959926076108158e-17 -2.223174162274324e-17 -0.997965996644266 0.06374848658336138
12644440000.0 -0.9974730001078506 0.07104656258889691 5.942144352178014e-17 -2.266790159138017e-17 5.942144352178014e-17 -2.266790159138017e-17 -0.9974730434683576 0.07104595381740465
12645057333.333334 -0.9969266816342947 0.07834022878117324 5.92404383045286e-17 -2.3102648563795808e-17 5.92404383045286e-17 -2.3102648563795808e-17 -0.9969267294438924 0.078339620372816
12645674666.666666 -0.99632703154086 0.08562970408001523 5.905625627376694e-17 -2.3535959267785785e-17 5.905625627376694e-17 -2.3535959267785785e-17 -0.9963270837965561 0.08562909606730333
12646292000.0 -0.9956740819064857 0.09291459852751999 5.886890876360063e-17 -2.396781051892207e-17 5.886890876360063e-17 -2.396781051892207e-17 -0.9956741386050504 0.09291399094293949
12646909333.333334 -0.9949678676614332 0.10019452241072932 5.86784072771182e-17 -2.4398179221778413e-17 5.86784072771182e-17 -2.4398179221778413e-17 -0.9949679287993995 0.10019391528674017
12647526666.666666 -0.9942084265854142 0.10746908628256283 5.848476348569296e-17 -2.4827042371165244e-17 5.848476348569296e-17 -2.4827042371165244e-17 -0.994208492159078 0.10746847965159716
12648144000.0 -0.9933957993055448 0.11473790098284951 5.828798922827671e-17 -2.525437705335756e-17 5.828798922827671e-17 -2.525437705335756e-17 -0.9933958693109664 0.11473729487731008
12648761333.333334 -0.9925300292942122 0.12200057765880744 5.808809651068669e-17 -2.568016044731233e-17 5.808809651068669e-17 -2.568016044731233e-17 -0.9925301037272133 0.12199997211106552
12649378666.666666 -0.991611162866721 0.12925672778607153 5.788509750488822e-17 -2.6104369825870576e-17 5.788509750488822e-17 -2.6104369825870576e-17 -0.991611241722887 0.1292561228284654
12649996000.0 -0.9906392491788268 0.1365059631893935 5.767900454825349e-17 -2.6526982556986588e-17 5.767900454825349e-17 -2.6526982556986588e-17 -0.9906393324535079 0.13650535885422685
12650613333.333334 -0.9896143402240881 0.14374789606354862 5.746983014282952e-17 -2.6947976104912067e-17 5.746983014282952e-17 -2.6947976104912067e-17 -0.9896144279123985 0.14374729238308864
12651230666.666666 -0.9885364908311313 0.15098213899374394 5.725758695458647e-17 -2.736732803139935e-17 5.725758695458647e-17 -2.736732803139935e-17 -0.9885365829279498 0.15098153600021974
12651848000.0 -0.9874057586606464 0.15820830497684987 5.704228781265814e-17 -2.778501599689514e-17 5.704228781265814e-17 -2.778501599689514e-17 -0.9874058551606154 0.1582077027024504
12652465333.333334 -0.9862222042023682 0.16542600744162478 5.682394570857657e-17 -2.8201017761723806e-17 5.682394570857657e-17 -2.8201017761723806e-17 -0.9862223050998964 0.16542540591849778
12653082666.666666 -0.9849858907718133 0.172634860269621 5.660257379550395e-17 -2.8615311187253434e-17 5.660257379550395e-17 -2.8615311187253434e-17 -0.9849859960610744 0.17263425952987058
12653700000.0 -0.9836968845068731 0.17983447781592343 5.637818538743406e-17 -2.902787423709752e-17 5.637818538743406e-17 -2.902787423709752e-17 -0.9836969941818057 0.17983387789160876
12654317333.333334 -0.9823552543643307 0.1870244749294727 5.615079395841889e-17 -2.943868497824669e-17 5.615079395841889e-17 -2.943868497824669e-17 -0.9823553684186404 0.18702387585260627
12654934666.666666 -0.980961072116109 0.19420446697403296 5.592041314175317e-17 -2.9847721582258153e-17 5.592041314175317e-17 -2.9847721582258153e-17 -0.9809611905432664 0.19420386877657855
12655552000.0 -0.9795144123454619 0.20137406984857187 5.568705672917224e-17 -3.025496232639744e-17 5.568705672917224e-17 -3.025496232639744e-17 -0.9795145351387065 0.2013734725624436
12656169333.333334 -0.9780153524429965 0.20853290000778188 5.5450738670036026e-17 -3.066038559478524e-17 5.5450738670036026e-17 -3.066038559478524e-17 -0.9780154795953322 0.20853230366484138
12656786666.666666 -0.9764639726025163 0.21568057448265296 5.521147307050183e-17 -3.1063969879542585e-17 5.521147307050183e-17 -3.1063969879542585e-17 -0.9764641041067162 0.21567997911470874
12657404000.0 -0.9748603558167162 0.2228167109010439 5.496927419268781e-17 -3.1465693781931076e-17 5.496927419268781e-17 -3.1465693781931076e-17 -0.9748604916653222 0.22281611653984926
12658021333.333334 -0.9732045878727806 0.2299409275079716 5.472415645383678e-17 -3.1865536013472966e-17 5.472415645383678e-17 -3.1865536013472966e-17 -0.9732047280581007 0.22994033418522247
12658638666.666666 -0.9714967573477704 0.23705284318611508 5.4476134425463154e-17 -3.226347539707841e-17 5.4476134425463154e-17 -3.226347539707841e-17 -0.9714969018618835 0.23705225093344928
12659256000.0 -0.9697369556038726 0.24415207747628906 5.42252228324931e-17 -3.26594908681649e-17 5.42252228324931e-17 -3.26594908681649e-17 -0.9697371044386249 0.24415148632528355
12659873333.333334 -0.9679252767835427 0.25123825059762833 5.397143655239915e-17 -3.305356147576526e-17 5.397143655239915e-17 -3.305356147576526e-17 -0.9679254299305518 0.25123766057979857
12660490666.666666 -0.9660618178044575 0.2583109834679901 5.371479061433258e-17 -3.344566638362003e-17 5.371479061433258e-17 -3.344566638362003e-17 -0.9660619752551108 0.2583103946147877
12661108000.0 -0.9641466783543051 0.26536989772431446 5.345530019822885e-17 -3.3835784871293454e-17 5.345530019822885e-17 -3.3835784871293454e-17 -0.9641468400997593 0.26536931006712533
12661725333.333334 -0.9621799608854932 0.27241461574270026 5.319298063392907e-17 -3.4223896335244907e-17 5.319298063392907e-17 -3.4223896335244907e-17 -0.9621801269166779 0.2724140293128438
12662342666.666666 -0.9601617706096517 0.27944476065868995 5.29278474002732e-17 -3.460998028992503e-17 5.29278474002732e-17 -3.460998028992503e-17 -0.9601619409172659 0.27944417548741624
12662960000.0 -0.9580922154919738 0.28645995638751076 5.265991612420206e-17 -3.499401636883954e-17 5.265991612420206e-17 -3.499401636883954e-17 -0.9580923900664913 0.2864593725060001
12663577333.333334 -0.9559714062455034 0.29345982764400436 5.2389202579836065e-17 -3.537598432563015e-17 5.2389202579836065e-17 -3.537598432563015e-17 -0.955971585077169 0.29345924508336474
12664194666.666666 -0.9537994563251416 0.3004439999629198 5.2115722687560786e-17 -3.5755864035125904e-17 5.2115722687560786e-17 -3.5755864035125904e-17 -0.9537996394039738 0.3004434187541855
12664812000.0 -0.9515764819216372 0.30741209971875577 5.1839492513095184e-17 -3.613363549440249e-17 5.1839492513095184e-17 -3.613363549440249e-17 -0.951576669237429 0.307411519892886
12665429333.333334 -0.9493026019553388 0.31436375414585727 5.1560528266552015e-17 -3.6509278823834454e-17 5.1560528266552015e-17 -3.6509278823834454e-17 -0.9493027934976568 0.31436317573373407
12666046666.666666 -0.9469779380698501 0.3212985913583031 5.1278846301500984e-17 -3.688277426812533e-17 5.1278846301500984e-17 -3.688277426812533e-17 -0.946978133828035 0.3212980143907295
12666664000.0 -0.9446026146254826 0.3282162403699066 5.099446311400895e-17 -3.725410219735281e-17 5.099446311400895e-17 -3.725410219735281e-17 -0.9446028145886525 0.3282156648776061
12667281333.333334 -0.9421767586926627 0.3351163311139022 5.0707395341688503e-17 -3.762324310798468e-17 5.0707395341688503e-17 -3.762324310798468e-17 -0.9421769628497106 0.33511575712751596
12667898666.666666 -0.9397005000451126 0.3419984944627954 5.0417659762728115e-17 -3.799017762390169e-17 5.0417659762728115e-17 -3.799017762390169e-17 -0.9397007083847094 0.3419979220128813
12668516000.0 -0.9371739711528344 0.3488623622483246 5.012527329491559e-17 -3.8354886497413476e-17 5.012527329491559e-17 -3.8354886497413476e-17 -0.9371741836634261 0.3488617913653546
12669133333.333334 -0.9345973071751811 0.3557075672807001 4.9830252994663685e-17 -3.871735061025395e-17 4.9830252994663685e-17 -3.871735061025395e-17 -0.9345975238449944 0.35570699799506045
12669750666.666666 -0.9319706459534599 0.3625337433687309 4.953261605601857e-17 -3.907755097458196e-17 4.953261605601857e-17 -3.907755097458196e-17 -0.9319708667704988 0.3625331757107189
