! Parameters = {f0=12700.012000; bw=77.238000; Q=6100.000000; N=10; m_0_1=1.210105; m_1_1=-0.613169; m_1_2=1.044917; m_2_2=-0.613818; m_2_3=0.681880; m_2_8=-0.002431; m_2_9=0.034273; m_3_3=-0.615755; m_3_4=0.570409; m_3_7=-0.001831; m_3_8=-0.098919; m_3_9=-0.002431; m_4_4=-0.618680; m_4_5=0.406744; m_4_6=0.001686; m_4_7=-0.119468; m_4_8=-0.001831; m_5_5=-0.618298; m_5_6=0.814099; m_5_7=0.001686; m_6_6=-0.618299; m_6_7=0.407086; m_7_7=-0.618666; m_7_8=0.570527; m_8_8=-0.615757; m_8_9=0.682193; m_9_9=-0.613823; m_9_10=1.045995; m_10_10=-0.613179; m_10_11=1.210900}
!
! Created with skrf (http://scikit-rf.org).
# Hz S RI R 50.0 
!freq ReS11 ImS11 ReS21 ImS21 ReS12 ImS12 ReS22 ImS22
12607400000.0 0.7327991096709449 -0.6804450491151435 -4.210389813064872e-17 7.11375018456412e-17 -4.210389813064872e-17 7.11375018456412e-17 0.7327995435634199 -0.6804445818382882
12608017333.333334 0.7268156619211388 -0.6868325804633734 -4.146521233152595e-17 7.149295136344216e-17 -4.146521233152595e-17 7.149295136344216e-17 0.7268160998652421 -0.6868321170246174
12608634666.666666 0.7207765384915593 -0.6931674989206904 -4.082353510606845e-17 7.184267263145694e-17 -4.082353510606845e-17 7.184267263145694e-17 0.7207769804533481 -0.6931670393551567
12609252000.0 0.7146822019924127 -0.6994493192184228 -4.0178917777449386e-17 7.218664056035195e-17 -4.0178917777449386e-17 7.218664056035195e-17 0.7146826479376404 -0.699448863560934
12609869333.333334 0.7085331192633286 -0.7056775601553565 -3.953141187847112e-17 7.252483052017333e-17 -3.953141187847112e-17 7.252483052017333e-17 0.7085335691574457 -0.7056771084404326
12610486666.666666 0.7023297613376974 -0.7118517446344942 -3.8881069147459513e-17 7.285721834209001e-17 -3.8881069147459513e-17 7.285721834209001e-17 0.7023302151458563 -0.7118512968963495
12611104000.0 0.6960726034063669 -0.7179713996998226 -3.822794152413119e-17 7.318378032010638e-17 -3.822794152413119e-17 7.318378032010638e-17 0.6960730610934234 -0.7179709559723639
12611721333.333334 0.6897621247815263 -0.7240360565722638 -3.757208114547827e-17 7.350449321272243e-17 -3.757208114547827e-17 7.350449321272243e-17 0.6897625863120426 -0.7240356168890872
12612338666.666666 0.683398808859785 -0.7300452506857821 -3.691354034159934e-17 7.381933424457697e-17 -3.691354034159934e-17 7.381933424457697e-17 0.6833992741980324 -0.7300448150801713
12612956000.0 0.6769831430851648 -0.7359985217229527 -3.625237163153577e-17 7.412828110804391e-17 -3.625237163153577e-17 7.412828110804391e-17 0.676983612195126 -0.7359980902278745
12613573333.333334 0.6705156189118608 -0.7418954136501205 -3.5588627719116295e-17 7.443131196478181e-17 -3.5588627719116295e-17 7.443131196478181e-17 0.6705160917572344 -0.7418949862982253
12614190666.666666 0.6639967317665175 -0.7477354747524184 -3.492236148873782e-17 7.472840544727033e-17 -3.492236148873782e-17 7.472840544727033e-17 0.6639972083107173 -0.747735051576034
12614808000.0 0.6574269810102912 -0.7535182576683419 -3.42536260011867e-17 7.501954066028362e-17 -3.42536260011867e-17 7.501954066028362e-17 0.6574274612164538 -0.7535178386994754
12615425333.333334 0.6508068699006069 -0.7592433194240268 -3.3582474489414216e-17 7.530469718234316e-17 -3.3582474489414216e-17 7.530469718234316e-17 0.6508073537315899 -0.7592429046943577
12616042666.666666 0.6441369055525994 -0.7649102214671741 -3.2908960354312676e-17 7.558385506712634e-17 -3.2908960354312676e-17 7.558385506712634e-17 0.6441373929709877 -0.7649098110080558
12616660000.0 0.6374175989002728 -0.7705185297006499 -3.223313716047814e-17 7.585699484483863e-17 -3.223313716047814e-17 7.585699484483863e-17 0.6374180898683794 -0.7705181235431042
12617277333.333334 0.6306494646573586 -0.7760678145157338 -3.155505863195977e-17 7.612409752354893e-17 -3.155505863195977e-17 7.612409752354893e-17 0.6306499591372291 -0.7760674126904514
12617894666.666666 0.6238330212779114 -0.7815576508250138 -3.087477864801359e-17 7.638514459048086e-17 -3.087477864801359e-17 7.638514459048086e-17 0.6238335192313252 -0.7815572533623492
12618512000.0 0.6169687909164816 -0.7869876180950338 -3.019235123880017e-17 7.66401180132844e-17 -3.019235123880017e-17 7.66401180132844e-17 0.6169692923049572 -0.7869872250250063
12619129333.333334 0.6100572993883422 -0.7923573003783351 -2.9507830581148356e-17 7.688900024123932e-17 -2.9507830581148356e-17 7.688900024123932e-17 0.6100578041731376 -0.7923569117306228
12619746666.666666 0.6030990761290069 -0.7976662863454735 -2.8821270994235084e-17 7.71317742064496e-17 -2.8821270994235084e-17 7.71317742064496e-17 0.6030995842711239 -0.7976659021494135
12620364000.0 0.5960946541536744 -0.8029141693165284 -2.81327269352885e-17 7.736842332498678e-17 -2.81327269352885e-17 7.736842332498678e-17 0.5960951656138618 -0.8029137896011143
12620981333.333334 0.5890445700166027 -0.8081005472921023 -2.7442252995299696e-17 7.759893149798911e-17 -2.7442252995299696e-17 7.759893149798911e-17 0.5890450847553587 -0.8081001720859811
12621598666.666666 0.58194936376978 -0.8132250229842833 -2.6749903894683616e-17 7.78232831127369e-17 -2.6749903894683616e-17 7.78232831127369e-17 0.5819498817473556 -0.813224652315754
12622216000.0 0.5748095789216694 -0.818287203846995 -2.605573447896711e-17 7.804146304367754e-17 -2.605573447896711e-17 7.804146304367754e-17 0.5748101000980712 -0.818286837744006
12622833333.333334 0.5676257623955518 -0.8232867021060816 -2.5359799714442157e-17 7.825345665342081e-17 -2.5359799714442157e-17 7.825345665342081e-17 0.5676262867305462 -0.8232863405962298
12623450666.666666 0.5603984644876331 -0.8282231347890152 -2.4662154683847023e-17 7.845924979368417e-17 -2.4662154683847023e-17 7.845924979368417e-17 0.5603989919407474 -0.8282227778995421
12624068000.0 0.553128238824909 -0.8330961237542129 -2.396285458199757e-17 7.86588288062129e-17 -2.396285458199757e-17 7.86588288062129e-17 0.5531287693554363 -0.833095771512004
12624685333.333334 0.5458156423226419 -0.8379052957200851 -2.326195471143173e-17 7.885218052365527e-17 -2.326195471143173e-17 7.885218052365527e-17 0.545816175889643 -0.8379049481516659
12625302666.666666 0.5384612351419583 -0.8426502822934533 -2.2559510478069632e-17 7.903929227039269e-17 -2.2559510478069632e-17 7.903929227039269e-17 0.5384617717042667 -0.842649939424992
12625920000.0 0.5310655806465847 -0.8473307199980099 -2.1855577386813427e-17 7.922015186334634e-17 -2.1855577386813427e-17 7.922015186334634e-17 0.531066120162807 -0.8473303818553087
12626537333.333334 0.5236292453600241 -0.8519462503019378 -2.1150211037195158e-17 7.939474761273001e-17 -2.1150211037195158e-17 7.939474761273001e-17 0.5236297877885451 -0.8519459169104356
12627154666.666666 0.5161527989220182 -0.8564965196454721 -2.044346711899642e-17 7.956306832277063e-17 -2.044346711899642e-17 7.956306832277063e-17 0.5161533442210042 -0.8564961910302424
12627772000.0 0.5086368140447892 -0.860981179468057 -1.9735401407839953e-17 7.972510329239486e-17 -1.9735401407839953e-17 7.972510329239486e-17 0.5086373621721908 -0.8609808556538037
12628389333.333334 0.501081866469412 -0.8653998862348957 -1.9026069760833043e-17 7.988084231586379e-17 -1.9026069760833043e-17 7.988084231586379e-17 0.5010824173829663 -0.8653995672459529
12629006666.666666 0.4934885349214907 -0.8697523014634005 -1.831552811213808e-17 8.003027568338419e-17 -1.831552811213808e-17 8.003027568338419e-17 0.49348908857872625 -0.8697519873237302
12629624000.0 0.4858574010669987 -0.8740380917490165 -1.7603832468597933e-17 8.017339418166731e-17 -1.7603832468597933e-17 8.017339418166731e-17 0.48585795742523846 -0.874037782482208
12630241333.333334 0.4781890494676002 -0.8782569287908373 -1.6891038905320962e-17 8.031018909445711e-17 -1.6891038905320962e-17 8.031018909445711e-17 0.47818960848396347 -0.8782566244201027
12630858666.666666 0.47048406753601885 -0.8824084894166663 -1.6177203561278464e-17 8.044065220301594e-17 -1.6177203561278464e-17 8.044065220301594e-17 0.4704846291674263 -0.8824081899648423
12631476000.0 0.46274304549076734 -0.8864924556079259 -1.5462382634882653e-17 8.056477578657401e-17 -1.5462382634882653e-17 8.056477578657401e-17 0.46274360969394285 -0.8864921610974683
12632093333.333334 0.45496657631125875 -0.8905085145238377 -1.4746632379593928e-17 8.068255262273388e-17 -1.4746632379593928e-17 8.068255262273388e-17 0.4549671430427343 -0.8905082249768232
12632710666.666666 0.4471552556922355 -0.894456358525474 -1.4030009099493526e-17 8.079397598784244e-17 -1.4030009099493526e-17 8.079397598784244e-17 0.44715582490835293 -0.8944560739635962
12633328000.0 0.43930968199803516 -0.8983356851993725 -1.3312569144853742e-17 8.089903965732244e-17 -1.3312569144853742e-17 8.089903965732244e-17 0.43931025365495047 -0.8983354056439405
12633945333.333334 0.4314304562168793 -0.9021461973806327 -1.259436890773865e-17 8.099773790596071e-17 -1.259436890773865e-17 8.099773790596071e-17 0.43143103027056606 -0.9021459228525716
12634562666.666666 0.42351818191486473 -0.9058876031756744 -1.1875464817573204e-17 8.109006550816127e-17 -1.1875464817573204e-17 8.109006550816127e-17 0.42351875832111696 -0.9058873336955204
12635180000.0 0.41557346518965105 -0.9095596159846294 -1.1155913336713638e-17 8.117601773815969e-17 -1.1155913336713638e-17 8.117601773815969e-17 0.415574043904087 -0.9095593515725313
12635797333.333334 0.4075969146240318 -0.9131619545232976 -1.0435770956035236e-17 8.125559037019453e-17 -1.0435770956035236e-17 8.125559037019453e-17 0.4075974956020976 -0.9131616951990147
12636414666.666666 0.39958914123942074 -0.9166943428446486 -9.715094190508354e-18 8.132877967864307e-17 -9.715094190508354e-18 8.132877967864307e-17 0.39958972443639285 -0.9166940886275464
12637032000.0 0.39155075844888915 -0.9201565103600261 -8.993939574762448e-18 8.13955824381173e-17 -8.993939574762448e-18 8.13955824381173e-17 0.39155134381987855 -0.920156261269078
12637649333.333334 0.3834823820102807 -0.9235481918598301 -8.272363658671303e-18 8.145599592351988e-17 -8.272363658671303e-18 8.145599592351988e-17 0.3834829695102368 -0.9235479479136159
12638266666.666666 0.37538462997904515 -0.9268691275338365 -7.550423002929474e-18 8.15100179100614e-17 -7.550423002929474e-18 8.15100179100614e-17 0.37538521956275833 -0.9268688887505393
12638884000.0 0.36725812266078733 -0.9301190629911393 -6.828174174620341e-18 8.155764667323945e-17 -6.828174174620341e-18 8.155764667323945e-17 0.3672587142828926 -0.9301188293885447
12639501333.333334 0.35910348256388097 -0.9332977492795815 -6.1056737428062425e-18 8.159888098877665e-17 -6.1056737428062425e-18 8.159888098877665e-17 0.3591040761788622 -0.9332975208750778
12640118666.666666 0.3509213343518395 -0.9364049429048124 -5.3829782741132785e-18 8.163372013252098e-17 -5.3829782741132785e-18 8.163372013252098e-17 0.35092192991403176 -0.9364047197153865
12640736000.0 0.3427123047950644 -0.9394404058490858 -4.660144328278527e-18 8.166216388030869e-17 -4.660144328278527e-18 8.166216388030869e-17 0.3427129022586584 -0.9394401878913246
12641353333.333334 0.334477022723473 -0.942403905589255 -3.937228453790101e-18 8.168421250778367e-17 -3.937228453790101e-18 8.168421250778367e-17 0.3344776220425183 -0.9424036928793429
12641970666.666666 0.3262161189777688 -0.9452952151147928 -3.214287183425273e-18 8.169986679018281e-17 -3.214287183425273e-18 8.169986679018281e-17 0.32621672010617697 -0.9452950076685098
12642588000.0 0.31793022636138485 -0.9481141129450821 -2.4913770298659127e-18 8.170912800207946e-17 -2.4913770298659127e-18 8.170912800207946e-17 0.3179308292529337 -0.948113910777804
12643205333.333334 0.3096199795919818 -0.9508603831463907 -1.76855448128002e-18 8.171199791708863e-17 -1.76855448128002e-18 8.171199791708863e-17 0.30962058420031896 -0.9508601862730888
12643822666.666666 0.30128601525274906 -0.9535338153484445 -1.045875996923185e-18 8.170847880753408e-17 -1.045875996923185e-18 8.170847880753408e-17 0.3012866215313944 -0.953533623783681
12644440000.0 0.29292897174366406 -0.9561342047605245 -3.2339800274166765e-19 8.169857344407512e-17 -3.2339800274166765e-19 8.169857344407512e-17 0.29292957964601457 -0.9561340185184549
12645057333.333334 0.28454948923272794 -0.9586613521871181 3.9882311302249364e-19 8.168228509529623e-17 3.9882311302249364e-19 8.168228509529623e-17 0.2845500987120609 -0.958661171281489
12645674666.666666 0.2761482096068187 -0.9611150640432132 1.1207310042217388e-18 8.165961752725735e-17 1.1207310042217388e-18 8.165961752725735e-17 0.2761488206162946 -0.9611148884873596
12646292000.0 0.26772577642235584 -0.963495152369169 1.8422693712021447e-18 8.163057500300438e-17 1.8422693712021447e-18 8.163057500300438e-17 0.267726388915023 -0.9634949821760161
12646909333.333334 0.2592828348563587 -0.9658014348450159 2.563381965162442e-18 8.159516228204331e-17 2.563381965162442e-18 8.159516228204331e-17 0.2592834487851565 -0.9658012700270773
12647526666.666666 0.2508200316567516 -0.9680337348044994 3.2840125925375123e-18 8.155338461977379e-17 3.2840125925375123e-18 8.155338461977379e-17 0.2508206469745136 -0.9680335753738746
12648144000.0 0.24233801509284683 -0.9701918812486011 4.004105119373531e-18 8.150524776688477e-17 4.004105119373531e-18 8.150524776688477e-17 0.2423386317523053 -0.9701917272169771
12648761333.333334 0.233837434905825 -0.9722757088586057 4.723603475678209e-18 8.145075796871234e-17 4.723603475678209e-18 8.145075796871234e-17 0.23383805285961376 -0.9722755602372539
12649378666.666666 0.22531894225885266 -0.9742850580087908 5.4424516597759485e-18 8.138992196455894e-17 5.4424516597759485e-18 8.138992196455894e-17 0.22531956145951074 -0.974284914808566
12649996000.0 0.21678318968722873 -0.9762197747786467 6.160593742667502e-18 8.132274698697314e-17 6.160593742667502e-18 8.132274698697314e-17 0.21678381008720485 -0.9762196370099897
12650613333.333334 0.2082308310483724 -0.978079710964676 6.877973872361437e-18 8.124924076099262e-17 6.877973872361437e-18 8.124924076099262e-17 0.20823145260002773 -0.9780795786376092
12651230666.666666 0.19966252147187438 -0.9798647240917162 7.594536278207183e-18 8.116941150334882e-17 7.594536278207183e-18 8.116941150334882e-17 0.19966314412748645 -0.9798645972158435
12651848000.0 0.19107891730903417 -0.9815746774239076 8.310225275229184e-18 8.108326792163158e-17 8.310225275229184e-18 8.108326792163158e-17 0.19107954102080105 -0.981574556008417
12652465333.333334 0.18248067608283317 -0.9832094399751219 9.024985268431987e-18 8.099081921341889e-17 9.024985268431987e-18 8.099081921341889e-17 0.1824813008028763 -0.9832093240287801
12653082666.666666 0.173868456437567 -0.9847688865189941 9.738760757105865e-18 8.08920750653676e-17 9.738760757105865e-18 8.08920750653676e-17 0.17386908211793536 -0.9847687760501486
12653700000.0 0.1652429180881403 -0.986252897598561 1.0451496339148565e-17 8.078704565226246e-17 1.0451496339148565e-17 8.078704565226246e-17 0.16524354468081406 -0.9862527926151393
12654317333.333334 0.1566047217698106 -0.9876613595353628 1.1163136715320381e-17 8.067574163603566e-17 1.1163136715320381e-17 8.067574163603566e-17 0.15660534922670477 -0.9876612600448712
12654934666.666666 0.14795452918746338 -0.9889941644381719 1.1873626693556029e-17 8.055817416473941e-17 1.1873626693556029e-17 8.055817416473941e-17 0.1479551574604313 -0.9889940704476949
12655552000.0 0.1392930029648106 -0.9902512102112706 1.2582911193220477e-17 8.043435487148665e-17 1.2582911193220477e-17 8.043435487148665e-17 0.13929363200564793 -0.9902511217274717
12656169333.333334 0.13062080659391404 -0.9914324005622349 1.3290935249357013e-17 8.030429587335566e-17 1.3290935249357013e-17 8.030429587335566e-17 0.13062143635436238 -0.9914323175913542
12656786666.666666 0.12193860438407904 -0.9925376450093492 1.399764401695636e-17 8.01680097702507e-17 1.399764401695636e-17 8.01680097702507e-17 0.12193923481582933 -0.9925375675572037
12657404000.0 0.11324706141110713 -0.9935668588885148 1.4702982775182894e-17 8.002550964373153e-17 1.4702982775182894e-17 8.002550964373153e-17 0.11324769246580396 -0.9935667869605003
12658021333.333334 0.10454684346629411 -0.9945199633597485 1.5406896931605464e-17 7.987680905580248e-17 1.5406896931605464e-17 7.987680905580248e-17 0.10454747509553879 -0.9945198969608342
12658638666.666666 0.09583861700556966 -0.9953968854132009 1.6109332026398402e-17 7.972192204766861e-17 1.6109332026398402e-17 7.972192204766861e-17 0.09583924916092432 -0.9953968245479343
12659256000.0 0.0871230490981913 -0.9961975578747795 1.6810233736575782e-17 7.956086313844492e-17 1.6810233736575782e-17 7.956086313844492e-17 0.08712368173118253 -0.9961975025472832
12659873333.333334 0.07840080737578652 -0.9969219194112778 1.7509547880147724e-17 7.939364732384302e-17 1.7509547880147724e-17 7.939364732384302e-17 0.07840144043790898 -0.9969218696252492
12660490666.666666 0.06967255998138065 -0.9975699145350577 1.820722042030711e-17 7.922029007481185e-17 1.820722042030711e-17 7.922029007481185e-17 0.0696731934241009 -0.9975698702937699
12661108000.0 0.060938975517819294 -0.9981414936083357 1.89031974696145e-17 7.904080733613912e-17 1.89031974696145e-17 7.904080733613912e-17 0.060939609292579515 -0.9981414549146371
12661725333.333334 0.05220072299697685 -0.9986366128469522 1.9597425294117965e-17 7.885521552502816e-17 1.9597425294117965e-17 7.885521552502816e-17 0.05220135705519847 -0.9986365797032655
12662342666.666666 0.04345847178819686 -0.999055234323746 2.028985031751555e-17 7.866353152962527e-17 2.028985031751555e-17 7.866353152962527e-17 0.043459106081284345 -0.999055206732069
12662960000.0 0.034712891567158594 -0.9993973259714513 2.0980419125265665e-17 7.846577270752008e-17 2.0980419125265665e-17 7.846577270752008e-17 0.03471352604650316 -0.9993973039333556
12663577333.333334 0.025964652264550168 -0.9996628615851553 2.1669078468707823e-17 7.826195688420352e-17 2.1669078468707823e-17 7.826195688420352e-17 0.0259652868815335 -0.9996628451017878
12664194666.666666 0.017214424014778684 -0.9998518208243063 2.2355775269144285e-17 7.805210235149653e-17 2.2355775269144285e-17 7.805210235149653e-17 0.017215058720776673 -0.9998518098963873
12664812000.0 0.008462877104522863 -0.9999641892142711 2.3040456621929084e-17 7.783622786593656e-17 2.3040456621929084e-17 7.783622786593656e-17 0.008463511850909338 -0.9999641838420966
12665429333.333334 -0.0002893180784703231 -0.9999999581474442 2.372306980053306e-17 7.761435264713142e-17 2.372306980053306e-17 7.761435264713142e-17 -0.00028868334031990174 -0.9999999583308844
12666046666.666666 -0.009041491096710413 -0.9999591248839078 2.440356226058225e-17 7.738649637608052e-17 2.440356226058225e-17 7.738649637608052e-17 -0.009040856415415206 -0.9999591306224057
12666664000.0 -0.017792971514604596 -0.9998416925516361 2.508188164391353e-17 7.715267919345034e-17 2.508188164391353e-17 7.715267919345034e-17 -0.0177923369387747 -0.9998417038442128
12667281333.333334 -0.026543088949416767 -0.9996476701462687 2.5757975782570318e-17 7.691292169782943e-17 2.5757975782570318e-17 7.691292169782943e-17 -0.026542454527649424 -0.9996476869915165
12667898666.666666 -0.03529117312290449 -0.9993770725304092 2.6431792702812385e-17 7.666724494393737e-17 2.6431792702812385e-17 7.666724494393737e-17 -0.03529053890378037 -0.9993770949264955
12668516000.0 -0.044036553912663534 -0.9990299204324848 2.7103280629108936e-17 7.641567044079926e-17 2.7103280629108936e-17 7.641567044079926e-17 -0.04403591994474318 -0.9990299483771551
12669133333.333334 -0.052778561403205526 -0.9986062404451762 2.777238798808429e-17 7.615822014989607e-17 2.777238798808429e-17 7.615822014989607e-17 -0.05277792773502536 -0.9986062739357476
12669750666.666666 -0.061516525937530125 -0.9981060650233613 2.843906341248962e-17 7.58949164832649e-17 2.843906341248962e-17 7.58949164832649e-17 -0.06151589261759896 -0.9981061040567284
12670368000.0 -0.07024977816842234 -0.9975294324816323 2.9103255745126685e-17 7.562578230157559e-17 2.9103255745126685e-17 7.562578230157559e-17 -0.07024914524521764 -0.9975294770542661
