! Parameters = {f0=12700.012000; bw=77.238000; Q=6100.000000; N=10; m_0_1=1.177272; m_1_1=-1.105662; m_1_2=1.012084; m_2_2=-1.106311; m_2_3=0.649047; m_2_8=-0.004073; m_2_9=0.032631; m_3_3=-1.108248; m_3_4=0.537576; m_3_7=-0.003473; m_3_8=-0.100561; m_3_9=-0.004073; m_4_4=-1.111173; m_4_5=0.373911; m_4_6=0.000044; m_4_7=-0.121110; m_4_8=-0.003473; m_5_5=-1.110791; m_5_6=0.781266; m_5_7=0.000044; m_6_6=-1.110792; m_6_7=0.374253; m_7_7=-1.111159; m_7_8=0.537694; m_8_8=-1.108250; m_8_9=0.649360; m_9_9=-1.106316; m_9_10=1.013162; m_10_10=-1.105672; m_10_11=1.178067}
!
! Created with skrf (http://scikit-rf.org).
# Hz S RI R 50.0 
!freq ReS11 ImS11 ReS21 ImS21 ReS12 ImS12 ReS22 ImS22
12607400000.0 0.9719056264484682 0.23537088451560548 -6.9821935732075e-17 3.5226334202859004e-18 -6.9821935732075e-17 3.5226334202859004e-18 0.971905480420608 0.23537148750057912
12608017333.333334 0.973707760445522 0.22780078412510824 -6.977837850518956e-17 4.071244752923943e-18 -6.977837850518956e-17 4.071244752923943e-18 0.973707619121188 0.22780138819857013
12608634666.666666 0.9754509324383086 0.22021688946373338 -6.973051494985911e-17 4.619388941252191e-18 -6.973051494985911e-17 4.619388941252191e-18 0.9754507958255978 0.2202174945889997
12609252000.0 0.9771350368706557 0.21261965976745986 -6.967834971771195e-17 5.167032216373736e-18 -6.967834971771195e-17 5.167032216373736e-18 0.9771349049773783 0.2126202659077864
12609869333.333334 0.9787599717631796 0.20500955507972898 -6.96218877249156e-17 5.7141408536453236e-18 -6.96218877249156e-17 5.7141408536453236e-18 0.9787598445968598 0.20501016219831394
12610486666.666666 0.9803256387194373 0.19738703622369846 -6.956113415177045e-17 6.260681174729832e-18 -6.956113415177045e-17 6.260681174729832e-18 0.9803255162873123 0.19738764428368427
12611104000.0 0.9818319429319273 0.18975256477414304 -6.949609444228321e-17 6.8066195496865645e-18 -6.949609444228321e-17 6.8066195496865645e-18 0.9818318252409469 0.1897531737386188
12611721333.333334 0.9832787931877824 0.18210660302972667 -6.942677430372928e-17 7.351922399008359e-18 -6.942677430372928e-17 7.351922399008359e-18 0.9832786802446093 0.18210721286173046
12612338666.666666 0.9846661018743345 0.17444961398481387 -6.935317970619528e-17 7.896556195692324e-18 -6.935317970619528e-17 7.896556195692324e-18 0.9846659936853422 0.17445022464733465
12612956000.0 0.9859937849844012 0.1667820613015166 -6.927531688210482e-17 8.440487467306415e-18 -6.927531688210482e-17 8.440487467306415e-18 0.9859936815556751 0.16678267275749664
12613573333.333334 0.9872617621213584 0.15910440928170164 -6.919319232573355e-17 8.98368279801451e-18 -6.919319232573355e-17 8.98368279801451e-18 0.987261663458695 0.1591050214940389
12614190666.666666 0.9884699565040389 0.15141712283870754 -6.910681279270117e-17 9.526108830646286e-18 -6.910681279270117e-17 9.526108830646286e-18 0.9884698626129462 0.1514177357702579
12614808000.0 0.9896182949713664 0.14372066746927606 -6.90161852994534e-17 1.0067732268721445e-17 -6.90161852994534e-17 1.0067732268721445e-17 0.9896182058570623 0.1437212810828554
12615425333.333334 0.9907067079867732 0.13601550922544858 -6.892131712272387e-17 1.0608519878500791e-17 -6.892131712272387e-17 1.0608519878500791e-17 0.9907066236541865 0.13601612348383524
12616042666.666666 0.9917351296424382 0.12830211468617667 -6.882221579898252e-17 1.1148438491011018e-17 -6.882221579898252e-17 1.1148438491011018e-17 0.9917350500962065 0.12830272955211333
12616660000.0 0.9927034976632565 0.12058095092918036 -6.871888912386722e-17 1.1687455004074512e-17 -6.871888912386722e-17 1.1687455004074512e-17 0.9927034229077284 0.12058156636537674
12617277333.333334 0.9936117534106224 0.11285248550260907 -6.861134515159915e-17 1.2225536384336182e-17 -6.861134515159915e-17 1.2225536384336182e-17 0.9936116834498557 0.11285310147174406
12617894666.666666 0.9944598418859655 0.10511718639684237 -6.849959219438613e-17 1.2762649669263789e-17 -6.849959219438613e-17 1.2762649669263789e-17 0.994459776723727 0.10511780286156612
12618512000.0 0.9952477117341034 0.09737552201595348 -6.838363882180085e-17 1.3298761969193746e-17 -6.838363882180085e-17 1.3298761969193746e-17 0.9952476513738688 0.09737613893888983
12619129333.333334 0.9959753152463269 0.0896279611495715 -6.826349386015657e-17 1.3833840469303508e-17 -6.826349386015657e-17 1.3833840469303508e-17 0.9959752596912812 0.08962857849332026
12619746666.666666 0.9966426083633086 0.08187497294429649 -6.813916639185532e-17 1.4367852431636828e-17 -6.813916639185532e-17 1.4367852431636828e-17 0.9966425576163461 0.08187559067143561
12620364000.0 0.9972495506777643 0.0741170268753755 -6.80106657547272e-17 1.4900765197092466e-17 -6.80106657547272e-17 1.4900765197092466e-17 0.9972495047414874 0.07411764494846342
12620981333.333334 0.997796105436892 0.06635459271835892 -6.787800154135377e-17 1.543254618740918e-17 -6.787800154135377e-17 1.543254618740918e-17 0.9977960643136106 0.06635521109993665
12621598666.666666 0.9982822395446093 0.058588140520483535 -6.774118359837188e-17 1.5963162907162318e-17 -6.774118359837188e-17 1.5963162907162318e-17 0.9982822032363432 0.05858875917307726
12622216000.0 0.998707923563553 0.05081814057229439 -6.760022202576632e-17 1.6492582945735144e-17 -6.760022202576632e-17 1.6492582945735144e-17 0.9987078920720288 0.05081875945841743
12622833333.333334 0.9990731317168561 0.04304506337922336 -6.745512717614473e-17 1.7020773979295805e-17 -6.745512717614473e-17 1.7020773979295805e-17 0.9990731050435108 0.04304568246137866
12623450666.666666 0.999377841889717 0.03526937963304166 -6.730590965399947e-17 1.754770377275853e-17 -6.730590965399947e-17 1.754770377275853e-17 0.9993778200356939 0.03526999887372388
12624068000.0 0.9996220356307352 0.027491560183328823 -6.715258031495174e-17 1.8073340181746132e-17 -6.715258031495174e-17 1.8073340181746132e-17 0.9996220185968854 0.027492179545026713
12624685333.333334 0.9998056981530308 0.019712076008875708 -6.699515026497807e-17 1.8597651154557744e-17 -6.699515026497807e-17 1.8597651154557744e-17 0.9998056859399146 0.01971269545407438
12625302666.666666 0.9999288183351304 0.011931398189562549 -6.683363085963179e-17 1.9120604734091822e-17 -6.683363085963179e-17 1.9120604734091822e-17 0.9999288109430164 0.01193201768074573
12625920000.0 0.9999913887216568 0.004149997877236473 -6.666803370323558e-17 1.9642169059810072e-17 -6.666803370323558e-17 1.9642169059810072e-17 0.9999913861505204 0.0041506173768887525
12626537333.333334 0.9999934055237654 -0.0036316537323072516 -6.649837064807059e-17 2.0162312369656775e-17 -6.649837064807059e-17 2.0162312369656775e-17 0.9999934077732904 -0.0036310342616981085
12627154666.666666 0.9999348686193814 -0.011413085428085327 -6.632465379354469e-17 2.0681003001990194e-17 -6.632465379354469e-17 2.0681003001990194e-17 0.9999348756889616 -0.011412466024026144
12627772000.0 0.9998157815532074 -0.0191938260125171 -6.614689548534251e-17 2.1198209397516312e-17 -6.614689548534251e-17 2.1198209397516312e-17 0.9998157934419419 -0.019193206712506974
12628389333.333334 0.9996361515365042 -0.026973404329730048 -6.596510831457266e-17 2.171390010117793e-17 -6.596510831457266e-17 2.171390010117793e-17 0.9996361682432037 -0.026972785171258173
12629006666.666666 0.9993959894466589 -0.03475134929440296 -6.577930511688575e-17 2.2228043764081673e-17 -6.577930511688575e-17 2.2228043764081673e-17 0.9993960109698393 -0.034750730314946236
12629624000.0 0.9990953098265221 -0.042527189920036186 -6.558949897158718e-17 2.2740609145387623e-17 -6.558949897158718e-17 2.2740609145387623e-17 0.9990953361644086 -0.04252657115705698
12630241333.333334 0.99873413088353 -0.05030045534752866 -6.539570320073115e-17 2.325156511420469e-17 -6.539570320073115e-17 2.325156511420469e-17 0.9987341620340578 -0.05029983683847264
12630858666.666666 0.9983124744886055 -0.058070674873690505 -6.519793136820343e-17 2.376088065146717e-17 -6.519793136820343e-17 2.376088065146717e-17 0.9983125104494182 -0.05807005665598429
12631476000.0 0.9978303661748198 -0.06583737797994464 -6.499619727878256e-17 2.4268524851824098e-17 -6.499619727878256e-17 2.4268524851824098e-17 0.9978304069432693 -0.06583676009099353
12632093333.333334 0.9972878351358635 -0.07360009436047793 -6.4790514977196e-17 2.4774466925495014e-17 -6.4790514977196e-17 2.4774466925495014e-17 0.9972878807090114 -0.07359947683766369
12632710666.666666 0.9966849142242723 -0.08135835395091902 -6.458089874715556e-17 2.5278676200134348e-17 -6.458089874715556e-17 2.5278676200134348e-17 0.9966849645988893 -0.08135773683159754
12633328000.0 0.9960216399494319 -0.08911168695683085 -6.436736311037528e-17 2.578112212269517e-17 -6.436736311037528e-17 2.578112212269517e-17 0.9960216951219985 -0.08911107027832998
12633945333.333334 0.995298052475374 -0.09685962388207359 -6.414992282558524e-17 2.6281774261259116e-17 -6.414992282558524e-17 2.6281774261259116e-17 0.9952981124420798 -0.0968590076816908
12634562666.666666 0.9945141956183368 -0.10460169555729096 -6.392859288752487e-17 2.678060230687475e-17 -6.392859288752487e-17 2.678060230687475e-17 0.9945142603750837 -0.10460107987229131
12635180000.0 0.9936701168441296 -0.1123374331682079 -6.370338852591847e-17 2.7277576075394703e-17 -6.370338852591847e-17 2.7277576075394703e-17 0.9936701863865274 -0.11233681803582132
12635797333.333334 0.9927658672652316 -0.12006636828421638 -6.347432520444299e-17 2.777266550928986e-17 -6.347432520444299e-17 2.777266550928986e-17 0.9927659415886011 -0.12006575374163578
12636414666.666666 0.9918015016377234 -0.12778803288651497 -6.324141861968167e-17 2.8265840679455104e-17 -6.324141861968167e-17 2.8265840679455104e-17 0.9918015807370978 -0.12778741897089407
12637032000.0 0.9907770783579471 -0.13550195939667548 -6.300468470005585e-17 2.8757071787024335e-17 -6.300468470005585e-17 2.8757071787024335e-17 0.99077716222807 -0.13550134614512627
12637649333.333334 0.9896926594589961 -0.14320768070473072 -6.276413960475466e-17 2.9246329165149776e-17 -6.276413960475466e-17 2.9246329165149776e-17 0.989692748094323 -0.1432070681543214
12638266666.666666 0.9885483106069333 -0.1509047301976574 -6.251979972263901e-17 2.97335832807994e-17 -6.251979972263901e-17 2.97335832807994e-17 0.9885484040016308 -0.15090411838541004
12638884000.0 0.9873441010968286 -0.1585926417875185 -6.227168167114055e-17 3.0218804736525555e-17 -6.227168167114055e-17 3.0218804736525555e-17 0.9873441992447775 -0.158592030750407
12639501333.333334 0.9860801038485585 -0.16627094993974362 -6.201980229514194e-17 3.0701964272235295e-17 -6.201980229514194e-17 3.0701964272235295e-17 0.9860802067433514 -0.16627033971469124
12640118666.666666 0.98475639540241 -0.1739391897011783 -6.176417866584975e-17 3.118303276693916e-17 -6.176417866584975e-17 3.118303276693916e-17 0.9847565030373517 -0.1739385803250554
12640736000.0 0.983373055914387 -0.18159689672857485 -6.150482807963835e-17 3.1661981240520376e-17 -6.150482807963835e-17 3.1661981240520376e-17 0.9833731682824983 -0.1815962882381971
12641353333.333334 0.9819301691514517 -0.18924360731620726 -6.124176805690783e-17 3.213878085544247e-17 -6.124176805690783e-17 3.213878085544247e-17 0.9819302862454653 -0.18924299974833275
12641970666.666666 0.9804278224863534 -0.19687885842445288 -6.097501634089628e-17 3.261340291850814e-17 -6.097501634089628e-17 3.261340291850814e-17 0.9804279442987186 -0.1968782518157807
12642588000.0 0.9788661068924123 -0.2045021877074691 -6.070459089650166e-17 3.3085818882565104e-17 -6.070459089650166e-17 3.3085818882565104e-17 0.9788662334152916 -0.20450158209463618
12643205333.333334 0.9772451169379683 -0.21211313354138506 -6.043050990908596e-17 3.355600034821097e-17 -6.043050990908596e-17 3.355600034821097e-17 0.9772452481632402 -0.21211252896096472
12643822666.666666 0.9755649507806549 -0.21971123505225468 -6.015279178325408e-17 3.4023919065510755e-17 -6.015279178325408e-17 3.4023919065510755e-17 0.9755650866999145 -0.21971063154075407
12644440000.0 0.9738257101614731 -0.22729603214388105 -5.987145514163721e-17 3.448954693567164e-17 -5.987145514163721e-17 3.448954693567164e-17 0.973825850766032 -0.22729542973773917
12645057333.333334 0.9720275003986485 -0.23486706552559405 -5.95865188236533e-17 3.495285601272685e-17 -5.95865188236533e-17 3.495285601272685e-17 0.9720276456795357 -0.2348664642611794
12645674666.666666 0.9701704303812233 -0.24242387674022997 -5.929800188425514e-17 3.5413818505207594e-17 -5.929800188425514e-17 3.5413818505207594e-17 0.9701705803291841 -0.24242327665383812
12646292000.0 0.9682546125624297 -0.249966008191973 -5.900592359266331e-17 3.587240677780784e-17 -5.900592359266331e-17 3.587240677780784e-17 0.9682547671679297 -0.24996540931982492
12646909333.333334 0.966280162952971 -0.2574930031737354 -5.871030343109724e-17 3.632859335302254e-17 -5.871030343109724e-17 3.632859335302254e-17 0.966280322206194 -0.257492405551975
12647526666.666666 0.9642472011139187 -0.26500440589511576 -5.841116109347968e-17 3.6782350912796813e-17 -5.841116109347968e-17 3.6782350912796813e-17 0.9642473650047682 -0.2650038095598077
12648144000.0 0.9621558501495067 -0.2724997615098613 -5.810851648413363e-17 3.723365230015617e-17 -5.810851648413363e-17 3.723365230015617e-17 0.9621560186676044 -0.27249916649698835
12648761333.333334 0.9600062366996588 -0.2799786161434644 -5.780238971647686e-17 3.7682470520811666e-17 -5.780238971647686e-17 3.7682470520811666e-17 0.9600064098343508 -0.2799780224889266
12649378666.666666 0.9577984909323497 -0.28744051692056644 -5.749280111168871e-17 3.812877874477722e-17 -5.749280111168871e-17 3.812877874477722e-17 0.9577986686727021 -0.2874399246601777
12649996000.0 0.9555327465357067 -0.2948850119924352 -5.717977119737e-17 3.8572550307967865e-17 -5.717977119737e-17 3.8572550307967865e-17 0.9555329288705064 -0.29488442116192126
12650613333.333334 0.9532091407098832 -0.3023116505644072 -5.686332070619371e-17 3.901375871378213e-17 -5.686332070619371e-17 3.901375871378213e-17 0.9532093276276411 -0.3023110611994039
12651230666.666666 0.9508278141588231 -0.3097199829229681 -5.654347057454514e-17 3.945237763467224e-17 -5.654347057454514e-17 3.945237763467224e-17 0.9508280056477746 -0.3097193950590193
12651848000.0 0.9483889110816385 -0.3171095604633109 -5.622024194113928e-17 3.988838091371712e-17 -5.622024194113928e-17 3.988838091371712e-17 0.9483891071297412 -0.3171089741358656
12652465333.333334 0.9458925791639844 -0.324479935716147 -5.589365614563718e-17 4.032174256617055e-17 -5.589365614563718e-17 4.032174256617055e-17 0.9458927797589239 -0.32447935096055847
12653082666.666666 0.943338969569073 -0.3318306623749672 -5.556373472725074e-17 4.0752436780995774e-17 -5.556373472725074e-17 4.0752436780995774e-17 0.943339174698258 -0.3318300792264892
12653700000.0 0.9407282369284556 -0.339161295323226 -5.523049942331882e-17 4.118043792241287e-17 -5.523049942331882e-17 4.118043792241287e-17 0.9407284465790242 -0.3391607138170125
12654317333.333334 0.9380605393327768 -0.34647139066097526 -5.4893972167899675e-17 4.1605720531396914e-17 -5.4893972167899675e-17 4.1605720531396914e-17 0.9380607534915917 -0.3464708108320764
12654934666.666666 0.9353360383221411 -0.35376050573190343 -5.45541750903293e-17 4.2028259327194285e-17 -5.45541750903293e-17 4.2028259327194285e-17 0.9353362569757955 -0.35375992761526504
12655552000.0 0.9325548988762753 -0.3610281991503011 -5.4211130513768e-17 4.244802920882714e-17 -5.4211130513768e-17 4.244802920882714e-17 0.9325551220110913 -0.36102762278076184
12656169333.333334 0.929717289404665 -0.3682740308274423 -5.3864860953758825e-17 4.286500525655722e-17 -5.3864860953758825e-17 4.286500525655722e-17 0.9297175170066938 -0.3682734562397315
12656786666.666666 0.9268233817362366 -0.3754975619985524 -5.3515389116744026e-17 4.327916273337599e-17 -5.3515389116744026e-17 4.327916273337599e-17 0.9268236137912601 -0.37549698922728786
12657404000.0 0.9238733511090436 -0.3826983552491385 -5.316273789859593e-17 4.3690477086450734e-17 -5.316273789859593e-17 4.3690477086450734e-17 0.9238735876025772 -0.38269778432882523
12658021333.333334 0.9208673761595745 -0.38987597454168865 -5.280693038311601e-17 4.4098923948584887e-17 -5.280693038311601e-17 4.4098923948584887e-17 0.9208676170768646 -0.38987540550671584
12658638666.666666 0.9178056389120273 -0.39702998524183786 -5.244798984054388e-17 4.450447913964032e-17 -5.244798984054388e-17 4.450447913964032e-17 0.9178058842380561 -0.3970294181264779
12659256000.0 0.9146883247671628 -0.4041599541450035 -5.2085939726028685e-17 4.490711866797904e-17 -5.2085939726028685e-17 4.490711866797904e-17 0.9146885744866434 -0.40415938898340786
12659873333.333334 0.9115156224912125 -0.41126544950227434 -5.172080367812169e-17 4.530681873185532e-17 -5.172080367812169e-17 4.530681873185532e-17 0.911515876588596 -0.41126488632847363
12660490666.666666 0.9082877242043903 -0.4183460410467149 -5.1352605517234086e-17 4.5703555720824305e-17 -5.1352605517234086e-17 4.5703555720824305e-17 0.9082879826638645 -0.4183454798946165
12661108000.0 0.9050048253691836 -0.42540130001957344 -5.0981369244083206e-17 4.609730621713706e-17 -5.0981369244083206e-17 4.609730621713706e-17 0.9050050881746728 -0.42540074092295854
12661725333.333334 0.9016671247786587 -0.4324307991959349 -5.060711903815387e-17 4.6488046997096574e-17 -5.060711903815387e-17 4.6488046997096574e-17 0.9016673919138263 -0.4324302421884569
12662342666.666666 0.8982748245443438 -0.4394341129107726 -5.0229879256115915e-17 4.687575503243668e-17 -5.0229879256115915e-17 4.687575503243668e-17 0.8982750959925911 -0.43943355802595485
12662960000.0 0.8948281300839716 -0.44641081708474806 -4.984967443025933e-17 4.726040749165856e-17 -4.984967443025933e-17 4.726040749165856e-17 0.8948284058284418 -0.44641026435598274
12663577333.333334 0.891327250109082 -0.4533604892498153 -4.946652926689789e-17 4.764198174137717e-17 -4.946652926689789e-17 4.764198174137717e-17 0.8913275301326598 -0.45335993871036057
12664194666.666666 0.8877723966123563 -0.4602827085748529 -4.908046864477718e-17 4.802045534763943e-17 -4.908046864477718e-17 4.802045534763943e-17 0.8877726808976689 -0.46028216025783114
12664812000.0 0.8841637848548325 -0.467177055891046 -4.8691517613465993e-17 4.839580607723646e-17 -4.8691517613465993e-17 4.839580607723646e-17 0.8841640733842508 -0.467176509829442
12665429333.333334 0.8805016333527818 -0.47404311371744756 -4.829970139173634e-17 4.8768011899004294e-17 -4.829970139173634e-17 4.8768011899004294e-17 0.8805019261084203 -0.47404256994410543
12666046666.666666 0.8767861638645892 -0.48088046628602776 -4.790504536594885e-17 4.9137050985096634e-17 -4.790504536594885e-17 4.9137050985096634e-17 0.8767864608283094 -0.4808799248336508
12666664000.0 0.873017601377156 -0.4876886995671802 -4.75075750883923e-17 4.950290171227983e-17 -4.75075750883923e-17 4.950290171227983e-17 0.8730179025305662 -0.4876881604683275
12667281333.333334 0.8691961740925183 -0.49446740129434125 -4.7107316275662384e-17 4.986554266316722e-17 -4.7107316275662384e-17 4.986554266316722e-17 0.8691964794169748 -0.49446686458142647
12667898666.666666 0.8653221134138106 -0.5012161609893547 -4.6704294806988795e-17 5.0224952627480805e-17 -4.6704294806988795e-17 5.0224952627480805e-17 0.8653224228904192 -0.5012156266946439
12668516000.0 0.8613956539313049 -0.5079345699872261 -4.629853672257546e-17 5.058111060327796e-17 -4.629853672257546e-17 5.058111060327796e-17 0.8613959675409223 -0.5079340381428362
12669133333.333334 0.8574170334083092 -0.5146222214606988 -4.589006822193036e-17 5.09339957981666e-17 -4.589006822193036e-17 5.09339957981666e-17 0.857417351131542 -0.5146216920985942
12669750666.666666 0.8533864927666781 -0.5212787104450344 -4.5478915662172697e-17 5.128358763051808e-17 -4.5478915662172697e-17 5.128358763051808e-17 0.8533868145838874 -0.5212781835970267
12670368000.0 0.8493042760722015 -0.5279036338625855 -4.506510555634446e-17 5.1629865730655376e-17 -4.506510555634446e-17 5.1629865730655376e-17 0.8493046019635023 -0.5279031095603313
