! Parameters = {f0=12700.012000; bw=77.238000; Q=6100.000000; N=10; m_0_1=1.344439; m_1_1=1.401846; m_1_2=1.179251; m_2_2=1.401197; m_2_3=0.816214; m_2_8=0.004286; m_2_9=0.040990; m_3_3=1.399260; m_3_4=0.704743; m_3_7=0.004886; m_3_8=-0.092202; m_3_9=0.004286; m_4_4=1.396335; m_4_5=0.541078; m_4_6=0.008403; m_4_7=-0.112751; m_4_8=0.004886; m_5_5=1.396717; m_5_6=0.948433; m_5_7=0.008403; m_6_6=1.396716; m_6_7=0.541420; m_7_7=1.396349; m_7_8=0.704861; m_8_8=1.399258; m_8_9=0.816527; m_9_9=1.401192; m_9_10=1.180329; m_10_10=1.401836; m_10_11=1.345234}
!
! Created with skrf (http://scikit-rf.org).
# Hz S RI R 50.0 
!freq ReS11 ImS11 ReS21 ImS21 ReS12 ImS12 ReS22 ImS22
12607400000.0 0.9751760080019816 -0.2214311482540821 -1.3533733812551587e-16 7.593164619106108e-17 -1.3533733812551587e-16 7.593164619106108e-17 0.9751761648164979 -0.22143045764661268
12608017333.333334 0.9722797544517353 -0.23382061304144203 -1.343270953115849e-16 7.764413869000795e-17 -1.343270953115849e-16 7.764413869000795e-17 0.9722799200322099 -0.23381992451876624
12608634666.666666 0.9692261013306185 -0.2461722252798861 -1.332951984701234e-16 7.934321552226438e-17 -1.332951984701234e-16 7.934321552226438e-17 0.9692262756493897 -0.2461715389532576
12609252000.0 0.966015542985883 -0.2584839854023706 -1.3224182544412378e-16 8.102860307250742e-17 -1.3224182544412378e-16 8.102860307250742e-17 0.9660157260138755 -0.258483301382676
12609869333.333334 0.9626485991656545 -0.2707539002936173 -1.311671575313844e-16 8.270003007912498e-17 -1.311671575313844e-16 8.270003007912498e-17 0.9626487908723883 -0.2707532186913596
12610486666.666666 0.959125814934931 -0.28297998361228144 -1.300713794534595e-16 8.4357227677724e-17 -1.300713794534595e-16 8.4357227677724e-17 0.9591260152885231 -0.2829793045375612
12611104000.0 0.9554477605871561 -0.2951602561131697 -1.2895467932394135e-16 8.5999929444414e-17 -1.2895467932394135e-16 8.5999929444414e-17 0.9554479695543265 -0.29515957967566747
12611721333.333334 0.951615031552114 -0.30729274596689016 -1.2781724861631717e-16 8.76278714384882e-17 -1.2781724861631717e-16 8.76278714384882e-17 0.9516152490981933 -0.3072920722758493
12612338666.666666 0.9476282482993665 -0.3193754890796672 -1.2665928213121576e-16 8.924079224479127e-17 -1.2665928213121576e-16 8.924079224479127e-17 0.9476284743882986 -0.31937481824387526
12612956000.0 0.9434880562378646 -0.33140652941108234 -1.254809779631243e-16 9.083843301564763e-17 -1.254809779631243e-16 9.083843301564763e-17 0.9434882908322134 -0.33140586153885426
12613573333.333334 0.9391951256115247 -0.3433839192905733 -1.242825374666246e-16 9.242053751228862e-17 -1.242825374666246e-16 9.242053751228862e-17 0.9391953686724828 -0.34338325448973367
12614190666.666666 0.9347501513906147 -0.35530571973305847 -1.230641652220611e-16 9.398685214589874e-17 -1.230641652220611e-16 9.398685214589874e-17 0.9347504028780061 -0.3553050581109239
12614808000.0 0.9301538531593176 -0.36717000075261763 -1.2182606900069237e-16 9.553712601821144e-17 -1.2182606900069237e-16 9.553712601821144e-17 0.9301541130316083 -0.3671693424159803
12615425333.333334 0.9254069749992275 -0.37897484167498807 -1.2056845972938118e-16 9.70711109615841e-17 -1.2056845972938118e-16 9.70711109615841e-17 0.9254072432135286 -0.37897418673009736
12616042666.666666 0.9205102853688637 -0.39071833144854634 -1.1929155145473229e-16 9.85885615786725e-17 -1.1929155145473229e-16 9.85885615786725e-17 0.9205105618809408 -0.3907176800010925
12616660000.0 0.9154645769793598 -0.40239856895347575 -1.1799556130673168e-16 1.0008923528163476e-16 -1.1799556130673168e-16 1.0008923528163476e-16 0.9154648617436397 -0.4023979211085725
12617277333.333334 0.9102706666659766 -0.41401366330989825 -1.1668070946193817e-16 1.0157289233080345e-16 -1.1668070946193817e-16 1.0157289233080345e-16 0.9102709596355548 -0.4140130191720657
12617894666.666666 0.9049293952560734 -0.4255617341835152 -1.1534721910616979e-16 1.0303929587290543e-16 -1.1534721910616979e-16 1.0303929587290543e-16 0.9049296963827208 -0.4255610938566629
12618512000.0 0.899441627432705 -0.43704091209062984 -1.1399531639665029e-16 1.0448821197885629e-16 -1.1399531639665029e-16 1.0448821197885629e-16 0.8994419366668782 -0.43704027567804116
12619129333.333334 0.8938082515949777 -0.4484493387000722 -1.126252304237949e-16 1.0591940968093642e-16 -1.126252304237949e-16 1.0591940968093642e-16 0.8938085688858245 -0.4484487063043857
12619746666.666666 0.8880301797139605 -0.45978516713460266 -1.112371931724477e-16 1.0733266100955856e-16 -1.112371931724477e-16 1.0733266100955856e-16 0.88803050500933 -0.45978453885779713
12620364000.0 0.8821083471851446 -0.4710465622696921 -1.0983143948266395e-16 1.0872774102952104e-16 -1.0983143948266395e-16 1.0872774102952104e-16 0.882108680431596 -0.4710459382130699
12620981333.333334 0.8760437126770995 -0.48223170103045615 -1.0840820701009528e-16 1.1010442787569342e-16 -1.0840820701009528e-16 1.1010442787569342e-16 0.8760440538199085 -0.482231081294626
12621598666.666666 0.8698372579761117 -0.49333877268708687 -1.0696773618587218e-16 1.1146250278823982e-16 -1.0696773618587218e-16 1.1146250278823982e-16 0.8698376069592836 -0.49333815737194925
12622216000.0 0.8634899878273603 -0.5043659791477886 -1.0551027017604724e-16 1.1280175014731959e-16 -1.0551027017604724e-16 1.1280175014731959e-16 0.8634903445936336 -0.5043653683525171
12622833333.333334 0.857002929772198 -0.5153115352499615 -1.0403605484066158e-16 1.1412195750720327e-16 -1.0403605484066158e-16 1.1412195750720327e-16 0.857003294263059 -0.5153109290729896
12623450666.666666 0.850377133981925 -0.5261736690490028 -1.025453386923226e-16 1.1542291562991623e-16 -1.025453386923226e-16 1.1542291562991623e-16 0.8503775061376154 -0.5261730675880062
12624068000.0 0.8436136730876095 -0.536950622105456 -1.0103837285440096e-16 1.1670441851830647e-16 -1.0103837285440096e-16 1.1670441851830647e-16 0.8436140528471346 -0.536950025457337
12624685333.333334 0.836713642006518 -0.5476406497695281 -9.951541101877553e-17 1.179662634486018e-16 -9.951541101877553e-17 1.179662634486018e-16 0.8367140293076606 -0.5476400580304023
12625302666.666666 0.8296781577649995 -0.5582420214633417 -9.797670940324747e-17 1.1920825100235572e-16 -9.797670940324747e-17 1.1920825100235572e-16 0.829678552544326 -0.5582414347285191
12625920000.0 0.8225083593173035 -0.5687530209616125 -9.64225267084484e-17 1.204301850979275e-16 -9.64225267084484e-17 1.204301850979275e-16 0.8225087615101748 -0.5687524393255832
12626537333.333334 0.8152054073616036 -0.5791719466688666 -9.485312407449396e-17 1.216318730212919e-16 -9.485312407449396e-17 1.216318730212919e-16 0.8152058169021891 -0.5791713702252873
12627154666.666666 0.8077704841518845 -0.5894971118952439 -9.326876503711855e-17 1.2281312545639545e-16 -9.326876503711855e-17 1.2281312545639545e-16 0.8077709009731695 -0.5894965407369213
12627772000.0 0.8002047933064732 -0.599726845129637 -9.166971548349308e-17 1.2397375651489082e-16 -9.166971548349308e-17 1.2397375651489082e-16 0.800205217340272 -0.5997262793485133
12628389333.333334 0.792509559613462 -0.6098594903099234 -9.005624360774687e-17 1.2511358376524784e-16 -9.005624360774687e-17 1.2511358376524784e-16 0.7925099907904268 -0.609858929997061
12629006666.666666 0.784686028832055 -0.6198934070915598 -8.842861986596586e-17 1.2623242826140481e-16 -8.842861986596586e-17 1.2623242826140481e-16 0.7846864670816892 -0.6198928523371272
12629624000.0 0.7767354674912016 -0.6298269711127238 -8.678711693097807e-17 1.2733011457073317e-16 -8.678711693097807e-17 1.2733011457073317e-16 0.7767359127418705 -0.6298264220059809
12630241333.333334 0.7686591626845334 -0.6396585742573256 -8.513200964675122e-17 1.284064708014456e-16 -8.513200964675122e-17 1.284064708014456e-16 0.7686596148634763 -0.63965803088661
12630858666.666666 0.7604584218618226 -0.6493866249155645 -8.346357498243077e-17 1.2946132862942906e-16 -8.346357498243077e-17 1.2946132862942906e-16 0.7604588808951639 -0.6493860873682759
12631476000.0 0.7521345726174261 -0.6590095482414535 -8.1782091986031e-17 1.3049452332448858e-16 -8.1782091986031e-17 1.3049452332448858e-16 0.7521350384301873 -0.6590090166040397
12632093333.333334 0.7436889624754391 -0.6685257864076801 -8.008784173790728e-17 1.3150589377592664e-16 -8.008784173790728e-17 1.3150589377592664e-16 0.7436894349915532 -0.6685252607656255
12632710666.666666 0.7351229586715197 -0.6779337988578492 -7.83811073037726e-17 1.324952825176079e-16 -7.83811073037726e-17 1.324952825176079e-16 0.7351234378138399 -0.6779332792956574
12633328000.0 0.7264379479313137 -0.6872320625561252 -7.666217368747974e-17 1.3346253575236757e-16 -7.666217368747974e-17 1.3346253575236757e-16 0.7264384336216301 -0.6872315491573091
12633945333.333334 0.7176353362462691 -0.6964190722334559 -7.493132778354281e-17 1.3440750337578828e-16 -7.493132778354281e-17 1.3440750337578828e-16 0.7176358284053191 -0.6964185650805222
12634562666.666666 0.7087165486459915 -0.705493340631304 -7.318885832926109e-17 1.353300389994229e-16 -7.318885832926109e-17 1.353300389994229e-16 0.7087170471934728 -0.7054928398057401
12635180000.0 0.6996830289673507 -0.7144533987426173 -7.14350558566726e-17 1.3622999997333285e-16 -7.14350558566726e-17 1.3622999997333285e-16 0.6996835338219344 -0.714452904324878
12635797333.333334 0.6905362396208574 -0.723297796049517 -6.967021264414901e-17 1.371072474080525e-16 -6.967021264414901e-17 1.371072474080525e-16 0.690536750700202 -0.7232973081190123
12636414666.666666 0.6812776613540459 -0.7320251007580038 -6.789462266776072e-17 1.3796164619590628e-16 -6.789462266776072e-17 1.3796164619590628e-16 0.6812781785748102 -0.7320246193930857
12637032000.0 0.6719087930115105 -0.7406339000299798 -6.610858155237432e-17 1.387930650317004e-16 -6.610858155237432e-17 1.387930650317004e-16 0.6719093162893676 -0.7406334253079303
12637649333.333334 0.6624311512923863 -0.7491228002118523 -6.431238652250703e-17 1.3960137643277985e-16 -6.431238652250703e-17 1.3960137643277985e-16 0.6624316805420365 -0.74912233220887
12638266666.666666 0.6528462705049412 -0.7574904270600338 -6.250633635289845e-17 1.40386456758469e-16 -6.250633635289845e-17 1.40386456758469e-16 0.6528468056401264 -0.7574899658512221
12638884000.0 0.643155702317939 -0.7657354259636434 -6.069073131892609e-17 1.4114818622883653e-16 -6.069073131892609e-17 1.4114818622883653e-16 0.6431562432514571 -0.7657349716229989
12639501333.333334 0.633361015509568 -0.7738564621636835 -5.886587314671468e-17 1.4188644894285655e-16 -5.886587314671468e-17 1.4188644894285655e-16 0.6333615621532875 -0.7738560147640842
12640118666.666666 0.6234637957136547 -0.7818522209689794 -5.70320649630837e-17 1.426011328959028e-16 -5.70320649630837e-17 1.426011328959028e-16 0.6234643479785272 -0.7818517805821718
12640736000.0 0.6134656451624846 -0.7897214079694052 -5.5189611245186123e-17 1.4329212999663314e-16 -5.5189611245186123e-17 1.4329212999663314e-16 0.6134662029585615 -0.7897209746659941
12641353333.333334 0.6033681824280414 -0.7974627492449319 -5.333881777014948e-17 1.4395933608314808e-16 -5.333881777014948e-17 1.4395933608314808e-16 0.6033687456644865 -0.7974623230943684
12641970666.666666 0.5931730421594457 -0.8050749915722833 -5.147999156427876e-17 1.4460265093859182e-16 -5.147999156427876e-17 1.4460265093859182e-16 0.5931736107445518 -0.8050745726428542
12642588000.0 0.5828818748187322 -0.8125569026275041 -4.961344085224542e-17 1.452219783060349e-16 -4.961344085224542e-17 1.452219783060349e-16 0.5828824486599349 -0.8125564909863198
12643205333.333334 0.5724963464133904 -0.8199072711856641 -4.773947500600983e-17 1.4581722590273488e-16 -4.773947500600983e-17 1.4581722590273488e-16 0.5724969254172836 -0.8199068668986497
12643822666.666666 0.5620181382266077 -0.827124907316967 -4.585840449362388e-17 1.4638830543371955e-16 -4.585840449362388e-17 1.4638830543371955e-16 0.5620187222989584 -0.8271245104488496
12644440000.0 0.5514489465455111 -0.8342086425790903 -4.397054082786683e-17 1.469351326047174e-16 -4.397054082786683e-17 1.469351326047174e-16 0.5514495355912759 -0.8342082531933911
12645057333.333334 0.5407904823860484 -0.8411573302067027 -4.207619651472917e-17 1.4745762713442474e-16 -4.207619651472917e-17 1.4745762713442474e-16 0.5407910763093874 -0.8411569483657246
12645674666.666666 0.5300444712164182 -0.8479698452968184 -4.017568500171208e-17 1.4795571276612274e-16 -4.017568500171208e-17 1.4795571276612274e-16 0.5300450699207112 -0.847969471061637
12646292000.0 0.5192126526773597 -0.8546450849911573 -3.826932062602542e-17 1.4842931727861753e-16 -3.826932062602542e-17 1.4842931727861753e-16 0.5192132560652221 -0.8546447184216107
12646909333.333334 0.5082967803009103 -0.8611819686544366 -3.635741856270281e-17 1.4887837249650533e-16 -3.635741856270281e-17 1.4887837249650533e-16 0.5082973882742091 -0.8611816098091166
12647526666.666666 0.49729862122624363 -0.8675794380494964 -3.444029477253178e-17 1.493028142997866e-16 -3.444029477253178e-17 1.493028142997866e-16 0.49729923368611323 -0.8675790869857392
12648144000.0 0.48621995591353845 -0.8738364575086346 -3.2518265949875207e-17 1.4970258263281013e-16 -3.2518265949875207e-17 1.4970258263281013e-16 0.48622057276039615 -0.87383611428251
12648761333.333334 0.4750625778561401 -0.8799520141010425 -3.059164947046915e-17 1.500776215125296e-16 -3.059164947046915e-17 1.500776215125296e-16 0.4750631989897035 -0.8799516787673478
12649378666.666666 0.4638282932899242 -0.8859251177969611 -2.866076333904436e-17 1.5042787903610802e-16 -2.866076333904436e-17 1.5042787903610802e-16 0.46382891860922587 -0.8859247904092085
12649996000.0 0.4525189209008366 -0.8917548016279735 -2.6725926136916107e-17 1.5075330738783838e-16 -2.6725926136916107e-17 1.5075330738783838e-16 0.4525195503042422 -0.8917544822383854
12650613333.333334 0.4411362915305712 -0.8974401218434903 -2.4787456969439864e-17 1.510538628454024e-16 -2.4787456969439864e-17 1.510538628454024e-16 0.44113692491579476 -0.8974398105029885
12651230666.666666 0.429682247880386 -0.9029801580634332 -2.284567541353878e-17 1.5132950578543104e-16 -2.284567541353878e-17 1.5132950578543104e-16 0.42968288514450725 -0.9029798548216326
12651848000.0 0.41815864421223026 -0.9083740134275056 -2.0900901464968325e-17 1.5158020068842546e-16 -2.0900901464968325e-17 1.5158020068842546e-16 0.41815928525171076 -0.9083737183327038
12652465333.333334 0.4065673460492289 -0.9136208147400593 -1.8953455485695822e-17 1.5180591614297523e-16 -1.8953455485695822e-17 1.5180591614297523e-16 0.40656799075992983 -0.9136205278392324
12653082666.666666 0.39491022987337443 -0.9187197126116113 -1.7003658151240752e-17 1.5200662484930308e-16 -1.7003658151240752e-17 1.5200662484930308e-16 0.394910878150572 -0.9187194339504027
12653700000.0 0.383189182821432 -0.9236698815964749 -1.5051830397820246e-17 1.5218230362215466e-16 -1.5051830397820246e-17 1.5218230362215466e-16 0.38318983455983585 -0.9236696112191901
12654317333.333334 0.37140610238011573 -0.9284705203260984 -1.309829336967954e-17 1.5233293339298627e-16 -1.309829336967954e-17 1.5233293339298627e-16 0.37140675747388474 -0.9284702582756966
12654934666.666666 0.3595628960783337 -0.933120851639039 -1.114336836627929e-17 1.5245849921149178e-16 -1.114336836627929e-17 1.5245849921149178e-16 0.35956355442109517 -0.9331205979571301
12655552000.0 0.34766148117859463 -0.9376201227066906 -9.1873767894866e-18 1.5255899024645081e-16 -9.1873767894866e-18 1.5255899024645081e-16 0.3476621426634595 -0.9376198774335238
12656169333.333334 0.3357037843667863 -0.9419676051550937 -7.23064009084785e-18 1.526343997858953e-16 -7.23064009084785e-18 1.526343997858953e-16 0.3357044488863672 -0.9419673683295531
12656786666.666666 0.32369174143995094 -0.9461625951829721 -5.273479718787278e-18 1.5268472523660686e-16 -5.273479718787278e-18 1.5268472523660686e-16 0.32369240888638023 -0.9461623668425713
12657404000.0 0.3116272969931178 -0.9502044136755871 -3.3162170658786608e-18 1.5270996812293417e-16 -3.3162170658786608e-18 1.5270996812293417e-16 0.3116279672580645 -0.9502041938564628
12658021333.333334 0.2995124041043913 -0.9540924063147197 -1.3591734160860262e-18 1.5271013408493848e-16 -1.3591734160860262e-18 1.5271013408493848e-16 0.2995130770790782 -0.9540921950516238
12658638666.666666 0.287349024018988 -0.9578259436845192 5.973301078184247e-19 1.526852328758605e-16 5.973301078184247e-19 1.526852328758605e-16 0.28734969959421036 -0.9578257410108169
12659256000.0 0.27513912583141287 -0.9614044213735083 2.552972596997691e-18 1.5263527835891766e-16 2.552972596997691e-18 1.5263527835891766e-16 0.27513980389755566 -0.9614042273211713
12659873333.333334 0.26288468616684935 -0.9648272600723724 4.507433409072783e-18 1.525602885034249e-16 4.507433409072783e-18 1.525602885034249e-16 0.2628853666139048 -0.9648270746719728
12660490666.666666 0.25058768886138927 -0.9680939056676847 6.4603922205814065e-18 1.5246028538024707e-16 6.4603922205814065e-18 1.5246028538024707e-16 0.250588371578975 -0.9680937289483911
12661108000.0 0.23825012464027165 -0.9712038293317734 8.411529079528567e-18 1.5233529515657416e-16 8.411529079528567e-18 1.5233529515657416e-16 0.2382508095176485 -0.9712036613213467
12661725333.333334 0.2258739907963789 -0.9741565276081261 1.0360524457647735e-17 1.5218534809003405e-16 1.0360524457647735e-17 1.5218534809003405e-16 0.22587467772246891 -0.9741563683329151
12662342666.666666 0.21346129086629662 -0.9769515224930554 1.2307059302710704e-17 1.520104785221302e-16 1.2307059302710704e-17 1.520104785221302e-16 0.21346197972970102 -0.9769513719779915
12662960000.0 0.2010140343061854 -0.9795883615130169 1.4250815090678382e-17 1.518107248710154e-16 1.4250815090678382e-17 1.518107248710154e-16 0.2010147249952026 -0.9795882197816115
12663577333.333334 0.18853423616664347 -0.9820666177978279 1.61914738777964e-17 1.5158612962359543e-16 1.61914738777964e-17 1.5158612962359543e-16 0.1885349285692874 -0.9820664848721683
12664194666.666666 0.176023916766163 -0.9843858901498458 1.8128718352488905e-17 1.5133673932697563e-16 1.8128718352488905e-17 1.5133673932697563e-16 0.17602461077018094 -0.9843857660505912
12664812000.0 0.16348510136428782 -0.9865458031088638 2.0062231887206052e-17 1.5106260457923792e-16 2.0062231887206052e-17 1.5106260457923792e-16 0.16348579685717907 -0.9865456878552442
12665429333.333334 0.15091981983363928 -0.9885460070129193 2.1991698590147482e-17 1.5076378001955388e-16 2.1991698590147482e-17 1.5076378001955388e-16 0.15092051670267265 -0.9885459006227286
12666046666.666666 0.13833010633152978 -0.99038617805486 2.391680335671633e-17 1.5044032431765748e-16 2.391680335671633e-17 1.5044032431765748e-16 0.13833080446376264 -0.9903860805444572
12666664000.0 0.1257179989702662 -0.992066018334826 2.5837231921038117e-17 1.5009230016262823e-16 2.5837231921038117e-17 1.5009230016262823e-16 0.1257186982525624 -0.9920659297191314
12667281333.333334 0.11308553948765587 -0.9935852559084146 2.7752670907108102e-17 1.4971977425105303e-16 2.7752670907108102e-17 1.4971977425105303e-16 0.1130862398067039 -0.9935851762009053
12667898666.666666 0.10043477291613719 -0.9949436448307452 2.9662807879900964e-17 1.4932281727451455e-16 2.9662807879900964e-17 1.4932281727451455e-16 0.100435474158469 -0.9949435740434566
12668516000.0 0.08776774725165841 -0.9961409651962781 3.156733139629724e-17 1.4890150390642867e-16 3.156733139629724e-17 1.4890150390642867e-16 0.08776844930366748 -0.9961409033398002
12669133333.333334 0.0750865131226425 -0.9971770231743651 3.346593105575118e-17 1.484559127882505e-16 3.346593105575118e-17 1.484559127882505e-16 0.07508721587060223 -0.99717697025784
12669750666.666666 0.062393123457394374 -0.9980516510406837 3.535829755084377e-17 1.4798612651501774e-16 3.535829755084377e-17 1.4798612651501774e-16 0.06239382678747675 -0.9980516070718077
12670368000.0 0.049689633152268216 -0.998764707204353 3.7244122717645115e-17 1.4749223162024918e-16 3.7244122717645115e-17 1.4749223162024918e-16 0.04969033695056198 -0.9987646721893719
