! Parameters = {f0=12700.012000; bw=77.238000; Q=6100.000000; N=10; m_0_1=1.279975; m_1_1=0.434879; m_1_2=1.114787; m_2_2=0.434230; m_2_3=0.751750; m_2_8=0.001062; m_2_9=0.037766; m_3_3=0.432293; m_3_4=0.640279; m_3_7=0.001662; m_3_8=-0.095426; m_3_9=0.001062; m_4_4=0.429368; m_4_5=0.476614; m_4_6=0.005179; m_4_7=-0.115975; m_4_8=0.001662; m_5_5=0.429750; m_5_6=0.883969; m_5_7=0.005179; m_6_6=0.429749; m_6_7=0.476956; m_7_7=0.429382; m_7_8=0.640397; m_8_8=0.432291; m_8_9=0.752063; m_9_9=0.434225; m_9_10=1.115865; m_10_10=0.434869; m_10_11=1.280770}
!
! Created with skrf (http://scikit-rf.org).
# Hz S RI R 50.0 
!freq ReS11 ImS11 ReS21 ImS21 ReS12 ImS12 ReS22 ImS22
12607400000.0 0.5208387872511765 0.8536550577923988 -8.598324748802456e-17 -7.771844545138917e-17 -8.598324748802456e-17 -7.771844545138917e-17 0.520838211589981 0.8536554090191025
12608017333.333334 0.5300428300631006 0.8479708711379884 -8.680875198351303e-17 -7.676102887020305e-17 -8.680875198351303e-17 -7.676102887020305e-17 0.5300422582630228 0.8479712285539265
12608634666.666666 0.5391848449382329 0.8421874512178115 -8.762360674394011e-17 -7.579485599329616e-17 -8.762360674394011e-17 -7.579485599329616e-17 0.5391842770658062 0.8421878147805538
12609252000.0 0.5482637620379301 0.8363054748331116 -8.842771902328123e-17 -7.482004516380988e-17 -8.842771902328123e-17 -7.482004516380988e-17 0.5482631981592214 0.8363058444995124
12609869333.333334 0.557278518907648 0.8303256303185629 -8.922099738930429e-17 -7.383671570575461e-17 -8.922099738930429e-17 -7.383671570575461e-17 0.5572779590882507 0.8303260060447668
12610486666.666666 0.5662280606009648 0.8242486174619218 -9.000335173392947e-17 -7.284498790943669e-17 -9.000335173392947e-17 -7.284498790943669e-17 0.5662275049059914 0.8242489992033695
12611104000.0 0.575111339803486 0.8180751474218358 -9.077469328343963e-17 -7.184498301675576e-17 -9.077469328343963e-17 -7.184498301675576e-17 0.5751107882975591 0.8180755351332668
12611721333.333334 0.5839273169548871 0.8118059426449693 -9.153493460847914e-17 -7.083682320646143e-17 -9.153493460847914e-17 -7.083682320646143e-17 0.5839267697021325 0.8118063362804293
12612338666.666666 0.5926749603709653 0.805441736781187 -9.228398963395492e-17 -6.982063157921768e-17 -9.228398963395492e-17 -6.982063157921768e-17 0.5926744174350059 0.8054421362940338
12612956000.0 0.6013532463643015 0.7989832745977457 -9.302177364873407e-17 -6.879653214261307e-17 -9.302177364873407e-17 -6.879653214261307e-17 0.601352707808248 0.7989836799406532
12613573333.333334 0.6099611593637801 0.7924313118923394 -9.374820331515868e-17 -6.776464979609298e-17 -9.374820331515868e-17 -6.776464979609298e-17 0.6099606252502254 0.7924317230173049
12614190666.666666 0.6184976920338031 0.7857866154043847 -9.446319667844998e-17 -6.672511031571522e-17 -9.446319667844998e-17 -6.672511031571522e-17 0.6184971624248142 0.7857870322627333
12614808000.0 0.6269618453919911 0.7790499627254277 -9.516667317588625e-17 -6.567804033888654e-17 -9.516667317588625e-17 -6.567804033888654e-17 0.6269613203490999 0.7790503852678169
12615425333.333334 0.6353526289260398 0.77222214220818 -9.585855364585174e-17 -6.46235673489471e-17 -9.585855364585174e-17 -6.46235673489471e-17 0.6353521085102403 0.772222570384609
12616042666.666666 0.643669060709796 0.765303952874144 -9.653876033669523e-17 -6.356181965968984e-17 -9.653876033669523e-17 -6.356181965968984e-17 0.6436685449815334 0.7653043866339567
12616660000.0 0.6519101675179858 0.7582962043202466 -9.7207216915417e-17 -6.249292639978713e-17 -9.7207216915417e-17 -6.249292639978713e-17 0.6519096565371512 0.7582966436121386
12617277333.333334 0.6600749849403036 0.7511997166239338 -9.78638484762038e-17 -6.141701749709654e-17 -9.78638484762038e-17 -6.141701749709654e-17 0.6600744787662272 0.7512001613959589
12617894666.666666 0.6681625574939926 0.7440153202474447 -9.850858154875398e-17 -6.0334223662936e-17 -9.850858154875398e-17 -6.0334223662936e-17 0.6681620561854352 0.7440157704470194
12618512000.0 0.6761719387360425 0.7367438559402868 -9.914134410648219e-17 -5.924467637618536e-17 -9.914134410648219e-17 -5.924467637618536e-17 0.6761714423511909 0.7367443115141986
12619129333.333334 0.6841021913735854 0.7293861746411705 -9.976206557448931e-17 -5.814850786740106e-17 -9.976206557448931e-17 -5.814850786740106e-17 0.6841016999700438 0.7293866355355825
12619746666.666666 0.6919523873737307 0.7219431373782945 -1.0037067683739742e-16 -5.70458511027801e-17 -1.0037067683739742e-16 -5.70458511027801e-17 0.6919519010085158 0.721943603538754
12620364000.0 0.6997216080722934 0.7144156151684716 -1.0096711024700643e-16 -5.593683976804565e-17 -1.0096711024700643e-16 -5.593683976804565e-17 0.6997211268018254 0.7144160865399127
12620981333.333334 0.7074089442810474 0.7068044889154249 -1.0155129962974372e-16 -5.4821608252304656e-17 -1.0155129962974372e-16 -5.4821608252304656e-17 0.7074084681611463 0.7068049654421799
12621598666.666666 0.715013496394273 0.699110649306573 -1.0212318029396647e-16 -5.370029163177378e-17 -1.0212318029396647e-16 -5.370029163177378e-17 0.7150130254801494 0.6991111309323742
12622216000.0 0.7225343744940682 0.6913349967087498 -1.026826890370752e-16 -5.257302565344737e-17 -1.026826890370752e-16 -5.257302565344737e-17 0.7225339088403189 0.6913354833767394
12622833333.333334 0.7299706984543715 0.6834784410629633 -1.0322976415244425e-16 -5.143994671869758e-17 -1.0322976415244425e-16 -5.143994671869758e-17 0.7299702381149723 0.6834789327156996
12623450666.666666 0.737321598044038 0.6755419017778298 -1.0376434543616313e-16 -5.030119186682089e-17 -1.0376434543616313e-16 -5.030119186682089e-17 0.7373211430723373 0.6755423983572921
12624068000.0 0.7445862130286208 0.6675263076220426 -1.0428637419362447e-16 -4.915689875845965e-17 -1.0428637419362447e-16 -4.915689875845965e-17 0.7445857634773343 0.6675268090696405
12624685333.333334 0.7517636932711914 0.6594325966155151 -1.0479579324590214e-16 -4.800720565901171e-17 -1.0479579324590214e-16 -4.800720565901171e-17 0.7517632491923939 0.659433102872093
12625302666.666666 0.7588531988315753 0.6512617159198812 -1.0529254693595309e-16 -4.685225142196332e-17 -1.0529254693595309e-16 -4.685225142196332e-17 0.7588527602766979 0.6512622269257281
12625920000.0 0.7658539000648787 0.6430146217274049 -1.057765811346554e-16 -4.5692175472113634e-17 -1.057765811346554e-16 -4.5692175472113634e-17 0.7658534670846999 0.6430151374222585
12626537333.333334 0.7727649777184405 0.6346922791492264 -1.0624784324662454e-16 -4.452711778882484e-17 -1.0624784324662454e-16 -4.452711778882484e-17 0.7727645503630829 0.6346927994722834
12627154666.666666 0.7795856230276753 0.6262956621024717 -1.0670628221588316e-16 -4.335721888912594e-17 -1.0670628221588316e-16 -4.335721888912594e-17 0.7795852013465966 0.6262961869923913
12627772000.0 0.7863150378109465 0.6178257531959883 -1.0715184853133192e-16 -4.218261981078557e-17 -1.0715184853133192e-16 -4.218261981078557e-17 0.7863146218529373 0.6178262825909027
12628389333.333334 0.7929524345626745 0.6092835436157364 -1.0758449423201274e-16 -4.1003462095391177e-17 -1.0758449423201274e-16 -4.1003462095391177e-17 0.7929520243758492 0.6092840774532552
12629006666.666666 0.7994970365457015 0.6006700330085251 -1.0800417291223059e-16 -3.981988777125551e-17 -1.0800417291223059e-16 -3.981988777125551e-17 0.799496632177496 0.6006705712257455
12629624000.0 0.8059480778821049 0.5919862293651444 -1.0841083972644119e-16 -3.863203933639754e-17 -1.0841083972644119e-16 -3.863203933639754e-17 0.8059476793792691 0.5919867718986571
12630241333.333334 0.8123048036428733 0.5832331489023365 -1.0880445139398768e-16 -3.7440059741375927e-17 -1.0880445139398768e-16 -3.7440059741375927e-17 0.8123044110514656 0.5832336956882322
12630858666.666666 0.8185664699360998 0.5744118159440788 -1.0918496620362546e-16 -3.6244092372143256e-17 -1.0918496620362546e-16 -3.6244092372143256e-17 0.8185660833014831 0.5744123669179583
12631476000.0 0.8247323439943371 0.5655232628013006 -1.0955234401787554e-16 -3.5044281032802376e-17 -1.0955234401787554e-16 -3.5044281032802376e-17 0.8247319633611727 0.5655238178982802
12632093333.333334 0.83080170426 0.5565685296515613 -1.0990654627717643e-16 -3.384076992836363e-17 -1.0990654627717643e-16 -3.384076992836363e-17 0.8308013296722432 0.5565690888062819
12632710666.666666 0.8367738404700393 0.5475486644170025 -1.1024753600384989e-16 -3.263370364744847e-17 -1.1024753600384989e-16 -3.263370364744847e-17 0.8367734719709322 0.5475492275636351
12633328000.0 0.8426480537390043 0.5384647226417805 -1.1057527780589023e-16 -3.1423227144910403e-17 -1.1057527780589023e-16 -3.1423227144910403e-17 0.8426476913710734 0.5384652897140368
12633945333.333334 0.8484236566408025 0.5293177673685926 -1.1088973788054162e-16 -3.020948572449454e-17 -1.1088973788054162e-16 -3.020948572449454e-17 0.8484233004458526 0.529318338299731
12634562666.666666 0.8540999732891729 0.5201088690142255 -1.111908840176981e-16 -2.8992625021418454e-17 -1.111908840176981e-16 -2.8992625021418454e-17 0.8540996233082818 0.520109443737059
12635180000.0 0.8596763394167224 0.5108391052443874 -1.1147868560311498e-16 -2.777279098491097e-17 -1.1147868560311498e-16 -2.777279098491097e-17 0.8596759956902379 0.5108396836912925
12635797333.333334 0.8651521024527812 0.5015095608474021 -1.1175311362142344e-16 -2.6550129860742467e-17 -1.1175311362142344e-16 -2.6550129860742467e-17 0.8651517650203143 0.5015101429503257
12636414666.666666 0.8705266215995928 0.4921213276075534 -1.1201414065895027e-16 -2.5324788173742786e-17 -1.1201414065895027e-16 -2.5324788173742786e-17 0.8705262905000147 0.49212191329802163
12637032000.0 0.8757992679074916 0.48267550417700283 -1.1226174090636068e-16 -2.4096912710232363e-17 -1.1226174090636068e-16 -2.4096912710232363e-17 0.875798943178928 0.4826760933861283
12637649333.333334 0.8809694243484018 0.47317319594739 -1.1249589016109425e-16 -2.2866650500489404e-17 -1.1249589016109425e-16 -2.2866650500489404e-17 0.8809691060282301 0.4731737886058807
12638266666.666666 0.8860364858880224 0.46361551492052794 -1.1271656582961429e-16 -2.1634148801179374e-17 -1.1271656582961429e-16 -2.1634148801179374e-17 0.8860361740128657 0.46361611095869465
12638884000.0 0.8909998595567223 0.45400357957809406 -1.1292374692946947e-16 -2.0399555077735373e-17 -1.1292374692946947e-16 -2.0399555077735373e-17 0.8909995541624463 0.4540041789258589
12639501333.333334 0.8958589645188411 0.4443385147509181 -1.131174140911552e-16 -1.9163016986765448e-17 -1.131174140911552e-16 -1.9163016986765448e-17 0.8958586656405497 0.4443391173378234
12640118666.666666 0.9006132321406745 0.43462145148732484 -1.1329754955978715e-16 -1.792468235841856e-17 -1.1329754955978715e-16 -1.792468235841856e-17 0.9006129398127056 0.43462205724254
12640736000.0 0.9052621060571809 0.42485352692044126 -1.1346413719658787e-16 -1.668469917869794e-17 -1.1346413719658787e-16 -1.668469917869794e-17 0.9052618203131026 0.4248541357727722
12641353333.333334 0.9098050422367554 0.41503588413581516 -1.1361716248016156e-16 -1.5443215571891898e-17 -1.1361716248016156e-16 -1.5443215571891898e-17 0.9098047631093614 0.4150364960137121
12641970666.666666 0.914241509045236 0.405169672036928 -1.1375661250760126e-16 -1.4200379782820794e-17 -1.1375661250760126e-16 -1.4200379782820794e-17 0.9142412365665439 0.4051702868684945
12642588000.0 0.9185709873079041 0.39525604521120905 -1.13882475995385e-16 -1.295634015920578e-17 -1.13882475995385e-16 -1.295634015920578e-17 0.9185707215091494 0.3952566629242099
12643205333.333334 0.9227929703703317 0.38529616379471304 -1.1399474328008422e-16 -1.1711245133996618e-17 -1.1399474328008422e-16 -1.1711245133996618e-17 0.922792711281966 0.38529678431658304
12643822666.666666 0.9269069641576844 0.37529119333632965 -1.140934063188836e-16 -1.0465243207657488e-17 -1.140934063188836e-16 -1.0465243207657488e-17 0.926906711809371 0.3752918165941821
12644440000.0 0.9309124872324511 0.3652423046615955 -1.1417845868990151e-16 -9.218482930509937e-18 -1.1417845868990151e-16 -9.218482930509937e-18 0.9309122416530603 0.36524293058222995
12645057333.333334 0.9348090708508694 0.3551506737354678 -1.142498955923204e-16 -7.971112885057397e-18 -1.142498955923204e-16 -7.971112885057397e-18 0.9348088320684782 0.3551513022453801
12645674666.666666 0.9385962590177008 0.34501748152492157 -1.1430771384632652e-16 -6.723281668283578e-18 -1.1430771384632652e-16 -6.723281668283578e-18 0.9385960270595877 0.3450181125503115
12646292000.0 0.9422736085397424 0.3348439138603476 -1.143519118928542e-16 -5.475137873981956e-18 -1.143519118928542e-16 -5.475137873981956e-18 0.942273383432384 0.3348445473271278
12646909333.333334 0.9458406890774801 0.3246311612973405 -1.1438248979313754e-16 -4.226830075108847e-18 -1.1438248979313754e-16 -4.226830075108847e-18 0.9458404708465504 0.3246317971311455
12647526666.666666 0.9492970831956226 0.3143804189769228 -1.1439944922807172e-16 -2.9785068061035894e-18 -1.1439944922807172e-16 -2.9785068061035894e-18 0.9492968718659867 0.31438105710311687
12648144000.0 0.9526423864119022 0.30409288648578825 -1.1440279349737988e-16 -1.730316545255938e-18 -1.1440279349737988e-16 -1.730316545255938e-18 0.9526421820076164 0.30409352682947494
12648761333.333334 0.9558762072443506 0.29376976771611063 -1.1439252751858915e-16 -4.824076970642959e-19 -1.1439252751858915e-16 -4.824076970642959e-19 0.9558760097886579 0.29377041020214145
12649378666.666666 0.9589981672571756 0.2834122707244709 -1.1436865782581436e-16 7.650714253546586e-19 -1.1436865782581436e-16 7.650714253546586e-19 0.9589979767725041 0.2834129152774539
12649996000.0 0.96200790110502 0.273021607590566 -1.1433119256834992e-16 2.0119726179036236e-18 -1.1433119256834992e-16 2.0119726179036236e-18 0.9620077176129788 0.2730222541348745
12650613333.333334 0.9649050565757473 0.26259899427525624 -1.1428014150907033e-16 3.258147803063957e-18 -1.1428014150907033e-16 3.258147803063957e-18 0.964904880097127 0.26259964273503844
12651230666.666666 0.967689294631607 0.25214565047846055 -1.1421551602264053e-16 4.503449047429859e-18 -1.1421551602264053e-16 4.503449047429859e-18 0.967689125186374 0.25214630077764755
12651848000.0 0.9703602894489589 0.2416627994962292 -1.141373290935322e-16 5.7477285792932234e-18 -1.141373290935322e-16 5.7477285792932234e-18 0.9703601270562554 0.24166345155854435
12652465333.333334 0.9729177284563915 0.2311516680776435 -1.1404559531385334e-16 6.990838806111526e-18 -1.1404559531385334e-16 6.990838806111526e-18 0.9729175731345322 0.23115232182661136
12653082666.666666 0.9753613123712431 0.2206134862814771 -1.1394033088098677e-16 8.232632331976839e-18 -1.1394033088098677e-16 8.232632331976839e-18 0.9753611641377139 0.22061414164043217
12653700000.0 0.9776907552347412 0.21004948733177928 -1.1382155359503366e-16 9.472961975119414e-18 -1.1382155359503366e-16 9.472961975119414e-18 0.9776906141061961 0.21005014422387525
12654317333.333334 0.9799057844453511 0.19946090747402767 -1.136892828560776e-16 1.0711680785252722e-17 -1.136892828560776e-16 1.0711680785252722e-17 0.9799056504376117 0.19946156582224628
12654934666.666666 0.98200614079073 0.18884898583026474 -1.1354353966124865e-16 1.1948642061010389e-17 -1.1354353966124865e-16 1.1948642061010389e-17 0.9820060139187825 0.1888496455574249
12655552000.0 0.9839915784780908 0.1782149642538936 -1.1338434660160414e-16 1.3183699367281992e-17 -1.1338434660160414e-16 1.3183699367281992e-17 0.9839914587560865 0.17821562528266052
12656169333.333334 0.9858618651628812 0.1675600871848266 -1.1321172785882542e-16 1.4416706552481565e-17 -1.1321172785882542e-16 1.4416706552481565e-17 0.9858617526041326 0.1675607494377206
12656786666.666666 0.9876167819760577 0.1568856015033796 -1.1302570920171597e-16 1.5647517765865834e-17 -1.1302570920171597e-16 1.5647517765865834e-17 0.9876166765930371 0.15688626490278532
12657404000.0 0.9892561235496601 0.14619275638458065 -1.1282631798252092e-16 1.6875987474732573e-17 -1.1282631798252092e-16 1.6875987474732573e-17 0.9892560253539987 0.14619342085275602
12658021333.333334 0.9907796980408382 0.13548280315201405 -1.1261358313305835e-16 1.8101970481597146e-17 -1.1261358313305835e-16 1.8101970481597146e-17 0.9907796070433258 0.1354834686110996
12658638666.666666 0.9921873271543149 0.12475699513132917 -1.1238753516066248e-16 1.9325321941328808e-17 -1.1238753516066248e-16 1.9325321941328808e-17 0.9921872433648984 0.12475766150335725
12659256000.0 0.9934788461632573 0.11401658750351441 -1.1214820614393793e-16 2.0545897378257594e-17 -1.1214820614393793e-16 2.0545897378257594e-17 0.9934787695910375 0.1140172547104179
12659873333.333334 0.9946541039285409 0.10326283715806611 -1.1189562972833913e-16 2.176355270316991e-17 -1.1189562972833913e-16 2.176355270316991e-17 0.9946540345817759 0.10326350512168807
12660490666.666666 0.9957129629164371 0.09249700254598754 -1.1162984112155602e-16 2.297814423030915e-17 -1.1162984112155602e-16 2.297814423030915e-17 0.9957129008025367 0.09249767118808994
12661108000.0 0.9966552992147193 0.08172034353232098 -1.11350877088713e-16 2.418952869432454e-17 -1.11350877088713e-16 2.418952869432454e-17 0.9966552443402468 0.08172101277459401
12661725333.333334 0.9974810025471499 0.07093412124891087 -1.1105877594740264e-16 2.5397563267087606e-17 -1.1105877594740264e-16 2.5397563267087606e-17 0.9974809549178203 0.07093479101298215
12662342666.666666 0.9981899762863917 0.06013959794673598 -1.1075357756251089e-16 2.6602105574560607e-17 -1.1075357756251089e-16 2.6602105574560607e-17 0.9981899359070727 0.06014026815417978
12662960000.0 0.9987821374653203 0.04933803684813845 -1.1043532334088354e-16 2.78030137135067e-17 -1.1043532334088354e-16 2.78030137135067e-17 0.99878210434003 0.04933870742048474
12663577333.333334 0.9992574167867263 0.03853070199905255 -1.1010405622579571e-16 2.90001462682037e-17 -1.1010405622579571e-16 2.90001462682037e-17 0.9992573909186342 0.03853137285779627
12664194666.666666 0.9996157586314257 0.027718858121165847 -1.0975982069124908e-16 3.0193362327058815e-17 -1.0975982069124908e-16 3.0193362327058815e-17 0.99961574002285 0.027719529187776048
12664812000.0 0.999857121064771 0.016903770463717018 -1.0940266273608917e-16 3.1382521499156836e-17 -1.0940266273608917e-16 3.1382521499156836e-17 0.9998571097171827 0.016904441659646132
12665429333.333334 0.999981475841557 0.006086704655629787 -1.0903262987793547e-16 3.2567483930774713e-17 -1.0903262987793547e-16 3.2567483930774713e-17 0.9999814717555752 0.006087375902322747
12666046666.666666 0.9999888084093259 -0.0047310734426533625 -1.0864977114695066e-16 3.374811032176005e-17 -1.0864977114695066e-16 3.374811032176005e-17 0.9999888115847216 -0.00473040222374989
12666664000.0 0.9998791179100721 -0.015548297887535053 -1.0825413707940454e-16 3.49242619419338e-17 -1.0825413707940454e-16 3.49242619419338e-17 0.9998791283457661 -0.01554762677496351
12667281333.333334 0.9996524171803416 -0.026363702799926156 -1.0784577971109451e-16 3.6095800647310436e-17 -1.0784577971109451e-16 3.6095800647310436e-17 0.9996524348744055 -0.026363031872208887
12667898666.666666 0.9993087327497306 -0.03717602251383926 -1.0742475257056735e-16 3.726258889631635e-17 -1.0742475257056735e-16 3.726258889631635e-17 0.9993087576993862 -0.03717535184946934
12668516000.0 0.9988481048377744 -0.047983991724417044 -1.0699111067216616e-16 3.842448976592687e-17 -1.0699111067216616e-16 3.842448976592687e-17 0.9988481370393948 -0.047983321401849036
12669133333.333334 0.9982705873492561 -0.05878634563566306 -1.0654491050892317e-16 3.958136696766864e-17 -1.0654491050892317e-16 3.958136696766864e-17 0.9982706267983651 -0.058785675733303844
12669750666.666666 0.997576247867876 -0.06958182010893621 -1.0608621004525853e-16 4.0733084863598206e-17 -1.0608621004525853e-16 4.0733084863598206e-17 0.9975762945591539 -0.06958115070513607
12670368000.0 0.9967651676483664 -0.0803691518105456 -1.0561506870951152e-16 4.187950848218475e-17 -1.0561506870951152e-16 4.187950848218475e-17 0.9967652215756421 -0.08036848298358863
