! Parameters = {f0=12700.012000; bw=77.238000; Q=6100.000000; N=10; m_0_1=1.200896; m_1_1=-0.751307; m_1_2=1.035708; m_2_2=-0.751956; m_2_3=0.672671; m_2_8=-0.002892; m_2_9=0.033812; m_3_3=-0.753893; m_3_4=0.561200; m_3_7=-0.002292; m_3_8=-0.099380; m_3_9=-0.002892; m_4_4=-0.756818; m_4_5=0.397535; m_4_6=0.001225; m_4_7=-0.119929; m_4_8=-0.002292; m_5_5=-0.756436; m_5_6=0.804890; m_5_7=0.001225; m_6_6=-0.756437; m_6_7=0.397877; m_7_7=-0.756804; m_7_8=0.561318; m_8_8=-0.753895; m_8_9=0.672984; m_9_9=-0.751961; m_9_10=1.036786; m_10_10=-0.751317; m_10_11=1.201691}
!
! Created with skrf (http://scikit-rf.org).
# Hz S RI R 50.0 
!freq ReS11 ImS11 ReS21 ImS21 ReS12 ImS12 ReS22 ImS22
12607400000.0 0.10268296015477615 -0.9947141346606548 1.4527489118657302e-17 7.756692802723851e-17 1.4527489118657302e-17 7.756692802723851e-17 0.1026835896330988 -0.9947140696802789
12608017333.333334 0.09424414565182071 -0.9955491153178735 1.5188622667264047e-17 7.74244320265812e-17 1.5188622667264047e-17 7.74244320265812e-17 0.09424477562768911 -0.9955490556806972
12608634666.666666 0.0857985539808778 -0.996312505258582 1.5848381851831506e-17 7.727630600762542e-17 1.5848381851831506e-17 7.727630600762542e-17 0.0857991844089434 -0.9963124509683706
12609252000.0 0.0773467924710046 -0.9970042495868755 1.650671877250964e-17 7.712256305083354e-17 1.650671877250964e-17 7.712256305083354e-17 0.07734742330589069 -0.9970042006470088
12609869333.333334 0.06888946889499196 -0.9976242985589351 1.7163585652606193e-17 7.696321664382023e-17 1.7163585652606193e-17 7.696321664382023e-17 0.06889010009129712 -0.9976242549724084
12610486666.666666 0.06042719142568763 -0.9981726075866065 1.781893484203345e-17 7.679828068020595e-17 1.781893484203345e-17 7.679828068020595e-17 0.06042782293798881 -0.998172569356029
12611104000.0 0.05196056859197827 -0.9986491372406233 1.847271882077691e-17 7.6627769458433e-17 1.847271882077691e-17 7.6627769458433e-17 0.05196120037483426 -0.9986491043682203
12611721333.333334 0.04349020923542686 -0.9990538532534173 1.912489020230962e-17 7.645169768056324e-17 1.912489020230962e-17 7.645169768056324e-17 0.04349084124338141 -0.999053825741028
12612338666.666666 0.03501672246620687 -0.999386726521604 1.9775401737025827e-17 7.627008045103906e-17 1.9775401737025827e-17 7.627008045103906e-17 0.035017354653791945 -0.9993867043706816
12612956000.0 0.02654071761930027 -0.9996477331080662 2.0424206315663064e-17 7.608293327541476e-17 2.0424206315663064e-17 7.608293327541476e-17 0.026541349941039426 -0.9996477163196789
12613573333.333334 0.01806280421096403 -0.9998368542436707 2.1071256972682558e-17 7.589027205906803e-17 2.1071256972682558e-17 7.589027205906803e-17 0.018063436621375602 -0.9998368428185006
12614190666.666666 0.009583591894501581 -0.9999540763286291 2.171650688968082e-17 7.569211310587005e-17 2.171650688968082e-17 7.569211310587005e-17 0.009584224348101996 -0.9999540702669732
12614808000.0 0.0011036904167346833 -0.9999993909334677 2.2359909398754588e-17 7.54884731168368e-17 2.2359909398754588e-17 7.54884731168368e-17 0.0011043228680416993 -0.9999993902352363
12615425333.333334 -0.007376290425986022 -0.9999727947996353 2.300141798587716e-17 7.527936918874486e-17 2.300141798587716e-17 7.527936918874486e-17 -0.007375658022450022 -0.9999727994643542
12616042666.666666 -0.015855740831603515 -0.9998742898397396 2.36409862942384e-17 7.506481881272571e-17 2.36409862942384e-17 7.506481881272571e-17 -0.015855108521308267 -0.999874299866548
12616660000.0 -0.02433405103620574 -0.9997038831374063 2.427856812759348e-17 7.484483987282526e-17 2.427856812759348e-17 7.484483987282526e-17 -0.024333418864609824 -0.999703898525059
12617277333.333334 -0.03281061135790264 -0.9994615869467737 2.4914117453589793e-17 7.461945064453777e-17 2.4914117453589793e-17 7.461945064453777e-17 -0.032809979370450194 -0.9994616076936383
12617894666.666666 -0.04128481224052679 -0.99914741869161 2.554758840707017e-17 7.438866979331518e-17 2.554758840707017e-17 7.438866979331518e-17 -0.04128418048264428 -0.9991474447956709
12618512000.0 -0.04975604429775106 -0.9987614009640552 2.617893529339397e-17 7.415251637303719e-17 2.617893529339397e-17 7.415251637303719e-17 -0.04975541281484404 -0.9987614324229115
12619129333.333334 -0.058223698356626274 -0.9983035615230069 2.6808112591702466e-17 7.391100982446891e-17 2.6808112591702466e-17 7.391100982446891e-17 -0.058223067194075974 -0.9983035983338714
12619746666.666666 -0.06668716550150051 -0.9977739332921153 2.7435074958199417e-17 7.366416997367947e-17 2.7435074958199417e-17 7.366416997367947e-17 -0.06668653470466082 -0.9977739754518183
12620364000.0 -0.07514583711792058 -0.9971725543574141 2.8059777229417514e-17 7.341201703043342e-17 2.8059777229417514e-17 7.341201703043342e-17 -0.07514520673211457 -0.9971726018624005
12620981333.333334 -0.08359910493611407 -0.9964994679645963 2.868217442544101e-17 7.315457158656555e-17 2.868217442544101e-17 7.315457158656555e-17 -0.08359847500663084 -0.9964995208109271
12621598666.666666 -0.0920463610750142 -0.9957547225158868 2.930222175315536e-17 7.289185461431228e-17 2.930222175315536e-17 7.289185461431228e-17 -0.09204573164710562 -0.9957547806992396
12622216000.0 -0.10048699808583117 -0.9949383715665713 2.9919874609450545e-17 7.262388746462791e-17 2.9919874609450545e-17 7.262388746462791e-17 -0.10048636920470864 -0.9949384350822402
12622833333.333334 -0.10892040899579104 -0.9940504738211399 3.053508858442184e-17 7.235069186546882e-17 3.053508858442184e-17 7.235069186546882e-17 -0.10891978070662219 -0.9940505426640358
12623450666.666666 -0.11734598735164206 -0.9930910931290802 3.114781946455298e-17 7.20722899200517e-17 3.114781946455298e-17 7.20722899200517e-17 -0.11734535969954747 -0.9930911672937315
12624068000.0 -0.1257631272635198 -0.9920602984802598 3.1758023235881625e-17 7.178870410508556e-17 3.1758023235881625e-17 7.178870410508556e-17 -0.12576250029357003 -0.9920603779608136
12624685333.333334 -0.13417122344837565 -0.990958163999979 3.2365656087161214e-17 7.149995726897178e-17 3.2365656087161214e-17 7.149995726897178e-17 -0.13417059720558752 -0.9909582487901992
12625302666.666666 -0.14256967127333403 -0.9897847689436613 3.2970674412974166e-17 7.120607262999212e-17 3.2970674412974166e-17 7.120607262999212e-17 -0.14256904580266785 -0.9897848590369323
12625920000.0 -0.15095786679956655 -0.9885401976911041 3.357303481688151e-17 7.090707377444643e-17 3.357303481688151e-17 7.090707377444643e-17 -0.1509572421459228 -0.9885402930804285
12626537333.333334 -0.1593352068253279 -0.9872245397404652 3.4172694114495256e-17 7.060298465479204e-17 3.4172694114495256e-17 7.060298465479204e-17 -0.15933458303354367 -0.9872246404184658
12627154666.666666 -0.16770108892950092 -0.9858378897018026 3.4769609336584475e-17 7.029382958773337e-17 3.4769609336584475e-17 7.029382958773337e-17 -0.16770046604434719 -0.9858379956607229
12627772000.0 -0.1760549115150578 -0.9843803472902476 3.536373773214401e-17 6.997963325229473e-17 3.536373773214401e-17 6.997963325229473e-17 -0.17605428958123587 -0.9843804585219521
12628389333.333334 -0.1843960738520408 -0.9828520173188815 3.5955036771426566e-17 6.966042068787831e-17 3.5955036771426566e-17 6.966042068787831e-17 -0.18439545291417928 -0.9828521338148567
12629006666.666666 -0.1927239761210134 -0.9812530096911553 3.6543464149004456e-17 6.933621729227097e-17 3.6543464149004456e-17 6.933621729227097e-17 -0.19272335622366477 -0.9812531314425088
12629624000.0 -0.2010380194559975 -0.9795834393930174 3.712897778676467e-17 6.900704881965202e-17 3.712897778676467e-17 6.900704881965202e-17 -0.20103740064363507 -0.9795835663904806
12630241333.333334 -0.2093376059876784 -0.9778434264846236 3.771153583691744e-17 6.867294137855882e-17 3.771153583691744e-17 6.867294137855882e-17 -0.20933698830469338 -0.9778435587185523
12630858666.666666 -0.21762213888623164 -0.9760330960917387 3.829109668497324e-17 6.833392142983466e-17 3.829109668497324e-17 6.833392142983466e-17 -0.21762152237692936 -0.9760332335521115
12631476000.0 -0.2258910224045456 -0.9741525783966658 3.886761895271442e-17 6.799001578454317e-17 3.886761895271442e-17 6.799001578454317e-17 -0.22589040711314284 -0.9741527210730878
12632093333.333334 -0.2341436619207026 -0.9722020086289715 3.944106150112232e-17 6.764125160187476e-17 3.944106150112232e-17 6.764125160187476e-17 -0.23414304789132429 -0.9722021565106733
12632710666.666666 -0.24237946398090499 -0.9701815270557221 4.001138343331183e-17 6.728765638701151e-17 4.001138343331183e-17 6.728765638701151e-17 -0.24237885125758082 -0.9701816801315606
12633328000.0 -0.25059783634226074 -0.9680912789713688 4.057854409744738e-17 6.69292579889681e-17 4.057854409744738e-17 6.69292579889681e-17 -0.2505972249689225 -0.96809143722983
12633945333.333334 -0.2587981880152342 -0.9659314146873329 4.1142503089612884e-17 6.656608459842384e-17 4.1142503089612884e-17 6.656608459842384e-17 -0.25879757803571235 -0.9659315781165312
12634562666.666666 -0.266979929306118 -0.9637020895212087 4.170322025668744e-17 6.619816474551626e-17 4.170322025668744e-17 6.619816474551626e-17 -0.26697932076413766 -0.9637022581088842
12635180000.0 -0.27514247185951846 -0.9614034637855622 4.2260655699199185e-17 6.5825527297611e-17 4.2260655699199185e-17 6.5825527297611e-17 -0.27514186479869807 -0.9614036375190897
12635797333.333334 -0.28328522870066775 -0.9590357027764156 4.281476977414464e-17 6.544820145705774e-17 4.281476977414464e-17 6.544820145705774e-17 -0.28328462316451464 -0.9590358816427993
12636414666.666666 -0.29140761427752226 -0.956598976761383 4.3365523097797495e-17 6.506621675891654e-17 4.3365523097797495e-17 6.506621675891654e-17 -0.29140701030943 -0.9565991607472599
12637032000.0 -0.2995090445030351 -0.9540934609673845 4.391287654850648e-17 6.467960306865429e-17 4.391287654850648e-17 6.467960306865429e-17 -0.2995084421462799 -0.954093650059024
12637649333.333334 -0.30758893679704774 -0.9515193355680712 4.445679126945632e-17 6.4288390579829e-17 4.445679126945632e-17 6.4288390579829e-17 -0.30758833609478636 -0.951519529751378
12638266666.666666 -0.3156467101281859 -0.9488767856708772 4.499722867141549e-17 6.389260981174602e-17 4.499722867141549e-17 6.389260981174602e-17 -0.31564611112345115 -0.9488769849313897
12638884000.0 -0.3236817850557481 -0.9461660013036651 4.5534150435470604e-17 6.34922916070861e-17 4.5534150435470604e-17 6.34922916070861e-17 -0.323681187791447 -0.9461662056265593
12639501333.333334 -0.33169358377123986 -0.9433871774011107 4.60675185157235e-17 6.308746712952217e-17 4.60675185157235e-17 6.308746712952217e-17 -0.3316929882901501 -0.9433873867711997
12640118666.666666 -0.33968153013987074 -0.9405405137907027 4.6597295141973025e-17 6.267816786130999e-17 4.6597295141973025e-17 6.267816786130999e-17 -0.33968093648463754 -0.9405407281924384
12640736000.0 -0.34764504974238664 -0.9376262151782319 4.712344282240517e-17 6.226442560083319e-17 4.712344282240517e-17 6.226442560083319e-17 -0.34764445795551996 -0.937626434595706
12641353333.333334 -0.35558356991573464 -0.9346444911332997 4.764592434619337e-17 6.184627246017901e-17 4.764592434619337e-17 6.184627246017901e-17 -0.3555829800396053 -0.9346447155502436
12641970666.666666 -0.3634965197948043 -0.9315955560740447 4.8164702786154283e-17 6.142374086263212e-17 4.8164702786154283e-17 6.142374086263212e-17 -0.3634959318716424 -0.9315957854738338
12642588000.0 -0.37138333035321275 -0.9284796292518214 4.86797415013361e-17 6.099686354018191e-17 4.86797415013361e-17 6.099686354018191e-17 -0.37138274442510333 -0.9284798636174729
12643205333.333334 -0.37924343444422415 -0.9252969347354358 4.919100413958688e-17 6.056567353100704e-17 4.919100413958688e-17 6.056567353100704e-17 -0.3792428505531048 -0.9252971740496122
12643822666.666666 -0.38707626684174384 -0.9220477013949453 4.969845464012273e-17 6.013020417692007e-17 4.969845464012273e-17 6.013020417692007e-17 -0.3870756850294019 -0.9220479456399554
12644440000.0 -0.3948812642806753 -0.9187321628853198 5.0202057236050297e-17 5.969048912081107e-17 5.0202057236050297e-17 5.969048912081107e-17 -0.39488068458874426 -0.9187324120431187
12645057333.333334 -0.4026578654975571 -0.9153505576295865 5.0701776456877944e-17 5.92465623040597e-17 5.0701776456877944e-17 5.92465623040597e-17 -0.40265728796751366 -0.9153508116817779
12645674666.666666 -0.41040551127089603 -0.9119031288016934 5.119757713100296e-17 5.879845796392807e-17 5.119757713100296e-17 5.879845796392807e-17 -0.4104049359440579 -0.9119033877295315
12646292000.0 -0.41812364446156514 -0.9083901243089458 5.168942438818555e-17 5.834621063092396e-17 5.168942438818555e-17 5.834621063092396e-17 -0.4181230713790874 -0.9083903880933359
12646909333.333334 -0.42581171005252905 -0.9048117967743264 5.217728366197518e-17 5.788985512616586e-17 5.217728366197518e-17 5.788985512616586e-17 -0.42581113925540104 -0.9048120653958257
12647526666.666666 -0.4334691551890153 -0.9011684035182127 5.266112069213485e-17 5.742942655870835e-17 5.266112069213485e-17 5.742942655870835e-17 -0.4334685867180591 -0.9011686769570343
12648144000.0 -0.44109542921821954 -0.8974602065398988 5.314090152704033e-17 5.696496032284852e-17 5.314090152704033e-17 5.696496032284852e-17 -0.4410948631140847 -0.8974604847759091
12648761333.333334 -0.4486899837289008 -0.8936874724987486 5.3616592526043146e-17 5.64964920954254e-17 5.3616592526043146e-17 5.64964920954254e-17 -0.44868942003206336 -0.8936877555114725
12649378666.666666 -0.4562522725906674 -0.8898504726951009 5.4088160361817636e-17 5.602405783309143e-17 5.4088160361817636e-17 5.602405783309143e-17 -0.4562517113414261 -0.8898507604637211
12649996000.0 -0.46378175199347804 -0.8859494830506439 5.4555572022690423e-17 5.554769376955854e-17 5.4555572022690423e-17 5.554769376955854e-17 -0.463781193231952 -0.8859497755540034
12650613333.333334 -0.4712778804866457 -0.8819847840886249 5.50187948149412e-17 5.506743641282969e-17 5.50187948149412e-17 5.506743641282969e-17 -0.471277324252771 -0.8819850813052288
12651230666.666666 -0.4787401190176738 -0.8779566609137308 5.547779636506207e-17 5.4583322542428407e-17 5.547779636506207e-17 5.4583322542428407e-17 -0.47873956535120094 -0.8779569628217465
12651848000.0 -0.48616793097127003 -0.8738654031914518 5.593254462202967e-17 5.4095389206571773e-17 5.593254462202967e-17 5.4095389206571773e-17 -0.48616737991176134 -0.8738657097687126
12652465333.333334 -0.49356078220770977 -0.8697113051273722 5.638300785951583e-17 5.360367371936288e-17 5.638300785951583e-17 5.360367371936288e-17 -0.4935602337945361 -0.8697116163513776
12653082666.666666 -0.5009181411012231 -0.8654946654460315 5.682915467808907e-17 5.310821365794901e-17 5.682915467808907e-17 5.310821365794901e-17 -0.500917595373561 -0.8654949812939484
12653700000.0 -0.5082394785785701 -0.8612157873692445 5.727095400740446e-17 5.260904685964694e-17 5.727095400740446e-17 5.260904685964694e-17 -0.5082389355753988 -0.8612161078179092
12654317333.333334 -0.5155242681565914 -0.8568749785945757 5.770837510834026e-17 5.210621141908115e-17 5.770837510834026e-17 5.210621141908115e-17 -0.5155237279166913 -0.8568753036204975
12654934666.666666 -0.5227719859804174 -0.8524725512730218 5.814138757513015e-17 5.1599745685281483e-17 5.814138757513015e-17 5.1599745685281483e-17 -0.5227714485423661 -0.8524728808523819
12655552000.0 -0.5299821108611084 -0.8480088219865682 5.856996133747007e-17 5.108968825876308e-17 5.856996133747007e-17 5.108968825876308e-17 -0.5299815762632781 -0.8480091560952238
12656169333.333334 -0.5371541243129193 -0.8434841117255641 5.899406666257956e-17 5.057607798861258e-17 5.899406666257956e-17 5.057607798861258e-17 -0.5371535925934747 -0.843484450339048
12656786666.666666 -0.5442875105908249 -0.8388987458654869 5.941367415726609e-17 5.0058953969523545e-17 5.941367415726609e-17 5.0058953969523545e-17 -0.5442869817877191 -0.8388990889590103
12657404000.0 -0.5513817567274854 -0.8342530541436187 5.98287547699421e-17 4.9538355538840076e-17 5.98287547699421e-17 4.9538355538840076e-17 -0.5513812308784591 -0.8342534016920745
12658021333.333334 -0.5584363525701614 -0.8295473706353231 6.023927979262527e-17 4.9014322273574196e-17 6.023927979262527e-17 4.9014322273574196e-17 -0.5584358297127388 -0.8295477226132851
12658638666.666666 -0.5654507908173737 -0.8247820337300342 6.064522086290951e-17 4.8486893987409716e-17 6.064522086290951e-17 4.8486893987409716e-17 -0.5654502709888599 -0.8247823901117605
12659256000.0 -0.5724245670554772 -0.8199573861068591 6.104654996591656e-17 4.795611072768131e-17 6.104654996591656e-17 4.795611072768131e-17 -0.5724240502929568 -0.8199577468662944
12659873333.333334 -0.5793571797948186 -0.8150737747100179 6.144323943620968e-17 4.742201277235361e-17 6.144323943620968e-17 4.742201277235361e-17 -0.5793566661351512 -0.8150741398207934
12660490666.666666 -0.586248130505775 -0.8101315507239107 6.1835261959686e-17 4.688464062697729e-17 6.1835261959686e-17 4.688464062697729e-17 -0.5862476199855933 -0.810131920159347
12661108000.0 -0.5930969236548331 -0.8051310695476958 6.222259057545695e-17 4.6344035021610375e-17 6.222259057545695e-17 4.6344035021610375e-17 -0.593096416310542 -0.8051314432808073
12661725333.333334 -0.5999030667399052 -0.8000726907699711 6.260519867766919e-17 4.580023690776849e-17 6.260519867766919e-17 4.580023690776849e-17 -0.5999025626076756 -0.8000730687734635
12662342666.666666 -0.6066660703259921 -0.7949567781427249 6.298306001733808e-17 4.525328745530674e-17 6.298306001733808e-17 4.525328745530674e-17 -0.6066655694417629 -0.7949571603890021
12662960000.0 -0.6133854480802485 -0.7897836995552883 6.335614870412019e-17 4.4703228049333105e-17 6.335614870412019e-17 4.4703228049333105e-17 -0.6133849504797189 -0.7897840860164486
12663577333.333334 -0.620060716807061 -0.7845538270077825 6.372443920807977e-17 4.41501002870787e-17 6.372443920807977e-17 4.41501002870787e-17 -0.6200602225256927 -0.7845542176556267
12664194666.666666 -0.6266913964826668 -0.7792675365844828 6.408790636142038e-17 4.359394597476449e-17 6.408790636142038e-17 4.359394597476449e-17 -0.6266909055556784 -0.7792679313905118
12664812000.0 -0.6332770102897584 -0.773925208426698 6.444652536019039e-17 4.3034807124452046e-17 6.444652536019039e-17 4.3034807124452046e-17 -0.6332765227521242 -0.7739256073621171
12665429333.333334 -0.6398170846517731 -0.7685272267054365 6.480027176596103e-17 4.2472725950880245e-17 6.480027176596103e-17 4.2472725950880245e-17 -0.6398166005382195 -0.7685276297411563
12666046666.666666 -0.6463111492668372 -0.7630739795938685 6.514912150747648e-17 4.190774486829074e-17 6.514912150747648e-17 4.190774486829074e-17 -0.6463106686118425 -0.7630743867005084
12666664000.0 -0.6527587371418285 -0.7575658592392146 6.54930508822821e-17 4.1339906487228084e-17 6.54930508822821e-17 4.1339906487228084e-17 -0.6527582599796176 -0.7575662703871036
12667281333.333334 -0.6591593846256505 -0.7520032617347995 6.583203655830898e-17 4.0769253611355354e-17 6.583203655830898e-17 4.0769253611355354e-17 -0.6591589109901944 -0.7520036768939794
12667898666.666666 -0.6655126314427935 -0.7463865870913883 6.616605557545171e-17 4.019582923422106e-17 6.616605557545171e-17 4.019582923422106e-17 -0.6655121613678071 -0.7463870062316157
12668516000.0 -0.6718180207264111 -0.7407162392084372 6.6495085347108e-17 3.961967653602998e-17 6.6495085347108e-17 3.961967653602998e-17 -0.671817554245348 -0.7407166622991835
12669133333.333334 -0.678075099051063 -0.7349926258451405 6.681910366168069e-17 3.904083888041922e-17 6.681910366168069e-17 3.904083888041922e-17 -0.6780746361971165 -0.7349930528555978
12669750666.666666 -0.6842834164654111 -0.7292161585910364 6.713808868407115e-17 3.845935981118727e-17 6.713808868407115e-17 3.845935981118727e-17 -0.6842829572715109 -0.7292165894901181
12670368000.0 -0.6904425265245745 -0.7233872528364087 6.745201895713504e-17 3.7875283049028785e-17 6.745201895713504e-17 3.7875283049028785e-17 -0.6904420710233822 -0.7233876875927503
