! Parameters = {f0=12700.012000; bw=77.238000; Q=6100.000000; N=10; m_0_1=1.250145; m_1_1=-0.012569; m_1_2=1.084957; m_2_2=-0.013218; m_2_3=0.721920; m_2_8=-0.000429; m_2_9=0.036275; m_3_3=-0.015155; m_3_4=0.610449; m_3_7=0.000171; m_3_8=-0.096917; m_3_9=-0.000429; m_4_4=-0.018080; m_4_5=0.446784; m_4_6=0.003688; m_4_7=-0.117466; m_4_8=0.000171; m_5_5=-0.017698; m_5_6=0.854139; m_5_7=0.003688; m_6_6=-0.017699; m_6_7=0.447126; m_7_7=-0.018066; m_7_8=0.610567; m_8_8=-0.015157; m_8_9=0.722233; m_9_9=-0.013223; m_9_10=1.086035; m_10_10=-0.012579; m_10_11=1.250940}
!
! Created with skrf (http://scikit-rf.org).
# Hz S RI R 50.0 
!freq ReS11 ImS11 ReS21 ImS21 ReS12 ImS12 ReS22 ImS22
12607400000.0 0.9811044581081465 0.19347879025916542 -1.0018643698419285e-16 9.374850867241486e-18 -1.0018643698419285e-16 9.374850867241486e-18 0.9811043306660553 0.19347943649943816
12608017333.333334 0.9829784001124313 0.18372116076335204 -1.000678235537186e-16 1.037666670286628e-17 -1.000678235537186e-16 1.037666670286628e-17 0.9829782791034849 0.1837218082062647
12608634666.666666 0.9847552995475416 0.1739453937672966 -9.993919952843589e-17 1.137704731526436e-17 -9.993919952843589e-17 1.137704731526436e-17 0.9847551849830557 0.17394604234881691
12609252000.0 0.9864349809927173 0.16415245436400663 -9.980058175356137e-17 1.2375892745148149e-17 -9.980058175356137e-17 1.2375892745148149e-17 0.9864348728833696 0.16415310401999622
12609869333.333334 0.9880172786248653 0.1543433093416874 -9.965198807172534e-17 1.3373103226615544e-17 -9.965198807172534e-17 1.3373103226615544e-17 0.9880171769806972 0.15434396000790837
12610486666.666666 0.9895020362348861 0.144518927088607 -9.949343732079186e-17 1.4368579197075393e-17 -9.949343732079186e-17 1.4368579197075393e-17 0.989501941065298 0.14451957870072776
12611104000.0 0.9908891072431569 0.1346802774970725 -9.932494933157018e-17 1.5362221307210737e-17 -9.932494933157018e-17 1.5362221307210737e-17 0.9908890185569098 0.1346809299906745
12611721333.333334 0.9921783547139379 0.12482833186810074 -9.91465449254428e-17 1.635393043081797e-17 -9.91465449254428e-17 1.635393043081797e-17 0.992178272519152 0.12482898517868475
12612338666.666666 0.9933696513689318 0.114964062815276 -9.895824591188006e-17 1.7343607674715705e-17 -9.895824591188006e-17 1.7343607674715705e-17 0.9933695756730868 0.1149647168782685
12612956000.0 0.9944628795998612 0.10508844416861732 -9.876007508586264e-17 1.8331154388583937e-17 -9.876007508586264e-17 1.8331154388583937e-17 0.9944628104097921 0.10508909891937662
12613573333.333334 0.9954579314800236 0.09520245087886219 -9.855205622521172e-17 1.931647217474988e-17 -9.855205622521172e-17 1.931647217474988e-17 0.9954578688019241 0.09520310625268517
12614190666.666666 0.9963547087749971 0.08530705892082154 -9.833421408780781e-17 2.0299462898011767e-17 -9.833421408780781e-17 2.0299462898011767e-17 0.9963546526144177 0.08530771485294998
12614808000.0 0.997153122952318 0.07540324519719803 -9.810657440872645e-17 2.1280028695362448e-17 -9.810657440872645e-17 2.1280028695362448e-17 0.9971530733141649 0.07540390162282493
12615425333.333334 0.9978530951902241 0.0654919874421151 -9.786916389726832e-17 2.225807198572676e-17 -9.786916389726832e-17 2.225807198572676e-17 0.9978530520787594 0.06549264429639096
12616042666.666666 0.9984545563854352 0.05557426412462024 -9.762201023389483e-17 2.3233495479649725e-17 -9.762201023389483e-17 2.3233495479649725e-17 0.9984545198042751 0.05557492134265967
12616660000.0 0.9989574471599788 0.04565105435197433 -9.736514206706932e-17 2.4206202188952055e-17 -9.736514206706932e-17 2.4206202188952055e-17 0.9989574171120972 0.04565171186886243
12617277333.333334 0.9993617178670477 0.03572333777313303 -9.709858900999586e-17 2.5176095436367738e-17 -9.709858900999586e-17 2.5176095436367738e-17 0.9993616943547696 0.03572399552393162
12617894666.666666 0.9996673285958976 0.02579209448206129 -9.682238163727613e-17 2.6143078865102986e-17 -9.682238163727613e-17 2.6143078865102986e-17 0.9996673116209053 0.02579275240181557
12618512000.0 0.9998742491758005 0.01585830492069171 -9.653655148145039e-17 2.7107056448430496e-17 -9.653655148145039e-17 2.7107056448430496e-17 0.9998742387391312 0.01585896294443653
12619129333.333334 0.9999824591790114 0.005922949782529918 -9.62411310294677e-17 2.8067932499161775e-17 -9.62411310294677e-17 2.8067932499161775e-17 0.9999824552810537 0.005923607845296177
12619746666.666666 0.9999919479227872 -0.004012990084418099 -9.59361537190384e-17 2.9025611679163944e-17 -9.59361537190384e-17 2.9025611679163944e-17 0.9999919505632878 -0.004012332047596951
12620364000.0 0.9999027144704469 -0.013948533774591907 -9.562165393490768e-17 2.9979999008782796e-17 -9.562165393490768e-17 2.9979999008782796e-17 0.9999027236485041 -0.013947875828673515
12620981333.333334 0.9997147676314561 -0.02388270042128827 -9.529766700503611e-17 3.0930999876229317e-17 -9.529766700503611e-17 3.0930999876229317e-17 0.999714783345525 -0.02388204263121495
12621598666.666666 0.999428125960563 -0.033814509293893125 -9.496422919667386e-17 3.187852004696335e-17 -9.496422919667386e-17 3.187852004696335e-17 0.9994281482084529 -0.03381385172458546
12622216000.0 0.999042817755964 -0.043742979894531714 -9.4621377712356e-17 3.282246567299521e-17 -9.4621377712356e-17 3.282246567299521e-17 0.9990428465348393 -0.04374232261088214
12622833333.333334 0.9985588810565114 -0.05366713205489469 -9.426915068579393e-17 3.376274330217706e-17 -9.426915068579393e-17 3.376274330217706e-17 0.9985589163628927 -0.05366647512176111
12623450666.666666 0.9979763636379576 -0.06358598603300332 -9.390758717769024e-17 3.4699259887408015e-17 -9.390758717769024e-17 3.4699259887408015e-17 0.9979764054677208 -0.06358532951520265
12624068000.0 0.9972953230082394 -0.07349856260990402 -9.353672717144426e-17 3.563192279584598e-17 -9.353672717144426e-17 3.563192279584598e-17 0.997295371356617 -0.07349790657220591
12624685333.333334 0.9965158264017914 -0.0834038831864817 -9.31566115687742e-17 3.6560639818049816e-17 -9.31566115687742e-17 3.6560639818049816e-17 0.9965158812633738 -0.08340322769360206
12625302666.666666 0.9956379507729337 -0.09330096987975828 -9.27672821852618e-17 3.748531917704687e-17 -9.27672821852618e-17 3.748531917704687e-17 0.995638012141667 -0.09330031499635279
12625920000.0 0.9946617827882361 -0.10318884561985686 -9.236878174577389e-17 3.84058695374322e-17 -9.236878174577389e-17 3.84058695374322e-17 0.9946618506574264 -0.10318819141051484
12626537333.333334 0.9935874188180016 -0.11306653424603642 -9.196115387983717e-17 3.932220001431757e-17 -9.196115387983717e-17 3.932220001431757e-17 0.9935874931803143 -0.11306588077527444
12627154666.666666 0.9924149649267309 -0.12293306060334494 -9.154444311689107e-17 4.023422018231038e-17 -9.154444311689107e-17 4.023422018231038e-17 0.9924150457741883 -0.1229324079356
12627772000.0 0.9911445368626381 -0.132787450638888 -9.11186948814572e-17 4.114184008442976e-17 -9.11186948814572e-17 4.114184008442976e-17 0.9911446241866271 -0.13278679883851197
12628389333.333334 0.9897762600462717 -0.1426287314977098 -9.068395548824419e-17 4.2044970240920185e-17 -9.068395548824419e-17 4.2044970240920185e-17 0.9897763538375363 -0.14262808062896215
12629006666.666666 0.9883102695580686 -0.1524559316192292 -9.024027213712475e-17 4.294352165810159e-17 -9.024027213712475e-17 4.294352165810159e-17 0.9883103698067192 -0.15245528174627165
12629624000.0 0.9867467101250778 -0.16226808083281904 -8.978769290806928e-17 4.3837405837074697e-17 -8.978769290806928e-17 4.3837405837074697e-17 0.986746816820586 -0.16226743201970836
12630241333.333334 0.985085736106619 -0.1720642104538635 -8.932626675595969e-17 4.4726534782442205e-17 -8.932626675595969e-17 4.4726534782442205e-17 0.9850858492378219 -0.1720635627645458
12630858666.666666 0.9833275114791055 -0.18184335337905422 -8.885604350534092e-17 4.5610821010930634e-17 -8.885604350534092e-17 4.5610821010930634e-17 0.9833276310342063 -0.18184270687735835
12631476000.0 0.9814722098197836 -0.1916045441822856 -8.83770738450561e-17 4.64901775600149e-17 -8.83770738450561e-17 4.64901775600149e-17 0.981472335786352 -0.19160389893191687
12632093333.333334 0.9795200142896615 -0.20134681920957206 -8.788940932284242e-17 4.736451799640192e-17 -8.788940932284242e-17 4.736451799640192e-17 0.9795201466546355 -0.20134617527410612
12632710666.666666 0.9774711176154032 -0.21106921667435177 -8.739310233980476e-17 4.8233756424530845e-17 -8.739310233980476e-17 4.8233756424530845e-17 0.9774712563650908 -0.2110685741172283
12633328000.0 0.9753257220702762 -0.22077077675254808 -8.688820614481242e-17 4.909780749500018e-17 -8.688820614481242e-17 4.909780749500018e-17 0.9753258671903569 -0.22077013563706452
12633945333.333334 0.9730840394542096 -0.23045054167718645 -8.637477482883363e-17 4.995658641290266e-17 -8.637477482883363e-17 4.995658641290266e-17 0.9730841909297335 -0.23044990206649138
12634562666.666666 0.9707462910728896 -0.2401075558329204 -8.58528633191602e-17 5.081000894614786e-17 -8.58528633191602e-17 5.081000894614786e-17 0.9707464488882831 -0.24010691779000815
12635180000.0 0.9683127077158982 -0.24974086585045677 -8.532252737357339e-17 5.165799143368554e-17 -8.532252737357339e-17 5.165799143368554e-17 0.9683128718549621 -0.24974022943816046
12635797333.333334 0.9657835296339244 -0.25934952070067435 -8.478382357441191e-17 5.250045079369837e-17 -8.478382357441191e-17 5.250045079369837e-17 0.9657837000798373 -0.2593488859816601
12636414666.666666 0.9631590065150829 -0.26893257178837493 -8.423680932257314e-17 5.333730453170819e-17 -8.423680932257314e-17 5.333730453170819e-17 0.9631591832504026 -0.2689319388251357
12637032000.0 0.9604393974601907 -0.27848907304620624 -8.368154283142059e-17 5.416847074864504e-17 -8.368154283142059e-17 5.416847074864504e-17 0.9604395804668568 -0.27848844190105565
12637649333.333334 0.9576249709572637 -0.2880180810277862 -8.311808312061881e-17 5.49938681488405e-17 -8.311808312061881e-17 5.49938681488405e-17 0.9576251602165967 -0.28801745176285204
12638266666.666666 0.954716004854972 -0.2975186550009801 -8.254649000989772e-17 5.581341604794588e-17 -8.254649000989772e-17 5.581341604794588e-17 0.9547162003476765 -0.29751802767819807
12638884000.0 0.9517127863352132 -0.3069898570407433 -8.196682411272528e-17 5.662703438080701e-17 -8.196682411272528e-17 5.662703438080701e-17 0.9517129880413823 -0.30698923172185205
12639501333.333334 0.9486156118847592 -0.3164307521217453 -8.137914682990919e-17 5.743464370926474e-17 -8.137914682990919e-17 5.743464370926474e-17 0.9486158197838752 -0.3164301288682799
12640118666.666666 0.9454247872660475 -0.32584040821048943 -8.078352034313318e-17 5.823616522987274e-17 -8.078352034313318e-17 5.823616522987274e-17 0.9454250013369808 -0.3258397870837742
12640736000.0 0.9421406274868099 -0.3352178963578625 -8.018000760837269e-17 5.903152078161066e-17 -8.018000760837269e-17 5.903152078161066e-17 0.9421408477078246 -0.335217277419006
12641353333.333334 0.9387634567692501 -0.3445622907900377 -7.956867234931927e-17 5.982063285341586e-17 -7.956867234931927e-17 5.982063285341586e-17 0.9387636831180067 -0.3445616740999271
12641970666.666666 0.9352936085178084 -0.35387266900054226 -7.894957905063773e-17 6.060342459177177e-17 -7.894957905063773e-17 6.060342459177177e-17 0.935293840971363 -0.35387205461983623
12642588000.0 0.9317314252863446 -0.3631481118410333 -7.832279295121202e-17 6.137981980814341e-17 -7.832279295121202e-17 6.137981980814341e-17 0.9317316638211536 -0.3631474998301569
12643205333.333334 0.9280772587443249 -0.37238770361204077 -7.76883800372893e-17 6.214974298638182e-17 -7.76883800372893e-17 6.214974298638182e-17 0.9280775033362478 -0.3723870940311795
12643822666.666666 0.9243314696420208 -0.3815905321535794 -7.704640703556302e-17 6.29131192900417e-17 -7.704640703556302e-17 6.29131192900417e-17 0.9243317202663195 -0.3815899250626723
12644440000.0 0.9204944277750063 -0.3907556889349078 -7.63969414061835e-17 6.366987456963108e-17 -7.63969414061835e-17 6.366987456963108e-17 0.9204946844063506 -0.39075508439364254
12645057333.333334 0.916566511947601 -0.3998822691443547 -7.57400513356955e-17 6.44199353697909e-17 -7.57400513356955e-17 6.44199353697909e-17 0.9165667745600705 -0.39988166721216184
12645674666.666666 0.9125481099354875 -0.40896937177861975 -7.507580572990746e-17 6.516322893640017e-17 -7.507580572990746e-17 6.516322893640017e-17 0.9125483785025735 -0.408968772514666
12646292000.0 0.9084396184473448 -0.4180160997319033 -7.440427420666874e-17 6.589968322363318e-17 -7.440427420666874e-17 6.589968322363318e-17 0.9084398929419534 -0.4180155031950865
12646909333.333334 0.9042414430858459 -0.42702155988410856 -7.372552708863414e-17 6.66292269008791e-17 -7.372552708863414e-17 6.66292269008791e-17 0.9042417234803009 -0.42702096613305146
12647526666.666666 0.8999539983074532 -0.4359848631893757 -7.303963539589934e-17 6.735178935965744e-17 -7.303963539589934e-17 6.735178935965744e-17 0.8999542845734985 -0.4359842722824204
12648144000.0 0.8955777073815834 -0.4449051247636697 -7.234667083860002e-17 6.806730072042163e-17 -7.234667083860002e-17 6.806730072042163e-17 0.8955779994903864 -0.44490453675887187
12648761333.333334 0.8911130023488221 -0.4537814639721395 -7.164670580943983e-17 6.877569183929371e-17 -7.164670580943983e-17 6.877569183929371e-17 0.8911133002709759 -0.45378087892726254
12649378666.666666 0.8865603239782844 -0.4626130045160312 -7.093981337616414e-17 6.947689431470994e-17 -7.093981337616414e-17 6.947689431470994e-17 0.8865606276838117 -0.462612422488541
12649996000.0 0.8819201217240384 -0.47139887451932666 -7.02260672739392e-17 7.017084049401976e-17 -7.02260672739392e-17 7.017084049401976e-17 0.8819204311823927 -0.471398295566385
12650613333.333334 0.8771928536807827 -0.4801382066147155 -6.950554189769353e-17 7.085746347998073e-17 -6.950554189769353e-17 7.085746347998073e-17 0.877193168860854 -0.4801376307931758
12651230666.666666 0.8723789865386253 -0.48883013802922526 -6.877831229439784e-17 7.15366971371737e-17 -6.877831229439784e-17 7.15366971371737e-17 0.8723793074087407 -0.48882956539562566
12651848000.0 0.8674789955369533 -0.49747381066949553 -6.804445415524368e-17 7.220847609837517e-17 -6.804445415524368e-17 7.220847609837517e-17 0.8674793220648817 -0.4974732412800543
12652465333.333334 0.862493364417585 -0.5060683712063675 -6.730404380781993e-17 7.287273577079438e-17 -6.730404380781993e-17 7.287273577079438e-17 0.8624936965705402 -0.5060678051169772
12653082666.666666 0.8574225853770299 -0.5146129711591039 -6.655715820818983e-17 7.352941234226704e-17 -6.655715820818983e-17 7.352941234226704e-17 0.8574229231216738 -0.514612408425326
12653700000.0 0.852267159017769 -0.5231067669793735 -6.580387493289642e-17 7.417844278737688e-17 -6.580387493289642e-17 7.417844278737688e-17 0.8522675023202139 -0.5231062076564323
12654317333.333334 0.8470275942989741 -0.5315489201342837 -6.504427217096048e-17 7.481976487345156e-17 -6.504427217096048e-17 7.481976487345156e-17 0.8470279431247887 -0.5315483642770623
12654934666.666666 0.8417044084862102 -0.5399385971892622 -6.42784287157576e-17 7.545331716652989e-17 -6.42784287157576e-17 7.545331716652989e-17 0.8417047628004196 -0.5399380448522956
12655552000.0 0.8362981271003042 -0.5482749698904315 -6.350642395688073e-17 7.607903903720977e-17 -6.350642395688073e-17 7.607903903720977e-17 0.8362984868673953 -0.5482744211279015
12656169333.333334 0.8308092838656159 -0.5565572152461349 -6.272833787194431e-17 7.669687066641537e-17 -6.272833787194431e-17 7.669687066641537e-17 0.8308096490495414 -0.5565566701118658
12656786666.666666 0.8252384206571972 -0.5647845156084271 -6.194425101830185e-17 7.730675305110561e-17 -6.194425101830185e-17 7.730675305110561e-17 0.825238791221378 -0.5647839741558796
12657404000.0 0.8195860874473863 -0.5729560587536496 -6.115424452474106e-17 7.790862800987146e-17 -6.115424452474106e-17 7.790862800987146e-17 0.8195864633547169 -0.572955521035916
12658021333.333334 0.813852842251419 -0.5810710379627576 -6.035840008309897e-17 7.85024381884701e-17 -6.035840008309897e-17 7.85024381884701e-17 0.813853223464269 -0.581070504032556
12658638666.666666 0.8080392510725182 -0.5891286521007062 -5.95567999398609e-17 7.908812706524409e-17 -5.95567999398609e-17 7.908812706524409e-17 0.8080396375527369 -0.5891281220103753
12659256000.0 0.8021458878457841 -0.597128105695863 -5.874952688765163e-17 7.966563895649773e-17 -5.874952688765163e-17 7.966563895649773e-17 0.8021462795547057 -0.5971275794973585
12659873333.333334 0.7961733343817018 -0.6050686090183107 -5.793666425673085e-17 8.023491902174462e-17 -5.793666425673085e-17 8.023491902174462e-17 0.796173731280148 -0.6050680867631983
12660490666.666666 0.7901221803087228 -0.6129493781577903 -5.711829590640475e-17 8.079591326889453e-17 -5.711829590640475e-17 8.079591326889453e-17 0.7901225823570055 -0.612948859897241
12661108000.0 0.78399302301481 -0.6207696351014053 -5.629450621638645e-17 8.134856855935127e-17 -5.629450621638645e-17 8.134856855935127e-17 0.7839934301727379 -0.6207691208861915
12661725333.333334 0.7777864675888102 -0.6285286078099795 -5.54653800781412e-17 8.189283261300187e-17 -5.54653800781412e-17 8.189283261300187e-17 0.7777868798156921 -0.62852809769047
12662342666.666666 0.7715031267604601 -0.6362255302946153 -5.4631002886136416e-17 8.242865401314877e-17 -5.4631002886136416e-17 8.242865401314877e-17 0.7715035440151061 -0.6362250243207678
12662960000.0 0.7651436208399938 -0.6438596426921742 -5.3791460529081987e-17 8.295598221132814e-17 -5.3791460529081987e-17 8.295598221132814e-17 0.7651440430807239 -0.6438591409135338
12663577333.333334 0.7587085776568925 -0.65143019134032 -5.2946839381098836e-17 8.347476753205646e-17 -5.2946839381098836e-17 8.347476753205646e-17 0.7587090048415374 -0.6514296938060119
12664194666.666666 0.7521986324979184 -0.6589364288518981 -5.209722629286774e-17 8.398496117747037e-17 -5.209722629286774e-17 8.398496117747037e-17 0.7521990645838251 -0.6589359356106245
12664812000.0 0.7456144280443238 -0.6663776141888069 -5.124270858271035e-17 8.448651523189209e-17 -5.124270858271035e-17 8.448651523189209e-17 0.7456148649883602 -0.6663771252888412
12665429333.333334 0.7389566143084968 -0.673753012735048 -5.038337402763621e-17 8.497938266629846e-17 -5.038337402763621e-17 8.497938266629846e-17 0.7389570560670548 -0.6737525282242303
12666046666.666666 0.7322258485698111 -0.6810618963692294 -4.9519310854361643e-17 8.54635173426904e-17 -4.9519310854361643e-17 8.54635173426904e-17 0.7322262950988114 -0.6810614162949615
12666664000.0 0.7254227953095433 -0.6883035435366567 -4.865060773023584e-17 8.593887401840066e-17 -4.865060773023584e-17 8.593887401840066e-17 0.725423246564441 -0.6883030679458989
12667281333.333334 0.7185481261455668 -0.6954772393202568 -4.777735375421188e-17 8.640540835026187e-17 -4.777735375421188e-17 8.640540835026187e-17 0.7185485820813533 -0.6954767682595205
12667898666.666666 0.7116025197657702 -0.7025822755114429 -4.689963844769447e-17 8.68630768987287e-17 -4.689963844769447e-17 8.68630768987287e-17 0.711602980336981 -0.7025818090267898
12668516000.0 0.7045866618611764 -0.7096179506799093 -4.6017551745388184e-17 8.731183713188626e-17 -4.6017551745388184e-17 8.731183713188626e-17 0.7045871270218929 -0.7096174888169439
12669133333.333334 0.6975012450583464 -0.716583570242778 -4.513118398611533e-17 8.775164742936204e-17 -4.513118398611533e-17 8.775164742936204e-17 0.6975017147622012 -0.7165831130466437
12669750666.666666 0.6903469688508239 -0.7234784465333506 -4.424062590357428e-17 8.818246708615602e-17 -4.424062590357428e-17 8.818246708615602e-17 0.690347443051006 -0.7234779940487263
12670368000.0 0.6831245395301555 -0.7303018988689156 -4.3345968617071696e-17 8.860425631637242e-17 -4.3345968617071696e-17 8.860425631637242e-17 0.6831250181794143 -0.7303014511400104
12670985333.333334 0.6758346701162499 -0.7370532536178713 -4.244730362223017e-17 8.901697625685357e-17 -4.244730362223017e-17 8.901697625685357e-17 0.675835153166901 -0.7370528106884212
