! Parameters = {f0=12700.012000; bw=77.238000; Q=6100.000000; N=10; m_0_1=1.195490; m_1_1=-0.832388; m_1_2=1.030302; m_2_2=-0.833037; m_2_3=0.667265; m_2_8=-0.003162; m_2_9=0.033542; m_3_3=-0.834974; m_3_4=0.555794; m_3_7=-0.002562; m_3_8=-0.099650; m_3_9=-0.003162; m_4_4=-0.837899; m_4_5=0.392129; m_4_6=0.000955; m_4_7=-0.120199; m_4_8=-0.002562; m_5_5=-0.837517; m_5_6=0.799484; m_5_7=0.000955; m_6_6=-0.837518; m_6_7=0.392471; m_7_7=-0.837885; m_7_8=0.555912; m_8_8=-0.834976; m_8_9=0.667578; m_9_9=-0.833042; m_9_10=1.031380; m_10_10=-0.832398; m_10_11=1.196285}
!
! Created with skrf (http://scikit-rf.org).
# Hz S RI R 50.0 
!freq ReS11 ImS11 ReS21 ImS21 ReS12 ImS12 ReS22 ImS22
12607400000.0 -0.22493513559186235 0.9743737397816684 -4.6907721610824674e-18 -7.663547649307673e-17 -4.6907721610824674e-18 -7.663547649307673e-17 -0.22493574943200914 0.9743735980758633
12608017333.333334 -0.21682041033079089 0.9762115086720868 -5.333976718832274e-18 -7.657832093595413e-17 -5.333976718832274e-18 -7.657832093595413e-17 -0.21682102529858818 0.9762113720851201
12608634666.666666 -0.20869067542737474 0.9779816981873992 -5.976552096926806e-18 -7.65157717840989e-17 -5.976552096926806e-18 -7.65157717840989e-17 -0.20869129148014248 0.977981566728225
12609252000.0 -0.200546493672015 0.9796841857842273 -6.618453108168846e-18 -7.64478355728571e-17 -6.618453108168846e-18 -7.64478355728571e-17 -0.20054711076700188 0.9796840594614428
12609869333.333334 -0.1923884288551002 0.9813188536059574 -7.259634630732769e-18 -7.637451921580631e-17 -7.259634630732769e-18 -7.637451921580631e-17 -0.1923890469494871 0.9813187324278035
12610486666.666666 -0.18421704572820066 0.9828855884908559 -7.900051611310236e-18 -7.629583000412076e-17 -7.900051611310236e-18 -7.629583000412076e-17 -0.18421766477910387 0.9828854724652193
12611104000.0 -0.17603290996475046 0.9843842819799519 -8.539659068306139e-18 -7.621177560590378e-17 -8.539659068306139e-18 -7.621177560590378e-17 -0.1760335299292235 0.9843841711143573
12611721333.333334 -0.16783658812108185 0.9858148303244972 -9.178412094941628e-18 -7.612236406550415e-17 -9.178412094941628e-18 -7.612236406550415e-17 -0.16783720895611984 0.9858147246261153
12612338666.666666 -0.15962864759715065 0.9871771344931716 -9.816265862434992e-18 -7.602760380279537e-17 -9.816265862434992e-18 -7.602760380279537e-17 -0.15962926925969215 0.9871770339688115
12612956000.0 -0.15140965659705974 0.9884711001789606 -1.0453175623132565e-17 -7.592750361243462e-17 -1.0453175623132565e-17 -7.592750361243462e-17 -0.15141027904399082 0.9884710048350759
12613573333.333334 -0.14318018409006186 0.9896966378056354 -1.1089096713613244e-17 -7.582207266309792e-17 -1.1089096713613244e-17 -7.582207266309792e-17 -0.1431808072782182 0.9896965476483189
12614190666.666666 -0.13494079977097564 0.9908536625339854 -1.1723984557846287e-17 -7.571132049668122e-17 -1.1723984557846287e-17 -7.571132049668122e-17 -0.13494142365714576 0.9908535775689695
12614808000.0 -0.12669207402069083 0.9919420942676943 -1.235779467028983e-17 -7.559525702748184e-17 -1.235779467028983e-17 -7.559525702748184e-17 -0.12669269856161933 0.9919420145003527
12615425333.333334 -0.11843457786688069 0.9929618576588618 -1.2990482658994934e-17 -7.547389254135328e-17 -1.2990482658994934e-17 -7.547389254135328e-17 -0.11843520301927093 0.9929617830942071
12616042666.666666 -0.11016888294427434 0.9939128821132434 -1.3622004228718813e-17 -7.534723769483061e-17 -1.3622004228718813e-17 -7.534723769483061e-17 -0.11016950866479185 0.9939128127559287
12616660000.0 -0.10189556145516955 0.9947951017951281 -1.4252315184010798e-17 -7.521530351423325e-17 -1.4252315184010798e-17 -7.521530351423325e-17 -0.10189618770044452 0.9947950376494442
12617277333.333334 -0.09361518612987754 0.9956084556318874 -1.488137143229209e-17 -7.507810139474174e-17 -1.488137143229209e-17 -7.507810139474174e-17 -0.09361581285650818 0.9956083967017647
12617894666.666666 -0.08532833018701888 0.9963528873182128 -1.5509128986935807e-17 -7.493564309944777e-17 -1.5509128986935807e-17 -7.493564309944777e-17 -0.08532895735157432 0.99635283360722
12618512000.0 -0.07703556729375666 0.9970283453200177 -1.613554397034015e-17 -7.478794075837683e-17 -1.613554397034015e-17 -7.478794075837683e-17 -0.07703619485278002 0.9970282968313627
12619129333.333334 -0.06873747152628204 0.9976347828779912 -1.676057261697168e-17 -7.463500686749125e-17 -1.676057261697168e-17 -7.463500686749125e-17 -0.06873809943629335 0.9976347396145196
12619746666.666666 -0.0604346173298748 0.9981721580108491 -1.7384171276429037e-17 -7.447685428766028e-17 -1.7384171276429037e-17 -7.447685428766028e-17 -0.06043524554737396 0.9981721199750431
12620364000.0 -0.05212757947922154 0.9986404335182317 -1.8006296416476133e-17 -7.431349624360959e-17 -1.8006296416476133e-17 -7.431349624360959e-17 -0.052128207960691564 0.9986404007122137
12620981333.333334 -0.0438169330387116 0.999039576983277 -1.8626904626066012e-17 -7.414494632284663e-17 -1.8626904626066012e-17 -7.414494632284663e-17 -0.04381756174062142 0.9990395494088061
12621598666.666666 -0.035503253322428846 0.9993695607748755 -1.924595261837574e-17 -7.39712184745539e-17 -1.924595261837574e-17 -7.39712184745539e-17 -0.03550388220123642 0.9993695384333486
12622216000.0 -0.027187115854551948 0.99963036204957 -1.986339723380008e-17 -7.37923270084667e-17 -1.986339723380008e-17 -7.37923270084667e-17 -0.027187744866707227 0.9996303449420221
12622833333.333334 -0.018869096329257488 0.9998219627531503 -2.0479195442968382e-17 -7.360828659371593e-17 -2.0479195442968382e-17 -7.360828659371593e-17 -0.01886972543120545 0.9998219508802527
12623450666.666666 -0.010549770571207694 0.9999443496218869 -2.1093304349719773e-17 -7.341911225765502e-17 -2.1093304349719773e-17 -7.341911225765502e-17 -0.010550399719391387 0.9999443429839506
12624068000.0 -0.0022297144953474977 0.9999975141834665 -2.170568119408656e-17 -7.32248193846567e-17 -2.170568119408656e-17 -7.32248193846567e-17 -0.002230343646211011 0.9999975127804384
12624685333.333334 0.006090495932907167 0.9999814527575677 -2.2316283355277236e-17 -7.302542371488162e-17 -2.2316283355277236e-17 -7.302542371488162e-17 0.006089866822915662 0.9999814565890323
12625302666.666666 0.01441028473717171 0.9998961664561163 -2.2925068354606944e-17 -7.282094134303529e-17 -2.2925068354606944e-17 -7.282094134303529e-17 0.014409655711596955 0.9998961755212971
12625920000.0 0.022729075970590765 0.9997416611832108 -2.3531993858468543e-17 -7.261138871708395e-17 -2.3531993858468543e-17 -7.261138871708395e-17 0.02272844707296742 0.9997416754809688
12626537333.333334 0.031046293755083592 0.9995179476347167 -2.4137017681251e-17 -7.239678263695962e-17 -2.4137017681251e-17 -7.239678263695962e-17 0.031045665028933158 0.9995179671635497
12627154666.666666 0.03936136232157931 0.9992250412975213 -2.4740097788268806e-17 -7.217714025323316e-17 -2.4740097788268806e-17 -7.217714025323316e-17 0.039360733810407174 0.9992250660555657
12627772000.0 0.04767370604996034 0.9988629624484562 -2.5341192298679502e-17 -7.19524790657627e-17 -2.5341192298679502e-17 -7.19524790657627e-17 0.04767307779725277 0.9988629924334871
12628389333.333334 0.05598274950842756 0.9984317361529138 -2.5940259488368937e-17 -7.172281692232598e-17 -2.5940259488368937e-17 -7.172281692232598e-17 0.05598212155764868 0.9984317713623441
12629006666.666666 0.06428791749395994 0.9979313922630825 -2.653725779285256e-17 -7.148817201721709e-17 -2.653725779285256e-17 -7.148817201721709e-17 0.06428728988854879 0.997931432693965
12629624000.0 0.07258863507159437 0.99736196541591 -2.7132145810142303e-17 -7.124856288982889e-17 -2.7132145810142303e-17 -7.124856288982889e-17 0.07258800785496165 0.9973620110649348
12630241333.333334 0.08088432761459485 0.9967234950306827 -2.772488230361477e-17 -7.100400842320522e-17 -2.772488230361477e-17 -7.100400842320522e-17 0.08088370083012034 0.9967235458941799
12630858666.666666 0.08917442084397675 0.9960160253063128 -2.831542620484251e-17 -7.075452784257933e-17 -2.831542620484251e-17 -7.075452784257933e-17 0.08917379453500587 0.9960160813802517
12631476000.0 0.09745834086848842 0.9952396052182636 -2.8903736616464635e-17 -7.050014071386774e-17 -2.8903736616464635e-17 -7.050014071386774e-17 0.09745771507832961 0.9952396664982534
12632093333.333334 0.10573551422414142 0.9943942885151751 -2.948977281497796e-17 -7.024086694216752e-17 -2.948977281497796e-17 -7.024086694216752e-17 0.10573488899606283 0.9943943549964643
12632710666.666666 0.11400536791399386 0.9934801337151331 -3.007349425355286e-17 -6.997672677021456e-17 -3.007349425355286e-17 -6.997672677021456e-17 0.11400474329122064 0.9934802053926118
12633328000.0 0.12226732944787386 0.9924972041016179 -3.0654860564853426e-17 -6.97077407768108e-17 -3.0654860564853426e-17 -6.97077407768108e-17 0.122266705473585 0.9924972809698168
12633945333.333334 0.13052082688195382 0.9914455677191246 -3.1233831563786107e-17 -6.943392987525319e-17 -3.1233831563786107e-17 -6.943392987525319e-17 0.13052020359927888 0.9914456497722134
12634562666.666666 0.13876528885825892 0.9903252973684602 -3.1810367250292066e-17 -6.91553153117146e-17 -3.1810367250292066e-17 -6.91553153117146e-17 0.13876466631027592 0.9903253846002542
12635180000.0 0.1470001446444185 0.9891364706016883 -3.238442781209367e-17 -6.88719186636159e-17 -3.238442781209367e-17 -6.88719186636159e-17 0.14699952287415013 0.9891365630056426
12635797333.333334 0.15522482417297762 0.987879169716779 -3.295597362743044e-17 -6.858376183797322e-17 -3.295597362743044e-17 -6.858376183797322e-17 0.15522420322338853 0.9878792672859916
12636414666.666666 0.16343875808094543 0.9865534817519034 -3.3524965267788726e-17 -6.82908670697196e-17 -3.3524965267788726e-17 -6.82908670697196e-17 0.16343813799493923 0.9865535844791152
12637032000.0 0.1716413777492939 0.9851594984793923 -3.409136350061804e-17 -6.799325692000225e-17 -3.409136350061804e-17 -6.799325692000225e-17 0.1716407585697104 0.9851596063569893
12637649333.333334 0.17983211534212548 0.9836973163994208 -3.465512929201352e-17 -6.769095427446771e-17 -3.465512929201352e-17 -6.769095427446771e-17 0.1798314971117373 0.983697429419431
12638266666.666666 0.18801040384617707 0.9821670367332851 -3.521622380941013e-17 -6.738398234151067e-17 -3.521622380941013e-17 -6.738398234151067e-17 0.1880097866076872 0.982167154887383
12638884000.0 0.19617567710998948 0.9805687654164196 -3.577460842424248e-17 -6.707236465051101e-17 -3.577460842424248e-17 -6.707236465051101e-17 0.19617506090602793 0.9805688886959245
12639501333.333334 0.20432736988304337 0.9789026130910683 -3.633024471459094e-17 -6.675612505004736e-17 -3.633024471459094e-17 -6.675612505004736e-17 0.2043267547561645 0.9789027414869462
12640118666.666666 0.21246491785491756 0.9771686950986235 -3.6883094467818254e-17 -6.643528770608642e-17 -3.6883094467818254e-17 -6.643528770608642e-17 0.21246430384759687 0.977168828601486
12640736000.0 0.22058775769457667 0.9753671314715923 -3.7433119683202826e-17 -6.610987710014225e-17 -3.7433119683202826e-17 -6.610987710014225e-17 0.22058714484920802 0.9753672700716993
12641353333.333334 0.22869532708889567 0.9734980469253893 -3.7980282574509744e-17 -6.577991802744146e-17 -3.7980282574509744e-17 -6.577991802744146e-17 0.22869471544778833 0.973498190612648
12641970666.666666 0.23678706478208614 0.9715615708495922 -3.852454557261075e-17 -6.544543559502886e-17 -3.852454557261075e-17 -6.544543559502886e-17 0.23678645438746232 0.9715617196135605
12642588000.0 0.24486241061419084 0.9695578372990709 -3.906587132803011e-17 -6.510645521988557e-17 -3.906587132803011e-17 -6.510645521988557e-17 0.24486180150818165 0.9695579911289539
12643205333.333334 0.2529208055600807 0.9674869849846474 -3.960422271351124e-17 -6.476300262700408e-17 -3.960422271351124e-17 -6.476300262700408e-17 0.2529201977847244 0.9674871438693023
12643822666.666666 0.2609616917680453 0.9653491572635282 -4.0139562826555266e-17 -6.441510384744875e-17 -4.0139562826555266e-17 -6.441510384744875e-17 0.2609610853652838 0.9653493211914626
12644440000.0 0.2689845125984643 0.9631445021293591 -4.0671854991926405e-17 -6.406278521640574e-17 -4.0671854991926405e-17 -6.406278521640574e-17 0.2689839076101405 0.9631446710887329
12645057333.333334 0.27698871266228803 0.9608731722019995 -4.120106276416793e-17 -6.370607337119555e-17 -4.120106276416793e-17 -6.370607337119555e-17 0.2769881091301427 0.9608733461806258
12645674666.666666 0.2849737378594019 0.9585353247169799 -4.17271499300822e-17 -6.334499524927569e-17 -4.17271499300822e-17 -6.334499524927569e-17 0.2849731358250711 0.9585355037023251
12646292000.0 0.29293903541736765 0.9561311215145053 -4.2250080511206346e-17 -6.297957808621521e-17 -4.2250080511206346e-17 -6.297957808621521e-17 0.29293843492237975 0.9561313054936915
12646909333.333334 0.30088405392911705 0.9536607290284235 -4.276981876625058e-17 -6.260984941366211e-17 -4.276981876625058e-17 -6.260984941366211e-17 0.3008834550148895 0.9536609179882267
12647526666.666666 0.30880824339158597 0.9511243182745607 -4.328632919354379e-17 -6.223583705727349e-17 -4.328632919354379e-17 -6.223583705727349e-17 0.3088076460994229 0.9511245122014144
12648144000.0 0.31671105524368 0.9485220648389153 -4.37995765334415e-17 -6.185756913463921e-17 -4.37995765334415e-17 -6.185756913463921e-17 0.3167104596147693 0.9485222637189102
12648761333.333334 0.32459194240405986 0.9458541488655661 -4.4309525770728597e-17 -6.147507405317737e-17 -4.4309525770728597e-17 -6.147507405317737e-17 0.3245913484794703 0.9458543526844518
12649378666.666666 0.3324503593092035 0.943120755044138 -4.481614213698419e-17 -6.108838050802354e-17 -4.481614213698419e-17 -6.108838050802354e-17 0.3324497671298821 0.9431209637873246
12649996000.0 0.3402857619510929 0.9403220725970481 -4.5319391112963177e-17 -6.069751747987555e-17 -4.5319391112963177e-17 -6.069751747987555e-17 0.3402851715578612 0.9403222862496039
12650613333.333334 0.34809760791497907 0.9374582952663624 -4.581923843092785e-17 -6.03025142328414e-17 -4.581923843092785e-17 -6.03025142328414e-17 0.3480970193485313 0.9374585138130181
12651230666.666666 0.35588535641674546 0.9345296213004542 -4.6315650076959415e-17 -5.990340031226999e-17 -4.6315650076959415e-17 -5.990340031226999e-17 0.3558847697176459 0.9345298447256049
12651848000.0 0.36364846834053155 0.931536253440214 -4.6808592293289875e-17 -5.950020554253225e-17 -4.6808592293289875e-17 -5.950020554253225e-17 0.36364788354921057 0.9315364817279164
12652465333.333334 0.37138640627597186 0.9284783989050378 -4.729803158056701e-17 -5.909296002482044e-17 -4.729803158056701e-17 -5.909296002482044e-17 0.37138582343272447 0.9284786320390156
12653082666.666666 0.37909863455532233 0.9253562693785211 -4.7783934700116176e-17 -5.868169413491715e-17 -4.7783934700116176e-17 -5.868169413491715e-17 0.37909805370030414 0.9253565073421627
12653700000.0 0.38678461929072444 0.922170080993725 -4.826626867621383e-17 -5.826643852091976e-17 -4.826626867621383e-17 -5.826643852091976e-17 0.38678404046394993 0.9221703237700863
12654317333.333334 0.39444382841098213 0.918920054318292 -4.874500079828717e-17 -5.784722410099151e-17 -4.874500079828717e-17 -5.784722410099151e-17 0.3944432516523212 0.9189203018900977
12654934666.666666 0.402075731698446 0.9156064143391545 -4.9220098623133697e-17 -5.742408206106159e-17 -4.9220098623133697e-17 -5.742408206106159e-17 0.40207515704762203 0.9156066666887995
12655552000.0 0.40967980082590316 0.9122293904468833 -4.969152997712094e-17 -5.699704385250697e-17 -4.969152997712094e-17 -5.699704385250697e-17 0.40967922832248926 0.9122296475564332
12656169333.333334 0.4172555093928358 0.9087892164199399 -5.015926295832733e-17 -5.656614118985021e-17 -5.015926295832733e-17 -5.656614118985021e-17 0.4172549390762529 0.9087894782711325
12656786666.666666 0.4248023329620468 0.9052861304084181 -5.0623265938718095e-17 -5.613140604839151e-17 -5.0623265938718095e-17 -5.613140604839151e-17 0.4248017648715598 0.9052863969826634
12657404000.0 0.43231974909601295 0.9017203749175265 -5.1083507566260414e-17 -5.569287066185856e-17 -5.1083507566260414e-17 -5.569287066185856e-17 0.4323191832707301 0.9017206461959122
12658021333.333334 0.4398072373929 0.8980921967908811 -5.153995676702975e-17 -5.5250567520029364e-17 -5.153995676702975e-17 -5.5250567520029364e-17 0.4398066738717679 0.8980924727541684
12658638666.666666 0.44726427952263687 0.8944018471933863 -5.199258274729908e-17 -5.480452936633509e-17 -5.199258274729908e-17 -5.480452936633509e-17 0.4472637183444397 0.8944021278220164
12659256000.0 0.4546903592629781 0.8906495815937651 -5.2441354995616384e-17 -5.435478919543669e-17 -5.2441354995616384e-17 -5.435478919543669e-17 0.45468980046633345 0.8906498668678566
12659873333.333334 0.4620849625349333 0.8868356597470216 -5.2886243284831817e-17 -5.390138025081282e-17 -5.2886243284831817e-17 -5.390138025081282e-17 0.46208440615829 0.8868359496463734
12660490666.666666 0.4694475774385325 0.8829603456763722 -5.3327217674132796e-17 -5.344433602230522e-17 -5.3327217674132796e-17 -5.344433602230522e-17 0.46944702352016887 0.882960640180466
12661108000.0 0.4767776942883149 0.8790239076549415 -5.376424851105811e-17 -5.298369024364468e-17 -5.376424851105811e-17 -5.298369024364468e-17 0.47677714286633494 0.8790242067429421
12661725333.333334 0.4840748056484351 0.8750266181872841 -5.419730643345561e-17 -5.2519476889998325e-17 -5.419730643345561e-17 -5.2519476889998325e-17 0.48407425676076615 0.8750269218380405
12662342666.666666 0.49133840636799075 0.8709687539904103 -5.4626362371469193e-17 -5.2051730175448267e-17 -5.4626362371469193e-17 -5.2051730175448267e-17 0.49133786005238145 0.8709690621824582
12662960000.0 0.498567993615795 0.8668505959747423 -5.505138754946736e-17 -5.158048455049299e-17 -5.505138754946736e-17 -5.158048455049299e-17 0.4985674499098118 0.8668509086863047
12663577333.333334 0.5057630669153806 0.8626724292245532 -5.547235348795877e-17 -5.110577469952362e-17 -5.547235348795877e-17 -5.110577469952362e-17 0.5057625258564064 0.8626727464335434
12664194666.666666 0.5129231281794532 0.8584345429783499 -5.588923200549973e-17 -5.062763553827076e-17 -5.588923200549973e-17 -5.062763553827076e-17 0.5129225898046827 0.8584348646623702
12664812000.0 0.5200476817445391 0.8541372306087445 -5.630199522055776e-17 -5.014610221125949e-17 -5.630199522055776e-17 -5.014610221125949e-17 0.5200471460909785 0.8541375567450907
12665429333.333334 0.5271362344052513 0.8497807896021756 -5.671061555337656e-17 -4.9661210089223786e-17 -5.671061555337656e-17 -4.9661210089223786e-17 0.5271357015097149 0.8497811201678379
12666046666.666666 0.5341882954482389 0.8453655215384355 -5.711506572779593e-17 -4.917299476653169e-17 -5.711506572779593e-17 -4.917299476653169e-17 0.5341877653473461 0.8453658565100991
12666664000.0 0.5412033766865907 0.8408917320695201 -5.751531877307179e-17 -4.868149205856948e-17 -5.751531877307179e-17 -4.868149205856948e-17 0.5412028494167647 0.8408920714235684
12667281333.333334 0.5481809924931025 0.8363597308988056 -5.79113480256526e-17 -4.818673799913796e-17 -5.79113480256526e-17 -4.818673799913796e-17 0.5481804680905659 0.8363600746113198
12667898666.666666 0.5551206598343024 0.8317698317593483 -5.830312713095298e-17 -4.768876883780919e-17 -5.830312713095298e-17 -4.768876883780919e-17 0.5551201383350763 0.8317701798061108
12668516000.0 0.5620218983038149 0.8271223523922085 -5.869063004509143e-17 -4.7187621037285443e-17 -5.869063004509143e-17 -4.7187621037285443e-17 0.5620213797437167 0.8271227047487053
12669133333.333334 0.5688842301553374 0.8224176145246486 -5.907383103660614e-17 -4.668333127074475e-17 -5.907383103660614e-17 -4.668333127074475e-17 0.5688837145699764 0.8224179711660676
12669750666.666666 0.575707180336111 0.8176559438475876 -5.945270468816051e-17 -4.6175936419155306e-17 -5.945270468816051e-17 -4.6175936419155306e-17 0.5757066677608872 0.8176563047488231
