! Parameters = {f0=12700.012000; bw=77.238000; Q=6100.000000; N=10; m_0_1=1.196692; m_1_1=-0.814370; m_1_2=1.031504; m_2_2=-0.815019; m_2_3=0.668467; m_2_8=-0.003102; m_2_9=0.033602; m_3_3=-0.816956; m_3_4=0.556996; m_3_7=-0.002502; m_3_8=-0.099590; m_3_9=-0.003102; m_4_4=-0.819881; m_4_5=0.393331; m_4_6=0.001015; m_4_7=-0.120139; m_4_8=-0.002502; m_5_5=-0.819499; m_5_6=0.800686; m_5_7=0.001015; m_6_6=-0.819500; m_6_7=0.393673; m_7_7=-0.819867; m_7_8=0.557114; m_8_8=-0.816958; m_8_9=0.668780; m_9_9=-0.815024; m_9_10=1.032582; m_10_10=-0.814380; m_10_11=1.197487}
!
! Created with skrf (http://scikit-rf.org).
# Hz S RI R 50.0 
!freq ReS11 ImS11 ReS21 ImS21 ReS12 ImS12 ReS22 ImS22
12607400000.0 0.4783839528304412 0.8781507807171643 -5.470156773784834e-17 -5.4545953003953567e-17 -5.470156773784834e-17 -5.4545953003953567e-17 0.47838339905508437 0.8781510823931988
12608017333.333334 0.4857047852066735 0.8741229099086592 -5.514941833249305e-17 -5.407149622557338e-17 -5.514941833249305e-17 -5.407149622557338e-17 0.48570423399834617 0.8741232161863238
12608634666.666666 0.49299170648400825 0.8700340092995376 -5.559316008296766e-17 -5.359336873941708e-17 -5.559316008296766e-17 -5.359336873941708e-17 0.49299115788094156 0.8700343201569991
12609252000.0 0.5002442079017753 0.8658843643700748 -5.603276295825219e-17 -5.3111606075727304e-17 -5.603276295825219e-17 -5.3111606075727304e-17 0.5002436619420144 0.8658846797851816
12609869333.333334 0.5074617831024665 0.8616742648415981 -5.646819723412606e-17 -5.262624400996452e-17 -5.646819723412606e-17 -5.262624400996452e-17 0.507461239823869 0.8616745847918836
12610486666.666666 0.5146439281670406 0.8574040046562884 -5.68994334951634e-17 -5.213731856016494e-17 -5.68994334951634e-17 -5.213731856016494e-17 0.5146433876072729 0.8574043291189711
12611104000.0 0.5217901416502044 0.8530738819566009 -5.732644263672903e-17 -5.164486598425572e-17 -5.732644263672903e-17 -5.164486598425572e-17 0.5217896038467387 0.8530742109085857
12611721333.333334 0.5288999246152718 0.8486841990645305 -5.774919586689998e-17 -5.1148922777411374e-17 -5.774919586689998e-17 -5.1148922777411374e-17 0.5288993896053861 0.8486845324824137
12612338666.666666 0.535972780669079 0.8442352624604695 -5.816766470842139e-17 -5.064952566933059e-17 -5.816766470842139e-17 -5.064952566933059e-17 0.5359722484898513 0.8442356003205362
12612956000.0 0.5430082159967096 0.8397273827617587 -5.858182100060081e-17 -5.014671162153985e-17 -5.858182100060081e-17 -5.014671162153985e-17 0.5430076866850164 0.8397277250399859
12613573333.333334 0.5500057393958273 0.8351608747010919 -5.899163690118992e-17 -4.964051782467029e-17 -5.899163690118992e-17 -4.964051782467029e-17 0.5500052129883414 0.83516122137315
12614190666.666666 0.5569648623110449 0.8305360571044962 -5.939708488824826e-17 -4.913098169571265e-17 -5.939708488824826e-17 -4.913098169571265e-17 0.5569643388442334 0.830536408145753
12614808000.0 0.563885098868104 0.8258532528690266 -5.979813776197629e-17 -4.8618140875265325e-17 -5.979813776197629e-17 -4.8618140875265325e-17 0.5638845783782251 0.8258536082545469
12615425333.333334 0.5707659659076574 0.8211127889403154 -6.019476864653334e-17 -4.810203322475769e-17 -6.019476864653334e-17 -4.810203322475769e-17 0.5707654484307577 0.8211131486448625
12616042666.666666 0.5776069830190724 0.8163149962896978 -6.05869509918163e-17 -4.75826968236772e-17 -6.05869509918163e-17 -4.75826968236772e-17 0.5776064685909842 0.8163153602877361
12616660000.0 0.5844076725740415 0.8114602098910554 -6.097465857523526e-17 -4.706016996675669e-17 -6.097465857523526e-17 -4.706016996675669e-17 0.5844071612303815 0.8114605781567524
12617277333.333334 0.5911675597597916 0.8065487686975262 -6.135786550344572e-17 -4.6534491161171174e-17 -6.135786550344572e-17 -4.6534491161171174e-17 0.5911670515359576 0.8065491412047543
12617894666.666666 0.5978861726123045 0.8015810156177936 -6.173654621406285e-17 -4.600569912371425e-17 -6.173654621406285e-17 -4.600569912371425e-17 0.5978856675434719 0.8015813923401299
12618512000.0 0.6045630420493567 0.7965572974920707 -6.211067547737154e-17 -4.5473832777932056e-17 -6.211067547737154e-17 -4.5473832777932056e-17 0.6045625401704786 0.7965576784028024
12619129333.333334 0.6111977019030231 0.7914779650680782 -6.248022839796713e-17 -4.4938931251305526e-17 -6.248022839796713e-17 -4.4938931251305526e-17 0.6111972032488262 0.7914783501402025
12619746666.666666 0.6177896889525186 0.786343372976331 -6.284518041642189e-17 -4.44010338723503e-17 -6.284518041642189e-17 -4.44010338723503e-17 0.6177891935575006 0.7863437621825566
12620364000.0 0.6243385429564011 0.7811538797054796 -6.32055073108935e-17 -4.3860180167749365e-17 -6.32055073108935e-17 -4.3860180167749365e-17 0.6243380508548284 0.7811542730182288
12620981333.333334 0.6308438066845707 0.7759098475773863 -6.356118519871796e-17 -4.331640985946055e-17 -6.356118519871796e-17 -4.331640985946055e-17 0.6308433179104784 0.7759102449687999
12621598666.666666 0.6373050259504878 0.7706116427216052 -6.391219053798249e-17 -4.2769762861803834e-17 -6.391219053798249e-17 -4.2769762861803834e-17 0.6373045405376733 0.7706120441635396
12622216000.0 0.6437217496426111 0.765259635050026 -6.425850012906757e-17 -4.222027927854513e-17 -6.425850012906757e-17 -4.222027927854513e-17 0.6437212676246344 0.7652600405140577
12622833333.333334 0.6500935297561162 0.7598541982308694 -6.460009111617225e-17 -4.1667999399955095e-17 -6.460009111617225e-17 -4.1667999399955095e-17 0.6500930511662977 0.7598546076882979
12623450666.666666 0.6564199214239345 0.7543957096628001 -6.493694098879542e-17 -4.1112963699884924e-17 -6.493694098879542e-17 -4.1112963699884924e-17 0.6564194462953512 0.7543961230846484
12624068000.0 0.6627004829479876 0.7488845504484307 -6.526902758322039e-17 -4.055521283278636e-17 -6.526902758322039e-17 -4.055521283278636e-17 0.6627000113134724 0.7488849678054484
12624685333.333334 0.6689347758301097 0.7433211053676365 -6.559632908395006e-17 -3.999478763075636e-17 -6.559632908395006e-17 -3.999478763075636e-17 0.6689343077222479 0.7433215266303008
12625302666.666666 0.6751223648023214 0.7377057628509927 -6.591882402512364e-17 -3.9431729100561753e-17 -6.591882402512364e-17 -3.9431729100561753e-17 0.6751219002534488 0.7377061879895112
12625920000.0 0.6812628178576031 0.7320389149523149 -6.62364912919184e-17 -3.886607842063338e-17 -6.62364912919184e-17 -3.886607842063338e-17 0.6812623568998042 0.7320393439366274
12626537333.333334 0.6873557062798225 0.7263209573214938 -6.654931012190483e-17 -3.829787693808499e-17 -6.654931012190483e-17 -3.829787693808499e-17 0.6873552489449276 0.7263213901212747
12627154666.666666 0.6934006046736482 0.7205522891768943 -6.685726010639875e-17 -3.772716616568391e-17 -6.685726010639875e-17 -3.772716616568391e-17 0.6934001509932323 0.7205527257615548
12627772000.0 0.6993970909945406 0.7147333132772095 -6.716032119177551e-17 -3.7153987778829235e-17 -6.716032119177551e-17 -3.7153987778829235e-17 0.6993966409999198 0.7147337536158993
12628389333.333334 0.7053447465777841 0.7088644358937501 -6.745847368075475e-17 -3.6578383612530106e-17 -6.745847368075475e-17 -3.6578383612530106e-17 0.7053443003000143 0.70886487995536
12629006666.666666 0.7112431561680872 0.7029460667817277 -6.775169823367231e-17 -3.60003956583462e-17 -6.775169823367231e-17 -3.60003956583462e-17 0.7112427136379614 0.702946514534891
12629624000.0 0.7170919079484112 0.6969786191518007 -6.803997586971091e-17 -3.54200660613495e-17 -6.803997586971091e-17 -3.54200660613495e-17 0.7170914691964585 0.696979070564897
12630241333.333334 0.7228905935687023 0.6909625096412485 -6.832328796812152e-17 -3.4837437117043395e-17 -6.832328796812152e-17 -3.4837437117043395e-17 0.722890158625185 0.6909629646824048
12630858666.666666 0.7286388081744452 0.6848981582848418 -6.860161626939651e-17 -3.4252551268314816e-17 -6.860161626939651e-17 -3.4252551268314816e-17 0.728638377069356 0.6848986169219342
12631476000.0 0.7343361504350029 0.6787859884854315 -6.887494287644827e-17 -3.36654511023148e-17 -6.887494287644827e-17 -3.36654511023148e-17 0.7343357231980646 0.6787864506860896
12632093333.333334 0.7399822225714456 0.6726264269845978 -6.914325025572275e-17 -3.307617934740823e-17 -6.914325025572275e-17 -3.307617934740823e-17 0.7399817992321074 0.6726268927162043
12632710666.666666 0.7455766303844977 0.6664199038326677 -6.940652123832042e-17 -3.248477887004618e-17 -6.940652123832042e-17 -3.248477887004618e-17 0.7455762109719338 0.6664203730623621
12633328000.0 0.7511189832820174 0.6601668523587285 -6.966473902107471e-17 -3.189129267166064e-17 -6.966473902107471e-17 -3.189129267166064e-17 0.751118567825126 0.6601673250534104
12633945333.333334 0.7566088943062532 0.6538677091403987 -6.991788716760172e-17 -3.129576388555942e-17 -6.991788716760172e-17 -3.129576388555942e-17 0.7566084828336515 0.6538681852667273
12634562666.666666 0.762045980160817 0.6475229139733848 -7.016594960933471e-17 -3.0698235773784493e-17 -7.016594960933471e-17 -3.0698235773784493e-17 0.7620455727008434 0.6475233934977846
12635180000.0 0.7674298612374894 0.6411329098407375 -7.040891064651912e-17 -3.009875172399483e-17 -7.040891064651912e-17 -3.009875172399483e-17 0.7674294578181985 0.6411333927293985
12635797333.333334 0.7727601616427924 0.6346981428818341 -7.06467549491943e-17 -2.9497355246306904e-17 -7.06467549491943e-17 -2.9497355246306904e-17 0.7727597622919539 0.6346986291007146
12636414666.666666 0.7780365092240337 0.6282190623614691 -7.087946755813185e-17 -2.8894089970170386e-17 -7.087946755813185e-17 -2.8894089970170386e-17 0.7780361139691309 0.6282195518762985
12637032000.0 0.7832585355955448 0.6216961206381829 -7.110703388576818e-17 -2.828899964118393e-17 -7.110703388576818e-17 -2.828899964118393e-17 0.7832581444637717 0.6216966134144635
12637649333.333334 0.7884258761642013 0.6151297731329182 -7.132943971708977e-17 -2.768212811795439e-17 -7.132943971708977e-17 -2.768212811795439e-17 0.7884254891824619 0.615130269135928
12638266666.666666 0.7935381701549514 0.6085204782971366 -7.154667121050412e-17 -2.7073519368919022e-17 -7.154667121050412e-17 -2.7073519368919022e-17 0.7935377873498572 0.6085209774919321
12638884000.0 0.7985950606360548 0.6018686975807425 -7.175871489868218e-17 -2.6463217469162952e-17 -7.175871489868218e-17 -2.6463217469162952e-17 0.7985946820339238 0.6018691999321608
12639501333.333334 0.8035961945439022 0.5951748954000011 -7.196555768936764e-17 -2.5851266597248713e-17 -7.196555768936764e-17 -2.5851266597248713e-17 0.8035958201707556 0.5951754008726621
12640118666.666666 0.8085412227076979 0.5884395391050682 -7.216718686616476e-17 -2.5237711032023345e-17 -7.216718686616476e-17 -2.5237711032023345e-17 0.808540852589259 0.5884400476633771
12640736000.0 0.8134297998739891 0.5816630989471531 -7.236359008930326e-17 -2.462259514940711e-17 -7.236359008930326e-17 -2.462259514940711e-17 0.8134294340356827 0.581663610555304
12641353333.333334 0.8182615847304225 0.5748460480461718 -7.255475539635963e-17 -2.4005963419226118e-17 -7.255475539635963e-17 -2.4005963419226118e-17 0.818261223197371 0.5748465626681486
12641970666.666666 0.8230362399299711 0.567988862357159 -7.274067120297185e-17 -2.338786040197756e-17 -7.274067120297185e-17 -2.338786040197756e-17 0.8230358827269944 0.5679893799567387
12642588000.0 0.8277534321142225 0.5610920206374079 -7.29213263035122e-17 -2.276833074563307e-17 -7.29213263035122e-17 -2.276833074563307e-17 0.8277530792658361 0.5610925411781643
12643205333.333334 0.8324128319367223 0.5541560044129545 -7.309670987174083e-17 -2.2147419182414425e-17 -7.309670987174083e-17 -2.2147419182414425e-17 0.8324124834671347 0.5541565278582583
12643822666.666666 0.8370141140860764 0.5471812979447892 -7.326681146142754e-17 -2.1525170525576904e-17 -7.326681146142754e-17 -2.1525170525576904e-17 0.837013770019189 0.547181824257813
12644440000.0 0.8415569573084761 0.5401683881953324 -7.343162100694669e-17 -2.090162966618811e-17 -7.343162100694669e-17 -2.090162966618811e-17 0.841556617667879 0.540168917339051
12645057333.333334 0.8460410444302677 0.5331177647942219 -7.35911288238484e-17 -2.027684156989013e-17 -7.35911288238484e-17 -2.027684156989013e-17 0.8460407092392405 0.5331182967314166
12645674666.666666 0.8504660623799877 0.5260299200042934 -7.374532560939557e-17 -1.9650851273680455e-17 -7.374532560939557e-17 -1.9650851273680455e-17 0.850465731661498 0.5260304546975547
12646292000.0 0.854831702210378 0.5189053486869749 -7.389420244308627e-17 -1.9023703882643098e-17 -7.389420244308627e-17 -1.9023703882643098e-17 0.8548313759870784 0.5189058860987044
12646909333.333334 0.8591376591198006 0.511744548267974 -7.403775078712857e-17 -1.839544456675162e-17 -7.403775078712857e-17 -1.839544456675162e-17 0.859137337414027 0.5117450883603867
12647526666.666666 0.8633836324735653 0.504548018702478 -7.417596248690936e-17 -1.7766118557586927e-17 -7.417596248690936e-17 -1.7766118557586927e-17 0.8633833153073361 0.5045485614376053
12648144000.0 0.8675693258250198 0.4973162624400748 -7.430882977142147e-17 -1.7135771145106515e-17 -7.430882977142147e-17 -1.7135771145106515e-17 0.8675690132200349 0.49731680777976783
12648761333.333334 0.8716944469360897 0.49004978438994395 -7.4436345253667e-17 -1.6504447674396168e-17 -7.4436345253667e-17 -1.6504447674396168e-17 0.8716941389137278 0.4900503322958753
12649378666.666666 0.8757587077977245 0.4827490918855304 -7.455850193103599e-17 -1.587219354241065e-17 -7.455850193103599e-17 -1.587219354241065e-17 0.8757584043790442 0.48274964231919826
12649996000.0 0.8797618246501221 0.47541469464892755 -7.467529318565376e-17 -1.5239054194722323e-17 -7.467529318565376e-17 -1.5239054194722323e-17 0.8797615258558562 0.47541524757165626
12650613333.333334 0.8837035180023938 0.46804710475553335 -7.478671278470459e-17 -1.4605075122252844e-17 -7.478671278470459e-17 -1.4605075122252844e-17 0.8837032238529524 0.46804766012847826
12651230666.666666 0.8875835126521409 0.46064683659820255 -7.489275488072092e-17 -1.397030185803909e-17 -7.489275488072092e-17 -1.397030185803909e-17 0.8875832231676056 0.46064739438235075
12651848000.0 0.8914015377047032 0.4532144068512549 -7.499341401185647e-17 -1.333477997393339e-17 -7.499341401185647e-17 -1.333477997393339e-17 0.8914012529048291 0.45321496700742925
12652465333.333334 0.8951573265919954 0.4457503344345533 -7.508868510211844e-17 -1.2698555077376904e-17 -7.508868510211844e-17 -1.2698555077376904e-17 0.8951570464962085 0.4457508969234151
12653082666.666666 0.8988506170911577 0.4382551404771985 -7.517856346158189e-17 -1.206167280811844e-17 -7.517856346158189e-17 -1.206167280811844e-17 0.8988503417185544 0.43825570525925023
12653700000.0 0.9024811513429145 0.43072934828104265 -7.52630447865737e-17 -1.1424178834942812e-17 -7.52630447865737e-17 -1.1424178834942812e-17 0.9024808807122581 0.43072991531662996
12654317333.333334 0.9060486758694386 0.4231734832844336 -7.53421251598256e-17 -1.0786118852428494e-17 -7.53421251598256e-17 -1.0786118852428494e-17 0.906048409999161 0.4231740525337492
12654934666.666666 0.9095529415922128 0.41558807302519823 -7.541580105060628e-17 -1.0147538577653227e-17 -7.541580105060628e-17 -1.0147538577653227e-17 0.9095526805004107 0.4155886444482839
12655552000.0 0.9129937038493288 0.407973647103988 -7.548406931481963e-17 -9.50848374694212e-18 -7.548406931481963e-17 -9.50848374694212e-18 0.9129934475537642 0.40797422066073785
12656169333.333334 0.9163707224125612 0.4003307371473304 -7.554692719507825e-17 -8.86900011260292e-18 -7.554692719507825e-17 -8.86900011260292e-18 0.91637047093066 0.40033131279749357
12656786666.666666 0.9196837615041774 0.3926598767704352 -7.560437232074961e-17 -8.229133439652726e-18 -7.560437232074961e-17 -8.229133439652726e-18 0.9196835148530261 0.3926604544736181
12657404000.0 0.9229325898133698 0.3849616015399874 -7.565640270797355e-17 -7.588929502555854e-18 -7.565640270797355e-17 -7.588929502555854e-18 0.9229323480097177 0.3849621812556578
12658021333.333334 0.9261169805124668 0.37723644893662694 -7.570301675965372e-17 -6.94843408194723e-18 -7.570301675965372e-17 -6.94843408194723e-18 0.9261167435727231 0.37723703062411584
12658638666.666666 0.9292367112726366 0.36948495831773637 -7.57442132654184e-17 -6.307692961393227e-18 -7.57442132654184e-17 -6.307692961393227e-18 0.9292364792128679 0.3694855419362406
12659256000.0 0.9322915642796029 0.36170767087930994 -7.577999140155888e-17 -5.666751924088963e-18 -7.577999140155888e-17 -5.666751924088963e-18 0.9322913371155352 0.3617082563878962
12659873333.333334 0.9352813262486815 0.35390512961858994 -7.581035073093436e-17 -5.0256567496322545e-18 -7.581035073093436e-17 -5.0256567496322545e-18 0.9352811039956966 0.35390571697619666
12660490666.666666 0.9382057884397073 0.34607787929607825 -7.583529120285399e-17 -4.384453210745314e-18 -7.583529120285399e-17 -4.384453210745314e-18 0.9382055711128422 0.3460784684615185
12661108000.0 0.9410647466717357 0.3382264663971546 -7.585481315292942e-17 -3.743187070008877e-18 -7.585481315292942e-17 -3.743187070008877e-18 0.9410645342856827 0.3382270573291195
12661725333.333334 0.9438580013370915 0.3303514390944821 -7.586891730289954e-17 -3.1019040766286102e-18 -7.586891730289954e-17 -3.1019040766286102e-18 0.9438577939061962 0.3303520317515435
12662342666.666666 0.9465853574154899 0.3224533472092277 -7.587760476042952e-17 -2.4606499631497673e-18 -7.587760476042952e-17 -2.4606499631497673e-18 0.946585154953751 0.32245394154984097
12662960000.0 0.9492466244875357 0.31453274217299443 -7.588087701888024e-17 -1.8194704422303897e-18 -7.588087701888024e-17 -1.8194704422303897e-18 0.9492464270086041 0.31453333815550183
12663577333.333334 0.9518416167480624 0.3065901769892168 -7.587873595705223e-17 -1.178411203371921e-18 -7.587873595705223e-17 -1.178411203371921e-18 0.9518414242652384 0.3065907745718495
12664194666.666666 0.9543701530191226 0.2986262061944668 -7.587118383890094e-17 -5.375179096872172e-19 -7.587118383890094e-17 -5.375179096872172e-19 0.9543699655453581 0.29862680533534897
12664812000.0 0.9568320567625912 0.29064138581990173 -7.585822331322537e-17 1.031638053498436e-19 -7.585822331322537e-17 1.031638053498436e-19 0.9568318743104859 0.2906419864770522
12665429333.333334 0.9592271560925231 0.2826362733523334 -7.583985741332919e-17 7.435883411535347e-19 -7.583985741332919e-17 7.435883411535347e-19 0.9592269786743244 0.2826368754836694
12666046666.666666 0.9615552837871361 0.27461142769535984 -7.581608955665484e-17 1.3837101332373567e-18 -7.581608955665484e-17 1.3837101332373567e-18 0.9615551114147411 0.27461203125870015
12666664000.0 0.9638162773005233 0.26656740913023586 -7.578692354438944e-17 2.0234836564880946e-18 -7.578692354438944e-17 2.0234836564880946e-18 0.9638161099854724 0.26656801408330266
12667281333.333334 0.9660099787739449 0.2585047792769159 -7.575236356104545e-17 2.6628634283474566e-18 -7.575236356104545e-17 2.6628634283474566e-18 0.9660098165274282 0.2585053855773396
12667898666.666666 0.9681362350468853 0.2504241010547646 -7.571241417401202e-17 3.3018040120756085e-18 -7.571241417401202e-17 3.3018040120756085e-18 0.9681360778797349 0.25042470866008465
12668516000.0 0.9701948976677576 0.24232593864316918 -7.566708033308e-17 3.940260019956302e-18 -7.566708033308e-17 3.940260019956302e-18 0.9701947455904517 0.24232654751083874
12669133333.333334 0.9721858229042323 0.2342108574423162 -7.561636736994176e-17 4.578186116499484e-18 -7.561636736994176e-17 4.578186116499484e-18 0.9721856759268914 0.23421146752970398
12669750666.666666 0.9741088717532891 0.22607942403363251 -7.55602809976601e-17 5.2155370216797444e-18 -7.55602809976601e-17 5.2155370216797444e-18 0.9741087298856775 0.2260800352980265
12670368000.0 0.9759639099509498 0.21793220614011752 -7.549882731011397e-17 5.852267514117963e-18 -7.549882731011397e-17 5.852267514117963e-18 0.9759637732024742 0.21793281853872756
12670985333.333334 0.9777508079815892 0.2097697725869824 -7.543201278141531e-17 6.4883324342919595e-18 -7.543201278141531e-17 6.4883324342919595e-18 0.9777506763612973 0.20977038607694337
