! Parameters = {f0=12700.012000; bw=77.238000; Q=6100.000000; N=10; m_0_1=1.182678; m_1_1=-1.024581; m_1_2=1.017490; m_2_2=-1.025230; m_2_3=0.654453; m_2_8=-0.003802; m_2_9=0.032902; m_3_3=-1.027167; m_3_4=0.542982; m_3_7=-0.003202; m_3_8=-0.100290; m_3_9=-0.003802; m_4_4=-1.030092; m_4_5=0.379317; m_4_6=0.000315; m_4_7=-0.120839; m_4_8=-0.003202; m_5_5=-1.029710; m_5_6=0.786672; m_5_7=0.000315; m_6_6=-1.029711; m_6_7=0.379659; m_7_7=-1.030078; m_7_8=0.543100; m_8_8=-1.027169; m_8_9=0.654766; m_9_9=-1.025235; m_9_10=1.018568; m_10_10=-1.024591; m_10_11=1.183473}
!
! Created with skrf (http://scikit-rf.org).
# Hz S RI R 50.0 
!freq ReS11 ImS11 ReS21 ImS21 ReS12 ImS12 ReS22 ImS22
12607400000.0 -0.9935558285269441 -0.11334379383091531 7.080499609746014e-17 -1.2476674241036693e-17 7.080499609746014e-17 -1.2476674241036693e-17 -0.9935557578847232 -0.11334441306901506
12608017333.333334 -0.9944246052568554 -0.10545000929157909 7.068867584690773e-17 -1.304228597380484e-17 7.068867584690773e-17 -1.304228597380484e-17 -0.9944245395376897 -0.10545062904079759
12608634666.666666 -0.9952306670004216 -0.09754957438012297 7.05678417943505e-17 -1.3606834938601727e-17 7.05678417943505e-17 -1.3606834938601727e-17 -0.9952306062079732 -0.09755019460132659
12609252000.0 -0.9959739629221152 -0.08964298735017821 7.044250349939109e-17 -1.417028514960548e-17 7.044250349939109e-17 -1.417028514960548e-17 -0.9959739070597354 -0.08964360800420736
12609869333.333334 -0.996654446144837 -0.08173074684336863 7.031267080823543e-17 -1.4732600705913963e-17 7.031267080823543e-17 -1.4732600705913963e-17 -0.9966543952155659 -0.08173136789104031
12610486666.666666 -0.9972720737528711 -0.07381335185789145 7.017835385294667e-17 -1.5293745793823113e-17 7.017835385294667e-17 -1.5293745793823113e-17 -0.9972720277594362 -0.07381397326000158
12611104000.0 -0.9978268067945947 -0.0658913017169049 7.003956305067601e-17 -1.5853684689118533e-17 7.003956305067601e-17 -1.5853684689118533e-17 -0.9978267657394165 -0.06589192343423118
12611721333.333334 -0.9983186102849264 -0.057965096037350373 6.989630910288445e-17 -1.6412381759322704e-17 6.989630910288445e-17 -1.6412381759322704e-17 -0.9983185741701082 -0.057965718030654124
12612338666.666666 -0.9987474532075442 -0.050035234698073805 6.974860299454e-17 -1.6969801465963273e-17 6.974860299454e-17 -1.6969801465963273e-17 -0.9987474220348795 -0.050035856928102904
12612956000.0 -0.9991133085168349 -0.042102217808470455 6.959645599329687e-17 -1.7525908366832178e-17 6.959645599329687e-17 -1.7525908366832178e-17 -0.9991132822878056 -0.0421028402359617
12613573333.333334 -0.9994161531395938 -0.034166545677086685 6.943987964866232e-17 -1.808066711822025e-17 6.943987964866232e-17 -1.808066711822025e-17 -0.9994161318553705 -0.034167168262768305
12614190666.666666 -0.9996559679764909 -0.026228718779840142 6.927888579113937e-17 -1.8634042477163965e-17 6.927888579113937e-17 -1.8634042477163965e-17 -0.9996559516379324 -0.026229341484434215
12614808000.0 -0.9998327379032742 -0.018289237728484734 6.911348653135592e-17 -1.9185999303673313e-17 6.911348653135592e-17 -1.9185999303673313e-17 -0.9998327265109265 -0.01828986051270967
12615425333.333334 -0.9999464517717166 -0.010348603239180744 6.894369425917215e-17 -1.9736502562963737e-17 6.894369425917215e-17 -1.9736502562963737e-17 -0.9999464453258129 -0.010349226063753764
12616042666.666666 -0.9999971024103212 -0.0024073161008027425 6.876952164277598e-17 -2.028551732766082e-17 6.876952164277598e-17 -2.028551732766082e-17 -0.9999971009107846 -0.002407938926442397
12616660000.0 -0.9999846866247786 0.005534122856586584 6.859098162775598e-17 -2.0833008780017013e-17 6.859098162775598e-17 -2.0833008780017013e-17 -0.999984690071219 0.005533500069157973
12617277333.333334 -0.9999092051981611 0.013475212793464215 6.840808743615861e-17 -2.1378942214110304e-17 6.840808743615861e-17 -2.1378942214110304e-17 -0.9999092135898783 0.013474590083518086
12617894666.666666 -0.9997706628908821 0.02141545289212047 6.822085256552888e-17 -2.192328303803514e-17 6.822085256552888e-17 -2.192328303803514e-17 -0.9997706762268614 0.0214148302989195
12618512000.0 -0.9995690684403836 0.029354342388670063 6.802929078792932e-17 -2.2465996776096528e-17 6.802929078792932e-17 -2.2465996776096528e-17 -0.9995690867193014 0.02935371995146577
12619129333.333334 -0.9993044345606005 0.037291380604179025 6.783341614895212e-17 -2.3007049070965012e-17 6.783341614895212e-17 -2.3007049070965012e-17 -0.9993044577808199 0.03729075836220923
12619746666.666666 -0.998976777941145 0.04522606697663861 6.76332429666988e-17 -2.3546405685869557e-17 6.76332429666988e-17 -2.3546405685869557e-17 -0.9989768061007182 0.045225444969124964
12620364000.0 -0.9985861192462581 0.05315790109236341 6.742878583075406e-17 -2.408403250674479e-17 6.742878583075406e-17 -2.408403250674479e-17 -0.9985861523429255 0.05315727935850893
12620981333.333334 -0.9981324831135138 0.061086382717408905 6.722005960114437e-17 -2.4619895544370234e-17 6.722005960114437e-17 -2.4619895544370234e-17 -0.9981325211447059 0.0610857612963956
12621598666.666666 -0.9976158981522582 0.06901101182934681 6.70070794072649e-17 -2.5153960936536352e-17 6.70070794072649e-17 -2.5153960936536352e-17 -0.9976159411150934 0.06901039076033304
12622216000.0 -0.9970363969418004 0.07693128864877102 6.678986064680706e-17 -2.568619495015609e-17 6.678986064680706e-17 -2.568619495015609e-17 -0.9970364448330865 0.07693066797088913
12622833333.333334 -0.996394016029366 0.08484671367070372 6.656841898465756e-17 -2.6216563983397672e-17 6.656841898465756e-17 -2.6216563983397672e-17 -0.9963940688456012 0.08484609342305761
12623450666.666666 -0.9956887959278005 0.09275678769606933 6.63427703517854e-17 -2.6745034567796718e-17 6.63427703517854e-17 -2.6745034567796718e-17 -0.9956888536651721 0.0927561679177319
12624068000.0 -0.9949207811129901 0.10066101186340377 6.611293094411178e-17 -2.7271573370359e-17 6.611293094411178e-17 -2.7271573370359e-17 -0.9949208437673758 0.10066039259341454
12624685333.333334 -0.9940900200210694 0.10855888768017415 6.587891722135844e-17 -2.779614719566463e-17 6.587891722135844e-17 -2.779614719566463e-17 -0.9940900875880367 0.10855826895753672
12625302666.666666 -0.9931965650453853 0.11644991705404768 6.564074590589399e-17 -2.8318722987931275e-17 6.564074590589399e-17 -2.8318722987931275e-17 -0.9931966375201924 0.11644929891772729
12625920000.0 -0.9922404725331545 0.12433360232467194 6.539843398153763e-17 -2.883926783312489e-17 6.539843398153763e-17 -2.883926783312489e-17 -0.9922405499107515 0.12433298481359319
12626537333.333334 -0.9912218027819378 0.13220944629477802 6.515199869237883e-17 -2.935774896098813e-17 6.515199869237883e-17 -2.935774896098813e-17 -0.9912218850569652 0.13220882944782217
12627154666.666666 -0.9901406200358441 0.14007695226153768 6.490145754155732e-17 -2.987413374711277e-17 6.490145754155732e-17 -2.987413374711277e-17 -0.9901407072026347 0.14007633611754028
12627772000.0 -0.9889969924814399 0.14793562404814162 6.464682829002553e-17 -3.038838971500141e-17 6.464682829002553e-17 -3.038838971500141e-17 -0.9889970845340179 0.14793500864589015
12628389333.333334 -0.9877909922434948 0.15578496603478256 6.438812895532086e-17 -3.0900484538065795e-17 6.438812895532086e-17 -3.0900484538065795e-17 -0.9877910891755778 0.155784351413014
12629006666.666666 -0.9865226953803953 0.1636244831901652 6.412537781028726e-17 -3.1410386041686105e-17 6.412537781028726e-17 -3.1410386041686105e-17 -0.9865227971853914 0.16362386938756313
12629624000.0 -0.9851921818793733 0.17145368110252868 6.385859338180976e-17 -3.191806220520123e-17 6.385859338180976e-17 -3.191806220520123e-17 -0.9851922885503881 0.17145306815772193
12630241333.333334 -0.9837995356514536 0.1792720660109416 6.358779444951184e-17 -3.242348116393018e-17 6.358779444951184e-17 -3.242348116393018e-17 -0.9837996471812839 0.17927145396250066
12630858666.666666 -0.9823448445261644 0.18707914483638405 6.331300004445775e-17 -3.2926611211142825e-17 6.331300004445775e-17 -3.2926611211142825e-17 -0.9823449609073013 0.1870785337228192
12631476000.0 -0.9808282002459731 0.1948744252129851 6.303422944781438e-17 -3.3427420800066506e-17 6.303422944781438e-17 -3.3427420800066506e-17 -0.9808283214706034 0.194873815072744
12632093333.333334 -0.9792496984605503 0.2026574155188231 6.27515021895206e-17 -3.3925878545838514e-17 6.27515021895206e-17 -3.3925878545838514e-17 -0.9792498245205542 0.2026568063902879
12632710666.666666 -0.9776094387207138 0.21042762490704212 6.24648380469317e-17 -3.4421953227465445e-17 6.24648380469317e-17 -3.4421953227465445e-17 -0.9776095696076702 0.21042701682852802
12633328000.0 -0.9759075244721015 0.2181845633370589 6.217425704343967e-17 -3.491561378978492e-17 6.217425704343967e-17 -3.491561378978492e-17 -0.9759076601772836 0.21818395634681065
12633945333.333334 -0.9741440630487309 0.22592774160505028 6.187977944709327e-17 -3.540682934539171e-17 6.187977944709327e-17 -3.540682934539171e-17 -0.9741442035631103 0.22592713574124051
12634562666.666666 -0.9723191656661799 0.2336566713750561 6.158142576919688e-17 -3.589556917656067e-17 6.158142576919688e-17 -3.589556917656067e-17 -0.9723193109804256 0.23365606667578276
12635180000.0 -0.9704329474145912 0.2413708652096939 6.127921676289069e-17 -3.638180273716515e-17 6.127921676289069e-17 -3.638180273716515e-17 -0.9704330975190696 0.24137026171297757
12635797333.333334 -0.9684855272513782 0.2490698366010376 6.097317342171985e-17 -3.686549965457677e-17 6.097317342171985e-17 -3.686549965457677e-17 -0.9684856821361547 0.2490692343448193
12636414666.666666 -0.9664770279937913 0.25675310000102386 6.066331697818767e-17 -3.7346629731554734e-17 6.066331697818767e-17 -3.7346629731554734e-17 -0.9664771876486314 0.2567524990231627
12637032000.0 -0.9644075763111061 0.2644201708523503 6.034966890229371e-17 -3.782516294812321e-17 6.034966890229371e-17 -3.782516294812321e-17 -0.9644077407254752 0.2644195711906213
12637649333.333334 -0.9622773027166731 0.27207056561886905 6.003225090005869e-17 -3.830106946343495e-17 6.003225090005869e-17 -3.830106946343495e-17 -0.9622774718797381 0.27206996731096045
12638266666.666666 -0.960086341559654 0.27970380181621984 5.97110849120292e-17 -3.877431961763117e-17 5.97110849120292e-17 -3.877431961763117e-17 -0.9600865154602821 0.2797032048997306
12638884000.0 -0.9578348310165892 0.28731939804209283 5.938619311177828e-17 -3.92448839336717e-17 5.938619311177828e-17 -3.92448839336717e-17 -0.9578350096433511 0.28731880255453063
12639501333.333334 -0.9555229130826558 0.2949168740066993 5.905759790438152e-17 -3.97127331191701e-17 5.905759790438152e-17 -3.97127331191701e-17 -0.9555230964238252 0.2949162799854783
12640118666.666666 -0.9531507335627386 0.3024957505629813 5.872532192488602e-17 -4.017783806820413e-17 5.872532192488602e-17 -4.017783806820413e-17 -0.9531509216062922 0.302495158045419
12640736000.0 -0.9507184420621456 0.31005554973709876 5.838938803675009e-17 -4.0640169863134894e-17 5.838938803675009e-17 -4.0640169863134894e-17 -0.9507186347957658 0.3100549587604147
12641353333.333334 -0.9482261919773471 0.3175957947580337 5.804981933030532e-17 -4.109969977636227e-17 5.804981933030532e-17 -4.109969977636227e-17 -0.9482263893884213 0.3175952053593465
12641970666.666666 -0.945674140486138 0.32511601008817226 5.770663912115191e-17 -4.1556399272141455e-17 5.770663912115191e-17 -4.1556399272141455e-17 -0.9456743425617593 0.3251154223044972
12642588000.0 -0.9430624485377734 0.3326157214531326 5.735987094858668e-17 -4.201024000832044e-17 5.735987094858668e-17 -4.201024000832044e-17 -0.9430626552647431 0.3326151353213797
12643205333.333334 -0.9403912808428677 0.34009445587154147 5.700953857399315e-17 -4.24611938380992e-17 5.700953857399315e-17 -4.24611938380992e-17 -0.940391492207694 0.3400938714285128
12643822666.666666 -0.9376608058629287 0.3475517416850778 5.665566597922084e-17 -4.290923281177026e-17 5.665566597922084e-17 -4.290923281177026e-17 -0.9376610218518303 0.34755115896746586
12644440000.0 -0.9348711957998053 0.3549871085880328 5.629827736495526e-17 -4.335432917844133e-17 5.629827736495526e-17 -4.335432917844133e-17 -0.9348714163987081 0.35498652763241667
12645057333.333334 -0.9320226265847695 0.362400087657101 5.593739714907864e-17 -4.3796455387737857e-17 5.593739714907864e-17 -4.3796455387737857e-17 -0.9320228517793135 0.3623995084999465
12645674666.666666 -0.929115277867495 0.3697902113807985 5.557304996500826e-17 -4.4235584091505046e-17 5.557304996500826e-17 -4.4235584091505046e-17 -0.9291155076430287 0.36978963405845316
12646292000.0 -0.9261493330046114 0.3771570136892082 5.520526066001199e-17 -4.467168814550688e-17 5.520526066001199e-17 -4.467168814550688e-17 -0.9261495673461971 0.377156438237901
12646909333.333334 -0.9231249790482515 0.3845000299831111 5.483405429354763e-17 -4.5104740611065874e-17 5.483405429354763e-17 -4.5104740611065874e-17 -0.9231252179406646 0.38449945643894917
12647526666.666666 -0.9200424067342118 0.39181879716339213 5.445945613554747e-17 -4.553471475674069e-17 5.445945613554747e-17 -4.553471475674069e-17 -0.9200426501619432 0.39181822556235923
12648144000.0 -0.9169018104698886 0.3991128536603245 5.408149166471129e-17 -4.5961584059963144e-17 5.408149166471129e-17 -4.5961584059963144e-17 -0.9169020584171446 0.39911228403827825
12648761333.333334 -0.9137033883220869 0.4063817394625231 5.3700186566782935e-17 -4.6385322208665654e-17 5.3700186566782935e-17 -4.6385322208665654e-17 -0.9137036407727883 0.40638117185519207
12649378666.666666 -0.9104473420044793 0.41362499614605863 5.331556673282231e-17 -4.680590310288571e-17 5.331556673282231e-17 -4.680590310288571e-17 -0.9104475989422669 0.4136244305890419
12649996000.0 -0.9071338768649009 0.420842166903345 5.292765825744606e-17 -4.722330085637703e-17 5.292765825744606e-17 -4.722330085637703e-17 -0.9071341382731336 0.4208416034321084
12650613333.333334 -0.903763201872384 0.42803279657197285 5.253648743706632e-17 -4.7637489798194187e-17 5.253648743706632e-17 -4.7637489798194187e-17 -0.9037634677341401 0.4280322352218474
12651230666.666666 -0.9003355296040537 0.4351964316632618 5.214208076813109e-17 -4.804844447424799e-17 5.214208076813109e-17 -4.804844447424799e-17 -0.9003357999021312 0.4351958724694407
12651848000.0 -0.8968510762315479 0.44233262039121884 5.174446494532076e-17 -4.8456139648880286e-17 5.174446494532076e-17 -4.8456139648880286e-17 -0.8968513509484686 0.44233206338875664
12652465333.333334 -0.8933100615075696 0.4494409127006467 5.1343666859758695e-17 -4.886055030639618e-17 5.1343666859758695e-17 -4.886055030639618e-17 -0.8933103406255776 0.44944035792445597
12653082666.666666 -0.88971270875198 0.4565208602956305 5.0939713597210164e-17 -4.9261651652581496e-17 5.0939713597210164e-17 -4.9261651652581496e-17 -0.8897129922530433 0.4565203077804802
12653700000.0 -0.8860592448376117 0.46357201666801345 5.0532632436242375e-17 -4.9659419116232696e-17 5.0532632436242375e-17 -4.9659419116232696e-17 -0.8860595327034246 0.4635714664485267
12654317333.333334 -0.8823499001760888 0.47059393712530284 5.012245084640728e-17 -5.0053828350637874e-17 5.012245084640728e-17 -5.0053828350637874e-17 -0.8823501923880711 0.4705933892359542
12654934666.666666 -0.8785849087032447 0.4775861788188164 4.970919648639076e-17 -5.0444855235063325e-17 4.970919648639076e-17 -5.0444855235063325e-17 -0.8785852052425445 0.47758563329393033
12655552000.0 -0.8747645078643136 0.4845483007717115 4.9292897202150754e-17 -5.0832475876225546e-17 4.9292897202150754e-17 -5.0832475876225546e-17 -0.8747648087118074 0.4845477576454597
12656169333.333334 -0.8708889385991052 0.4914798639065211 4.887358102506591e-17 -5.121666660972698e-17 4.887358102506591e-17 -5.121666660972698e-17 -0.8708892437354001 0.49147932321292104
12656786666.666666 -0.866958445326617 0.4983804310731933 4.845127617003602e-17 -5.159740400151076e-17 4.845127617003602e-17 -5.159740400151076e-17 -0.866958754732053 0.49837989284610645
12657404000.0 -0.8629732759297751 0.5052495670763895 4.802601103360863e-17 -5.197466484926607e-17 4.802601103360863e-17 -5.197466484926607e-17 -0.8629735895844225 0.5052490313495172
12658021333.333334 -0.8589336817397268 0.5120868387030524 4.759781419207061e-17 -5.234842618383955e-17 4.759781419207061e-17 -5.234842618383955e-17 -0.8589339996233899 0.5120863055099348
12658638666.666666 -0.8548399175200199 0.518891814749678 4.716671439953984e-17 -5.2718665270622145e-17 4.716671439953984e-17 -5.2718665270622145e-17 -0.8548402396122403 0.518891284123694
12659256000.0 -0.8506922414504785 0.5256640660496098 4.673274058603616e-17 -5.308535961092727e-17 4.673274058603616e-17 -5.308535961092727e-17 -0.8506925677305335 0.5256635380239717
12659873333.333334 -0.8464909151109937 0.5324031654999813 4.629592185555836e-17 -5.3448486943341534e-17 4.629592185555836e-17 -5.3448486943341534e-17 -0.8464912455578983 0.532402640107735
12660490666.666666 -0.8422362034650406 0.5391086880886291 4.585628748413559e-17 -5.380802524507016e-17 4.585628748413559e-17 -5.380802524507016e-17 -0.8422365380575494 0.5391081653626504
12661108000.0 -0.837928374842834 0.5457802109211131 4.5413866917867596e-17 -5.4163952733268147e-17 4.5413866917867596e-17 -5.4163952733268147e-17 -0.8379287135594418 0.5457796908941072
12661725333.333334 -0.833567700924557 0.5524173132471478 4.496868977097653e-17 -5.451624786633803e-17 4.496868977097653e-17 -5.451624786633803e-17 -0.8335680437435002 0.5524167959516456
12662342666.666666 -0.8291544567231478 0.559019576487255 4.4520785823818704e-17 -5.4864889345235033e-17 4.4520785823818704e-17 -5.4864889345235033e-17 -0.8291548036224082 0.5590190619556134
12662960000.0 -0.8246889205669927 0.5655865842591181 4.407018502090236e-17 -5.5209856114743835e-17 4.407018502090236e-17 -5.5209856114743835e-17 -0.8246892715242953 0.5655860725235153
12663577333.333334 -0.8201713740823041 0.5721179224039337 4.361691746890178e-17 -5.555112736473406e-17 4.361691746890178e-17 -5.555112736473406e-17 -0.8201717290751205 0.5721174134963691
12664194666.666666 -0.8156021021754563 0.57861317901239 4.316101343464914e-17 -5.588868253140947e-17 4.316101343464914e-17 -5.588868253140947e-17 -0.8156024611810061 0.5786126729646813
12664812000.0 -0.8109813930149556 0.5850719444507405 4.270250334311691e-17 -5.62225012985407e-17 4.270250334311691e-17 -5.62225012985407e-17 -0.8109817560102069 0.5850714412945219
12665429333.333334 -0.8063095380132786 0.5914938113866124 4.224141777540334e-17 -5.655256359867179e-17 4.224141777540334e-17 -5.655256359867179e-17 -0.8063099049749511 0.591493311153333
12666046666.666666 -0.8015868318085149 0.5978783748146744 4.177778746670271e-17 -5.687884961431526e-17 4.177778746670271e-17 -5.687884961431526e-17 -0.8015872027130796 0.5978778775355955
12666664000.0 -0.7968135722456969 0.6042252320822921 4.131164330424982e-17 -5.720133977914238e-17 4.131164330424982e-17 -5.720133977914238e-17 -0.7968139470693795 0.6042247377884862
12667281333.333334 -0.7919900603582058 0.6105339829146723 4.0843016325286735e-17 -5.752001477913433e-17 4.0843016325286735e-17 -5.752001477913433e-17 -0.7919904390769862 0.61053349163702
12667898666.666666 -0.7871166003485636 0.6168042294404026 4.037193771499747e-17 -5.783485555373313e-17 4.037193771499747e-17 -5.783485555373313e-17 -0.7871169829381782 0.6168037412095912
12668516000.0 -0.7821934995693466 0.6230355762164044 3.989843880443583e-17 -5.814584329697445e-17 3.989843880443583e-17 -5.814584329697445e-17 -0.7821938860052914 0.623035091062927
12669133333.333334 -0.7772210685038959 0.6292276302527644 3.94225510684594e-17 -5.845295945859361e-17 3.94225510684594e-17 -5.845295945859361e-17 -0.7772214587614262 0.6292271482069168
12669750666.666666 -0.7721996207465941 0.635380001037698 3.8944306123638534e-17 -5.875618574512567e-17 3.8944306123638534e-17 -5.875618574512567e-17 -0.772200014800725 0.6353795221295757
12670368000.0 -0.767129472983082 0.6414923005621715 3.846373572616529e-17 -5.9055504120983e-17 3.846373572616529e-17 -5.9055504120983e-17 -0.7671298708085942 0.6414918248216716
