! Parameters = {f0=12700.012000; bw=77.238000; Q=6100.000000; N=10; m_0_1=1.257953; m_1_1=0.104549; m_1_2=1.092765; m_2_2=0.103900; m_2_3=0.729728; m_2_8=-0.000039; m_2_9=0.036665; m_3_3=0.101963; m_3_4=0.618257; m_3_7=0.000561; m_3_8=-0.096527; m_3_9=-0.000039; m_4_4=0.099038; m_4_5=0.454592; m_4_6=0.004078; m_4_7=-0.117076; m_4_8=0.000561; m_5_5=0.099420; m_5_6=0.861947; m_5_7=0.004078; m_6_6=0.099419; m_6_7=0.454934; m_7_7=0.099052; m_7_8=0.618375; m_8_8=0.101961; m_8_9=0.730041; m_9_9=0.103895; m_9_10=1.093843; m_10_10=0.104539; m_10_11=1.258748}
!
! Created with skrf (http://scikit-rf.org).
# Hz S RI R 50.0 
!freq ReS11 ImS11 ReS21 ImS21 ReS12 ImS12 ReS22 ImS22
12607400000.0 -0.18896807847488237 0.9819832306701259 -1.0210027962622654e-17 -1.0395924212932511e-16 -1.0210027962622654e-17 -1.0395924212932511e-16 -0.1889687293198095 0.9819831054244691
12608017333.333334 -0.17897485262680646 0.9838536487339166 -1.1273417401630107e-17 -1.0382873075086134e-16 -1.1273417401630107e-17 -1.0382873075086134e-16 -0.17897550467949516 0.9838535301174394
12608634666.666666 -0.16896312739872954 0.9856223727064372 -1.23352046257422e-17 -1.036873495319663e-16 -1.23352046257422e-17 -1.036873495319663e-16 -0.16896378059166692 0.9856222607307517
12609252000.0 -0.15893393763291327 0.9872892197670974 -1.3395278601504836e-17 -1.0353511759783832e-16 -1.3395278601504836e-17 -1.0353511759783832e-16 -0.15893459189847478 0.987289114443126
12609869333.333334 -0.14888831997674884 0.9888540176256189 -1.4453528519098945e-17 -1.0337205520707176e-16 -1.4453528519098945e-17 -1.0337205520707176e-16 -0.1488889752472061 0.9888539189635969
12610486666.666666 -0.1388273127758036 0.9903166045398185 -1.5509843803869483e-17 -1.0319818374908818e-16 -1.5509843803869483e-17 -1.0319818374908818e-16 -0.1388279689833307 0.990316512549291
12611104000.0 -0.12875195596607225 0.9916768293323882 -1.6564114127898563e-17 -1.030135257414387e-16 -1.6564114127898563e-17 -1.030135257414387e-16 -0.12875261304275307 0.9916767440222092
12611721333.333334 -0.11866329096704807 0.9929345514064337 -1.7616229421474774e-17 -1.0281810482700004e-16 -1.7616229421474774e-17 -1.0281810482700004e-16 -0.11866394884488361 0.9929344727847682
12612338666.666666 -0.10856236057371438 0.994089640760073 -1.866607988457492e-17 -1.0261194577104707e-16 -1.866607988457492e-17 -1.0261194577104707e-16 -0.10856301918462909 0.9940895688343908
12612956000.0 -0.09845020884867105 0.995141977999863 -1.971355599831268e-17 -1.0239507445820676e-16 -1.971355599831268e-17 -1.0239507445820676e-16 -0.09845086812452064 0.9951419127769441
12613573333.333334 -0.08832788101464234 0.9960914543531083 -2.0758548536309817e-17 -1.0216751788930598e-16 -2.0758548536309817e-17 -1.0216751788930598e-16 -0.08832854088722025 0.996091395839037
12614190666.666666 -0.07819642334604299 0.9969379716791379 -2.1800948576104645e-17 -1.0192930417808725e-16 -2.1800948576104645e-17 -1.0192930417808725e-16 -0.07819708374708778 0.9969379198793064
12614808000.0 -0.06805688306103058 0.9976814424794339 -2.2840647510451608e-17 -1.016804625478243e-16 -2.2840647510451608e-17 -1.016804625478243e-16 -0.0680575439222328 0.9976813973985386
12615425333.333334 -0.05791030821312001 0.9983217899066856 -2.3877537058626874e-17 -1.0142102332781346e-16 -2.3877537058626874e-17 -1.0142102332781346e-16 -0.05791096946612931 0.9983217515487278
12616042666.666666 -0.04775774758302357 0.9988589477727191 -2.4911509277692054e-17 -1.011510179497499e-16 -2.4911509277692054e-17 -1.011510179497499e-16 -0.047758409159455846 0.9988589161410057
12616660000.0 -0.03760025057013248 0.9992928605553482 -2.5942456573692276e-17 -1.0087047894399634e-16 -2.5942456573692276e-17 -1.0087047894399634e-16 -0.037600912401576925 0.9992928356524907
12617277333.333334 -0.0274388670840762 0.9996234834041116 -2.6970271712844687e-17 -1.005794399357294e-16 -2.6970271712844687e-17 -1.005794399357294e-16 -0.027439529102102275 0.9996234652320252
12617894666.666666 -0.017274647436228866 0.9998507821449066 -2.7994847832650523e-17 -1.0027793564098197e-16 -2.7994847832650523e-17 -1.0027793564098197e-16 -0.017275309572393493 0.9998507707048112
12618512000.0 -0.0071086422310039435 0.9999747332835259 -2.901607845302635e-17 -9.996600186255445e-17 -2.901607845302635e-17 -9.996600186255445e-17 -0.007109304416858506 0.9999747285759453
12619129333.333334 0.00305809774245528 0.9999953240080802 -3.0033857487291254e-17 -9.964367548584228e-17 -3.0033857487291254e-17 -9.964367548584228e-17 0.0030574355753578263 0.9999953260328418
12619746666.666666 0.013224521619115786 0.9999125521903267 -3.104807925320221e-17 -9.931099447452369e-17 -3.104807925320221e-17 -9.931099447452369e-17 0.013223859539213859 0.9999125609465633
12620364000.0 0.02338957856678908 0.9997264263858862 -3.205863848391399e-17 -9.896799786614406e-17 -3.205863848391399e-17 -9.896799786614406e-17 0.023388916642505374 0.9997264418720335
12620981333.333334 0.033552217894322126 0.9994369658333633 -3.3065430338840605e-17 -9.861472576760559e-17 -3.3065430338840605e-17 -9.861472576760559e-17 0.03355155619405657 0.9994369880471625
12621598666.666666 0.04371138916059777 0.9990442004523512 -3.406835041454637e-17 -9.825121935052045e-17 -3.406835041454637e-17 -9.825121935052045e-17 0.04371072775272046 0.9990442293908486
12622216000.0 0.05386604228291273 0.9985481708403474 -3.5067294755544734e-17 -9.787752084646823e-17 -3.5067294755544734e-17 -9.787752084646823e-17 0.05386538123575682 0.9985482064998935
12622833333.333334 0.06401512764568743 0.9979489282685429 -3.606215986503993e-17 -9.749367354214481e-17 -3.606215986503993e-17 -9.749367354214481e-17 0.06401446702754217 0.9979489706447955
12623450666.666666 0.07415759620867399 0.9972465346765459 -3.705284271562799e-17 -9.709972177440012e-17 -3.705284271562799e-17 -9.709972177440012e-17 0.07415693608777751 0.9972465837644673
12624068000.0 0.08429239961561491 0.9964410626659611 -3.8039240759952e-17 -9.669571092516281e-17 -3.8039240759952e-17 -9.669571092516281e-17 0.08429174006014732 0.9964411184598211
12624685333.333334 0.09441849030271772 0.9955325954928766 -3.90212519413083e-17 -9.628168741625513e-17 -3.90212519413083e-17 -9.628168741625513e-17 0.0944178313807941 0.9955326579862535
12625302666.666666 0.10453482160648109 0.9945212270592966 -3.999877470413929e-17 -9.585769870412349e-17 -3.999877470413929e-17 -9.585769870412349e-17 0.1045341633861443 0.9945212962450755
12625920000.0 0.11464034787241897 0.9934070619033855 -4.097170800456291e-17 -9.542379327442528e-17 -4.097170800456291e-17 -9.542379327442528e-17 0.11463969042163281 0.9934071377737622
12626537333.333334 0.12473402456271866 0.992190215188708 -4.1939951320764576e-17 -9.498002063654157e-17 -4.1939951320764576e-17 -9.498002063654157e-17 0.12473336794936053 0.9921902977351855
12627154666.666666 0.1348148083643482 0.9908708126923061 -4.290340466336047e-17 -9.452643131797202e-17 -4.290340466336047e-17 -9.452643131797202e-17 0.1348141526562025 0.9908709019057007
12627772000.0 0.144881657297179 0.9894489907916679 -4.3861968585727496e-17 -9.406307685861299e-17 -4.3861968585727496e-17 -9.406307685861299e-17 0.14488100256192984 0.9894490866621066
12628389333.333334 0.1549335308211237 0.9879248964507004 -4.481554419420269e-17 -9.359000980496344e-17 -4.481554419420269e-17 -9.359000980496344e-17 0.15493287712634818 0.9879249989676232
12629006666.666666 0.1649693899441972 0.9862986872044722 -4.5764033158313625e-17 -9.310728370418308e-17 -4.5764033158313625e-17 -9.310728370418308e-17 0.16496873735735815 0.9862987963566344
12629624000.0 0.17498819732968418 0.9845705311429621 -4.6707337720850107e-17 -9.261495309809389e-17 -4.6707337720850107e-17 -9.261495309809389e-17 0.17498754591812327 0.9845706469184321
12630241333.333334 0.18498891740336149 0.9827406068936809 -4.7645360707940526e-17 -9.211307351704568e-17 -4.7645360707940526e-17 -9.211307351704568e-17 0.18498826723429235 0.9827407292798449
12630858666.666666 0.1949705164604827 0.9808091036032237 -4.8578005539031424e-17 -9.160170147369623e-17 -4.8578005539031424e-17 -9.160170147369623e-17 0.19496986760098428 0.9808092325867871
12631476000.0 0.2049319627728769 0.9787762209176737 -4.950517623682139e-17 -9.108089445667906e-17 -4.950517623682139e-17 -9.108089445667906e-17 0.20493131528988584 0.9787763564846593
12632093333.333334 0.2148722266953387 0.9766421689620074 -5.042677743709158e-17 -9.055071092419122e-17 -5.042677743709158e-17 -9.055071092419122e-17 0.21487158065564296 0.9766423110977599
12632710666.666666 0.22479028077205682 0.9744071683183817 -5.134271439850166e-17 -9.001121029746332e-17 -5.134271439850166e-17 -9.001121029746332e-17 0.2247896362422887 0.974407317007568
12633328000.0 0.23468509984306468 0.9720714500032792 -5.225289301232885e-17 -8.9462452954123e-17 -5.225289301232885e-17 -8.9462452954123e-17 0.23468445688969397 0.9720716052298911
12633945333.333334 0.24455566114989882 0.9696352554436966 -5.3157219812073055e-17 -8.890450022149745e-17 -5.3157219812073055e-17 -8.890450022149745e-17 0.24455501983922576 0.969635417191051
12634562666.666666 0.2544009444415634 0.9670988364521323 -5.405560198306461e-17 -8.833741436977614e-17 -5.405560198306461e-17 -8.833741436977614e-17 0.25440030483971204 0.9670990047028738
12635180000.0 0.2642199320797933 0.9644624552006043 -5.494794737194625e-17 -8.776125860510766e-17 -5.494794737194625e-17 -8.776125860510766e-17 0.2642192942527045 0.9644626299367076
12635797333.333334 0.27401160914437717 0.9617263841935175 -5.583416449611489e-17 -8.717609706258205e-17 -5.583416449611489e-17 -8.717609706258205e-17 0.27401097315780226 0.9617265653962888
12636414666.666666 0.2837749635379 0.9588909062395425 -5.671416255306192e-17 -8.658199479913513e-17 -5.671416255306192e-17 -8.658199479913513e-17 0.2837743294573933 0.9588910938896209
12637032000.0 0.2935089860906283 0.9559563144223059 -5.75878514296774e-17 -8.597901778633293e-17 -5.75878514296774e-17 -8.597901778633293e-17 0.2935083539815411 0.9559565084996672
12637649333.333334 0.3032126706645489 0.9529229120701737 -5.845514171142935e-17 -8.536723290309498e-17 -5.845514171142935e-17 -8.536723290309498e-17 0.3032120405920217 0.9529231125541294
12638266666.666666 0.3128850142574744 0.9497910127248667 -5.931594469150026e-17 -8.4746707928303e-17 -5.931594469150026e-17 -8.4746707928303e-17 0.3128843862864315 0.9497912195940698
12638884000.0 0.3225250171067992 0.9465609401090279 -6.017017237984313e-17 -8.411751153331863e-17 -6.017017237984313e-17 -8.411751153331863e-17 0.3225243913019411 0.9465611533414732
12639501333.333334 0.3321316827927011 0.9432330280928015 -6.101773751213929e-17 -8.347971327442418e-17 -6.101773751213929e-17 -8.347971327442418e-17 0.33213105921849845 0.9432332476658285
12640118666.666666 0.34170401834108305 0.939807620659348 -6.185855355868153e-17 -8.283338358517021e-17 -6.185855355868153e-17 -8.283338358517021e-17 0.3417033970617688 0.9398078465496416
12640736000.0 0.3512410343265824 0.9362850718691504 -6.269253473322821e-17 -8.217859376859484e-17 -6.269253473322821e-17 -8.217859376859484e-17 0.3512404154061469 0.9362853040527471
12641353333.333334 0.36074174497430844 0.9326657458236148 -6.351959600166085e-17 -8.151541598944169e-17 -6.351959600166085e-17 -8.151541598944169e-17 0.3607411284764913 0.932665984275901
12641970666.666666 0.3702051682621336 0.9289500166272854 -6.433965309068781e-17 -8.084392326619217e-17 -6.433965309068781e-17 -8.084392326619217e-17 0.3702045542504186 0.9289502613230035
12642588000.0 0.37963032602203983 0.9251382683492383 -6.515262249637849e-17 -8.016418946307759e-17 -6.515262249637849e-17 -8.016418946307759e-17 0.3796297145596472 0.925138519262488
12643205333.333334 0.38901624404119856 0.9212308949833947 -6.595842149265283e-17 -7.947628928197489e-17 -6.595842149265283e-17 -7.947628928197489e-17 0.3890156351910787 0.921231152087634
12643822666.666666 0.3983619521628778 0.9172283004077063 -6.675696813966896e-17 -7.878029825422943e-17 -6.675696813966896e-17 -7.878029825422943e-17 0.39836134598770484 0.9172285636757566
12644440000.0 0.40766648438643116 0.9131308983425294 -6.754818129212829e-17 -7.807629273239325e-17 -6.754818129212829e-17 -7.807629273239325e-17 0.40766588094859774 0.9131311677465793
12645057333.333334 0.41692887896728037 0.908939112307812 -6.833198060749341e-17 -7.736434988187977e-17 -6.833198060749341e-17 -7.736434988187977e-17 0.41692827832888896 0.908939387819417
12645674666.666666 0.4261481785162713 0.9046533755793391 -6.910828655412938e-17 -7.664454767252651e-17 -6.910828655412938e-17 -7.664454767252651e-17 0.42614758073912873 0.9046536571694248
12646292000.0 0.4353234300989142 0.9002741311438113 -6.987702041934964e-17 -7.591696487008197e-17 -6.987702041934964e-17 -7.591696487008197e-17 0.43532283524452664 0.9002744187826811
12646909333.333334 0.4444536853333951 0.8958018316532912 -7.063810431734967e-17 -7.518168102763485e-17 -7.063810431734967e-17 -7.518168102763485e-17 0.4444530934629604 0.895802125310625
12647526666.666666 0.45353800048896314 0.8912369393782448 -7.13914611970997e-17 -7.44387764769176e-17 -7.13914611970997e-17 -7.44387764769176e-17 0.4535374116633644 0.8912372390231029
12648144000.0 0.46257543658339895 0.886579926159794 -7.21370148501036e-17 -7.36883323195712e-17 -7.21370148501036e-17 -7.36883323195712e-17 0.4625748508631987 0.8865802317606214
12648761333.333334 0.4715650594800705 0.8818312733609455 -7.287468991807939e-17 -7.293043041832112e-17 -7.287468991807939e-17 -7.293043041832112e-17 0.47156447692550413 0.8818315848855737
12649378666.666666 0.48050593998433716 0.8769914718169141 -7.360441190055575e-17 -7.216515338806817e-17 -7.360441190055575e-17 -7.216515338806817e-17 0.4805053606553078 0.8769917892325674
12649996000.0 0.48939715393982225 0.8720610217842731 -7.43261071623668e-17 -7.139258458691202e-17 -7.43261071623668e-17 -7.139258458691202e-17 0.4893965778958933 0.8720613450575689
12650613333.333334 0.4982377823238087 0.8670404328893091 -7.503970294105715e-17 -7.06128081070957e-17 -7.503970294105715e-17 -7.06128081070957e-17 0.49823720962419854 0.8670407619862631
12651230666.666666 0.507026911342235 0.8619302240753492 -7.574512735417867e-17 -6.982590876589206e-17 -7.574512735417867e-17 -6.982590876589206e-17 0.5070263420458099 0.8619305589613776
12651848000.0 0.5157636325242431 0.8567309235490604 -7.644230940653108e-17 -6.903197209637383e-17 -7.644230940653108e-17 -6.903197209637383e-17 0.5157630666895124 0.8567312641889856
12652465333.333334 0.5244470428159589 0.8514430687259265 -7.713117899724942e-17 -6.823108433817499e-17 -7.713117899724942e-17 -6.823108433817499e-17 0.5244464805010689 0.8514434150839796
12653082666.666666 0.53307624467379 0.8460672061747332 -7.781166692683092e-17 -6.742333242814309e-17 -7.781166692683092e-17 -6.742333242814309e-17 0.5330756859365158 0.8460675582145556
12653700000.0 0.5416503461575303 0.8406038915608551 -7.848370490408189e-17 -6.66088039908985e-17 -7.848370490408189e-17 -6.66088039908985e-17 0.5416497910552742 0.840604249245509
12654317333.333334 0.5501684610220796 0.8350536895891333 -7.914722555290494e-17 -6.578758732939938e-17 -7.914722555290494e-17 -6.578758732939938e-17 0.5501679096118598 0.8350540528810957
12654934666.666666 0.5586297088093543 0.8294171739452978 -7.980216241904909e-17 -6.49597714153649e-17 -7.980216241904909e-17 -6.49597714153649e-17 0.5586291611478038 0.8294175428064737
12655552000.0 0.5670332149393674 0.8236949272366274 -8.04484499767414e-17 -6.412544587965406e-17 -8.04484499767414e-17 -6.412544587965406e-17 0.567032671082726 0.8236953016283489
12656169333.333334 0.5753781108002736 0.8178875409319648 -8.108602363518581e-17 -6.328470100262052e-17 -8.108602363518581e-17 -6.328470100262052e-17 0.5753775708043816 0.8178879208149958
12656786666.666666 0.5836635338384799 0.8119956153003577 -8.171481974501369e-17 -6.24376277043361e-17 -8.171481974501369e-17 -6.24376277043361e-17 0.5836629977587735 0.8119960006348983
12657404000.0 0.5918886276476389 0.8060197593491262 -8.233477560459517e-17 -6.158431753479951e-17 -8.233477560459517e-17 -6.158431753479951e-17 0.5918880955391447 0.8060201500948176
12658021333.333334 0.6000525420573078 0.7999605907608145 -8.294582946627155e-17 -6.07248626640523e-17 -8.294582946627155e-17 -6.07248626640523e-17 0.6000520139746358 0.799960986876742
12658638666.666666 0.6081544332205723 0.79381873582953 -8.354792054245499e-17 -5.985935587227346e-17 -8.354792054245499e-17 -5.985935587227346e-17 0.6081539092179113 0.7938191372742281
12659256000.0 0.6161934637015883 0.78759482939597 -8.414098901166695e-17 -5.898789053975712e-17 -8.414098901166695e-17 -5.898789053975712e-17 0.6161929438327008 0.787595236127427
12659873333.333334 0.6241688025618932 0.7812895147819925 -8.47249760244395e-17 -5.8110560636876e-17 -8.47249760244395e-17 -5.8110560636876e-17 0.6241682868801078 0.781289926757653
12660490666.666666 0.6320796254463824 0.7749034437240482 -8.52998237091129e-17 -5.722746071398708e-17 -8.52998237091129e-17 -5.722746071398708e-17 0.6320791140045914 0.7749038609008204
12661108000.0 0.6399251146686087 0.768437276305748 -8.586547517756097e-17 -5.633868589123195e-17 -8.586547517756097e-17 -5.633868589123195e-17 0.63992460751926 0.7684376986400061
12661725333.333334 0.6477044592950774 0.7618916808898096 -8.642187453076214e-17 -5.5444331848353983e-17 -8.642187453076214e-17 -5.5444331848353983e-17 0.6477039564901703 0.7618921083373993
12662342666.666666 0.6554168552292667 0.7552673340488162 -8.696896686431368e-17 -5.454449481438495e-17 -8.696896686431368e-17 -5.454449481438495e-17 0.6554163568203469 0.7552677665650589
12662960000.0 0.6630615052947183 0.7485649204952968 -8.750669827379838e-17 -5.3639271557341746e-17 -8.750669827379838e-17 -5.3639271557341746e-17 0.6630610113328713 0.7485653580349937
12663577333.333334 0.6706376193173272 0.7417851330110462 -8.803501586006768e-17 -5.2728759373833654e-17 -8.803501586006768e-17 -5.2728759373833654e-17 0.6706371298531744 0.7417855755284846
12664194666.666666 0.6781444142070825 0.7349286723754628 -8.855386773441522e-17 -5.1813056078620383e-17 -8.855386773441522e-17 -5.1813056078620383e-17 0.6781439292907755 0.7349291198244199
12664812000.0 0.6855811140390728 0.727996247293056 -8.90632030236283e-17 -5.0892259994142116e-17 -8.90632030236283e-17 -5.0892259994142116e-17 0.6855806337202877 0.7279966996268028
12665429333.333334 0.6929469501335811 0.7209885743202846 -8.956297187494762e-17 -4.9966469939972914e-17 -8.956297187494762e-17 -4.9966469939972914e-17 0.692946474461515 0.7209890314915934
12666046666.666666 0.7002411611355213 0.7139063777915179 -9.00531254609004e-17 -4.903578522225634e-17 -9.00531254609004e-17 -4.903578522225634e-17 0.7002406901588853 0.7139068397526642
12666664000.0 0.707462993093317 0.7067503897439849 -9.053361598405416e-17 -4.810030562303763e-17 -9.053361598405416e-17 -4.810030562303763e-17 0.7074625268603327 0.7067508564467546
12667281333.333334 0.7146116995366266 0.6995213498423062 -9.100439668161255e-17 -4.7160131389640003e-17 -9.100439668161255e-17 -4.7160131389640003e-17 0.7146112380950215 0.6995218212380004
12667898666.666666 0.7216865415535865 0.6922200053019649 -9.146542182994567e-17 -4.621536322391131e-17 -9.146542182994567e-17 -4.621536322391131e-17 0.7216860849505862 0.6922204813414029
12668516000.0 0.72868678786726 0.6848471108119845 -9.191664674899527e-17 -4.526610227145249e-17 -9.191664674899527e-17 -4.526610227145249e-17 0.7286863361495873 0.6848475914455119
12669133333.333334 0.7356117149110151 0.6774034284571531 -9.235802780654571e-17 -4.431245011085097e-17 -9.235802780654571e-17 -4.431245011085097e-17 0.7356112681248814 0.6774039136346441
12669750666.666666 0.7424606069035792 0.6698897276389574 -9.278952242241902e-17 -4.335450874279934e-17 -9.278952242241902e-17 -4.335450874279934e-17 0.7424601650946845 0.6698902173098232
12670368000.0 0.7492327559228403 0.6623067849962689 -9.321108907253964e-17 -4.239238057921053e-17 -9.321108907253964e-17 -4.239238057921053e-17 0.749232319136363 0.6623072791094596
