! Parameters = {f0=12700.012000; bw=77.238000; Q=6100.000000; N=10; m_0_1=1.313008; m_1_1=0.930374; m_1_2=1.147820; m_2_2=0.929725; m_2_3=0.784783; m_2_8=0.002714; m_2_9=0.039418; m_3_3=0.927788; m_3_4=0.673312; m_3_7=0.003314; m_3_8=-0.093774; m_3_9=0.002714; m_4_4=0.924863; m_4_5=0.509647; m_4_6=0.006831; m_4_7=-0.114323; m_4_8=0.003314; m_5_5=0.925245; m_5_6=0.917002; m_5_7=0.006831; m_6_6=0.925244; m_6_7=0.509989; m_7_7=0.924877; m_7_8=0.673430; m_8_8=0.927786; m_8_9=0.785096; m_9_9=0.929720; m_9_10=1.148898; m_10_10=0.930364; m_10_11=1.313803}
!
! Created with skrf (http://scikit-rf.org).
# Hz S RI R 50.0 
!freq ReS11 ImS11 ReS21 ImS21 ReS12 ImS12 ReS22 ImS22
12607400000.0 0.9964780202112137 -0.08385436921086614 -1.256744320829978e-16 4.9028366773146887e-17 -1.256744320829978e-16 4.9028366773146887e-17 0.9964780782121805 -0.08385367995723346
12608017333.333334 0.9954197252046807 -0.09560110184118822 -1.2505847322727205e-16 5.0508375583110453e-17 -1.2505847322727205e-16 5.0508375583110453e-17 0.9954197913275054 -0.09560041335327187
12608634666.666666 0.9942229616250401 -0.1073345358090572 -1.2442509647153618e-16 5.1980672746499525e-17 -1.2442509647153618e-16 5.1980672746499525e-17 0.9942230358597292 -0.10733384818255008
12609252000.0 0.9928878959490355 -0.11905303892680946 -1.2377439806118824e-16 5.3445053413081244e-17 -1.2377439806118824e-16 5.3445053413081244e-17 0.992887978284469 -0.11905235225727537
12609869333.333334 0.991414713892029 -0.13075498108369343 -1.2310647664921086e-16 5.4901313930389335e-17 -1.2310647664921086e-16 5.4901313930389335e-17 0.9914148043159617 -0.13075429546655373
12610486666.666666 0.9898036203821724 -0.14243873447259933 -1.224214332813058e-16 5.634925187199716e-17 -1.224214332813058e-16 5.634925187199716e-17 0.9898037188812338 -0.14243805000311943
12611104000.0 0.9880548395318608 -0.15410267381677778 -1.2171937138067823e-16 5.778866606564457e-17 -1.2171937138067823e-16 5.778866606564457e-17 0.9880549460915596 -0.15410199059005442
12611721333.333334 0.986168614606614 -0.16574517659553134 -1.2100039673253073e-16 5.921935662109387e-17 -1.2100039673253073e-16 5.921935662109387e-17 0.9861687292113384 -0.16574449470647884
12612338666.666666 0.9841452079911949 -0.17736462327019756 -1.2026461746819233e-16 6.064112495787324e-17 -1.2026461746819233e-16 6.064112495787324e-17 0.9841453306242168 -0.17736394281353515
12612956000.0 0.9819849011531094 -0.18895939750943574 -1.195121440489282e-16 6.205377383281032e-17 -1.195121440489282e-16 6.205377383281032e-17 0.9819850317965844 -0.18895871857967392
12613573333.333334 0.979687994603496 -0.20052788641381594 -1.187430892494713e-16 6.345710736728156e-17 -1.187430892494713e-16 6.345710736728156e-17 0.9796881332384677 -0.20052720910524366
12614190666.666666 0.9772548078552717 -0.21206848074046206 -1.1795756814115638e-16 6.48509310744075e-17 -1.1795756814115638e-16 6.48509310744075e-17 0.9772549544616743 -0.21206780514713355
12614808000.0 0.9746856793787206 -0.2235795751267395 -1.1715569807480707e-16 6.623505188590553e-17 -1.1715569807480707e-16 6.623505188590553e-17 0.9746858339353814 -0.2235789013424613
12615425333.333334 0.9719809665543787 -0.2350595683137091 -1.1633759866326903e-16 6.760927817880634e-17 -1.1633759866326903e-16 6.760927817880634e-17 0.9719811290390207 -0.23505889643202674
12616042666.666666 0.9691410456233569 -0.2465068633687047 -1.155033917636434e-16 6.897341980193238e-17 -1.155033917636434e-16 6.897341980193238e-17 0.9691412160126033 -0.24650619348289007
12616660000.0 0.9661663116349816 -0.2579198679075871 -1.1465320145920787e-16 7.032728810216136e-17 -1.1465320145920787e-16 7.032728810216136e-17 0.9661664899043573 -0.25791920011062514
12617277333.333334 0.9630571783918352 -0.26929699431625237 -1.137871540410297e-16 7.167069595047157e-17 -1.137871540410297e-16 7.167069595047157e-17 0.9630573645157732 -0.26929632870082887
12617894666.666666 0.9598140783922375 -0.2806366599713429 -1.1290537798928828e-16 7.300345776773942e-17 -1.1290537798928828e-16 7.300345776773942e-17 0.959814272344079 -0.2806359966298305
12618512000.0 0.956437462769993 -0.2919372874606983 -1.1200800395425168e-16 7.432538955037497e-17 -1.1200800395425168e-16 7.432538955037497e-17 0.9564376645219934 -0.2919366264851447
12619129333.333334 0.9529278012317465 -0.30319730480240087 -1.1109516473702905e-16 7.563630889561382e-17 -1.1109516473702905e-16 7.563630889561382e-17 0.9529280107550803 -0.30319664628451587
12619746666.666666 0.9492855819915783 -0.31441514566369444 -1.1016699526995453e-16 7.693603502668146e-17 -1.1016699526995453e-16 7.693603502668146e-17 0.9492857992563396 -0.31441448969483626
12620364000.0 0.9455113117030348 -0.3255892495790015 -1.0922363259670923e-16 7.822438881766974e-17 -1.0922363259670923e-16 7.822438881766974e-17 0.945511536678246 -0.32558859625016573
12620981333.333334 0.9416055153888375 -0.33671806216645583 -1.082652158521721e-16 7.950119281814697e-17 -1.082652158521721e-16 7.950119281814697e-17 0.9416057480424499 -0.33671741156826124
12621598666.666666 0.9375687363676267 -0.34780003534477116 -1.0729188624194042e-16 8.076627127758024e-17 -1.0729188624194042e-16 8.076627127758024e-17 0.9375689766665274 -0.3477993875674483
12622216000.0 0.9334015361785314 -0.358833627548158 -1.0630378702159993e-16 8.201945016946199e-17 -1.0630378702159993e-16 8.201945016946199e-17 0.933401784088548 -0.3588329826815363
12622833333.333334 0.9291044945029905 -0.3698173039409524 -1.0530106347569802e-16 8.326055721520558e-17 -1.0530106347569802e-16 8.326055721520558e-17 0.9291047499888943 -0.3698166620744473
12623450666.666666 0.9246782090841662 -0.3807495366309871 -1.0428386289645509e-16 8.448942190776345e-17 -1.0428386289645509e-16 8.448942190776345e-17 0.9246784721096787 -0.3807488978535882
12624068000.0 0.9201232956437428 -0.391628804882263 -1.0325233456216753e-16 8.570587553502813e-17 -1.0325233456216753e-16 8.570587553502813e-17 0.9201235661715401 -0.3916281692825214
12624685333.333334 0.9154403877962632 -0.40245359532651653 -1.0220662971537216e-16 8.690975120292846e-17 -1.0220662971537216e-16 8.690975120292846e-17 0.9154406657879814 -0.40245296299253286
12625302666.666666 0.9106301369611004 -0.413222402173478 -1.011469015407454e-16 8.810088385825862e-17 -1.011469015407454e-16 8.810088385825862e-17 0.9106304223773415 -0.4132217731928897
12625920000.0 0.9056932122716733 -0.42393372742072527 -1.0007330514268692e-16 8.927911031129558e-17 -1.0007330514268692e-16 8.927911031129558e-17 0.9056935050720104 -0.42393310188069516
12626537333.333334 0.9006303004825257 -0.4345860810617013 -9.898599752271113e-17 9.044426925806437e-17 -9.898599752271113e-17 9.044426925806437e-17 0.9006306006255086 -0.434585459048905
12627154666.666666 0.8954421058737291 -0.4451779812931395 -9.788513755652972e-17 9.159620130238583e-17 -9.788513755652972e-17 9.159620130238583e-17 0.8954424133168896 -0.44517736289375304
12627772000.0 0.8901293501528329 -0.45570795472134185 -9.677088597087772e-17 9.273474897764577e-17 -9.677088597087772e-17 9.273474897764577e-17 0.8901296648526932 -0.45570734002103097
12628389333.333334 0.8846927723546645 -0.46617453656675617 -9.564340532014278e-17 9.385975676822548e-17 -9.564340532014278e-17 9.385975676822548e-17 0.8846930942667413 -0.4661739256506637
12629006666.666666 0.8791331287382799 -0.47657627086821663 -9.450285996265567e-17 9.497107113074176e-17 -9.450285996265567e-17 9.497107113074176e-17 0.8791334578170896 -0.47657566382095007
12629624000.0 0.8734511926819816 -0.4869117106850452 -9.334941603683128e-17 9.606854051490212e-17 -9.334941603683128e-17 9.606854051490212e-17 0.8734515288810493 -0.4869111075906659
12630241333.333334 0.8676477545756087 -0.49717941829858225 -9.218324143699564e-17 9.71520153841439e-17 -9.218324143699564e-17 9.71520153841439e-17 0.8676480978474741 -0.4971788192405941
12630858666.666666 0.8617236217106872 -0.5073779654120089 -9.100450578902054e-17 9.822134823593555e-17 -9.100450578902054e-17 9.822134823593555e-17 0.8617239720069096 -0.5073773704733453
12631476000.0 0.85567961816797 -0.5175059333492992 -8.981338042567323e-17 9.927639362182987e-17 -8.981338042567323e-17 9.927639362182987e-17 0.8556799754391382 -0.5175053426123133
12632093333.333334 0.8495165847029942 -0.5275619132522497 -8.861003836180216e-17 1.0031700816715731e-16 -8.861003836180216e-17 1.0031700816715731e-16 0.849516948898729 -0.527561326798701
12632710666.666666 0.8432353786290361 -0.5375445062766043 -8.739465426924512e-17 1.0134305059046641e-16 -8.739465426924512e-17 1.0134305059046641e-16 0.8432357496980031 -0.5375439241876503
12633328000.0 0.8368368736977854 -0.5474523237867661 -8.616740445150017e-17 1.0235438172266882e-16 -8.616740445150017e-17 1.0235438172266882e-16 0.8368372515876964 -0.5474517461429474
12633945333.333334 0.8303219599779433 -0.5572839875487182 -8.492846681824631e-17 1.0335086452582051e-16 -8.492846681824631e-17 1.0335086452582051e-16 0.8303223446355686 -0.5572834144299507
12634562666.666666 0.823691543731278 -0.5670381299219632 -8.367802085957783e-17 1.0433236411165377e-16 -8.367802085957783e-17 1.0433236411165377e-16 0.8236919351024505 -0.5670375614075245
12635180000.0 0.816946547286664 -0.5767133940496014 -8.241624762005795e-17 1.052987477597721e-16 -8.241624762005795e-17 1.052987477597721e-16 0.8169469453162888 -0.5767128302181218
12635797333.333334 0.8100879089117035 -0.5863084340471973 -8.114332967255347e-17 1.0624988493553808e-16 -8.114332967255347e-17 1.0624988493553808e-16 0.8100883135437641 -0.5863078749766472
12636414666.666666 0.8031165826822872 -0.5958219151898806 -7.985945109188004e-17 1.0718564730763537e-16 -7.985945109188004e-17 1.0718564730763537e-16 0.8031169938598556 -0.5958213609575617
12637032000.0 0.7960335383497811 -0.6052525140981562 -7.856479742821482e-17 1.0810590876533524e-16 -7.856479742821482e-17 1.0810590876533524e-16 0.7960339560150231 -0.6052519647806887
12637649333.333334 0.7888397612061936 -0.6145989189218994 -7.725955568034529e-17 1.0901054543541837e-16 -7.725955568034529e-17 1.0901054543541837e-16 0.7888401853003781 -0.6145983745952122
12638266666.666666 0.7815362519470961 -0.6238598295228646 -7.594391426869269e-17 1.0989943569879574e-16 -7.594391426869269e-17 1.0989943569879574e-16 0.7815366824106045 -0.6238592902621856
12638884000.0 0.7741240265324245 -0.6330339576555422 -7.461806300818007e-17 1.1077246020678188e-16 -7.461806300818007e-17 1.1077246020678188e-16 0.7741244633047576 -0.6330334235353874
12639501333.333334 0.7666041160451333 -0.6421200271463838 -7.328219308087947e-17 1.1162950189706416e-16 -7.328219308087947e-17 1.1162950189706416e-16 0.7666045590649206 -0.6421194982405466
12640118666.666666 0.7589775665478943 -0.6511167740711715 -7.193649700851513e-17 1.1247044600931913e-16 -7.193649700851513e-17 1.1247044600931913e-16 0.758978015752902 -0.651116250452713
12640736000.0 0.7512454389371985 -0.6600229469312939 -7.058116862471424e-17 1.1329518010054327e-16 -7.058116862471424e-17 1.1329518010054327e-16 0.7512458942643381 -0.660022428672532
12641353333.333334 0.7434088087964219 -0.6688373068270774 -6.921640304721255e-17 1.1410359405997157e-16 -6.921640304721255e-17 1.1410359405997157e-16 0.7434092701817606 -0.6688367939995783
12641970666.666666 0.7354687662455612 -0.6775586276308814 -6.78423966497442e-17 1.148955801237502e-16 -6.78423966497442e-17 1.148955801237502e-16 0.7354692336243296 -0.6775581203054489
12642588000.0 0.7274264157899818 -0.6861856961572084 -6.645934703386875e-17 1.1567103288920916e-16 -6.645934703386875e-17 1.1567103288920916e-16 0.7274268890965822 -0.6861851944038733
12643205333.333334 0.7192828761666606 -0.6947173123315916 -6.506745300058381e-17 1.1642984932882694e-16 -6.506745300058381e-17 1.1642984932882694e-16 0.7192833553346772 -0.6947168162196026
12643822666.666666 0.7110392801885055 -0.7031522893575942 -6.36669145218027e-17 1.1717192880384147e-16 -6.36669145218027e-17 1.1717192880384147e-16 0.7110397651507147 -0.7031517989554095
12644440000.0 0.702696774586873 -0.7114894538817976 -6.225793271167459e-17 1.1789717307752077e-16 -6.225793271167459e-17 1.1789717307752077e-16 0.702697265275252 -0.7114889692570746
12645057333.333334 0.6942565198520326 -0.7197276461570424 -6.084070979775142e-17 1.186054863280911e-16 -6.084070979775142e-17 1.186054863280911e-16 0.6942570161977678 -0.7197271673766279
12645674666.666666 0.6857196900717367 -0.7278657202037574 -5.941544909200889e-17 1.192967751613194e-16 -5.941544909200889e-17 1.192967751613194e-16 0.6857201920052345 -0.7278652473336781
12646292000.0 0.6770874727677518 -0.7359025439695062 -5.798235496170175e-17 1.1997094862275916e-16 -5.798235496170175e-17 1.1997094862275916e-16 0.6770879802186489 -0.7359020770749618
12646909333.333334 0.6683610687309389 -0.7438369994862111 -5.654163280014999e-17 1.2062791820961522e-16 -5.654163280014999e-17 1.2062791820961522e-16 0.6683615816281103 -0.7438365386315622
12647526666.666666 0.6595416918540287 -0.751667983025843 -5.509348899731614e-17 1.2126759788229293e-16 -5.509348899731614e-17 1.2126759788229293e-16 0.659542210125599 -0.751667528274604
12648144000.0 0.6506305689626962 -0.7593944052540105 -5.363813091027385e-17 1.2188990407558532e-16 -5.363813091027385e-17 1.2188990407558532e-16 0.6506310925360501 -0.7593939566688414
12648761333.333334 0.6416289396451154 -0.7670151913813037 -5.217576683359695e-17 1.224947557094875e-16 -5.217576683359695e-17 1.224947557094875e-16 0.6416294684469076 -0.7670147490240009
12649378666.666666 0.632538056079444 -0.7745292813128833 -5.070660596957875e-17 1.2308207419967676e-16 -5.070660596957875e-17 1.2308207419967676e-16 0.6325385900356081 -0.7745288452443703
12649996000.0 0.6233591828595467 -0.781935629796015 -4.923085839833498e-17 1.2365178346763638e-16 -4.923085839833498e-17 1.2365178346763638e-16 0.623359721895307 -0.7819352000763347
12650613333.333334 0.6140935968191514 -0.7892332065654172 -4.774873504781901e-17 1.2420380995041167e-16 -4.774873504781901e-17 1.2420380995041167e-16 0.6140941408590329 -0.7892327832537235
12651230666.666666 0.6047425868543214 -0.7964209964865041 -4.626044766373282e-17 1.2473808261000654e-16 -4.626044766373282e-17 1.2473808261000654e-16 0.6047431358221604 -0.7964205796410541
12651848000.0 0.5953074537439403 -0.8034979996967759 -4.4766208779287925e-17 1.2525453294243615e-16 -4.4766208779287925e-17 1.2525453294243615e-16 0.595308007562895 -0.8034975893749209
12652465333.333334 0.5857895099689664 -0.8104632317447423 -4.326623168491691e-17 1.2575309498640098e-16 -4.326623168491691e-17 1.2575309498640098e-16 0.5857900685615278 -0.8104628280029214
12653082666.666666 0.5761900795298865 -0.8173157237268575 -4.176073039789379e-17 1.262337053315984e-16 -4.176073039789379e-17 1.262337053315984e-16 0.5761906428178897 -0.8173153266205889
12653700000.0 0.5665104977621908 -0.8240545224225445 -4.024991963179146e-17 1.266963031266932e-16 -4.024991963179146e-17 1.266963031266932e-16 0.5665110656668249 -0.8240541320064181
12654317333.333334 0.5567521111512018 -0.830678690426384 -3.8734014765957364e-17 1.2714083008689133e-16 -3.8734014765957364e-17 1.2714083008689133e-16 0.5567526835930213 -0.8306783067540537
12654934666.666666 0.5469162771442111 -0.8371873062789053 -3.7213231814817156e-17 1.275672305011771e-16 -3.7213231814817156e-17 1.275672305011771e-16 0.546916854043147 -0.8371869294030808
12655552000.0 0.5370043639619049 -0.843579464594583 -3.568778739713616e-17 1.2797545123917122e-16 -3.568778739713616e-17 1.2797545123917122e-16 0.5370049452372768 -0.843579094567025
12656169333.333334 0.527017750408135 -0.8498542761877241 -3.4157898705240987e-17 1.28365441757615e-16 -3.4157898705240987e-17 1.28365441757615e-16 0.5270183359786617 -0.8498539130592356
12656786666.666666 0.5169578256779067 -0.8560108681963009 -3.2623783474106404e-17 1.2873715410650418e-16 -3.2623783474106404e-17 1.2873715410650418e-16 0.516958415461716 -0.8560105120167182
12657404000.0 0.5068259891642476 -0.8620483842032858 -3.10856599504139e-17 1.2909054293484382e-16 -3.10856599504139e-17 1.2909054293484382e-16 0.5068265830788908 -0.8620480350214763
12658021333.333334 0.49662365026350097 -0.8679659843558214 -2.954374686156138e-17 1.2942556549603201e-16 -2.954374686156138e-17 1.2942556549603201e-16 0.4966242482259624 -0.8679656422196734
12658638666.666666 0.4863522281793908 -0.8737628454819732 -2.799826338460626e-17 1.2974218165287776e-16 -2.799826338460626e-17 1.2974218165287776e-16 0.48635283010609986 -0.8737625104383909
12659256000.0 0.4760131517253823 -0.8794381612053684 -2.6449429115119976e-17 1.3004035388225497e-16 -2.6449429115119976e-17 1.3004035388225497e-16 0.4760137575322255 -0.8794378333002649
12659873333.333334 0.4656078591260222 -0.8849911420573059 -2.4897464036062253e-17 1.3032004727937245e-16 -2.4897464036062253e-17 1.3032004727937245e-16 0.4656084687283533 -0.8849908213355948
12660490666.666666 0.4551377978171496 -0.8904210155864295 -2.334258848658329e-17 1.3058122956167927e-16 -2.334258848658329e-17 1.3058122956167927e-16 0.4551384111298035 -0.8904207020920228
12661108000.0 0.44460442424394747 -0.8957270264665017 -2.178502313072832e-17 1.3082387107240822e-16 -2.178502313072832e-17 1.3082387107240822e-16 0.4446050411812513 -0.8957267202423014
12661725333.333334 0.4340092036589722 -0.9009084366011442 -2.0224988926257275e-17 1.3104794478372237e-16 -2.0224988926257275e-17 1.3104794478372237e-16 0.4340098241347577 -0.9009081376890374
12662342666.666666 0.42335360991792487 -0.9059645252267187 -1.8662707093249143e-17 1.3125342629952004e-16 -1.8662707093249143e-17 1.3125342629952004e-16 0.4233542338455393 -0.905964233667571
12662960000.0 0.4126391252747806 -0.9108945890125137 -1.709839908283415e-17 1.3144029385784253e-16 -1.709839908283415e-17 1.3144029385784253e-16 0.4126397525670997 -0.9108943048461634
12663577333.333334 0.4018672401755739 -0.9156979421585929 -1.5532286545823555e-17 1.3160852833292226e-16 -1.5532286545823555e-17 1.3160852833292226e-16 0.4018678707450138 -0.9156976654238459
12664194666.666666 0.39103945305106763 -0.9203739164911914 -1.3964591301349627e-17 1.3175811323685354e-16 -1.3964591301349627e-17 1.3175811323685354e-16 0.39104008680959773 -0.9203736472258179
12664812000.0 0.38015727010831574 -0.9249218615556704 -1.2395535305490425e-17 1.3188903472089237e-16 -1.2395535305490425e-17 1.3188903472089237e-16 0.38015790696746987 -0.9249215997963963
12665429333.333334 0.36922220512111115 -0.9293411447069997 -1.082534061988352e-17 1.3200128157638108e-16 -1.082534061988352e-17 1.3200128157638108e-16 0.36922284499200075 -0.9293408904895046
12666046666.666666 0.3582357792195726 -0.933631151197708 -9.25422938036362e-18 1.3209484523530114e-16 -9.25422938036362e-18 1.3209484523530114e-16 0.35823642201289896 -0.9336309045566178
12666664000.0 0.34719952067814885 -0.9377912842635487 -7.682423765522848e-18 1.3216971977045593e-16 -7.682423765522848e-18 1.3216971977045593e-16 0.34720016630421496 -0.9377910452324324
12667281333.333334 0.33611496470355606 -0.9418209652063073 -6.1101459654088085e-18 1.3222590189527348e-16 -6.1101459654088085e-18 1.3222590189527348e-16 0.33611561307228 -0.941820733817672
12667898666.666666 0.32498365322085176 -0.9457196334744467 -4.5376181501055086e-18 1.3226339096324416e-16 -4.5376181501055086e-18 1.3226339096324416e-16 0.32498430424177893 -0.9457194097597339
12668516000.0 0.3138071346589692 -0.94948674674107 -2.965062438385694e-18 1.3228218896698243e-16 -2.965062438385694e-18 1.3228218896698243e-16 0.3138077882412847 -0.9494865307306498
12669133333.333334 0.30258696373556343 -0.9531217809792751 -1.392700866412699e-18 1.3228230053691634e-16 -1.392700866412699e-18 1.3228230053691634e-16 0.30258761978810556 -0.9531215727024454
12669750666.666666 0.2913247012404737 -0.9566242305351473 1.792446436052579e-19 1.322637329396062e-16 1.792446436052579e-19 1.322637329396062e-16 0.29132535967174494 -0.9566240300201232
12670368000.0 0.28002191381871405 -0.959993608198054 1.750552314679842e-18 1.3222649607569171e-16 1.750552314679842e-18 1.3222649607569171e-16 0.28002257453689583 -0.9599934154719719
