! Parameters = {f0=12700.012000; bw=77.238000; Q=6100.000000; N=10; m_0_1=1.327222; m_1_1=1.143588; m_1_2=1.162034; m_2_2=1.142939; m_2_3=0.798997; m_2_8=0.003425; m_2_9=0.040129; m_3_3=1.141002; m_3_4=0.687526; m_3_7=0.004025; m_3_8=-0.093063; m_3_9=0.003425; m_4_4=1.138077; m_4_5=0.523861; m_4_6=0.007542; m_4_7=-0.113612; m_4_8=0.004025; m_5_5=1.138459; m_5_6=0.931216; m_5_7=0.007542; m_6_6=1.138458; m_6_7=0.524203; m_7_7=1.138091; m_7_8=0.687644; m_8_8=1.141000; m_8_9=0.799310; m_9_9=1.142934; m_9_10=1.163112; m_10_10=1.143578; m_10_11=1.328017}
!
! Created with skrf (http://scikit-rf.org).
# Hz S RI R 50.0 
!freq ReS11 ImS11 ReS21 ImS21 ReS12 ImS12 ReS22 ImS22
12607400000.0 -0.729302166270395 -0.6841917496382992 1.284952578953139e-16 6.454315298872063e-17 1.284952578953139e-16 6.454315298872063e-17 -0.7293016879170054 -0.6841922595303268
12608017333.333334 -0.7376046739738451 -0.6752328079497799 1.2925429174465242e-16 6.294506839270548e-17 1.2925429174465242e-16 6.294506839270548e-17 -0.7376042019072162 -0.6752333236212695
12608634666.666666 -0.7457971352843163 -0.666173125397231 1.2999346345661115e-16 6.133808168127422e-17 1.2999346345661115e-16 6.133808168127422e-17 -0.7457966695742577 -0.6661736467706845
12609252000.0 -0.7538783279335771 -0.657014053633468 1.307126689359004e-16 5.972243955538509e-17 1.307126689359004e-16 5.972243955538509e-17 -0.753877868648945 -0.6570145806305454
12609869333.333334 -0.7618470462540836 -0.6477569591395644 1.3141180714947517e-16 5.809838992920149e-17 1.3141180714947517e-16 5.809838992920149e-17 -0.7618465934627681 -0.6477574916810942
12610486666.666666 -0.7697021013587272 -0.6384032230211311 1.3209078014060497e-16 5.646618189215026e-17 1.3209078014060497e-16 5.646618189215026e-17 -0.7697016551276429 -0.6384037610271217
12611104000.0 -0.7774423213184821 -0.6289542408019342 1.3274949304252038e-16 5.482606567070002e-17 1.3274949304252038e-16 5.482606567070002e-17 -0.7774418817135593 -0.628954784191588
12611721333.333334 -0.7850665513368896 -0.6194114222161312 1.3338785409152572e-16 5.3178292590133504e-17 1.3338785409152572e-16 5.3178292590133504e-17 -0.785066118423063 -0.6194119709078544
12612338666.666666 -0.7925736539225816 -0.6097761909976604 1.340057746396887e-16 5.152311503604028e-17 1.340057746396887e-16 5.152311503604028e-17 -0.7925732277637811 -0.6097767449090762
12612956000.0 -0.799962509059037 -0.6000499846677588 1.3460316916703813e-16 4.9860786415701365e-17 1.3460316916703813e-16 4.9860786415701365e-17 -0.7999620897181788 -0.6000505437157199
12613573333.333334 -0.8072320143714046 -0.5902342543208521 1.351799552932579e-16 4.819156111940356e-17 1.351799552932579e-16 4.819156111940356e-17 -0.8072316019103817 -0.5902348184214532
12614190666.666666 -0.8143810852912813 -0.5803304644076536 1.3573605378894193e-16 4.6515694481513165e-17 1.3573605378894193e-16 4.6515694481513165e-17 -0.8143806797709544 -0.5803310334762439
12614808000.0 -0.8214086552183187 -0.5703400925169484 1.362713885863455e-16 4.483344274147916e-17 1.362713885863455e-16 4.483344274147916e-17 -0.8214082566985068 -0.5703406664681442
12615425333.333334 -0.8283136756794227 -0.5602646291550561 1.367858867896502e-16 4.314506300473062e-17 1.367858867896502e-16 4.314506300473062e-17 -0.8283132842188948 -0.5602652079027535
12616042666.666666 -0.8350951164852258 -0.5501055775233833 1.3727947868476246e-16 4.1450813203403975e-17 1.3727947868476246e-16 4.1450813203403975e-17 -0.8350947321416924 -0.5501061609807715
12616660000.0 -0.8417519658836755 -0.5398644532943206 1.3775209774860805e-16 3.975095205701897e-17 1.3775209774860805e-16 3.975095205701897e-17 -0.8417515887137786 -0.5398650413738942
12617277333.333334 -0.8482832307111207 -0.5295427843848984 1.3820368065795507e-16 3.804573903300404e-17 1.3820368065795507e-16 3.804573903300404e-17 -0.848282860770428 -0.5295433769984719
12617894666.666666 -0.8546879365403042 -0.5191421107291188 1.3863416729773593e-16 3.633543430717123e-17 1.3863416729773593e-16 3.633543430717123e-17 -0.8546875738832984 -0.519142707787838
12618512000.0 -0.8609651278259667 -0.5086639840478436 1.3904350076890294e-16 3.46202987240123e-17 1.3904350076890294e-16 3.46202987240123e-17 -0.8609647725060389 -0.5086645854622005
12619129333.333334 -0.867113868047171 -0.4981099676176752 1.3943162739575877e-16 3.290059375705177e-17 1.3943162739575877e-16 3.290059375705177e-17 -0.8671135201166125 -0.4981105732975201
12619746666.666666 -0.873133239847232 -0.4874816360373837 1.3979849673283427e-16 3.117658146896587e-17 1.3979849673283427e-16 3.117658146896587e-17 -0.8731328993572267 -0.4874822458919401
12620364000.0 -0.8790223451704897 -0.4767805749931301 1.401440615712497e-16 2.944852447173086e-17 1.401440615712497e-16 2.944852447173086e-17 -0.8790220121711073 -0.47678118893100774
12620981333.333334 -0.8847803053962167 -0.46600838102204367 1.4046827794459193e-16 2.7716685886676458e-17 1.4046827794459193e-16 2.7716685886676458e-17 -0.8847799799364023 -0.4660089989512508
12621598666.666666 -0.8904062614698759 -0.4551666612737003 1.4077110513429962e-16 2.5981329304461333e-17 1.4077110513429962e-16 2.5981329304461333e-17 -0.8904059435974472 -0.45516728310165994
12622216000.0 -0.8958993740311294 -0.4442570332706482 1.4105250567455364e-16 2.4242718745013774e-17 1.4105250567455364e-16 2.4242718745013774e-17 -0.8958990637927673 -0.4442576589042107
12622833333.333334 -0.901258823539195 -0.4332811246668294 1.413124453566767e-16 2.250111861739471e-17 1.413124453566767e-16 2.250111861739471e-17 -0.9012585209804367 -0.4332817540122863
12623450666.666666 -0.9064838103949785 -0.42224057300502293 1.415508932330283e-16 2.0756793679677702e-17 1.415508932330283e-16 2.0756793679677702e-17 -0.9064835155602087 -0.42224120596812015
12624068000.0 -0.9115735550604654 -0.4111370254723275 1.4176782162041793e-16 1.901000899871978e-17 1.4176782162041793e-16 1.901000899871978e-17 -0.9115732679929159 -0.4111376619582821
12624685333.333334 -0.9165272981750765 -0.3999721386543092 1.4196320610301868e-16 1.7261029909917177e-17 1.4196320610301868e-16 1.7261029909917177e-17 -0.9165270189168149 -0.39997277856782154
12625302666.666666 -0.9213443006687567 -0.38874757828828727 1.4213702553477484e-16 1.5510121977020757e-17 1.4213702553477484e-16 1.5510121977020757e-17 -0.9213440292606805 -0.3887482215335551
12625920000.0 -0.9260238438725032 -0.3774650190142166 1.422892620413339e-16 1.3757550951771404e-17 1.422892620413339e-16 1.3757550951771404e-17 -0.9260235803543352 -0.3774656654949503
12626537333.333334 -0.9305652296253508 -0.36612614412538996 1.4241990102146256e-16 1.2003582733700323e-17 1.4241990102146256e-16 1.2003582733700323e-17 -0.930564974035634 -0.36612679374482704
12627154666.666666 -0.9349677803786515 -0.35473264531704124 1.4252893114798075e-16 1.024848332980161e-17 1.4252893114798075e-16 1.024848332980161e-17 -0.934967532754741 -0.35473329797796
12627772000.0 -0.9392308392972025 -0.34328622243381757 1.426163443681964e-16 8.492518814203982e-18 1.426163443681964e-16 8.492518814203982e-18 -0.9392305996752621 -0.3432868780385523
12628389333.333334 -0.9433537703570954 -0.33178858321657306 1.4268213590383918e-16 6.735955287969976e-18 1.4268213590383918e-16 6.735955287969976e-18 -0.9433535387720909 -0.3317892416670279
12629006666.666666 -0.947335958440792 -0.3202414430470754 1.427263042505081e-16 4.979058838728276e-18 1.427263042505081e-16 4.979058838728276e-18 -0.9473357349264878 -0.32024210424474026
12629624000.0 -0.9511768094287258 -0.30864652469256393 1.4274885117661544e-16 3.2220955004901082e-18 1.4274885117661544e-16 3.2220955004901082e-18 -0.9511765940176777 -0.308647188538528
12630241333.333334 -0.9548757502880675 -0.2970055580483449 1.4274978172184186e-16 1.4653312133800279e-18 1.4274978172184186e-16 1.4653312133800279e-18 -0.9548755430116204 -0.2970062244433122
12630858666.666666 -0.9584322291580978 -0.2853202798800801 1.4272910419509445e-16 -2.9096821655474223e-19 1.4272910419509445e-16 -2.9096821655474223e-19 -0.9584320300463801 -0.28532094872438435
12631476000.0 -0.9618457154327045 -0.27359243356415697 1.4268683017197124e-16 -2.0465371575314004e-18 1.4268683017197124e-16 -2.0465371575314004e-18 -0.9618455245146225 -0.2735931047577756
12632093333.333334 -0.9651156998393737 -0.26182376882812797 1.4262297449173322e-16 -3.801110192119794e-18 1.4262297449173322e-16 -3.801110192119794e-18 -0.9651155171426092 -0.26182444227069807
12632710666.666666 -0.968241694515261 -0.2500160414893921 1.425375552537843e-16 -5.5544221573353196e-18 1.425375552537843e-16 -5.5544221573353196e-18 -0.968241520066267 -0.2500167170802252
12633328000.0 -0.9712232330799931 -0.23817101319315276 1.4243059381365594e-16 -7.306208184693775e-18 1.4243059381365594e-16 -7.306208184693775e-18 -0.97122306690399 -0.23817169083124975
12633945333.333334 -0.9740598707052153 -0.22629045114972796 1.4230211477850549e-16 -9.056203740129075e-18 1.4230211477850549e-16 -9.056203740129075e-18 -0.9740597128261844 -0.22629113073379373
12634562666.666666 -0.9767511841809394 -0.21437612787094734 1.4215214600212172e-16 -1.0804144663901484e-17 1.4215214600212172e-16 -1.0804144663901484e-17 -0.9767510346216246 -0.2143768092994068
12635180000.0 -0.9792967719787355 -0.20242982090551087 1.4198071857944118e-16 -1.2549767210425506e-17 1.4198071857944118e-16 -1.2549767210425506e-17 -0.9792966307606356 -0.20243050407652347
12635797333.333334 -0.9816962543115949 -0.1904533125739543 1.417878668405758e-16 -1.4292808088031667e-17 1.417878668405758e-16 -1.4292808088031667e-17 -0.9816961214549639 -0.19045399738542976
12636414666.666666 -0.9839492731905991 -0.1784483897027382 1.415736283443572e-16 -1.6033004498587563e-17 1.415736283443572e-16 -1.6033004498587563e-17 -0.9839491487144395 -0.1784490760523511
12637032000.0 -0.9860554924783481 -0.16641684335755186 1.4133804387138925e-16 -1.777009417710545e-17 1.4133804387138925e-16 -1.777009417710545e-17 -0.9860553764004119 -0.16641753114275762
12637649333.333334 -0.988014597939108 -0.15436046857609587 1.4108115741661837e-16 -1.950381543121329e-17 1.4108115741661837e-16 -1.950381543121329e-17 -0.9880144902758925 -0.1543611576941457
12638266666.666666 -0.9898262972856671 -0.1422810641004414 1.408030161814245e-16 -2.1233907180503735e-17 1.408030161814245e-16 -2.1233907180503735e-17 -0.9898261980524127 -0.1422817544483977
12638884000.0 -0.9914903202229799 -0.13018043210844382 1.4050367056522147e-16 -2.2960108995831337e-17 1.4050367056522147e-16 -2.2960108995831337e-17 -0.9914902294336667 -0.13018112358319545
12639501333.333334 -0.9930064184884624 -0.11806037794503572 1.4018317415658555e-16 -2.4682161138439756e-17 1.4018317415658555e-16 -2.4682161138439756e-17 -0.9930063361558107 -0.11806107044331364
12640118666.666666 -0.9943743658890308 -0.1059227098529661 1.3984158372390387e-16 -2.639980459898145e-17 1.3984158372390387e-16 -2.639980459898145e-17 -0.9943742920244978 -0.10592340327135862
12640736000.0 -0.9955939583349054 -0.0937692387024834 1.3947895920552777e-16 -2.8112781136498965e-17 1.3947895920552777e-16 -2.8112781136498965e-17 -0.9955938929486833 -0.09376993293745164
12641353333.333334 -0.9966650138699638 -0.08160177772201169 1.39095363699489e-16 -2.982083331708039e-17 1.39095363699489e-16 -2.982083331708039e-17 -0.9966649569709802 -0.08160247266990513
12641970666.666666 -0.9975873726989699 -0.06942214222692128 1.3869086345269921e-16 -3.1523704552591754e-17 1.3869086345269921e-16 -3.1523704552591754e-17 -0.9975873242948836 -0.06942283778399307
12642588000.0 -0.9983608972113734 -0.057232149349032944 1.3826552784970169e-16 -3.322113913914337e-17 1.3826552784970169e-16 -3.322113913914337e-17 -0.9983608573085767 -0.057232845411455575
12643205333.333334 -0.9989854720018543 -0.045033617765399235 1.378194294009528e-16 -3.4912882295411595e-17 1.378194294009528e-16 -3.4912882295411595e-17 -0.9989854406054708 -0.04503431422927995
12643822666.666666 -0.9994610038875411 -0.0328283674269114 1.3735264373061864e-16 -3.659868020087681e-17 1.3735264373061864e-16 -3.659868020087681e-17 -0.9994609810014236 -0.03282906418830762
12644440000.0 -0.999787421921902 -0.020618219286971794 1.3686524956392759e-16 -3.827828003380677e-17 1.3686524956392759e-16 -3.827828003380677e-17 -0.9997874075486335 -0.020618916241906742
12645057333.333334 -0.9999646774053369 -0.008404995029704638 1.3635732871404305e-16 -3.995143000914097e-17 1.3635732871404305e-16 -3.995143000914097e-17 -0.9999646715462313 -0.00840569207418282
12645674666.666666 -0.9999927438924466 0.0038094832017719314 1.3582896606848128e-16 -4.161787941617587e-17 1.3582896606848128e-16 -4.161787941617587e-17 -0.9999927465475468 0.0038087861717492127
12646292000.0 -0.9998716171959737 0.01602339307751188 1.3528024957505264e-16 -4.327737865612282e-17 1.3528024957505264e-16 -4.327737865612282e-17 -0.9998716283640526 0.016022696165931025
12646909333.333334 -0.99960131538743 0.028234912352082503 1.34711270227384e-16 -4.492967927936397e-17 1.34711270227384e-16 -4.492967927936397e-17 -0.9996013350659896 0.028234215662902067
12647526666.666666 -0.9991818787943962 0.04044221913680235 1.3412212204993919e-16 -4.6574534022665884e-17 1.3412212204993919e-16 -4.6574534022665884e-17 -0.9991819069796719 0.04044152277393763
12648144000.0 -0.998613369994507 0.052643492171613473 1.335129020826201e-16 -4.8211696846095306e-17 1.335129020826201e-16 -4.8211696846095306e-17 -0.9986134066814626 0.05264279623892088
12648761333.333334 -0.9978958738061156 0.06483691109651876 1.3288371036490085e-16 -4.9840922969785244e-17 1.3288371036490085e-16 -4.9840922969785244e-17 -0.997895918988448 0.0648362156977804
12649378666.666666 -0.9970294972756455 0.07702065672325467 1.3223464991953028e-16 -5.1461968910454634e-17 1.3223464991953028e-16 -5.1461968910454634e-17 -0.9970295509457857 0.07701996196216292
12649996000.0 -0.996014369661604 0.08919291130693059 1.315658267357676e-16 -5.3074592517773965e-17 1.315658267357676e-16 -5.3074592517773965e-17 -0.9960144318107164 0.08919221728707248
12650613333.333334 -0.9948506424153089 0.10135185881697037 1.3087734975218642e-16 -5.467855301048458e-17 1.3087734975218642e-16 -5.467855301048458e-17 -0.9948507130332943 0.10135116564181236
12651230666.666666 -0.9935384891583054 0.11349568520802618 1.3016933083905802e-16 -5.627361101225657e-17 1.3016933083905802e-16 -5.627361101225657e-17 -0.9935385682338025 0.11349499298089856
12651848000.0 -0.9920781056564224 0.12562257869099097 1.2944188478025106e-16 -5.785952858742702e-17 1.2944188478025106e-16 -5.785952858742702e-17 -0.9920781931768075 0.12562188751507233
12652465333.333334 -0.9904697097906036 0.13773073000288233 1.2869512925475185e-16 -5.943606927638083e-17 1.2869512925475185e-16 -5.943606927638083e-17 -0.9904698057419972 0.13773003998118477
12653082666.666666 -0.9887135415244064 0.14981833267686062 1.2792918481772512e-16 -6.100299813076515e-17 1.2792918481772512e-16 -6.100299813076515e-17 -0.9887136458916714 0.14981764391221378
12653700000.0 -0.9868098628681418 0.16188358331210848 1.2714417488112696e-16 -6.256008174849675e-17 1.2714417488112696e-16 -6.256008174849675e-17 -0.9868099756348864 0.1618828959071444
12654317333.333334 -0.9847589578398642 0.1739246818423252 1.263402256939519e-16 -6.410708830840232e-17 1.263402256939519e-16 -6.410708830840232e-17 -0.9847590789884458 0.17392399589946309
12654934666.666666 -0.9825611324229481 0.18593983180465223 1.255174663220005e-16 -6.564378760472614e-17 1.255174663220005e-16 -6.564378760472614e-17 -0.982561261934476 0.1859391474260834
12655552000.0 -0.9802167145204163 0.19792724060777855 1.2467602862724463e-16 -6.71699510813422e-17 1.2467602862724463e-16 -6.71699510813422e-17 -0.9802168523747522 0.19792655789545055
12656169333.333334 -0.9777260539061002 0.2098851197989373 1.2381604724681544e-16 -6.86853518656373e-17 1.2381604724681544e-16 -6.86853518656373e-17 -0.977726200081865 0.20988443885453947
12656786666.666666 -0.9750895221723626 0.22181168533123566 1.2293765957151426e-16 -7.018976480224612e-17 1.2293765957151426e-16 -7.018976480224612e-17 -0.9750896766469371 0.22181100625618372
12657404000.0 -0.9723075126747209 0.2337051578294896 1.2204100572397224e-16 -7.168296648640709e-17 1.2204100572397224e-16 -7.168296648640709e-17 -0.9723076754242501 0.23370448072491037
12658021333.333334 -0.9693804404731297 0.24556376285586373 1.2112622853637148e-16 -7.316473529710434e-17 1.2112622853637148e-16 -7.316473529710434e-17 -0.969380611472526 0.2455630878225801
12658638666.666666 -0.966308742270099 0.2573857311744132 1.201934735277909e-16 -7.46348514298816e-17 1.201934735277909e-16 -7.46348514298816e-17 -0.9663089214930487 0.2573850583129298
12659256000.0 -0.9630928763454495 0.26916929901543074 1.1924288888111165e-16 -7.609309692943661e-17 1.1924288888111165e-16 -7.609309692943661e-17 -0.9630930637644108 0.2691686284259174
12659873333.333334 -0.959733322488042 0.2809127083381479 1.1827462541957966e-16 -7.753925572184113e-17 1.1827462541957966e-16 -7.753925572184113e-17 -0.9597335180742561 0.28091204012042653
12660490666.666666 -0.9562305819241498 0.29261420709324754 1.1728883658296028e-16 -7.897311364649541e-17 1.1728883658296028e-16 -7.897311364649541e-17 -0.9562307856476421 0.29261354134677653
12661108000.0 -0.9525851772426485 0.3042720494843399 1.162856784032735e-16 -8.039445848782667e-17 1.162856784032735e-16 -8.039445848782667e-17 -0.9525853890722321 0.3042713863081987
12661725333.333334 -0.9487976523171382 0.3158844962281256 1.1526530948019845e-16 -8.18030800066044e-17 1.1526530948019845e-16 -8.18030800066044e-17 -0.9487978722204201 0.31588383572100076
12662342666.666666 -0.9448685722246828 0.32744981481426666 1.1422789095606337e-16 -8.319876997099785e-17 1.1422789095606337e-16 -8.319876997099785e-17 -0.9448688001680705 0.3274491570744376
12662960000.0 -0.940798523161603 0.33896627976357124 1.1317358649047608e-16 -8.458132218729442e-17 1.1317358649047608e-16 -8.458132218729442e-17 -0.9407987591103053 0.33896562488889387
12663577333.333334 -0.936588112355978 0.3504321728855307 1.1210256223456935e-16 -8.595053253031703e-17 1.1210256223456935e-16 -8.595053253031703e-17 -0.9365883562740147 0.3504315209734248
12664194666.666666 -0.9322379679770263 0.3618457835347457 1.1101498680490637e-16 -8.730619897348187e-17 1.1101498680490637e-16 -8.730619897348187e-17 -0.932238219827231 0.36184513468217927
12664812000.0 -0.9277487390414516 0.3732054088659571 1.099110312569858e-16 -8.864812161857376e-17 1.099110312569858e-16 -8.864812161857376e-17 -0.9277489987854781 0.37320476316943213
12665429333.333334 -0.9231210953165224 0.38450935408833953 1.0879086905842375e-16 -8.997610272514474e-17 1.0879086905842375e-16 -8.997610272514474e-17 -0.923121362914852 0.3845087116438784
12666046666.666666 -0.9183557272202769 0.3957559327180389 1.0765467606177163e-16 -9.128994673958725e-17 1.0765467606177163e-16 -9.128994673958725e-17 -0.9183560026322208 0.3957552936211685
12666664000.0 -0.9134533457183482 0.4069434668301784 1.0650263047694111e-16 -9.258946032391338e-17 1.0650263047694111e-16 -9.258946032391338e-17 -0.9134536289020575 0.40694283117591773
12667281333.333334 -0.9084146822180746 0.4180702873087786 1.0533491284337273e-16 -9.387445238408466e-17 1.0533491284337273e-16 -9.387445238408466e-17 -0.9084149731305438 0.418069655191623
12667898666.666666 -0.9032404884592149 0.4291347340961426 1.0415170600177659e-16 -9.514473409809174e-17 1.0415170600177659e-16 -9.514473409809174e-17 -0.903240787056292 0.4291341056100519
12668516000.0 -0.8979315364018797 0.44013515644034823 1.029531950655606e-16 -9.640011894364769e-17 1.029531950655606e-16 -9.640011894364769e-17 -0.8979318426382675 0.44013453167872973
12669133333.333334 -0.8924886181113618 0.45106991314150036 1.0173956739197892e-16 -9.764042272546767e-17 1.0173956739197892e-16 -9.764042272546767e-17 -0.8924889319406308 0.4510692921971981
12669750666.666666 -0.8869125456399399 0.4619373727966716 1.0051101255285957e-16 -9.886546360228591e-17 1.0051101255285957e-16 -9.886546360228591e-17 -0.8869128670145299 0.46193675576194987
