! Parameters = {f0=12700.012000; bw=77.238000; Q=6100.000000; N=10; m_0_1=1.282177; m_1_1=0.467912; m_1_2=1.116989; m_2_2=0.467263; m_2_3=0.753952; m_2_8=0.001173; m_2_9=0.037877; m_3_3=0.465326; m_3_4=0.642481; m_3_7=0.001773; m_3_8=-0.095315; m_3_9=0.001173; m_4_4=0.462401; m_4_5=0.478816; m_4_6=0.005290; m_4_7=-0.115864; m_4_8=0.001773; m_5_5=0.462783; m_5_6=0.886171; m_5_7=0.005290; m_6_6=0.462782; m_6_7=0.479158; m_7_7=0.462415; m_7_8=0.642599; m_8_8=0.465324; m_8_9=0.754265; m_9_9=0.467258; m_9_10=1.118067; m_10_10=0.467902; m_10_11=1.282972}
!
! Created with skrf (http://scikit-rf.org).
# Hz S RI R 50.0 
!freq ReS11 ImS11 ReS21 ImS21 ReS12 ImS12 ReS22 ImS22
12607400000.0 0.9531028039125965 -0.30264673329439257 -9.694363668032616e-17 6.568105469362979e-17 -9.694363668032616e-17 6.568105469362979e-17 0.9531030083516837 -0.30264608946885524
12608017333.333334 0.9497527423743601 -0.31300116349975693 -9.61983468118114e-17 6.672763986885165e-17 -9.61983468118114e-17 6.672763986885165e-17 0.9497529537975634 -0.3130005219686106
12608634666.666666 0.9462901948411261 -0.32331852274091 -9.544176839255292e-17 6.776578249248329e-17 -9.544176839255292e-17 6.776578249248329e-17 0.9462904132227217 -0.3233178835799072
12609252000.0 0.9427155714071898 -0.3335975890593873 -9.467399690612172e-17 6.879536091850308e-17 -9.467399690612172e-17 6.879536091850308e-17 0.9427157967206339 -0.33359695234399284
12609869333.333334 0.9390292954407885 -0.34383714503205765 -9.38951291456922e-17 6.981625457916449e-17 -9.38951291456922e-17 6.981625457916449e-17 0.939029527658718 -0.3438365108374391
12610486666.666666 0.935231803534003 -0.35403597791517644 -9.310526320189347e-17 7.082834399906809e-17 -9.310526320189347e-17 7.082834399906809e-17 0.9352320426282408 -0.35403534631619576
12611104000.0 0.9313235454509431 -0.3641928797883133 -9.230449845047539e-17 7.183151080913766e-17 -9.230449845047539e-17 7.183151080913766e-17 0.9313237913924987 -0.3641922508595171
12611721333.333334 0.9273049840746151 -0.37430664769704175 -9.149293553987791e-17 7.282563776039372e-17 -9.149293553987791e-17 7.282563776039372e-17 0.9273052368336915 -0.37430602151265374
12612338666.666666 0.9231765953520144 -0.384376083795654 -9.067067637860314e-17 7.381060873764548e-17 -9.067067637860314e-17 7.381060873764548e-17 0.9231768548980093 -0.38437546042956516
12612956000.0 0.9189388682376929 -0.39439999548915916 -8.983782412245162e-17 7.478630877302869e-17 -8.983782412245162e-17 7.478630877302869e-17 0.9189391345392037 -0.39439937501491984
12613573333.333334 0.9145923046360603 -0.4043771955740335 -8.899448316165425e-17 7.575262405935164e-17 -8.899448316165425e-17 7.575262405935164e-17 0.9145925776608876 -0.4043765780648444
12614190666.666666 0.9101374193417203 -0.4143065023793541 -8.814075910779812e-17 7.670944196336961e-17 -8.814075910779812e-17 7.670944196336961e-17 0.9101376990568711 -0.4143058879080572
12614808000.0 0.9055747399786205 -0.4241867399064634 -8.727675878065415e-17 7.765665103886294e-17 -8.727675878065415e-17 7.765665103886294e-17 0.905575026350314 -0.42418612854553456
12615425333.333334 0.9009048069374933 -0.43401673796840806 -8.64025901948487e-17 7.859414103958399e-17 -8.64025901948487e-17 7.859414103958399e-17 0.9009050999311619 -0.43401612978994686
12616042666.666666 0.8961281733119242 -0.4437953323283766 -8.551836254639974e-17 7.952180293205302e-17 -8.551836254639974e-17 7.952180293205302e-17 0.89612847289222 -0.4437947274040989
12616660000.0 0.8912454048327972 -0.45352136483769184 -8.462418619911519e-17 8.043952890820245e-17 -8.462418619911519e-17 8.043952890820245e-17 0.8912457109635966 -0.4535207632389215
12617277333.333334 0.8862570798012932 -0.46319368357297985 -8.372017267085448e-17 8.134721239787158e-17 -8.372017267085448e-17 8.134721239787158e-17 0.8862573924456986 -0.46319308537063897
12617894666.666666 0.881163789020456 -0.47281114297246984 -8.280643461967026e-17 8.224474808113309e-17 -8.280643461967026e-17 8.224474808113309e-17 0.8811641081408044 -0.47281054823707264
12618512000.0 0.8759661357250841 -0.48237260397195414 -8.18830858297812e-17 8.313203190050202e-17 -8.18830858297812e-17 8.313203190050202e-17 0.8759664612829476 -0.48237201277359665
12619129333.333334 0.8706647355104632 -0.4918769341393395 -8.095024119747326e-17 8.40089610729296e-17 -8.095024119747326e-17 8.40089610729296e-17 0.8706650674666555 -0.4918763465476917
12619746666.666666 0.8652602162593264 -0.5013230078090213 -8.000801671681627e-17 8.487543410169496e-17 -8.000801671681627e-17 8.487543410169496e-17 0.8652605545739079 -0.50132242389332
12620364000.0 0.8597532180674877 -0.5107097062152035 -7.905652946527732e-17 8.573135078811385e-17 -7.905652946527732e-17 8.573135078811385e-17 0.8597535626997693 -0.510709126044243
12620981333.333334 0.854144393168156 -0.5200359176241791 -7.809589758923194e-17 8.657661224306708e-17 -7.809589758923194e-17 8.657661224306708e-17 0.854144744076705 -0.5200353412663039
12621598666.666666 0.8484344058545481 -0.5293005374662484 -7.712624028930788e-17 8.741112089840662e-17 -7.712624028930788e-17 8.741112089840662e-17 0.8484347629971912 -0.5292999649893436
12622216000.0 0.8426239324012799 -0.5385024684664163 -7.614767780563261e-17 8.823478051817648e-17 -7.614767780563261e-17 8.823478051817648e-17 0.8426242957351106 -0.5385018999379019
12622833333.333334 0.8367136609842406 -0.5476406207743999 -7.516033140296862e-17 8.90474962096616e-17 -7.516033140296862e-17 8.90474962096616e-17 0.8367140304656231 -0.547640056261221
12623450666.666666 0.8307042915991507 -0.5567139120936118 -7.41643233557223e-17 8.984917443428111e-17 -7.41643233557223e-17 8.984917443428111e-17 0.8307046671837256 -0.5567133516622319
12624068000.0 0.8245965359785802 -0.5657212678094641 -7.315977693282607e-17 9.063972301832158e-17 -7.315977693282607e-17 9.063972301832158e-17 0.8245969176212696 -0.5657207115258566
12624685333.333334 0.8183911175076313 -0.5746616211166634 -7.214681638251443e-17 9.141905116349545e-17 -7.214681638251443e-17 9.141905116349545e-17 0.8183915051626447 -0.5746610690463042
12625302666.666666 0.8120887711384283 -0.583533913145328 -7.112556691701725e-17 9.218706945730812e-17 -7.112556691701725e-17 9.218706945730812e-17 0.812089164759267 -0.5835333653531874
12625920000.0 0.8056902433028255 -0.5923370930867456 -7.009615469707751e-17 9.294368988330453e-17 -7.009615469707751e-17 9.294368988330453e-17 0.8056906428422889 -0.5923365496372811
12626537333.333334 0.799196291824232 -0.6010701183175038 -6.905870681643697e-17 9.368882583108544e-17 -6.905870681643697e-17 9.368882583108544e-17 0.7991966972344244 -0.6010695792746529
12627154666.666666 0.7926076858277622 -0.6097319545231161 -6.801335128616356e-17 9.442239210619126e-17 -6.801335128616356e-17 9.442239210619126e-17 0.7926080970600963 -0.6097314199502873
12627772000.0 0.7859252056490358 -0.6183215758206577 -6.696021701887328e-17 9.514430493980998e-17 -6.696021701887328e-17 9.514430493980998e-17 0.7859256226542386 -0.6183210457807237
12628389333.333334 0.7791496427419979 -0.62683796487995 -6.589943381290473e-17 9.585448199827287e-17 -6.589943381290473e-17 9.585448199827287e-17 0.779150065470119 -0.6268374394352412
12629006666.666666 0.7722817995849232 -0.6352801130443899 -6.483113233631397e-17 9.655284239242786e-17 -6.483113233631397e-17 9.655284239242786e-17 0.7722822279853389 -0.6352795922566861
12629624000.0 0.7653224895855639 -0.6436470204501651 -6.375544411084224e-17 9.723930668678722e-17 -6.375544411084224e-17 9.723930668678722e-17 0.7653229236069834 -0.6436465043806886
12630241333.333334 0.7582725369847056 -0.6519376961448078 -6.267250149574055e-17 9.791379690852807e-17 -6.267250149574055e-17 9.791379690852807e-17 0.7582729765751778 -0.6519371848542161
12630858666.666666 0.7511327767586563 -0.66015115820443 -6.158243767153603e-17 9.857623655629031e-17 -6.158243767153603e-17 9.857623655629031e-17 0.7511332218655763 -0.6601506517528097
12631476000.0 0.7439040545201532 -0.6682864338502595 -6.048538662364107e-17 9.922655060883379e-17 -6.048538662364107e-17 9.922655060883379e-17 0.7439045050902663 -0.6682859322971165
12632093333.333334 0.7365872264184478 -0.6763425595635688 -5.938148312598178e-17 9.986466553344673e-17 -5.938148312598178e-17 9.986466553344673e-17 0.7365876823978587 -0.6763420629678242
12632710666.666666 0.729183159037798 -0.6843185811999247 -5.827086272443151e-17 1.0049050929423796e-16 -5.827086272443151e-17 1.0049050929423796e-16 0.7291836203719758 -0.6843180896199064
12633328000.0 0.7216927292947363 -0.6922135541022979 -5.715366172018777e-17 1.0110401136022509e-16 -5.715366172018777e-17 1.0110401136022509e-16 0.7216931959285214 -0.6922130675957344
12633945333.333334 0.7141168243343807 -0.7000265432127557 -5.6030017153117e-17 1.0170510271320997e-16 -5.6030017153117e-17 1.0170510271320997e-16 0.7141172962119913 -0.700026061836769
12634562666.666666 0.7064563414252689 -0.7077566231833128 -5.490006678495105e-17 1.0229371585550674e-16 -5.490006678495105e-17 1.0229371585550674e-16 0.7064568184903068 -0.7077561469944108
12635180000.0 0.6987121878531274 -0.7154028784854854 -5.3763949082434775e-17 1.028697848174656e-16 -5.3763949082434775e-17 1.028697848174656e-16 0.6987126700485867 -0.7154024075395577
12635797333.333334 0.6908852808132926 -0.7229644035188441 -5.262180320038696e-17 1.0343324516481525e-16 -5.262180320038696e-17 1.0343324516481525e-16 0.6908857680815659 -0.7229639378711538
12636414666.666666 0.6829765473023698 -0.7304403027179935 -5.1473768964699515e-17 1.0398403400580948e-16 -5.1473768964699515e-17 1.0398403400580948e-16 0.6829770395852527 -0.7304398424231696
12637032000.0 0.6749869240081317 -0.7378296906589363 -5.031998685523337e-17 1.0452208999820086e-16 -5.031998685523337e-17 1.0452208999820086e-16 0.6749874212468323 -0.7378292357709687
12637649333.333334 0.6669173571986822 -0.7451316921638391 -4.9160597988671576e-17 1.0504735335600983e-16 -4.9160597988671576e-17 1.0504735335600983e-16 0.6669178593338283 -0.7451312427360731
12638266666.666666 0.6587688026104677 -0.7523454424046112 -4.79957441012881e-17 1.0555976585611232e-16 -4.79957441012881e-17 1.0555976585611232e-16 0.6587693095821125 -0.75234499848974
12638884000.0 0.6505422253350001 -0.7594700870054105 -4.6825567531651513e-17 1.0605927084463431e-16 -4.6825567531651513e-17 1.0605927084463431e-16 0.6505427370826294 -0.7594696486554685
12639501333.333334 0.6422385997045507 -0.7665047821438294 -4.565021120325994e-17 1.0654581324315678e-16 -4.565021120325994e-17 1.0654581324315678e-16 0.642239116167091 -0.7665043494101874
12640118666.666666 0.6338589091768838 -0.7734486946507257 -4.446981860713693e-17 1.0701933955471884e-16 -4.446981860713693e-17 1.0701933955471884e-16 0.6338594302927095 -0.7734482675840847
12640736000.0 0.6254041462184329 -0.780301002109195 -4.328453378428037e-17 1.0747979786966272e-16 -4.328453378428037e-17 1.0747979786966272e-16 0.6254046719253731 -0.7803005807595794
12641353333.333334 0.616875312187277 -0.7870608929515359 -4.209450130821999e-17 1.0792713787121797e-16 -4.209450130821999e-17 1.0792713787121797e-16 0.6168758424226234 -0.7870604773682891
12641970666.666666 0.6082734172140858 -0.7937275665557546 -4.0899866267319037e-17 1.0836131084097124e-16 -4.0899866267319037e-17 1.0836131084097124e-16 0.6082739519145989 -0.7937271567875303
12642588000.0 0.5995994800826977 -0.8003002333402008 -3.9700774247164664e-17 1.087822696640847e-16 -3.9700774247164664e-17 1.087822696640847e-16 0.5996000191846167 -0.8002998294349614
12643205333.333334 0.590854528109441 -0.8067781148571087 -3.8497371312837956e-17 1.0918996883434559e-16 -3.8497371312837956e-17 1.0918996883434559e-16 0.5908550715484897 -0.8067777168621165
12643822666.666666 0.5820395970213693 -0.8131604438848603 -3.728980399115777e-17 1.0958436445901135e-16 -3.728980399115777e-17 1.0958436445901135e-16 0.5820401447327636 -0.8131600518466732
12644440000.0 0.5731557308337042 -0.8194464645187649 -3.607821925287287e-17 1.0996541426345906e-16 -3.607821925287287e-17 1.0996541426345906e-16 0.5731562827521608 -0.8194460784832309
12645057333.333334 0.5642039817261664 -0.8256354322606082 -3.486276449480481e-17 1.1033307759564132e-16 -3.486276449480481e-17 1.1033307759564132e-16 0.5642045377859101 -0.82563505227286
12645674666.666666 0.555185409918357 -0.8317266141068276 -3.3643587521946127e-17 1.1068731543034328e-16 -3.3643587521946127e-17 1.1068731543034328e-16 0.5551859700531285 -0.831726240211277
12646292000.0 0.5461010835440245 -0.8377192886354379 -3.242083652949466e-17 1.1102809037325003e-16 -3.242083652949466e-17 1.1102809037325003e-16 0.546101647687089 -0.8377189208757718
12646909333.333334 0.5369520785248629 -0.8436127460912681 -3.119466008491064e-17 1.113553666647965e-16 -3.119466008491064e-17 1.113553666647965e-16 0.5369526466090168 -0.8436123845104417
12647526666.666666 0.5277394784428486 -0.8494062884701826 -2.996520710986397e-17 1.1166911018384207e-16 -2.996520710986397e-17 1.1166911018384207e-16 0.527740050400428 -0.8494059331104152
12648144000.0 0.5184643744119244 -0.8550992296017307 -2.873262686217995e-17 1.119692884511342e-16 -2.873262686217995e-17 1.119692884511342e-16 0.5184649501748132 -0.8550988805045002
12648761333.333334 0.5091278649488677 -0.8606908952303542 -2.7497068917761817e-17 1.122558706325727e-16 -2.7497068917761817e-17 1.122558706325727e-16 0.5091284444485065 -0.8606905524363939
12649378666.666666 0.49973105584318817 -0.866180623095249 -2.6258683152469086e-17 1.125288275422779e-16 -2.6258683152469086e-17 1.125288275422779e-16 0.4997316390105811 -0.866180286644541
12649996000.0 0.4902750600260367 -0.8715677630088706 -2.5017619723950872e-17 1.127881316454622e-16 -2.5017619723950872e-17 1.127881316454622e-16 0.49027564679176094 -0.871567432940643
12650613333.333334 0.48076099743846806 -0.8768516769338992 -2.37740290534781e-17 1.1303375706109685e-16 -2.37740290534781e-17 1.1303375706109685e-16 0.4807615877326803 -0.8768513532866181
12651230666.666666 0.4711899948988956 -0.8820317390587483 -2.2528061807754203e-17 1.132656795643776e-16 -2.2528061807754203e-17 1.132656795643776e-16 0.4711905886513427 -0.8820314218701181
12651848000.0 0.4615631859693881 -0.8871073358718267 -2.127986888066174e-17 1.1348387658899894e-16 -2.127986888066174e-17 1.1348387658899894e-16 0.4615637831094134 -0.8871070251787816
12652465333.333334 0.45188171082163453 -0.8920778662340714 -2.002960137503048e-17 1.1368832722921946e-16 -2.002960137503048e-17 1.1368832722921946e-16 0.45188231127818784 -0.8920775620727743
12653082666.666666 0.44214671610191075 -0.896942741450154 -1.877741058441022e-17 1.1387901224172287e-16 -1.877741058441022e-17 1.1387901224172287e-16 0.44214731980355504 -0.896942443855989
12653700000.0 0.432359354795017 -0.901701385338327 -1.752344797471468e-17 1.1405591404729808e-16 -1.752344797471468e-17 1.1405591404729808e-16 0.4323599616699387 -0.9017010943458982
12654317333.333334 0.4225207860880796 -0.9063532342984905 -1.6267865166010194e-17 1.1421901673229155e-16 -1.6267865166010194e-17 1.1421901673229155e-16 0.42252139606409567 -0.9063529499416155
12654934666.666666 0.4126321752330295 -0.9108977373790539 -1.501081391416362e-17 1.143683060498801e-16 -1.501081391416362e-17 1.143683060498801e-16 0.4126327882375979 -0.9108974596907641
12655552000.0 0.40269469340846503 -0.9153343563422514 -1.3752446092532715e-17 1.145037694211335e-16 -1.3752446092532715e-17 1.145037694211335e-16 0.402695309368691 -0.915334085354782
12656169333.333334 0.39270951758143074 -0.9196625657276603 -1.2492913673675741e-17 1.1462539593587408e-16 -1.2492913673675741e-17 1.1462539593587408e-16 0.3927101364240766 -0.9196623014724504
12656786666.666666 0.3826778303675022 -0.9238818529146695 -1.1232368710994321e-17 1.1473317635334193e-16 -1.1232368710994321e-17 1.1473317635334193e-16 0.38267845201899714 -0.9238815954223604
12657404000.0 0.37260081989100896 -0.9279917181830719 -9.970963320422647e-18 1.1482710310265393e-16 -9.970963320422647e-18 1.1482710310265393e-16 0.37260144427745545 -0.9279914674834977
12658021333.333334 0.36247967964410327 -0.9319916747723287 -8.70884966209343e-18 1.1490717028306335e-16 -8.70884966209343e-18 1.1490717028306335e-16 0.3624803066912879 -0.9319914308945183
12658638666.666666 0.3523156083458307 -0.935881248939057 -7.446179922028625e-18 1.1497337366401784e-16 -7.446179922028625e-18 1.1497337366401784e-16 0.3523162379792318 -0.9358810119112275
12659256000.0 0.3421098097995215 -0.9396599800133858 -6.183106293785105e-18 1.1502571068501849e-16 -6.183106293785105e-18 1.1502571068501849e-16 0.3421104419443185 -0.939659749862941
12659873333.333334 0.33186349275074556 -0.9433274204533105 -4.9197809601686894e-18 1.1506418045527475e-16 -4.9197809601686894e-18 1.1506418045527475e-16 0.3318641273318278 -0.9433271972068363
12660490666.666666 0.3215778707440209 -0.9468831358977539 -3.6563560749272444e-18 1.1508878375316117e-16 -3.6563560749272444e-18 1.1508878375316117e-16 0.3215785076859964 -0.946882919581016
12661108000.0 0.31125416197884204 -0.9503267052180899 -2.3929837444216122e-18 1.150995230254728e-16 -2.3929837444216122e-18 1.150995230254728e-16 0.31125480120604687 -0.9503264958560325
12661725333.333334 0.3008935891657774 -0.953657720567897 -1.1298160093879816e-18 1.1509640238647978e-16 -1.1298160093879816e-18 1.1509640238647978e-16 0.3008942306022842 -0.9536575181846366
12662342666.666666 0.29049737938135844 -0.9568757874313596 1.3299517336330036e-19 1.1507942761678205e-16 1.3299517336330036e-19 1.1507942761678205e-16 0.2904980229509855 -0.956875592050184
12662960000.0 0.2800667639228822 -0.9599805246699468 1.3952979491956675e-18 1.150486061619641e-16 1.3952979491956675e-18 1.150486061619641e-16 0.28006740954920273 -0.9599803363133126
12663577333.333334 0.269602978162554 -0.9629715645675648 2.6569405838618002e-18 1.150039471310497e-16 2.6569405838618002e-18 1.150039471310497e-16 0.26960362576890506 -0.9629713832570944
12664194666.666666 0.2591072614011728 -0.9658485528741061 3.917771481726937e-18 1.1494546129475743e-16 3.917771481726937e-18 1.1494546129475743e-16 0.25910791091066465 -0.9658483786305863
12664812000.0 0.24858085672135305 -0.9686111488474104 5.1776392039520525e-18 1.148731610835566e-16 5.1776392039520525e-18 1.148731610835566e-16 0.2485815080568776 -0.968610981690787
12665429333.333334 0.23802501084026817 -0.9712590252936197 6.436392486657593e-18 1.1478706058552395e-16 6.436392486657593e-18 1.1478706058552395e-16 0.23802566392450902 -0.9712588652429992
12666046666.666666 0.2274409739621325 -0.9737918686059043 7.693880259039583e-18 1.1468717554400419e-16 7.693880259039583e-18 1.1468717554400419e-16 0.22744162871757356 -0.9737917156795487
12666664000.0 0.21682999962982627 -0.9762093788016745 8.9499516615075e-18 1.1457352335506703e-16 8.9499516615075e-18 1.1457352335506703e-16 0.21683065597876106 -0.976209233017001
12667281333.333334 0.20619334457681684 -0.9785112695580205 1.0204456063708305e-17 1.1444612306477362e-16 1.0204456063708305e-17 1.1444612306477362e-16 0.2061940024413577 -0.978511130931598
12667898666.666666 0.19553226857803768 -0.9806972682456851 1.1457243082593971e-17 1.143049953662389e-16 1.1457243082593971e-17 1.143049953662389e-16 0.1955329278801251 -0.980697136793234
12668516000.0 0.18484803430068386 -0.9827671159613527 1.270816260041965e-17 1.1415016259649944e-16 1.270816260041965e-17 1.1415016259649944e-16 0.18484869496209588 -0.9827669916977427
12669133333.333334 0.17414190715491676 -0.9847205675582644 1.3957064782673746e-17 1.139816487331883e-16 1.3957064782673746e-17 1.139816487331883e-16 0.17414256909727777 -0.9847204504975111
12669750666.666666 0.1634151551437127 -0.9865573916753037 1.5203800096028533e-17 1.1379947939100674e-16 1.5203800096028533e-17 1.1379947939100674e-16 0.16341581828850316 -0.9865572818305689
12670368000.0 0.1526690487127966 -0.9882773707643788 1.6448219326202144e-17 1.136036818180056e-16 1.6448219326202144e-17 1.136036818180056e-16 0.15266971298136206 -0.9882772681479678
