! Parameters = {f0=12700.012000; bw=77.238000; Q=6100.000000; N=10; m_0_1=1.323619; m_1_1=1.089534; m_1_2=1.158431; m_2_2=1.088885; m_2_3=0.795394; m_2_8=0.003245; m_2_9=0.039949; m_3_3=1.086948; m_3_4=0.683923; m_3_7=0.003845; m_3_8=-0.093243; m_3_9=0.003245; m_4_4=1.084023; m_4_5=0.520258; m_4_6=0.007362; m_4_7=-0.113792; m_4_8=0.003845; m_5_5=1.084405; m_5_6=0.927613; m_5_7=0.007362; m_6_6=1.084404; m_6_7=0.520600; m_7_7=1.084037; m_7_8=0.684041; m_8_8=1.086946; m_8_9=0.795707; m_9_9=1.088880; m_9_10=1.159509; m_10_10=1.089524; m_10_11=1.324414}
!
! Created with skrf (http://scikit-rf.org).
# Hz S RI R 50.0 
!freq ReS11 ImS11 ReS21 ImS21 ReS12 ImS12 ReS22 ImS22
12607400000.0 0.977816062759942 -0.20946538474997234 -1.2424034028673143e-16 6.771757574074489e-17 -1.2424034028673143e-16 6.771757574074489e-17 0.9778162088113942 -0.2094647029585651
12608017333.333334 0.9752082309421615 -0.22128919156268834 -1.2338102286306225e-16 6.921427375447346e-17 -1.2338102286306225e-16 6.921427375447346e-17 0.9752083852303204 -0.22128851162290122
12608634666.666666 0.9724574304832323 -0.23308055667034508 -1.22503687961012e-16 7.07000895241203e-17 -1.22503687961012e-16 7.07000895241203e-17 0.9724575929846734 -0.23307987868167326
12609252000.0 0.9695640646593864 -0.2448377514211763 -1.2160847312971223e-16 7.217480631186391e-17 -1.2160847312971223e-16 7.217480631186391e-17 0.9695642353494833 -0.2448370754828192
12609869333.333334 0.9665285576473787 -0.25655905217295616 -1.206955185235315e-16 7.363820911540077e-17 -1.206955185235315e-16 7.363820911540077e-17 0.9665287365003079 -0.25655837838380297
12610486666.666666 0.9633513544623751 -0.268242740545416 -1.1976496688023744e-16 7.509008469919912e-17 -1.1976496688023744e-16 7.509008469919912e-17 0.9633515414511178 -0.268242069004031
12611104000.0 0.9600329208925479 -0.27988710367276826 -1.188169634987151e-16 7.653022162558705e-17 -1.188169634987151e-16 7.653022162558705e-17 0.9600331159888961 -0.2798864344773769
12611721333.333334 0.9565737434310007 -0.2914904344540502 -1.178516562164096e-16 7.795841028540788e-17 -1.178516562164096e-16 7.795841028540788e-17 0.9565739466055597 -0.291489767702524
12612338666.666666 0.9529743292042949 -0.3030510318039386 -1.168691953863167e-16 7.937444292852453e-17 -1.168691953863167e-16 7.937444292852453e-17 0.9529745404264909 -0.30305036759378173
12612956000.0 0.9492352058981078 -0.31456720090210544 -1.158697338536418e-16 8.077811369398022e-17 -1.158697338536418e-16 8.077811369398022e-17 0.949235425136188 -0.3145665393304395
12613573333.333334 0.9453569216799861 -0.326037253441303 -1.148534269321171e-16 8.216921863984166e-17 -1.148534269321171e-16 8.216921863984166e-17 0.945357148901027 -0.3260365946048539
12614190666.666666 0.9413400451188703 -0.33745950787525736 -1.138204323799169e-16 8.354755577280636e-17 -1.138204323799169e-16 8.354755577280636e-17 0.9413402802887805 -0.33745885187033986
12614808000.0 0.9371851651017885 -0.3488322896650234 -1.1277091037525355e-16 8.491292507746072e-17 -1.1277091037525355e-16 8.491292507746072e-17 0.9371854081853149 -0.3488316365875281
12615425333.333334 0.9328928907475128 -0.36015393152450514 -1.1170502349160945e-16 8.626512854525114e-17 -1.1170502349160945e-16 8.626512854525114e-17 0.9328931417082463 -0.36015328146988435
12616042666.666666 0.9284638513172659 -0.37142277366488635 -1.106229366726247e-16 8.760397020314306e-17 -1.106229366726247e-16 8.760397020314306e-17 0.9284641101176466 -0.37142212672813985
12616660000.0 0.9238986961224671 -0.38263716403796044 -1.0952481720664216e-16 8.892925614196525e-17 -1.0952481720664216e-16 8.892925614196525e-17 0.9238989627237881 -0.3826365203136213
12617277333.333334 0.9191980944295173 -0.3937954585783773 -1.0841083470091142e-16 9.02407945444399e-17 -1.0841083470091142e-16 9.02407945444399e-17 0.919198368791932 -0.3937948181604984
12617894666.666666 0.9143627353617922 -0.404896021444407 -1.0728116105547384e-16 9.153839571287219e-17 -1.0728116105547384e-16 9.153839571287219e-17 0.9143630174443222 -0.404895384426548
12618512000.0 0.9093933277983879 -0.4159372252583109 -1.0613597043667463e-16 9.282187209656255e-17 -1.0613597043667463e-16 9.282187209656255e-17 0.9093936175589252 -0.4159365917335233
12619129333.333334 0.9042906002704576 -0.42691745134429016 -1.0497543925041439e-16 9.409103831881295e-17 -1.0497543925041439e-16 9.409103831881295e-17 0.9042908976657734 -0.4269168214051045
12619746666.666666 0.8990553008542431 -0.43783508996618287 -1.0379974611501466e-16 9.534571120367241e-17 -1.0379974611501466e-16 9.534571120367241e-17 0.8990556058399934 -0.43783446370459483
12620364000.0 0.8936881970614093 -0.4486885405634272 -1.026090718337913e-16 9.658570980231383e-17 -1.026090718337913e-16 9.658570980231383e-17 0.8936885095921415 -0.4486879180708844
12620981333.333334 0.8881900757266343 -0.45947621198547794 -1.0140359936733889e-16 9.781085541904395e-17 -1.0140359936733889e-16 9.781085541904395e-17 0.8881903957557965 -0.45947559335286753
12621598666.666666 0.8825617428921413 -0.4701965227253335 -1.0018351380545276e-16 9.902097163702303e-17 -1.0018351380545276e-16 9.902097163702303e-17 0.8825620703720835 -0.47019590804296624
12622216000.0 0.8768040236895804 -0.4808479011512571 -9.894900233878679e-17 1.0021588434359226e-16 -9.894900233878679e-17 1.0021588434359226e-16 0.8768043585715684 -0.4808472905088575
12622833333.333334 0.8709177622190328 -0.49142878573726273 -9.770025423019077e-17 1.0139542175526895e-16 -9.770025423019077e-17 1.0139542175526895e-16 0.8709181044532486 -0.49142817922395243
12623450666.666666 0.8649038214253654 -0.5019376252918376 -9.643746078576772e-17 1.0255941444236859e-16 -9.643746078576772e-17 1.0255941444236859e-16 0.8649041709609198 -0.5019370229961254
12624068000.0 0.8587630829715864 -0.5123728791856027 -9.516081532561599e-17 1.0370769535328997e-16 -9.516081532561599e-17 1.0370769535328997e-16 0.8587634397565264 -0.512372281195371
12624685333.333334 0.8524964471095744 -0.5227330175771966 -9.387051315427643e-17 1.0484009983844135e-16 -9.387051315427643e-17 1.0484009983844135e-16 0.8524968110908864 -0.5227324239796868
12625302666.666666 0.8461048325483099 -0.5330165216371854 -9.256675153097707e-17 1.0595646567372866e-16 -9.256675153097707e-17 1.0595646567372866e-16 0.8461052036719329 -0.5330159325189875
12625920000.0 0.83958917631892 -0.5432218837711958 -9.12497296394492e-17 1.0705663308380688e-16 -9.12497296394492e-17 1.0705663308380688e-16 0.8395895545297499 -0.5432212992182338
12626537333.333334 0.8329504336375055 -0.5533476078405882 -8.991964855762822e-17 1.0814044476481782e-16 -8.991964855762822e-17 1.0814044476481782e-16 0.8329508188794047 -0.5533470279381086
12627154666.666666 0.8261895777650988 -0.5633922093818265 -8.857671122699481e-17 1.0920774590683124e-16 -8.857671122699481e-17 1.0920774590683124e-16 0.8261899699809068 -0.5633916342143873
12627772000.0 0.8193075998647117 -0.5733542158245065 -8.722112242161867e-17 1.1025838421593002e-16 -8.722112242161867e-17 1.1025838421593002e-16 0.8193079989962475 -0.5733536454759607
12628389333.333334 0.8123055088564827 -0.5832321667065522 -8.585308871708269e-17 1.1129220993580048e-16 -8.585308871708269e-17 1.1129220993580048e-16 0.8123059148445606 -0.5832316012600405
12629006666.666666 0.8051843312692903 -0.5930246138890319 -8.4472818458966e-17 1.1230907586908304e-16 -8.4472818458966e-17 1.1230907586908304e-16 0.8051847440537231 -0.5930240534269667
12629624000.0 0.7979451110906126 -0.6027301217679425 -8.308052173124037e-17 1.13308837398206e-16 -8.308052173124037e-17 1.13308837398206e-16 0.7979455306102236 -0.6027295663719986
12630241333.333334 0.7905889096132989 -0.6123472674849327 -8.167641032431623e-17 1.1429135250590917e-16 -8.167641032431623e-17 1.1429135250590917e-16 0.7905893358059304 -0.6123467172360341
12630858666.666666 0.7831168052800977 -0.6218746411357373 -8.02606977029046e-17 1.1525648179532854e-16 -8.02606977029046e-17 1.1525648179532854e-16 0.7831172380826188 -0.6218740961140445
12631476000.0 0.7755298935253638 -0.6313108459771216 -7.883359897358418e-17 1.1620408850972569e-16 -7.883359897358418e-17 1.1620408850972569e-16 0.7755303328736808 -0.6313103062620216
12632093333.333334 0.7678292866146678 -0.640654498631375 -7.739533085221575e-17 1.1713403855176214e-16 -7.739533085221575e-17 1.1713403855176214e-16 0.7678297324437359 -0.6406539643014705
12632710666.666666 0.7600161134817333 -0.6499042292891549 -7.594611163106795e-17 1.1804620050241443e-16 -7.594611163106795e-17 1.1804620050241443e-16 0.7600165657255614 -0.6499037004222492
12633328000.0 0.7520915195626435 -0.6590586819106191 -7.448616114572345e-17 1.1894044563947928e-16 -7.448616114572345e-17 1.1894044563947928e-16 0.7520919781543082 -0.6590581585837088
12633945333.333334 0.7440566666282722 -0.668116514423819 -7.301570074181669e-17 1.1981664795564205e-16 -7.301570074181669e-17 1.1981664795564205e-16 0.744057131499925 -0.6681159967130803
12634562666.666666 0.7359127326137768 -0.6770763989216669 -7.153495324151232e-17 1.2067468417616338e-16 -7.153495324151232e-17 1.2067468417616338e-16 0.7359132036966562 -0.6770758869024455
12635180000.0 0.7276609114459498 -0.6859370218565686 -7.004414290979804e-17 1.2151443377614077e-16 -7.004414290979804e-17 1.2151443377614077e-16 0.7276613886703894 -0.6859365156033679
12635797333.333334 0.7193024128681618 -0.6946970842330128 -6.854349542056848e-17 1.2233577899735767e-16 -6.854349542056848e-17 1.2233577899735767e-16 0.7193028961636031 -0.6946965838194846
12636414666.666666 0.7108384622630906 -0.7033553017979277 -6.7033237822531e-17 1.231386048647058e-16 -6.7033237822531e-17 1.231386048647058e-16 0.7108389515580911 -0.7033548072968602
12637032000.0 0.7022703004729576 -0.7119104052290788 -6.551359850488509e-17 1.2392279920220595e-16 -6.551359850488509e-17 1.2392279920220595e-16 0.7022707956952022 -0.7119099167123861
12637649333.333334 0.6935991836176941 -0.7203611403210738 -6.398480716285085e-17 1.2468825264858753e-16 -6.398480716285085e-17 1.2468825264858753e-16 0.6935996846940066 -0.7203606578597859
12638266666.666666 0.684826382910771 -0.7287062681692521 -6.244709476299953e-17 1.2543485867245282e-16 -6.244709476299953e-17 1.2543485867245282e-16 0.6848268897671245 -0.7287057918335055
12638884000.0 0.6759531844728368 -0.7369445653513164 -6.090069350841156e-17 1.2616251358701254e-16 -6.090069350841156e-17 1.2616251358701254e-16 0.6759536970343619 -0.7369440952103401
12639501333.333334 0.6669808891431204 -0.7450748241067212 -5.934583680366134e-17 1.2687111656439497e-16 -5.934583680366134e-17 1.2687111656439497e-16 0.6669814073341216 -0.7450743602288319
12640118666.666666 0.6579108122889636 -0.7530958525135335 -5.778275921966573e-17 1.2756056964951082e-16 -5.778275921966573e-17 1.2756056964951082e-16 0.6579113360329261 -0.753095394966122
12640736000.0 0.6487442836124058 -0.7610064746636769 -5.621169645827113e-17 1.282307777735309e-16 -5.621169645827113e-17 1.282307777735309e-16 0.6487448128320081 -0.7610060235131991
12641353333.333334 0.6394826469560777 -0.7688055308345911 -5.463288531688639e-17 1.28881648766841e-16 -5.463288531688639e-17 1.28881648766841e-16 0.6394831815732046 -0.7688050861465605
12641970666.666666 0.6301272601054229 -0.7764918776599291 -5.3046563652730156e-17 1.2951309337166524e-16 -5.3046563652730156e-17 1.2951309337166524e-16 0.6301278000411742 -0.7764914394989035
12642588000.0 0.6206794945900872 -0.7840643882967796 -5.14529703471016e-17 1.301250252541767e-16 -5.14529703471016e-17 1.301250252541767e-16 0.6206800397647908 -0.7840639567263542
12643205333.333334 0.6111407354827242 -0.7915219525909845 -4.985234526945563e-17 1.3071736101619675e-16 -4.985234526945563e-17 1.3071736101619675e-16 0.6111412858159484 -0.7915215276737823
12643822666.666666 0.6015123811958687 -0.7988634772399379 -4.824492924131789e-17 1.3129002020645982e-16 -4.824492924131789e-17 1.3129002020645982e-16 0.6015129366064333 -0.798863059037601
12644440000.0 0.5917958432770385 -0.8060878859527837 -4.6630964000143785e-17 1.318429253314113e-16 -4.6630964000143785e-17 1.318429253314113e-16 0.5917964036830268 -0.8060874745259631
12645057333.333334 0.5819925462017501 -0.8131941196082355 -4.501069216299179e-17 1.323760018655841e-16 -4.501069216299179e-17 1.323760018655841e-16 0.5819931115205208 -0.8131937150165831
12645674666.666666 0.5721039271648051 -0.8201811364097674 -4.3384357190125304e-17 1.3288917826151435e-16 -4.3384357190125304e-17 1.3288917826151435e-16 0.5721044973130052 -0.8201807387119274
12646292000.0 0.5621314358691726 -0.8270479120386384 -4.175220334841247e-17 1.3338238595923977e-16 -4.175220334841247e-17 1.3338238595923977e-16 0.5621320107627495 -0.8270475212922392
12646909333.333334 0.5520765343141112 -0.8337934398036061 -4.0114475674794566e-17 1.3385555939529424e-16 -4.0114475674794566e-17 1.3385555939529424e-16 0.5520771138683244 -0.8337930560652506
12647526666.666666 0.5419406965802501 -0.8404167307889119 -3.847141993945336e-17 1.3430863601131762e-16 -3.847141993945336e-17 1.3430863601131762e-16 0.5419412807096845 -0.8404163541141711
12648144000.0 0.5317254086137657 -0.8469168139990686 -3.682328260902391e-17 1.3474155626216982e-16 -3.682328260902391e-17 1.3474155626216982e-16 0.5317259972323436 -0.846916444442472
12648761333.333334 0.521432168008513 -0.8532927365012265 -3.517031080966933e-17 1.3515426362361128e-16 -3.517031080966933e-17 1.3515426362361128e-16 0.521432761029507 -0.8532923741162546
12649378666.666666 0.5110624837864995 -0.8595435635648626 -3.351275229007914e-17 1.3554670459952767e-16 -3.351275229007914e-17 1.3554670459952767e-16 0.5110630811225458 -0.8595432084039399
12649996000.0 0.500617876176538 -0.8656683787988922 -3.18508553843667e-17 1.3591882872870824e-16 -3.18508553843667e-17 1.3591882872870824e-16 0.5006184777396477 -0.8656680309133787
12650613333.333334 0.49009987639142005 -0.871666284285979 -3.018486897492443e-17 1.3627058859116085e-16 -3.018486897492443e-17 1.3627058859116085e-16 0.4901004820929945 -0.8716659437261636
12651230666.666666 0.47951002640366147 -0.8775364007140505 -2.851504245521657e-17 1.3660193981397443e-16 -2.851504245521657e-17 1.3660193981397443e-16 0.47951063615450323 -0.8775360675291429
12651848000.0 0.4688498787189478 -0.8832778675054858 -2.6841625692455618e-17 1.369128410767355e-16 -2.6841625692455618e-17 1.369128410767355e-16 0.46885049242927507 -0.8832775417436108
12652465333.333334 0.4581209961490026 -0.8888898429430144 -2.5164868990296942e-17 1.3720325411647403e-16 -2.5164868990296942e-17 1.3720325411647403e-16 0.4581216137284613 -0.8888895246512026
12653082666.666666 0.4473249515823518 -0.8943715042931866 -2.348502305144812e-17 1.3747314373216082e-16 -2.348502305144812e-17 1.3747314373216082e-16 0.4473255729400297 -0.8943711935173697
12653700000.0 0.4364633277535057 -0.8997220479271058 -2.1802338940194345e-17 1.377224777887535e-16 -2.1802338940194345e-17 1.377224777887535e-16 0.43646395279794603 -0.8997217447121093
12654317333.333334 0.4255377170112803 -0.904940689438063 -2.0117068044978632e-17 1.3795122722077016e-16 -2.0117068044978632e-17 1.3795122722077016e-16 0.425538345650494 -0.9049403938275994
12654934666.666666 0.4145497210850982 -0.9100266637566599 -1.842946204085435e-17 1.3815936603541933e-16 -1.842946204085435e-17 1.3815936603541933e-16 0.4145503532265787 -0.9100263757933224
12655552000.0 0.40350095085016957 -0.9149792252629664 -1.6739772851949054e-17 1.3834687131526618e-16 -1.6739772851949054e-17 1.3834687131526618e-16 0.40350158640090555 -0.9149789449882233
12656169333.333334 0.39239302609156546 -0.9197976478957277 -1.5048252613941288e-17 1.3851372322043637e-16 -1.5048252613941288e-17 1.3851372322043637e-16 0.3923936649580554 -0.9197973753499163
12656786666.666666 0.3812275752664936 -0.9244812252589228 -1.3355153636445873e-17 1.3865990499037034e-16 -1.3355153636445873e-17 1.3865990499037034e-16 0.38122821735475876 -0.9244809604812436
12657404000.0 0.37000623526569004 -0.9290292707252666 -1.1660728365447002e-17 1.3878540294511195e-16 -1.1660728365447002e-17 1.3878540294511195e-16 0.37000688048128855 -0.9290290137537771
12658021333.333334 0.3587306511733677 -0.9334411175369025 -9.965229345698138e-18 1.3889020648614163e-16 -9.965229345698138e-18 1.3889020648614163e-16 0.3587312994214086 -0.9334408684085125
12658638666.666666 0.34740247602630614 -0.9377161189030508 -8.268909183149565e-18 1.3897430809674954e-16 -8.268909183149565e-18 1.3897430809674954e-16 0.3474031272114632 -0.9377158776535169
12659256000.0 0.3360233705709824 -0.9418536480950354 -6.5720205073262015e-18 1.390377033419535e-16 -6.5720205073262015e-18 1.390377033419535e-16 0.3360240245975077 -0.9418534147589549
12659873333.333334 0.3245950030206005 -0.9458530985379635 -4.874815933767825e-18 1.3908039086795438e-16 -4.874815933767825e-18 1.3908039086795438e-16 0.3245956597923395 -0.9458528731487711
12660490666.666666 0.31311904881039887 -0.9497138838997148 -3.1775480265138807e-18 1.3910237240113603e-16 -3.1775480265138807e-18 1.3910237240113603e-16 0.3131197082308038 -0.9497136664896774
12661108000.0 0.30159719035178095 -0.9534354381769756 -1.4804692604681112e-18 1.3910365274660858e-16 -1.4804692604681112e-18 1.3910365274660858e-16 0.3015978523239251 -0.9534352287771863
12661725333.333334 0.2900311167860465 -0.9570172157780908 2.1616801599531612e-19 1.3908423978629197e-16 2.1616801599531612e-19 1.3908423978629197e-16 0.29003178121263873 -0.9570170144184659
12662342666.666666 0.278422523736461 -0.9604586916031475 1.9121116185899955e-18 1.3904414447654507e-16 1.9121116185899955e-18 1.3904414447654507e-16 0.2784231905198594 -0.9604584983124214
12662960000.0 0.2667731130598065 -0.9637593611209123 3.607109564529669e-18 1.3898338084533674e-16 3.607109564529669e-18 1.3898338084533674e-16 0.26677378210203395 -0.9637591759266347
12663577333.333334 0.2550845925968581 -0.9669187404428067 5.300910109903995e-18 1.389019659889631e-16 5.300910109903995e-18 1.389019659889631e-16 0.2550852637996153 -0.9669185633713371
12664194666.666666 0.2433586759220082 -0.9699363663938465 6.993261787035822e-18 1.387999200683083e-16 6.993261787035822e-18 1.387999200683083e-16 0.2433593491866885 -0.9699361974703495
12664812000.0 0.23159708209205024 -0.9728117965805407 8.683913441763092e-18 1.386772663046522e-16 8.683913441763092e-18 1.386772663046522e-16 0.23159775731975504 -0.972811635828987
12665429333.333334 0.21980153539413355 -0.9755446094557602 1.037261427066747e-17 1.3853403097502372e-16 1.037261427066747e-17 1.3853403097502372e-16 0.21980221248568593 -0.9755444568989193
12666046666.666666 0.207973765093115 -0.9781344043805045 1.2059113858212699e-17 1.3837024340710383e-16 1.2059113858212699e-17 1.3837024340710383e-16 0.20797444394907422 -0.9781342600399411
12666664000.0 0.1961155051777379 -0.9805808016827018 1.3743162213873734e-17 1.381859359736715e-16 1.3743162213873734e-17 1.381859359736715e-16 0.19611618569841455 -0.9805806655787759
12667281333.333334 0.1842284941068132 -0.9828834427127904 1.542450980908998e-17 1.379811440866082e-16 1.542450980908998e-17 1.379811440866082e-16 0.1842291761922831 -0.9828833148646497
12667898666.666666 0.17231447455407695 -0.9850419898963508 1.710290761422968e-17 1.3775590619044353e-16 1.710290761422968e-17 1.3775590619044353e-16 0.17231515810419695 -0.9850418703219351
12668516000.0 0.16037519315270943 -0.9870561267835998 1.8778107135426354e-17 1.375102637554558e-16 1.8778107135426354e-17 1.375102637554558e-16 0.16037587806713077 -0.9870560154996304
12669133333.333334 0.1484124002395238 -0.9889255580957315 2.0449860451286267e-17 1.3724426127033147e-16 2.0449860451286267e-17 1.3724426127033147e-16 0.148413086417708 -0.9889254551177152
12669750666.666666 0.1364278495980822 -0.9906500097682599 2.2117920249570505e-17 1.3695794623436745e-16 2.2117920249570505e-17 1.3695794623436745e-16 0.13642853693931503 -0.9906499151104835
12670368000.0 0.12442329820169677 -0.9922292289911753 2.378203986371761e-17 1.3665136914923687e-16 2.378203986371761e-17 1.3665136914923687e-16 0.1244239866051034 -0.992229142666704
