! Parameters = {f0=12700.012000; bw=77.238000; Q=6100.000000; N=10; m_0_1=1.152447; m_1_1=-1.478034; m_1_2=0.987259; m_2_2=-1.478683; m_2_3=0.624222; m_2_8=-0.005314; m_2_9=0.031390; m_3_3=-1.480620; m_3_4=0.512751; m_3_7=-0.004714; m_3_8=-0.101802; m_3_9=-0.005314; m_4_4=-1.483545; m_4_5=0.349086; m_4_6=-0.001197; m_4_7=-0.122351; m_4_8=-0.004714; m_5_5=-1.483163; m_5_6=0.756441; m_5_7=-0.001197; m_6_6=-1.483164; m_6_7=0.349428; m_7_7=-1.483531; m_7_8=0.512869; m_8_8=-1.480622; m_8_9=0.624535; m_9_9=-1.478688; m_9_10=0.988337; m_10_10=-1.478044; m_10_11=1.153242}
!
! Created with skrf (http://scikit-rf.org).
# Hz S RI R 50.0 
!freq ReS11 ImS11 ReS21 ImS21 ReS12 ImS12 ReS22 ImS22
12607400000.0 -0.8903104150473429 0.45535410930185166 4.442893907118683e-17 -4.2293474734109855e-17 4.442893907118683e-17 -4.2293474734109855e-17 -0.8903106916176688 0.4553535685498934
12608017333.333334 -0.8870790926458294 0.4616174643473824 4.411734024405958e-17 -4.2601114206723095e-17 4.411734024405958e-17 -4.2601114206723095e-17 -0.8870793730066269 0.4616169255844334
12608634666.666666 -0.883803708085693 0.46785789036184344 4.380361579752296e-17 -4.290646273329395e-17 4.380361579752296e-17 -4.290646273329395e-17 -0.8838039922226653 0.4678573536144685
12609252000.0 -0.8804844240587849 0.4740750773767002 4.34877825419145e-17 -4.320950566037065e-17 4.34877825419145e-17 -4.320950566037065e-17 -0.8804847119574499 0.4740745426713616
12609869333.333334 -0.8771214054374774 0.48026871657775017 4.316985738833919e-17 -4.3510228457624365e-17 4.316985738833919e-17 -4.3510228457624365e-17 -0.8771216970831669 0.4802681839408059
12610486666.666666 -0.8737148192665788 0.48643850032026037 4.2849857347779295e-17 -4.380861671853057e-17 4.2849857347779295e-17 -4.380861671853057e-17 -0.8737151146444404 0.48643796977796316
12611104000.0 -0.8702648347547955 0.4925841221446992 4.252779953017921e-17 -4.4104656161063117e-17 4.252779953017921e-17 -4.4104656161063117e-17 -0.8702651338497921 0.49258359372319493
12611721333.333334 -0.8667716232666247 0.4987052767914091 4.2203701143546444e-17 -4.439833262836304e-17 4.2203701143546444e-17 -4.439833262836304e-17 -0.866771926063537 0.49870475051673646
12612338666.666666 -0.8632353583135973 0.5048016602162182 4.187757949302847e-17 -4.4689632089418215e-17 4.187757949302847e-17 -4.4689632089418215e-17 -0.8632356647970238 0.5048011361143064
12612956000.0 -0.8596562155457689 0.510872969605343 4.154945197999754e-17 -4.497854063972422e-17 4.154945197999754e-17 -4.497854063972422e-17 -0.8596565257001257 0.5108724477020105
12613573333.333334 -0.8560343727430234 0.5169189033903798 4.1219336101130555e-17 -4.5265044501940605e-17 4.1219336101130555e-17 -4.5265044501940605e-17 -0.8560346865525466 0.5169183837113341
12614190666.666666 -0.8523700098061436 0.5229391612634579 4.088724944747831e-17 -4.554913002654415e-17 4.088724944747831e-17 -4.554913002654415e-17 -0.8523703272548884 0.5229386438342923
12614808000.0 -0.8486633087479909 0.5289334441919581 4.055320970353098e-17 -4.583078369247594e-17 4.055320970353098e-17 -4.583078369247594e-17 -0.8486636298198332 0.5289329290381524
12615425333.333334 -0.844914453684345 0.5349014544335621 4.0217234646284e-17 -4.610999210777676e-17 4.0217234646284e-17 -4.610999210777676e-17 -0.8449147783629837 0.5349009415804808
12616042666.666666 -0.84112363082488 0.5408428955508473 3.987934214430111e-17 -4.638674201021459e-17 3.987934214430111e-17 -4.638674201021459e-17 -0.841123959093836 0.5408423850237383
12616660000.0 -0.8372910284638115 0.5467574724261819 3.9539550156760083e-17 -4.6661020267916815e-17 3.9539550156760083e-17 -4.6661020267916815e-17 -0.837291360306428 0.5467569642501741
12617277333.333334 -0.8334168369705682 0.5526448912763315 3.919787673251244e-17 -4.6932813879979457e-17 3.919787673251244e-17 -4.6932813879979457e-17 -0.8334171723700128 0.5526443854764348
12617894666.666666 -0.8295012487804652 0.5585048596668647 3.885434000912726e-17 -4.720210997707994e-17 3.885434000912726e-17 -4.720210997707994e-17 -0.8295015877197315 0.5585043562679693
12618512000.0 -0.8255444583848776 0.5643370865270808 3.8508958211922536e-17 -4.746889582208901e-17 3.8508958211922536e-17 -4.746889582208901e-17 -0.8255448008467847 0.564336585553955
12619129333.333334 -0.8215466623218491 0.5701412821640653 3.816174965302642e-17 -4.773315881064888e-17 3.816174965302642e-17 -4.773315881064888e-17 -0.8215470082890428 0.5701407836413547
12619746666.666666 -0.8175080591662018 0.5759171582772687 3.7812732730388226e-17 -4.7994886471780983e-17 3.7812732730388226e-17 -4.7994886471780983e-17 -0.817508408621155 0.575916662229494
12620364000.0 -0.8134288495196408 0.581664427972873 3.7461925926819416e-17 -4.825406646845985e-17 3.7461925926819416e-17 -4.825406646845985e-17 -0.8134292024446547 0.5816639344244295
12620981333.333334 -0.8093092360009027 0.5873828057778774 3.7109347809022554e-17 -4.851068659818637e-17 3.7109347809022554e-17 -4.851068659818637e-17 -0.809309592378109 0.5873823147530348
12621598666.666666 -0.8051494232355605 0.593072007654465 3.675501702660405e-17 -4.8764734793563563e-17 3.675501702660405e-17 -4.8764734793563563e-17 -0.805149783046922 0.5930715191773661
12622216000.0 -0.8009496178459967 0.5987317510139296 3.639895231110349e-17 -4.901619912284931e-17 3.639895231110349e-17 -4.901619912284931e-17 -0.8009499810733045 0.5987312651085859
12622833333.333334 -0.7967100284409983 0.6043617547308895 3.6041172474997406e-17 -4.9265067790518863e-17 3.6041172474997406e-17 -4.9265067790518863e-17 -0.7967103950658765 0.6043612714211832
12623450666.666666 -0.7924308656055162 0.6099617391570941 3.568169641072131e-17 -4.9511329137803716e-17 3.568169641072131e-17 -4.9511329137803716e-17 -0.7924312356094249 0.6099612584667781
12624068000.0 -0.7881123418901773 0.6155314261353643 3.532054308966716e-17 -4.9754971643238354e-17 3.532054308966716e-17 -4.9754971643238354e-17 -0.7881127152544066 0.6155309480880564
12624685333.333334 -0.7837546718005786 0.6210705390135814 3.49577315611911e-17 -4.999598392318971e-17 3.49577315611911e-17 -4.999598392318971e-17 -0.7837550485062564 0.6210700636327681
12625302666.666666 -0.7793580717869553 0.6265788026580327 3.459328095161808e-17 -5.023435473237999e-17 3.459328095161808e-17 -5.023435473237999e-17 -0.7793584518150432 0.6265783299670634
12625920000.0 -0.7749227602330352 0.6320559434675614 3.4227210463228054e-17 -5.047007296441123e-17 3.4227210463228054e-17 -5.047007296441123e-17 -0.774923143564333 0.6320554734896514
12626537333.333334 -0.7704489574454966 0.6375016893867838 3.385953937325931e-17 -5.070312765226963e-17 3.385953937325931e-17 -5.070312765226963e-17 -0.7704493440606417 0.6375012221450106
12627154666.666666 -0.7659368856429726 0.6429157699196678 3.349028703289383e-17 -5.0933507968832134e-17 3.349028703289383e-17 -5.0933507968832134e-17 -0.7659372755224417 0.6429153054369718
12627772000.0 -0.7613867689447773 0.6482979161432548 3.3119472866239034e-17 -5.1161203227365094e-17 3.3119472866239034e-17 -5.1161203227365094e-17 -0.7613871620688863 0.6482974544424361
12628389333.333334 -0.7567988333601744 0.6536478607205363 3.274711636932115e-17 -5.1386202882007226e-17 3.274711636932115e-17 -5.1386202882007226e-17 -0.75679922970908 0.6536474018242548
12629006666.666666 -0.7521733067767276 0.6589653379142311 3.237323710905447e-17 -5.160849652825707e-17 3.237323710905447e-17 -5.160849652825707e-17 -0.7521737063304281 0.6589648818450055
12629624000.0 -0.7475104189493349 0.6642500835995772 3.1997854722223913e-17 -5.182807390344401e-17 3.1997854722223913e-17 -5.182807390344401e-17 -0.7475108216876712 0.6642496303797826
12630241333.333334 -0.7428104014885705 0.6695018352777256 3.162098891445384e-17 -5.2044924887197486e-17 3.162098891445384e-17 -5.2044924887197486e-17 -0.7428108073912287 0.6695013849295952
12630858666.666666 -0.7380734878493553 0.6747203320885942 3.124265945919172e-17 -5.2259039501898487e-17 3.124265945919172e-17 -5.2259039501898487e-17 -0.7380738968958647 0.6747198846342145
12631476000.0 -0.7332999133192032 0.6799053148239861 3.0862886196649893e-17 -5.247040791314636e-17 3.0862886196649893e-17 -5.247040791314636e-17 -0.7333003254889401 0.6799048702852996
12632093333.333334 -0.7284899150066722 0.6850565259403247 3.0481689032793824e-17 -5.2679020430189386e-17 3.0481689032793824e-17 -5.2679020430189386e-17 -0.7284903302788586 0.685056084339125
12632710666.666666 -0.7236437318295268 0.6901737095715038 3.0099087938298875e-17 -5.28848675063645e-17 3.0099087938298875e-17 -5.28848675063645e-17 -0.7236441501832344 0.6901732709294383
12633328000.0 -0.7187616045028346 0.6952566115416423 2.971510294749047e-17 -5.308793973953671e-17 2.971510294749047e-17 -5.308793973953671e-17 -0.7187620259169822 0.6952561758802077
12633945333.333334 -0.7138437755270445 0.7003049793776637 2.932975415732549e-17 -5.3288227872506977e-17 2.932975415732549e-17 -5.3288227872506977e-17 -0.7138441999804025 0.700304546718208
12634562666.666666 -0.7088904891760041 0.7053185623217785 2.8943061726326737e-17 -5.348572279343646e-17 2.8943061726326737e-17 -5.348572279343646e-17 -0.7088909166471934 0.7053181326854977
12635180000.0 -0.7039019914846872 0.710297111344082 2.8555045873539177e-17 -5.368041553625031e-17 2.8555045873539177e-17 -5.368041553625031e-17 -0.7039024219521803 0.7102966847520197
12635797333.333334 -0.6988785302371101 0.7152403791547796 2.816572687748023e-17 -5.3872297281035047e-17 2.816572687748023e-17 -5.3872297281035047e-17 -0.6988789636792339 0.7152399556278266
12636414666.666666 -0.6938203549539667 0.7201481202165334 2.777512507508165e-17 -5.4061359354432214e-17 2.777512507508165e-17 -5.4061359354432214e-17 -0.6938207913489023 0.7201476997754269
12637032000.0 -0.6887277168801736 0.7250200907567179 2.7383260860627032e-17 -5.424759323002466e-17 2.7383260860627032e-17 -5.424759323002466e-17 -0.6887281562059565 0.725019673422038
12637649333.333334 -0.6836008689725297 0.729856048779386 2.6990154684702227e-17 -5.44309905287074e-17 2.6990154684702227e-17 -5.44309905287074e-17 -0.6836013112070536 0.7298556345715586
12638266666.666666 -0.6784400658869925 0.734655754077452 2.6595827053120413e-17 -5.4611543019062995e-17 2.6595827053120413e-17 -5.4611543019062995e-17 -0.6784405110080072 0.7346553430167435
12638884000.0 -0.673245563966189 0.7394189682444614 2.6200298525869195e-17 -5.4789242617716246e-17 2.6200298525869195e-17 -5.4789242617716246e-17 -0.6732460119513047 0.7394185603509823
12639501333.333334 -0.6680176212265211 0.7441454546865921 2.5803589716030772e-17 -5.496408138969393e-17 2.5803589716030772e-17 -5.496408138969393e-17 -0.6680180720532072 0.7441450499802923
12640118666.666666 -0.6627564973455365 0.7488349786342323 2.5405721288726238e-17 -5.5136051548764036e-17 2.5405721288726238e-17 -5.5136051548764036e-17 -0.6627569509911226 0.748834577134901
12640736000.0 -0.6574624536487539 0.7534873071538861 2.5006713960023087e-17 -5.530514545778288e-17 2.5006713960023087e-17 -5.530514545778288e-17 -0.6574629100904333 0.7534869088811523
12641353333.333334 -0.6521357530970469 0.7581022091594274 2.4606588495889554e-17 -5.547135562901331e-17 2.4606588495889554e-17 -5.547135562901331e-17 -0.6521362123118748 0.7581018141327567
12641970666.666666 -0.6467766602733024 0.7626794554238169 2.4205365711089742e-17 -5.563467472445939e-17 2.4205365711089742e-17 -5.563467472445939e-17 -0.6467771222381999 0.7626790636625135
12642588000.0 -0.6413854413693447 0.7672188185904376 2.3803066468125956e-17 -5.579509555617268e-17 2.3803066468125956e-17 -5.579509555617268e-17 -0.6413859060610979 0.7672184301136407
12643205333.333334 -0.6359623641727562 0.7717200731843472 2.3399711676145707e-17 -5.595261108656496e-17 2.3399711676145707e-17 -5.595261108656496e-17 -0.6359628315680186 0.7717196880110313
12643822666.666666 -0.6305076980535314 0.7761829956235148 2.2995322289865604e-17 -5.610721442870448e-17 2.2995322289865604e-17 -5.610721442870448e-17 -0.6305081681288234 0.7761826137724875
12644440000.0 -0.6250217139507628 0.7806073642298709 2.258991930848408e-17 -5.625889884660928e-17 2.258991930848408e-17 -5.625889884660928e-17 -0.6250221866824753 0.7806069857197747
12645057333.333334 -0.6195046843591197 0.7849929592403767 2.218352377459855e-17 -5.640765775552962e-17 2.218352377459855e-17 -5.640765775552962e-17 -0.6195051597235126 0.7849925840896845
12645674666.666666 -0.6139568833153541 0.7893395628178997 2.177615677312243e-17 -5.655348472222221e-17 2.177615677312243e-17 -5.655348472222221e-17 -0.6139573612885599 0.7893391910449171
12646292000.0 -0.6083785863846015 0.7936469590621069 2.1367839430174544e-17 -5.669637346522616e-17 2.1367839430174544e-17 -5.669637346522616e-17 -0.6083790669426254 0.7936465906849697
12646909333.333334 -0.6027700706468503 0.7979149340200656 2.0958592912013888e-17 -5.683631785511402e-17 2.0958592912013888e-17 -5.683631785511402e-17 -0.6027705537655714 0.7979145690567391
12647526666.666666 -0.5971316146830214 0.8021432756969935 2.054843842393533e-17 -5.697331191474827e-17 2.054843842393533e-17 -5.697331191474827e-17 -0.5971321003381933 0.8021429141652711
12648144000.0 -0.5914634985612189 0.8063317740667161 2.0137397209165556e-17 -5.710734981952943e-17 2.0137397209165556e-17 -5.710734981952943e-17 -0.5914639867284723 0.8063314159842196
12648761333.333334 -0.5857660038227539 0.8104802210821538 1.972549054778666e-17 -5.723842589762627e-17 1.972549054778666e-17 -5.723842589762627e-17 -0.5857664944775967 0.8104798664663317
12649378666.666666 -0.5800394134683396 0.8145884106855185 1.9312739755627386e-17 -5.736653463020852e-17 1.9312739755627386e-17 -5.736653463020852e-17 -0.5800399065861593 0.8145880595536461
12649996000.0 -0.5742840119437638 0.8186561388187529 1.889916618316122e-17 -5.74916706516694e-17 1.889916618316122e-17 -5.74916706516694e-17 -0.5742845074998273 0.8186557911879305
12650613333.333334 -0.5685000851258931 0.8226832034335627 1.848479121441593e-17 -5.761382874983492e-17 1.848479121441593e-17 -5.761382874983492e-17 -0.5685005830953478 0.8226828593207136
12651230666.666666 -0.5626879203086372 0.8266694045013381 1.8069636265867587e-17 -5.773300386617178e-17 1.8069636265867587e-17 -5.773300386617178e-17 -0.5626884206665151 0.8266690639232112
12651848000.0 -0.5568478061882854 0.8306145440233693 1.7653722785334437e-17 -5.784919109598488e-17 1.7653722785334437e-17 -5.784919109598488e-17 -0.5568483089095009 0.830614206996536
12652465333.333334 -0.5509800328495604 0.8345184260404042 1.723707225087665e-17 -5.796238568860644e-17 1.723707225087665e-17 -5.796238568860644e-17 -0.5509805379089135 0.8345180925812571
12653082666.666666 -0.5450848917510244 0.8383808566425106 1.681970616969639e-17 -5.807258304757607e-17 1.681970616969639e-17 -5.807258304757607e-17 -0.5450853991232012 0.8383805267672644
12653700000.0 -0.5391626757105535 0.8422016439787396 1.6401646077020262e-17 -5.817977873081745e-17 1.6401646077020262e-17 -5.817977873081745e-17 -0.5391631853701282 0.8422013177034292
12654317333.333334 -0.5332136788909606 0.8459805982665465 1.5982913535005832e-17 -5.828396845080104e-17 1.5982913535005832e-17 -5.828396845080104e-17 -0.5332141908123951 0.8459802756070249
12654934666.666666 -0.5272381967852141 0.8497175318013227 1.5563530131622104e-17 -5.838514807470457e-17 1.5563530131622104e-17 -5.838514807470457e-17 -0.5272387109428619 0.8497172127732643
12655552000.0 -0.5212365262018355 0.8534122589656765 1.5143517479545764e-17 -5.848331362456178e-17 1.5143517479545764e-17 -5.848331362456178e-17 -0.5212370425699405 0.8534119435845723
12656169333.333334 -0.5152089652502277 0.8570645962386068 1.4722897215055097e-17 -5.857846127740373e-17 1.4722897215055097e-17 -5.857846127740373e-17 -0.5152094838029267 0.8570642845197649
12656786666.666666 -0.5091558133256973 0.860674362204721 1.4301690996916276e-17 -5.867058736539356e-17 1.4301690996916276e-17 -5.867058736539356e-17 -0.509156334037022 0.860674054163268
12657404000.0 -0.5030773710947792 0.8642413775631329 1.3879920505269048e-17 -5.875968837595335e-17 1.3879920505269048e-17 -5.875968837595335e-17 -0.5030778939386557 0.864241073214009
12658021333.333334 -0.496973940480082 0.8677654651364942 1.345760744051842e-17 -5.88457609518816e-17 1.345760744051842e-17 -5.88457609518816e-17 -0.4969744654303331 0.867765164494456
12658638666.666666 -0.49084582464560933 0.8712464498796125 1.3034773522227433e-17 -5.89288018914623e-17 1.3034773522227433e-17 -5.89288018914623e-17 -0.49084635167595597 0.8712461529592307
12659256000.0 -0.4846933279812593 0.8746841588884001 1.2611440487992617e-17 -5.900880814856967e-17 1.2611440487992617e-17 -5.900880814856967e-17 -0.4846938570653218 0.8746838657040594
12659873333.333334 -0.4785167560881236 0.878078421408222 1.2187630092342434e-17 -5.908577683275991e-17 1.2187630092342434e-17 -5.908577683275991e-17 -0.4785172871994227 0.87807813197412
12660490666.666666 -0.4723164157631119 0.8814290688424925 1.1763364105620338e-17 -5.91597052093587e-17 1.1763364105620338e-17 -5.91597052093587e-17 -0.47231694887507036 0.8814287831726392
12661108000.0 -0.4660926149836609 0.8847359347610727 1.133866431285876e-17 -5.923059069954126e-17 1.133866431285876e-17 -5.923059069954126e-17 -0.46609315006960467 0.8847356528692899
12661725333.333334 -0.4598456628926127 0.8879988549084448 1.0913552512685037e-17 -5.929843088039936e-17 1.0913552512685037e-17 -5.929843088039936e-17 -0.45984619992577225 0.8879985768083651
12662342666.666666 -0.45357586978265907 0.8912176672119781 1.0488050516194918e-17 -5.936322348500576e-17 1.0488050516194918e-17 -5.936322348500576e-17 -0.4535764087361707 0.8912173929170446
12662960000.0 -0.4472835470811289 0.8943922117898715 1.0062180145834391e-17 -5.942496640246956e-17 1.0062180145834391e-17 -5.942496640246956e-17 -0.4472840879280366 0.8943919413133378
12663577333.333334 -0.44096900733434446 0.8975223309591898 9.635963234296459e-18 -5.948365767798042e-17 9.635963234296459e-18 -5.948365767798042e-17 -0.4409695500476001 0.8975220643141166
12664194666.666666 -0.434632564192171 0.9006078692436537 9.209421623394288e-18 -5.953929551284928e-17 9.209421623394288e-18 -5.953929551284928e-17 -0.43463310874463656 0.9006076064429109
12664812000.0 -0.42827453239251423 0.9036486733813249 8.78257716295116e-18 -5.959187826453825e-17 8.78257716295116e-18 -5.959187826453825e-17 -0.42827507875696336 0.9036484144375914
12665429333.333334 -0.42189522774548377 0.9066445923323223 8.355451709688755e-18 -5.964140444668248e-17 8.355451709688755e-18 -5.964140444668248e-17 -0.42189577589460237 0.9066443372580826
12666046666.666666 -0.4154949671180378 0.9095954772861591 7.928067126108848e-18 -5.968787272910589e-17 7.928067126108848e-18 -5.968787272910589e-17 -0.4154955170244267 0.9095952260937064
12666664000.0 -0.4090740684177845 0.9125011816693598 7.500445279373289e-18 -5.973128193782814e-17 7.500445279373289e-18 -5.973128193782814e-17 -0.40907462005395834 0.9125009343707904
12667281333.333334 -0.40263285057762443 0.9153615611525276 7.072608040201288e-18 -5.977163105506223e-17 7.072608040201288e-18 -5.977163105506223e-17 -0.4026334039160162 0.9153613177597458
12667898666.666666 -0.3961716335397332 0.9181764736576058 6.644577281743107e-18 -5.980891921920673e-17 6.644577281743107e-18 -5.980891921920673e-17 -0.39617218855269326 0.9181762341823195
12668516000.0 -0.3896907382394836 0.9209457793650078 6.216374878471046e-18 -5.984314572482793e-17 6.216374878471046e-18 -5.984314572482793e-17 -0.3896912948992821 0.9209455438187302
12669133333.333334 -0.38319048658995053 0.9236693407203761 5.788022705070882e-18 -5.987431002263479e-17 5.788022705070882e-18 -5.987431002263479e-17 -0.38319104486877786 0.9236691091144221
12669750666.666666 -0.37667120146544736 0.926347022441608 5.359542635316617e-18 -5.990241171944676e-17 5.359542635316617e-18 -5.990241171944676e-17 -0.37667176133541747 0.9263467947870985
12670368000.0 -0.37013320668580635 0.9289786915254501 4.930956540969584e-18 -5.992745057815189e-17 4.930956540969584e-18 -5.992745057815189e-17 -0.37013376811895604 0.9289784678333073
