! Parameters = {f0=12700.012000; bw=77.238000; Q=6100.000000; N=10; m_0_1=1.273569; m_1_1=0.338783; m_1_2=1.108381; m_2_2=0.338134; m_2_3=0.745344; m_2_8=0.000742; m_2_9=0.037446; m_3_3=0.336197; m_3_4=0.633873; m_3_7=0.001342; m_3_8=-0.095746; m_3_9=0.000742; m_4_4=0.333272; m_4_5=0.470208; m_4_6=0.004859; m_4_7=-0.116295; m_4_8=0.001342; m_5_5=0.333654; m_5_6=0.877563; m_5_7=0.004859; m_6_6=0.333653; m_6_7=0.470550; m_7_7=0.333286; m_7_8=0.633991; m_8_8=0.336195; m_8_9=0.745657; m_9_9=0.338129; m_9_10=1.109459; m_10_10=0.338773; m_10_11=1.274364}
!
! Created with skrf (http://scikit-rf.org).
# Hz S RI R 50.0 
!freq ReS11 ImS11 ReS21 ImS21 ReS12 ImS12 ReS22 ImS22
12607400000.0 0.17993489637868915 -0.9836785211973536 1.2021909581145897e-17 1.1183166828911275e-16 1.2021909581145897e-17 1.1183166828911275e-16 0.1799355564122997 -0.9836784004634942
12608017333.333334 0.16946995881698937 -0.9855353535304507 1.3217122101167395e-17 1.1167453476350872e-16 1.3217122101167395e-17 1.1167453476350872e-16 0.1694706200641323 -0.9855352398239756
12608634666.666666 0.158985877466177 -0.9872808570848173 1.4410348418570958e-17 1.1150463560470775e-16 1.4410348418570958e-17 1.1150463560470775e-16 0.15898653985204095 -0.9872807504178829
12609252000.0 0.14848383663689582 -0.9889148346836601 1.5601452277632733e-17 1.1132199532376223e-16 1.5601452277632733e-17 1.1132199532376223e-16 0.14848450008654776 -0.9889147350676247
12609869333.333334 0.13796502266842692 -0.990437101748477 1.6790297719688976e-17 1.1112663988510986e-16 1.6790297719688976e-17 1.1112663988510986e-16 0.13796568710682158 -0.9904370091939038
12610486666.666666 0.12743062379501555 -0.9918474863198657 1.797674909863794e-17 1.1091859670302276e-16 1.797674909863794e-17 1.1091859670302276e-16 0.12743128914700283 -0.9918474008365176
12611104000.0 0.11688183001110902 -0.9931458290770181 1.9160671096399598e-17 1.1069789463789015e-16 1.9160671096399598e-17 1.1069789463789015e-16 0.11688249620144324 -0.9931457506738584
12611721333.333334 0.10631983293755187 -0.9943319833556366 2.0341928738303605e-17 1.1046456399234293e-16 2.0341928738303605e-17 1.1046456399234293e-16 0.1063204998909 -0.9943319120408293
12612338666.666666 0.09574582568646968 -0.9954058151645677 2.1520387408456695e-17 1.1021863650720812e-16 2.1520387408456695e-17 1.1021863650720812e-16 0.09574649332741988 -0.9954057509454749
12612956000.0 0.08516100272668911 -0.9963672032009117 2.269591286508188e-17 1.0996014535729742e-16 2.269591286508188e-17 1.0996014535729742e-16 0.08516167097975909 -0.9963671460840915
12613573333.333334 0.07456655974897702 -0.997216038863708 2.3868371255730336e-17 1.0968912514704769e-16 2.3868371255730336e-17 1.0968912514704769e-16 0.07456722853862292 -0.9972159888549176
12614190666.666666 0.06396369353060452 -0.9979522262662404 2.5037629132552097e-17 1.0940561190597702e-16 2.5037629132552097e-17 1.0940561190597702e-16 0.06396436278122916 -0.9979521833704328
12614808000.0 0.0533536018004952 -0.9985756822468375 2.6203553467417513e-17 1.0910964308399878e-16 2.6203553467417513e-17 1.0910964308399878e-16 0.053354271436456796 -0.9985756464681617
12615425333.333334 0.04273748310367141 -0.9990863363782861 2.7366011667053275e-17 1.0880125754656053e-16 2.7366011667053275e-17 1.0880125754656053e-16 0.04273815304929207 -0.9990863077200878
12616042666.666666 0.0321165366660903 -0.9994841309757742 2.8524871588072674e-17 1.0848049556963239e-16 2.8524871588072674e-17 1.0848049556963239e-16 0.0321172068456645 -0.999484109440593
12616660000.0 0.021491962258948793 -0.999769021103416 2.968000155197955e-17 1.0814739883452935e-16 2.968000155197955e-17 1.0814739883452935e-16 0.02149263259675202 -0.9997690066929877
12617277333.333334 0.010864960063324542 -0.9999409745793223 3.083127036011593e-17 1.0780201042257255e-16 3.083127036011593e-17 1.0780201042257255e-16 0.010865630483621838 -0.9999409672945779
12617894666.666666 0.00023673053465712293 -0.9999999719792381 3.1978547308499634e-17 1.0744437480960581e-16 3.1978547308499634e-17 1.0744437480960581e-16 0.0002374009617115893 -0.9999999718203023
12618512000.0 -0.010391525733256652 -0.9999460066387369 3.3121702202694205e-17 1.0707453786032666e-16 3.3121702202694205e-17 1.0707453786032666e-16 -0.010390855375175251 -0.999946013604932
12619129333.333334 -0.021018608143288278 -0.9997790846539759 3.4260605372489196e-17 1.0669254682249756e-16 3.4260605372489196e-17 1.0669254682249756e-16 -0.02101793792989496 -0.9997790987438161
12619746666.666666 -0.031643316231111794 -0.9994992248809998 3.539512768663679e-17 1.0629845032096394e-16 3.539512768663679e-17 1.0629845032096394e-16 -0.03164264623809788 -0.9994992460921983
12620364000.0 -0.0422644498005843 -0.9991064589336195 3.652514056744124e-17 1.0589229835154003e-16 3.652514056744124e-17 1.0589229835154003e-16 -0.042263780103608754 -0.9991064872630824
12620981333.333334 -0.052880809059294875 -0.9986008311798357 3.765051600530068e-17 1.0547414227473415e-16 3.765051600530068e-17 1.0547414227473415e-16 -0.052880139733975796 -0.9986008666236664
12621598666.666666 -0.06349119475418155 -0.9979823987368258 3.877112657318702e-17 1.0504403480931615e-16 3.877112657318702e-17 1.0504403480931615e-16 -0.06349052587608782 -0.9979824412903266
12622216000.0 -0.07409440830694591 -0.9972512314645021 3.988684544105612e-17 1.0460203002573044e-16 3.988684544105612e-17 1.0460203002573044e-16 -0.07409373995158833 -0.9972512811221697
12622833333.333334 -0.08468925194958905 -0.9964074119576001 4.099754639016007e-17 1.0414818333936516e-16 4.099754639016007e-17 1.0414818333936516e-16 -0.08468858419241204 -0.9964074687131301
12623450666.666666 -0.09527452885940307 -0.9954510355363754 4.2103103827295443e-17 1.0368255150366497e-16 4.2103103827295443e-17 1.0368255150366497e-16 -0.09527386177577615 -0.9954510993826634
12624068000.0 -0.10584904329453602 -0.9943822102358093 4.320339279900132e-17 1.0320519260308363e-16 4.320339279900132e-17 1.0320519260308363e-16 -0.10584837695974528 -0.9943822811649503
12624685333.333334 -0.116411600728896 -0.9932010567934164 4.429828900563595e-17 1.0271616604590068e-16 4.429828900563595e-17 1.0271616604590068e-16 -0.11641093521813545 -0.9932011347967047
12625302666.666666 -0.12696100798689014 -0.9919077086356248 4.5387668815386064e-17 1.0221553255688739e-16 4.5387668815386064e-17 1.0221553255688739e-16 -0.1269603433752535 -0.9919077937035583
12625920000.0 -0.13749607337871783 -0.990502311862652 4.647140927821887e-17 1.0170335416980985e-16 4.647140927821887e-17 1.0170335416980985e-16 -0.13749540974118976 -0.9905024039849303
12626537333.333334 -0.14801560683439385 -0.9889850252320654 4.7549388139713836e-17 1.0117969421980443e-16 4.7549388139713836e-17 1.0117969421980443e-16 -0.1480149442458419 -0.9889851243975935
12627154666.666666 -0.15851842003857816 -0.9873560201408088 4.8621483854820016e-17 1.0064461733559977e-16 4.8621483854820016e-17 1.0064461733559977e-16 -0.15851775857374376 -0.9873561263376955
12627772000.0 -0.16900332656475284 -0.9856154806058344 4.968757560157262e-17 1.0009818943157193e-16 4.968757560157262e-17 1.0009818943157193e-16 -0.1690026662982436 -0.9856155938213982
12628389333.333334 -0.17946914200907754 -0.9837636032433549 5.07475432946187e-17 9.954047769970557e-17 5.07475432946187e-17 9.954047769970557e-17 -0.17946848301535798 -0.9837637234641199
12629006666.666666 -0.18991468412437754 -0.9818005972465897 5.180126759878035e-17 9.89715506013469e-17 5.180126759878035e-17 9.89715506013469e-17 -0.18991402647776148 -0.9818007244582921
12629624000.0 -0.20033877295361094 -0.9797266843621564 5.284862994240831e-17 9.839147785887588e-17 5.284862994240831e-17 9.839147785887588e-17 -0.20033811672825244 -0.9797268185497424
12630241333.333334 -0.21074023096313063 -0.9775420988650199 5.388951253073508e-17 9.780033044718765e-17 5.388951253073508e-17 9.780033044718765e-17 -0.21073957623301637 -0.9775422400126513
12630858666.666666 -0.22111788317561992 -0.9752470875320546 5.492379835905584e-17 9.719818058507617e-17 5.492379835905584e-17 9.719818058507617e-17 -0.22111723001456016 -0.9752472356231067
12631476000.0 -0.23147055730320915 -0.9728419096140772 5.595137122590452e-17 9.658510172642693e-17 5.595137122590452e-17 9.658510172642693e-17 -0.23146990578482962 -0.9728420646311431
12632093333.333334 -0.24179708387937282 -0.9703268368066781 5.697211574602532e-17 9.596116855133295e-17 5.697211574602532e-17 9.596116855133295e-17 -0.2417964340771069 -0.9703269987315712
12632710666.666666 -0.25209629639128733 -0.9677021532194806 5.798591736332529e-17 9.532645695702779e-17 5.798591736332529e-17 9.532645695702779e-17 -0.252095648378367 -0.9677023220332345
12633328000.0 -0.26236703141182205 -0.964968155343984 5.899266236372339e-17 9.46810440486831e-17 5.899266236372339e-17 9.46810440486831e-17 -0.2623663852612703 -0.9649683310268572
12633945333.333334 -0.2726081287305229 -0.9621251520201857 5.999223788783265e-17 9.402500813011038e-17 5.999223788783265e-17 9.402500813011038e-17 -0.2726074845151451 -0.9621253345516622
12634562666.666666 -0.28281843148503105 -0.9591734644016013 6.098453194361843e-17 9.335842869428197e-17 6.098453194361843e-17 9.335842869428197e-17 -0.28281778927740675 -0.9591736537603935
12635180000.0 -0.2929967862915172 -0.9561134259190512 6.196943341889217e-17 9.268138641375461e-17 6.196943341889217e-17 9.268138641375461e-17 -0.29299614616399255 -0.9561136220831035
12635797333.333334 -0.3031420433752186 -0.9529453822429281 6.294683209374777e-17 9.199396313093167e-17 6.294683209374777e-17 9.199396313093167e-17 -0.303141405399897 -0.9529455851894163
12636414666.666666 -0.313253056699992 -0.9496696912442424 6.39166186528377e-17 9.129624184822941e-17 6.39166186528377e-17 9.129624184822941e-17 -0.3132524209487272 -0.9496699009495798
12637032000.0 -0.32332868409815513 -0.9462867229540833 6.487868469759288e-17 9.058830671807849e-17 6.487868469759288e-17 9.058830671807849e-17 -0.3233280506425426 -0.946286939393922
12637649333.333334 -0.33336778739920964 -0.9427968595219104 6.583292275830673e-17 8.987024303281538e-17 6.583292275830673e-17 8.987024303281538e-17 -0.33336715631057867 -0.9427970826711447
12638266666.666666 -0.3433692325585218 -0.939200495172354 6.67792263060945e-17 8.914213721445585e-17 6.67792263060945e-17 8.914213721445585e-17 -0.34336860390792684 -0.939200725005121
12638884000.0 -0.35333188978550467 -0.9354980361606459 6.771748976477604e-17 8.84040768043168e-17 6.771748976477604e-17 8.84040768043168e-17 -0.3533312636437187 -0.9354982726503327
12639501333.333334 -0.3632546336710861 -0.9316899007267965 6.864760852260695e-17 8.765615045254254e-17 6.864760852260695e-17 8.765615045254254e-17 -0.3632540101085906 -0.931690143846038
12640118666.666666 -0.3731363433148874 -0.92777651904832 6.956947894391656e-17 8.689844790749032e-17 6.956947894391656e-17 8.689844790749032e-17 -0.3731357224018667 -0.9277767687690077
12640736000.0 -0.3829759024520838 -0.9237583331915526 7.04829983806439e-17 8.613106000498116e-17 7.04829983806439e-17 8.613106000498116e-17 -0.3829752842584156 -0.9237585894848335
12641353333.333334 -0.392772199578946 -0.9196357970619352 7.138806518369757e-17 8.535407865747951e-17 7.138806518369757e-17 8.535407865747951e-17 -0.3927715841741941 -0.9196360598982171
12641970666.666666 -0.40252412807903026 -0.9154093763524817 7.228457871426683e-17 8.456759684309407e-17 7.228457871426683e-17 8.456759684309407e-17 -0.40252351553243737 -0.9154096457014376
12642588000.0 -0.4122305863477399 -0.911079548491361 7.317243935497594e-17 8.377170859449129e-17 7.317243935497594e-17 8.377170859449129e-17 -0.41222997672821776 -0.9110798243219285
12643205333.333334 -0.42189047791699835 -0.90664680258786 7.405154852090493e-17 8.296650898770251e-17 7.405154852090493e-17 8.296650898770251e-17 -0.42188987129312244 -0.9066470848682504
12643822666.666666 -0.43150271157900716 -0.9021116393771823 7.492180867053279e-17 8.215209413077623e-17 7.492180867053279e-17 8.215209413077623e-17 -0.43150210801900735 -0.9021119280748793
12644440000.0 -0.44106620150958736 -0.8974745711638444 7.578312331649998e-17 8.132856115236649e-17 7.578312331649998e-17 8.132856115236649e-17 -0.4410656010813412 -0.8974748662456118
12645057333.333334 -0.4505798673906854 -0.8927361217638813 7.663539703628353e-17 8.049600819017547e-17 7.663539703628353e-17 8.049600819017547e-17 -0.4505792701617094 -0.8927364231957631
12645674666.666666 -0.4600426345324848 -0.8878968264456377 7.747853548274303e-17 7.965453437928607e-17 7.747853548274303e-17 7.965453437928607e-17 -0.460042040569928 -0.8878971341929651
12646292000.0 -0.4694534339950592 -0.8829572318691717 7.831244539453182e-17 7.880423984039078e-17 7.831244539453182e-17 7.880423984039078e-17 -0.4694528433656953 -0.8829575458965666
12646909333.333334 -0.47881120270861754 -0.8779178960247647 7.913703460636895e-17 7.794522566792419e-17 7.913703460636895e-17 7.794522566792419e-17 -0.47881061547883724 -0.8779182162961424
12647526666.666666 -0.4881148835940461 -0.8727793881696535 7.995221205919669e-17 7.707759391807185e-17 7.995221205919669e-17 7.707759391807185e-17 -0.4881142998298489 -0.8727797146482267
12648144000.0 -0.4973634256820894 -0.8675422887638393 8.075788781021777e-17 7.620144759666246e-17 8.075788781021777e-17 7.620144759666246e-17 -0.49736284544907755 -0.8675426214121243
12648761333.333334 -0.5065557842321733 -0.8622071894044679 8.15539730427593e-17 7.531689064699871e-17 8.15539730427593e-17 7.531689064699871e-17 -0.5065552075955435 -0.8622075281842875
12649378666.666666 -0.5156909208502235 -0.8567746927591132 8.234038007604741e-17 7.442402793754016e-17 8.234038007604741e-17 7.442402793754016e-17 -0.5156903478747602 -0.8567750376316013
12649996000.0 -0.5247678036062849 -0.8512454124975118 8.311702237482313e-17 7.352296524950929e-17 8.311702237482313e-17 7.352296524950929e-17 -0.5247672343563528 -0.8512457634231184
12650613333.333334 -0.533785407150846 -0.8456199732223856 8.388381455884056e-17 7.261380926437932e-17 8.388381455884056e-17 7.261380926437932e-17 -0.5337848416903823 -0.8456203301608807
12651230666.666666 -0.542742712830644 -0.8398990103989039 8.464067241219332e-17 7.169666755130387e-17 8.464067241219332e-17 7.169666755130387e-17 -0.542742151223151 -0.8398993733093799
12651848000.0 -0.5516387088040424 -0.8340831702826959 8.5387512892565e-17 7.077164855437763e-17 8.5387512892565e-17 7.077164855437763e-17 -0.5516381511125826 -0.8340835391235786
12652465333.333334 -0.5604723901549538 -0.8281731098471 8.612425414027251e-17 6.98388615798837e-17 8.612425414027251e-17 6.98388615798837e-17 -0.56047183644214 -0.8281734845761471
12653082666.666666 -0.569242759006545 -0.8221694967088234 8.685081548720876e-17 6.889841678340119e-17 8.685081548720876e-17 6.889841678340119e-17 -0.5692422093345351 -0.8221698772831318
12653700000.0 -0.5779488246340319 -0.8160730090524773 8.756711746566384e-17 6.795042515679506e-17 8.756711746566384e-17 6.795042515679506e-17 -0.5779482790645211 -0.8160733954284884
12654317333.333334 -0.5865896035763365 -0.8098843355541462 8.827308181693919e-17 6.699499851519953e-17 8.827308181693919e-17 6.699499851519953e-17 -0.5865890621705501 -0.8098847276876493
12654934666.666666 -0.5951641197474843 -0.8036041753033808 8.896863149989507e-17 6.60322494838151e-17 8.896863149989507e-17 6.60322494838151e-17 -0.5951635825661719 -0.8036045731495203
12655552000.0 -0.6036714045467025 -0.7972332377243412 8.965369069930436e-17 6.50622914846822e-17 8.965369069930436e-17 6.50622914846822e-17 -0.6036708716501306 -0.79723364123762
12656169333.333334 -0.6121104969678137 -0.7907722424956762 9.032818483407711e-17 6.408523872335197e-17 9.032818483407711e-17 6.408523872335197e-17 -0.6121099684157594 -0.7907726516299628
12656786666.666666 -0.6204804437078398 -0.7842219194691925 9.099204056534421e-17 6.310120617546365e-17 9.099204056534421e-17 6.310120617546365e-17 -0.620479919559583 -0.7842223341777237
12657404000.0 -0.6287802992747586 -0.7775830085873593 9.16451858043986e-17 6.211030957323712e-17 9.16451858043986e-17 6.211030957323712e-17 -0.6287797795890755 -0.7775834288227458
12658021333.333334 -0.6370091260941908 -0.7708562597998005 9.228754972047375e-17 6.11126653919033e-17 9.228754972047375e-17 6.11126653919033e-17 -0.637008610929349 -0.770856685514036
12658638666.666666 -0.645165994615278 -0.7640424329786296 9.291906274838228e-17 6.010839083604854e-17 9.291906274838228e-17 6.010839083604854e-17 -0.6451654840290268 -0.7640428641230904
12659256000.0 -0.6532499834159615 -0.7571422978323631 9.353965659602868e-17 5.909760382584233e-17 9.353965659602868e-17 5.909760382584233e-17 -0.6532494774655297 -0.7571427343578196
12659873333.333334 -0.6612601793067261 -0.7501566338192708 9.414926425173416e-17 5.808042298324936e-17 9.414926425173416e-17 5.808042298324936e-17 -0.6612596780488132 -0.7501570756758907
12660490666.666666 -0.6691956774339305 -0.7430862300591817 9.474781999142605e-17 5.705696761814579e-17 9.474781999142605e-17 5.705696761814579e-17 -0.6691951809246981 -0.7430866771965328
12661108000.0 -0.6770555813820596 -0.7359318852442976 9.533525938570835e-17 5.602735771430769e-17 9.533525938570835e-17 5.602735771430769e-17 -0.6770550896771299 -0.7359323376113581
12661725333.333334 -0.6848390032748622 -0.7286944075490884 9.591151930672011e-17 5.4991713915430277e-17 9.591151930672011e-17 5.4991713915430277e-17 -0.6848385164293084 -0.7286948650942504
12662342666.666666 -0.6925450638757332 -0.7213746145389238 9.64765379348973e-17 5.39501575109821e-17 9.64765379348973e-17 5.39501575109821e-17 -0.6925445819440739 -0.721375077209999
12662960000.0 -0.7001728926869897 -0.7139733330777535 9.703025476555668e-17 5.2902810422033996e-17 9.703025476555668e-17 5.2902810422033996e-17 -0.7001724157231837 -0.7139738008219804
12663577333.333334 -0.70772162804829 -0.7064913992346276 9.757261061532007e-17 5.1849795187032105e-17 9.757261061532007e-17 5.1849795187032105e-17 -0.7077211561057293 -0.7064918719986765
12664194666.666666 -0.7151904172338234 -0.6989296581893868 9.810354762840551e-17 5.079123494746691e-17 9.810354762840551e-17 5.079123494746691e-17 -0.715189950365328 -0.6989301359193661
12664812000.0 -0.7225784165488013 -0.6912889641370324 9.862300928274015e-17 4.972725343352329e-17 9.862300928274015e-17 4.972725343352329e-17 -0.7225779548066125 -0.6912894467784948
12665429333.333334 -0.7298847914246196 -0.6835701801913716 9.913094039594211e-17 4.865797494962083e-17 9.913094039594211e-17 4.865797494962083e-17 -0.7298843348603945 -0.6835706676893203
12666046666.666666 -0.737108716513197 -0.6757741782874604 9.962728713111527e-17 4.7583524359955875e-17 9.962728713111527e-17 4.7583524359955875e-17 -0.7371082651780037 -0.6757746705863562
12666664000.0 -0.7442493757802839 -0.6679018390830223 1.0011199700253114e-16 4.6504027073894384e-17 1.0011199700253114e-16 4.6504027073894384e-17 -0.7442489297245937 -0.6679023361267877
12667281333.333334 -0.7513059625974327 -0.6599540518591964 1.0058501888109995e-16 4.541960903142161e-17 1.0058501888109995e-16 4.541960903142161e-17 -0.7513055218711169 -0.6599545535912251
12667898666.666666 -0.7582776798333654 -0.65193171441981 1.0104630299972853e-16 4.4330396688439474e-17 1.0104630299972853e-16 4.4330396688439474e-17 -0.7582772444856879 -0.6519322207829709
12668516000.0 -0.7651637399438868 -0.6438357329901074 1.0149580095850665e-16 4.3236517002039226e-17 1.0149580095850665e-16 4.3236517002039226e-17 -0.7651633100234987 -0.6438362439267514
12669133333.333334 -0.7719633650608265 -0.6356670221143992 1.019334657297107e-16 4.213809741577667e-17 1.019334657297107e-16 4.213809741577667e-17 -0.7719629406157624 -0.6356675375663671
12669750666.666666 -0.7786757870799534 -0.6274265045527161 1.0235925166269018e-16 4.103526584479968e-17 1.0235925166269018e-16 4.103526584479968e-17 -0.7786753681576226 -0.6274270244613431
12670368000.0 -0.785300247747805 -0.6191151111764762 1.0277311448855664e-16 3.992815066101343e-17 1.0277311448855664e-16 3.992815066101343e-17 -0.7852998343949902 -0.6191156354826011
