! Parameters = {f0=12700.012000; bw=77.238000; Q=6100.000000; N=10; m_0_1=1.226922; m_1_1=-0.360917; m_1_2=1.061734; m_2_2=-0.361566; m_2_3=0.698697; m_2_8=-0.001590; m_2_9=0.035114; m_3_3=-0.363503; m_3_4=0.587226; m_3_7=-0.000990; m_3_8=-0.098078; m_3_9=-0.001590; m_4_4=-0.366428; m_4_5=0.423561; m_4_6=0.002527; m_4_7=-0.118627; m_4_8=-0.000990; m_5_5=-0.366046; m_5_6=0.830916; m_5_7=0.002527; m_6_6=-0.366047; m_6_7=0.423903; m_7_7=-0.366414; m_7_8=0.587344; m_8_8=-0.363505; m_8_9=0.699010; m_9_9=-0.361571; m_9_10=1.062812; m_10_10=-0.360927; m_10_11=1.227717}
!
! Created with skrf (http://scikit-rf.org).
# Hz S RI R 50.0 
!freq ReS11 ImS11 ReS21 ImS21 ReS12 ImS12 ReS22 ImS22
12607400000.0 -0.08743339630870538 0.9961703675625773 -1.7895086864891606e-17 -8.806939011362357e-17 -1.7895086864891606e-17 -8.806939011362357e-17 -0.08743404032455274 0.9961703110374046
12608017333.333334 -0.0782157638779589 0.99693645448485 -1.871303270752797e-17 -8.788123090967499e-17 -1.871303270752797e-17 -8.788123090967499e-17 -0.07821640835751749 0.9969364039212756
12608634666.666666 -0.06899143996297456 0.9976172518614885 -1.9529026199261412e-17 -8.768548111968351e-17 -1.9529026199261412e-17 -8.768548111968351e-17 -0.06899208485106553 0.9976172072632558
12609252000.0 -0.05976121371976614 0.9982127014492332 -2.034299695617138e-17 -8.748216078466579e-17 -2.034299695617138e-17 -8.748216078466579e-17 -0.05976185896118081 0.9982126628195713
12609869333.333334 -0.050525874809271204 0.9987227523064606 -2.115487479823663e-17 -8.727129059773864e-17 -2.115487479823663e-17 -8.727129059773864e-17 -0.05052652034877629 0.9987227196480912
12610486666.666666 -0.04128621332993738 0.9991473607975508 -2.196458975535948e-17 -8.705289190206337e-17 -2.196458975535948e-17 -8.705289190206337e-17 -0.04128685911227936 0.9991473341126812
12611104000.0 -0.03204301974984346 0.9994864905966196 -2.2772072073409e-17 -8.68269866887239e-17 -2.2772072073409e-17 -8.68269866887239e-17 -0.03204366571975361 0.9994864698869492
12611721333.333334 -0.022797084839358002 0.9997401126906245 -2.357725222018125e-17 -8.659359759456572e-17 -2.357725222018125e-17 -8.659359759456572e-17 -0.022797730941556852 0.9997400979573396
12612338666.666666 -0.013549199603373776 0.999908205381846 -2.438006089139706e-17 -8.635274789996344e-17 -2.438006089139706e-17 -8.635274789996344e-17 -0.013549845782575978 0.9999081966256218
12612956000.0 -0.004300155213522388 0.9999907542897458 -2.5180429016652868e-17 -8.610446152653951e-17 -2.5180429016652868e-17 -8.610446152653951e-17 -0.004300801414441429 0.9999907515107469
12613573333.333334 0.004949257059227532 0.9999877523521962 -2.597828776532688e-17 -8.584876303483482e-17 -2.597828776532688e-17 -8.584876303483482e-17 0.004948610891874623 0.9999877555500746
12614190666.666666 0.01419824591254907 0.9998991998260831 -2.677356855250621e-17 -8.558567762191166e-17 -2.677356855250621e-17 -8.558567762191166e-17 0.01419759983403699 0.9998992089999814
12614808000.0 0.023446020080312182 0.9997251042872886 -2.756620304486549e-17 -8.531523111890875e-17 -2.756620304486549e-17 -8.531523111890875e-17 0.02344537414590258 0.999725119435835
12615425333.333334 0.03269178840030608 0.999465480630034 -2.83561231665119e-17 -8.503744998854588e-17 -2.83561231665119e-17 -8.503744998854588e-17 0.03269114266524292 0.9994655017513495
12616042666.666666 0.041934759881924674 0.9991203510656165 -2.914326110482712e-17 -8.475236132256689e-17 -2.914326110482712e-17 -8.475236132256689e-17 0.04193411440142942 0.9991203781573085
12616660000.0 0.051174143773836965 0.9986897451205009 -2.992754931627213e-17 -8.445999283913348e-17 -2.992754931627213e-17 -8.445999283913348e-17 0.051173498603103884 0.9986897781796675
12617277333.333334 0.060409149631665396 0.9981736996337935 -3.070892053217078e-17 -8.41603728801629e-17 -3.070892053217078e-17 -8.41603728801629e-17 0.06040850482585693 0.9981737386570237
12617894666.666666 0.06963898738546805 0.9975722587541022 -3.148730776445324e-17 -8.385353040861852e-17 -3.148730776445324e-17 -8.385353040861852e-17 0.06963834299971003 0.9975723037374737
12618512000.0 0.0788628674076424 0.9968854739357375 -3.2262644311410506e-17 -8.353949500573228e-17 -3.2262644311410506e-17 -8.353949500573228e-17 0.0788622234970192 0.9968855248748185
12619129333.333334 0.08808000058008195 0.9961134039343356 -3.303486376336246e-17 -8.321829686819758e-17 -3.303486376336246e-17 -8.321829686819758e-17 0.08807935719963196 0.996113460824185
12619746666.666666 0.09728959836197046 0.9952561148018145 -3.380390000835524e-17 -8.288996680528731e-17 -3.380390000835524e-17 -8.288996680528731e-17 0.09728895556668142 0.9952561776369842
12620364000.0 0.10649087285724247 0.9943136798807198 -3.456968723780406e-17 -8.255453623592958e-17 -3.456968723780406e-17 -8.255453623592958e-17 0.10649023070204665 0.9943137486552527
12620981333.333334 0.11568303688170639 0.9932861797979783 -3.533215995209855e-17 -8.221203718573632e-17 -3.533215995209855e-17 -8.221203718573632e-17 0.11568239542147586 0.9932862545054094
12621598666.666666 0.12486530403078522 0.9921737024579593 -3.6091252966199465e-17 -8.18625022839699e-17 -3.6091252966199465e-17 -8.18625022839699e-17 0.12486466332032735 0.9921737830913179
12622216000.0 0.13403688874648387 0.9909763430349888 -3.6846901415194765e-17 -8.150596476046509e-17 -3.6846901415194765e-17 -8.150596476046509e-17 0.13403624884053625 0.9909764295867955
12622833333.333334 0.14319700638476382 0.9896942039651828 -3.759904075982958e-17 -8.114245844249598e-17 -3.759904075982958e-17 -8.114245844249598e-17 0.14319636733799046 0.989694296427457
12623450666.666666 0.15234487328253132 0.9883273949377127 -3.8347606791994764e-17 -8.077201775159911e-17 -3.8347606791994764e-17 -8.077201775159911e-17 0.15234423514951662 0.9883274933019642
12624068000.0 0.16147970682481996 0.9868760328853908 -3.909253564020475e-17 -8.039467770033529e-17 -3.909253564020475e-17 -8.039467770033529e-17 0.16147906966006537 0.9868761371426282
12624685333.333334 0.17060072551177363 0.985340241974665 -3.983376377503452e-17 -8.001047388900517e-17 -3.983376377503452e-17 -8.001047388900517e-17 0.17060008936969237 0.985340352115394
12625302666.666666 0.17970714902522478 0.9837201535950462 -4.057122801450037e-17 -7.961944250232887e-17 -4.057122801450037e-17 -7.961944250232887e-17 0.179706513960137 0.983720269609268
12625920000.0 0.18879819829587127 0.9820159063477887 -4.1304865529464205e-17 -7.922162030604568e-17 -4.1304865529464205e-17 -7.922162030604568e-17 0.1887975643619999 0.982016028225004
12626537333.333334 0.19787309556953592 0.9802276460341062 -4.2034613848937656e-17 -7.881704464350035e-17 -4.2034613848937656e-17 -7.881704464350035e-17 0.19787246282100188 0.9802277737633163
12627154666.666666 0.20693106447387277 0.97835552564267 -4.2760410865409235e-17 -7.840575343215101e-17 -4.2760410865409235e-17 -7.840575343215101e-17 0.20693043296469005 0.9783556592123752
12627772000.0 0.21597133008495353 0.9763997053364839 -4.348219484011467e-17 -7.798778516003907e-17 -4.348219484011467e-17 -7.798778516003907e-17 0.21597069986902487 0.9763998447346863
12628389333.333334 0.2249931189931736 0.9743603524392602 -4.419990440825169e-17 -7.75631788822247e-17 -4.419990440825169e-17 -7.75631788822247e-17 0.2249924901242861 0.9743604976534653
12629006666.666666 0.23399565936983674 0.972237641421022 -4.491347858421276e-17 -7.71319742171435e-17 -4.491347858421276e-17 -7.71319742171435e-17 0.2339950319016567 0.9722377924382382
12629624000.0 0.24297818103287938 0.9700317538832376 -4.56228567667277e-17 -7.669421134294708e-17 -4.56228567667277e-17 -7.669421134294708e-17 0.24297755501894816 0.9700319106899782
12630241333.333334 0.2519399155129005 0.9677428785432567 -4.6327978744008243e-17 -7.624993099377494e-17 -4.6327978744008243e-17 -7.624993099377494e-17 0.25193929100663 0.9677430411255419
12630858666.666666 0.2608800961188506 0.96537121121818 -4.702878469883058e-17 -7.579917445599497e-17 -4.702878469883058e-17 -7.579917445599497e-17 0.2608794731735182 0.9653713795615362
12631476000.0 0.26979795800375955 0.9629169548080659 -4.772521521361787e-17 -7.5341983564374e-17 -4.772521521361787e-17 -7.5341983564374e-17 0.2697973366725039 0.9629171288975285
12632093333.333334 0.27869273822992374 0.9603803192786406 -4.84172112754347e-17 -7.487840069823533e-17 -4.84172112754347e-17 -7.487840069823533e-17 0.27869211856574067 0.9603804990987556
12632710666.666666 0.28756367583431575 0.9577615216433023 -4.9104714280983114e-17 -7.440846877754563e-17 -4.9104714280983114e-17 -7.440846877754563e-17 0.2875630578900529 0.9577617071781259
12633328000.0 0.2964100118938196 0.9550607859445086 -4.9787666041568465e-17 -7.393223125894967e-17 -4.9787666041568465e-17 -7.393223125894967e-17 0.2964093957221725 0.9550609771776105
12633945333.333334 0.30523098958991424 0.9522783432346859 -5.0466008787977534e-17 -7.34497321317947e-17 -5.0466008787977534e-17 -7.34497321317947e-17 0.3052303752434214 0.9522785401491496
12634562666.666666 0.3140258542735561 0.9494144315564198 -5.113968517536815e-17 -7.296101591407545e-17 -5.113968517536815e-17 -7.296101591407545e-17 0.3140252418045952 0.949414634134845
12635180000.0 0.3227938535297133 0.9464692959220988 -5.1808638288096995e-17 -7.246612764835038e-17 -5.1808638288096995e-17 -7.246612764835038e-17 0.32279324299049594 0.9464695041466019
12635797333.333334 0.3315342372417635 0.9434431882929453 -5.2472811644514304e-17 -7.196511289760947e-17 -5.2472811644514304e-17 -7.196511289760947e-17 0.331533628684331 0.9434434021451608
12636414666.666666 0.3402462576555591 0.940336367557494 -5.3132149201708806e-17 -7.145801774110595e-17 -5.3132149201708806e-17 -7.145801774110595e-17 0.3402456511317786 0.9403365870185783
12637032000.0 0.348929169443561 0.9371490995093906 -5.378659536023273e-17 -7.094488877012924e-17 -5.378659536023273e-17 -7.094488877012924e-17 0.3489285650051203 0.937149324560021
12637649333.333334 0.35758222976849485 0.9338816568246897 -5.4436094968766104e-17 -7.042577308375034e-17 -5.4436094968766104e-17 -7.042577308375034e-17 0.35758162746689803 0.9338818874450666
12638266666.666666 0.36620469834692776 0.9305343190385142 -5.5080593328750487e-17 -6.990071828451713e-17 -5.5080593328750487e-17 -6.990071828451713e-17 0.3662040982334919 0.9305345552083659
12638884000.0 0.3747958375126032 0.9271073725211463 -5.572003619897905e-17 -6.936977247410861e-17 -5.572003619897905e-17 -6.936977247410861e-17 0.3747952396384522 0.9271076142197253
12639501333.333334 0.38335491227957247 0.9236011104535101 -5.63543698001453e-17 -6.883298424894758e-17 -5.63543698001453e-17 -6.883298424894758e-17 0.38335431669563474 0.9236013576596014
12640118666.666666 0.39188119040489405 0.9200158328021745 -5.698354081934607e-17 -6.829040269577563e-17 -5.698354081934607e-17 -6.829040269577563e-17 0.3918805971618964 0.9200160854940916
12640736000.0 0.4003739424517995 0.9163518462934637 -5.76074964145645e-17 -6.774207738716635e-17 -5.76074964145645e-17 -6.774207738716635e-17 0.4003733516002634 0.9163521044490528
12641353333.333334 0.4088324418513129 0.9126094643875491 -5.822618421905356e-17 -6.718805837704857e-17 -5.822618421905356e-17 -6.718805837704857e-17 0.4088318534415507 0.9126097279841926
12641970666.666666 0.4172559649650651 0.9087890072513571 -5.883955234575236e-17 -6.662839619612239e-17 -5.883955234575236e-17 -6.662839619612239e-17 0.41725537904717586 0.9087892762659746
12642588000.0 0.42564379114691486 0.9048908017313018 -5.944754939160203e-17 -6.606314184728592e-17 -5.944754939160203e-17 -6.606314184728592e-17 0.42564320777077813 0.9048910761403486
12643205333.333334 0.43399520280462545 0.9009151813253059 -6.005012444183842e-17 -6.549234680100371e-17 -6.005012444183842e-17 -6.549234680100371e-17 0.4339946220198996 0.900915461104781
12643822666.666666 0.44230948546136095 0.8968624861542279 -6.064722707424645e-17 -6.491606299063165e-17 -6.064722707424645e-17 -6.491606299063165e-17 0.4423089073174779 0.8968627712796731
12644440000.0 0.45058592781668155 0.8927330629328216 -6.123880736335268e-17 -6.433434280771828e-17 -6.123880736335268e-17 -6.433434280771828e-17 0.4505853523628418 0.8927333533793221
12645057333.333334 0.45882382180742204 0.8885272649400621 -6.182481588458464e-17 -6.374723909725814e-17 -6.182481588458464e-17 -6.374723909725814e-17 0.45882324909259176 0.8885275606822521
12645674666.666666 0.46702246266826974 0.884245451988926 -6.240520371838105e-17 -6.315480515291089e-17 -6.240520371838105e-17 -6.315480515291089e-17 0.46702189274117606 0.8842457530009888
12646292000.0 0.47518114899223335 0.8798879903955146 -6.297992245427756e-17 -6.255709471216144e-17 -6.297992245427756e-17 -6.255709471216144e-17 0.47518058190135926 0.8798882966511837
12646909333.333334 0.4832991827903213 0.8754552529478841 -6.35489241948934e-17 -6.195416195149724e-17 -6.35489241948934e-17 -6.195416195149724e-17 0.4832986185839033 0.8754555644204486
12647526666.666666 0.4913758695515095 0.870947618874025 -6.41121615599306e-17 -6.134606148149025e-17 -6.41121615599306e-17 -6.134606148149025e-17 0.4913753082775326 0.8709479355363303
12648144000.0 0.49941051830213024 0.8663654738094273 -6.466958769009704e-17 -6.073284834187075e-17 -6.466958769009704e-17 -6.073284834187075e-17 0.4994099600083236 0.8663657956338768
12648761333.333334 0.5074024416648875 0.8617092097641443 -6.522115625098106e-17 -6.01145779965709e-17 -6.522115625098106e-17 -6.01145779965709e-17 0.5074018863987212 0.8617095367227037
12649378666.666666 0.5153509559176395 0.8569792250892735 -6.576682143688427e-17 -5.949130632872469e-17 -6.576682143688427e-17 -5.949130632872469e-17 0.5153504037263189 0.8569795571534695
12649996000.0 0.5232553810521123 0.8521759244427444 -6.630653797461595e-17 -5.886308963562485e-17 -6.630653797461595e-17 -5.886308963562485e-17 0.523254831982576 0.8521762615836717
12650613333.333334 0.5311150408318552 0.847299718754829 -6.684026112722569e-17 -5.822998462365982e-17 -6.684026112722569e-17 -5.822998462365982e-17 0.5311144949307707 0.847300060943152
12651230666.666666 0.5389292628500965 0.8423510251929934 -6.736794669768668e-17 -5.75920484032198e-17 -6.736794669768668e-17 -5.75920484032198e-17 0.5389287201638545 0.8423513723989451
12651848000.0 0.546697378587484 0.8373302671260665 -6.788955103255154e-17 -5.694933848354421e-17 -6.788955103255154e-17 -5.694933848354421e-17 0.5466968391621959 0.8373306193194544
12652465333.333334 0.5544187234690608 0.8322378740881563 -6.840503102553641e-17 -5.63019127675633e-17 -6.840503102553641e-17 -5.63019127675633e-17 0.554418187350555 0.8322382312383644
12653082666.666666 0.5620926369211241 0.8270742817419088 -6.891434412105511e-17 -5.564982954670996e-17 -6.891434412105511e-17 -5.564982954670996e-17 0.5620921041549416 0.8270746438179004
12653700000.0 0.5697184624279732 0.8218399318410751 -6.94174483177348e-17 -5.499314749565996e-17 -6.94174483177348e-17 -5.499314749565996e-17 0.5697179330593635 0.8218402988113948
12654317333.333334 0.5772955475877458 0.8165352721929412 -6.991430217183707e-17 -5.4331925667098436e-17 -6.991430217183707e-17 -5.4331925667098436e-17 0.5772950216616641 0.8165356440257188
12654934666.666666 0.5848232441684681 0.8111607566198606 -7.0404864800668e-17 -5.3666223486405876e-17 -7.0404864800668e-17 -5.3666223486405876e-17 0.5848227217295696 0.8111611332828116
12655552000.0 0.5923009081635087 0.8057168449204224 -7.088909588592169e-17 -5.299610074633307e-17 -7.088909588592169e-17 -5.299610074633307e-17 0.5923003892561464 0.8057172263808524
12656169333.333334 0.5997278998464681 0.8002040028302666 -7.136695567696083e-17 -5.2321617601664946e-17 -7.136695567696083e-17 -5.2321617601664946e-17 0.5997273845146891 0.8002043890550756
12656786666.666666 0.60710358382614 0.7946227019820755 -7.183840499407447e-17 -5.164283456381634e-17 -7.183840499407447e-17 -5.164283456381634e-17 0.6071030721136803 0.7946230929377572
12657404000.0 0.6144273291007525 0.788973419865304 -7.23034052316625e-17 -5.0959812495428985e-17 -7.23034052316625e-17 -5.0959812495428985e-17 0.6144268210510349 0.7889738155179522
12658021333.333334 0.6216985091119979 0.7832566397852981 -7.276191836137915e-17 -5.0272612604926e-17 -7.276191836137915e-17 -5.0272612604926e-17 0.6216980047681279 0.783257040100608
12658638666.666666 0.6289165017985249 0.7774728508220353 -7.321390693521364e-17 -4.958129644105482e-17 -7.321390693521364e-17 -4.958129644105482e-17 0.6289160012032863 0.7774732557653059
12659256000.0 0.6360806896493574 0.7716225477881239 -7.365933408854723e-17 -4.8885925887360966e-17 -7.365933408854723e-17 -4.8885925887360966e-17 0.6360801928452084 0.7716229573242612
12659873333.333334 0.6431904597566092 0.7657062311865559 -7.409816354311756e-17 -4.8186563156695405e-17 -7.409816354311756e-17 -4.8186563156695405e-17 0.6431899667856811 0.7657066452800778
12660490666.666666 0.6502452038677908 0.7597244071680013 -7.453035960995729e-17 -4.74832707856555e-17 -7.453035960995729e-17 -4.74832707856555e-17 0.6502447147718828 0.7597248257830392
12661108000.0 0.6572443184381545 0.7536775874872517 -7.495588719228695e-17 -4.677611162898944e-17 -7.495588719228695e-17 -4.677611162898944e-17 0.657243833258728 0.7536780105875519
12661725333.333334 0.6641872046819945 0.7475662894597078 -7.537471178832389e-17 -4.606514885402371e-17 -7.537471178832389e-17 -4.606514885402371e-17 0.6641867234601746 0.7475667170086389
12662342666.666666 0.6710732686241214 0.741391035916927 -7.578679949407198e-17 -4.5350445935012444e-17 -7.578679949407198e-17 -4.5350445935012444e-17 0.6710727914006893 0.741391467877479
12662960000.0 0.6779019211505654 0.7351523551619829 -7.619211700603656e-17 -4.463206664749632e-17 -7.619211700603656e-17 -4.463206664749632e-17 0.6779014479659559 0.735152791496772
12663577333.333334 0.6846725780589954 0.728850780924248 -7.659063162389404e-17 -4.391007506262445e-17 -7.659063162389404e-17 -4.391007506262445e-17 0.684672108953295 0.7288512215955211
12664194666.666666 0.6913846601087033 0.7224868523137365 -7.698231125310706e-17 -4.3184535541455325e-17 -7.698231125310706e-17 -4.3184535541455325e-17 0.6913841951216448 0.722487297283372
12664812000.0 0.6980375930701543 0.7160611137749784 -7.736712440748364e-17 -4.2455512729236186e-17 -7.736712440748364e-17 -4.2455512729236186e-17 0.6980371322411153 0.7160615630044918
12665429333.333334 0.7046308077741379 0.7095741150404246 -7.774504021169054e-17 -4.1723071549647347e-17 -7.774504021169054e-17 -4.1723071549647347e-17 0.7046303511421358 0.7095745684909702
12666046666.666666 0.7111637401603573 0.7030264110835154 -7.811602840369285e-17 -4.0987277199059455e-17 -7.811602840369285e-17 -4.0987277199059455e-17 0.7111632877640459 0.7030268687158897
12666664000.0 0.7176358313259071 0.6964185620709796 -7.848005933716959e-17 -4.024819514071163e-17 -7.848005933716959e-17 -4.024819514071163e-17 0.7176353832035753 0.6964190238456259
12667281333.333334 0.7240465275728084 0.6897511333151944 -7.883710398384064e-17 -3.950589109893551e-17 -7.883710398384064e-17 -3.950589109893551e-17 0.7240460837623751 0.6897515991922052
12667898666.666666 0.7303952804555792 0.6830246952256206 -7.918713393576683e-17 -3.8760431053302966e-17 -7.918713393576683e-17 -3.8760431053302966e-17 0.7303948409945912 0.6830251651647414
12668516000.0 0.7366815468281336 0.676239823260022 -7.953012140758385e-17 -3.8011881232776e-17 -7.953012140758385e-17 -3.8011881232776e-17 0.7366811117537612 0.6762402972206543
12669133333.333334 0.7429047888901485 0.6693970978753352 -7.986603923867133e-17 -3.7260308109857674e-17 -7.986603923867133e-17 -3.7260308109857674e-17 0.742904358239184 0.6693975758165415
12669750666.666666 0.7490644742331555 0.6624971044779318 -8.019486089528767e-17 -3.6505778394681415e-17 -8.019486089528767e-17 -3.6505778394681415e-17 0.7490640480420092 0.6624975863584376
12670368000.0 0.7551600758860857 0.6555404333735317 -8.051656047263318e-17 -3.574835902911292e-17 -8.051656047263318e-17 -3.574835902911292e-17 0.7551596541907825 0.6555409191517294
