! Parameters = {f0=12700.012000; bw=77.238000; Q=6100.000000; N=10; m_0_1=1.287182; m_1_1=0.542987; m_1_2=1.121994; m_2_2=0.542338; m_2_3=0.758957; m_2_8=0.001423; m_2_9=0.038127; m_3_3=0.540401; m_3_4=0.647486; m_3_7=0.002023; m_3_8=-0.095065; m_3_9=0.001423; m_4_4=0.537476; m_4_5=0.483821; m_4_6=0.005540; m_4_7=-0.115614; m_4_8=0.002023; m_5_5=0.537858; m_5_6=0.891176; m_5_7=0.005540; m_6_6=0.537857; m_6_7=0.484163; m_7_7=0.537490; m_7_8=0.647604; m_8_8=0.540399; m_8_9=0.759270; m_9_9=0.542333; m_9_10=1.123072; m_10_10=0.542977; m_10_11=1.287977}
!
! Created with skrf (http://scikit-rf.org).
# Hz S RI R 50.0 
!freq ReS11 ImS11 ReS21 ImS21 ReS12 ImS12 ReS22 ImS22
12607400000.0 -0.9820827799536103 0.18845002870365696 1.0644304050802455e-16 -5.509011981239572e-17 1.0644304050802455e-16 -5.509011981239572e-17 -0.9820829077474439 0.1884493627215124
12608017333.333334 -0.9799442994891185 0.19927159832399774 1.0580317070232677e-16 -5.625927317092758e-17 1.0580317070232677e-16 -5.625927317092758e-17 -0.9799444346147935 0.19927093382455846
12608634666.666666 -0.9776865799243979 0.21006892067974559 1.0515046906870029e-16 -5.742101232180902e-17 1.0515046906870029e-16 -5.742101232180902e-17 -0.977686722364755 0.21006825774371848
12609252000.0 -0.9753098959776548 0.22084068195845433 1.0448502132524602e-16 -5.857519654353576e-17 1.0448502132524602e-16 -5.857519654353576e-17 -0.9753100457146466 0.220840020666348
12609869333.333334 -0.9728145368425933 0.23158557145804862 1.0380691473204837e-16 -5.97216861035708e-17 1.0380691473204837e-16 -5.97216861035708e-17 -0.9728146938572855 0.23158491189016364
12610486666.666666 -0.9702008061532927 0.24230228174600382 1.0311623807979053e-16 -6.086034227522131e-17 1.0311623807979053e-16 -6.086034227522131e-17 -0.9702009704258695 0.2423016239824237
12611104000.0 -0.9674690219471711 0.2529895088188507 1.0241308167815708e-16 -6.199102735443085e-17 1.0241308167815708e-16 -6.199102735443085e-17 -0.9674691934569337 0.2529888529394309
12611721333.333334 -0.964619516626387 0.2636459522604016 1.0169753734411281e-16 -6.311360467633973e-17 1.0169753734411281e-16 -6.311360467633973e-17 -0.964619695351759 0.2636452983447611
12612338666.666666 -0.961652636917301 0.2742703154003728 1.009696983899419e-16 -6.422793863180647e-17 1.009696983899419e-16 -6.422793863180647e-17 -0.9616528228358301 0.27426966352788346
12612956000.0 -0.9585687438283235 0.28486130547199473 1.0022965961112415e-16 -6.533389468376295e-17 1.0022965961112415e-16 -6.533389468376295e-17 -0.9585689369166838 0.284860655721772
12613573333.333334 -0.9553682126060368 0.29541763376915264 9.947751727406602e-17 -6.643133938337937e-17 9.947751727406602e-17 -6.643133938337937e-17 -0.9553684128400328 0.2954169862200464
12614190666.666666 -0.9520514326894343 0.3059380158035512 9.871336910360358e-17 -6.752014038616864e-17 9.871336910360358e-17 -6.752014038616864e-17 -0.9520516400440039 0.3059373705341356
12614808000.0 -0.9486188076626199 0.31642117146070925 9.793731427035648e-17 -6.860016646790447e-17 9.793731427035648e-17 -6.860016646790447e-17 -0.9486190221118366 0.3164205285492734
12615425333.333334 -0.9450707552056602 0.3268658251558604 9.714945337791572e-17 -6.967128754038731e-17 9.714945337791572e-17 -6.967128754038731e-17 -0.9450709767227365 0.32686518468039866
12616042666.666666 -0.9414077070437793 0.337270705989111 9.634988844984286e-17 -7.073337466708558e-17 9.634988844984286e-17 -7.073337466708558e-17 -0.9414079356010709 0.337270068027314
12616660000.0 -0.9376301088947867 0.34763454790018966 9.553872291649938e-17 -7.17863000786288e-17 9.553872291649938e-17 -7.17863000786288e-17 -0.9376303444637957 0.3476339125294346
12617277333.333334 -0.9337384204148932 0.35795608982236743 9.471606160172263e-17 -7.282993718812784e-17 9.471606160172263e-17 -7.282993718812784e-17 -0.9337386629662706 0.3579554571197084
12617894666.666666 -0.9297331151428007 0.36823407583585094 9.388201070933017e-17 -7.386416060635243e-17 9.388201070933017e-17 -7.386416060635243e-17 -0.9297333646463515 0.36823344587801
12618512000.0 -0.9256146804419367 0.3784672553209724 9.303667780942376e-17 -7.488884615679629e-17 9.303667780942376e-17 -7.488884615679629e-17 -0.9256149368666231 0.3784666281843305
12619129333.333334 -0.9213836174413629 0.38865438310983635 9.218017182460275e-17 -7.590387089049679e-17 9.218017182460275e-17 -7.590387089049679e-17 -0.9213838807553071 0.3886537588704232
12619746666.666666 -0.9170404409746603 0.39879421963817385 9.131260301594532e-17 -7.69091131007844e-17 9.131260301594532e-17 -7.69091131007844e-17 -0.9170407111451502 0.39879359837165934
12620364000.0 -0.9125856795172479 0.4088855310962492 9.043408296885056e-17 -7.790445233784604e-17 9.043408296885056e-17 -7.790445233784604e-17 -0.9125859565107404 0.40888491287793444
12620981333.333334 -0.908019875122249 0.4189270895785985 8.95447245787624e-17 -7.888976942308099e-17 8.95447245787624e-17 -7.888976942308099e-17 -0.9080201589043732 0.4189264744834057
12621598666.666666 -0.9033435833543729 0.4289176732338043 8.864464203667323e-17 -7.9864946463369e-17 8.864464203667323e-17 -7.9864946463369e-17 -0.9033438738899365 0.42891706133626906
12622216000.0 -0.8985573732223988 0.4388560664129897 8.773395081451988e-17 -8.082986686512022e-17 8.773395081451988e-17 -8.082986686512022e-17 -0.8985576704753909 0.438855457787251
12622833333.333334 -0.8936618271098615 0.4487410598178898 8.681276765039721e-17 -8.178441534819143e-17 8.681276765039721e-17 -8.178441534819143e-17 -0.8936621310434577 0.44874045453768147
12623450666.666666 -0.8886575407043156 0.4585714506477452 8.588121053365828e-17 -8.272847795959526e-17 8.588121053365828e-17 -8.272847795959526e-17 -0.8886578512808807 0.45857084878638604
12624068000.0 -0.8835451229247505 0.46834604274586067 8.493939868982413e-17 -8.366194208708451e-17 8.493939868982413e-17 -8.366194208708451e-17 -0.8835454401058465 0.4683454443762472
12624685333.333334 -0.8783251958474432 0.4780636467452532 8.398745256535485e-17 -8.458469647255463e-17 8.398745256535485e-17 -8.458469647255463e-17 -0.878325519593832 0.4780630519398499
12625302666.666666 -0.8729983946304775 0.48772308021297184 8.302549381232466e-17 -8.54966312252266e-17 8.302549381232466e-17 -8.54966312252266e-17 -0.8729987249021257 0.4877224890438022
12625920000.0 -0.8675653674362016 0.49732316779445046 8.205364527287164e-17 -8.639763783473625e-17 8.205364527287164e-17 -8.639763783473625e-17 -0.8675657041922862 0.49732258033308874
12626537333.333334 -0.8620267753525673 0.5068627413561518 8.107203096357722e-17 -8.728760918397978e-17 8.107203096357722e-17 -8.728760918397978e-17 -0.8620271185514792 0.5068621576737136
12627154666.666666 -0.8563832923126202 0.5163406401278297 8.008077605967928e-17 -8.816643956180729e-17 8.008077605967928e-17 -8.816643956180729e-17 -0.8563836419119712 0.5163400602949642
12627772000.0 -0.8506356050123492 0.5257557108440137 7.908000687912355e-17 -8.90340246755609e-17 7.908000687912355e-17 -8.90340246755609e-17 -0.8506359609689771 0.5257551349308952
12628389333.333334 -0.844784412827423 0.5351068078838526 7.806985086654559e-17 -8.98902616633736e-17 7.806985086654559e-17 -8.98902616633736e-17 -0.8447847750973956 0.5351062359601708
12629006666.666666 -0.8388304277278242 0.5443927934109476 7.705043657703063e-17 -9.073504910636505e-17 7.705043657703063e-17 -9.073504910636505e-17 -0.838830796266446 0.544392225545901
12629624000.0 -0.832774374191337 0.5536125375116122 7.602189365983728e-17 -9.156828704057182e-17 7.602189365983728e-17 -9.156828704057182e-17 -0.8327747489531535 0.553611973773898
12630241333.333334 -0.8266169891153916 0.5627649183323575 7.498435284191022e-17 -9.238987696876406e-17 7.498435284191022e-17 -9.238987696876406e-17 -0.8266173700541953 0.5627643587901637
12630858666.666666 -0.8203590217274489 0.57184882221633 7.393794591133601e-17 -9.319972187201744e-17 7.393794591133601e-17 -9.319972187201744e-17 -0.8203594087962867 0.5718482669373286
12631476000.0 -0.8140012334936109 0.5808631438391497 7.288280570060092e-17 -9.39977262211575e-17 7.288280570060092e-17 -9.39977262211575e-17 -0.8140016266447873 0.5808625928904865
12632093333.333334 -0.8075443980262704 0.5898067863429585 7.181906606980552e-17 -9.478379598795261e-17 7.181906606980552e-17 -9.478379598795261e-17 -0.8075447972113554 0.5898062397912466
12632710666.666666 -0.8009893009898208 0.5986786614701236 7.074686188969265e-17 -9.55578386561693e-17 7.074686188969265e-17 -9.55578386561693e-17 -0.8009897061596541 0.5986781193814339
12633328000.0 -0.7943367400050005 0.6074776896957191 6.966632902458844e-17 -9.631976323241056e-17 6.966632902458844e-17 -9.631976323241056e-17 -0.7943371511096992 0.6074771521355734
12633945333.333334 -0.7875875245519255 0.61620280035877 6.857760431522534e-17 -9.706948025676523e-17 6.857760431522534e-17 -9.706948025676523e-17 -0.7875879415408886 0.6162022673921326
12634562666.666666 -0.7807424758716086 0.6248529317925069 6.748082556145345e-17 -9.780690181326057e-17 6.748082556145345e-17 -9.780690181326057e-17 -0.7807428986935249 0.6248524034837768
12635180000.0 -0.7738024268659981 0.633427031453594 6.63761315048296e-17 -9.853194154012897e-17 6.63761315048296e-17 -9.853194154012897e-17 -0.7738028554688511 0.633426507866597
12635797333.333334 -0.7667682219965581 0.6419240560502902 6.526366181109088e-17 -9.924451463988143e-17 6.526366181109088e-17 -9.924451463988143e-17 -0.7667686563276341 0.6419235372482724
12636414666.666666 -0.7596407171816968 0.6503429716691783 6.414355705256001e-17 -9.994453788915776e-17 6.414355705256001e-17 -9.994453788915776e-17 -0.7596411571875888 0.6503424577147959
12637032000.0 -0.7524207796924335 0.6586827539011859 6.30159586903894e-17 -1.0063192964841553e-16 6.30159586903894e-17 -1.0063192964841553e-16 -0.7524212253190505 0.6586822448565004
12637649333.333334 -0.7451092880469845 0.6669423879661092 6.188100905674764e-17 -1.0130660987139052e-16 6.188100905674764e-17 -1.0130660987139052e-16 -0.7451097392395561 0.6669418838925778
12638266666.666666 -0.7377071319037675 0.6751208688361936 6.073885133687359e-17 -1.0196850011437558e-16 6.073885133687359e-17 -1.0196850011437558e-16 -0.7377075886068519 0.6751203697946636
12638884000.0 -0.730215211953264 0.6832172013583006 5.95896295510642e-17 -1.0261752354527925e-16 5.95896295510642e-17 -1.0261752354527925e-16 -0.7302156741107548 0.6832167074090008
12639501333.333334 -0.7226344398083284 0.6912304003751013 5.843348853653394e-17 -1.0325360495250029e-16 5.843348853653394e-17 -1.0325360495250029e-16 -0.7226349073634596 0.691229911577634
12640118666.666666 -0.7149657378934184 0.6991594908447852 5.727057392921886e-17 -1.038766707535774e-16 5.727057392921886e-17 -1.038766707535774e-16 -0.7149662107887742 0.6991590072581214
12640736000.0 -0.7072100393319624 0.7070035079601118 5.610103214540564e-17 -1.0448664900367835e-16 5.610103214540564e-17 -1.0448664900367835e-16 -0.7072105175094824 0.7070030296425822
12641353333.333334 -0.6993682878334094 0.7147614972651964 5.492501036342354e-17 -1.0508346940380351e-16 5.492501036342354e-17 -1.0508346940380351e-16 -0.699368771234396 0.714761024274485
12641970666.666666 -0.6914414375779245 0.722432514772136 5.374265650507e-17 -1.0566706330887628e-16 5.374265650507e-17 -1.0566706330887628e-16 -0.6914419261430507 0.7224320471652733
12642588000.0 -0.6834304531004222 0.7300156270757302 5.2554119217089426e-17 -1.0623736373555482e-16 5.2554119217089426e-17 -1.0623736373555482e-16 -0.6834309467697383 0.7300151649090857
12643205333.333334 -0.6753363091733036 0.7375099114669583 5.135954785250673e-17 -1.0679430536986802e-16 5.135954785250673e-17 -1.0679430536986802e-16 -0.6753368078862442 0.7375094547962336
12643822666.666666 -0.6671599906877042 0.7449144560453915 5.015909245187136e-17 -1.0733782457464547e-16 5.015909245187136e-17 -1.0733782457464547e-16 -0.6671604943830977 0.744914004925616
12644440000.0 -0.6589024925336942 0.7522283598301144 4.895290372447861e-17 -1.0786785939671207e-16 4.895290372447861e-17 -1.0786785939671207e-16 -0.6589030011497671 0.7522279143156347
12645057333.333334 -0.6505648194793248 0.759450732869259 4.77411330294668e-17 -1.0838434957389388e-16 4.77411330294668e-17 -1.0838434957389388e-16 -0.650565332953711 0.7594502930137345
12645674666.666666 -0.6421479860482845 0.7665806963483704 4.6523932356863404e-17 -1.0888723654180402e-16 4.6523932356863404e-17 -1.0888723654180402e-16 -0.6421485043180343 0.7665802622047682
12646292000.0 -0.6336530163963479 0.7736173826974352 4.530145430851968e-17 -1.0937646344043148e-16 4.530145430851968e-17 -1.0937646344043148e-16 -0.6336535393979333 0.7736169543180216
12646909333.333334 -0.6250809441869462 0.7805599356962769 4.407385207907045e-17 -1.0985197512047819e-16 4.407385207907045e-17 -1.0985197512047819e-16 -0.6250814718562696 0.7805595131326114
12647526666.666666 -0.6164328124653085 0.7874075105788171 4.2841279436729075e-17 -1.1031371814952442e-16 4.2841279436729075e-17 -1.1031371814952442e-16 -0.6164333447377112 0.7874070938817468
12648144000.0 -0.6077096735314987 0.7941592741358995 4.1603890704052296e-17 -1.1076164081796371e-16 4.1603890704052296e-17 -1.1076164081796371e-16 -0.6077102103417681 0.7941588633555531
12648761333.333334 -0.598912588812394 0.8008144048166562 4.036184073868266e-17 -1.1119569314470947e-16 4.036184073868266e-17 -1.1119569314470947e-16 -0.5989131300947712 0.8008140000024372
12649378666.666666 -0.5900426287326668 0.8073720928283715 3.9115284913991075e-17 -1.1161582688270117e-16 3.9115284913991075e-17 -1.1161582688270117e-16 -0.5900431744208553 0.8073716940289519
12649996000.0 -0.581100872584332 0.8138315402351696 3.7864379099647504e-17 -1.1202199552419956e-16 3.7864379099647504e-17 -1.1202199552419956e-16 -0.5811014226115064 0.8138311474984866
12650613333.333334 -0.5720884083955334 0.8201919610550238 3.660927964219133e-17 -1.1241415430584478e-16 3.660927964219133e-17 -1.1241415430584478e-16 -0.5720889626943466 0.8201915744282711
12651230666.666666 -0.5630063327981537 0.8264525813553941 3.5350143345525847e-17 -1.127922602135082e-16 3.5350143345525847e-17 -1.127922602135082e-16 -0.5630068913007454 0.8264522008850181
12651848000.0 -0.5538557508942834 0.8326126393474641 3.4087127451318225e-17 -1.131562719869381e-16 3.4087127451318225e-17 -1.131562719869381e-16 -0.553856313532288 0.8326122650791565
12652465333.333334 -0.5446377761218667 0.838671385478751 3.28203896194431e-17 -1.1350615012415973e-16 3.28203896194431e-17 -1.1350615012415973e-16 -0.5446383428264229 0.8386710174574458
12653082666.666666 -0.5353535301192727 0.844628082524287 3.1550087908324616e-17 -1.13841856885675e-16 3.1550087908324616e-17 -1.13841856885675e-16 -0.5353541008210307 0.844627720794153
12653700000.0 -0.5260041425884763 0.8504820056765354 3.0276380755203964e-17 -1.1416335629844967e-16 3.0276380755203964e-17 -1.1416335629844967e-16 -0.5260047172176069 0.8504816502809717
12654317333.333334 -0.5165907511580776 0.85623244263328 2.899942695647507e-17 -1.1447061415965333e-16 2.899942695647507e-17 -1.1447061415965333e-16 -0.5165913296442806 0.8562320936149113
12654934666.666666 -0.5071145012445648 0.8618786936844991 2.7719385647876282e-17 -1.1476359804020614e-16 2.7719385647876282e-17 -1.1476359804020614e-16 -0.5071150835170769 0.8618783510851682
12655552000.0 -0.497576545912862 0.8674200717975376 2.643641628468048e-17 -1.1504227728809737e-16 2.643641628468048e-17 -1.1504227728809737e-16 -0.49757713190046754 0.8674197356583055
12656169333.333334 -0.48797804573639725 0.8728559027005011 2.5150678621912017e-17 -1.1530662303146864e-16 2.5150678621912017e-17 -1.1530662303146864e-16 -0.4879786353674341 0.8728555730616357
12656786666.666666 -0.478320168655562 0.8781855249644778 2.3862332694443015e-17 -1.1555660818149752e-16 2.3862332694443015e-17 -1.1555660818149752e-16 -0.47832076185793226 0.8781852018654536
12657404000.0 -0.46860408983564594 0.8834082900839938 2.257153879711174e-17 -1.1579220743504818e-16 2.257153879711174e-17 -1.1579220743504818e-16 -0.4686046865368245 0.8834079735634855
12658021333.333334 -0.4588309915239441 0.8885235625558692 2.1278457464823294e-17 -1.1601339727709918e-16 2.1278457464823294e-17 -1.1601339727709918e-16 -0.45883159165098697 0.8885232526517479
12658638666.666666 -0.4490020629059525 0.8935307199565216 1.9983249452621948e-17 -1.162201559829516e-16 1.9983249452621948e-17 -1.162201559829516e-16 -0.4490026663855055 0.8935304167058478
12659256000.0 -0.43911849996033914 0.8984291530178674 1.8686075715694342e-17 -1.1641246362022267e-16 1.8686075715694342e-17 -1.1641246362022267e-16 -0.43911910671864807 0.8984288564568904
12659873333.333334 -0.4291815053137978 0.9032182657012655 1.738709738944835e-17 -1.1659030205060175e-16 1.738709738944835e-17 -1.1659030205060175e-16 -0.42918211527671707 0.9032179758654179
12660490666.666666 -0.41919228809461495 0.9078974752701001 1.6086475769518042e-17 -1.1675365493139467e-16 1.6086475769518042e-17 -1.1675365493139467e-16 -0.41919290118761493 0.9078971921939893
12661108000.0 -0.40915206378533414 0.9124662123607767 1.4784372291723186e-17 -1.169025077168484e-16 1.4784372291723186e-17 -1.169025077168484e-16 -0.40915267993351295 0.9124659360781879
12661725333.333334 -0.39906205407511713 0.916923921051888 1.3480948512129054e-17 -1.170368476592398e-16 1.3480948512129054e-17 -1.170368476592398e-16 -0.39906267320320765 0.9169236515957745
12662342666.666666 -0.3889234867109585 0.9212700589319139 1.2176366086982707e-17 -1.1715666380975592e-16 1.2176366086982707e-17 -1.1715666380975592e-16 -0.3889241087433388 0.9212697963343958
12662960000.0 -0.37873759534832074 0.9255040971652111 1.087078675271789e-17 -1.172619470191428e-16 1.087078675271789e-17 -1.172619470191428e-16 -0.3787382202090228 0.9255038414575711
12663577333.333334 -0.36850561940105014 0.929625520556352 9.564372305917952e-18 -1.173526899381367e-16 9.564372305917952e-18 -1.173526899381367e-16 -0.3685062470137695 0.9296252717690318
12664194666.666666 -0.3582288038904604 0.9336338276128555 8.257284583315667e-18 -1.1742888701766776e-16 8.257284583315667e-18 -1.1742888701766776e-16 -0.3582294341785647 0.9336335857754509
12664812000.0 -0.34790839929399575 0.9375285306061416 6.949685441766038e-18 -1.1749053450884582e-16 6.949685441766038e-18 -1.1749053450884582e-16 -0.34790903218053476 0.9375282957474002
12665429333.333334 -0.33754566139294284 0.941309155630934 5.641736738220951e-18 -1.1753763046272193e-16 5.641736738220951e-18 -1.1753763046272193e-16 -0.33754629680065773 0.9413089277787515
12666046666.666666 -0.32714185111981453 0.944975242662855 4.3336003097617934e-18 -1.1757017472982589e-16 4.3336003097617934e-18 -1.1757017472982589e-16 -0.3271424889711473 0.9449750218442724
12666664000.0 -0.3166982344045185 0.948526345614544 3.025437953558761e-18 -1.1758816895948518e-16 3.025437953558761e-18 -1.1758816895948518e-16 -0.31669887462162144 0.9485261318557435
12667281333.333334 -0.30621608202085543 0.951962032389747 1.717411406926452e-18 -1.1759161659891859e-16 1.717411406926452e-18 -1.1759161659891859e-16 -0.3062167245256002 0.9519618257160488
12667898666.666666 -0.29569666943154366 0.9552818849360183 4.0968232734784385e-19 -1.1758052289210966e-16 4.0968232734784385e-19 -1.1758052289210966e-16 -0.29569731414553196 0.9552816853718796
12668516000.0 -0.28514127663293964 0.9584854992956118 -8.975877275007766e-19 -1.1755489487845814e-16 -8.975877275007766e-19 -1.1755489487845814e-16 -0.2851419234775111 0.9584853068646203
12669133333.333334 -0.27455118799969386 0.9615724856545018 -2.204237319624575e-18 -1.1751474139121036e-16 -2.204237319624575e-18 -1.1751474139121036e-16 -0.2745518368959374 0.9615723003793771
12669750666.666666 -0.26392769212811845 0.9645424683899337 -3.510105150662633e-18 -1.1746007305566815e-16 -3.510105150662633e-18 -1.1746007305566815e-16 -0.2639283429968802 0.9645422902925207
12670368000.0 -0.2532720816794157 0.9673950861161102 -4.815030081751896e-18 -1.1739090228717717e-16 -4.815030081751896e-18 -1.1739090228717717e-16 -0.25327273444131027 0.96739491521738
