! Parameters = {f0=12700.012000; bw=77.238000; Q=6100.000000; N=10; m_0_1=1.330025; m_1_1=1.185630; m_1_2=1.164837; m_2_2=1.184981; m_2_3=0.801800; m_2_8=0.003565; m_2_9=0.040269; m_3_3=1.183044; m_3_4=0.690329; m_3_7=0.004165; m_3_8=-0.092923; m_3_9=0.003565; m_4_4=1.180119; m_4_5=0.526664; m_4_6=0.007682; m_4_7=-0.113472; m_4_8=0.004165; m_5_5=1.180501; m_5_6=0.934019; m_5_7=0.007682; m_6_6=1.180500; m_6_7=0.527006; m_7_7=1.180133; m_7_8=0.690447; m_8_8=1.183042; m_8_9=0.802113; m_9_9=1.184976; m_9_10=1.165915; m_10_10=1.185620; m_10_11=1.330820}
!
! Created with skrf (http://scikit-rf.org).
# Hz S RI R 50.0 
!freq ReS11 ImS11 ReS21 ImS21 ReS12 ImS12 ReS22 ImS22
12607400000.0 -0.5899644790740474 0.8074292002588807 4.8968730009445135e-17 -1.371202970587991e-16 4.8968730009445135e-17 -1.371202970587991e-16 -0.5899650447765135 0.8074287869166251
12608017333.333334 -0.5799908045466947 0.814623021182856 4.7257372185441506e-17 -1.3768933174063541e-16 4.7257372185441506e-17 -1.3768933174063541e-16 -0.5799913752613723 0.8146226148482673
12608634666.666666 -0.5699294207712344 0.8216936505408642 4.5539434551511e-17 -1.3823702027720104e-16 4.5539434551511e-17 -1.3823702027720104e-16 -0.5699299964113301 0.8216932512747005
12609252000.0 -0.5597818492829543 0.8286400190753301 4.3815183205168434e-17 -1.3876328701476804e-16 4.3815183205168434e-17 -1.3876328701476804e-16 -0.5597824297609384 0.8286396269372751
12609869333.333334 -0.5495496246508516 0.8354610763200849 4.208488510809171e-17 -1.3926805961479616e-16 4.208488510809171e-17 -1.3926805961479616e-16 -0.5495502098784727 0.8354606913687401
12610486666.666666 -0.5392342942457343 0.8421557907591157 4.034880804487117e-17 -1.3975126906372017e-16 4.034880804487117e-17 -1.3975126906372017e-16 -0.5392348841340303 0.8421554130519886
12611104000.0 -0.5288374180058358 0.8487231499828002 3.860722058155729e-17 -1.4021284968224897e-16 3.860722058155729e-17 -1.4021284968224897e-16 -0.528838012465149 0.8487227795762982
12611721333.333334 -0.5183605682015127 0.8551621608406282 3.686039202426852e-17 -1.4065273913410584e-16 3.686039202426852e-17 -1.4065273913410584e-16 -0.5183611671415023 0.8551617977900475
12612338666.666666 -0.5078053291968997 0.8614718495917528 3.5108592377506066e-17 -1.410708784343047e-16 3.5108592377506066e-17 -1.410708784343047e-16 -0.5078059325265569 0.8614714939512741
12612956000.0 -0.4971732972105795 0.8676512620520798 3.3352092302517665e-17 -1.4146721195687205e-16 3.3352092302517665e-17 -1.4146721195687205e-16 -0.4971739048382411 0.8676509138747576
12613573333.333334 -0.48646608007429337 0.8736994637385086 3.159116307554934e-17 -1.418416874420591e-16 3.159116307554934e-17 -1.418416874420591e-16 -0.48646669190765424 0.8736991230762626
12614190666.666666 -0.4756852969895744 0.8796155400103772 2.982607654597076e-17 -1.4219425600304638e-16 2.982607654597076e-17 -1.4219425600304638e-16 -0.47568591293570256 0.8796152069139859
12614808000.0 -0.4648325782830317 0.8853985962076946 2.8057105094365166e-17 -1.4252487213211887e-16 2.8057105094365166e-17 -1.4252487213211887e-16 -0.46483319824838276 0.8853982707267876
12615425333.333334 -0.4539095651596798 0.8910477577865045 2.6284521590570782e-17 -1.4283349370631854e-16 2.6284521590570782e-17 -1.4283349370631854e-16 -0.4539101890501109 0.8910474399695558
12616042666.666666 -0.44291790945489634 0.8965621704510576 2.4508599351626898e-17 -1.4312008199258273e-16 2.4508599351626898e-17 -1.4312008199258273e-16 -0.44291853717567986 0.8965618603453764
12616660000.0 -0.4318592733845231 0.9019410002830556 2.2729612099692312e-17 -1.4338460165235563e-16 2.2729612099692312e-17 -1.4338460165235563e-16 -0.4318599048403615 0.9019406979347809
12617277333.333334 -0.420735329293496 0.9071834338677597 2.094783391988969e-17 -1.4362702074568314e-16 2.094783391988969e-17 -1.4362702074568314e-16 -0.42073596438853694 0.9071831393218535
12617894666.666666 -0.40954775940309984 0.9122886784169294 1.9163539218175796e-17 -1.4384731073477372e-16 1.9163539218175796e-17 -1.4384731073477372e-16 -0.40954839804094934 0.9122883917171688
12618512000.0 -0.39829825555618537 0.9172559618888866 1.737700267907303e-17 -1.4404544648705233e-16 1.737700267907303e-17 -1.4404544648705233e-16 -0.39829889763992343 0.9172556830778582
12619129333.333334 -0.38698851896183784 0.9220845331050346 1.5588499223497424e-17 -1.4422140627767454e-16 1.5588499223497424e-17 -1.4422140627767454e-16 -0.3869891643940329 0.9220842622241279
12619746666.666666 -0.3756202599377499 0.9267736618636208 1.3798303966468643e-17 -1.4437517179152964e-16 1.3798303966468643e-17 -1.4437517179152964e-16 -0.3756209086204733 0.9267733989530214
12620364000.0 -0.3641951976516 0.9313226390501409 1.200669217482708e-17 -1.445067281247156e-16 1.200669217482708e-17 -1.445067281247156e-16 -0.3641958494864417 0.9313223841488267
12620981333.333334 -0.35271505986131096 0.9357307767444859 1.0213939225022442e-17 -1.446160637854858e-16 1.0213939225022442e-17 -1.446160637854858e-16 -0.3527157147493935 0.9357305298902193
12621598666.666666 -0.3411815826535307 0.9399974083250648 8.420320560782794e-18 -1.4470317069468078e-16 8.420320560782794e-18 -1.4470317069468078e-16 -0.34118224049552476 0.9399971695543874
12622216000.0 -0.32959651018111824 0.9441218885696037 6.626111650872056e-18 -1.447680441856303e-16 6.626111650872056e-18 -1.447680441856303e-16 -0.3295971708772573 0.9441216579178311
12622833333.333334 -0.31796159439948934 0.9481035937526772 4.831587946827305e-18 -1.4481068300353495e-16 4.831587946827305e-18 -1.4481068300353495e-16 -0.31796225784958543 0.9481033712538943
12623450666.666666 -0.30627859480167896 0.9519419217400381 3.037024840744054e-18 -1.4483108930432324e-16 3.037024840744054e-18 -1.4483108930432324e-16 -0.30627926090513713 0.9519417074270932
12624068000.0 -0.2945492781521526 0.9556362920797076 1.242697623029518e-18 -1.4482926865298792e-16 1.242697623029518e-18 -1.4482926865298792e-16 -0.2945499468079869 0.955636085984209
12624685333.333334 -0.2827754182196003 0.9591861460897657 -5.511185597543636e-19 -1.448052300213987e-16 -5.511185597543636e-19 -1.448052300213987e-16 -0.28277608932644827 0.9591859482420744
12625302666.666666 -0.2709587955089952 0.96259094694274 -2.344148747001146e-18 -1.4475898578559403e-16 -2.344148747001146e-18 -1.4475898578559403e-16 -0.27095946896513406 0.9625907573719684
12625920000.0 -0.25910119699182094 0.9658501797469484 -4.136118206227978e-18 -1.4469055172255156e-16 -4.136118206227978e-18 -1.4469055172255156e-16 -0.2591018726951822 0.9658499984809531
12626537333.333334 -0.24720441583638036 0.9689633516241994 -5.926752475040004e-18 -1.445999470064395e-16 -5.926752475040004e-18 -1.445999470064395e-16 -0.24720509368456575 0.9689631786895784
12627154666.666666 -0.2352702511363514 0.9719299917844111 -7.715777403135732e-18 -1.4448719420434857e-16 -7.715777403135732e-18 -1.4448719420434857e-16 -0.2352709310266489 0.9719298272065022
12627772000.0 -0.22330050763858067 0.9747496515968392 -9.502919194289058e-18 -1.443523192715005e-16 -9.502919194289058e-18 -1.443523192715005e-16 -0.2233011894679789 0.9747494953997121
12628389333.333334 -0.2112969954705454 0.9774219046578237 -1.1287904448100528e-17 -1.4419535154594894e-16 -1.1287904448100528e-17 -1.4419535154594894e-16 -0.21129767913574996 0.9774217568642787
12629006666.666666 -0.19926152986623022 0.9799463468553656 -1.3070460201848026e-17 -1.4401632374275258e-16 -1.3070460201848026e-17 -1.4401632374275258e-16 -0.19926221526367935 0.9799462074869303
12629624000.0 -0.18719593089181133 0.9823225964301932 -1.4850313972143233e-17 -1.4381527194764004e-16 -1.4850313972143233e-17 -1.4381527194764004e-16 -0.18719661791769143 0.9823224655071191
12630241333.333334 -0.1751020231704163 0.984550294033491 -1.6627193796531085e-17 -1.4359223561015812e-16 -1.6627193796531085e-17 -1.4359223561015812e-16 -0.17510271172067768 0.9845501715747512
12630858666.666666 -0.16298163560625237 0.986629102781241 -1.8400828274985094e-17 -1.4334725753630903e-16 -1.8400828274985094e-17 -1.4334725753630903e-16 -0.1629823255766249 0.9866289888045261
12631476000.0 -0.15083660110774905 0.9885587083052115 -2.0170946611348876e-17 -1.4308038388066771e-16 -2.0170946611348876e-17 -1.4308038388066771e-16 -0.15083729239375812 0.9885586028269275
12632093333.333334 -0.1386687563107403 0.9903388188004345 -2.1937278654575307e-17 -1.4279166413800214e-16 -2.1937278654575307e-17 -1.4279166413800214e-16 -0.1386694488077225 0.9903387218357008
12632710666.666666 -0.1264799413005795 0.9919691650693633 -2.3699554939924102e-17 -1.4248115113437566e-16 -2.3699554939924102e-17 -1.4248115113437566e-16 -0.12648063490369862 0.9919690766320112
12633328000.0 -0.11427199933361806 0.9934495005626128 -2.5457506730053814e-17 -1.4214890101773675e-16 -2.5457506730053814e-17 -1.4214890101773675e-16 -0.1142726939378809 0.9934494206651825
12633945333.333334 -0.10204677655888118 0.9947796014161876 -2.721086605588927e-17 -1.417949732480206e-16 -2.721086605588927e-17 -1.417949732480206e-16 -0.10204747205915328 0.9947795300699264
12634562666.666666 -0.0898061217386298 0.9959592664853684 -2.895936575744833e-17 -1.4141943058673104e-16 -2.895936575744833e-17 -1.4141943058673104e-16 -0.08980681802965164 0.99595920370023
12635180000.0 -0.07755188596883772 0.9969883173751256 -3.070273952450426e-17 -1.4102233908602363e-16 -3.070273952450426e-17 -1.4102233908602363e-16 -0.07755258294524034 0.9969882631597672
12635797333.333334 -0.0652859223992304 0.997866598467094 -3.2440721937073575e-17 -1.4060376807729393e-16 -3.2440721937073575e-17 -1.4060376807729393e-16 -0.06528661995555157 0.9978665528288772
12636414666.666666 -0.05301008595315573 0.9985939769431044 -3.4173048505772234e-17 -1.4016379015926505e-16 -3.4173048505772234e-17 -1.4016379015926505e-16 -0.053010783983855905 0.998593939888093
12637032000.0 -0.040726233046931064 0.999170342805277 -3.589945571203272e-17 -1.3970248118557218e-16 -3.589945571203272e-17 -1.3970248118557218e-16 -0.04072693144640911 0.9991703143382348
12637649333.333334 -0.028436221309105697 0.9995956088926498 -3.761968104812087e-17 -1.392199202518619e-16 -3.761968104812087e-17 -1.392199202518619e-16 -0.028436919971715158 0.9995955890170432
12638266666.666666 -0.016141909299682913 0.9998697108943583 -3.93334630569982e-17 -1.387161896823968e-16 -3.93334630569982e-17 -1.387161896823968e-16 -0.016142608119747836 0.9998696996123543
12638884000.0 -0.003845156228945088 0.9999926073593655 -4.104054137202302e-17 -1.38191375016164e-16 -4.104054137202302e-17 -1.38191375016164e-16 -0.003845855100776009 0.9999926046718299
12639501333.333334 0.008452178323705869 0.9999642797027256 -4.274065675643343e-17 -1.3764556499250707e-16 -4.274065675643343e-17 -1.3764556499250707e-16 0.008451479505795905 0.9999642856092263
12640118666.666666 0.020748234690764894 0.9997847322084005 -4.443355114265008e-17 -1.3707885153627218e-16 -4.443355114265008e-17 -1.3707885153627218e-16 0.020747536032444364 0.9997847467072046
12640736000.0 0.033041153398420814 0.9994539920286021 -4.611896767147308e-17 -1.3649132974243986e-16 -4.611896767147308e-17 -1.3649132974243986e-16 0.03304045500532373 0.9994540151166778
12641353333.333334 0.045329075446903136 0.9989721091796986 -4.77966507308691e-17 -1.3588309786034832e-16 -4.77966507308691e-17 -1.3588309786034832e-16 0.04532837742461313 0.998972140852716
12641970666.666666 0.057610142592320314 0.9983391565346421 -4.9466345994800007e-17 -1.3525425727735469e-16 -4.9466345994800007e-17 -1.3525425727735469e-16 0.05760944504635457 0.9983391967869729
12642588000.0 0.06988249762736025 0.9975552298119487 -5.112780046168044e-17 -1.3460491250207563e-16 -5.112780046168044e-17 -1.3460491250207563e-16 0.06988180066315369 0.9975552786366689
12643205333.333334 0.0821442846621474 0.9966204475612324 -5.278076249264058e-17 -1.3393517114714866e-16 -5.278076249264058e-17 -1.3393517114714866e-16 0.0821435883850367 0.9966205049501223
12643822666.666666 0.09439364940512675 0.9955349511452574 -5.4424981849630204e-17 -1.3324514391149929e-16 -5.4424981849630204e-17 -1.3324514391149929e-16 0.09439295392033428 0.9955350170888017
12644440000.0 0.10662873944316745 0.9942989047185806 -5.60602097332012e-17 -1.3253494456217712e-16 -5.60602097332012e-17 -1.3253494456217712e-16 0.10662804485578564 0.994298979205973
12645057333.333334 0.11884770452183656 0.9929124952027227 -5.768619882012008e-17 -1.318046899157046e-16 -5.768619882012008e-17 -1.318046899157046e-16 0.11884701093681188 0.9929125782218657
12645674666.666666 0.13104869682517636 0.9913759322579052 -5.930270330071624e-17 -1.3105449981897285e-16 -5.930270330071624e-17 -1.3105449981897285e-16 0.13104800434729325 0.9913760237954109
12646292000.0 0.14322987125533704 0.9896894482513123 -6.090947891601301e-17 -1.302844971296671e-16 -6.090947891601301e-17 -1.302844971296671e-16 0.14322917998920257 0.9896895482925077
12646909333.333334 0.15538938571123664 0.9878532982220043 -6.250628299453285e-17 -1.2949480769627301e-16 -6.250628299453285e-17 -1.2949480769627301e-16 0.15538869576126427 0.9878534067509311
12647526666.666666 0.16752540136738653 0.9858677598423148 -6.409287448892596e-17 -1.2868556033759395e-16 -6.409287448892596e-17 -1.2868556033759395e-16 0.16752471283778053 0.9858678768417329
12648144000.0 0.17963608295205175 0.9837331333758416 -6.566901401231311e-17 -1.2785688682183042e-16 -6.566901401231311e-17 -1.2785688682183042e-16 0.17963539594679154 0.9837332588272325
12648761333.333334 0.19171959902451013 0.9814497416320862 -6.723446387431199e-17 -1.270089218452393e-16 -6.723446387431199e-17 -1.270089218452393e-16 0.19171891364733437 0.9814498755156543
12649378666.666666 0.20377412225212485 0.9790179299176207 -6.87889881168414e-17 -1.2614180301032798e-16 -6.87889881168414e-17 -1.2614180301032798e-16 0.20377343860651603 0.9790180722122979
12649996000.0 0.21579782968679512 0.9764380659838475 -7.033235254964481e-17 -1.2525567080360995e-16 -7.033235254964481e-17 -1.2525567080360995e-16 0.21579714787596352 0.9764382166672948
12650613333.333334 0.22778890304054727 0.9737105399713983 -7.186432478550374e-17 -1.2435066857293982e-16 -7.186432478550374e-17 -1.2435066857293982e-16 0.2277882231674159 0.9737106990200115
12651230666.666666 0.23974552896036808 0.9708357643511702 -7.338467427515485e-17 -1.2342694250442472e-16 -7.338467427515485e-17 -1.2342694250442472e-16 0.23974485112755686 0.970835931740082
12651848000.0 0.2516658993028169 0.9678141738618588 -7.48931723419775e-17 -1.2248464159886811e-16 -7.48931723419775e-17 -1.2248464159886811e-16 0.25166522361262705 0.9678143495649428
12652465333.333334 0.26354821140704715 0.9646462254443104 -7.638959221627943e-17 -1.2152391764785308e-16 -7.638959221627943e-17 -1.2152391764785308e-16 0.2635475379614461 0.9646464094341863
12653082666.666666 0.27539066836752574 0.9613323981723993 -7.787370906934001e-17 -1.2054492520936931e-16 -7.787370906934001e-17 -1.2054492520936931e-16 0.2753899972681315 0.961332590420436
12653700000.0 0.28719147930601735 0.9578731931805121 -7.934530004717584e-17 -1.195478215830022e-16 -7.934530004717584e-17 -1.195478215830022e-16 0.2871908106540836 0.9578733936568333
12654317333.333334 0.2989488596420266 0.9542691335878679 -8.080414430387797e-17 -1.1853276678478483e-16 -8.080414430387797e-17 -1.1853276678478483e-16 0.2989481935384264 0.9542693422613552
12654934666.666666 0.31066103136291906 0.9505207644193455 -8.225002303474449e-17 -1.1749992352156782e-16 -8.225002303474449e-17 -1.1749992352156782e-16 0.3106603679081305 0.9505209812576436
12655552000.0 0.32232622329290667 0.9466286525230152 -8.368271950903469e-17 -1.1644945716501845e-16 -8.368271950903469e-17 -1.1644945716501845e-16 0.3223255625869979 0.9466288774925384
12656169333.333334 0.3339426713604913 0.942593386484558 -8.51020191023646e-17 -1.1538153572524505e-16 -8.51020191023646e-17 -1.1538153572524505e-16 0.33394201350310465 0.9425936195504938
12656786666.666666 0.3455086188656134 0.9384155765381262 -8.65077093288447e-17 -1.142963298239681e-16 -8.65077093288447e-17 -1.142963298239681e-16 0.34550796395595074 0.9384158176644409
12657404000.0 0.3570223167451482 0.934095854474119 -8.78995798727961e-17 -1.1319401266736277e-16 -8.78995798727961e-17 -1.1319401266736277e-16 0.3570216648819563 0.9340961036235643
12658021333.333334 0.36848202383746137 0.9296348735436167 -8.927742262017614e-17 -1.120747600184734e-16 -8.927742262017614e-17 -1.120747600184734e-16 0.36848137511901624 0.929635130677734
12658638666.666666 0.3798860071455582 0.9250333083596575 -9.064103168961638e-17 -1.109387501692774e-16 -9.064103168961638e-17 -1.109387501692774e-16 0.3798853616696509 0.9250335734387843
12659256000.0 0.3912325420995255 0.9202918547950704 -9.199020346315344e-17 -1.097861639123338e-16 -9.199020346315344e-17 -1.097861639123338e-16 0.3912318999634477 0.9202921277783481
12659873333.333334 0.4025199128169351 0.915411229877401 -9.33247366165558e-17 -1.0861718451209461e-16 -9.33247366165558e-17 -1.0861718451209461e-16 0.402519274117463 0.915411510722778
12660490666.666666 0.4137464123624081 0.9103921716804487 -9.464443214928591e-17 -1.0743199767585284e-16 -9.464443214928591e-17 -1.0743199767585284e-16 0.4137457771957901 0.9103924603446911
12661108000.0 0.42491034300611197 0.9052354392124944 -9.594909341415423e-17 -1.0623079152427255e-16 -9.594909341415423e-17 -1.0623079152427255e-16 0.4249097114680516 0.9052357356511871
12661725333.333334 0.43601001647984877 0.8999418123018009 -9.723852614651287e-17 -1.0501375656163891e-16 -9.723852614651287e-17 -1.0501375656163891e-16 0.4360093886654925 0.8999421164693603
12662342666.666666 0.4470437542330142 0.8945120914783994 -9.851253849314905e-17 -1.0378108564568706e-16 -9.851253849314905e-17 -1.0378108564568706e-16 0.44704313023693565 0.894512403328076
12662960000.0 0.4580098876860208 0.8889470978532117 -9.977094104076291e-17 -1.0253297395711065e-16 -9.977094104076291e-17 -1.0253297395711065e-16 0.4580092676022067 0.8889474173370987
12663577333.333334 0.46890675848278474 0.8832476729938072 -1.01013546844049e-16 -1.0126961896873794e-16 -1.01013546844049e-16 -1.0126961896873794e-16 0.46890614240462203 0.8832480000628498
12664194666.666666 0.47973271874148693 0.8774146787971524 -1.0224017145341552e-16 -9.999122041434376e-17 -1.0224017145341552e-16 -9.999122041434376e-17 0.479732106761747 0.8774150134011521
12664812000.0 0.4904861313037468 0.8714489973592785 -1.034506329422916e-16 -9.8697980257143e-17 -1.034506329422916e-16 -9.8697980257143e-17 0.4904855235145724 0.871449339446903
12665429333.333334 0.5011653699823532 0.8653515308418073 -1.046447519340602e-16 -9.739010265793196e-17 -1.046447519340602e-16 -9.739010265793196e-17 0.5011647664752444 0.8653518803605972
12666046666.666666 0.5117688198067876 0.8591232013357437 -1.0582235162852802e-16 -9.606779394296938e-17 -1.0582235162852802e-16 -9.606779394296938e-17 0.5117682206725882 0.8591235582321212
12666664000.0 0.5222948772680648 0.8527649507216777 -1.0698325782810349e-16 -9.473126257141674e-17 -1.0698325782810349e-16 -9.473126257141674e-17 0.5222942825969487 0.8527653149409553
12667281333.333334 0.5327419505606111 0.8462777405277083 -1.0812729896342813e-16 -9.338071910261335e-17 -1.0812729896342813e-16 -9.338071910261335e-17 0.5327413604420683 0.8462781120140958
12667898666.666666 0.5431084598233286 0.8396625517838345 -1.0925430611870164e-16 -9.201637616292514e-17 -1.0925430611870164e-16 -9.201637616292514e-17 0.5431078743461513 0.8396629304804477
12668516000.0 0.5533928373785774 0.8329203848735461 -1.1036411305655882e-16 -9.063844841232157e-17 -1.1036411305655882e-16 -9.063844841232157e-17 0.5533922566308483 0.8329207707224171
12669133333.333334 0.5635935279688917 0.8260522593827745 -1.1145655624248102e-16 -8.924715251071111e-17 -1.1145655624248102e-16 -8.924715251071111e-17 0.5635929520379697 0.8260526523248592
12669750666.666666 0.5737089889925088 0.8190592139454894 -1.1253147486885718e-16 -8.784270708389114e-17 -1.1253147486885718e-16 -8.784270708389114e-17 0.5737084179650151 0.8190596139206765
