! Parameters = {f0=12700.012000; bw=77.238000; Q=6100.000000; N=10; m_0_1=1.282778; m_1_1=0.476921; m_1_2=1.117590; m_2_2=0.476272; m_2_3=0.754553; m_2_8=0.001203; m_2_9=0.037907; m_3_3=0.474335; m_3_4=0.643082; m_3_7=0.001803; m_3_8=-0.095285; m_3_9=0.001203; m_4_4=0.471410; m_4_5=0.479417; m_4_6=0.005320; m_4_7=-0.115834; m_4_8=0.001803; m_5_5=0.471792; m_5_6=0.886772; m_5_7=0.005320; m_6_6=0.471791; m_6_7=0.479759; m_7_7=0.471424; m_7_8=0.643200; m_8_8=0.474333; m_8_9=0.754866; m_9_9=0.476267; m_9_10=1.118668; m_10_10=0.476911; m_10_11=1.283573}
!
! Created with skrf (http://scikit-rf.org).
# Hz S RI R 50.0 
!freq ReS11 ImS11 ReS21 ImS21 ReS12 ImS12 ReS22 ImS22
12607400000.0 0.7836270415912293 -0.6212315668788878 -6.750776126992686e-17 9.608173484801749e-17 -6.750776126992686e-17 9.608173484801749e-17 0.7836274614318063 -0.6212310372878698
12608017333.333334 0.7768087650407467 -0.6297365659985854 -6.643481549228915e-17 9.679882741774793e-17 -6.643481549228915e-17 9.679882741774793e-17 0.7768091906083375 -0.6297360410411965
12608634666.666666 0.769898185040936 -0.6381667373582642 -6.535426652394839e-17 9.750394874462894e-17 -6.535426652394839e-17 9.750394874462894e-17 0.7698986162844155 -0.6381662170964257
12609252000.0 0.7628961227339311 -0.6465210792521429 -6.426624782000943e-17 9.819701837252544e-17 -6.426624782000943e-17 9.819701837252544e-17 0.7628965596015027 -0.6465205637472105
12609869333.333334 0.755803410132181 -0.6547985989847463 -6.317089368513671e-17 9.887795733184517e-17 -6.317089368513671e-17 9.887795733184517e-17 0.7558038525713869 -0.6547980882975063
12610486666.666666 0.7486208900196337 -0.6629983129888272 -6.206833925704586e-17 9.954668814846603e-17 -6.206833925704586e-17 9.954668814846603e-17 0.7486213379773594 -0.6629978071794871
12611104000.0 0.7413494158513287 -0.6711192469425339 -6.095872048981072e-17 1.0020313485253577e-16 -6.095872048981072e-17 1.0020313485253577e-16 0.7413498692738072 -0.6711187460707145
12611721333.333334 0.7339898516523775 -0.679160435884733 -5.984217413719204e-17 1.0084722298701713e-16 -5.984217413719204e-17 1.0084722298701713e-16 0.7339903104851999 -0.6791599400094644
12612338666.666666 0.7265430719149616 -0.6871209243300564 -5.871883773577949e-17 1.0147887961610612e-16 -5.871883773577949e-17 1.0147887961610612e-16 0.7265435361030802 -0.6871204335097681
12612956000.0 0.7190099614945695 -0.6949997663822622 -5.758884958807381e-17 1.020980333334451e-16 -5.758884958807381e-17 1.020980333334451e-16 0.7190104309823062 -0.6949992806747777
12613573333.333334 0.7113914155048754 -0.7027960258466107 -5.64523487455383e-17 1.0270461427011726e-16 -5.64523487455383e-17 1.0270461427011726e-16 0.7113918902359282 -0.7027955453091408
12614190666.666666 0.7036883392113238 -0.7105087763411726 -5.530947499146845e-17 1.0329855410250898e-16 -5.530947499146845e-17 1.0329855410250898e-16 0.7036888191287725 -0.7105083010303073
12614808000.0 0.6959016479235962 -0.7181371014068579 -5.416036882386918e-17 1.0387978605993036e-16 -5.416036882386918e-17 1.0387978605993036e-16 0.695902132969911 -0.718136631378562
12615425333.333334 0.6880322668867741 -0.7256800946163994 -5.3005171438189164e-17 1.0444824493208256e-16 -5.3005171438189164e-17 1.0444824493208256e-16 0.6880327570038206 -0.7256796299260037
12616042666.666666 0.6800811311715389 -0.7331368596819159 -5.1844024710027166e-17 1.0500386707630593e-16 -5.1844024710027166e-17 1.0500386707630593e-16 0.6800816263005853 -0.7331364003841107
12616660000.0 0.6720491855628954 -0.7405065105615678 -5.067707117771587e-17 1.0554659042466115e-16 -5.067707117771587e-17 1.0554659042466115e-16 0.6720496856446218 -0.740506056710399
12617277333.333334 0.6639373844480383 -0.7477881715647273 -4.950445402487417e-17 1.0607635449079626e-16 -4.950445402487417e-17 1.0607635449079626e-16 0.6639378894225412 -0.7477877232135879
12617894666.666666 0.6557466917029884 -0.7549809774559927 -4.8326317062876695e-17 1.0659310037662674e-16 -4.8326317062876695e-17 1.0659310037662674e-16 0.6557472015097887 -0.7549805346576162
12618512000.0 0.6474780805777642 -0.7620840735582625 -4.7142804713205816e-17 1.0709677077884295e-16 -4.7142804713205816e-17 1.0709677077884295e-16 0.6474785951558147 -0.7620836363647181
12619129333.333334 0.6391325335811844 -0.7690966158538977 -4.5954061989843093e-17 1.0758730999517472e-16 -4.5954061989843093e-17 1.0758730999517472e-16 0.6391330528688774 -0.769096184316584
12619746666.666666 0.6307110423637357 -0.7760177710853468 -4.476023448147755e-17 1.0806466393051272e-16 -4.476023448147755e-17 1.0806466393051272e-16 0.6307115662989103 -0.7760173452549854
12620364000.0 0.6222146075999156 -0.7828467168540102 -4.3561468333730796e-17 1.085287801027993e-16 -4.3561468333730796e-17 1.085287801027993e-16 0.6222151361198635 -0.7828462967806382
12620981333.333334 0.6136442388693476 -0.7895826417179393 -4.2357910231300593e-17 1.0897960764873129e-16 -4.2357910231300593e-17 1.0897960764873129e-16 0.6136447719108228 -0.7895822274509063
12621598666.666666 0.6050009545367766 -0.7962247452882942 -4.1149707380036934e-17 1.0941709732926893e-16 -4.1149707380036934e-17 1.0941709732926893e-16 0.605001492036002 -0.7962243368762549
12622216000.0 0.5962857816309971 -0.8027722383245023 -3.9937007488959335e-17 1.09841201534948e-16 -3.9937007488959335e-17 1.09841201534948e-16 0.5962863235236716 -0.80277183581541
12622833333.333334 0.5874997557229259 -0.809224342827947 -3.871995875224499e-17 1.1025187429098315e-16 -3.871995875224499e-17 1.1025187429098315e-16 0.5875003019442336 -0.8092239462690507
12623450666.666666 0.5786439208025798 -0.8155802921344034 -3.749870983115335e-17 1.1064907126217759e-16 -3.749870983115335e-17 1.1064907126217759e-16 0.5786444712871958 -0.8155799015722385
12624068000.0 0.5697193291548373 -0.8218393310052651 -3.6273409835876075e-17 1.1103274975764117e-16 -3.6273409835876075e-17 1.1103274975764117e-16 0.5697198838369381 -0.8218389464856521
12624685333.333334 0.5607270412345435 -0.828000715717188 -3.504420830736485e-17 1.1140286873529869e-16 -3.504420830736485e-17 1.1140286873529869e-16 0.5607276000478113 -0.8280003372852227
12625302666.666666 0.5516681255405446 -0.8340637141504257 -3.381125519915264e-17 1.117593888061869e-16 -3.381125519915264e-17 1.117593888061869e-16 0.5516686884181786 -0.8340633418504779
12625920000.0 0.5425436584885416 -0.8400276058759552 -3.2574700859021174e-17 1.121022722385838e-16 -3.2574700859021174e-17 1.121022722385838e-16 0.5425442253632646 -0.8400272397516616
12626537333.333334 0.5333547242834448 -0.8458916822409072 -3.13346960107646e-17 1.1243148296189555e-16 -3.13346960107646e-17 1.1243148296189555e-16 0.5333552950875108 -0.8458913223351656
12627154666.666666 0.5241024147903302 -0.8516552464529092 -3.009139173581958e-17 1.1274698657036964e-16 -3.009139173581958e-17 1.1274698657036964e-16 0.5241029894555335 -0.8516548928078757
12627772000.0 0.5147878294047237 -0.8573176136628674 -2.8844939454858924e-17 1.130487503266041e-16 -2.8844939454858924e-17 1.130487503266041e-16 0.5147884078624059 -0.857317266319949
12628389333.333334 0.5054120749221113 -0.8628781110462512 -2.7595490909447985e-17 1.1333674316483003e-16 -2.7595490909447985e-17 1.1333674316483003e-16 0.5054126571031705 -0.8628777700461022
12629006666.666666 0.49597626540625545 -0.8683360778831457 -2.6343198143528014e-17 1.1361093569402596e-16 -2.6343198143528014e-17 1.1361093569402596e-16 0.49597685124115376 -0.8683357432656629
12629624000.0 0.48648152205689027 -0.8736908656367153 -2.5088213485005462e-17 1.1387130020079653e-16 -2.5088213485005462e-17 1.1387130020079653e-16 0.48648211147566284 -0.8736905374410333
12630241333.333334 0.47692897307652055 -0.8789418380302512 -2.3830689527207787e-17 1.141178106520719e-16 -2.3830689527207787e-17 1.141178106520719e-16 0.4769295660087838 -0.8789415162947385
12630858666.666666 0.4673197535364417 -0.88408837112274 -2.2570779110405114e-17 1.143504426975844e-16 -2.2570779110405114e-17 1.143504426975844e-16 0.46732034991140103 -0.8840880558849932
12631476000.0 0.45765500524151437 -0.8891298533831882 -2.1308635303202113e-17 1.1456917367216165e-16 -2.1308635303202113e-17 1.1456917367216165e-16 0.45765560498797286 -0.8891295446800277
12632093333.333334 0.4479358765949661 -0.8940656857630318 -2.004441138403641e-17 1.147739825977916e-16 -2.004441138403641e-17 1.147739825977916e-16 0.4479364796413334 -0.8940653836304981
12632710666.666666 0.43816352246171 -0.8988952817674405 -1.877826082256466e-17 1.1496485018550107e-16 -1.877826082256466e-17 1.1496485018550107e-16 0.4381641287360114 -0.8988949862407916
12633328000.0 0.42833910403094105 -0.903618067525097 -1.7510337261035818e-17 1.1514175883702806e-16 -1.7510337261035818e-17 1.1514175883702806e-16 0.4283397134608244 -0.9036177786388003
12633945333.333334 0.4184637886784358 -0.9082334818562406 -1.6240794495729327e-17 1.153046926462765e-16 -1.6240794495729327e-17 1.153046926462765e-16 0.4184644011911812 -0.908233199643972
12634562666.666666 0.40853874982776645 -0.9127409763393922 -1.4969786458287223e-17 1.1545363740058192e-16 -1.4969786458287223e-17 1.1545363740058192e-16 0.4085393653502952 -0.9127407008340312
12635180000.0 0.3985651668108446 -0.9171400153765316 -1.3697467197109148e-17 1.155885805817608e-16 -1.3697467197109148e-17 1.155885805817608e-16 0.3985657852697275 -0.9171397466101586
12635797333.333334 0.38854422472768335 -0.921430076256785 -1.242399085868154e-17 1.1570951136696325e-16 -1.242399085868154e-17 1.1570951136696325e-16 0.3885448460491494 -0.9214298142606755
12636414666.666666 0.3784771143058667 -0.9256106492184099 -1.1149511668967959e-17 1.1581642062931295e-16 -1.1149511668967959e-17 1.1581642062931295e-16 0.37847773841581167 -0.925610394023032
12637032000.0 0.3683650317586947 -0.9296812375095217 -9.87418391473137e-18 1.159093009383492e-16 -9.87418391473137e-18 1.159093009383492e-16 0.36836565858269155 -0.9296809891445348
12637649333.333334 0.35820917864333673 -0.9336413574470056 -8.59816192488922e-18 1.1598814656026072e-16 -8.59816192488922e-18 1.1598814656026072e-16 0.3582098081066414 -0.9336411159412505
12638266666.666666 0.34801076171794854 -0.9374905384740232 -7.321600051887226e-18 1.1605295345791276e-16 -7.321600051887226e-18 1.1605295345791276e-16 0.34801139374551193 -0.9374903038555263
12638884000.0 0.33777099279820394 -0.9412283232159651 -6.044652653031488e-18 1.16103719290674e-16 -6.044652653031488e-18 1.16103719290674e-16 0.3377716273146789 -0.9412280955119293
12639501333.333334 0.32749108861345977 -0.9448542675347308 -4.767474071876703e-18 1.1614044341403436e-16 -4.767474071876703e-18 1.1614044341403436e-16 0.32749172554321154 -0.9448540467715374
12640118666.666666 0.31717227066212744 -0.9483679405815285 -3.490218619593696e-18 1.1616312687902144e-16 -3.490218619593696e-18 1.1616312687902144e-16 0.3171729099292417 -0.9483677267847307
12640736000.0 0.3068157650662884 -0.9517689248481536 -2.213040556328253e-18 1.1617177243141061e-16 -2.213040556328253e-18 1.1617177243141061e-16 0.3068164065945796 -0.9517687180424715
12641353333.333334 0.29642280242656377 -0.9550568162163989 -9.36094072652701e-19 1.1616638451073169e-16 -9.36094072652701e-19 1.1616638451073169e-16 0.29642344613958643 -0.9550566164257238
12641970666.666666 0.28599461767524603 -0.9582312240062995 3.40466729062675e-19 1.1614696924907145e-16 3.40466729062675e-19 1.1614696924907145e-16 0.2859952634963021 -0.9582310312536851
12642588000.0 0.27553244993001735 -0.9612917710224008 1.6164878532107298e-18 1.1611353446967226e-16 1.6164878532107298e-18 1.1611353446967226e-16 0.2755330977821656 -0.9612915853300619
12643205333.333334 0.2650375423464683 -0.964238093598653 2.891815429471943e-18 1.160660896853275e-16 2.891815429471943e-18 1.160660896853275e-16 0.26503819215253405 -0.9642379149879645
12643822666.666666 0.2545111419704909 -0.9670698416415945 4.166295731379231e-18 1.160046460965722e-16 4.166295731379231e-18 1.160046460965722e-16 0.25451179365307425 -0.9670696701330856
12644440000.0 0.24395449959001642 -0.9697866786719674 5.439775194778969e-18 1.159292165896733e-16 5.439775194778969e-18 1.159292165896733e-16 0.24395515307150278 -0.9697865142853244
12645057333.333334 0.23336886958655834 -0.972388281864664 6.712100436318022e-18 1.1583981573441539e-16 6.712100436318022e-18 1.1583981573441539e-16 0.23336952478912654 -0.9723881246187231
12645674666.666666 0.22275550978607872 -0.974874342087104 7.983118271898405e-18 1.157364597816844e-16 7.983118271898405e-18 1.157364597816844e-16 0.22275616663171105 -0.9748741919998529
12646292000.0 0.21211568130925235 -0.977244563936035 9.252675735090738e-18 1.1561916666084827e-16 9.252675735090738e-18 1.1561916666084827e-16 0.21211633971974295 -0.9772444210246066
12646909333.333334 0.2014506484221681 -0.9794986657725009 1.0520620095497915e-17 1.1548795597693955e-16 1.0520620095497915e-17 1.1548795597693955e-16 0.20145130831913302 -0.9794985300531747
12647526666.666666 0.19076167838560526 -0.98163637975542 1.1786798877106057e-17 1.1534284900763336e-16 1.1786798877106057e-17 1.1534284900763336e-16 0.190762339690492 -0.9816362512436211
12648144000.0 0.18005004130470348 -0.9836574518733618 1.3051059876614032e-17 1.1518386870002438e-16 1.3051059876614032e-17 1.1518386870002438e-16 0.18005070393879952 -0.9836573305836559
12648761333.333334 0.16931700997793075 -0.985561641974744 1.4313251181660485e-17 1.1501103966720772e-16 1.4313251181660485e-17 1.1501103966720772e-16 0.16931767386237342 -0.9855615279208372
12649378666.666666 0.15856385974604162 -0.9873487237963383 1.5573221189074447e-17 1.1482438818465655e-16 1.5573221189074447e-17 1.1482438818465655e-16 0.15856452480182737 -0.9873486169910763
12649996000.0 0.14779186834031202 -0.989018484990195 1.6830818623048372e-17 1.1462394218640011e-16 1.6830818623048372e-17 1.1462394218640011e-16 0.14779253448830584 -0.9890183854455605
12650613333.333334 0.13700231573071367 -0.9905707271488706 1.8085892553271504e-17 1.1440973126100584e-16 1.8085892553271504e-17 1.1440973126100584e-16 0.13700298289165858 -0.9905706348759831
12651230666.666666 0.12619648397413258 -0.9920052658289602 1.9338292413010955e-17 1.1418178664736155e-16 1.9338292413010955e-17 1.1418178664736155e-16 0.12619715206865897 -0.9920051808380743
12651848000.0 0.11537565706152374 -0.9933219305730866 2.058786801715486e-17 1.1394014123025871e-16 2.058786801715486e-17 1.1394014123025871e-16 0.11537632601015858 -0.9933218528735882
12652465333.333334 0.10454112076579167 -0.9945205649300838 2.1834469580189557e-17 1.1368482953578104e-16 2.1834469580189557e-17 1.1368482953578104e-16 0.1045417904889687 -0.994520494530496
12653082666.666666 0.09369416248892759 -0.9956010264736167 2.307794773409888e-17 1.134158877265015e-16 2.307794773409888e-17 1.134158877265015e-16 0.09369483290699585 -0.9956009633815909
12653700000.0 0.0828360711086663 -0.9965631868191303 2.43181535462899e-17 1.1313335359646616e-16 2.43181535462899e-17 1.1313335359646616e-16 0.08283674214190019 -0.9965631310414497
12654317333.333334 0.0719681368259311 -0.9974069316390506 2.5554938537330365e-17 1.128372665660106e-16 2.5554938537330365e-17 1.128372665660106e-16 0.07196880839453969 -0.997406883181629
12654934666.666666 0.06109165101101766 -0.9981321606764154 2.6788154698753125e-17 1.1252766767635407e-16 2.6788154698753125e-17 1.1252766767635407e-16 0.06109232303515423 -0.9981321195442965
12655552000.0 0.05020790605037476 -0.9987387877567675 2.801765451071309e-17 1.122045995840178e-16 2.801765451071309e-17 1.122045995840178e-16 0.050208578450146264 -0.9987387539541241
12656169333.333334 0.039318195193066514 -0.9992267407983942 2.924329095960131e-17 1.118681065550479e-16 2.924329095960131e-17 1.118681065550479e-16 0.039318867888543 -0.9992267143285276
12656786666.666666 0.02842381239701809 -0.999595961820895 3.0464917555603134e-17 1.1151823445903985e-16 3.0464917555603134e-17 1.1151823445903985e-16 0.028424485308242344 -0.9995959426862349
12657404000.0 0.01752605217531967 -0.9998464069520727 3.1682388350171045e-17 1.1115503076297867e-16 3.1682388350171045e-17 1.1115503076297867e-16 0.01752672522231659 -0.9998463951541768
12658021333.333334 0.006626209442265026 -0.9999780464331446 3.2895557953446987e-17 1.1077854452488071e-16 3.2895557953446987e-17 1.1077854452488071e-16 0.006626882545051219 -0.9999780419727003
12658638666.666666 -0.004274420640174079 -0.999990864622278 3.410428155155733e-17 1.1038882638726279e-16 3.410428155155733e-17 1.1038882638726279e-16 -0.004273747561580862 -0.9999908674990993
12659256000.0 -0.015174542816755707 -0.9998848599964512 3.5308414923925375e-17 1.0998592857039297e-16 3.5308414923925375e-17 1.0998592857039297e-16 -0.015173869842327038 -0.9998848702094805
12659873333.333334 -0.02607286189242029 -0.9996600451516303 3.650781446039618e-17 1.095699048653885e-16 3.650781446039618e-17 1.095699048653885e-16 -0.02607218910210755 -0.9996600626989384
12660490666.666666 -0.03696808288627608 -0.99931644680128 3.770233717835911e-17 1.0914081062710194e-16 3.770233717835911e-17 1.0914081062710194e-16 -0.03696741036000096 -0.9993164716800662
12661108000.0 -0.04785891118584301 -0.9988541057731742 3.889184073976897e-17 1.0869870276682643e-16 3.889184073976897e-17 1.0869870276682643e-16 -0.0478582390034881 -0.9988541379797687
12661725333.333334 -0.05874405270028732 -0.998273077004568 4.0076183468058394e-17 1.0824363974482601e-16 4.0076183468058394e-17 1.0824363974482601e-16 -0.058743380941686484 -0.9982731165344286
12662342666.666666 -0.06962221401472977 -0.9975734295356451 4.1255224364991174e-17 1.0777568156267094e-16 4.1255224364991174e-17 1.0777568156267094e-16 -0.06962154275965887 -0.9975734763833624
12662960000.0 -0.08049210254356552 -0.9967552465013351 4.242882312742727e-17 1.0729488975538978e-16 4.242882312742727e-17 1.0729488975538978e-16 -0.08049143187173265 -0.9967553006606285
12663577333.333334 -0.09135242668430921 -0.995818625121417 4.359684016396996e-17 1.0680132738345105e-16 4.359684016396996e-17 1.0680132738345105e-16 -0.09135175667534545 -0.9958186865851382
12664194666.666666 -0.10220189597084166 -0.9947636766889849 4.4759136611547883e-17 1.0629505902455226e-16 4.4759136611547883e-17 1.0629505902455226e-16 -0.10220122670429156 -0.9947637454491188
12664812000.0 -0.11303922122697438 -0.9935905265572038 4.591557435190279e-17 1.0577615076522915e-16 4.591557435190279e-17 1.0577615076522915e-16 -0.1130385527822866 -0.9935906026048694
12665429333.333334 -0.12386311471946487 -0.9922993141244302 4.706601602795361e-17 1.0524467019229746e-16 4.706601602795361e-17 1.0524467019229746e-16 -0.12386244717598269 -0.9922993974498819
12666046666.666666 -0.13467229031097408 -0.9908901928176592 4.821032506008985e-17 1.0470068638410606e-16 4.821032506008985e-17 1.0470068638410606e-16 -0.13467162374792588 -0.9908902834102867
12666664000.0 -0.14546546361328466 -0.989363330074242 4.934836566236394e-17 1.0414426990161179e-16 4.934836566236394e-17 1.0414426990161179e-16 -0.14546479810977467 -0.9893634279225728
12667281333.333334 -0.15624135213932544 -0.9877189073220664 5.048000285855554e-17 1.0357549277929288e-16 5.048000285855554e-17 1.0357549277929288e-16 -0.15624068777432415 -0.9877190124137671
12667898666.666666 -0.16699867545606828 -0.9859571199579327 5.1605102498155e-17 1.0299442851587595e-16 5.1605102498155e-17 1.0299442851587595e-16 -0.16699801230840336 -0.9859572322798105
12668516000.0 -0.17773615533647652 -0.9840781773243579 5.27235312722588e-17 1.024011520648812e-16 5.27235312722588e-17 1.024011520648812e-16 -0.17773549348482331 -0.9840782968623623
12669133333.333334 -0.1884525159112219 -0.9820823026847352 5.383515672928693e-17 1.0179573982503143e-16 5.383515672928693e-17 1.0179573982503143e-16 -0.18845185543409415 -0.9820824294239605
12669750666.666666 -0.19914648382065187 -0.9799697331967417 5.4939847290675193e-17 1.0117826963044673e-16 5.4939847290675193e-17 1.0117826963044673e-16 -0.19914582479639212 -0.9799698671214262
12670368000.0 -0.20981678836578688 -0.9777407198842076 5.603747226641521e-17 1.0054882074069084e-16 5.603747226641521e-17 1.0054882074069084e-16 -0.20981613087255774 -0.9777408609777394
