! Parameters = {f0=12700.012000; bw=77.238000; Q=6100.000000; N=10; m_0_1=1.299394; m_1_1=0.726170; m_1_2=1.134206; m_2_2=0.725521; m_2_3=0.771169; m_2_8=0.002033; m_2_9=0.038737; m_3_3=0.723584; m_3_4=0.659698; m_3_7=0.002633; m_3_8=-0.094455; m_3_9=0.002033; m_4_4=0.720659; m_4_5=0.496033; m_4_6=0.006150; m_4_7=-0.115004; m_4_8=0.002633; m_5_5=0.721041; m_5_6=0.903388; m_5_7=0.006150; m_6_6=0.721040; m_6_7=0.496375; m_7_7=0.720673; m_7_8=0.659816; m_8_8=0.723582; m_8_9=0.771482; m_9_9=0.725516; m_9_10=1.135284; m_10_10=0.726160; m_10_11=1.300189}
!
! Created with skrf (http://scikit-rf.org).
# Hz S RI R 50.0 
!freq ReS11 ImS11 ReS21 ImS21 ReS12 ImS12 ReS22 ImS22
12607400000.0 -0.28264529901892604 0.9592244966337743 -1.8490481549142443e-19 -1.2679340721429528e-16 -1.8490481549142443e-19 -1.2679340721429528e-16 -0.2826459556496768 0.95922430315057
12608017333.333334 -0.2716997839525448 0.9623820589557741 -1.6402051360339018e-18 -1.2675810248744862e-16 -1.6402051360339018e-18 -1.2675810248744862e-16 -0.2717004427125338 0.9623818729743555
12608634666.666666 -0.2607190091851703 0.9654147286266758 -3.0947193961390608e-18 -1.267061041172103e-16 -3.0947193961390608e-18 -1.267061041172103e-16 -0.26071966998870283 0.9654145501704422
12609252000.0 -0.24970439974140698 0.9683221120833702 -4.548256217895258e-18 -1.2663742549343784e-16 -4.548256217895258e-18 -1.2663742549343784e-16 -0.2497050625025317 0.9683219411747429
12609869333.333334 -0.238657385036626 0.9711038320217334 -6.000624427156752e-18 -1.2655208219866142e-16 -6.000624427156752e-18 -1.2655208219866142e-16 -0.2386580496691459 0.9711036686821517
12610486666.666666 -0.227579398691766 0.9737595274455131 -7.45163307859323e-18 -1.264500920051744e-16 -7.45163307859323e-18 -1.264500920051744e-16 -0.22758006510924994 0.973759371695433
12611104000.0 -0.21647187834687254 0.9762888537132811 -8.901091480814473e-18 -1.2633147487183106e-16 -8.901091480814473e-18 -1.2633147487183106e-16 -0.21647254646266587 0.9762887055721704
12611721333.333334 -0.20533626547494266 0.9786914825830556 -1.0348809221336753e-17 -1.261962529405651e-16 -1.0348809221336753e-17 -1.261962529405651e-16 -0.20533693520217913 0.978691342069394
12612338666.666666 -0.19417400519461073 0.9809671022549623 -1.1794596191610437e-17 -1.2604445053261392e-16 -1.1794596191610437e-17 -1.2604445053261392e-16 -0.19417467644622333 0.9809669693862375
12612956000.0 -0.18298654608249626 0.9831154174117165 -1.3238262611925946e-17 -1.2587609414446257e-16 -1.3238262611925946e-17 -1.2587609414446257e-16 -0.18298721877122864 0.9831152922044218
12613573333.333334 -0.17177533998563313 0.9851361492568607 -1.4679619056266757e-17 -1.256912124435038e-16 -1.4679619056266757e-17 -1.256912124435038e-16 -0.17177601402405104 0.9851360317264941
12614190666.666666 -0.16054184183266754 0.987029035551027 -1.6118476477177572e-17 -1.2548983626340585e-16 -1.6118476477177572e-17 -1.2548983626340585e-16 -0.16054251713317028 0.9870289257120893
12614808000.0 -0.14928750944524039 0.9887938306459307 -1.7554646230465716e-17 -1.252719985992088e-16 -1.7554646230465716e-17 -1.252719985992088e-16 -0.1492881859200718 0.9887937285119224
12615425333.333334 -0.1380138033486587 0.9904303055162709 -1.8987940099946806e-17 -1.250377346021255e-16 -1.8987940099946806e-17 -1.250377346021255e-16 -0.13801448090991908 0.9904302110996921
12616042666.666666 -0.12672218658252568 0.9919382477894272 -2.0418170322052995e-17 -1.2478708157406903e-16 -2.0418170322052995e-17 -1.2478708157406903e-16 -0.12672286514218287 0.991938161101775
12616660000.0 -0.11541412451076284 0.9933174617730371 -2.184514961037209e-17 -1.2452007896189959e-16 -2.184514961037209e-17 -1.2452007896189959e-16 -0.1154148039806637 0.9933173828248048
12617277333.333334 -0.104091084631443 0.9945677684803915 -2.3268691180185192e-17 -1.2423676835138049e-16 -2.3268691180185192e-17 -1.2423676835138049e-16 -0.10409176492332489 0.9945676972810663
12617894666.666666 -0.0927545363865159 0.9956890056536415 -2.4688608772822354e-17 -1.2393719346087199e-16 -2.4688608772822354e-17 -1.2393719346087199e-16 -0.09275521741201824 0.9956889422117053
12618512000.0 -0.08140595097068852 0.9966810277849049 -2.6104716680052382e-17 -1.2362140013472573e-16 -2.6104716680052382e-17 -1.2362140013472573e-16 -0.08140663264136397 0.9966809721078298
12619129333.333334 -0.07004680114106637 0.9975437061350846 -2.7516829768278034e-17 -1.2328943633642497e-16 -2.7516829768278034e-17 -1.2328943633642497e-16 -0.07004748336839278 0.9975436582293377
12619746666.666666 -0.05867856102566031 0.9982769287506214 -2.892476350275135e-17 -1.229413521414256e-16 -2.892476350275135e-17 -1.229413521414256e-16 -0.05867924372105186 0.9982768886216591
12620364000.0 -0.04730270593199643 0.9988806004780195 -3.0328333971630344e-17 -1.2257719972973638e-16 -3.0328333971630344e-17 -1.2257719972973638e-16 -0.04730338900681514 0.9988805681302871
12620981333.333334 -0.035920712156084174 0.9993546429761638 -3.172735790994466e-17 -1.2219703337822688e-16 -3.172735790994466e-17 -1.2219703337822688e-16 -0.035921395521651654 0.9993546184131
12621598666.666666 -0.02453405679043408 0.9996989947265227 -3.312165272353609e-17 -1.2180090945264372e-16 -3.312165272353609e-17 -1.2180090945264372e-16 -0.024534740358042775 0.9996989779505521
12622216000.0 -0.013144217532567087 0.9999136110411104 -3.4511036512797e-17 -1.213888863993817e-16 -3.4511036512797e-17 -1.213888863993817e-16 -0.01314490121349193 0.9999136020536488
12622833333.333334 -0.0017526724930767585 0.9999984640682947 -3.589532809641902e-17 -1.2096102473695437e-16 -3.589532809641902e-17 -1.2096102473695437e-16 -0.0017533561985866538 0.9999984628697465
12623450666.666666 0.009639099995907605 0.9999535427964064 -3.7274347034927355e-17 -1.205173870472264e-16 -3.7274347034927355e-17 -1.205173870472264e-16 0.009638416354538264 0.9999535493861661
12624068000.0 0.02102962157282655 0.9997788530551737 -3.8647913654211353e-17 -1.2005803796634726e-16 -3.8647913654211353e-17 -1.2005803796634726e-16 0.021028938084306368 0.9997788674316241
12624685333.333334 0.0324174140385441 0.9994744175149604 -4.0015849068876076e-17 -1.19583044175437e-16 -4.0015849068876076e-17 -1.19583044175437e-16 0.032416730791553175 0.9994744396754743
12625302666.666666 0.04380099954786774 0.99904027568383 -4.1377975205481664e-17 -1.1909247439100966e-16 -4.1377975205481664e-17 -1.1909247439100966e-16 0.04380031663104615 0.9990403056247708
12625920000.0 0.055178900801874806 0.9984764839024067 -4.273411482573392e-17 -1.1858639935510656e-16 -4.273411482573392e-17 -1.1858639935510656e-16 0.05517821830381111 0.9984765216191275
12626537333.333334 0.06654964123906001 0.9977831153365782 -4.408409154946148e-17 -1.1806489182520157e-16 -4.408409154946148e-17 -1.1806489182520157e-16 0.06654895924827987 0.9977831608234259
12627154666.666666 0.07791174522724001 0.9969602599679995 -4.542772987753156e-17 -1.1752802656382222e-16 -4.542772987753156e-17 -1.1752802656382222e-16 0.07791106383219441 0.99696031321831
12627772000.0 0.08926373825519378 0.9960080245823945 -4.6764855214673823e-17 -1.1697588032789754e-16 -4.6764855214673823e-17 -1.1697588032789754e-16 0.08926305754424789 0.9960080855884993
12628389333.333334 0.10060414712359206 0.9949265327557357 -4.809529389204301e-17 -1.1640853185789964e-16 -4.809529389204301e-17 -1.1640853185789964e-16 0.1006034671850136 0.9949266015089601
12629006666.666666 0.11193150013671879 0.9937159248381598 -4.9418873189810455e-17 -1.1582606186666494e-16 -4.9418873189810455e-17 -1.1582606186666494e-16 0.11193082105866668 0.9937160013288246
12629624000.0 0.12324432729297859 0.9923763579357969 -5.0735421359522044e-17 -1.1522855302799998e-16 -5.0735421359522044e-17 -1.1522855302799998e-16 0.12324364916349138 0.9923764421532195
12630241333.333334 0.13454116047594838 0.9909080058903557 -5.204476764633289e-17 -1.146160899650282e-16 -5.204476764633289e-17 -1.146160899650282e-16 0.13454048338293295 0.9909080978228519
12630858666.666666 0.1458205336446758 0.9893110592565908 -5.33467423111226e-17 -1.1398875923827695e-16 -5.33467423111226e-17 -1.1398875923827695e-16 0.145819857675896 0.9893111588914771
12631476000.0 0.15708098302435636 0.9875857252775162 -5.464117665250588e-17 -1.1334664933349356e-16 -5.464117665250588e-17 -1.1334664933349356e-16 0.15708030826742148 0.9875858326011101
12632093333.333334 0.16832104729575895 0.9857322278575835 -5.59279030285758e-17 -1.1268985064927228e-16 -5.59279030285758e-17 -1.1268985064927228e-16 0.1683203738381126 0.9857323428552065
12632710666.666666 0.17953926778515011 0.9837508075335887 -5.720675487862138e-17 -1.12018455484375e-16 -5.720675487862138e-17 -1.12018455484375e-16 0.1795385957140587 0.9837509301895678
12633328000.0 0.19073418865367597 0.9816417214434398 -5.847756674465535e-17 -1.1133255802482476e-16 -5.847756674465535e-17 -1.1133255802482476e-16 0.19073351805621738 0.98164185174111
12633945333.333334 0.2019043570861525 0.9794052432928071 -5.97401742927691e-17 -1.1063225433076571e-16 -5.97401742927691e-17 -1.1063225433076571e-16 0.20190368804920492 0.9794053812145129
12634562666.666666 0.2130483234795768 0.9770416633196137 -6.099441433432558e-17 -1.0991764232308512e-16 -6.099441433432558e-17 -1.0991764232308512e-16 0.21304765608980739 0.9770418088467122
12635180000.0 0.22416464163130403 0.9745512882563575 -6.224012484705515e-17 -1.091888217697612e-16 -6.224012484705515e-17 -1.091888217697612e-16 0.22416397597515778 0.9745514413692207
12635797333.333334 0.23525186892683844 0.9719344412902783 -6.347714499590234e-17 -1.0844589427202123e-16 -6.347714499590234e-17 -1.0844589427202123e-16 0.23525120509052705 0.9719346019682964
12636414666.666666 0.24630856652677138 0.9691914620214841 -6.470531515377088e-17 -1.0768896325022951e-16 -6.470531515377088e-17 -1.0768896325022951e-16 0.246307904596262 0.9691916302430675
12637032000.0 0.2573332995537827 0.9663227064188129 -6.5924476922094e-17 -1.0691813392954294e-16 -6.5924476922094e-17 -1.0691813392954294e-16 0.2573326396147863 0.9663228821613937
12637649333.333334 0.2683246372787117 0.963328546773666 -6.713447315121095e-17 -1.0613351332534988e-16 -6.713447315121095e-17 -1.0613351332534988e-16 0.2683239794166731 0.9633287300137046
12638266666.666666 0.27928115330623166 0.9602093716517026 -6.833514796056539e-17 -1.0533521022848322e-16 -6.833514796056539e-17 -1.0533521022848322e-16 0.27928049760631735 0.9602095623646872
12638884000.0 0.2902014257600669 0.9569655858423753 -6.952634675878272e-17 -1.0452333519017093e-16 -6.952634675878272e-17 -1.0452333519017093e-16 0.2902007723071547 0.9569657840028278
12639501333.333334 0.30108403746738044 0.9535976103064422 -7.070791626351533e-17 -1.0369800050679419e-16 -7.070791626351533e-17 -1.0369800050679419e-16 0.3010833863460484 0.9535978158879207
12640118666.666666 0.3119275761426063 0.9501058821213637 -7.187970452110298e-17 -1.0285932020442781e-16 -7.187970452110298e-17 -1.0285932020442781e-16 0.31192692743712136 0.950106095096465
12640736000.0 0.32273063457126855 0.9464908544244058 -7.304156092614283e-17 -1.0200741002309181e-16 -7.304156092614283e-17 -1.0200741002309181e-16 0.3227299883655763 0.9464910747647711
12641353333.333334 0.33349181079165674 0.9427529963541443 -7.419333624070098e-17 -1.0114238740090845e-16 -7.419333624070098e-17 -1.0114238740090845e-16 0.3334911671693698 0.9427532240304605
12641970666.666666 0.34420970827770914 0.9388927929892694 -7.533488261354392e-17 -1.0026437145789135e-16 -7.533488261354392e-17 -1.0026437145789135e-16 0.34420906732209666 0.9388930279712744
12642588000.0 0.35488293611967925 0.9349107452858226 -7.646605359900136e-17 -9.937348297964921e-17 -7.646605359900136e-17 -9.937348297964921e-17 0.3548822979136569 0.9349109875423108
12643205333.333334 0.3655101092047776 0.9308073700121458 -7.758670417575737e-17 -9.846984440078853e-17 -7.758670417575737e-17 -9.846984440078853e-17 0.3655094738308956 0.9308076195109697
12643822666.666666 0.3760898483971083 0.9265831996817435 -7.869669076537698e-17 -9.755357978815501e-17 -7.869669076537698e-17 -9.755357978815501e-17 0.37608921593754097 0.9265834563898179
12644440000.0 0.38662078071635214 0.9222387824842843 -7.979587125067074e-17 -9.66248148238428e-17 -7.979587125067074e-17 -9.66248148238428e-17 0.38662015125288884 0.9222390463675944
12645057333.333334 0.39710153951608107 0.917774682214417 -8.088410499383118e-17 -9.568367678801817e-17 -8.088410499383118e-17 -9.568367678801817e-17 0.39710091313011336 0.9177749532380182
12645674666.666666 0.4075307646610858 0.9131914781986126 -8.1961252854395e-17 -9.4730294541518e-17 -8.1961252854395e-17 -9.4730294541518e-17 0.40753014143359795 0.9131917563266368
12646292000.0 0.41790710270406833 0.9084897652198991 -8.302717720700618e-17 -9.376479850824097e-17 -8.302717720700618e-17 -9.376479850824097e-17 0.41790648271562725 0.9084900504155612
12646909333.333334 0.42822920706092216 0.9036701534408396 -8.40817419589185e-17 -9.278732065738676e-17 -8.40817419589185e-17 -9.278732065738676e-17 0.4282285903916664 0.9036704456664404
12647526666.666666 0.4384957381858464 0.898733268324182 -8.512481256736505e-17 -9.179799448543348e-17 -8.512481256736505e-17 -9.179799448543348e-17 0.43849512491547604 0.8987335675411136
12648144000.0 0.44870536374500397 0.8936797505517733 -8.615625605665707e-17 -9.079695499797168e-17 -8.615625605665707e-17 -9.079695499797168e-17 0.44870475395277026 0.8936800567205246
12648761333.333334 0.4588567587893993 0.8885102559414286 -8.717594103510233e-17 -8.978433869131909e-17 -8.717594103510233e-17 -8.978433869131909e-17 0.45885615255409434 0.8885105690215901
12649378666.666666 0.4689486059268995 0.8832254553617856 -8.818373771168217e-17 -8.876028353397041e-17 -8.818373771168217e-17 -8.876028353397041e-17 0.4689480033268464 0.8832257753120549
12649996000.0 0.478979595493173 0.877826034645255 -8.917951791253655e-17 -8.772492894783534e-17 -8.917951791253655e-17 -8.772492894783534e-17 0.478978996606215 0.8778263614234424
12650613333.333334 0.48894842572167485 0.8723126944990033 -9.01631550972345e-17 -8.667841578928757e-17 -9.01631550972345e-17 -8.667841578928757e-17 0.48894783062516634 0.872313028062037
12651230666.666666 0.4988538029124353 0.8666861504141034 -9.113452437477371e-17 -8.5620886330083e-17 -9.113452437477371e-17 -8.5620886330083e-17 0.49885321168323044 0.8666864907180348
12651848000.0 0.5086944416002932 0.8609471325724831 -9.209350251942477e-17 -8.455248423802684e-17 -9.209350251942477e-17 -8.455248423802684e-17 0.5086938543147381 0.8609474795724952
12652465333.333334 0.5184690647213488 0.8550963857523816 -9.303996798630191e-17 -8.347335455751653e-17 -9.303996798630191e-17 -8.347335455751653e-17 0.518468481455269 0.8550967394027902
12653082666.666666 0.5281764037787909 0.8491346692316362 -9.397380092670576e-17 -8.238364368991078e-17 -9.397380092670576e-17 -8.238364368991078e-17 0.5281758246074838 0.8491350294859003
12653700000.0 0.537815199007736 0.8430627566890179 -9.4894883203285e-17 -8.128349937367491e-17 -9.4894883203285e-17 -8.128349937367491e-17 0.5378146240059603 0.8430631234997439
12654317333.333334 0.5473841995383494 0.83688143610405 -9.580309840489487e-17 -8.01730706644372e-17 -9.580309840489487e-17 -8.01730706644372e-17 0.5473836287803152 0.8368818094229978
12654934666.666666 0.5568821635585146 0.8305915096545383 -9.669833186129385e-17 -7.905250791479987e-17 -9.669833186129385e-17 -7.905250791479987e-17 0.5568815971178738 0.8305918894326279
12655552000.0 0.5663078584748413 0.8241937936125555 -9.758047065755709e-17 -7.792196275403961e-17 -9.758047065755709e-17 -7.792196275403961e-17 0.566307296424679 0.824194179799874
12656169333.333334 0.5756600610725109 0.8176891182385944 -9.844940364825591e-17 -7.678158806765007e-17 -9.844940364825591e-17 -7.678158806765007e-17 0.5756595034853347 0.8176895107844013
12656786666.666666 0.5849375576742051 0.8110783276736924 -9.930502147143636e-17 -7.563153797667539e-17 -9.930502147143636e-17 -7.563153797667539e-17 0.584937004621937 0.8110787265264278
12657404000.0 0.5941391442975851 0.8043622798298969 -1.0014721656231872e-16 -7.447196781693973e-17 -1.0014721656231872e-16 -7.447196781693973e-17 0.5941385958515518 0.804362684937188
12658021333.333334 0.6032636268114482 0.7975418462789997 -1.0097588316675932e-16 -7.330303411811933e-17 -1.0097588316675932e-16 -7.330303411811933e-17 0.6032630830423706 0.7975422575876654
12658638666.666666 0.6123098210906694 0.7906179121394421 -1.0179091735448234e-16 -7.212489458264921e-17 -1.0179091735448234e-16 -7.212489458264921e-17 0.6123092820686556 0.7906183295955032
12659256000.0 0.6212765531700567 0.7835913759613179 -1.0259221703208887e-16 -7.093770806444751e-17 -1.0259221703208887e-16 -7.093770806444751e-17 0.6212760189645921 0.7835917995100031
12659873333.333334 0.6301626593965844 0.7764631496098457 -1.0337968195574237e-16 -6.974163454760724e-17 -1.0337968195574237e-16 -6.974163454760724e-17 0.6301621300765218 0.7764635791955973
12660490666.666666 0.6389669865802751 0.769234158147141 -1.0415321374368327e-16 -6.85368351248375e-17 -1.0415321374368327e-16 -6.85368351248375e-17 0.6389664622138267 0.7692345937136232
12661108000.0 0.6476883921441615 0.7619053397119145 -1.0491271588847131e-16 -6.73234719757949e-17 -1.0491271588847131e-16 -6.73234719757949e-17 0.6476878727988912 0.7619057812020223
12661725333.333334 0.6563257442722381 0.7544776453980001 -1.0565809376894266e-16 -6.610170834533455e-17 -1.0565809376894266e-16 -6.610170834533455e-17 0.6563252300150499 0.754478092753864
12662342666.666666 0.6648779220565569 0.7469520391307418 -1.0638925466196738e-16 -6.487170852154562e-17 -1.0638925466196738e-16 -6.487170852154562e-17 0.6648774129536895 0.7469524922937377
12662960000.0 0.6733438156426708 0.7393294975419182 -1.0710610775391331e-16 -6.363363781371734e-17 -1.0710610775391331e-16 -6.363363781371734e-17 0.6733433117596874 0.7393299564526744
12663577333.333334 0.68172232637356 0.7316110098430983 -1.0780856415185588e-16 -6.238766253018007e-17 -1.0780856415185588e-16 -6.238766253018007e-17 0.681721827775339 0.7316114744415015
12664194666.666666 0.6900123669322711 0.7237975776972059 -1.0849653689456243e-16 -6.113394995596836e-17 -1.0849653689456243e-16 -6.113394995596836e-17 0.6900118736829992 0.7237980479224114
12664812000.0 0.698212861483085 0.7158902150884731 -1.0916994096318469e-16 -5.98726683304185e-17 -1.0916994096318469e-16 -5.98726683304185e-17 0.6982123736462494 0.7158906908789126
12665429333.333334 0.7063227458110312 0.7078899481909476 -1.0982869329169611e-16 -5.860398682464377e-17 -1.0982869329169611e-16 -5.860398682464377e-17 0.7063222634494105 0.7078904294843367
12666046666.666666 0.7143409674599761 0.6997978152353451 -1.1047271277707861e-16 -5.732807551887717e-17 -1.1047271277707861e-16 -5.732807551887717e-17 0.7143404906356314 0.6997983019686903
12666664000.0 0.7222664858694058 0.691614866374109 -1.111019202892644e-16 -5.604510537966485e-17 -1.111019202892644e-16 -5.604510537966485e-17 0.7222660146436738 0.6916153584837176
12667281333.333334 0.7300982725091636 0.6833421635454323 -1.1171623868075352e-16 -5.475524823707144e-17 -1.1171623868075352e-16 -5.475524823707144e-17 0.7300978069426489 0.6833426609669201
12667898666.666666 0.7378353110132068 0.6749807803351605 -1.1231559279602525e-16 -5.345867676166776e-17 -1.1231559279602525e-16 -5.345867676166776e-17 0.7378348511657736 0.6749812830034606
12668516000.0 0.745476597311382 0.6665318018375871 -1.1289990948068053e-16 -5.21555644414151e-17 -1.1289990948068053e-16 -5.21555644414151e-17 0.745476143242147 0.666532309686958
12669133333.333334 0.7530211397596384 0.6579963245147452 -1.1346911759026414e-16 -5.0846085558566947e-17 -1.1346911759026414e-16 -5.0846085558566947e-17 0.7530206915269609 0.6579968374787785
12669750666.666666 0.7604679592688645 0.6493754560539433 -1.140231479988757e-16 -4.953041516635292e-17 -1.140231479988757e-16 -4.953041516635292e-17 0.7604675169303436 0.6493759740655752
12670368000.0 0.7678160894319529 0.6406703152240164 -1.1456193360749539e-16 -4.82087290656023e-17 -1.1456193360749539e-16 -4.82087290656023e-17 0.7678156530444156 0.6406708382155336
