! Parameters = {f0=12700.012000; bw=77.238000; Q=6100.000000; N=10; m_0_1=1.230125; m_1_1=-0.312869; m_1_2=1.064937; m_2_2=-0.313518; m_2_3=0.701900; m_2_8=-0.001430; m_2_9=0.035274; m_3_3=-0.315455; m_3_4=0.590429; m_3_7=-0.000830; m_3_8=-0.097918; m_3_9=-0.001430; m_4_4=-0.318380; m_4_5=0.426764; m_4_6=0.002687; m_4_7=-0.118467; m_4_8=-0.000830; m_5_5=-0.317998; m_5_6=0.834119; m_5_7=0.002687; m_6_6=-0.317999; m_6_7=0.427106; m_7_7=-0.318366; m_7_8=0.590547; m_8_8=-0.315457; m_8_9=0.702213; m_9_9=-0.313523; m_9_10=1.066015; m_10_10=-0.312879; m_10_11=1.230920}
!
! Created with skrf (http://scikit-rf.org).
# Hz S RI R 50.0 
!freq ReS11 ImS11 ReS21 ImS21 ReS12 ImS12 ReS22 ImS22
12607400000.0 0.961926197677141 -0.27330933065343993 -7.711532109719043e-17 4.8869027522081014e-17 -7.711532109719043e-17 4.8869027522081014e-17 0.9619263748288934 -0.27330870715799976
12608017333.333334 0.9593303999455066 -0.28228564210782797 -7.663591188440523e-17 4.958454516292932e-17 -7.663591188440523e-17 4.958454516292932e-17 0.9593305829065097 -0.2822850203253617
12608634666.666666 0.9566508408390527 -0.2912373065418778 -7.614987068538112e-17 5.029537009299121e-17 -7.614987068538112e-17 5.029537009299121e-17 0.9566510295927646 -0.29123668652650453
12609252000.0 0.9538877543164012 -0.3001635423649019 -7.565724334068232e-17 5.100144090835408e-17 -7.565724334068232e-17 5.100144090835408e-17 0.9538879488457749 -0.30016292417058094
12609869333.333334 0.9510413816291401 -0.30906357020647257 -7.515807625875423e-17 5.1702696652045767e-17 -7.515807625875423e-17 5.1702696652045767e-17 0.9510415819166254 -0.3090629538869986
12610486666.666666 0.9481119713007976 -0.31793661298433373 -7.465241641158961e-17 5.2399076819256843e-17 -7.465241641158961e-17 5.2399076819256843e-17 0.9481121773283443 -0.31793599859333316
12611104000.0 0.9450997791050532 -0.3267818959725493 -7.41403113303087e-17 5.309052136257641e-17 -7.41403113303087e-17 5.309052136257641e-17 0.9450999908541116 -0.32678128356347447
12611721333.333334 0.9420050680435348 -0.33559864686874014 -7.362180910073564e-17 5.377697069712128e-17 -7.362180910073564e-17 5.377697069712128e-17 0.9420052854950577 -0.33559803649486564
12612338666.666666 0.9388281083227307 -0.3443860958618936 -7.309695835888981e-17 5.4458365705674894e-17 -7.309695835888981e-17 5.4458365705674894e-17 0.938828331457174 -0.3443854875763103
12612956000.0 0.9355691773304485 -0.3531434756994143 -7.256580828644637e-17 5.51346477437593e-17 -7.256580828644637e-17 5.51346477437593e-17 0.9355694061277742 -0.35314286955502594
12613573333.333334 0.9322285596116466 -0.36187002175398225 -7.202840860615691e-17 5.580575864465523e-17 -7.202840860615691e-17 5.580575864465523e-17 0.9322287940513263 -0.3618694178035013
12614190666.666666 0.9288065468435069 -0.37056497209055667 -7.14848095772091e-17 5.647164072439593e-17 -7.14848095772091e-17 5.647164072439593e-17 0.9288067869045177 -0.3705643703864972
12614808000.0 0.9253034378100068 -0.3792275675327644 -7.093506199054891e-17 5.713223678670621e-17 -7.093506199054891e-17 5.713223678670621e-17 0.9253036834708397 -0.3792269681274404
12615425333.333334 0.9217195383758418 -0.38785705172919 -7.037921716415535e-17 5.778749012789796e-17 -7.037921716415535e-17 5.778749012789796e-17 0.9217197896145009 -0.3878564546747096
12616042666.666666 0.9180551614596713 -0.3964526712195172 -6.981732693827199e-17 5.843734454171806e-17 -6.981732693827199e-17 5.843734454171806e-17 0.9180554182536759 -0.39645207656777803
12616660000.0 0.9143106270068647 -0.4050136755001588 -6.924944367058578e-17 5.908174432416013e-17 -6.924944367058578e-17 5.908174432416013e-17 0.91431088933325 -0.40501308330284325
12617277333.333334 0.9104862619615091 -0.413539317089915 -6.867562023137632e-17 5.97206342782117e-17 -6.867562023137632e-17 5.97206342782117e-17 0.9104865297968308 -0.41353872739848657
12617894666.666666 0.9065824002379322 -0.4220288515950822 -6.809590999861555e-17 6.035395971856299e-17 -6.809590999861555e-17 6.035395971856299e-17 0.9065826735582674 -0.4220282644607807
12618512000.0 0.9025993826914215 -0.43048153777473336 -6.751036685300456e-17 6.098166647628883e-17 -6.751036685300456e-17 6.098166647628883e-17 0.9025996614723703 -0.4304809532485701
12619129333.333334 0.8985375570886251 -0.4388966376050743 -6.69190451730095e-17 6.160370090343716e-17 -6.69190451730095e-17 6.160370090343716e-17 0.8985378413053132 -0.43889605573782786
12619746666.666666 0.8943972780770847 -0.4472734163441164 -6.632199982981526e-17 6.222000987761352e-17 -6.632199982981526e-17 6.222000987761352e-17 0.8943975677041653 -0.4472728371863281
12620364000.0 0.8901789071542121 -0.45561114259592683 -6.571928618224532e-17 6.283054080650647e-17 -6.571928618224532e-17 6.283054080650647e-17 0.890179202165871 -0.45561056619789747
12620981333.333334 0.8858828126359237 -0.46390908837411055 -6.511096007167495e-17 6.343524163232991e-17 -6.511096007167495e-17 6.343524163232991e-17 0.8858831130058757 -0.46390851478589373
12621598666.666666 0.881509369624298 -0.47216652916572516 -6.449707781685097e-17 6.403406083626908e-17 -6.449707781685097e-17 6.403406083626908e-17 0.8815096753257939 -0.47216595843712467
12622216000.0 0.8770589599749015 -0.4803827439943881 -6.387769620870744e-17 6.462694744284045e-17 -6.387769620870744e-17 6.462694744284045e-17 0.8770592709807306 -0.480382176174954
12622833333.333334 0.872531972263427 -0.48855701548327946 -6.325287250512839e-17 6.52138510242141e-17 -6.325287250512839e-17 6.52138510242141e-17 0.8725322885459161 -0.4885564506223017
12623450666.666666 0.8679288017518133 -0.49668862991767393 -6.262266442567329e-17 6.579472170448423e-17 -6.262266442567329e-17 6.579472170448423e-17 0.867929123282833 -0.49668806806418075
12624068000.0 0.8632498503536872 -0.5047768773073624 -6.198713014626524e-17 6.636951016388712e-17 -6.198713014626524e-17 6.636951016388712e-17 0.863250177104651 -0.5047763185101132
12624685333.333334 0.8584955265991921 -0.5128210514487587 -6.134632829382891e-17 6.693816764297785e-17 -6.134632829382891e-17 6.693816764297785e-17 0.8584958585410626 -0.5128204957562429
12625302666.666666 0.8536662455995524 -0.5208204499861727 -6.070031794092182e-17 6.750064594672892e-17 -6.070031794092182e-17 6.750064594672892e-17 0.8536665827028402 -0.5208198974466026
12625920000.0 0.848762429010552 -0.5287743744735957 -6.004915860027743e-17 6.805689744862083e-17 -6.004915860027743e-17 6.805689744862083e-17 0.8487627712453208 -0.5287738251349045
12626537333.333334 0.8437845049959382 -0.5366821304353198 -5.939291021936959e-17 6.860687509462994e-17 -5.939291021936959e-17 6.860687509462994e-17 0.8437848523318062 -0.5366815843451561
12627154666.666666 0.8387329081899533 -0.5445430274267214 -5.87316331748919e-17 6.915053240720604e-17 -5.87316331748919e-17 6.915053240720604e-17 0.838733260596096 -0.5445424846324451
12627772000.0 0.8336080796592866 -0.5523563790946853 -5.806538826722004e-17 6.968782348917975e-17 -5.806538826722004e-17 6.968782348917975e-17 0.8336084371044407 -0.5523558396433649
12628389333.333334 0.8284104668648021 -0.5601215032371774 -5.739423671485924e-17 7.021870302760129e-17 -5.739423671485924e-17 7.021870302760129e-17 0.8284108293172675 -0.5601209671755847
12629006666.666666 0.8231405236221693 -0.5678377218632589 -5.671824014880828e-17 7.07431262975642e-17 -5.671824014880828e-17 7.07431262975642e-17 0.8231408910498107 -0.5678371892378645
12629624000.0 0.8177987100625067 -0.5755043612518808 -5.603746060694154e-17 7.126104916593372e-17 -5.603746060694154e-17 7.126104916593372e-17 0.8177990824327586 -0.5755038321088511
12630241333.333334 0.8123854925920487 -0.5831207520109428 -5.535196052831232e-17 7.17724280950559e-17 -5.535196052831232e-17 7.17724280950559e-17 0.812385869871918 -0.5831202263961371
12630858666.666666 0.8069013438515407 -0.5906862291355817 -5.4661802747467866e-17 7.227722014637803e-17 -5.4661802747467866e-17 7.227722014637803e-17 0.8069017260076059 -0.5906857070945439
12631476000.0 0.8013467426747801 -0.5982001320664802 -5.3967050488675726e-17 7.277538298405594e-17 -5.3967050488675726e-17 7.277538298405594e-17 0.8013471296732005 -0.5981996136444402
12632093333.333334 0.7957221740470514 -0.6056618047472266 -5.326776736017788e-17 7.326687487846215e-17 -5.326776736017788e-17 7.326687487846215e-17 0.7957225658535656 -0.6056612899890933
12632710666.666666 0.7900281290626097 -0.6130705956818251 -5.2564017348371377e-17 7.37516547096691e-17 -5.2564017348371377e-17 7.37516547096691e-17 0.7900285256425389 -0.6130700846321819
12633328000.0 0.7842651048818141 -0.6204258579915506 -5.185586481196153e-17 7.422968197087333e-17 -5.185586481196153e-17 7.422968197087333e-17 0.7842655062000682 -0.6204253506946547
12633945333.333334 0.7784336046878124 -0.6277269494713231 -5.1143374476103526e-17 7.470091677175092e-17 -5.1143374476103526e-17 7.470091677175092e-17 0.7784340107088897 -0.6277264459710987
12634562666.666666 0.7725341376425336 -0.6349732326458668 -5.042661142650499e-17 7.516531984176237e-17 -5.042661142650499e-17 7.516531984176237e-17 0.7725345483305253 -0.6349727329859022
12635180000.0 0.76656721884225 -0.6421640748253467 -4.970564110349072e-17 7.562285253340727e-17 -4.970564110349072e-17 7.562285253340727e-17 0.766567634160844 -0.6421635790488912
12635797333.333334 0.7605333692725847 -0.6492988481606329 -4.8980529296044225e-17 7.607347682541759e-17 -4.8980529296044225e-17 7.607347682541759e-17 0.7605337891850682 -0.6492983563105925
12636414666.666666 0.7544331157631173 -0.6563769296980131 -4.825134213583158e-17 7.651715532588735e-17 -4.825134213583158e-17 7.651715532588735e-17 0.7544335402323785 -0.6563764418169459
12637032000.0 0.7482669909411959 -0.663397701433796 -4.751814609116471e-17 7.695385127536582e-17 -4.751814609116471e-17 7.695385127536582e-17 0.7482674199297308 -0.6633972175639106
12637649333.333334 0.7420355331856209 -0.670360550368058 -4.6781007960980185e-17 7.738352854986538e-17 -4.6781007960980185e-17 7.738352854986538e-17 0.7420359666555343 -0.6703600705512088
12638266666.666666 0.7357392865795457 -0.677264868558274 -4.60399948687588e-17 7.780615166383297e-17 -4.60399948687588e-17 7.780615166383297e-17 0.7357397244925532 -0.6772643928359559
12638884000.0 0.7293788008629856 -0.6841100531723728 -4.5295174256431473e-17 7.822168577305479e-17 -4.5295174256431473e-17 7.822168577305479e-17 0.729379243180421 -0.6841095815857214
12639501333.333334 0.7229546313848052 -0.6908955065413979 -4.454661387825484e-17 7.863009667750577e-17 -4.454661387825484e-17 7.863009667750577e-17 0.7229550780676196 -0.6908950391311816
12640118666.666666 0.7164673390543619 -0.6976206362115422 -4.3794381794679506e-17 7.90313508241307e-17 -4.3794381794679506e-17 7.90313508241307e-17 0.7164677900631297 -0.6976201730181616
12640736000.0 0.7099174902921397 -0.7042848549962893 -4.303854636613246e-17 7.942541530959971e-17 -4.303854636613246e-17 7.942541530959971e-17 0.7099179455870622 -0.7042843960597736
12641353333.333334 0.7033056569808872 -0.710887581027069 -4.2279176246888456e-17 7.981225788294436e-17 -4.2279176246888456e-17 7.981225788294436e-17 0.7033061165217943 -0.7108871263870706
12641970666.666666 0.6966324164151887 -0.71742823780457 -4.1516340378792894e-17 8.01918469482008e-17 -4.1516340378792894e-17 8.01918469482008e-17 0.6966328801615441 -0.7174277875003631
12642588000.0 0.6898983512512783 -0.723906254248853 -4.075010798504352e-17 8.05641515669509e-17 -4.075010798504352e-17 8.05641515669509e-17 0.6898988191621822 -0.7239058083193293
12643205333.333334 0.6831040494561459 -0.7303210647492315 -3.99805485639242e-17 8.092914146081655e-17 -3.99805485639242e-17 8.092914146081655e-17 0.6831045214903401 -0.7303206232328977
12643822666.666666 0.6762501042561222 -0.7366721092137399 -3.920773188249868e-17 8.128678701390392e-17 -3.920773188249868e-17 8.128678701390392e-17 0.6762505803719909 -0.7366716721487121
12644440000.0 0.669337114085201 -0.7429588331179124 -3.8431727970326206e-17 8.163705927516558e-17 -3.8431727970326206e-17 8.163705927516558e-17 0.6693375942407779 -0.7429584005419164
12645057333.333334 0.6623656825326895 -0.749180687553303 -3.765260711311986e-17 8.197992996072168e-17 -3.765260711311986e-17 8.197992996072168e-17 0.6623661666856578 -0.7491802595036672
12645674666.666666 0.6553364182906315 -0.7553371292752943 -3.687043984639822e-17 8.231537145611354e-17 -3.687043984639822e-17 8.231537145611354e-17 0.6553369063983303 -0.7553367057889485
12646292000.0 0.6482499351004269 -0.7614276207507369 -3.6085296949098396e-17 8.264335681850508e-17 -3.6085296949098396e-17 8.264335681850508e-17 0.6482504271198548 -0.7614272018642099
12646909333.333334 0.6411068516995457 -0.7674516302046224 -3.5297249437219436e-17 8.296385977880217e-17 -3.5297249437219436e-17 8.296385977880217e-17 0.6411073475873634 -0.767451215954037
12647526666.666666 0.6339077917672892 -0.7734086316666988 -3.45063685573813e-17 8.327685474374025e-17 -3.45063685573813e-17 8.327685474374025e-17 0.6339082914798242 -0.7734082220877702
12648144000.0 0.6266533838703542 -0.7792981050173745 -3.371272578041505e-17 8.358231679788887e-17 -3.371272578041505e-17 8.358231679788887e-17 0.626653887363604 -0.7792977001454058
12648761333.333334 0.6193442614080625 -0.7851195360330406 -3.2916392794919406e-17 8.388022170560314e-17 -3.2916392794919406e-17 8.388022170560314e-17 0.6193447686376995 -0.7851191359029217
12649378666.666666 0.6119810625569708 -0.7908724164310436 -3.211744150080281e-17 8.4170545912913e-17 -3.211744150080281e-17 8.4170545912913e-17 0.6119815734783441 -0.7908720210772449
12649996000.0 0.6045644302151679 -0.7965562439140417 -3.1315944002797084e-17 8.445326654935495e-17 -3.1315944002797084e-17 8.445326654935495e-17 0.6045649447833101 -0.7965558533706154
12650613333.333334 0.5970950119461232 -0.8021705222138839 -3.0511972603962645e-17 8.472836142974022e-17 -3.0511972603962645e-17 8.472836142974022e-17 0.5970955301157523 -0.8021701365144578
12651230666.666666 0.5895734599222594 -0.8077147611348532 -2.9705599799205234e-17 8.499580905585153e-17 -2.9705599799205234e-17 8.499580905585153e-17 0.5895739816477834 -0.8077143803126291
12651848000.0 0.5820004308677792 -0.8131884765966352 -2.8896898268719964e-17 8.52555886180985e-17 -2.8896898268719964e-17 8.52555886180985e-17 0.5820009561033005 -0.8131881006843861
12652465333.333334 0.5743765860015334 -0.8185911906764325 -2.808594087147975e-17 8.550767999709119e-17 -2.808594087147975e-17 8.550767999709119e-17 0.5743771147008522 -0.8185908197064999
12653082666.666666 0.5667025909793121 -0.8239224316506809 -2.727280063868607e-17 8.575206376516032e-17 -2.727280063868607e-17 8.575206376516032e-17 0.5667031230959307 -0.823922065654971
12653700000.0 0.5589791158353985 -0.8291817340364616 -2.645755076718498e-17 8.598872118782163e-17 -2.645755076718498e-17 8.598872118782163e-17 0.558979651322525 -0.8291813730464428
12654317333.333334 0.5512068349245324 -0.8343686386318194 -2.564026461291737e-17 8.621763422516393e-17 -2.564026461291737e-17 8.621763422516393e-17 0.551207373735086 -0.8343682826785216
12654934666.666666 0.5433864268627057 -0.8394826925560869 -2.4821015684323457e-17 8.643878553318546e-17 -2.4821015684323457e-17 8.643878553318546e-17 0.5433869689493194 -0.8394823416700953
12655552000.0 0.535518574467931 -0.8445234492894031 -2.399987763573613e-17 8.665215846506724e-17 -2.399987763573613e-17 8.665215846506724e-17 0.5355191197829566 -0.844523103500859
12656169333.333334 0.5276039647008381 -0.8494904687115641 -2.317692426079852e-17 8.68577370723749e-17 -2.317692426079852e-17 8.68577370723749e-17 0.5276045131963504 -0.8494901280501602
12656786666.666666 0.5196432886044801 -0.8543833171405896 -2.2352229485824845e-17 8.705550610621037e-17 -2.2352229485824845e-17 8.705550610621037e-17 0.5196438402322806 -0.8543829816355684
12657404000.0 0.5116372412440187 -0.859201567370571 -2.1525867363176624e-17 8.724545101829424e-17 -2.1525867363176624e-17 8.724545101829424e-17 0.5116377959556402 -0.8592012370507214
12658021333.333334 0.5035865216461334 -0.8639447987089128 -2.0697912064637878e-17 8.742755796198376e-17 -2.0697912064637878e-17 8.742755796198376e-17 0.5035870793928447 -0.8639444736025691
12658638666.666666 0.4954918327380146 -0.8686125970130522 -1.9868437874774785e-17 8.760181379322995e-17 -1.9868437874774785e-17 8.760181379322995e-17 0.49549239347082363 -0.86861227714809
12659256000.0 0.487353881285767 -0.8732045547267459 -1.9037519184263057e-17 8.776820607147773e-17 -1.9037519184263057e-17 8.776820607147773e-17 0.48735444495542585 -0.8732042401305807
12659873333.333334 0.4791733778329205 -0.877720270915526 -1.8205230483253208e-17 8.792672306049237e-17 -1.8205230483253208e-17 8.792672306049237e-17 0.47917394438993005 -0.8777199616151108
12660490666.666666 0.4709510366383952 -0.8821593513017117 -1.737164635470982e-17 8.807735372912863e-17 -1.737164635470982e-17 8.807735372912863e-17 0.47095160603300856 -0.8821590473235345
12661108000.0 0.46268757561390944 -0.8865214082989527 -1.6536841467707452e-17 8.822008775204315e-17 -1.6536841467707452e-17 8.822008775204315e-17 0.46268814779613726 -0.8865211096690339
12661725333.333334 0.45438371626155 -0.8908060610459375 -1.5700890570806696e-17 8.835491551032798e-17 -1.5700890570806696e-17 8.835491551032798e-17 0.45438429118116447 -0.8908057677898288
12662342666.666666 0.44604018361064945 -0.8950129354397144 -1.4863868485338093e-17 8.848182809209761e-17 -1.4863868485338093e-17 8.848182809209761e-17 0.4460407612171882 -0.8950126475824949
12662960000.0 0.43765770615450683 -0.8991416641683395 -1.402585009873477e-17 8.860081729300268e-17 -1.402585009873477e-17 8.860081729300268e-17 0.43765828639727844 -0.8991413817346153
12663577333.333334 0.4292370157867833 -0.9031918867429519 -1.3186910357846834e-17 8.871187561668407e-17 -1.3186910357846834e-17 8.871187561668407e-17 0.4292375986148706 -0.9031916097568528
12664194666.666666 0.42077884773759605 -0.9071632495292442 -1.2347124262242943e-17 8.88149962751647e-17 -1.2347124262242943e-17 8.88149962751647e-17 0.42077943309986143 -0.9071629780144219
12664812000.0 0.4122839405093254 -0.9110554057783414 -1.1506566857535043e-17 8.891017318917491e-17 -1.1506566857535043e-17 8.891017318917491e-17 0.4122845283544154 -0.9110551397579694
12665429333.333334 0.40375303581213495 -0.9148680156570785 -1.0665313228673836e-17 8.899740098841815e-17 -1.0665313228673836e-17 8.899740098841815e-17 0.4037536260884835 -0.9148677551538453
12666046666.666666 0.3951868784992352 -0.9186007462776562 -9.823438493271237e-18 8.907667501177097e-17 -9.823438493271237e-18 8.907667501177097e-17 0.3951874711550693 -0.9186004913137685
12666664000.0 0.38658621650171954 -0.9222532717267651 -8.981017794879397e-18 8.914799130742338e-17 -8.981017794879397e-18 8.914799130742338e-17 0.38658681148506374 -0.9222530223239434
12667281333.333334 0.37795180076352114 -0.9258252730939286 -8.138126296335939e-18 8.921134663294999e-17 -8.138126296335939e-18 8.921134663294999e-17 0.3779523980222019 -0.9258250292734058
12667898666.666666 0.36928438517561296 -0.9293164384994524 -7.294839173036655e-18 8.926673845532582e-17 -7.294839173036655e-18 8.926673845532582e-17 0.36928498465726267 -0.9293162002819715
12668516000.0 0.36058472651017964 -0.9327264631216458 -6.451231606260242e-18 8.931416495087235e-17 -6.451231606260242e-18 8.931416495087235e-17 0.3605853281622423 -0.9327262305274595
12669133333.333334 0.35185358435480973 -0.9360550492233399 -5.6073787764927894e-18 8.935362500514351e-17 -5.6073787764927894e-18 8.935362500514351e-17 0.35185418812454466 -0.9360548222722073
12669750666.666666 0.34309172104580093 -0.9393019061780226 -4.763355856719249e-18 8.9385118212749e-17 -4.763355856719249e-18 8.9385118212749e-17 0.34309232688028773 -0.9393016848892082
12670368000.0 0.3342999016018654 -0.9424667504951134 -3.919238005753827e-18 8.940864487711376e-17 -3.919238005753827e-18 8.940864487711376e-17 0.3343005094480088 -0.9424665348873867
12670985333.333334 0.3254788936573082 -0.9455493058447303 -3.075100361558943e-18 8.942420601017456e-17 -3.075100361558943e-18 8.942420601017456e-17 0.3254795034618419 -0.9455490959363604
