! Parameters = {f0=12700.012000; bw=77.238000; Q=6100.000000; N=10; m_0_1=1.312007; m_1_1=0.915359; m_1_2=1.146819; m_2_2=0.914710; m_2_3=0.783782; m_2_8=0.002664; m_2_9=0.039368; m_3_3=0.912773; m_3_4=0.672311; m_3_7=0.003264; m_3_8=-0.093824; m_3_9=0.002664; m_4_4=0.909848; m_4_5=0.508646; m_4_6=0.006781; m_4_7=-0.114373; m_4_8=0.003264; m_5_5=0.910230; m_5_6=0.916001; m_5_7=0.006781; m_6_6=0.910229; m_6_7=0.508988; m_7_7=0.909862; m_7_8=0.672429; m_8_8=0.912771; m_8_9=0.784095; m_9_9=0.914705; m_9_10=1.147897; m_10_10=0.915349; m_10_11=1.312802}
!
! Created with skrf (http://scikit-rf.org).
# Hz S RI R 50.0 
!freq ReS11 ImS11 ReS21 ImS21 ReS12 ImS12 ReS22 ImS22
12607400000.0 0.867427064499092 0.49756435540972954 -1.3066783846375554e-16 -3.097836825416806e-17 -1.3066783846375554e-16 -3.097836825416806e-17 0.8674267206001742 0.49756495494421515
12608017333.333334 0.8732206373404862 0.48732506453340574 -1.3100019540027744e-16 -2.9421598458697655e-17 -1.3100019540027744e-16 -2.9421598458697655e-17 0.8732203005350883 0.48732566804265726
12608634666.666666 0.878893348966177 0.47701832369713965 -1.3131401609029131e-16 -2.786130438463507e-17 -1.3131401609029131e-16 -2.786130438463507e-17 0.87889301930022 0.47701893109724164
12609252000.0 0.8844444142243818 0.46664555944217534 -1.3160926370507757e-16 -2.6297706610319944e-17 -1.3160926370507757e-16 -2.6297706610319944e-17 0.8844440917427927 0.46664617064868147
12609869333.333334 0.8898730648002162 0.45620820744796114 -1.318859040392253e-16 -2.473102609177194e-17 -1.318859040392253e-16 -2.473102609177194e-17 0.8898727495469231 0.4562088223759064
12610486666.666666 0.8951785493220099 0.44570771233349016 -1.3214390551440434e-16 -2.3161484131540457e-17 -1.3214390551440434e-16 -2.3161484131540457e-17 0.8951782413399371 0.44570833089740325
12611104000.0 0.9003601334654097 0.43514552745715107 -1.3238323918278334e-16 -2.158930234742004e-17 -1.3238323918278334e-16 -2.158930234742004e-17 0.9003598327964701 0.4351461495710655
12611721333.333334 0.9054171000548561 0.42452311471587306 -1.3260387873005224e-16 -2.0014702641280364e-17 -1.3260387873005224e-16 -2.0014702641280364e-17 0.9054168067399481 0.42452374029334006
12612338666.666666 0.9103487491629328 0.4138419443426383 -1.3280580047809526e-16 -1.8437907167740715e-17 -1.3280580047809526e-16 -1.8437907167740715e-17 0.9103484632419315 0.41384257329673774
12612956000.0 0.9151543982073294 0.40310349470277906 -1.3298898338728506e-16 -1.685913830285866e-17 -1.3298898338728506e-16 -1.685913830285866e-17 0.9151541197190824 0.40310412694613174
12613573333.333334 0.9198333820450596 0.3923092520899293 -1.3315340905839734e-16 -1.5278618612871848e-17 -1.3315340905839734e-16 -1.5278618612871848e-17 0.9198331110273834 0.39230988753471
12614190666.666666 0.9243850530648503 0.3814607105195834 -1.332990617341698e-16 -1.3696570822796742e-17 -1.332990617341698e-16 -1.3696570822796742e-17 0.9243847895545236 0.38146134907753226
12614808000.0 0.9288087812765226 0.3705593715228833 -1.3342592830047513e-16 -1.2113217785134592e-17 -1.3342592830047513e-16 -1.2113217785134592e-17 0.9288085253092798 0.37056001310531766
12615425333.333334 0.933103954398297 0.3596067439385314 -1.3353399828713206e-16 -1.0528782448488525e-17 -1.3353399828713206e-16 -1.0528782448488525e-17 0.9331037060088277 0.3596073884563596
12616042666.666666 0.9372699779415264 0.34860434370401017 -1.3362326386833813e-16 -8.943487826243802e-18 -1.3362326386833813e-16 -8.943487826243802e-18 0.9372697371634654 0.34860499106774206
12616660000.0 0.9413062752929474 0.33755369364581317 -1.3369371986273646e-16 -7.357556965190552e-18 -1.3369371986273646e-16 -7.357556965190552e-18 0.9413060421588745 0.33755434376557425
12617277333.333334 0.9452122877945913 0.32645632326840723 -1.3374536373310645e-16 -5.771212914211035e-18 -1.3374536373310645e-16 -5.771212914211035e-18 0.9452120623360253 0.3264569760539503
12617894666.666666 0.948987474820898 0.31531376854312554 -1.3377819558568665e-16 -4.184678692940917e-18 -1.3377819558568665e-16 -4.184678692940917e-18 0.9489872570682917 0.31531442390384307
12618512000.0 0.9526313138538025 0.30412757169482363 -1.337922181691248e-16 -2.598177260446833e-18 -1.337922181691248e-16 -2.598177260446833e-18 0.9526311038365392 0.3041282295397605
12619129333.333334 0.9561433005548544 0.292899280989014 -1.3378743687305839e-16 -1.0119314839590216e-18 -1.3378743687305839e-16 -1.0119314839590216e-18 0.9561430983012438 0.29289994122688007
12619746666.666666 0.959522948835098 0.2816304505173583 -1.3376385972632386e-16 5.738358924014063e-19 -1.3376385972632386e-16 5.738358924014063e-19 0.9595227543723731 0.28163111305654154
12620364000.0 0.9627697909224124 0.27032263998234896 -1.3372149739479614e-16 2.1589022788884367e-18 -1.3372149739479614e-16 2.1589022788884367e-18 0.9627696042767252 0.2703233047309277
12620981333.333334 0.9658833774260809 0.2589774144820335 -1.3366036317885997e-16 3.7430452712681945e-18 -1.3366036317885997e-16 3.7430452712681945e-18 0.965883198622499 0.2589780813477891
12621598666.666666 0.9688632773992097 0.24759634429262609 -1.3358047301051e-16 5.32604268205078e-18 -1.3358047301051e-16 5.32604268205078e-18 0.9688631064617135 0.2475970131830564
12622216000.0 0.9717090783982067 0.23618100465177067 -1.334818454500849e-16 6.90767257156166e-18 -1.334818454500849e-16 6.90767257156166e-18 0.9717089153496831 0.23618167547410152
12622833333.333334 0.9744203865399383 0.2247329755402391 -1.3336450168263076e-16 8.487713279053427e-18 -1.3336450168263076e-16 8.487713279053427e-18 0.9744202314021827 0.22473364820143873
12623450666.666666 0.9769968265562359 0.21325384146330456 -1.3322846551390164e-16 1.0065943453686583e-17 -1.3322846551390164e-16 1.0065943453686583e-17 0.9769966793499466 0.21325451587009578
12624068000.0 0.9794380418458241 0.20174519123148774 -1.3307376336598917e-16 1.1642142085526725e-17 -1.3307376336598917e-16 1.1642142085526725e-17 0.9794379025905989 0.20174586729036068
12624685333.333334 0.9817436945237332 0.19020861774037323 -1.3290042427258638e-16 1.3216088536466435e-17 -1.3290042427258638e-16 1.3216088536466435e-17 0.9817435632380673 0.19020929535759842
12625302666.666666 0.9839134654679396 0.17864571775075158 -1.3270847987389547e-16 1.478756257100367e-17 -1.3270847987389547e-16 1.478756257100367e-17 0.9839133421692251 0.17864639683239353
12625920000.0 0.985947054363695 0.16705809166683447 -1.3249796441115449e-16 1.6356344387102443e-17 -1.3249796441115449e-16 1.6356344387102443e-17 0.9859469390682152 0.1670587721187637
12626537333.333334 0.9878441797449687 0.15544734331535798 -1.3226891472082168e-16 1.792221464681099e-17 -1.3226891472082168e-16 1.792221464681099e-17 0.9878440724678972 0.15544802504326458
12627154666.666666 0.989604579033458 0.14381507972331983 -1.3202137022838016e-16 1.9484954506938376e-17 -1.3202137022838016e-16 1.9484954506938376e-17 0.9896044797888593 0.1438157626327269
12627772000.0 0.9912280085749244 0.1321629108956099 -1.3175537294178897e-16 2.1044345649589287e-17 -1.3175537294178897e-16 2.1044345649589287e-17 0.9912279173757491 0.13216359489188606
12628389333.333334 0.9927142436729097 0.12049244959222773 -1.3147096744457739e-16 2.260017031259835e-17 -1.3147096744457739e-16 2.260017031259835e-17 0.9927141605309923 0.12049313458060029
12629006666.666666 0.994063078619859 0.10880531110483654 -1.3116820088857125e-16 2.415221131992297e-17 -1.3116820088857125e-16 2.415221131992297e-17 0.9940630035459199 0.10880599699040502
12629624000.0 0.995274326725556 0.09710311303353232 -1.3084712298626914e-16 2.570025211190479e-17 -1.3084712298626914e-16 2.570025211190479e-17 0.9952742597291973 0.09710379972128122
12630241333.333334 0.9963478203429886 0.08538747506272805 -1.3050778600286029e-16 2.7244076775436376e-17 -1.3050778600286029e-16 2.7244076775436376e-17 0.9963477614326924 0.08538816245754008
12630858666.666666 0.9972834108915399 0.07366001873708854 -1.3015024474788512e-16 2.878347007404034e-17 -1.3015024474788512e-16 2.878347007404034e-17 0.9972833600746694 0.07366070674375795
12631476000.0 0.9980809688775766 0.06192236723681165 -1.2977455656653993e-16 3.031821747784518e-17 -1.2977455656653993e-16 3.031821747784518e-17 0.9980809261603735 0.061923055760057244
12632093333.333334 0.9987403839123281 0.050176145153532865 -1.2938078133063593e-16 3.184810519342065e-17 -1.2938078133063593e-16 3.184810519342065e-17 0.9987403492999134 0.05017683409801133
12632710666.666666 0.9992615647272054 0.03842297826495789 -1.2896898142920555e-16 3.337292019350945e-17 -1.2896898142920555e-16 3.337292019350945e-17 0.9992615382235778 0.03842366753527692
12633328000.0 0.9996444391864232 0.02666449330989744 -1.2853922175874294e-16 3.489245024669427e-17 -1.2853922175874294e-16 3.489245024669427e-17 0.9996444207944583 0.02666518281062892
12633945333.333334 0.9998889542969712 0.014902317763396565 -1.2809156971312628e-16 3.6406483946831835e-17 -1.2809156971312628e-16 3.6406483946831835e-17 0.9998889440184219 0.014903007399089854
12634562666.666666 0.9999950762159611 0.0031380796113079945 -1.276260951731639e-16 3.791481074246937e-17 -1.276260951731639e-16 3.791481074246937e-17 0.9999950740514568 0.003138769286503077
12635180000.0 0.9999627902553064 -0.0086265928752057 -1.2714287049581647e-16 3.941722096604895e-17 -1.2714287049581647e-16 3.941722096604895e-17 0.9999627962043542 -0.008625903255964969
12635797333.333334 0.9997921008837548 -0.02039007136475451 -1.2664197050305777e-16 4.091350586304205e-17 -1.2664197050305777e-16 4.091350586304205e-17 0.999792114944739 -0.020389381896907213
12636414666.666666 0.9994830317262766 -0.032150727691039264 -1.261234724704153e-16 4.240345762087201e-17 -1.261234724704153e-16 4.240345762087201e-17 0.999483053896458 -0.03215003846999419
12637032000.0 0.9990356255607804 -0.04390693407871513 -1.2558745611514783e-16 4.388686939776501e-17 -1.2558745611514783e-16 4.388686939776501e-17 0.999035655836299 -0.043906245199837636
12637649333.333334 0.9984499443122075 -0.05565706336812155 -1.2503400358409676e-16 4.536353535141753e-17 -1.2503400358409676e-16 4.536353535141753e-17 0.9984499826880809 -0.05565637492672024
12638266666.666666 0.9977260690439511 -0.06739948924077896 -1.244631994412066e-16 4.683325066749426e-17 -1.244631994412066e-16 4.683325066749426e-17 0.9977261155140772 -0.06739880133209265
12638884000.0 0.9968640999466463 -0.07913258644437189 -1.238751306546938e-16 4.8295811588020574e-17 -1.238751306546938e-16 4.8295811588020574e-17 0.9968641545038027 -0.07913189916355638
12639501333.333334 0.9958641563242762 -0.09085473101798108 -1.2326988658390246e-16 4.9751015439562335e-17 -1.2326988658390246e-16 4.9751015439562335e-17 0.9958642189601229 -0.09085404446009597
12640118666.666666 0.9947263765777206 -0.10256430051617389 -1.2264755896581923e-16 5.1198660661270875e-17 -1.2264755896581923e-16 5.1198660661270875e-17 0.9947264472827984 -0.1025636147761693
12640736000.0 0.9934509181854969 -0.11425967423463998 -1.2200824190123989e-16 5.2638546832801766e-17 -1.2200824190123989e-16 5.2638546832801766e-17 0.9934509969492331 -0.11425898940734379
12641353333.333334 0.9920379576820837 -0.1259392334333227 -1.2135203184067005e-16 5.40704747019281e-17 -1.2135203184067005e-16 5.40704747019281e-17 0.9920380444927902 -0.1259385496134271
12641970666.666666 0.9904876906333991 -0.13760136156131503 -1.2067902756982568e-16 5.549424621214797e-17 -1.2067902756982568e-16 5.549424621214797e-17 0.9904877854782755 -0.13760067884336358
12642588000.0 0.98880033160977 -0.1492444444802648 -1.199893301948577e-16 5.690966453000975e-17 -1.199893301948577e-16 5.690966453000975e-17 0.9888004344749034 -0.14924376295863911
12643205333.333334 0.986976114156231 -0.1608668706877851 -1.1928304312725546e-16 5.831653407225879e-17 -1.1928304312725546e-16 5.831653407225879e-17 0.986976225026603 -0.16086619045669234
12643822666.666666 0.9850152907601804 -0.17246703154066922 -1.185602720684024e-16 5.971466053285869e-17 -1.185602720684024e-16 5.971466053285869e-17 0.9850154096196653 -0.17246635269412872
12644440000.0 0.9829181328164356 -0.18404332147748373 -1.1782112499385855e-16 6.11038509097387e-17 -1.1782112499385855e-16 6.11038509097387e-17 0.9829182596478026 -0.1840426441093138
12645057333.333334 0.980684930589731 -0.19559413824045607 -1.1706571213729216e-16 6.248391353142112e-17 -1.1706571213729216e-16 6.248391353142112e-17 0.9806850653746482 -0.19559346244426135
12645674666.666666 0.9783159931744677 -0.20711788309768933 -1.1629414597413047e-16 6.385465808339515e-17 -1.1629414597413047e-16 6.385465808339515e-17 0.9783161358935035 -0.2071172089668477
12646292000.0 0.9758116484519185 -0.21861296106443812 -1.1550654120485954e-16 6.521589563436535e-17 -1.1550654120485954e-16 6.521589563436535e-17 0.9758117990845467 -0.21861228869208807
12646909333.333334 0.9731722430449614 -0.2300777811233689 -1.147030147380838e-16 6.656743866218097e-17 -1.147030147380838e-16 6.656743866218097e-17 0.9731724015695601 -0.23007711060239602
12647526666.666666 0.9703981422699894 -0.2415107564452696 -1.138836856732199e-16 6.790910107966521e-17 -1.138836856732199e-16 6.790910107966521e-17 0.97039830866385 -0.24151008786829484
12648144000.0 0.9674897300863778 -0.2529103046085701 -1.13048675282912e-16 6.92406982601936e-17 -1.13048675282912e-16 6.92406982601936e-17 0.967489904325703 -0.2529096380679361
12648761333.333334 0.9644474090433317 -0.2642748478183614 -1.1219810699516284e-16 7.056204706303461e-17 -1.1219810699516284e-16 7.056204706303461e-17 0.9644475911032395 -0.2642741834061194
12649378666.666666 0.961271600224258 -0.2756028131244456 -1.113321063751612e-16 7.187296585848497e-17 -1.113321063751612e-16 7.187296585848497e-17 0.9612717900787884 -0.2756021509323439
12649996000.0 0.9579627431883747 -0.286892632639488 -1.1045080110679876e-16 7.317327455281178e-17 -1.1045080110679876e-16 7.317327455281178e-17 0.9579629408104916 -0.28689197275895884
12650613333.333334 0.954521295909863 -0.2981427437560229 -1.095543209739095e-16 7.44627946129461e-17 -1.095543209739095e-16 7.44627946129461e-17 0.9545215012714556 -0.2981420862781689
12651230666.666666 0.9509477347146384 -0.30935158936218665 -1.0864279784124596e-16 7.574134909091433e-17 -1.0864279784124596e-16 7.574134909091433e-17 0.9509479477865304 -0.3093509343777698
12651848000.0 0.9472425542141986 -0.320517618057998 -1.0771636563510838e-16 7.700876264812695e-17 -1.0771636563510838e-16 7.700876264812695e-17 0.9472427749661481 -0.3205169656574261
12652465333.333334 0.9434062672373481 -0.3316392843694882 -1.0677516032376725e-16 7.826486157932394e-17 -1.0677516032376725e-16 7.826486157932394e-17 0.9434064956380526 -0.33163863464280224
12653082666.666666 0.9394394047591482 -0.3427150489628233 -1.0581931989755312e-16 7.950947383635854e-17 -1.0581931989755312e-16 7.950947383635854e-17 0.9394396407762505 -0.34271440199968584
12653700000.0 0.9353425158273511 -0.35374337885757623 -1.0484898434868183e-16 8.074242905171988e-17 -1.0484898434868183e-16 8.074242905171988e-17 0.935342759427443 -0.3537427347472587
12654317333.333334 0.9311161674866195 -0.36472274763831675 -1.038642956508262e-16 8.196355856178717e-17 -1.038642956508262e-16 8.196355856178717e-17 0.9311164186352462 -0.3647221064696865
12654934666.666666 0.9267609446997864 -0.3756516356665726 -1.0286539773839839e-16 8.317269542985919e-17 -1.0286539773839839e-16 8.317269542985919e-17 0.9267612033614535 -0.37565099752808223
12655552000.0 0.9222774502670094 -0.3865285302908415 -1.0185243648555039e-16 8.436967446894938e-17 -1.0185243648555039e-16 8.436967446894938e-17 0.9222777164051827 -0.3865278952705142
12656169333.333334 0.9176663047424413 -0.3973519260556896 -1.0082555968497045e-16 8.555433226425399e-17 -1.0082555968497045e-16 8.555433226425399e-17 0.9176665783195591 -0.3973512942411096
12656786666.666666 0.9129281463481801 -0.4081203249105454 -9.978491702633438e-17 8.672650719546407e-17 -9.978491702633438e-17 8.672650719546407e-17 0.9129284273256529 -0.4081196963888443
12657404000.0 0.908063630885942 -0.418832236416985 -9.873066007457316e-17 8.788603945872686e-17 -9.873066007457316e-17 8.788603945872686e-17 0.9080639192241602 -0.4188316112748301
12658021333.333334 0.9030734316463855 -0.4294861779548132 -9.766294224783024e-17 8.903277108840979e-17 -9.766294224783024e-17 8.903277108840979e-17 0.9030737273047255 -0.4294855562783961
12658638666.666666 0.8979582393159561 -0.44008067492722447 -9.658191879522411e-17 9.016654597853302e-17 -9.658191879522411e-17 9.016654597853302e-17 0.897958542252783 -0.44008005680224777
12659256000.0 0.8927187618810886 -0.4506142609653075 -9.548774677428381e-17 9.128720990401827e-17 -9.548774677428381e-17 9.128720990401827e-17 0.8927190720537658 -0.4506136464769745
12659873333.333334 0.8873557245303348 -0.46108547813074513 -9.43805850282263e-17 9.239461054157175e-17 -9.43805850282263e-17 9.239461054157175e-17 0.8873560418952295 -0.46108486736374804
12660490666.666666 0.8818698695541535 -0.4714928771173052 -9.326059416294396e-17 9.348859749034464e-17 -9.326059416294396e-17 9.348859749034464e-17 0.8818701940666395 -0.471492270155812
12661108000.0 0.8762619562418277 -0.48183501745209173 -9.212793652372521e-17 9.456902229234073e-17 -9.212793652372521e-17 9.456902229234073e-17 0.876262287856296 -0.48183441437973656
12661725333.333334 0.8705327607766667 -0.4921104676943665 -9.098277617183188e-17 9.563573845245416e-17 -9.098277617183188e-17 9.563573845245416e-17 0.8705330994465275 -0.49210986859423556
12662342666.666666 0.8646830761284371 -0.5023178056339208 -8.982527886073656e-17 9.66886014583283e-17 -8.982527886073656e-17 9.66886014583283e-17 0.8646834218061302 -0.5023172105885436
12662960000.0 0.85871371194364 -0.5124556184878741 -8.865561201221879e-17 9.772746879984558e-17 -8.865561201221879e-17 9.772746879984558e-17 0.85871406458064 -0.5124550275792108
12663577333.333334 0.8526254944334768 -0.5225225030961658 -8.74739446921756e-17 9.875219998838466e-17 -8.74739446921756e-17 9.875219998838466e-17 0.8526258539803003 -0.5225219164055964
12664194666.666666 0.8464192662593788 -0.5325170661159596 -8.628044758625798e-17 9.97626565757434e-17 -8.628044758625798e-17 9.97626565757434e-17 0.8464196326655895 -0.5325164837242714
12664812000.0 0.8400958864165468 -0.5424379242141993 -8.507529297524447e-17 1.0075870217280784e-16 -8.507529297524447e-17 1.0075870217280784e-16 0.8400962596307655 -0.542437346201578
12665429333.333334 0.8336562301149483 -0.5522837042592741 -8.38586547102429e-17 1.0174020246788792e-16 -8.38586547102429e-17 1.0174020246788792e-16 0.833656610084858 -0.5522831307052906
12666046666.666666 0.8271011886582048 -0.5620530435110174 -8.263070818765273e-17 1.027070252447785e-16 -8.263070818765273e-17 1.027070252447785e-16 0.8271015753305581 -0.5620524744946177
12666664000.0 0.8204316693202309 -0.5717445898093254 -8.139163032391976e-17 1.0365904040051886e-16 -8.139163032391976e-17 1.0365904040051886e-16 0.8204320626408578 -0.57174402540882
12667281333.333334 0.8136485952196563 -0.5813570017613048 -8.014159953011397e-17 1.0459611996282771e-16 -8.014159953011397e-17 1.0459611996282771e-16 0.8136489951334736 -0.5813564420543587
12667898666.666666 0.8067529051920966 -0.5908889489268906 -7.88807956862837e-17 1.0551813810725075e-16 -7.88807956862837e-17 1.0551813810725075e-16 0.8067533116431125 -0.5908883939905103
12668516000.0 0.7997455536600735 -0.6003391120031715 -7.760940011559534e-17 1.0642497117401292e-16 -7.760940011559534e-17 1.0642497117401292e-16 0.7997459665913976 -0.6003385619136965
12669133333.333334 0.7926275105011135 -0.6097061830067163 -7.632759555835558e-17 1.0731649768450451e-16 -7.632759555835558e-17 1.0731649768450451e-16 0.7926279298549646 -0.6097056378398081
12669750666.666666 0.7853997609133808 -0.6189888654547978 -7.503556614573975e-17 1.0819259835753275e-16 -7.503556614573975e-17 1.0819259835753275e-16 0.7854001866310923 -0.6189883252854279
12670368000.0 0.7780633052793434 -0.6281858745447859 -7.373349737342176e-17 1.090531561251931e-16 -7.373349737342176e-17 1.090531561251931e-16 0.7780637373013758 -0.6281853394472283
