! Parameters = {f0=12700.012000; bw=77.238000; Q=6100.000000; N=10; m_0_1=1.218313; m_1_1=-0.490046; m_1_2=1.053125; m_2_2=-0.490695; m_2_3=0.690088; m_2_8=-0.002021; m_2_9=0.034683; m_3_3=-0.492632; m_3_4=0.578617; m_3_7=-0.001421; m_3_8=-0.098509; m_3_9=-0.002021; m_4_4=-0.495557; m_4_5=0.414952; m_4_6=0.002096; m_4_7=-0.119058; m_4_8=-0.001421; m_5_5=-0.495175; m_5_6=0.822307; m_5_7=0.002096; m_6_6=-0.495176; m_6_7=0.415294; m_7_7=-0.495543; m_7_8=0.578735; m_8_8=-0.492634; m_8_9=0.690401; m_9_9=-0.490700; m_9_10=1.054203; m_10_10=-0.490056; m_10_11=1.219108}
!
! Created with skrf (http://scikit-rf.org).
# Hz S RI R 50.0 
!freq ReS11 ImS11 ReS21 ImS21 ReS12 ImS12 ReS22 ImS22
12607400000.0 0.8386839077146164 0.5446184930209204 -8.257612771994572e-17 -2.4455291244701598e-17 -8.257612771994572e-17 -2.4455291244701598e-17 0.8386835580852608 0.5446190314314077
12608017333.333334 0.8435487308262152 0.5370526405496205 -8.277864507598017e-17 -2.3699558161616952e-17 -8.277864507598017e-17 -2.3699558161616952e-17 0.8435483860707975 0.537053182056666
12608634666.666666 0.8483453035665038 0.5294433358882654 -8.297425184137656e-17 -2.2942165277075993e-17 -8.297425184137656e-17 -2.2942165277075993e-17 0.8483449637124395 0.5294438804477558
12609252000.0 0.8530732378514044 0.5217911946953094 -8.316293458433244e-17 -2.218317573020348e-17 -8.316293458433244e-17 -2.218317573020348e-17 0.8530729029257095 0.5217917422628886
12609869333.333334 0.8577321511503436 0.5140968360949547 -8.334468044944078e-17 -2.1422652767102742e-17 -8.334468044944078e-17 -2.1422652767102742e-17 0.8577318211796315 0.5140973866260266
12610486666.666666 0.8623216665170204 0.5063608826273471 -8.351947715852691e-17 -2.0660659735591085e-17 -8.351947715852691e-17 -2.0660659735591085e-17 0.8623213415275032 0.5063614360770817
12611104000.0 0.8668414126201902 0.49858396019775014 -8.368731301143592e-17 -1.9897260079928543e-17 -8.368731301143592e-17 -1.9897260079928543e-17 0.8668410926376724 0.4985845165210843
12611721333.333334 0.8712910237733816 0.49076669802643536 -8.384817688676848e-17 -1.913251733556252e-17 -8.384817688676848e-17 -1.913251733556252e-17 0.8712907088232622 0.49076725717807934
12612338666.666666 0.8756701399647496 0.48290972859733683 -8.400205824257207e-17 -1.836649512384758e-17 -8.400205824257207e-17 -1.836649512384758e-17 0.8756698300720162 0.48291029053177525
12612956000.0 0.8799784068860839 0.4750136876070707 -8.414894711698764e-17 -1.7599257146746124e-17 -8.414894711698764e-17 -1.7599257146746124e-17 0.8799781020753132 0.4750142522785683
12613573333.333334 0.8842154759614639 0.4670792139135285 -8.428883412883539e-17 -1.6830867181584084e-17 -8.428883412883539e-17 -1.6830867181584084e-17 0.8842151762568189 0.4670797812761326
12614190666.666666 0.888381004375491 0.459106949484139 -8.442171047817006e-17 -1.6061389075718907e-17 -8.442171047817006e-17 -1.6061389075718907e-17 0.8883807098007196 0.45910751949168405
12614808000.0 0.8924746551010625 0.4510975393438505 -8.454756794677269e-17 -1.5290886741277888e-17 -8.454756794677269e-17 -1.5290886741277888e-17 0.8924743656794955 0.45109811194996136
12615425333.333334 0.8964960969265505 0.44305163152312066 -8.46663988986046e-17 -1.4519424149840592e-17 -8.46663988986046e-17 -1.4519424149840592e-17 0.8964958126810981 0.4430522066812162
12616042666.666666 0.9004450044826992 0.43496987700528095 -8.477819628020602e-17 -1.3747065327159296e-17 -8.477819628020602e-17 -1.3747065327159296e-17 0.9004447254358524 0.4349704546685788
12616660000.0 0.9043210582688658 0.42685292967404653 -8.488295362105292e-17 -1.297387434783848e-17 -8.488295362105292e-17 -1.297387434783848e-17 0.9043207844426915 0.4268535097955656
12617277333.333334 0.9081239446789163 0.4187014462605071 -8.49806650338592e-17 -1.2199915330048486e-17 -8.49806650338592e-17 -1.2199915330048486e-17 0.9081236760950584 0.41870202879307267
12617894666.666666 0.9118533560265821 0.4105160862900465 -8.507132521483598e-17 -1.1425252430213708e-17 -8.507132521483598e-17 -1.1425252430213708e-17 0.9118530927062556 0.4105166711862923
12618512000.0 0.9155089905703909 0.40229751202887337 -8.515492944390058e-17 -1.0649949837699436e-17 -8.515492944390058e-17 -1.0649949837699436e-17 0.9155087325343853 0.4022980992412476
12619129333.333334 0.9190905525380186 0.39404638843059697 -8.523147358483616e-17 -9.874071769520069e-18 -8.523147358483616e-17 -9.874071769520069e-18 0.9190902998066937 0.39404697791136495
12619746666.666666 0.9225977521502416 0.38576338308237457 -8.530095408540445e-17 -9.09768246502761e-18 -8.530095408540445e-17 -9.09768246502761e-18 0.9225975047435246 0.38576397478362234
12620364000.0 0.9260303056444689 0.37744916615068697 -8.536336797741244e-17 -8.320846180585911e-18 -8.536336797741244e-17 -8.320846180585911e-18 0.926030063581856 0.37744976002432623
12620981333.333334 0.9293879352975157 0.36910441032756364 -8.54187128767244e-17 -7.543627184306224e-18 -8.54187128767244e-17 -7.543627184306224e-18 0.9293876985980674 0.36910500632533433
12621598666.666666 0.9326703694482683 0.3607297907756817 -8.54669869832341e-17 -6.766089750698903e-18 -8.54669869832341e-17 -6.766089750698903e-18 0.9326701381306111 0.3607303888491574
12622216000.0 0.9358773425195278 0.35232598507408364 -8.550818908078188e-17 -5.988298155401945e-18 -8.550818908078188e-17 -5.988298155401945e-18 0.9358771166018489 0.3523265851746741
12622833333.333334 0.9390085950395959 0.34389367316308866 -8.55423185370283e-17 -5.21031666985561e-18 -8.55423185370283e-17 -5.21031666985561e-18 0.9390083745396451 0.3438942752420447
12623450666.666666 0.942063873663152 0.3354335372896003 -8.556937530327606e-17 -4.4322095560329675e-18 -8.556937530327606e-17 -4.4322095560329675e-18 0.942063658598239 0.3354341412980173
12624068000.0 0.9450429311918793 0.3269462619515596 -8.558935991424765e-17 -3.6540410611125e-18 -8.558935991424765e-17 -3.6540410611125e-18 0.945042721578872 0.32694686784038185
12624685333.333334 0.9479455265944022 0.318432533842723 -8.560227348781133e-17 -2.8758754122025945e-18 -8.560227348781133e-17 -2.8758754122025945e-18 0.9479453224497268 0.31843314156274755
12625302666.666666 0.9507714250257304 0.3098930417972924 -8.560811772466191e-17 -2.097776811057695e-18 -8.560811772466191e-17 -2.097776811057695e-18 0.9507712263653672 0.3098936512991723
12625920000.0 0.9535203978464161 0.30132847673369617 -8.560689490795183e-17 -1.3198094287766016e-18 -8.560689490795183e-17 -1.3198094287766016e-18 0.9535202046859016 0.30132908796794583
12626537333.333334 0.9561922226408696 0.2927395315992555 -8.559860790287524e-17 -5.420374005370864e-19 -8.559860790287524e-17 -5.420374005370864e-19 0.9561920349952934 0.2927401445162537
12627154666.666666 0.9587866832354787 0.2841269013137408 -8.55832601562043e-17 2.354751796742457e-19 -8.55832601562043e-17 2.354751796742457e-19 0.958786501119483 0.28412751586373525
12627772000.0 0.9613035697160779 0.2754912827132002 -8.556085569577691e-17 1.0126642643655453e-18 -8.556085569577691e-17 1.0126642643655453e-18 0.961303393143856 0.2754918988463112
12628389333.333334 0.9637426784448847 0.2668333744937426 -8.553139912993822e-17 1.7894658577498452e-18 -8.553139912993822e-17 1.7894658577498452e-18 0.9637425074301808 0.26683399215996745
12629006666.666666 0.9661038120770324 0.25815387715481697 -8.549489564693216e-17 2.5658160210583073e-18 -8.549489564693216e-17 2.5658160210583073e-18 0.966103646633139 0.25815449630403375
12629624000.0 0.9683867795765108 0.24945349294261673 -8.545135101424822e-17 3.3416508777445885e-18 -8.545135101424822e-17 3.3416508777445885e-18 0.9683866197162683 0.24945411352458838
12630241333.333334 0.9705913962316103 0.24073292579331781 -8.540077157791807e-17 4.11690661876224e-18 -8.540077157791807e-17 4.11690661876224e-18 0.970591241967406 0.24073354775769615
12630858666.666666 0.9727174836698812 0.23199288127606899 -8.53431642617677e-17 4.891519507766483e-18 -8.53431642617677e-17 4.891519507766483e-18 0.9727173350136485 0.23199350457239903
12631476000.0 0.974764869872585 0.22323406653582228 -8.527853656661757e-17 5.6654258863880085e-18 -8.527853656661757e-17 5.6654258863880085e-18 0.9747647268358031 0.2232346911135463
12632093333.333334 0.9767333891885792 0.21445719023625714 -8.520689656944212e-17 6.43856217940132e-18 -8.520689656944212e-17 6.43856217940132e-18 0.9767332517822706 0.21445781604471853
12632710666.666666 0.9786228823477124 0.20566296250247074 -8.512825292247575e-17 7.210864899969019e-18 -8.512825292247575e-17 7.210864899969019e-18 0.9786227505824443 0.20566358949091856
12633328000.0 0.9804331964737666 0.19685209486330232 -8.504261485227494e-17 7.982270654835542e-18 -8.504261485227494e-17 7.982270654835542e-18 0.9804330703596477 0.19685272298089482
12633945333.333334 0.98216418509678 0.18802530019392896 -8.494999215873321e-17 8.752716149516033e-18 -8.494999215873321e-17 8.752716149516033e-18 0.9821640646434606 0.18802592938973803
12634562666.666666 0.9838157081648916 0.1791832926582443 -8.485039521404909e-17 9.522138193470173e-18 -8.485039521404909e-17 9.522138193470173e-18 0.9838155933815651 0.17918392288125992
12635180000.0 0.9853876320557153 0.1703267876508826 -8.4743834961646e-17 1.0290473705289653e-17 -8.4743834961646e-17 1.0290473705289653e-17 0.9853875229511126 0.17032741885001615
12635797333.333334 0.986879829587104 0.16145650173953027 -8.463032291504755e-17 1.1057659717840694e-17 -8.463032291504755e-17 1.1057659717840694e-17 0.986879726169498 0.16145713386361957
12636414666.666666 0.9882921800274699 0.1525731526068397 -8.450987115670495e-17 1.1823633383421842e-17 -8.450987115670495e-17 1.1823633383421842e-17 0.9882920823046716 0.1525737856046525
12637032000.0 0.9896245691055374 0.14367745899241738 -8.438249233677808e-17 1.2588331978895257e-17 -8.438249233677808e-17 1.2588331978895257e-17 0.9896244770848971 0.14367809281265587
12637649333.333334 0.9908768890196094 0.13477014063455967 -8.424819967186956e-17 1.3351692910820298e-17 -8.424819967186956e-17 1.3351692910820298e-17 0.9908768027080148 0.13477077522586453
12638266666.666666 0.992049038446257 0.1258519182122165 -8.41070069437156e-17 1.4113653720547913e-17 -8.41070069437156e-17 1.4113653720547913e-17 0.9920489578501333 0.12585255352317093
12638884000.0 0.9931409225485526 0.11692351328645717 -8.395892849782579e-17 1.4874152089337936e-17 -8.395892849782579e-17 1.4874152089337936e-17 0.9931408476738616 0.11692414926559123
12639501333.333334 0.9941524529837116 0.10798564824228665 -8.38039792420824e-17 1.5633125843426903e-17 -8.38039792420824e-17 1.5633125843426903e-17 0.9941523838359524 0.10798628483808141
12640118666.666666 0.9950835479102556 0.09903904623014292 -8.364217464529084e-17 1.6390512959103568e-17 -8.364217464529084e-17 1.6390512959103568e-17 0.9950834844944629 0.09903968339103451
12640736000.0 0.9959341319946524 0.09008443110713245 -8.347353073568031e-17 1.7146251567784054e-17 -8.347353073568031e-17 1.7146251567784054e-17 0.9959340743153975 0.09008506878151648
12641353333.333334 0.9967041364173584 0.08112252737905862 -8.329806409937191e-17 1.7900279961015542e-17 -8.329806409937191e-17 1.7900279961015542e-17 0.9967040844787467 0.08112316551529399
12641970666.666666 0.9973934988784463 0.07215406014112337 -8.311579187878592e-17 1.8652536595533367e-17 -8.311579187878592e-17 1.8652536595533367e-17 0.9973934526841195 0.07215469868753682
12642588000.0 0.9980021636026069 0.06317975501974232 -8.292673177101208e-17 1.9402960098267083e-17 -8.292673177101208e-17 1.9402960098267083e-17 0.9980021231557408 0.06318039392463233
12643205333.333334 0.998530081343678 0.054200338113580084 -8.2730902026137e-17 2.0151489271318694e-17 -8.2730902026137e-17 2.0151489271318694e-17 0.9985300466469847 0.05420097732522136
12643822666.666666 0.9989772093886253 0.04521653593491637 -8.252832144551653e-17 2.089806309696932e-17 -8.252832144551653e-17 2.089806309696932e-17 0.9989771804443496 0.04521717540156366
12644440000.0 0.9993435115609977 0.03622907535077929 -8.231900938001717e-17 2.164262074261016e-17 -8.231900938001717e-17 2.164262074261016e-17 0.9993434883709202 0.03622971502067191
12645057333.333334 0.9996289582238501 0.027238683524334686 -8.210298572820077e-17 2.238510156570812e-17 -8.210298572820077e-17 2.238510156570812e-17 0.9996289407892844 0.02723932334570047
12645674666.666666 0.9998335262821487 0.018246087855825037 -8.188027093447446e-17 2.312544511871389e-17 -8.188027093447446e-17 2.312544511871389e-17 0.9998335146039437 0.018246727776884672
12646292000.0 0.9999571991846379 0.00925201592374486 -8.16508859871812e-17 2.386359115400546e-17 -8.16508859871812e-17 2.386359115400546e-17 0.9999571932631763 0.009252655892715995
12646909333.333334 0.9999999669251751 0.00025719542611542094 -8.14148524166713e-17 2.459947962873e-17 -8.14148524166713e-17 2.459947962873e-17 0.9999999667603741 0.00025783539121690093
12647526666.666666 0.999961826043545 -0.008737645878449116 -8.117219229330245e-17 2.5333050709716998e-17 -8.117219229330245e-17 2.5333050709716998e-17 0.9999618316348559 -0.008737005968993085
12648144000.0 0.9998427796257365 -0.017731780229822594 -8.092292822541501e-17 2.606424477830987e-17 -8.092292822541501e-17 2.606424477830987e-17 0.9998427909721453 -0.017731140427778253
12648761333.333334 0.9996428373036946 -0.026724479924936328 -8.066708335725471e-17 2.6793002435207996e-17 -8.066708335725471e-17 2.6793002435207996e-17 0.9996428544037202 -0.02672384028205614
12649378666.666666 0.9993620152545405 -0.03571501737674174 -8.040468136686087e-17 2.7519264505261253e-17 -8.040468136686087e-17 2.7519264505261253e-17 0.9993620381062398 -0.035714377944760324
12649996000.0 0.9990003361992635 -0.04470266517330596 -8.013574646389518e-17 2.824297204229226e-17 -8.013574646389518e-17 2.824297204229226e-17 0.9990003648002246 -0.04470202600393571
12650613333.333334 0.9985578294008807 -0.0536866961363813 -7.986030338744627e-17 2.89640663338429e-17 -7.986030338744627e-17 2.89640663338429e-17 0.998557863748229 -0.05368605728130841
12651230666.666666 0.9980345306620736 -0.06266638338035418 -7.957837740377994e-17 2.968248890593425e-17 -7.957837740377994e-17 2.968248890593425e-17 0.9980345707524692 -0.0626657448912343
12651848000.0 0.9974304823222844 -0.07164100037111297 -7.928999430404747e-17 3.039818152779993e-17 -7.928999430404747e-17 3.039818152779993e-17 0.9974305281519236 -0.07164036229956716
12652465333.333334 0.9967457332542919 -0.0806098209848025 -7.899518040195511e-17 3.1111086216591214e-17 -7.899518040195511e-17 3.1111086216591214e-17 0.9967457848189071 -0.08060918338241303
12653082666.666666 0.9959803388602763 -0.08957211956634724 -7.869396253139706e-17 3.1821145242043944e-17 -7.869396253139706e-17 3.1821145242043944e-17 0.995980396155135 -0.08957148248465324
12653700000.0 0.9951343610672923 -0.09852717098867261 -7.838636804402305e-17 3.252830113118101e-17 -7.838636804402305e-17 3.252830113118101e-17 0.9951344240872005 -0.09852653447916622
12654317333.333334 0.9942078683223152 -0.10747425071075137 -7.807242480680105e-17 3.323249667290255e-17 -7.807242480680105e-17 3.323249667290255e-17 0.9942079370616154 -0.1074736148248733
12654934666.666666 0.9932009355866562 -0.1164126348367346 -7.775216119950141e-17 3.3933674922641916e-17 -7.775216119950141e-17 3.3933674922641916e-17 0.9932010100392291 -0.11641199962587018
12655552000.0 0.9921136443299158 -0.12534160017429452 -7.742560611216221e-17 3.4631779206941875e-17 -7.742560611216221e-17 3.4631779206941875e-17 0.992113724489181 -0.1253409656897695
12656169333.333334 0.9909460825234001 -0.1342604242931093 -7.709278894251444e-17 3.5326753128009644e-17 -7.709278894251444e-17 3.5326753128009644e-17 0.9909461683823154 -0.1342597905861855
12656786666.666666 0.9896983446329907 -0.14316838558339806 -7.675373959334612e-17 3.601854056828871e-17 -7.675373959334612e-17 3.601854056828871e-17 0.9896984361840537 -0.14316775270526955
12657404000.0 0.9883705316115104 -0.15206476331424962 -7.64084884698513e-17 3.670708569495101e-17 -7.64084884698513e-17 3.670708569495101e-17 0.9883706288467586 -0.15206413131603824
12658021333.333334 0.9869627508905336 -0.16094883769207563 -7.605706647691648e-17 3.739233296441208e-17 -7.605706647691648e-17 3.739233296441208e-17 0.9869628538015456 -0.16094820662482717
12658638666.666666 0.9854751163717446 -0.16981988991851146 -7.569950501639058e-17 3.8074227126770546e-17 -7.569950501639058e-17 3.8074227126770546e-17 0.985475224949641 -0.16981925983319146
12659256000.0 0.9839077484176456 -0.17867720224907863 -7.533583598428214e-17 3.875271323028865e-17 -7.533583598428214e-17 3.875271323028865e-17 0.9839078626530893 -0.17867657319656813
12659873333.333334 0.9822607738418915 -0.18752005805077887 -7.496609176795462e-17 3.942773662577112e-17 -7.496609176795462e-17 3.942773662577112e-17 0.9822608937250881 -0.18751943008187044
12660490666.666666 0.9805343258989971 -0.19634774186030152 -7.459030524325512e-17 4.0099242970971144e-17 -7.459030524325512e-17 4.0099242970971144e-17 0.9805344514196964 -0.19634711502569493
12661108000.0 0.9787285442735388 -0.20515953944196463 -7.420850977161009e-17 4.076717823495611e-17 -7.420850977161009e-17 4.076717823495611e-17 0.9787286754210367 -0.2051589137922634
12661725333.333334 0.9768435750688907 -0.2139547378453371 -7.382073919709193e-17 4.143148870242951e-17 -7.382073919709193e-17 4.143148870242951e-17 0.976843711832028 -0.2139541134310436
12662342666.666666 0.9748795707953863 -0.22273262546300568 -7.342702784343592e-17 4.2092120978043744e-17 -7.342702784343592e-17 4.2092120978043744e-17 0.9748797131625498 -0.2227320023345173
12662960000.0 0.9728366903579552 -0.2314924920882322 -7.302741051101904e-17 4.2749021990684974e-17 -7.302741051101904e-17 4.2749021990684974e-17 0.9728368383170805 -0.23149187029583765
12663577333.333334 0.9707150990433158 -0.24023362897222275 -7.262192247381261e-17 4.340213899770875e-17 -7.262192247381261e-17 4.340213899770875e-17 0.970715252581889 -0.24023300856609814
12664194666.666666 0.9685149685065517 -0.24895532888169328 -7.221059947627898e-17 4.405141958917807e-17 -7.221059947627898e-17 4.405141958917807e-17 0.9685151276116047 -0.24895470991189658
12664812000.0 0.9662364767572624 -0.2576568861558954 -7.179347773025003e-17 4.469681169203919e-17 -7.179347773025003e-17 4.469681169203919e-17 0.9662366414153797 -0.2576562686723642
12665429333.333334 0.9638798081451394 -0.26633759676382274 -7.137059391174732e-17 4.533826357430295e-17 -7.137059391174732e-17 4.533826357430295e-17 0.9638799783424591 -0.2663369808163696
12666046666.666666 0.9614451533450653 -0.2749967583611176 -7.094198515779331e-17 4.597572384915175e-17 -7.094198515779331e-17 4.597572384915175e-17 0.9614453290672779 -0.27499614399942585
12666664000.0 0.9589327093416536 -0.2836336703470059 -7.050768906314405e-17 4.660914147908081e-17 -7.050768906314405e-17 4.660914147908081e-17 0.9589328905740035 -0.2836330576206257
12667281333.333334 0.9563426794133594 -0.29224763392081815 -7.006774367703953e-17 4.7238465779926856e-17 -7.006774367703953e-17 4.7238465779926856e-17 0.9563428661406458 -0.29224702287916215
12667898666.666666 0.9536752731160141 -0.3008379521385826 -6.962218749986476e-17 4.786364642494627e-17 -6.962218749986476e-17 4.786364642494627e-17 0.9536754653225953 -0.3008373428309231
12668516000.0 0.9509307062658071 -0.30940392996963206 -6.917105947980914e-17 4.848463344880959e-17 -6.917105947980914e-17 4.848463344880959e-17 0.950930903935599 -0.3094033224450959
12669133333.333334 0.9481092009219672 -0.3179448743523762 -6.871439900948194e-17 4.9101377251579865e-17 -6.871439900948194e-17 4.9101377251579865e-17 0.9481094040384446 -0.3179442686599412
12669750666.666666 0.9452109853686408 -0.3264600942508642 -6.825224592248729e-17 4.9713828602664035e-17 -6.825224592248729e-17 4.9713828602664035e-17 0.9452111939148394 -0.3264594904393548
12670368000.0 0.9422362940965255 -0.33494890071036987 -6.778464048996162e-17 5.0321938644736705e-17 -6.778464048996162e-17 5.0321938644736705e-17 0.9422365080550443 -0.3349482988284543
