! Parameters = {f0=12700.012000; bw=77.238000; Q=6100.000000; N=10; m_0_1=1.289585; m_1_1=0.579023; m_1_2=1.124397; m_2_2=0.578374; m_2_3=0.761360; m_2_8=0.001543; m_2_9=0.038247; m_3_3=0.576437; m_3_4=0.649889; m_3_7=0.002143; m_3_8=-0.094945; m_3_9=0.001543; m_4_4=0.573512; m_4_5=0.486224; m_4_6=0.005660; m_4_7=-0.115494; m_4_8=0.002143; m_5_5=0.573894; m_5_6=0.893579; m_5_7=0.005660; m_6_6=0.573893; m_6_7=0.486566; m_7_7=0.573526; m_7_8=0.650007; m_8_8=0.576435; m_8_9=0.761673; m_9_9=0.578369; m_9_10=1.125475; m_10_10=0.579013; m_10_11=1.290380}
!
! Created with skrf (http://scikit-rf.org).
# Hz S RI R 50.0 
!freq ReS11 ImS11 ReS21 ImS21 ReS12 ImS12 ReS22 ImS22
12607400000.0 0.07010955977357622 0.9975392972851617 -4.248695704823462e-17 -1.1350374834831825e-16 -4.248695704823462e-17 -1.1350374834831825e-16 0.07010888205177286 0.9975393449169153
12608017333.333334 0.08117961213452901 0.9966994885989985 -4.3745878039516227e-17 -1.1299906462581187e-16 -4.3745878039516227e-17 -1.1299906462581187e-16 0.08117893501643633 0.996699543748975
12608634666.666666 0.09223965899704639 0.995736835367622 -4.4998827635185916e-17 -1.1248042736651409e-16 -4.4998827635185916e-17 -1.1248042736651409e-16 0.09223898256605687 0.9957368980282876
12609252000.0 0.10328833719559218 0.9946514562394151 -4.624565128754765e-17 -1.119479069750826e-16 -4.624565128754765e-17 -1.119479069750826e-16 0.10328766153500547 0.9946515264023116
12609869333.333334 0.11432428496577811 0.9934434849888951 -4.7486195276363327e-17 -1.1140157556669135e-16 -4.7486195276363327e-17 -1.1140157556669135e-16 0.1143236101587909 0.9934435626446418
12610486666.666666 0.12534614211223222 0.9921130705002322 -4.872030672775495e-17 -1.108415069573413e-16 -4.872030672775495e-17 -1.108415069573413e-16 0.12534546824192763 0.9921131556385241
12611104000.0 0.13635255017644132 0.9906603767488635 -4.994783363304676e-17 -1.1026777665393684e-16 -4.994783363304676e-17 -1.1026777665393684e-16 0.13635187732577894 0.9906604693584747
12611721333.333334 0.14734215260381622 0.9890855827813338 -5.116862486739786e-17 -1.0968046184419803e-16 -5.116862486739786e-17 -1.0968046184419803e-16 0.14734148085562218 0.9890856828501212
12612338666.666666 0.158313594911172 0.9873888826931968 -5.238253020842346e-17 -1.0907964138631804e-16 -5.238253020842346e-17 -1.0907964138631804e-16 0.15831292434812796 0.987388990208095
12612956000.0 0.16926552485369578 0.9855704856050737 -5.3589400354632626e-17 -1.0846539579844274e-16 -5.3589400354632626e-17 -1.0846539579844274e-16 0.1692648555583296 0.9855706005521043
12613573333.333334 0.18019659259124937 0.9836306156369483 -5.4789086943732326e-17 -1.0783780724795484e-16 -5.4789086943732326e-17 -1.0783780724795484e-16 0.18019592464592432 0.9836307380012167
12614190666.666666 0.19110545085518685 0.9815695118804657 -5.59814425708617e-17 -1.071969595405275e-16 -5.59814425708617e-17 -1.071969595405275e-16 0.191104784342092 0.9815696416461648
12614808000.0 0.20199075511415504 0.9793874283695043 -5.716632080665329e-17 -1.0654293810900019e-16 -5.716632080665329e-17 -1.0654293810900019e-16 0.20199009011529506 0.9793875655199186
12615425333.333334 0.21285116373986568 0.9770846340488644 -5.834357621518364e-17 -1.0587583000204637e-16 -5.834357621518364e-17 -1.0587583000204637e-16 0.21285050033705016 0.9770847785663663
12616042666.666666 0.22368533817245137 0.9746614127411085 -5.951306437178933e-17 -1.0519572387264451e-16 -5.951306437178933e-17 -1.0519572387264451e-16 0.2236846764472855 0.9746615646071669
12616660000.0 0.23449194308544632 0.9721180631115908 -6.067464188074967e-17 -1.0450270996635314e-16 -6.067464188074967e-17 -1.0450270996635314e-16 0.23449128311932033 0.9721182223067691
12617277333.333334 0.2452696465504208 0.9694548986316228 -6.182816639283924e-17 -1.0379688010938725e-16 -6.182816639283924e-17 -1.0379688010938725e-16 0.24526898842450043 0.9694550651355843
12617894666.666666 0.25601712020089673 0.9666722475399091 -6.297349662271078e-17 -1.0307832769652183e-16 -6.297349662271078e-17 -1.0307832769652183e-16 0.2560164639961127 0.9666724213314174
12618512000.0 0.2667330393965373 0.9637704528019645 -6.411049236621379e-17 -1.0234714767875629e-16 -6.411049236621379e-17 -1.0234714767875629e-16 0.26673238519357595 0.9637706338588884
12619129333.333334 0.2774160833859167 0.9607498720679786 -6.523901451746932e-17 -1.0160343655085321e-16 -6.523901451746932e-17 -1.0160343655085321e-16 0.2774154312652096 0.9607500603672923
12619746666.666666 0.28806493546960577 0.9576108776286484 -6.635892508588447e-17 -1.0084729233863486e-16 -6.635892508588447e-17 -1.0084729233863486e-16 0.2880642855113202 0.9576110731464371
12620364000.0 0.29867828316245704 0.9543538563692956 -6.747008721298886e-17 -1.0007881458611352e-16 -6.747008721298886e-17 -1.0007881458611352e-16 0.29867763544648546 0.9543540590807554
12620981333.333334 0.3092548183551244 0.9509792097222511 -6.857236518909756e-17 -9.929810434245461e-17 -6.857236518909756e-17 -9.929810434245461e-17 0.3092541729610757 0.9509794196016961
12621598666.666666 0.31979323747558935 0.9474873536172925 -6.966562446987737e-17 -9.85052641487196e-17 -6.966562446987737e-17 -9.85052641487196e-17 0.319792594482778 0.9474875706381541
12622216000.0 0.3302922416495832 0.9438787184304518 -7.074973169271837e-17 -9.770039802445627e-17 -7.074973169271837e-17 -9.770039802445627e-17 0.33029160113702044 0.9438789425652856
12622833333.333334 0.3407505368608917 0.9401537489309035 -7.18245546929736e-17 -9.688361145409365e-17 -7.18245546929736e-17 -9.688361145409365e-17 0.34074989890727503 0.94015398015139
12623450666.666666 0.351166834110629 0.9363129042262192 -7.288996252001237e-17 -9.60550113731816e-17 -7.288996252001237e-17 -9.60550113731816e-17 0.35116619879433264 0.9363131425031677
12624068000.0 0.3615398495762687 0.9323566577057232 -7.394582545316712e-17 -9.52147061544147e-17 -7.394582545316712e-17 -9.52147061544147e-17 0.36153921697533514 0.9323569030090784
12624685333.333334 0.371868304769904 0.9282854969821381 -7.499201501748185e-17 -9.436280559351047e-17 -7.499201501748185e-17 -9.436280559351047e-17 0.37186767496203244 0.9282857492809798
12625302666.666666 0.382150926695557 0.9240999238315873 -7.602840399928286e-17 -9.349942089492862e-17 -7.602840399928286e-17 -9.349942089492862e-17 0.3821502997580951 0.9241001830941369
12625920000.0 0.3923864480064991 0.9198004541315797 -7.705486646164872e-17 -9.262466465736707e-17 -7.705486646164872e-17 -9.262466465736707e-17 0.3923858240164335 0.9198007203252033
12626537333.333334 0.40257360716098206 0.915387617797627 -7.807127775964178e-17 -9.173865085915142e-17 -7.807127775964178e-17 -9.173865085915142e-17 0.402572986194928 0.915387890888839
12627154666.666666 0.4127111485780369 0.9108619587177934 -7.907751455540735e-17 -9.084149484342524e-17 -7.907751455540735e-17 -9.084149484342524e-17 0.4127105307122305 0.9108622386722636
12627772000.0 0.4227978227922805 0.9062240346856433 -8.00734548331457e-17 -8.993331330314064e-17 -8.00734548331457e-17 -8.993331330314064e-17 0.4227972081025671 0.9062243214681966
12628389333.333334 0.43283238660757256 0.9014744173316354 -8.105897791379639e-17 -8.901422426598648e-17 -8.105897791379639e-17 -8.901422426598648e-17 0.43283177516939964 0.9014747109062599
12629006666.666666 0.44281360325063246 0.8966136920524975 -8.203396446968799e-17 -8.808434707903296e-17 -8.203396446968799e-17 -8.808434707903296e-17 0.4428129951390389 0.8966139923823477
12629624000.0 0.45274024252318723 0.8916424579392035 -8.299829653890573e-17 -8.71438023933132e-17 -8.299829653890573e-17 -8.71438023933132e-17 0.45273963781279497 0.891642764986605
12630241333.333334 0.4626110809537765 0.8865613277030514 -8.395185753954154e-17 -8.619271214819493e-17 -8.395185753954154e-17 -8.619271214819493e-17 0.46261047971878055 0.886561641429505
12630858666.666666 0.472424901948292 0.8813709276002726 -8.489453228373269e-17 -8.523119955562712e-17 -8.489453228373269e-17 -8.523119955562712e-17 0.4724243042624525 0.8813712479664608
12631476000.0 0.4821804959403553 0.876071897354625 -8.582620699156198e-17 -8.425938908419286e-17 -8.582620699156198e-17 -8.425938908419286e-17 0.48217990187698684 0.8760722243204144
12632093333.333334 0.49187666053996704 0.8706648900787652 -8.674676930472094e-17 -8.327740644306666e-17 -8.674676930472094e-17 -8.327740644306666e-17 0.49187607017193163 0.870665223603215
12632710666.666666 0.5015122006818848 0.8651505721936686 -8.7656108300024e-17 -8.22853785657897e-17 -8.7656108300024e-17 -8.22853785657897e-17 0.5015116140815806 0.8651509122350309
12633328000.0 0.5110859287730339 0.8595296233464108 -8.855411450275759e-17 -8.128343359387434e-17 -8.855411450275759e-17 -8.128343359387434e-17 0.5110853460123894 0.8595299698621419
12633945333.333334 0.5205966648386868 0.8538027363265204 -8.944067989978731e-17 -8.027170086032445e-17 -8.944067989978731e-17 -8.027170086032445e-17 0.5205960859891491 0.8538030892732807
12634562666.666666 0.5300432366679183 0.8479706169805739 -9.031569795252135e-17 -7.925031087296559e-17 -9.031569795252135e-17 -7.925031087296559e-17 0.5300426618004455 0.8479709763142353
12635180000.0 0.5394244799582066 0.8420339841251283 -9.117906360966769e-17 -7.821939529765169e-17 -9.117906360966769e-17 -7.821939529765169e-17 0.5394239091432592 0.8420343498007808
12635797333.333334 0.5487392384588597 0.8359935694581685 -9.203067331980475e-17 -7.717908694132865e-17 -9.203067331980475e-17 -7.717908694132865e-17 0.5487386717663921 0.8359939414301248
12636414666.666666 0.5579863641134551 0.8298501174689725 -9.287042504374916e-17 -7.612951973497507e-17 -9.287042504374916e-17 -7.612951973497507e-17 0.5579858016129061 0.8298504956907727
12637032000.0 0.5671647172014804 0.8236043853462558 -9.369821826675019e-17 -7.507082871638215e-17 -9.369821826675019e-17 -7.507082871638215e-17 0.5671641589617673 0.8236047697706771
12637649333.333334 0.5762731664787138 0.8172571428849158 -9.451395401046742e-17 -7.400315001282823e-17 -9.451395401046742e-17 -7.400315001282823e-17 0.5762726125682203 0.817257533463973
12638266666.666666 0.5853105893166938 0.8108091723911144 -9.531753484476437e-17 -7.292662082360821e-17 -9.531753484476437e-17 -7.292662082360821e-17 0.5853100398032638 0.810809569076069
12638884000.0 0.5942758718409955 0.8042612685859268 -9.610886489929122e-17 -7.184137940245151e-17 -9.610886489929122e-17 -7.184137940245151e-17 0.5942753267919243 0.804261671327293
12639501333.333334 0.6031679090686763 0.7976142385072748 -9.688784987489028e-17 -7.074756503978501e-17 -9.688784987489028e-17 -7.074756503978501e-17 0.603167368550703 0.7976146472548251
12640118666.666666 0.6119856050442408 0.7908689014106284 -9.76543970547663e-17 -6.96453180449202e-17 -9.76543970547663e-17 -6.96453180449202e-17 0.6119850691235386 0.7908693161133996
12640736000.0 0.6207278729750998 0.784026088667736 -9.840841531550705e-17 -6.853477972804404e-17 -9.840841531550705e-17 -6.853477972804404e-17 0.6207273417172697 0.7840265092740366
12641353333.333334 0.6293936353649809 0.7770866436645748 -9.914981513782105e-17 -6.7416092382207e-17 -9.914981513782105e-17 -6.7416092382207e-17 0.6293931088350426 0.7770870701219907
12641970666.666666 0.6379818241472246 0.7700514216970189 -9.987850861715695e-17 -6.628939926506839e-17 -9.987850861715695e-17 -6.628939926506839e-17 0.6379813024096087 0.7700518539524194
12642588000.0 0.6464913808161127 0.7629212898656689 -1.0059440947405736e-16 -6.51548445806157e-17 -1.0059440947405736e-16 -6.51548445806157e-17 0.646490863934653 0.7629217278652148
12643205333.333334 0.6549212565574855 0.7556971269688564 -1.0129743306432577e-16 -6.401257346074108e-17 -1.0129743306432577e-16 -6.401257346074108e-17 0.6549207445954113 0.7556975706580055
12643822666.666666 0.6632704123780079 0.7483798233943292 -1.0198749638899087e-16 -6.286273194670079e-17 -1.0198749638899087e-16 -6.286273194670079e-17 0.6632699053979352 0.7483802727178426
12644440000.0 0.6715378192331397 0.7409702810095817 -1.0266451810404572e-16 -6.170546697049042e-17 -1.0266451810404572e-16 -6.170546697049042e-17 0.6715373172970655 0.7409707359115328
12645057333.333334 0.6797224581539906 0.7334694130506841 -1.0332841852997915e-16 -6.054092633611409e-17 -1.0332841852997915e-16 -6.054092633611409e-17 0.679721961323284 0.7334698734744645
12645674666.666666 0.6878233203729107 0.7258781440097256 -1.0397911966111e-16 -5.936925870072482e-17 -1.0397911966111e-16 -5.936925870072482e-17 0.6878228287083044 0.7258786098980495
12646292000.0 0.6958394074479847 0.7181974095207097 -1.0461654517470261e-16 -5.819061355567404e-17 -1.0461654517470261e-16 -5.819061355567404e-17 0.69583892100957 0.718197880815626
12646909333.333334 0.7037697313857416 0.71042815624457 -1.0524062043984345e-16 -5.700514120750903e-17 -1.0524062043984345e-16 -5.700514120750903e-17 0.7037692502329608 0.7104286328874669
12647526666.666666 0.71161331476326 0.7025713417521846 -1.0585127252613924e-16 -5.581299275881017e-17 -1.0585127252613924e-16 -5.581299275881017e-17 0.7116128389548952 0.7025718236837943
12648144000.0 0.719369190848524 0.6946279344064409 -1.0644843021218015e-16 -5.4614320088968645e-17 -1.0644843021218015e-16 -5.4614320088968645e-17 0.7193687204426961 0.6946284215668526
12648761333.333334 0.727036403719522 0.6865989132429524 -1.0703202399378286e-16 -5.340927583488077e-17 -1.0703202399378286e-16 -5.340927583488077e-17 0.7270359387736784 0.686599405571615
12649378666.666666 0.7346140083820628 0.6784852678493892 -1.0760198609201488e-16 -5.219801337155809e-17 -1.0760198609201488e-16 -5.219801337155809e-17 0.7346135489529729 0.6784857652851212
12649996000.0 0.7421010708863474 0.6702879982434091 -1.0815825046102166e-16 -5.098068679260697e-17 -1.0815825046102166e-16 -5.098068679260697e-17 0.742100617030095 0.6702885007244049
12650613333.333334 0.7494966684420354 0.6620081147494401 -1.0870075279560681e-16 -4.975745089068066e-17 -1.0870075279560681e-16 -4.975745089068066e-17 0.7494962202140135 0.6620086222132803
12651230666.666666 0.7567998895318369 0.6536466378743333 -1.0922943053859818e-16 -4.852846113783965e-17 -1.0922943053859818e-16 -4.852846113783965e-17 0.756799446986737 0.6536471502579876
12651848000.0 0.7640098340241503 0.6452045981812362 -1.097442228880098e-16 -4.729387366579399e-17 -1.097442228880098e-16 -4.729387366579399e-17 0.76400939721596 0.6452051154210765
12652465333.333334 0.7711256132837667 0.6366830361628569 -1.1024507080395555e-16 -4.605384524613017e-17 -1.1024507080395555e-16 -4.605384524613017e-17 0.7711251822657611 0.6366835581946622
12653082666.666666 0.778146350281416 0.6280830021132017 -1.1073191701535245e-16 -4.480853327043757e-17 -1.1073191701535245e-16 -4.480853327043757e-17 0.7781459251061504 0.6280835288721655
12653700000.0 0.7850711797020377 0.6194055559979011 -1.112047060264125e-16 -4.3558095730330104e-17 -1.112047060264125e-16 -4.3558095730330104e-17 0.7850707604213438 0.6194060874186428
12654317333.333334 0.791899248051205 0.6106517673238612 -1.1166338412287451e-16 -4.2302691197492383e-17 -1.1166338412287451e-16 -4.2302691197492383e-17 0.7918988347161813 0.6106523033404299
12654934666.666666 0.7986297137604221 0.601822715007307 -1.1210789937805289e-16 -4.1042478803553555e-17 -1.1210789937805289e-16 -4.1042478803553555e-17 0.7986293064214303 0.6018232555531929
12655552000.0 0.8052617472909526 0.592919487240671 -1.1253820165863382e-16 -3.977761821996179e-17 -1.1253820165863382e-16 -3.977761821996179e-17 0.8052613459976115 0.5929200322488135
12656169333.333334 0.8117945312358413 0.5839431813587687 -1.1295424263024307e-16 -3.850826963781261e-17 -1.1295424263024307e-16 -3.850826963781261e-17 0.811794136037018 0.5839437307615619
12656786666.666666 0.8182272604208434 0.5748949037032955 -1.133559757628048e-16 -3.72345937475619e-17 -1.133559757628048e-16 -3.72345937475619e-17 0.8182268713646491 0.5748954574325995
12657404000.0 0.8245591420035802 0.5657757694865866 -1.1374335633565695e-16 -3.595675171873277e-17 -1.1374335633565695e-16 -3.595675171873277e-17 0.8245587591373658 0.5657763274737351
12658021333.333334 0.830789395571309 0.5565869026540947 -1.1411634144244546e-16 -3.4674905179547746e-17 -1.1411634144244546e-16 -3.4674905179547746e-17 0.830789018941657 0.5565874648299028
12658638666.666666 0.836917253236949 0.5473294357460975 -1.1447488999578228e-16 -3.338921619653421e-17 -1.1447488999578228e-16 -3.338921619653421e-17 0.8369168828896688 0.5473300020408712
12659256000.0 0.8429419597340546 0.5380045097576138 -1.1481896273168835e-16 -3.2099847254034005e-17 -1.1481896273168835e-16 -3.2099847254034005e-17 0.8429415957141781 0.5380050801011589
12659873333.333334 0.8488627725095471 0.5286132739983217 -1.151485222137899e-16 -3.080696123372759e-17 -1.151485222137899e-16 -3.080696123372759e-17 0.8488624148613202 0.5286138483199504
12660490666.666666 0.8546789618154019 0.5191568859506406 -1.1546353283728854e-16 -2.951072139410345e-17 -1.1546353283728854e-16 -2.951072139410345e-17 0.854678610582282 0.5191574641791828
12661108000.0 0.8603898107986694 0.5096365111269511 -1.1576396083271697e-16 -2.821129134982261e-17 -1.1576396083271697e-16 -2.821129134982261e-17 0.860389466023318 0.5096370931907617
12661725333.333334 0.8659946155896279 0.5000533229262559 -1.1604977426943574e-16 -2.690883505115837e-17 -1.1604977426943574e-16 -2.690883505115837e-17 0.8659942773139094 0.5000539087532253
12662342666.666666 0.8714926853887105 0.49040850248929485 -1.1632094305892276e-16 -2.5603516763303447e-17 -1.1632094305892276e-16 -2.5603516763303447e-17 0.8714923536536806 0.49040909200685473
12662960000.0 0.8768833425515739 0.4807032385530575 -1.165774389578168e-16 -2.429550104570151e-17 -1.165774389578168e-16 -2.429550104570151e-17 0.8768830173974796 0.4807038316881929
12663577333.333334 0.8821659226725881 0.47093872730435066 -1.168192355707349e-16 -2.2984952731330522e-17 -1.168192355707349e-16 -2.2984952731330522e-17 0.8821656041388614 0.47093932398360755
12664194666.666666 0.8873397746668023 0.46111617223221385 -1.1704630835285505e-16 -2.167203690596289e-17 -1.1704630835285505e-16 -2.167203690596289e-17 0.887339462792056 0.4611167723817092
12664812000.0 0.8924042608501409 0.4512367839796899 -1.172586346122683e-16 -2.035691888739899e-17 -1.172586346122683e-16 -2.035691888739899e-17 0.8924039556721632 0.45123738752511977
12665429333.333334 0.8973587570180234 0.44130178019455923 -1.1745619351209457e-16 -1.9039764204692908e-17 -1.1745619351209457e-16 -1.9039764204692908e-17 0.8973584585737734 0.44130238706120845
12666046666.666666 0.9022026525222363 0.431312385379392 -1.1763896607236912e-16 -1.7720738577346664e-17 -1.1763896607236912e-16 -1.7720738577346664e-17 0.9022023608478391 0.4313129954921432
12666664000.0 0.9069353503463436 0.4212698307403185 -1.1780693517169668e-16 -1.6400007894468393e-17 -1.1780693517169668e-16 -1.6400007894468393e-17 0.9069350654770861 0.42127044402366143
12667281333.333334 0.9115562671790491 0.4111753540357427 -1.1796008554866507e-16 -1.5077738193984632e-17 -1.1796008554866507e-16 -1.5077738193984632e-17 0.9115559891493785 0.41117597041378484
12667898666.666666 0.9160648334862908 0.4010301994233788 -1.180984038030345e-16 -1.3754095641764886e-17 -1.180984038030345e-16 -1.3754095641764886e-17 0.9160645623298057 0.4010308188198526
12668516000.0 0.9204604935813768 0.3908356173070051 -1.1822187839668908e-16 -1.2429246510771788e-17 -1.1822187839668908e-16 -1.2429246510771788e-17 0.9204602293308266 0.39083623964527875
12669133333.333334 0.9247427056933913 0.38059286418256105 -1.183304996543525e-16 -1.1103357160236385e-17 -1.183304996543525e-16 -1.1103357160236385e-17 0.9247424483806703 0.38059348938564735
12669750666.666666 0.9289109420340785 0.3703032024830211 -1.184242597640769e-16 -9.776594014763412e-18 -1.184242597640769e-16 -9.776594014763412e-18 0.928910691690223 0.3703038304735875
12670368000.0 0.932964688862857 0.3599679004228751 -1.1850315277749105e-16 -8.449123543500395e-18 -1.1850315277749105e-16 -8.449123543500395e-18 0.9329644455180418 0.3599685311232532
