! Parameters = {f0=12700.012000; bw=77.238000; Q=6100.000000; N=10; m_0_1=1.267563; m_1_1=0.248693; m_1_2=1.102375; m_2_2=0.248044; m_2_3=0.739338; m_2_8=0.000442; m_2_9=0.037146; m_3_3=0.246107; m_3_4=0.627867; m_3_7=0.001042; m_3_8=-0.096046; m_3_9=0.000442; m_4_4=0.243182; m_4_5=0.464202; m_4_6=0.004559; m_4_7=-0.116595; m_4_8=0.001042; m_5_5=0.243564; m_5_6=0.871557; m_5_7=0.004559; m_6_6=0.243563; m_6_7=0.464544; m_7_7=0.243196; m_7_8=0.627985; m_8_8=0.246105; m_8_9=0.739651; m_9_9=0.248039; m_9_10=1.103453; m_10_10=0.248683; m_10_11=1.268358}
!
! Created with skrf (http://scikit-rf.org).
# Hz S RI R 50.0 
!freq ReS11 ImS11 ReS21 ImS21 ReS12 ImS12 ReS22 ImS22
12607400000.0 -0.6192421468217705 0.7852000787056695 4.0531863992772227e-17 -1.0154700844837394e-16 4.0531863992772227e-17 -1.0154700844837394e-16 -0.6192426712031972 0.7851996651559101
12608017333.333334 -0.6110024397016733 0.7916287126414931 3.9451642646173755e-17 -1.0194858059988547e-16 3.9451642646173755e-17 -1.0194858059988547e-16 -0.6110029683504631 0.7916283046144493
12608634666.666666 -0.6026959988313171 0.7979708848025389 3.836746170014946e-17 -1.0233867015618581e-16 3.836746170014946e-17 -1.0233867015618581e-16 -0.6026965316893156 0.7979704823422317
12609252000.0 -0.5943237314411606 0.8042259024961084 3.727944312485126e-17 -1.0271723828716872e-16 3.727944312485126e-17 -1.0271723828716872e-16 -0.5943242684497604 0.8042255056459484
12609869333.333334 -0.5858865519511288 0.8103930825486122 3.6187709268842417e-17 -1.0308424745738968e-16 3.6187709268842417e-17 -1.0308424745738968e-16 -0.5858870930512738 0.8103926913513917
12610486666.666666 -0.5773853818710347 0.8164717513799634 3.509238284535937e-17 -1.0343966142972972e-16 3.509238284535937e-17 -1.0343966142972972e-16 -0.577385927003228 0.816471365877853
12611104000.0 -0.5688211496994956 0.8224612450774622 3.399358691852004e-17 -1.0378344526891714e-16 3.399358691852004e-17 -1.0378344526891714e-16 -0.5688216988038062 0.8224608653120072
12611721333.333334 -0.5601947908230309 0.8283609094679477 3.2891444889569804e-17 -1.0411556534488177e-16 3.2891444889569804e-17 -1.0411556534488177e-16 -0.5601953438391001 0.828360535480063
12612338666.666666 -0.551507247413506 0.8341701001895251 3.178608048301281e-17 -1.0443598933598962e-16 3.178608048301281e-17 -1.0443598933598962e-16 -0.551507804280553 0.83416973201949
12612956000.0 -0.5427594683252935 0.8398881827618897 3.067761773274189e-17 -1.047446862321203e-16 3.067761773274189e-17 -1.047446862321203e-16 -0.542760028982123 0.8398878204493437
12613573333.333334 -0.5339524089919023 0.8455145326554537 2.956618096817864e-17 -1.0504162633758723e-16 2.956618096817864e-17 -1.0504162633758723e-16 -0.533952973376911 0.8455141762393931
12614190666.666666 -0.5250870313213393 0.8510485353597453 2.8451894800332454e-17 -1.0532678127392631e-16 2.8451894800332454e-17 -1.0532678127392631e-16 -0.525087599372524 0.8510481848785199
12614808000.0 -0.5161643035911226 0.8564895864504809 2.7334884107848582e-17 -1.0560012398253275e-16 2.7334884107848582e-17 -1.0560012398253275e-16 -0.516164875246085 0.8564892419417874
12615425333.333334 -0.5071852003425478 0.8618370916555602 2.621527402305881e-17 -1.058616287271429e-16 2.621527402305881e-17 -1.058616287271429e-16 -0.5071857755385015 0.8618367531564392
12616042666.666666 -0.49815070227432184 0.8670904669199313 2.509318991796468e-17 -1.0611127109618072e-16 2.509318991796468e-17 -1.0611127109618072e-16 -0.49815128094810074 0.8670901344667638
12616660000.0 -0.48906179613528156 0.8722491384694838 2.396875739024745e-17 -1.063490280049434e-16 2.396875739024745e-17 -1.063490280049434e-16 -0.4890623782233455 0.8722488120979872
12617277333.333334 -0.47991947461676615 0.877312542873628 2.2842102249207405e-17 -1.0657487769765186e-16 2.2842102249207405e-17 -1.0657487769765186e-16 -0.4799200600552084 0.8773122226188517
12617894666.666666 -0.47072473624424754 0.8822801271068095 2.1713350501751552e-17 -1.0678879974933718e-16 2.1713350501751552e-17 -1.0678879974933718e-16 -0.47072532496880154 0.8822798130031312
12618512000.0 -0.46147858526794583 0.8871513486090855 2.058262833827109e-17 -1.0699077506759945e-16 2.058262833827109e-17 -1.0699077506759945e-16 -0.461479177213993 0.8871510406902086
12619129333.333334 -0.4521820315535455 0.8919256753451676 1.9450062118610058e-17 -1.071807858941952e-16 1.9450062118610058e-17 -1.071807858941952e-16 -0.45218262665612097 0.8919253736441154
12619746666.666666 -0.44283609047172184 0.8966025858626246 1.8315778357947932e-17 -1.0735881580649172e-16 1.8315778357947932e-17 -1.0735881580649172e-16 -0.4428366886655233 0.8966022904117401
12620364000.0 -0.4334417827870656 0.9011815693489265 1.7179903712670293e-17 -1.0752484971877106e-16 1.7179903712670293e-17 -1.0752484971877106e-16 -0.4334423840064589 0.9011812801798655
12620981333.333334 -0.42400013454702634 0.9056621256870184 1.6042564966302732e-17 -1.0767887388337371e-16 1.6042564966302732e-17 -1.0767887388337371e-16 -0.42400073872605326 0.9056618428307474
12621598666.666666 -0.41451217696938736 0.9100437655101667 1.490388901532908e-17 -1.0782087589170976e-16 1.490388901532908e-17 -1.0782087589170976e-16 -0.41451278404177344 0.9100434889969613
12622216000.0 -0.4049789463299715 0.9143260102552536 1.3764002855097587e-17 -1.0795084467510717e-16 1.3764002855097587e-17 -1.0795084467510717e-16 -0.4049795562291322 0.9143257401146918
12622833333.333334 -0.39540148384919854 0.9185083922151593 1.2623033565651093e-17 -1.0806877050552038e-16 1.2623033565651093e-17 -1.0806877050552038e-16 -0.39540209650824737 0.9185081284761211
12623450666.666666 -0.3857808355786757 0.9225904545897079 1.148110829762091e-17 -1.0817464499608168e-16 1.148110829762091e-17 -1.0817464499608168e-16 -0.38578145093043126 0.9225901972803715
12624068000.0 -0.3761180522866087 0.926571751535709 1.0338354258044631e-17 -1.0826846110151195e-16 1.0338354258044631e-17 -1.0826846110151195e-16 -0.3761186702636027 0.9265715006835485
12624685333.333334 -0.36641418934322073 0.9304518482155729 9.194898696226237e-18 -1.0835021311837703e-16 9.194898696226237e-18 -1.0835021311837703e-16 -0.36641480987770353 0.9304516038473524
12625302666.666666 -0.3566703066055348 0.9342303208447791 8.050868889630955e-18 -1.0841989668519293e-16 8.050868889630955e-18 -1.0841989668519293e-16 -0.3566709296294852 0.9342300829865537
12625920000.0 -0.34688746830143435 0.9379067567382414 6.906392129674671e-18 -1.0847750878239029e-16 6.906392129674671e-18 -1.0847750878239029e-16 -0.3468880937465653 0.9379065254153521
12626537333.333334 -0.3370667429135847 0.9414807543553145 5.7615957076529825e-18 -1.0852304773212018e-16 5.7615957076529825e-18 -1.0852304773212018e-16 -0.3370673707113518 0.9414805295923863
12627154666.666666 -0.32720920306278906 0.9449519233436375 4.61660690056478e-18 -1.0855651319791894e-16 4.61660690056478e-18 -1.0855651319791894e-16 -0.3272098331443973 0.9449517051645759
12627772000.0 -0.3173159253904601 0.9483198845818955 3.4715529569922155e-18 -1.085779061842194e-16 3.4715529569922155e-18 -1.085779061842194e-16 -0.3173165576868723 0.9483196730098863
12628389333.333334 -0.3073879904416215 0.9515842702210282 2.3265610830018153e-18 -1.085872290357153e-16 2.3265610830018153e-18 -1.085872290357153e-16 -0.3073886248835648 0.9515840652785315
12629006666.666666 -0.29742648254626947 0.9547447237246091 1.1817584280156098e-18 -1.0858448543657658e-16 1.1817584280156098e-18 -1.0858448543657658e-16 -0.29742711906424346 0.9547445254333587
12629624000.0 -0.28743248970145546 0.9578008999076199 3.7272070728097616e-20 -1.0856968040951717e-16 3.7272070728097616e-20 -1.0856968040951717e-16 -0.2874331282257406 0.9578007082886238
12630241333.333334 -0.2774071034520782 0.9607524649742789 -1.106770994985089e-18 -1.0854282031471359e-16 -1.106770994985089e-18 -1.0854282031471359e-16 -0.27740774391274153 0.9607522800478109
12630858666.666666 -0.2673514187720423 0.9635990965543718 -2.25024387410655e-18 -1.0850391284857591e-16 -2.25024387410655e-18 -1.0850391284857591e-16 -0.26735206109894705 0.963598918339975
12631476000.0 -0.2572665339441491 0.9663404837386192 -3.3930197845832927e-18 -1.0845296704237012e-16 -3.3930197845832927e-18 -1.0845296704237012e-16 -0.25726717806696126 0.9663403122551019
12632093333.333334 -0.24715355044071538 0.9689763271124704 -4.534972071294597e-18 -1.0838999326069492e-16 -4.534972071294597e-18 -1.0838999326069492e-16 -0.2471541962889117 0.9689761623779024
12632710666.666666 -0.23701357280288765 0.9715063387889116 -5.67597422010825e-18 -1.0831500319980893e-16 -5.67597422010825e-18 -1.0831500319980893e-16 -0.23701422030576325 0.9715061808206248
12633328000.0 -0.22684770852008526 0.9739302424398838 -6.81589987186318e-18 -1.0822800988581076e-16 -6.81589987186318e-18 -1.0822800988581076e-16 -0.2268483576067617 0.9739300912544698
12633945333.333334 -0.21665706790909645 0.9762477733264538 -7.954622836335657e-18 -1.0812902767267402e-16 -7.954622836335657e-18 -1.0812902767267402e-16 -0.21665771850852875 0.9762476289397601
12634562666.666666 -0.20644276399275252 0.9784586783277353 -9.092017106175094e-18 -1.0801807224013458e-16 -9.092017106175094e-18 -1.0801807224013458e-16 -0.2064434160337382 0.9784585407548684
12635180000.0 -0.19620591237847634 0.9805627159685174 -1.0227956870844817e-17 -1.0789516059142996e-16 -1.0227956870844817e-17 -1.0789516059142996e-16 -0.19620656578966186 0.9805625852238358
12635797333.333334 -0.1859476311362118 0.9825596564456821 -1.1362316530492593e-17 -1.0776031105089607e-16 -1.1362316530492593e-17 -1.0776031105089607e-16 -0.18594828584610115 0.9825595325427979
12636414666.666666 -0.17566904067664293 0.9844492816532368 -1.2494970709826094e-17 -1.0761354326141541e-16 -1.2494970709826094e-17 -1.0761354326141541e-16 -0.17566969661360518 0.9844491646050133
12637032000.0 -0.16537126362843185 0.9862313852062109 -1.3625794271939564e-17 -1.0745487818172108e-16 -1.3625794271939564e-17 -1.0745487818172108e-16 -0.16537192072070925 0.9862312750247624
12637649333.333334 -0.15505542471594042 0.9879057724631354 -1.4754662332123997e-17 -1.0728433808355475e-16 -1.4754662332123997e-17 -1.0728433808355475e-16 -0.15505608289165587 0.9879056691598246
12638266666.666666 -0.14472265063613574 0.9894722605473467 -1.5881450271628527e-17 -1.0710194654868107e-16 -1.5881450271628527e-17 -1.0710194654868107e-16 -0.14472330982330087 0.9894721641327834
12638884000.0 -0.13437406993575643 0.9909306783669213 -1.700603375138403e-17 -1.0690772846575921e-16 -1.700603375138403e-17 -1.0690772846575921e-16 -0.1343747300622794 0.9909305888509622
12639501333.333334 -0.12401081288779987 0.9922808666334003 -1.8128288725723648e-17 -1.0670171002706477e-16 -1.8128288725723648e-17 -1.0670171002706477e-16 -0.12401147388149351 0.9922807840251493
12640118666.666666 -0.11363401136846822 0.9935226778791396 -1.9248091455998755e-17 -1.0648391872507995e-16 -1.9248091455998755e-17 -1.0648391872507995e-16 -0.11363467315705743 0.9935226021869427
12640736000.0 -0.10324479873286724 0.9946559764734911 -2.0365318524270352e-17 -1.0625438334891917e-16 -2.0365318524270352e-17 -1.0625438334891917e-16 -0.10324546124399736 0.9946559077049405
12641353333.333334 -0.09284430969212511 0.9956806386375191 -2.1479846846790512e-17 -1.06013133980645e-16 -2.1479846846790512e-17 -1.06013133980645e-16 -0.09284497285336951 0.9956805767994482
12641970666.666666 -0.08243368018863942 0.9965965524576044 -2.2591553687625432e-17 -1.0576020199140575e-16 -2.2591553687625432e-17 -1.0576020199140575e-16 -0.08243434392750765 0.9965964975560907
12642588000.0 -0.07201404727251863 0.9974036178976173 -2.3700316672092807e-17 -1.0549562003745926e-16 -2.3700316672092807e-17 -1.0549562003745926e-16 -0.07201471151646417 0.9974035699379792
12643205333.333334 -0.061586548977138646 0.9981017468098692 -2.4806013800232394e-17 -1.0521942205604096e-16 -2.4806013800232394e-17 -1.0521942205604096e-16 -0.06158721365356691 0.9981017057966666
12643822666.666666 -0.051152324194959686 0.9986908629447252 -2.5908523460208217e-17 -1.0493164326109359e-16 -2.5908523460208217e-17 -1.0493164326109359e-16 -0.05115298923123594 0.9986908288817585
12644440000.0 -0.04071251255305143 0.9991709019589406 -2.700772444163589e-17 -1.0463232013886478e-16 -2.700772444163589e-17 -1.0463232013886478e-16 -0.04071317787650883 0.9991708748492529
12645057333.333334 -0.030268254288821596 0.9995418114226798 -2.8103495948907966e-17 -1.0432149044335364e-16 -2.8103495948907966e-17 -1.0432149044335364e-16 -0.030268919826768905 0.999541791268552
12645674666.666666 -0.019820690125251915 0.9998035508252524 -2.9195717614420225e-17 -1.0399919319162975e-16 -2.9195717614420225e-17 -1.0399919319162975e-16 -0.019821355804981622 0.9998035376282068
12646292000.0 -0.00937096114633655 0.9999560915795342 -3.0284269511813445e-17 -1.0366546865899535e-16 -3.0284269511813445e-17 -1.0366546865899535e-16 -0.009371626895132745 0.9999560853403332
12646909333.333334 0.0010797913274051307 0.9999994170250873 -3.136903216905478e-17 -1.0332035837404002e-16 -3.136903216905478e-17 -1.0332035837404002e-16 0.0010791255822587922 0.9999994177437319
12647526666.666666 0.01153042586364049 0.9999335224299805 -3.244988658157849e-17 -1.029639051135248e-16 -3.244988658157849e-17 -1.029639051135248e-16 0.011529760194852853 0.9999335301057136
12648144000.0 0.021979801043089928 0.999758414991307 -3.3526714225290186e-17 -1.0259615289715318e-16 -3.3526714225290186e-17 -1.0259615289715318e-16 0.021979135523354416 0.9997584296226119
12648761333.333334 0.0324267755838518 0.9994741138343997 -3.459939706955086e-17 -1.0221714698219446e-16 -3.459939706955086e-17 -1.0221714698219446e-16 0.03242611028583845 0.9994741354189993
12649378666.666666 0.04287020846628071 0.9990806500107401 -3.5667817590066087e-17 -1.0182693385798367e-16 -3.5667817590066087e-17 -1.0182693385798367e-16 0.042869543462628217 0.999080678545597
12649996000.0 0.05330895905752446 0.9985780664945673 -3.673185878177211e-17 -1.0142556124026684e-16 -3.673185878177211e-17 -1.0142556124026684e-16 0.053308294420832375 0.9985781019758881
12650613333.333334 0.06374188723624619 0.99796641817818 -3.779140417160682e-17 -1.0101307806542986e-16 -3.779140417160682e-17 -1.0101307806542986e-16 0.0637412230390668 0.9979664606014115
12651230666.666666 0.0741678535168079 0.9972457718659602 -3.884633783121443e-17 -1.0058953448459682e-16 -3.884633783121443e-17 -1.0058953448459682e-16 0.07416718983163849 0.9972458212257914
12651848000.0 0.08458571917420747 0.9964162062670431 -3.989654438965289e-17 -1.001549818575681e-16 -3.989654438965289e-17 -1.001549818575681e-16 0.08458505607348231 0.9964162625574066
12652465333.333334 0.09499434636810997 0.9954778119867469 -4.094190904593799e-17 -9.970947274666582e-17 -4.094190904593799e-17 -9.970947274666582e-17 0.09499368392419241 0.9954778752008184
12653082666.666666 0.10539259826703785 0.9944306915166831 -4.1982317581589925e-17 -9.925306091041894e-17 -4.1982317581589925e-17 -9.925306091041894e-17 0.10539193655221242 0.9944307616468829
12653700000.0 0.11577933917301707 0.9932749592235202 -4.3017656373093446e-17 -9.878580129712484e-17 -4.3017656373093446e-17 -9.878580129712484e-17 0.11577867825948165 0.9932750362615143
12654317333.333334 0.12615343464499565 0.9920107413365525 -4.404781240426468e-17 -9.83077500382919e-17 -4.404781240426468e-17 -9.83077500382919e-17 0.1261527746048537 0.9920108252732539
12654934666.666666 0.1365137516232566 0.9906381759338616 -4.5072673278568086e-17 -9.781896444194263e-17 -4.5072673278568086e-17 -9.781896444194263e-17 0.13651309252850904 0.9906382667594302
12655552000.0 0.14685915855294437 0.9891574129272583 -4.609212723137362e-17 -9.73195029857826e-17 -4.609212723137362e-17 -9.73195029857826e-17 0.14685850047548177 0.9891575106311016
12656169333.333334 0.15718852550762547 0.9875686140459125 -4.7106063142086194e-17 -9.680942531026667e-17 -4.7106063142086194e-17 -9.680942531026667e-17 0.15718786851922037 0.987568718616689
12656786666.666666 0.16750072431275545 0.9858719528186849 -4.81143705462518e-17 -9.628879221151432e-17 -4.81143705462518e-17 -9.628879221151432e-17 0.16750006848505464 0.9858720642443051
12657404000.0 0.177794628668983 0.9840676145551608 -4.911693964757197e-17 -9.57576656341058e-17 -4.911693964757197e-17 -9.57576656341058e-17 0.1777939740734991 0.9840677328227856
12658021333.333334 0.18806911427499498 0.9821557963254332 -5.011366132981739e-17 -9.521610866376415e-17 -5.011366132981739e-17 -9.521610866376415e-17 0.18806846098309932 0.9821559214214786
12658638666.666666 0.1983230589503977 0.9801367069385688 -5.110442716868633e-17 -9.466418551990182e-17 -5.110442716868633e-17 -9.466418551990182e-17 0.19832240703331258 0.9801368388487081
12659256000.0 0.20855534275833817 0.9780105669197948 -5.2089129443578454e-17 -9.410196154804475e-17 -5.2089129443578454e-17 -9.410196154804475e-17 0.20855469228712806 0.9780107056289549
12659873333.333334 0.21876484812779323 0.9757776084864063 -5.306766114927797e-17 -9.352950321213924e-17 -5.306766114927797e-17 -9.352950321213924e-17 0.21876419917335835 0.9757777539787758
12660490666.666666 0.2289504599754108 0.9734380755224619 -5.4039916007534296e-17 -9.294687808674809e-17 -5.4039916007534296e-17 -9.294687808674809e-17 0.22894981260847885 0.9734382277814901
12661108000.0 0.23911106582779804 0.9709922235520323 -5.500578847862651e-17 -9.235415484908726e-17 -5.500578847862651e-17 -9.235415484908726e-17 0.2391104201189162 0.9709923825604305
12661725333.333334 0.24924555594241649 0.9684403197114326 -5.596517377273538e-17 -9.175140327100422e-17 -5.596517377273538e-17 -9.175140327100422e-17 0.24924491196194384 0.9684404854511756
12662342666.666666 0.25935282342931315 0.9657826427199183 -5.691796786133329e-17 -9.113869421077627e-17 -5.691796786133329e-17 -9.113869421077627e-17 0.25935218124741355 0.9657828151722492
12662960000.0 0.26943176437165733 0.9630194828493359 -5.786406748841658e-17 -9.051609960483158e-17 -5.786406748841658e-17 -9.051609960483158e-17 0.26943112405829095 0.9630196619947651
12663577333.333334 0.27948127794655714 0.960151141892351 -5.880337018166408e-17 -8.988369245934521e-17 -5.880337018166408e-17 -8.988369245934521e-17 0.2794806395714737 0.9601513277106616
12664194666.666666 0.2895002665450728 0.9571779331295502 -5.973577426352702e-17 -8.924154684170424e-17 -5.973577426352702e-17 -8.924154684170424e-17 0.2894996301778034 0.9571781255997972
12664812000.0 0.29948763589231625 0.9541001812951597 -6.066117886218827e-17 -8.858973787188367e-17 -6.066117886218827e-17 -8.858973787188367e-17 0.29948700160216574 0.9541003803956745
12665429333.333334 0.30944229516677685 0.9509182225416359 -6.157948392247051e-17 -8.792834171367972e-17 -6.157948392247051e-17 -8.792834171367972e-17 0.3094416630228164 0.9509184282500261
12666046666.666666 0.3193631571195423 0.9476324044029224 -6.249059021659512e-17 -8.72574355658693e-17 -6.249059021659512e-17 -8.72574355658693e-17 0.31936252719060254 0.9476326166960788
12666664000.0 0.32924913819313084 0.9442430857564736 -6.339439935492374e-17 -8.657709765320111e-17 -6.339439935492374e-17 -8.657709765320111e-17 0.3292485105477932 0.9442433046105682
12667281333.333334 0.33909915863967266 0.9407506367841004 -6.429081379650158e-17 -8.588740721734944e-17 -6.429081379650158e-17 -8.588740721734944e-17 0.339098533346263 0.9407508621745926
12667898666.666666 0.348912142638898 0.937155438931535 -6.517973685959904e-17 -8.51884445076895e-17 -6.517973685959904e-17 -8.51884445076895e-17 0.3489115197654782 0.9371556708331708
12668516000.0 0.35868701841584855 0.9334578848666789 -6.606107273210306e-17 -8.448029077199856e-17 -6.606107273210306e-17 -8.448029077199856e-17 0.3586863980302096 0.9334581232534968
12669133333.333334 0.36842271835748497 0.9296583784368899 -6.69347264817882e-17 -8.376302824706899e-17 -6.69347264817882e-17 -8.376302824706899e-17 0.3684221005271396 0.929658623282222
12669750666.666666 0.3781181791297702 0.9257573346246915 -6.780060406655457e-17 -8.30367401491596e-17 -6.780060406655457e-17 -8.30367401491596e-17 0.3781175639219459 0.9257575859011683
