! Parameters = {f0=12700.012000; bw=77.238000; Q=6100.000000; N=10; m_0_1=1.158253; m_1_1=-1.390947; m_1_2=0.993065; m_2_2=-1.391596; m_2_3=0.630028; m_2_8=-0.005024; m_2_9=0.031680; m_3_3=-1.393533; m_3_4=0.518557; m_3_7=-0.004424; m_3_8=-0.101512; m_3_9=-0.005024; m_4_4=-1.396458; m_4_5=0.354892; m_4_6=-0.000907; m_4_7=-0.122061; m_4_8=-0.004424; m_5_5=-1.396076; m_5_6=0.762247; m_5_7=-0.000907; m_6_6=-1.396077; m_6_7=0.355234; m_7_7=-1.396444; m_7_8=0.518675; m_8_8=-1.393535; m_8_9=0.630341; m_9_9=-1.391601; m_9_10=0.994143; m_10_10=-1.390957; m_10_11=1.159048}
!
! Created with skrf (http://scikit-rf.org).
# Hz S RI R 50.0 
!freq ReS11 ImS11 ReS21 ImS21 ReS12 ImS12 ReS22 ImS22
12607400000.0 0.6684459694087038 -0.743760704784215 -2.7182608236680142e-17 5.712922816673579e-17 -2.7182608236680142e-17 5.712922816673579e-17 0.6684464234183431 -0.743760296748272
12608017333.333334 0.6630590759702466 -0.7485670723277476 -2.6759136761115714e-17 5.73151247643943e-17 -2.6759136761115714e-17 5.73151247643943e-17 0.6630595328914333 -0.7485666675999184
12608634666.666666 0.6576376240336783 -0.7533344247113573 -2.6334401522879656e-17 5.749788639460982e-17 -2.6334401522879656e-17 5.749788639460982e-17 0.6576380838423127 -0.7533340233124105
12609252000.0 0.652181896163985 -0.7580625134616547 -2.590842570105262e-17 5.767750452475441e-17 -2.590842570105262e-17 5.767750452475441e-17 0.6521823588358214 -0.7580621154121849
12609869333.333334 0.6466921767125233 -0.7627510921517398 -2.5481232531871583e-17 5.78539707933665e-17 -2.5481232531871583e-17 5.78539707933665e-17 0.6466926422231671 -0.7627506974721634
12610486666.666666 0.641168751802432 -0.7673999164138375 -2.5052845307462628e-17 5.802727701053263e-17 -2.5052845307462628e-17 5.802727701053263e-17 0.6411692201273447 -0.7673995251243944
12611104000.0 0.6356119093134206 -0.7720087439522948 -2.4623287374568983e-17 5.819741515825935e-17 -2.4623287374568983e-17 5.819741515825935e-17 0.6356123804279192 -0.7720083560730465
12611721333.333334 0.6300219388670033 -0.7765773345560086 -2.4192582133302198e-17 5.83643773908269e-17 -2.4192582133302198e-17 5.83643773908269e-17 0.6300224127462604 -0.7765769501068354
12612338666.666666 0.6243991318113142 -0.7811054501110141 -2.376075303585067e-17 5.852815603514901e-17 -2.376075303585067e-17 5.852815603514901e-17 0.6243996084303624 -0.7811050691116168
12612956000.0 0.6187437812058592 -0.7855928546129533 -2.332782358521921e-17 5.868874359110994e-17 -2.332782358521921e-17 5.868874359110994e-17 0.61874426053959 -0.7855924770828508
12613573333.333334 0.6130561818063728 -0.7900393141792663 -2.2893817333956656e-17 5.884613273189667e-17 -2.2893817333956656e-17 5.884613273189667e-17 0.6130566638295383 -0.7900389401377944
12614190666.666666 0.6073366300493894 -0.7944445970614343 -2.2458757882874316e-17 5.90003163043238e-17 -2.2458757882874316e-17 5.90003163043238e-17 0.6073371147366053 -0.7944442265277462
12614808000.0 0.601585424036726 -0.7988084736571125 -2.2022668879770958e-17 5.915128732914606e-17 -2.2022668879770958e-17 5.915128732914606e-17 0.601585911362471 -0.7988081066501758
12615425333.333334 0.5958028635200798 -0.8031307165219909 -2.15855740181456e-17 5.929903900136527e-17 -2.15855740181456e-17 5.929903900136527e-17 0.5958033534586973 -0.8031303530605874
12616042666.666666 0.5899892498853381 -0.8074111003817015 -2.114749703592691e-17 5.944356469052083e-17 -2.114749703592691e-17 5.944356469052083e-17 0.5899897424110381 -0.8074107404844267
12616660000.0 0.5841448861368007 -0.8116494021436089 -2.0708461714175424e-17 5.958485794098021e-17 -2.0708461714175424e-17 5.958485794098021e-17 0.5841453812236611 -0.8116490458288715
12617277333.333334 0.5782700768815252 -0.8158454009083382 -2.0268491875807622e-17 5.972291247221128e-17 -2.0268491875807622e-17 5.972291247221128e-17 0.5782705745034928 -0.8158450481943575
12617894666.666666 0.5723651283133837 -0.8199988779813404 -1.9827611384311654e-17 5.985772217904818e-17 -1.9827611384311654e-17 5.985772217904818e-17 0.5723656284442751 -0.8199985288861457
12618512000.0 0.5664303481970074 -0.8241096168843505 -1.938584414243387e-17 5.99892811319559e-17 -1.938584414243387e-17 5.99892811319559e-17 0.5664308508105117 -0.8241092714257818
12619129333.333334 0.5604660458520048 -0.8281774033664956 -1.894321409092373e-17 6.011758357726668e-17 -1.894321409092373e-17 6.011758357726668e-17 0.560466550921685 -0.8281770615622022
12619746666.666666 0.5544725321365379 -0.8322020254156737 -1.8499745207210518e-17 6.024262393742811e-17 -1.8499745207210518e-17 6.024262393742811e-17 0.5544730396358301 -0.832201687283111
12620364000.0 0.5484501194312559 -0.8361832732694998 -1.805546150412109e-17 6.036439681122757e-17 -1.805546150412109e-17 6.036439681122757e-17 0.5484506293334729 -0.8361829388259311
12620981333.333334 0.5423991216231595 -0.8401209394261507 -1.7610387028595042e-17 6.048289697400899e-17 -1.7610387028595042e-17 6.048289697400899e-17 0.5423996339014917 -0.8401206086886458
12621598666.666666 0.5363198540889336 -0.844014818655383 -1.7164545860365504e-17 6.059811937788889e-17 -1.7164545860365504e-17 6.059811937788889e-17 0.5363203687164501 -0.844014491640816
12622216000.0 0.5302126336787679 -0.8478647080090534 -1.6717962110681857e-17 6.07100591519506e-17 -1.6717962110681857e-17 6.07100591519506e-17 0.5302131506284178 -0.8478643847341035
12622833333.333334 0.524077778699728 -0.8516704068317821 -1.627065992099341e-17 6.081871160243986e-17 -1.627065992099341e-17 6.081871160243986e-17 0.5240782979443419 -0.8516700873129307
12623450666.666666 0.5179156088991846 -0.8554317167713855 -1.5822663461669862e-17 6.092407221294036e-17 -1.5822663461669862e-17 6.092407221294036e-17 0.5179161304114767 -0.8554314010249188
12624068000.0 0.5117264454481775 -0.8591484417892099 -1.5373996930677592e-17 6.10261366445514e-17 -1.5373996930677592e-17 6.10261366445514e-17 0.5117269692007459 -0.859148129831214
12624685333.333334 0.5055106109245747 -0.8628203881703994 -1.4924684552287757e-17 6.112490073604704e-17 -1.4924684552287757e-17 6.112490073604704e-17 0.5055111368899035 -0.8628200800167617
12625302666.666666 0.49926842929643145 -0.8664473645338927 -1.4474750575783664e-17 6.12203605040264e-17 -1.4474750575783664e-17 6.12203605040264e-17 0.49926895744689304 -0.8664470602003023
12625920000.0 0.49300022590491205 -0.8700291818425172 -1.402421927413417e-17 6.131251214306187e-17 -1.402421927413417e-17 6.131251214306187e-17 0.49300075621276646 -0.8700288813444607
12626537333.333334 0.4867063274474763 -0.8735656534127492 -1.3573114942708198e-17 6.140135202582834e-17 -1.3573114942708198e-17 6.140135202582834e-17 0.4867068598848748 -0.8735653567655133
12627154666.666666 0.4803870619608806 -0.877056594924436 -1.312146189796234e-17 6.148687670322855e-17 -1.312146189796234e-17 6.148687670322855e-17 0.48038759649986534 -0.877056302143104
12627772000.0 0.47404275880385605 -0.8805018244305255 -1.2669284476127832e-17 6.156908290450873e-17 -1.2669284476127832e-17 6.156908290450873e-17 0.4740432954163626 -0.8805015355299777
12628389333.333334 0.4676737486402147 -0.883901162366395 -1.221660703192511e-17 6.16479675373595e-17 -1.221660703192511e-17 6.16479675373595e-17 0.4676742872980738 -0.8839008773613092
12629006666.666666 0.46128036342139295 -0.8872544315593366 -1.1763453937225181e-17 6.172352768801707e-17 -1.1763453937225181e-17 6.172352768801707e-17 0.46128090409633155 -0.8872541504641861
12629624000.0 0.45486293636935043 -0.8905614572376839 -1.1309849579772036e-17 6.179576062134315e-17 -1.1309849579772036e-17 6.179576062134315e-17 0.45486347903299224 -0.8905611800667351
12630241333.333334 0.4484218019589739 -0.8938220670400352 -1.0855818361859102e-17 6.186466378090405e-17 -1.0855818361859102e-17 6.186466378090405e-17 0.44842234658284286 -0.8938217938073509
12630858666.666666 0.44195729590095056 -0.897036091024087 -1.0401384699026514e-17 6.193023478903654e-17 -1.0401384699026514e-17 6.193023478903654e-17 0.4419578424564704 -0.8970358217435217
12631476000.0 0.43546975512391434 -0.9002033616756675 -9.946573018745825e-18 6.199247144690562e-17 -9.946573018745825e-18 6.199247144690562e-17 0.4354703035824113 -0.9002030963608691
12632093333.333334 0.42895951775716523 -0.9033237139173281 -9.491407759120496e-18 6.205137173455065e-17 -9.491407759120496e-18 6.205137173455065e-17 0.4289600680898691 -0.9033234525817365
12632710666.666666 0.4224269231129439 -0.9063969851169987 -9.035913367579259e-18 6.210693381092303e-17 -9.035913367579259e-18 6.210693381092303e-17 0.4224274752909898 -0.9063967277738448
12633328000.0 0.4158723116686711 -0.9094230150965004 -8.580114299553627e-18 6.215915601391661e-17 -8.580114299553627e-18 6.215915601391661e-17 0.4158728656631006 -0.9094227617588062
12633945333.333334 0.4092960250493542 -0.9124016461398199 -8.124035017180151e-18 6.220803686038454e-17 -8.124035017180151e-18 6.220803686038454e-17 0.40929658083111675 -0.9124013968203964
12634562666.666666 0.4026984060097059 -0.9153327230013667 -7.667699987995888e-18 6.225357504614852e-17 -7.667699987995888e-18 6.225357504614852e-17 0.40269896354966134 -0.9153324777128156
12635180000.0 0.3960797984162019 -0.9182160929140994 -7.21113368361802e-18 6.229576944599956e-17 -7.21113368361802e-18 6.229576944599956e-17 0.3960803576851211 -0.9182158516688111
12635797333.333334 0.38944054722931515 -0.9210516055974206 -6.75436057844868e-18 6.233461911368684e-17 -6.75436057844868e-18 6.233461911368684e-17 0.389441108197881 -0.9210513684075716
12636414666.666666 0.38278099848543007 -0.9238391132650489 -6.2974051483605704e-18 6.237012328189904e-17 -6.2974051483605704e-18 6.237012328189904e-17 0.3827815611242407 -0.9238388801426051
12637032000.0 0.37610149927883635 -0.9265784706327174 -5.84029186939191e-18 6.240228136223492e-17 -5.84029186939191e-18 6.240228136223492e-17 0.37610206355840525 -0.9265782415894313
12637649333.333334 0.36940239774366307 -0.9292695349257325 -5.383045216441889e-18 6.243109294516491e-17 -5.383045216441889e-18 6.243109294516491e-17 0.36940296363442127 -0.929269309973142
12638266666.666666 0.36268404303562873 -0.9319121658864559 -4.925689661957799e-18 6.245655779998348e-17 -4.925689661957799e-18 6.245655779998348e-17 0.362684610507926 -0.9319119450358855
12638884000.0 0.35594678531400187 -0.934506225781553 -4.468249674640577e-18 6.24786758747507e-17 -4.468249674640577e-18 6.24786758747507e-17 0.3559473543381087 -0.9345060090441121
12639501333.333334 0.349190975723245 -0.9370515794092145 -4.010749718133292e-18 6.249744729622572e-17 -4.010749718133292e-18 6.249744729622572e-17 0.3491915462693539 -0.9370513667957969
12640118666.666666 0.34241696637479324 -0.9395480941061712 -3.553214249722857e-18 6.251287236979002e-17 -3.553214249722857e-18 6.251287236979002e-17 0.34241753841302003 -0.939547885627455
12640736000.0 0.33562511032846154 -0.9419956397546971 -3.0956677190212323e-18 6.252495157936157e-17 -3.0956677190212323e-18 6.252495157936157e-17 0.33562568382884783 -0.9419954354211443
12641353333.333334 0.3288157615744714 -0.944394088789237 -2.6381345666920396e-18 6.253368558729868e-17 -2.6381345666920396e-18 6.253368558729868e-17 0.32881633650698494 -0.9443938886110919
12641970666.666666 0.32198927501462615 -0.946743316203188 -2.180639223126547e-18 6.253907523429522e-17 -2.180639223126547e-18 6.253907523429522e-17 0.32198985134916264 -0.9467431201904756
12642588000.0 0.3151460064440005 -0.9490431995553481 -1.7232061071474247e-18 6.254112153926644e-17 -1.7232061071474247e-18 6.254112153926644e-17 0.31514658415038627 -0.9490430077178784
12643205333.333334 0.3082863125322901 -0.9512936189763374 -1.265859624720711e-18 6.253982569922413e-17 -1.265859624720711e-18 6.253982569922413e-17 0.308286891580283 -0.9512934313237009
12643822666.666666 0.30141055080527546 -0.9534944571748247 -8.086241676458733e-19 6.253518908914383e-17 -8.086241676458733e-19 6.253518908914383e-17 0.30141113116456575 -0.9534942737163923
12644440000.0 0.2945190796262416 -0.955645599443625 -3.5152411226312683e-19 6.252721326182165e-17 -3.5152411226312683e-19 6.252721326182165e-17 0.2945196612664544 -0.9556454201885479
12645057333.333334 0.28761225817719155 -0.9577469336657098 1.0541618183080609e-19 6.251589994772203e-17 1.0541618183080609e-19 6.251589994772203e-17 0.2876128410678885 -0.9577467586229206
12645674666.666666 0.28069044644029034 -0.9597983503200057 5.62172373090427e-19 6.250125105481598e-17 5.62172373090427e-19 6.250125105481598e-17 0.2806910305509706 -0.959798179498215
12646292000.0 0.2737540051788294 -0.9617997424871791 1.0187201393134896e-18 6.248326866840956e-17 1.0187201393134896e-18 6.248326866840956e-17 0.27375459047893147 -0.9617995758948774
12646909333.333334 0.2668032959186957 -0.9637510058551296 1.4750351789137414e-18 6.246195505096392e-17 1.4750351789137414e-18 6.246195505096392e-17 0.2668038823775995 -0.9637508435005872
12647526666.666666 0.2598386809294223 -0.9656520387244631 1.9310932122329166e-18 6.243731264190502e-17 1.9310932122329166e-18 6.243731264190502e-17 0.2598392685164498 -0.9656518806157269
12648144000.0 0.2528605232052491 -0.9675027420137997 2.3868699828155134e-18 6.240934405742408e-17 2.3868699828155134e-18 6.240934405742408e-17 0.252861111889667 -0.9675025881586963
12648761333.333334 0.24586918644623343 -0.9693030192649366 2.842341258692514e-18 6.237805209026935e-17 2.842341258692514e-18 6.237805209026935e-17 0.24586977619725361 -0.9693028696710677
12649378666.666666 0.23886503503948472 -0.9710527766478194 3.2974828336703928e-18 6.234343970952807e-17 3.2974828336703928e-18 6.234343970952807e-17 0.23886562582626708 -0.9710526313225666
12649996000.0 0.23184843403981664 -0.9727519229655316 3.7522705286093544e-18 6.2305510060399e-17 3.7522705286093544e-18 6.2305510060399e-17 0.23184902583146974 -0.972751781916051
12650613333.333334 0.22481974915102226 -0.9744003696589641 4.206680192712053e-18 6.226426646395538e-17 4.206680192712053e-18 6.226426646395538e-17 0.2248203419166056 -0.9744002328921906
12651230666.666666 0.21777934670670404 -0.9759980308114636 4.6606877047801914e-18 6.221971241690046e-17 4.6606877047801914e-18 6.221971241690046e-17 0.21777994041522927 -0.9759978983341068
12651848000.0 0.2107275936510976 -0.9775448231533284 5.114268974522131e-18 6.217185159130987e-17 5.114268974522131e-18 6.217185159130987e-17 0.2107281882715301 -0.9775446949718734
12652465333.333334 0.2036648575201123 -0.9790406660661075 5.567399943798211e-18 6.212068783436949e-17 5.567399943798211e-18 6.212068783436949e-17 0.203665453021373 -0.9790405421868152
12653082666.666666 0.1965915064220924 -0.980485481586824 6.020056587897485e-18 6.206622516810136e-17 6.020056587897485e-18 6.206622516810136e-17 0.1965921027730597 -0.9804853620157321
12653700000.0 0.1895079090185207 -0.9818791944120632 6.472214916829764e-18 6.200846778907854e-17 6.472214916829764e-18 6.200846778907854e-17 0.1895085061880314 -0.9818790791549821
12654317333.333334 0.18241443450510936 -0.9832217319018312 6.923850976555373e-18 6.194742006813674e-17 6.923850976555373e-18 6.194742006813674e-17 0.18241503246196059 -0.9832216209643461
12654934666.666666 0.17531145259219552 -0.9845130240834138 7.374940850281242e-18 6.188308655006973e-17 7.374940850281242e-18 6.188308655006973e-17 0.17531205130514674 -0.984512917470886
12655552000.0 0.16819933348563956 -0.9857530036549931 7.825460659710431e-18 6.181547195331995e-17 7.825460659710431e-18 6.181547195331995e-17 0.16819993292341376 -0.9857529013725569
12656169333.333334 0.16107844786769757 -0.9869416059891223 8.275386566290974e-18 6.174458116966066e-17 8.275386566290974e-18 6.174458116966066e-17 0.16107904799898293 -0.9869415080416853
12656786666.666666 0.15394916687733795 -0.9880787691361596 8.724694772495403e-18 6.167041926386398e-17 8.724694772495403e-18 6.167041926386398e-17 0.15394976767078947 -0.9880786755284034
12657404000.0 0.14681186209120553 -0.989164433827444 9.173361523053744e-18 6.159299147336594e-17 9.173361523053744e-18 6.159299147336594e-17 0.14681246351544705 -0.9891643445638242
12658021333.333334 0.13966690550411504 -0.9901985434784071 9.621363106222367e-18 6.151230320791715e-17 9.621363106222367e-18 6.151230320791715e-17 0.13966750752774054 -0.9901984585631526
12658638666.666666 0.13251466950971943 -0.9911810441915163 1.0068675855011458e-17 6.142836004922999e-17 1.0068675855011458e-17 6.142836004922999e-17 0.13251527210129443 -0.9911809636286274
12659256000.0 0.1253555268810156 -0.9921118847590916 1.0515276148453368e-17 6.134116775060999e-17 1.0515276148453368e-17 6.134116775060999e-17 0.1253561300090794 -0.992111808552343
12659873333.333334 0.11818985075094406 -0.9929910166659733 1.0961140412834815e-17 6.125073223658355e-17 1.0961140412834815e-17 6.125073223658355e-17 0.1181904543840109 -0.9929909448189118
12660490666.666666 0.11101801459313881 -0.9938183940920253 1.1406245122926098e-17 6.115705960251677e-17 1.1406245122926098e-17 6.115705960251677e-17 0.11101861869969971 -0.9938183266079696
12661108000.0 0.10384039220209493 -0.9945939739145666 1.185056680324034e-17 6.106015611421943e-17 1.185056680324034e-17 6.106015611421943e-17 0.1038409967506194 -0.9945939107966086
12661725333.333334 0.09665735767399726 -0.9953177157105844 1.2294082029247797e-17 6.096002820754754e-17 1.2294082029247797e-17 6.096002820754754e-17 0.09665796263293475 -0.9953176569615875
12662342666.666666 0.0894692853870813 -0.9959895817588554 1.2736767428613141e-17 6.085668248799252e-17 1.2736767428613141e-17 6.085668248799252e-17 0.08946989072486299 -0.9959895273814559
12662960000.0 0.0822765499821771 -0.9966095370419071 1.317859968242755e-17 6.07501257302609e-17 1.317859968242755e-17 6.07501257302609e-17 0.08227715566721755 -0.9966094870385124
12663577333.333334 0.07507952634307012 -0.9971775492478528 1.3619555526420371e-17 6.064036487784976e-17 1.3619555526420371e-17 6.064036487784976e-17 0.0750801323437688 -0.9971775036206424
12664194666.666666 0.06787858957716032 -0.9976935887720587 1.405961175219318e-17 6.052740704260711e-17 1.405961175219318e-17 6.052740704260711e-17 0.06787919586190334 -0.9976935475229834
12664812000.0 0.060674114995685105 -0.9981576287187036 1.449874520842448e-17 6.04112595042893e-17 1.449874520842448e-17 6.04112595042893e-17 0.06067472153284687 -0.9981575918494864
12665429333.333334 0.05346647809432811 -0.9985696449021692 1.4936932802089976e-17 6.029192971010549e-17 1.4936932802089976e-17 6.029192971010549e-17 0.05346708485227299 -0.9985696124143048
12666046666.666666 0.04625605453370553 -0.9989296158482988 1.537415149966889e-17 6.016942527425613e-17 1.537415149966889e-17 6.016942527425613e-17 0.04625666148078944 -0.9989295877430531
12666664000.0 0.03904322011938923 -0.9992375227955385 1.5810378328356713e-17 6.004375397745885e-17 1.5810378328356713e-17 6.004375397745885e-17 0.039043827223961304 -0.9992374990739487
12667281333.333334 0.031828350782887545 -0.9994933496958827 1.6245590377257497e-17 5.991492376647173e-17 1.6245590377257497e-17 5.991492376647173e-17 0.03182895801329185 -0.9994933303587588
12667898666.666666 0.02461182256168291 -0.9996970832157346 1.6679764798587488e-17 5.978294275360279e-17 1.6679764798587488e-17 5.978294275360279e-17 0.02461242988625997 -0.9996970682636559
12668516000.0 0.017394011579547376 -0.9998487127365946 1.7112878808874953e-17 5.964781921621081e-17 1.7112878808874953e-17 5.964781921621081e-17 0.017394618966635942 -0.9998487021699135
12669133333.333334 0.010175294027393847 -0.999948230355608 1.7544909690140938e-17 5.950956159620265e-17 1.7544909690140938e-17 5.950956159620265e-17 0.010175901445332458 -0.9999482241744465
12669750666.666666 0.002956046143157543 -0.999995630885982 1.7975834791091183e-17 5.936817849951655e-17 1.7975834791091183e-17 5.936817849951655e-17 0.0029566535602862662 -0.9999956290902372
12670368000.0 -0.004263355807500767 -0.9999909118572601 1.840563152830582e-17 5.922367869559724e-17 1.840563152830582e-17 5.922367869559724e-17 -0.004262748422838769 -0.9999909144465953
