! Parameters = {f0=12700.012000; bw=77.238000; Q=6100.000000; N=10; m_0_1=1.220916; m_1_1=-0.451007; m_1_2=1.055728; m_2_2=-0.451656; m_2_3=0.692691; m_2_8=-0.001891; m_2_9=0.034813; m_3_3=-0.453593; m_3_4=0.581220; m_3_7=-0.001291; m_3_8=-0.098379; m_3_9=-0.001891; m_4_4=-0.456518; m_4_5=0.417555; m_4_6=0.002226; m_4_7=-0.118928; m_4_8=-0.001291; m_5_5=-0.456136; m_5_6=0.824910; m_5_7=0.002226; m_6_6=-0.456137; m_6_7=0.417897; m_7_7=-0.456504; m_7_8=0.581338; m_8_8=-0.453595; m_8_9=0.693004; m_9_9=-0.451661; m_9_10=1.056806; m_10_10=-0.451017; m_10_11=1.221711}
!
! Created with skrf (http://scikit-rf.org).
# Hz S RI R 50.0 
!freq ReS11 ImS11 ReS21 ImS21 ReS12 ImS12 ReS22 ImS22
12607400000.0 0.5433330755890667 -0.8395172237487223 -2.4645100071913082e-17 8.368767894513489e-17 -2.4645100071913082e-17 8.368767894513489e-17 0.5433336156819656 -0.839516874201942
12608017333.333334 0.5356948123212402 -0.8444116697748479 -2.3872772524277238e-17 8.389349366524883e-17 -2.3872772524277238e-17 8.389349366524883e-17 0.5356953555363211 -0.8444113251589248
12608634666.666666 0.5280124620861036 -0.8492366218443527 -2.3098743874867548e-17 8.409218676430327e-17 -2.3098743874867548e-17 8.409218676430327e-17 0.5280130083783565 -0.849236282187163
12609252000.0 0.5202866571308782 -0.8539916828701625 -2.2323079737808598e-17 8.428374435964211e-17 -2.2323079737808598e-17 8.428374435964211e-17 0.5202872064550453 -0.8539913481991733
12609869333.333334 0.5125180332790278 -0.8586764615171619 -2.1545845838715536e-17 8.44681531726443e-17 -2.1545845838715536e-17 8.44681531726443e-17 0.5125185855896056 -0.8586761318594265
12610486666.666666 0.5047072298780492 -0.8632905722343213 -2.0767108009164314e-17 8.464540052959406e-17 -2.0767108009164314e-17 8.464540052959406e-17 0.5047077851292932 -0.8632902476164779
12611104000.0 0.49685488974661435 -0.8678336352865775 -1.9986932181092825e-17 8.481547436251586e-17 -1.9986932181092825e-17 8.481547436251586e-17 0.4968554478925422 -0.8678333157348467
12611721333.333334 0.4889616591219079 -0.8723052767859356 -1.9205384381267994e-17 8.497836320994082e-17 -1.9205384381267994e-17 8.497836320994082e-17 0.48896222011630397 -0.8723049623261188
12612338666.666666 0.4810281876063487 -0.8767051287223023 -1.842253072568683e-17 8.513405621763608e-17 -1.842253072568683e-17 8.513405621763608e-17 0.48102875140276713 -0.8767048193797793
12612956000.0 0.4730551281140255 -0.8810328289938236 -1.7638437413998673e-17 8.52825431392765e-17 -1.7638437413998673e-17 8.52825431392765e-17 0.47305569466579483 -0.8810325247935511
12613573333.333334 0.46504313681721465 -0.8852880214365509 -1.6853170723932394e-17 8.542381433706376e-17 -1.6853170723932394e-17 8.542381433706376e-17 0.4650437060774407 -0.8852877224030592
12614190666.666666 0.45699287309212633 -0.8894703558538872 -1.6066797005697337e-17 8.555786078229808e-17 -1.6066797005697337e-17 8.555786078229808e-17 0.4569934450136972 -0.8894700620112799
12614808000.0 0.44890499946476603 -0.8935794880453424 -1.5279382676392604e-17 8.56846740558969e-17 -1.5279382676392604e-17 8.56846740558969e-17 0.4489055740003546 -0.893579199417292
12615425333.333334 0.440780181556407 -0.8976150798348577 -1.4490994214410364e-17 8.580424634886184e-17 -1.4490994214410364e-17 8.580424634886184e-17 0.4407807586584769 -0.8976147964446074
12616042666.666666 0.4326190880287124 -0.9015767990986923 -1.3701698153838795e-17 8.591657046269493e-17 -1.3701698153838795e-17 8.591657046269493e-17 0.43261966764951937 -0.9015765209690499
12616660000.0 0.42442239052885355 -0.9054643197926744 -1.2911561078850206e-17 8.602163980976445e-17 -1.2911561078850206e-17 8.602163980976445e-17 0.42442297262045203 -0.9054640469460151
12617277333.333334 0.4161907636341111 -0.9092773219791052 -1.2120649618109213e-17 8.611944841361648e-17 -1.2120649618109213e-17 8.611944841361648e-17 0.4161913481483561 -0.9092770544373652
12617894666.666666 0.40792488479650957 -0.9130154918530085 -1.1329030439169646e-17 8.620999090923709e-17 -1.1329030439169646e-17 8.620999090923709e-17 0.4079254716850617 -0.9130152296376862
12618512000.0 0.3996254342867818 -0.9166785217680942 -1.0536770242843312e-17 8.629326254326553e-17 -1.0536770242843312e-17 8.629326254326553e-17 0.39962602350111065 -0.9166782649002466
12619129333.333334 0.3912930951387699 -0.9202661102618951 -9.74393575762959e-18 8.636925917414942e-17 -9.74393575762959e-18 8.636925917414942e-17 0.39129368663015895 -0.9202658587621382
12619746666.666666 0.38292855309285123 -0.9237779620807435 -8.950593734073683e-18 8.643797727225668e-17 -8.950593734073683e-18 8.643797727225668e-17 0.38292914681240103 -0.9237777159692493
12620364000.0 0.374532496539657 -0.927213788203998 -8.156810939174249e-18 8.649941391992983e-17 -8.156810939174249e-18 8.649941391992983e-17 0.3745330924382895 -0.9272135475004929
12620981333.333334 0.3661056164635499 -0.9305733058677749 -7.362654150789558e-18 8.655356681149076e-17 -7.362654150789558e-18 8.655356681149076e-17 0.36610621449201314 -0.930573070591539
12621598666.666666 0.3576486063855233 -0.9338562385883228 -6.5681901520103684e-18 8.660043425319619e-17 -6.5681901520103684e-18 8.660043425319619e-17 0.35764920649439375 -0.9338560087581856
12622216000.0 0.349162162306253 -0.937062316184713 -5.7734857255690646e-18 8.664001516313945e-17 -5.7734857255690646e-18 8.664001516313945e-17 0.34916276444594146 -0.937062091819056
12622833333.333334 0.34064698264876736 -0.9401912748011053 -4.978607648236227e-18 8.667230907110189e-17 -4.978607648236227e-18 8.667230907110189e-17 0.3406475867695226 -0.9401910559178587
12623450666.666666 0.3321037682011003 -0.9432428569284089 -4.1836226852223754e-18 8.669731611835314e-17 -4.1836226852223754e-18 8.669731611835314e-17 0.3321043742530124 -0.9432426435450488
12624068000.0 0.3235332220583773 -0.9462168114255647 -3.3885975845853077e-18 8.671503705739984e-17 -3.3885975845853077e-18 8.671503705739984e-17 0.3235338299913826 -0.9462166035591133
12624685333.333334 0.3149360495650837 -0.9491128935401605 -2.5935990716262875e-18 8.672547325168351e-17 -2.5935990716262875e-18 8.672547325168351e-17 0.31493665932896886 -0.9491126912071854
12625302666.666666 0.3063129582571797 -0.9519308649285264 -1.7986938433297942e-18 8.672862667522694e-17 -1.7986938433297942e-18 8.672862667522694e-17 0.30631356980158514 -0.9519306681451369
12625920000.0 0.2976646578034919 -0.9546704936754704 -1.003948562746164e-18 8.672449991223019e-17 -1.003948562746164e-18 8.672449991223019e-17 0.29766527107791674 -0.9546703024573184
12626537333.333334 0.2889918599476876 -0.9573315543132452 -2.0942985343845562e-19 8.6713096156615e-17 -2.0942985343845562e-19 8.6713096156615e-17 0.2889924749014933 -0.9573313686755216
12627154666.666666 0.2802952784495641 -0.9599138278401449 5.847957060898698e-19 8.66944192115183e-17 5.847957060898698e-19 8.66944192115183e-17 0.2802958950319791 -0.9599136477975816
12627772000.0 0.2715756290260346 -0.9624171017386126 1.3786615879859319e-18 8.66684734887348e-17 1.3786615879859319e-18 8.66684734887348e-17 0.27157624718615836 -0.9624169273054792
12628389333.333334 0.26283362929277126 -0.964841169992568 2.1721013205704007e-18 8.663526400810973e-17 2.1721013205704007e-18 8.663526400810973e-17 0.2628342489795781 -0.9648410011826708
12629006666.666666 0.25406999870462693 -0.9671858331045117 2.965048493925021e-18 8.659479639687888e-17 2.965048493925021e-18 8.659479639687888e-17 0.25407061986697066 -0.967185669931193
12629624000.0 0.24528545849675368 -0.9694508981118514 3.75743676542106e-18 8.654707688895981e-17 3.75743676542106e-18 8.654707688895981e-17 0.2452860810833717 -0.9694507405879881
12630241333.333334 0.2364807316250812 -0.971636178602826 4.549199865257185e-18 8.64921123241916e-17 4.549199865257185e-18 8.64921123241916e-17 0.23648135558459904 -0.9716360267408306
12630858666.666666 0.22765654270698493 -0.9737414947318103 5.340271601984171e-18 8.642991014752485e-17 5.340271601984171e-18 8.642991014752485e-17 0.22765716798791946 -0.973741348543625
12631476000.0 0.21881361796137325 -0.9757666732341762 6.13058586805033e-18 8.636047840815881e-17 6.13058586805033e-18 8.636047840815881e-17 0.2188142445121382 -0.9757665327312778
12632093333.333334 0.2099526851491703 -0.9777115474404966 6.920076645278811e-18 8.628382575863256e-17 6.920076645278811e-18 8.628382575863256e-17 0.20995331291807975 -0.9777114126338917
12632710666.666666 0.20107447351342278 -0.9795759572902639 7.708678010394216e-18 8.619996145386193e-17 7.708678010394216e-18 8.619996145386193e-17 0.20107510244869567 -0.9795758281904898
12633328000.0 0.19217971371903356 -0.9813597493451153 8.496324140511985e-18 8.610889535012702e-17 8.496324140511985e-18 8.610889535012702e-17 0.19218034376879778 -0.981359625962238
12633945333.333334 0.1832691377929072 -0.9830627768014012 9.282949318607588e-18 8.601063790401251e-17 9.282949318607588e-18 8.601063790401251e-17 0.18326976890520424 -0.9830626591450161
12634562666.666666 0.1743434790635662 -0.984684899502297 1.00684879389966e-17 8.590520017129447e-17 1.00684879389966e-17 8.590520017129447e-17 0.17434411118635504 -0.9846847875815271
12635180000.0 0.1654034721008546 -0.9862259839493274 1.0852874512791159e-17 8.579259380577942e-17 1.0852874512791159e-17 8.579259380577942e-17 0.16540410518201612 -0.9862258777728223
12635797333.333334 0.15644985265534359 -0.9876859033133749 1.1636043673346865e-17 8.567283105809294e-17 1.1636043673346865e-17 8.567283105809294e-17 0.15645048664268504 -0.9876858028893118
12636414666.666666 0.14748335759806142 -0.9890645374450747 1.2417930181697406e-17 8.554592477441933e-17 1.2417930181697406e-17 8.554592477441933e-17 0.14748399243932028 -0.9890644427811547
12637032000.0 0.1385047248595681 -0.9903617728847438 1.3198468931976197e-17 8.541188839519085e-17 1.3198468931976197e-17 8.541188839519085e-17 0.13850536050241705 -0.9903616839881947
12637649333.333334 0.12951469336936625 -0.9915775028717 1.397759495682489e-17 8.527073595372859e-17 1.397759495682489e-17 8.527073595372859e-17 0.12951532976141691 -0.9915774197492744
12638266666.666666 0.12051400299505942 -0.9927116273530522 1.4755243432788095e-17 8.512248207483373e-17 1.4755243432788095e-17 8.512248207483373e-17 0.12051464008386695 -0.9927115500110256
12638884000.0 0.11150339448146208 -0.9937640529919312 1.5531349685691475e-17 8.496714197333018e-17 1.5531349685691475e-17 8.496714197333018e-17 0.11150403221452947 -0.9937639814361047
12639501333.333334 0.10248360938963735 -0.9947346931751747 1.630584919601977e-17 8.480473145255573e-17 1.630584919601977e-17 8.480473145255573e-17 0.10248424771441966 -0.9947346274108722
12640118666.666666 0.0934553900359244 -0.9956234680204512 1.707867760423875e-17 8.46352669028123e-17 1.707867760423875e-17 8.46352669028123e-17 0.09345602889983307 -0.9956234080525181
12640736000.0 0.08441947943056323 -0.9964303043828556 1.7849770716178615e-17 8.44587652997519e-17 1.7849770716178615e-17 8.44587652997519e-17 0.08442011878097046 -0.9964302502156605
12641353333.333334 0.07537662121711229 -0.9971551358608799 1.861906450829347e-17 8.42752442027373e-17 1.861906450829347e-17 8.42752442027373e-17 0.07537726100135551 -0.9971550874983143
12641970666.666666 0.0663275596106816 -0.9977979028019297 1.938649513301225e-17 8.408472175313057e-17 1.938649513301225e-17 8.408472175313057e-17 0.06632819977606762 -0.9977978602474068
12642588000.0 0.05727303933696773 -0.9983585523072076 2.0151998924010512e-17 8.388721667254724e-17 2.0151998924010512e-17 8.388721667254724e-17 0.057273679830777156 -0.9983585155636623
12643205333.333334 0.04821380557096419 -0.9988370382360695 2.0915512401467486e-17 8.368274826106252e-17 2.0915512401467486e-17 8.368274826106252e-17 0.04821444634045566 -0.9988370073059569
12643822666.666666 0.039150603875407156 -0.9992333212098304 2.1676972277336313e-17 8.347133639536168e-17 2.1676972277336313e-17 8.347133639536168e-17 0.03915124486782192 -0.9992332960951296
12644440000.0 0.03008418013972923 -0.9995473686149938 2.2436315460562938e-17 8.325300152685168e-17 2.2436315460562938e-17 8.325300152685168e-17 0.030084821302295253 -0.9995473493172031
12645057333.333334 0.021015280518531517 -0.9997791546059382 2.3193479062302948e-17 8.302776467972034e-17 2.3193479062302948e-17 8.302776467972034e-17 0.021015921798467944 -0.999779141126078
12645674666.666666 0.01194465137020481 -0.9999286601070508 2.3948400401114962e-17 8.279564744895083e-17 2.3948400401114962e-17 8.279564744895083e-17 0.011945292714726257 -0.9999286524456618
12646292000.0 0.0028730391953061245 -0.9999958728142931 2.4701017008162415e-17 8.25566719982792e-17 2.4701017008162415e-17 8.25566719982792e-17 0.0028736805516270734 -0.9999958709714377
12646909333.333334 -0.00619880942447934 -0.9999807871962128 2.545126663232533e-17 8.2310861058127e-17 2.545126663232533e-17 8.2310861058127e-17 -0.006198168109140233 -0.9999807911714746
12647526666.666666 -0.015270147888178782 -0.9998834044943997 2.619908724536913e-17 8.205823792346355e-17 2.619908724536913e-17 8.205823792346355e-17 -0.01526950666659433 -0.9998834142868837
12648144000.0 -0.024340229636777094 -0.9997037327233838 2.694441704705524e-17 8.17988264516331e-17 2.694441704705524e-17 8.17988264516331e-17 -0.024339588561707263 -0.9997037483317166
12648761333.333334 -0.033408308214657706 -0.9994417866699754 2.7687194470223683e-17 8.153265106013813e-17 2.7687194470223683e-17 8.153265106013813e-17 -0.033407667338845225 -0.9994418080923044
12649378666.666666 -0.042473637331006425 -0.99909758789205 2.842735818587496e-17 8.125973672436952e-17 2.842735818587496e-17 8.125973672436952e-17 -0.04247299670717249 -0.9990976151260443
12649996000.0 -0.05153547092137234 -0.9986711647167705 2.916484710821861e-17 8.098010897529514e-17 2.916484710821861e-17 8.098010897529514e-17 -0.05153483060221227 -0.9986711977596222
12650613333.333334 -0.06059306320898248 -0.9981625522382563 2.989960039970362e-17 8.069379389710017e-17 2.989960039970362e-17 8.069379389710017e-17 -0.060592423247161416 -0.9981625910866797
12651230666.666666 -0.06964566876597675 -0.9975717923147077 3.0631557476012836e-17 8.040081812478853e-17 3.0631557476012836e-17 8.040081812478853e-17 -0.06964502921412516 -0.9975718369649379
12651848000.0 -0.07869254257515235 -0.996898933564931 3.136065801106564e-17 8.010120884172535e-17 3.136065801106564e-17 8.010120884172535e-17 -0.07869190348586197 -0.9968989840127277
12652465333.333334 -0.08773294009085243 -0.996144031364367 3.208684194196551e-17 7.979499377714792e-17 3.208684194196551e-17 7.979499377714792e-17 -0.08773230151667184 -0.9961440876050139
12653082666.666666 -0.09676611730035514 -0.9953071478405313 3.2810049473921106e-17 7.948220120363215e-17 3.2810049473921106e-17 7.948220120363215e-17 -0.09676547929378514 -0.995307209868833
12653700000.0 -0.10579133078535889 -0.9943883518678713 3.3530221085188354e-17 7.916285993449638e-17 3.3530221085188354e-17 7.916285993449638e-17 -0.10579069339884874 -0.99438841967816
12654317333.333334 -0.11480783778276911 -0.9933877190621413 3.424729753192215e-17 7.883699932118784e-17 3.424729753192215e-17 7.883699932118784e-17 -0.11480720106871177 -0.9933877926482718
12654934666.666666 -0.12381489624608122 -0.9923053317741516 3.496121985305935e-17 7.85046492506016e-17 3.496121985305935e-17 7.85046492506016e-17 -0.12381426025680932 -0.9923054111295053
12655552000.0 -0.1328117649065626 -0.9911412790829781 3.5671929375150956e-17 7.816584014236526e-17 3.5671929375150956e-17 7.816584014236526e-17 -0.13281112969434383 -0.9911413642004606
12656169333.333334 -0.14179770333383448 -0.9898956567886774 3.637936771716006e-17 7.782060294608547e-17 3.637936771716006e-17 7.782060294608547e-17 -0.14179706895086772 -0.9898957476607226
12656786666.666666 -0.15077197199720424 -0.9885685674043618 3.708347679525282e-17 7.746896913854074e-17 3.708347679525282e-17 7.746896913854074e-17 -0.15077133849561475 -0.9885686640229292
12657404000.0 -0.15973383232635743 -0.9871601201477769 3.778419882755188e-17 7.711097072083696e-17 3.778419882755188e-17 7.711097072083696e-17 -0.15973319975819308 -0.9871602225043549
12658021333.333334 -0.16868254677219835 -0.985670430932309 3.8481476338867e-17 7.674664021551786e-17 3.8481476338867e-17 7.674664021551786e-17 -0.168681915189425 -0.9856705390179142
12658638666.666666 -0.17761737886740836 -0.9840996223574673 3.917525216538281e-17 7.637601066364046e-17 3.917525216538281e-17 7.637601066364046e-17 -0.17761674832190597 -0.9840997361626469
12659256000.0 -0.18653759328730934 -0.982447823698753 3.986546945936203e-17 7.599911562178591e-17 3.986546945936203e-17 7.599911562178591e-17 -0.18653696383086715 -0.9824479432135832
12659873333.333334 -0.19544245591023862 -0.9807151708970409 4.055207169375748e-17 7.56159891590607e-17 4.055207169375748e-17 7.56159891590607e-17 -0.19544182759455128 -0.9807152961111292
12660490666.666666 -0.20433123387779958 -0.9789018065474258 4.1235002666836796e-17 7.522666585403511e-17 4.1235002666836796e-17 7.522666585403511e-17 -0.20433060675446288 -0.9789019374499119
12661108000.0 -0.21320319565556514 -0.9770078798874104 4.191420650678831e-17 7.483118079163371e-17 4.191420650678831e-17 7.483118079163371e-17 -0.2132025697760717 -0.9770080164669673
12661725333.333334 -0.22205761109286415 -0.975033546784708 4.258962767624645e-17 7.442956956001292e-17 4.258962767624645e-17 7.442956956001292e-17 -0.2220569865085992 -0.9750336890295421
12662342666.666666 -0.23089375148317837 -0.9729789697243517 4.326121097685105e-17 7.402186824736186e-17 4.326121097685105e-17 7.402186824736186e-17 -0.2308931282454156 -0.9729791176222047
12662960000.0 -0.2397108896239469 -0.9708443177953578 4.39289015537214e-17 7.360811343869416e-17 4.39289015537214e-17 7.360811343869416e-17 -0.23971026778384397 -0.9708444713335067
12663577333.333334 -0.248508299876552 -0.9686297666767749 4.459264489993353e-17 7.318834221257937e-17 4.459264489993353e-17 7.318834221257937e-17 -0.24850767948514693 -0.9686299258420347
12664194666.666666 -0.25728525822587334 -0.9663354986232694 4.5252386860953935e-17 7.276259213784202e-17 4.5252386860953935e-17 7.276259213784202e-17 -0.25728463933407975 -0.9663356634019932
12664812000.0 -0.2660410423399833 -0.9639617024500992 4.5908073639044235e-17 7.233090127021968e-17 4.5908073639044235e-17 7.233090127021968e-17 -0.2660404249985864 -0.9639618728281789
12665429333.333334 -0.2747749316295936 -0.961508573517569 4.6559651797633866e-17 7.189330814898086e-17 4.6559651797633866e-17 7.189330814898086e-17 -0.27477431588924606 -0.9615087494804377
12666046666.666666 -0.28348620730722235 -0.9589763137149969 4.720706826565927e-17 7.144985179350613e-17 4.720706826565927e-17 7.144985179350613e-17 -0.28348559321844047 -0.9589764952476298
12666664000.0 -0.29217415244665024 -0.9563651314440109 4.785027034188232e-17 7.100057169982084e-17 4.785027034188232e-17 7.100057169982084e-17 -0.2921735400598089 -0.9563653185309248
12667281333.333334 -0.3008380520415123 -0.9536752416015144 4.84892056991462e-17 7.054550783711082e-17 4.84892056991462e-17 7.054550783711082e-17 -0.30083744140684204 -0.9536754342267725
12667898666.666666 -0.30947719306452465 -0.9509068655618914 4.9123822388636456e-17 7.008470064417333e-17 4.9123822388636456e-17 7.008470064417333e-17 -0.3094765842321066 -0.950907063709102
12668516000.0 -0.31809086452600077 -0.948060231158833 4.9754068844088065e-17 6.961819102584313e-17 4.9754068844088065e-17 6.961819102584313e-17 -0.31809025754576287 -0.948060434811151
12669133333.333334 -0.3266783575322309 -0.945135572666632 5.037989388595184e-17 6.914602034938795e-17 5.037989388595184e-17 6.914602034938795e-17 -0.32667775245394387 -0.9451357818067615
12669750666.666666 -0.3352389653440662 -0.9421331307808246 5.100124672554359e-17 6.866823044085234e-17 5.100124672554359e-17 6.866823044085234e-17 -0.33523836221733944 -0.9421333453910196
12670368000.0 -0.3437719834349743 -0.9390531525984154 5.161807696915152e-17 6.8184863581371e-17 5.161807696915152e-17 6.8184863581371e-17 -0.3437713823092517 -0.9390533726604814
