! Parameters = {f0=12700.012000; bw=77.238000; Q=6100.000000; N=10; m_0_1=1.254149; m_1_1=0.047492; m_1_2=1.088961; m_2_2=0.046843; m_2_3=0.725924; m_2_8=-0.000229; m_2_9=0.036475; m_3_3=0.044906; m_3_4=0.614453; m_3_7=0.000371; m_3_8=-0.096717; m_3_9=-0.000229; m_4_4=0.041981; m_4_5=0.450788; m_4_6=0.003888; m_4_7=-0.117266; m_4_8=0.000371; m_5_5=0.042363; m_5_6=0.858143; m_5_7=0.003888; m_6_6=0.042362; m_6_7=0.451130; m_7_7=0.041995; m_7_8=0.614571; m_8_8=0.044904; m_8_9=0.726237; m_9_9=0.046838; m_9_10=1.090039; m_10_10=0.047482; m_10_11=1.254944}
!
! Created with skrf (http://scikit-rf.org).
# Hz S RI R 50.0 
!freq ReS11 ImS11 ReS21 ImS21 ReS12 ImS12 ReS22 ImS22
12607400000.0 -0.6079399140252487 -0.7939830356719216 8.292570165594321e-17 6.037651852916853e-17 8.292570165594321e-17 6.037651852916853e-17 -0.6079393893698801 -0.7939834373917409
12608017333.333334 -0.6158920381262603 -0.7878305638730382 8.351746787393269e-17 5.952064958605766e-17 8.351746787393269e-17 5.952064958605766e-17 -0.615891517561865 -0.7878309708276079
12608634666.666666 -0.6237819021999553 -0.7815984509245353 8.410040930740074e-17 5.865899180388903e-17 8.410040930740074e-17 5.865899180388903e-17 -0.623781385778754 -0.7815988630722063
12609252000.0 -0.6316087086663932 -0.7752873268257391 8.467446944543806e-17 5.779163608847443e-17 8.467446944543806e-17 5.779163608847443e-17 -0.6316081964401815 -0.7752877441243403
12609869333.333334 -0.6393716663201632 -0.7688978295630736 8.523959271272173e-17 5.691867389604943e-17 8.523959271272173e-17 5.691867389604943e-17 -0.6393711583403097 -0.7688982519699201
12610486666.666666 -0.6470699904101727 -0.7624306050457356 8.579572447484905e-17 5.604019722367496e-17 8.579572447484905e-17 5.604019722367496e-17 -0.6470694867276094 -0.7624310325176276
12611104000.0 -0.6547029027192569 -0.755886307040157 8.634281104360628e-17 5.515629859953613e-17 8.634281104360628e-17 5.515629859953613e-17 -0.6547024033844779 -0.7558867395333883
12611721333.333334 -0.6622696316424598 -0.7492655971042503 8.688079968209853e-17 5.426707107325113e-17 8.688079968209853e-17 5.426707107325113e-17 -0.6622691367055139 -0.7492660345746105
12612338666.666666 -0.6697694122653802 -0.7425691445202359 8.740963860980957e-17 5.337260820608397e-17 8.740963860980957e-17 5.337260820608397e-17 -0.6697689217758673 -0.7425695869230168
12612956000.0 -0.6772014864414095 -0.735797626227058 8.79292770075614e-17 5.2473004061108296e-17 8.79292770075614e-17 5.2473004061108296e-17 -0.6772010004484751 -0.7357980735170566
12613573333.333334 -0.6845651028682023 -0.7289517267521046 8.843966502234387e-17 5.1568353193370574e-17 8.843966502234387e-17 5.1568353193370574e-17 -0.6845646214205329 -0.728952178883629
12614190666.666666 -0.6918595171638581 -0.7220321381418013 8.894075377207924e-17 5.06587506399466e-17 8.894075377207924e-17 5.06587506399466e-17 -0.6918590403096749 -0.7220325950686739
12614808000.0 -0.6990839919419802 -0.7150395598918247 8.94324953502614e-17 4.974429190999268e-17 8.94324953502614e-17 4.974429190999268e-17 -0.6990835197290363 -0.7150400215673879
12615425333.333334 -0.7062377968863641 -0.7079746988762543 8.991484283050304e-17 4.882507297473435e-17 8.991484283050304e-17 4.882507297473435e-17 -0.7062373293619387 -0.7079751652533756
12616042666.666666 -0.7133202088247427 -0.7008382692761962 9.038775027097198e-17 4.790119025742682e-17 9.038775027097198e-17 4.790119025742682e-17 -0.713319746035636 -0.7008387403072717
12616660000.0 -0.7203305118019087 -0.6936309925075635 9.085117271873848e-17 4.697274062324744e-17 9.085117271873848e-17 4.697274062324744e-17 -0.7203300537944387 -0.6936314681445247
12617277333.333334 -0.7272679971521331 -0.6863535971481121 9.130506621400611e-17 4.603982136916932e-17 9.130506621400611e-17 4.603982136916932e-17 -0.7272675439721284 -0.686354077342428
12617894666.666666 -0.7341319635706238 -0.6790068188639703 9.174938779423906e-17 4.5102530213797966e-17 9.174938779423906e-17 4.5102530213797966e-17 -0.7341315152634217 -0.6790073035666552
12618512000.0 -0.7409217171847543 -0.6715914003349233 9.218409549820443e-17 4.416096528712599e-17 9.218409549820443e-17 4.416096528712599e-17 -0.7409212737951951 -0.6715918894965405
12619129333.333334 -0.7476365716238559 -0.6641080911797078 9.260914836987286e-17 4.321522512032858e-17 9.260914836987286e-17 4.321522512032858e-17 -0.7476361331962779 -0.6641085847503744
12619746666.666666 -0.7542758480888155 -0.656557647880006 9.302450646225706e-17 4.226540863543249e-17 9.302450646225706e-17 4.226540863543249e-17 -0.7542754146670515 -0.6565581458093985
12620364000.0 -0.7608388754207112 -0.6489408337039485 9.343013084111881e-17 4.131161513500089e-17 9.343013084111881e-17 4.131161513500089e-17 -0.7608384470480831 -0.6489413359413074
12620981333.333334 -0.7673249901684159 -0.6412584186292357 9.382598358856775e-17 4.0353944291794684e-17 9.382598358856775e-17 4.0353944291794684e-17 -0.7673245668877321 -0.6412589251233716
12621598666.666666 -0.7737335366559659 -0.6335111792649588 9.421202780657417e-17 3.939249613835127e-17 9.421202780657417e-17 3.939249613835127e-17 -0.7737331185095151 -0.6335116899642566
12622216000.0 -0.7800638670486724 -0.6256998987732857 9.458822762035965e-17 3.842737105656802e-17 9.458822762035965e-17 3.842737105656802e-17 -0.7800634540782199 -0.62570041362571
12622833333.333334 -0.7863153414186824 -0.6178253667902024 9.495454818168339e-17 3.7458669767248484e-17 9.495454818168339e-17 3.7458669767248484e-17 -0.7863149336654679 -0.6178258857433043
12623450666.666666 -0.7924873278095328 -0.6098883793458724 9.531095567202695e-17 3.648649331960733e-17 9.531095567202695e-17 3.648649331960733e-17 -0.7924869253142621 -0.6098889023467922
12624068000.0 -0.7985792023002208 -0.6018897387839158 9.565741730566945e-17 3.551094308074791e-17 9.565741730566945e-17 3.551094308074791e-17 -0.7985788051030671 -0.6018902657793913
12624685333.333334 -0.8045903490682278 -0.5938302536803716 9.599390133265709e-17 3.4532120725108764e-17 9.599390133265709e-17 3.4532120725108764e-17 -0.8045899572088223 -0.5938307846167404
12625302666.666666 -0.8105201604516151 -0.5857107387621611 9.632037704165316e-17 3.3550128223915373e-17 9.632037704165316e-17 3.3550128223915373e-17 -0.8105197739690465 -0.5857112735853685
12625920000.0 -0.8163680370107225 -0.5775320148243624 9.663681476270489e-17 3.2565067834534295e-17 9.663681476270489e-17 3.2565067834534295e-17 -0.8163676559435329 -0.5775325534799665
12626537333.333334 -0.8221333875884671 -0.5692949086476529 9.694318586987069e-17 3.1577042089895525e-17 9.694318586987069e-17 3.1577042089895525e-17 -0.8221330119746463 -0.5692954510808289
12627154666.666666 -0.8278156293703014 -0.5610002529144528 9.723946278376678e-17 3.05861537878081e-17 9.723946278376678e-17 3.05861537878081e-17 -0.8278152592472849 -0.5610007990700002
12627772000.0 -0.8334141879431585 -0.5526488861247019 9.752561897399464e-17 2.95925059802799e-17 9.752561897399464e-17 2.95925059802799e-17 -0.8334138233478233 -0.5526494359470491
12628389333.333334 -0.8389284973533128 -0.5442416525114014 9.780162896144867e-17 2.859620196285741e-17 9.780162896144867e-17 2.859620196285741e-17 -0.8389281383219728 -0.5442422059446113
12629006666.666666 -0.8443580001638435 -0.5357794019548937 9.80674683205379e-17 2.7597345263863864e-17 9.80674683205379e-17 2.7597345263863864e-17 -0.8443576467322479 -0.5357799589426702
12629624000.0 -0.8497021475107515 -0.5272629898973041 9.832311368127384e-17 2.659603963370409e-17 9.832311368127384e-17 2.659603963370409e-17 -0.8497017997140791 -0.5272635503829969
12630241333.333334 -0.8549603991586312 -0.5186932772557808 9.856854273127048e-17 2.5592389034075365e-17 9.856854273127048e-17 2.5592389034075365e-17 -0.8549600570314874 -0.5186938411823914
12630858666.666666 -0.8601322235551269 -0.5100711303357026 9.880373421761767e-17 2.4586497627222237e-17 9.880373421761767e-17 2.4586497627222237e-17 -0.8601318871315415 -0.5100716976458909
12631476000.0 -0.8652170978848631 -0.5013974207427924 9.902866794866045e-17 2.357846976511317e-17 9.902866794866045e-17 2.357846976511317e-17 -0.8652167671982854 -0.5013979913788811
12632093333.333334 -0.8702145081220427 -0.4926730252954183 9.924332479565256e-17 2.2568409978669493e-17 9.924332479565256e-17 2.2568409978669493e-17 -0.8702141832053398 -0.4926735991994007
12632710666.666666 -0.8751239490825911 -0.4838988259356689 9.94476866943097e-17 2.1556422966940805e-17 9.94476866943097e-17 2.1556422966940805e-17 -0.8751236299680429 -0.4838994030492127
12633328000.0 -0.8799449244752303 -0.47507570964016793 9.964173664625734e-17 2.0542613586241694e-17 9.964173664625734e-17 2.0542613586241694e-17 -0.8799446111945273 -0.47507628990462225
12633945333.333334 -0.88467694695154 -0.4662045683306105 9.982545872035428e-17 1.9527086839344502e-17 9.982545872035428e-17 1.9527086839344502e-17 -0.884676639535779 -0.46620515168701177
12634562666.666666 -0.889319538155303 -0.4572862987834493 9.999883805391737e-17 1.850994786460753e-17 9.999883805391737e-17 1.850994786460753e-17 -0.8893192366349871 -0.45728688517252764
12635180000.0 -0.8938722287708012 -0.4483218025393682 1.0016186085383145e-16 1.749130192511326e-17 1.0016186085383145e-16 1.749130192511326e-17 -0.8938719331758321 -0.4483223919015521
12635797333.333334 -0.8983345585703442 -0.4393119858119668 1.0031451439755088e-16 1.6471254397789558e-17 1.0031451439755088e-16 1.6471254397789558e-17 -0.898334268930023 -0.43931257808739044
12636414666.666666 -0.9027060764606918 -0.43025775939635585 1.0045678703398545e-16 1.5449910762551905e-17 1.0045678703398545e-16 1.5449910762551905e-17 -0.9027057928037153 -0.4302583545248652
12637032000.0 -0.906986340528757 -0.4211600385768825 1.0058866818428549e-16 1.4427376591382252e-17 1.0058866818428549e-16 1.4427376591382252e-17 -0.9069860628832142 -0.42116063649804075
12637649333.333334 -0.9111749180861808 -0.4120197430348096 1.0071014834250688e-16 1.3403757537459713e-17 1.0071014834250688e-16 1.3403757537459713e-17 -0.911174646479549 -0.4120203436879032
12638266666.666666 -0.9152713857131517 -0.40283779675516457 1.0082121907617045e-16 1.2379159324258634e-17 1.0082121907617045e-16 1.2379159324258634e-17 -0.9152711201722966 -0.40283840007921023
12638884000.0 -0.9192753293011683 -0.39361512793343983 1.0092187302670956e-16 1.1353687734646527e-17 1.0092187302670956e-16 1.1353687734646527e-17 -0.9192750698523386 -0.3936157338671898
12639501333.333334 -0.9231863440949162 -0.38435266888170716 1.0101210390980646e-16 1.0327448599991634e-17 1.0101210390980646e-16 1.0327448599991634e-17 -0.9231860907637444 -0.38435327736365676
12640118666.666666 -0.9270040347331276 -0.3750513559345327 1.0109190651561934e-16 9.300547789261224e-18 1.0109190651561934e-16 9.300547789261224e-18 -0.9270037875446228 -0.3750519669029244
12640736000.0 -0.930728015288723 -0.36571212935387215 1.011612767089003e-16 8.273091198085624e-18 1.011612767089003e-16 8.273091198085624e-18 -0.9307277742672726 -0.36571274274670434
12641353333.333334 -0.9343579093075312 -0.3563359332347613 1.0122021142899634e-16 7.245184737924609e-18 1.0122021142899634e-16 7.245184737924609e-18 -0.9343576744768963 -0.3563365489897927
12641970666.666666 -0.9378933498466283 -0.34692371540916467 1.0126870868974836e-16 6.216934325106804e-18 1.0126870868974836e-16 6.216934325106804e-18 -0.937893121229942 -0.3469243334639214
12642588000.0 -0.9413339795112845 -0.3374764273505297 1.0130676757927331e-16 5.188445869976549e-18 1.0130676757927331e-16 5.188445869976549e-18 -0.9413337571310495 -0.33747704764231157
12643205333.333334 -0.9446794504911247 -0.327995024077524 1.013343882596397e-16 4.159825265985149e-18 1.013343882596397e-16 4.159825265985149e-18 -0.9446792343692108 -0.3279956465434107
12643822666.666666 -0.9479294245952872 -0.3184804640574929 1.0135157196643068e-16 3.131178378808235e-18 1.0135157196643068e-16 3.131178378808235e-18 -0.9479292147529306 -0.318481088634351
12644440000.0 -0.9510835732866221 -0.3089337091095426 1.0135832100819778e-16 2.102611035481805e-18 1.0135832100819778e-16 2.102611035481805e-18 -0.9510833697444201 -0.3089343357340307
12645057333.333334 -0.9541415777148728 -0.2993557243073904 1.0135463876580473e-16 1.0742290135320615e-18 1.0135463876580473e-16 1.0742290135320615e-18 -0.9541413804927862 -0.2993563529159668
12645674666.666666 -0.9571031287489217 -0.28974747788178024 1.0134052969166076e-16 4.613803011456465e-20 1.0134052969166076e-16 4.613803011456465e-20 -0.9571029378662698 -0.2897481084107091
12646292000.0 -0.9599679270081063 -0.2801099411223887 1.0131599930884438e-16 -9.815562688418986e-19 1.0131599930884438e-16 -9.815562688418986e-19 -0.9599677424835642 -0.28011057350774554
12646909333.333334 -0.9627356828923379 -0.27044408828009736 1.0128105421011744e-16 -2.0087483194510987e-18 1.0128105421011744e-16 -2.0087483194510987e-18 -0.9627355047439378 -0.2704447224577769
12647526666.666666 -0.9654061166115141 -0.26075089646807426 1.0123570205682957e-16 -3.03533265070993e-18 1.0123570205682957e-16 -3.03533265070993e-18 -0.9654059448566419 -0.2607515323737963
12648144000.0 -0.9679789582137576 -0.2510313455631324 1.011799515777124e-16 -4.0612038953078865e-18 1.011799515777124e-16 -4.0612038953078865e-18 -0.9679787928691511 -0.2510319831324482
12648761333.333334 -0.9704539476126892 -0.24128641810672968 1.0111381256756604e-16 -5.086256800410189e-18 1.0111381256756604e-16 -5.086256800410189e-18 -0.9704537886944362 -0.24128705727502853
12649378666.666666 -0.9728308346136961 -0.2315170992057557 1.0103729588583564e-16 -6.110386238439305e-18 1.0103729588583564e-16 -6.110386238439305e-18 -0.972830682137233 -0.2315177399082716
12649996000.0 -0.9751093789392978 -0.22172437643264464 1.0095041345507858e-16 -7.133487217839365e-18 1.0095041345507858e-16 -7.133487217839365e-18 -0.9751092329194094 -0.22172501860446306
12650613333.333334 -0.9772893502533885 -0.21190923972573533 1.0085317825932325e-16 -8.15545489382815e-18 1.0085317825932325e-16 -8.15545489382815e-18 -0.977289210704204 -0.21190988330179927
12651230666.666666 -0.9793705281845009 -0.2020726812892824 1.0074560434232098e-16 -9.17618457909822e-18 1.0074560434232098e-16 -9.17618457909822e-18 -0.9793703951194966 -0.2020733262043996
12651848000.0 -0.9813527023481562 -0.1922156954928504 1.0062770680568562e-16 -1.0195571754552141e-17 1.0062770680568562e-16 -1.0195571754552141e-17 -0.981352575780149 -0.19221634168169927
12652465333.333334 -0.9832356723680463 -0.18233927877115388 1.0049950180692939e-16 -1.1213512079961769e-17 1.0049950180692939e-16 -1.1213512079961769e-17 -0.9832355523091966 -0.18233992616829073
12653082666.666666 -0.9850192478963342 -0.1724444295231636 1.0036100655739152e-16 -1.2229901404616594e-17 1.0036100655739152e-16 -1.2229901404616594e-17 -0.9850191343581426 -0.17244507806302872
12653700000.0 -0.9867032486329191 -0.1625321480110098 1.0021223932005073e-16 -1.3244635778005357e-17 1.0021223932005073e-16 -1.3244635778005357e-17 -0.9867031416262264 -0.1625327976279346
12654317333.333334 -0.9882875043436059 -0.15260343625920286 1.0005321940724408e-16 -1.425761146037609e-17 1.0005321940724408e-16 -1.425761146037609e-17 -0.9882874038785918 -0.15260408688741628
12654934666.666666 -0.9897718548773439 -0.1426592979531717 9.988396717826675e-17 -1.526872493335288e-17 9.988396717826675e-17 -1.526872493335288e-17 -0.9897717609635249 -0.1426599495268067
12655552000.0 -0.9911561501824402 -0.13270073833763305 9.970450403686987e-17 -1.6277872910494438e-17 9.970450403686987e-17 -1.6277872910494438e-17 -0.9911560628286716 -0.13270139079073368
12656169333.333334 -0.9924402503216763 -0.12272876411533774 9.951485242865585e-17 -1.7284952347802082e-17 9.951485242865585e-17 -1.7284952347802082e-17 -0.9924401695361471 -0.12272941738186537
12656786666.666666 -0.9936240254864943 -0.11274438334499429 9.931503583836067e-17 -1.8289860454238304e-17 9.931503583836067e-17 -1.8289860454238304e-17 -0.9936239512767315 -0.11274503735883477
12657404000.0 -0.9947073560101088 -0.1027486053394779 9.910507878703314e-17 -1.92924947022011e-17 9.910507878703314e-17 -1.92924947022011e-17 -0.9947072883829707 -0.10274926003444765
12658021333.333334 -0.9956901323795916 -0.09274244056385593 9.888500682910981e-17 -2.029275283795859e-17 9.888500682910981e-17 -2.029275283795859e-17 -0.9956900713412732 -0.09274309587370927
12658638666.666666 -0.9965722552469527 -0.08272690053321329 9.865484654938673e-17 -2.129053289204596e-17 9.865484654938673e-17 -2.129053289204596e-17 -0.9965722008029804 -0.08272755639164862
12659256000.0 -0.9973536354391932 -0.0727029977102287 9.841462555987721e-17 -2.2285733189668233e-17 9.841462555987721e-17 -2.2285733189668233e-17 -0.9973535875944285 -0.0727036540508957
12659873333.333334 -0.9980341939673026 -0.06267174540305258 9.816437249657683e-17 -2.3278252361018294e-17 9.816437249657683e-17 -2.3278252361018294e-17 -0.9980341527259374 -0.06267240215955844
12660490666.666666 -0.9986138620342461 -0.052634157662844086 9.790411701612236e-17 -2.4267989351570963e-17 9.790411701612236e-17 -2.4267989351570963e-17 -0.9986138273998052 -0.052634814768760495
12661108000.0 -0.9990925810419297 -0.042591249181091445 9.763388979233255e-17 -2.525484343239601e-17 9.763388979233255e-17 -2.525484343239601e-17 -0.9990925530172692 -0.04259190656996125
12661725333.333334 -0.9994703025971103 -0.03254403518726449 9.735372251267034e-17 -2.6238714210339445e-17 9.735372251267034e-17 -2.6238714210339445e-17 -0.9994702811844206 -0.032544692792608514
12662342666.666666 -0.9997469885163027 -0.02249353134598753 9.706364787457993e-17 -2.7219501638249326e-17 9.706364787457993e-17 -2.7219501638249326e-17 -0.9997469737171019 -0.02249418910131107
12662960000.0 -0.9999226108296266 -0.012440753654479855 9.67636995817337e-17 -2.8197106025117824e-17 9.67636995817337e-17 -2.8197106025117824e-17 -0.9999226026447671 -0.012441411493279602
12663577333.333334 -0.9999971517836417 -0.002386718339792803 9.645391234017611e-17 -2.9171428046185434e-17 9.645391234017611e-17 -2.9171428046185434e-17 -0.9999971502133046 -0.0023873761955634574
12664194666.666666 -0.9999706038431362 0.007667558243806191 9.61343218543595e-17 -3.014236875302845e-17 9.61343218543595e-17 -3.014236875302845e-17 -0.9999706088868363 0.007666900437565145
12664812000.0 -0.9998429696918959 0.017721059717746526 9.580496482308629e-17 -3.1109829583576316e-17 9.580496482308629e-17 -3.1109829583576316e-17 -0.9998429813484777 0.0177204020275241
12665429333.333334 -0.9996142622324253 0.02777276978181402 9.546587893534546e-17 -3.2073712372101605e-17 9.546587893534546e-17 -3.2073712372101605e-17 -0.9996142805000661 0.02777211227408103
12666046666.666666 -0.9992845045846505 0.03782167231680268 9.511710286605595e-17 -3.3033919359146664e-17 9.511710286605595e-17 -3.3033919359146664e-17 -0.9992845294608595 0.03782101505800502
12666664000.0 -0.9988537300835747 0.04786675148743218 9.475867627169352e-17 -3.399035320145034e-17 9.475867627169352e-17 -3.399035320145034e-17 -0.9988537615651933 0.047866094543984106
12667281333.333334 -0.998321982275916 0.057906991844810615 9.439063978584742e-17 -3.4942916981747116e-17 9.439063978584742e-17 -3.4942916981747116e-17 -0.9983220203591184 0.05790633528308805
12667898666.666666 -0.9976893149157021 0.06794137842925592 9.401303501464606e-17 -3.5891514218610545e-17 9.401303501464606e-17 -3.5891514218610545e-17 -0.9976893595959946 0.06794072231558967
12668516000.0 -0.9969557919588256 0.07796889687292527 9.362590453210213e-17 -3.6836048876193463e-17 9.362590453210213e-17 -3.6836048876193463e-17 -0.9969558432310489 0.07796824127359446
12669133333.333334 -0.9961214875566007 0.08798853350213014 9.322929187536684e-17 -3.777642537390899e-17 9.322929187536684e-17 -3.777642537390899e-17 -0.9961215454149295 0.08798787848335538
12669750666.666666 -0.9951864860482525 0.09799927543997773 9.282324153986513e-17 -3.8712548596110736e-17 9.282324153986513e-17 -3.8712548596110736e-17 -0.9951865504861972 0.09799862106791458
