! Parameters = {f0=12700.012000; bw=77.238000; Q=6100.000000; N=10; m_0_1=1.271166; m_1_1=0.302747; m_1_2=1.105978; m_2_2=0.302098; m_2_3=0.742941; m_2_8=0.000622; m_2_9=0.037326; m_3_3=0.300161; m_3_4=0.631470; m_3_7=0.001222; m_3_8=-0.095866; m_3_9=0.000622; m_4_4=0.297236; m_4_5=0.467805; m_4_6=0.004739; m_4_7=-0.116415; m_4_8=0.001222; m_5_5=0.297618; m_5_6=0.875160; m_5_7=0.004739; m_6_6=0.297617; m_6_7=0.468147; m_7_7=0.297250; m_7_8=0.631588; m_8_8=0.300159; m_8_9=0.743254; m_9_9=0.302093; m_9_10=1.107056; m_10_10=0.302737; m_10_11=1.271961}
!
! Created with skrf (http://scikit-rf.org).
# Hz S RI R 50.0 
!freq ReS11 ImS11 ReS21 ImS21 ReS12 ImS12 ReS22 ImS22
12607400000.0 0.9981092400454998 0.06146498951124274 -1.0837138603584382e-16 2.497527792960013e-17 -1.0837138603584382e-16 2.497527792960013e-17 0.9981091988807104 0.06146565796873694
12608017333.333334 0.9987025161320816 0.05092429941856918 -1.080781910995463e-16 2.612245792037832e-17 -1.080781910995463e-16 2.612245792037832e-17 0.9987024820283125 0.05092496824064892
12608634666.666666 0.999184478709533 0.040377933401573064 -1.0777286084312469e-16 2.7266227807859167e-17 -1.0777286084312469e-16 2.7266227807859167e-17 0.999184451669894 0.040378602513660655
12609252000.0 0.9995550740592906 0.029827066938429937 -1.0745543462095752e-16 2.840645930868728e-17 -1.0745543462095752e-16 2.840645930868728e-17 0.9995550540861035 0.029827736265922666
12609869333.333334 0.9998142608755735 0.019272876008896808 -1.0712595314256802e-16 2.954302459066365e-17 -1.0712595314256802e-16 2.954302459066365e-17 0.9998142479703731 0.01927354547717526
12610486666.666666 0.9999620102699847 0.008716536963381701 -1.0678445846748108e-16 3.0675796287054e-17 -1.0678445846748108e-16 3.0675796287054e-17 0.9999620044335173 0.00871720649781806
12611104000.0 0.9999983057747377 -0.0018407736085111518 -1.064309939999231e-16 3.1804647510856626e-17 -1.064309939999231e-16 3.1804647510856626e-17 0.9999983070069612 -0.0018401040825447692
12611721333.333334 0.9999231433444825 -0.012397879008610247 -1.0606560448339025e-16 3.292945186894999e-17 -1.0606560448339025e-16 3.292945186894999e-17 0.9999231516445681 -0.012397209565733465
12612338666.666666 0.9997365313567665 -0.022953602561784116 -1.0568833599504618e-16 3.4050083476248457e-17 -1.0568833599504618e-16 3.4050083476248457e-17 0.999736546723097 -0.022952933276599988
12612956000.0 0.9994384906110898 -0.033506767746977584 -1.0529923593997915e-16 3.516641696976428e-17 -1.0529923593997915e-16 3.516641696976428e-17 0.9994385130412607 -0.03350609869406429
12613573333.333334 0.9990290543265982 -0.044056198328117295 -1.0489835304532118e-16 3.6278327522578555e-17 -1.0489835304532118e-16 3.6278327522578555e-17 0.9990290838174186 -0.04405552958201985
12614190666.666666 0.9985082681383717 -0.05460071848549697 -1.0448573735420016e-16 3.7385690857802555e-17 -1.0448573735420016e-16 3.7385690857802555e-17 0.9985083046858638 -0.05460005012071889
12614808000.0 0.9978761900923439 -0.06513915294669 -1.0406144021956021e-16 3.848838326242643e-17 -1.0406144021956021e-16 3.848838326242643e-17 0.9978762336917429 -0.06513848503768495
12615425333.333334 0.9971328906388267 -0.07567032711757132 -1.0362551429782963e-16 3.95862816011197e-17 -1.0362551429782963e-16 3.95862816011197e-17 0.9971329412845847 -0.07566965973873502
12616042666.666666 0.9962784526246627 -0.08619306721326415 -1.0317801354244916e-16 4.067926332994287e-17 -1.0317801354244916e-16 4.067926332994287e-17 0.9962785103104446 -0.08619240043892584
12616660000.0 0.9953129712839947 -0.09670620038885423 -1.0271899319724603e-16 4.176720651001656e-17 -1.0271899319724603e-16 4.176720651001656e-17 0.9953130360026824 -0.09670553429326853
12617277333.333334 0.9942365542276359 -0.10720855487031127 -1.0224850978967315e-16 4.28499898210898e-17 -1.0224850978967315e-16 4.28499898210898e-17 0.9942366259713278 -0.10720788952764986
12617894666.666666 0.9930493214311015 -0.11769896008483804 -1.0176662112390833e-16 4.3927492575030583e-17 -1.0176662112390833e-16 4.3927492575030583e-17 0.9930494001911144 -0.11769829556918147
12618512000.0 0.9917514052211986 -0.12817624679167938 -1.012733862737921e-16 4.4999594729282674e-17 -1.012733862737921e-16 4.4999594729282674e-17 0.9917514909880685 -0.1281755831770088
12619129333.333334 0.9903429502613222 -0.13863924721204804 -1.0076886557565627e-16 4.606617690017194e-17 -1.0076886557565627e-16 4.606617690017194e-17 0.9903430430248046 -0.13863858457223702
12619746666.666666 0.9888241135353005 -0.14908679515956588 -1.0025312062098207e-16 4.7127120376202184e-17 -1.0025312062098207e-16 4.7127120376202184e-17 0.9888242132843718 -0.14908613356837191
12620364000.0 0.9871950643298867 -0.15951772617027182 -9.97262142489305e-17 4.8182307131240214e-17 -9.97262142489305e-17 4.8182307131240214e-17 0.9871951710527465 -0.1595170657013285
12620981333.333334 0.9854559842159488 -0.16993087763204592 -9.918821053874679e-17 4.9231619837596126e-17 -9.918821053874679e-17 4.9231619837596126e-17 0.9854560979000209 -0.16993021835885455
12621598666.666666 0.9836070670281656 -0.18032508891464197 -9.863917480200761e-17 5.027494187905892e-17 -9.863917480200761e-17 5.027494187905892e-17 0.9836071876600968 -0.18032443091056305
12622216000.0 0.9816485188434536 -0.19069920149879496 -9.80791735747379e-17 5.131215736383179e-17 -9.80791735747379e-17 5.131215736383179e-17 0.9816486464091205 -0.19069854483704082
12622833333.333334 0.9795805579579908 -0.20105205910543267 -9.750827460939754e-17 5.2343151137372514e-17 -9.750827460939754e-17 5.2343151137372514e-17 0.9795806924424986 -0.20105140385905887
12623450666.666666 0.9774034148629076 -0.21138250782444096 -9.692654686673396e-17 5.3367808795142046e-17 -9.692654686673396e-17 5.3367808795142046e-17 0.97740355625059 -0.21138185406633792
12624068000.0 0.9751173322185663 -0.22168939624341527 -9.633406050749022e-17 5.438601669528597e-17 -9.633406050749022e-17 5.438601669528597e-17 0.9751174804929901 -0.22168874404630048
12624685333.333334 0.9727225648274987 -0.23197157557604944 -9.573088688398469e-17 5.539766197121257e-17 -9.573088688398469e-17 5.539766197121257e-17 0.9727227199714659 -0.23197092501245956
12625302666.666666 0.9702193796061025 -0.2422278997897912 -9.511709853157811e-17 5.640263254404914e-17 -9.511709853157811e-17 5.640263254404914e-17 0.9702195416016489 -0.24222725093207328
12625920000.0 0.9676080555547468 -0.2524572257341559 -9.449276915996926e-17 5.740081713507151e-17 -9.449276915996926e-17 5.740081713507151e-17 0.9676082243831476 -0.2524565786544601
12626537333.333334 0.9648888837267985 -0.2626584132676435 -9.38579736444062e-17 5.839210527796255e-17 -9.38579736444062e-17 5.839210527796255e-17 0.9648890593685701 -0.2626577680379149
12627154666.666666 0.9620621671961396 -0.27283032538501084 -9.321278801674525e-17 5.937638733101463e-17 -9.321278801674525e-17 5.937638733101463e-17 0.9620623496310396 -0.2728296820769811
12627772000.0 0.9591282210233337 -0.28297182834416285 -9.255728945636456e-17 6.03535544892597e-17 -9.255728945636456e-17 6.03535544892597e-17 0.9591284102303654 -0.28297118702934243
12628389333.333334 0.9560873722206226 -0.29308179179213495 -9.189155628100288e-17 6.132349879642114e-17 -9.189155628100288e-17 6.132349879642114e-17 0.9560875681780358 -0.29308115254180517
12629006666.666666 0.9529399597153562 -0.3031590888914893 -9.121566793741385e-17 6.228611315685357e-17 -9.121566793741385e-17 6.228611315685357e-17 0.9529401624006517 -0.30315845177669476
12629624000.0 0.949686334312301 -0.313202596445638 -9.052970499194387e-17 6.324129134731066e-17 -9.052970499194387e-17 6.324129134731066e-17 0.9496865437022299 -0.31320196153717755
12630241333.333334 0.9463268586545176 -0.32321119502408574 -8.983374912095627e-17 6.418892802865309e-17 -8.983374912095627e-17 6.418892802865309e-17 0.9463270747250885 -0.32321056239250634
12630858666.666666 0.9428619071829504 -0.33318376908720165 -8.912788310115556e-17 6.51289187574214e-17 -8.912788310115556e-17 6.51289187574214e-17 0.9428621299094289 -0.3331831388027892
12631476000.0 0.9392918660946233 -0.3431192071107423 -8.841219079975924e-17 6.60611599973458e-17 -8.841219079975924e-17 6.60611599973458e-17 0.9392920954515349 -0.3431185792435142
12632093333.333334 0.9356171332997055 -0.35301640170941695 -8.768675716459232e-17 6.698554913069045e-17 -8.768675716459232e-17 6.698554913069045e-17 0.9356173692608403 -0.35301577632911474
12632710666.666666 0.9318381183771104 -0.362874249760478 -8.695166821403848e-17 6.79019844695252e-17 -8.695166821403848e-17 6.79019844695252e-17 0.9318383609155244 -0.36287362693655884
12633328000.0 0.9279552425287889 -0.3726916525268039 -8.620701102685495e-17 6.881036526690905e-17 -8.620701102685495e-17 6.881036526690905e-17 0.9279554916168077 -0.37269103232843326
12633945333.333334 0.9239689385328651 -0.3824675157791497 -8.545287373191847e-17 6.971059172790386e-17 -8.545287373191847e-17 6.971059172790386e-17 0.9239691941420863 -0.3824668982751936
12634562666.666666 0.9198796506953915 -0.3922007499181359 -8.468934549781918e-17 7.060256502052234e-17 -8.468934549781918e-17 7.060256502052234e-17 0.9198799127966905 -0.39220013517715374
12635180000.0 0.9156878348007741 -0.4018902700958241 -8.391651652235444e-17 7.148618728654579e-17 -8.391651652235444e-17 7.148618728654579e-17 0.9156881033643035 -0.4018896581860601
12635797333.333334 0.911393958061001 -0.41153499633655255 -8.313447802190635e-17 7.236136165223212e-17 -8.313447802190635e-17 7.236136165223212e-17 0.9113942330561982 -0.41153438732592934
12636414666.666666 0.906998499063606 -0.42113385365723155 -8.234332222071816e-17 7.322799223889617e-17 -8.234332222071816e-17 7.322799223889617e-17 0.9069987804591934 -0.42113324761334175
12637032000.0 0.9025019477182535 -0.4306857721873138 -8.154314234004008e-17 7.408598417339683e-17 -8.154314234004008e-17 7.408598417339683e-17 0.902502235482244 -0.4306851691774128
12637649333.333334 0.8979048052021844 -0.44018968728793706 -8.07340325871873e-17 7.493524359848295e-17 -8.07340325871873e-17 7.493524359848295e-17 0.8979050993018829 -0.4401890873789353
12638266666.666666 0.893207583904327 -0.4496445396706377 -7.991608814447767e-17 7.577567768303345e-17 -7.991608814447767e-17 7.577567768303345e-17 0.8932078843063368 -0.4496439429290939
12638884000.0 0.8884108073682405 -0.45904927551531527 -7.908940515807654e-17 7.660719463216428e-17 -7.908940515807654e-17 7.660719463216428e-17 0.8884111140384655 -0.45904868200742843
12639501333.333334 0.8835150102336732 -0.46840284658786757 -7.825408072671277e-17 7.742970369723844e-17 -7.825408072671277e-17 7.742970369723844e-17 0.8835153231373215 -0.4684022563794698
12640118666.666666 0.8785207381771005 -0.4777042103567719 -7.741021289032869e-17 7.824311518571592e-17 -7.741021289032869e-17 7.824311518571592e-17 0.8785210572786898 -0.4777036235133214
12640736000.0 0.8734285478506804 -0.48695233010971034 -7.655790061856715e-17 7.904734047093904e-17 -7.655790061856715e-17 7.904734047093904e-17 0.8734288731140404 -0.48695174669628366
12641353333.333334 0.8682390068205318 -0.49614617506851943 -7.569724379925074e-17 7.984229200170447e-17 -7.569724379925074e-17 7.984229200170447e-17 0.8682393382088092 -0.4961455951498045
12641970666.666666 0.8629526935031896 -0.5052847205046023 -7.482834322665941e-17 8.062788331180694e-17 -7.482834322665941e-17 8.062788331180694e-17 0.8629530309788528 -0.5052841441448916
12642588000.0 0.8575701971012609 -0.5143669478529204 -7.395130058978045e-17 8.140402902938958e-17 -7.395130058978045e-17 8.140402902938958e-17 0.8575705406261018 -0.5143663751161028
12643205333.333334 0.8520921175377936 -0.5233918448254457 -7.306621846043653e-17 8.217064488619027e-17 -7.306621846043653e-17 8.217064488619027e-17 0.8520924670729354 -0.5233912757750008
12643822666.666666 0.8465190653892684 -0.5323584055242344 -7.217320028131126e-17 8.292764772666505e-17 -7.217320028131126e-17 8.292764772666505e-17 0.8465194208951667 -0.532357840223224
12644440000.0 0.8408516618176727 -0.541265630553321 -7.12723503538999e-17 8.367495551696627e-17 -7.12723503538999e-17 8.367495551696627e-17 0.8408520232541233 -0.5412650690643835
12645057333.333334 0.835090538501241 -0.5501125271301592 -7.036377382636483e-17 8.441248735379163e-17 -7.036377382636483e-17 8.441248735379163e-17 0.8350909058273829 -0.5501119695155029
12645674666.666666 0.8292363375640551 -0.5588981091962805 -6.944757668127909e-17 8.514016347312073e-17 -6.944757668127909e-17 8.514016347312073e-17 0.8292367107383716 -0.5588975555176732
12646292000.0 0.823289711504351 -0.5676213975273541 -6.852386572328595e-17 8.585790525881143e-17 -6.852386572328595e-17 8.585790525881143e-17 0.8232900904846812 -0.5676208478461215
12646909333.333334 0.8172513231219939 -0.5762814198420552 -6.759274856670793e-17 8.656563525103504e-17 -6.759274856670793e-17 8.656563525103504e-17 0.8172517078655319 -0.57628087421907
12647526666.666666 0.8111218454445032 -0.5848772109105704 -6.665433362301469e-17 8.726327715461934e-17 -6.665433362301469e-17 8.726327715461934e-17 0.8111222359078063 -0.5848766694062479
12648144000.0 0.8049019616519582 -0.5934078126622984 -6.570873008823227e-17 8.795075584723485e-17 -6.570873008823227e-17 8.795075584723485e-17 0.80490235779095 -0.5934072753365888
12648761333.333334 0.7985923650009819 -0.6018722742924476 -6.475604793027644e-17 8.862799738744027e-17 -6.475604793027644e-17 8.862799738744027e-17 0.7985927667709567 -0.6018717412048289
12649378666.666666 0.792193758747456 -0.6102696523680352 -6.37963978761932e-17 8.929492902259794e-17 -6.37963978761932e-17 8.929492902259794e-17 0.7921941661030864 -0.610269123577508
12649996000.0 0.7857068560680549 -0.6185990109331557 -6.282989139930339e-17 8.995147919666292e-17 -6.282989139930339e-17 8.995147919666292e-17 0.7857072689633948 -0.6185984864982355
12650613333.333334 0.7791323799808034 -0.6268594216132296 -6.18566407063002e-17 9.059757755780922e-17 -6.18566407063002e-17 9.059757755780922e-17 0.7791327983692948 -0.6268589015919421
12651230666.666666 0.7724710632645668 -0.6350499637183942 -6.087675872424692e-17 9.123315496593424e-17 -6.087675872424692e-17 9.123315496593424e-17 0.7724714870990422 -0.6350494481682655
12651848000.0 0.7657236483771749 -0.6431697243463598 -5.989035908748603e-17 9.185814350002789e-17 -5.989035908748603e-17 9.185814350002789e-17 0.7657240776098655 -0.6431692133244131
12652465333.333334 0.7588908873729061 -0.6512177984838773 -5.889755612451114e-17 9.247247646537823e-17 -5.889755612451114e-17 9.247247646537823e-17 0.7588913219554457 -0.6512172920466255
12653082666.666666 0.7519735418185558 -0.6591932891077407 -5.78984648447439e-17 9.307608840064867e-17 -5.78984648447439e-17 9.307608840064867e-17 0.7519739817019876 -0.6591927873111806
12653700000.0 0.7449723827084427 -0.6670953072848963 -5.689320092521264e-17 9.366891508482873e-17 -5.689320092521264e-17 9.366891508482873e-17 0.7449728278432228 -0.6670948101845012
12654317333.333334 0.7378881903787161 -0.6749229722712421 -5.588188069722431e-17 9.425089354400311e-17 -5.588188069722431e-17 9.425089354400311e-17 0.7378886407147214 -0.6749224799219576
12654934666.666666 0.7307217544201963 -0.6826754116100094 -5.4864621132903434e-17 9.482196205801507e-17 -5.4864621132903434e-17 9.482196205801507e-17 0.7307222099067272 -0.6826749240662449
12655552000.0 0.7234738735903623 -0.6903517612289998 -5.384153983169051e-17 9.538206016696917e-17 -5.384153983169051e-17 9.538206016696917e-17 0.7234743341761517 -0.6903512785446249
12656169333.333334 0.716145355724482 -0.6979511655367302 -5.281275500679627e-17 9.593112867757661e-17 -5.281275500679627e-17 9.593112867757661e-17 0.7161458213576991 -0.6979506877650673
12656786666.666666 0.7087370176454568 -0.7054727775179196 -5.177838547155383e-17 9.646910966937625e-17 -5.177838547155383e-17 9.646910966937625e-17 0.7087374882737132 -0.7054723047117387
12657404000.0 0.7012496850727575 -0.7129157588279156 -5.07385506257217e-17 9.699594650080107e-17 -5.07385506257217e-17 9.699594650080107e-17 0.7012501606431134 -0.7129152910394281
12658021333.333334 0.6936841925304313 -0.720279279886092 -4.969337044173378e-17 9.751158381509276e-17 -4.969337044173378e-17 9.751158381509276e-17 0.6936846729894006 -0.7202788171669442
12658638666.666666 0.6860413832541699 -0.7275625199682358 -4.864296545089583e-17 9.801596754606672e-17 -4.864296545089583e-17 9.801596754606672e-17 0.6860418685477272 -0.7275620623695048
12659256000.0 0.6783221090971175 -0.7347646672982194 -4.758745672948474e-17 9.850904492374706e-17 -4.758745672948474e-17 9.850904492374706e-17 0.6783225991707044 -0.7347642148704063
12659873333.333334 0.6705272304351113 -0.7418849191383019 -4.652696588484451e-17 9.89907644798268e-17 -4.652696588484451e-17 9.89907644798268e-17 0.6705277252336412 -0.7418844719313265
12660490666.666666 0.662657616070786 -0.7489224818786036 -4.546161504140274e-17 9.946107605299146e-17 -4.546161504140274e-17 9.946107605299146e-17 0.6626581155386522 -0.7489220399417997
12661108000.0 0.6547141431365082 -0.7558765711257706 -4.4391526826605326e-17 9.991993079410455e-17 -4.4391526826605326e-17 9.991993079410455e-17 0.6547146472175881 -0.7558761345078793
12661725333.333334 0.6466976969969928 -0.7627464117900591 -4.331682435686487e-17 1.003672811712132e-16 -4.331682435686487e-17 1.003672811712132e-16 0.6466982056346551 -0.7627459805392236
12662342666.666666 0.6386091711502603 -0.7695312381720463 -4.2237631223402555e-17 1.0080308097442826e-16 -4.2237631223402555e-17 1.0080308097442826e-16 0.6386096842873717 -0.7695308123358077
12662960000.0 0.6304494671282415 -0.7762302940478044 -4.115407147805874e-17 1.0122728532064488e-16 -4.115407147805874e-17 1.0122728532064488e-16 0.6304499847071732 -0.7762298736730955
12663577333.333334 0.6222194943962523 -0.7828428327532273 -4.0066269619068224e-17 1.0163985065810615e-16 -4.0066269619068224e-17 1.0163985065810615e-16 0.6222200163588851 -0.7828424178863668
12664194666.666666 0.6139201702516247 -0.789368117267249 -3.897435057677925e-17 1.0204073477081893e-16 -3.897435057677925e-17 1.0204073477081893e-16 0.6139206965393579 -0.7893677079539388
12664812000.0 0.6055524197214686 -0.7958054202939935 -3.787843969933185e-17 1.0242989678281566e-16 -3.787843969933185e-17 1.0242989678281566e-16 0.605552950275224 -0.7958050165793111
12665429333.333334 0.5971171754595227 -0.8021540243438707 -3.6778662738291605e-17 1.0280729716226377e-16 -3.6778662738291605e-17 1.0280729716226377e-16 0.5971177102197526 -0.802153626272265
12666046666.666666 0.5886153776424083 -0.8084132218133925 -3.567514583426088e-17 1.0317289772541474e-16 -3.567514583426088e-17 1.0317289772541474e-16 0.5886159165491028 -0.8084128294286806
12666664000.0 0.5800479738644532 -0.814582315064333 -3.456801550240458e-17 1.0352666164041556e-16 -3.456801550240458e-17 1.0352666164041556e-16 0.5800485168571446 -0.8145819284096916
12667281333.333334 0.5714159190324819 -0.8206606165011758 -3.3457398618012784e-17 1.0386855343094035e-16 -3.3457398618012784e-17 1.0386855343094035e-16 0.5714164660502544 -0.8206602356191406
12667898666.666666 0.5627201752591353 -0.826647448647943 -3.23434224019573e-17 1.0419853897969082e-16 -3.23434224019573e-17 1.0419853897969082e-16 0.5627207262406303 -0.8266470735804022
12668516000.0 0.553961711755632 -0.8325421442236995 -3.122621440614138e-17 1.04516585531732e-16 -3.122621440614138e-17 1.04516585531732e-16 0.5539622666390549 -0.8325417750118885
12669133333.333334 0.5451415047239532 -0.838344046216784 -3.010590249895926e-17 1.0482266169766068e-16 -3.010590249895926e-17 1.0482266169766068e-16 0.5451420634470802 -0.8383436829012817
12669750666.666666 0.5362605372477787 -0.8440525079582133 -2.898261485063921e-17 1.0511673745664323e-16 -2.898261485063921e-17 1.0511673745664323e-16 0.5362610997479642 -0.8440521505789373
12670368000.0 0.5273197991831018 -0.8496668931936308 -2.7856479918629525e-17 1.0539878415927585e-16 -2.7856479918629525e-17 1.0539878415927585e-16 0.5273203653972866 -0.8496665417898349
