! Parameters = {f0=12700.012000; bw=77.238000; Q=6100.000000; N=10; m_0_1=1.327022; m_1_1=1.140585; m_1_2=1.161834; m_2_2=1.139936; m_2_3=0.798797; m_2_8=0.003415; m_2_9=0.040119; m_3_3=1.137999; m_3_4=0.687326; m_3_7=0.004015; m_3_8=-0.093073; m_3_9=0.003415; m_4_4=1.135074; m_4_5=0.523661; m_4_6=0.007532; m_4_7=-0.113622; m_4_8=0.004015; m_5_5=1.135456; m_5_6=0.931016; m_5_7=0.007532; m_6_6=1.135455; m_6_7=0.524003; m_7_7=1.135088; m_7_8=0.687444; m_8_8=1.137997; m_8_9=0.799110; m_9_9=1.139931; m_9_10=1.162912; m_10_10=1.140575; m_10_11=1.327817}
!
! Created with skrf (http://scikit-rf.org).
# Hz S RI R 50.0 
!freq ReS11 ImS11 ReS21 ImS21 ReS12 ImS12 ReS22 ImS22
12607400000.0 -0.6414241415148623 -0.7671864640892253 1.196622271658845e-16 7.950399808519412e-17 1.196622271658845e-16 7.950399808519412e-17 -0.6414236052162908 -0.7671869124738395
12608017333.333334 -0.6507424317294547 -0.759298549680324 1.2060722391165765e-16 7.801121703264183e-17 1.2060722391165765e-16 7.801121703264183e-17 -0.6507419009708776 -0.7592990045565813
12608634666.666666 -0.6599637289606409 -0.7512974620322987 1.2153361214861635e-16 7.650722345923712e-17 1.2153361214861635e-16 7.650722345923712e-17 -0.6599632038206218 -0.7512979233317683
12609252000.0 -0.6690866587766613 -0.74318439370515 1.2244125909048703e-16 7.49922491638172e-17 1.2244125909048703e-16 7.49922491638172e-17 -0.6690861393329182 -0.7431848613584495
12609869333.333334 -0.6781098614074146 -0.7349605539495463 1.2333003483637634e-16 7.346652751455697e-17 1.2333003483637634e-16 7.346652751455697e-17 -0.6781093477368094 -0.7349610278863543
12610486666.666666 -0.6870319919470075 -0.7266271685267041 1.2419981238926287e-16 7.193029341310172e-17 1.2419981238926287e-16 7.193029341310172e-17 -0.687031484125533 -0.7266276486757677
12611104000.0 -0.6958517205545216 -0.7181854795253941 1.2505046767408838e-16 7.038378325840499e-17 1.2505046767408838e-16 7.038378325840499e-17 -0.6958512186572924 -0.718185965814543
12611721333.333334 -0.7045677326518139 -0.7096367451772 1.258818795553294e-16 6.882723491047815e-17 1.258818795553294e-16 6.882723491047815e-17 -0.7045672367530544 -0.7096372375333556
12612338666.666666 -0.7131787291197239 -0.7009822396687265 1.266939298541837e-16 6.726088765381615e-17 1.266939298541837e-16 6.726088765381615e-17 -0.7131782392927569 -0.7009827380179132
12612956000.0 -0.7216834264917621 -0.6922232529516167 1.2748650336528273e-16 6.568498216065746e-17 1.2748650336528273e-16 6.568498216065746e-17 -0.7216829428089985 -0.6922237572189728
12613573333.333334 -0.7300805571451112 -0.6833610905505901 1.2825948787291435e-16 6.409976045411396e-17 1.2825948787291435e-16 6.409976045411396e-17 -0.7300800796780389 -0.6833616006603791
12614190666.666666 -0.7383688694898465 -0.6743970733685711 1.290127741668418e-16 6.250546587100607e-17 1.290127741668418e-16 6.250546587100607e-17 -0.7383683983090199 -0.6743975892441932
12614808000.0 -0.7465471281553623 -0.6653325374899296 1.2974625605762335e-16 6.090234302459008e-17 1.2974625605762335e-16 6.090234302459008e-17 -0.7465466633303927 -0.6653330590539335
12615425333.333334 -0.7546141141745076 -0.6561688339813396 1.3045983039149062e-16 5.929063776706327e-17 1.3045983039149062e-16 5.929063776706327e-17 -0.7546136557740512 -0.6561693611554331
12616042666.666666 -0.7625686251653458 -0.6469073286903179 1.3115339706474358e-16 5.767059715193699e-17 1.3115339706474358e-16 5.767059715193699e-17 -0.7625681732570945 -0.6469078613953806
12616660000.0 -0.770409475510256 -0.637549402041771 1.3182685903769569e-16 5.604246939620593e-17 1.3182685903769569e-16 5.604246939620593e-17 -0.7704090301609293 -0.6375499401978666
12617277333.333334 -0.7781354965327459 -0.6280964488321393 1.3248012234814372e-16 5.44065038423711e-17 1.3248012234814372e-16 5.44065038423711e-17 -0.7781350578080776 -0.6280969923585263
12617894666.666666 -0.7857455366715128 -0.6185498780216538 1.3311309612435844e-16 5.2762950920330305e-17 1.3311309612435844e-16 5.2762950920330305e-17 -0.7857451046362435 -0.6185504268367984
12618512000.0 -0.79323846165237 -0.6089111125239781 1.3372569259763398e-16 5.111206210903967e-17 1.3372569259763398e-16 5.111206210903967e-17 -0.7932380363702366 -0.6089116665455658
12619129333.333334 -0.8006131546568668 -0.5991815889946783 1.343178271143117e-16 4.945408989816414e-17 1.343178271143117e-16 4.945408989816414e-17 -0.8006127361905937 -0.5991821481396273
12619746666.666666 -0.8078685164891729 -0.5893627576165555 1.348894181473776e-16 4.778928774946541e-17 1.348894181473776e-16 4.778928774946541e-17 -0.8078681049004626 -0.5893633218010281
12620364000.0 -0.8150034657397185 -0.5794560818837401 1.3544038730756588e-16 4.611791005809511e-17 1.3544038730756588e-16 4.611791005809511e-17 -0.8150030610892426 -0.5794566510231558
12620981333.333334 -0.8220169389463131 -0.5694630383836521 1.3597065935396197e-16 4.4440212113832027e-17 1.3597065935396197e-16 4.4440212113832027e-17 -0.8220165412937036 -0.569463612392701
12621598666.666666 -0.8289078907527911 -0.5593851165767353 1.3648016220416242e-16 4.275645006208721e-17 1.3648016220416242e-16 4.275645006208721e-17 -0.8289075001566296 -0.5593856953693886
12622216000.0 -0.8356752940647976 -0.5492238185744704 1.36968826943927e-16 4.106688086487615e-17 1.36968826943927e-16 4.106688086487615e-17 -0.83567491058261 -0.5492244020639961
12622833333.333334 -0.8423181402028169 -0.538980658915583 1.3743658783636395e-16 3.937176226163251e-17 1.3743658783636395e-16 3.937176226163251e-17 -0.8423177638910629 -0.5389812470145572
12623450666.666666 -0.8488354390525171 -0.5286571643403024 1.3788338233061297e-16 3.767135272998189e-17 1.3788338233061297e-16 3.767135272998189e-17 -0.8488350699665812 -0.5286577569606221
12624068000.0 -0.8552262192123712 -0.5182548735627297 1.3830915107006423e-16 3.59659114463451e-17 1.3830915107006423e-16 3.59659114463451e-17 -0.8552258574065572 -0.5182554706156279
12624685333.333334 -0.8614895281385194 -0.5077753370413717 1.387138379000819e-16 3.425569824648659e-17 1.387138379000819e-16 3.425569824648659e-17 -0.8614891736660397 -0.5077759384374286
12625302666.666666 -0.8676244322865065 -0.49722011674843236 1.390973898752295e-16 3.254097358602186e-17 1.390973898752295e-16 3.254097358602186e-17 -0.8676240851994759 -0.49722072239758985
12625920000.0 -0.8736300172507062 -0.48659078593653904 1.3945975726603596e-16 3.0821998500728205e-17 1.3945975726603596e-16 3.0821998500728205e-17 -0.8736296776001321 -0.4865913957481134
12626537333.333334 -0.8795053879003951 -0.47588892890461726 1.398008935652377e-16 2.909903456693769e-17 1.398008935652377e-16 2.909903456693769e-17 -0.8795050557361731 -0.47588954278731393
12627154666.666666 -0.885249668513248 -0.4651161407616301 1.4012075549355742e-16 2.7372343861749058e-17 1.4012075549355742e-16 2.7372343861749058e-17 -0.8852493438841536 -0.4651167586235567
12627772000.0 -0.8908620029059954 -0.45427402718857607 1.4041930300499074e-16 2.5642188923175038e-17 1.4041930300499074e-16 2.5642188923175038e-17 -0.8908616858596745 -0.45427464893725555
12628389333.333334 -0.8963415545617682 -0.44336420419966316 1.406964992915774e-16 2.3908832710375393e-17 1.406964992915774e-16 2.3908832710375393e-17 -0.8963412451447338 -0.44336482974204905
12629006666.666666 -0.9016875067550361 -0.4323882979009669 1.4095231078772034e-16 2.217253856362637e-17 1.4095231078772034e-16 2.217253856362637e-17 -0.901687205012658 -0.4323889271434557
12629624000.0 -0.9068990626731657 -0.4213479442483856 1.41186707173976e-16 2.0433570164455763e-17 1.41186707173976e-16 2.0433570164455763e-17 -0.9068987686496673 -0.42134857709683243
12630241333.333334 -0.9119754455353168 -0.4102447888035494 1.4139966138037776e-16 1.8692191495590055e-17 1.4139966138037776e-16 1.8692191495590055e-17 -0.9119751592737644 -0.4102454251632798
12630858666.666666 -0.9169158987080694 -0.3990804864888549 1.4159114958925128e-16 1.6948666800984062e-17 1.4159114958925128e-16 1.6948666800984062e-17 -0.9169156202503705 -0.3990811262646816
12631476000.0 -0.9217196858183844 -0.3878567013404155 1.4176115123755005e-16 1.5203260545713945e-17 1.4176115123755005e-16 1.5203260545713945e-17 -0.9217194152052771 -0.3878573444366504
12632093333.333334 -0.9263860908631888 -0.37657510626039664 1.41909649018686e-16 1.3456237375969482e-17 1.41909649018686e-16 1.3456237375969482e-17 -0.9263858281342404 -0.37657575258086695
12632710666.666666 -0.9309144183161644 -0.3652373827675449 1.4203662888387517e-16 1.1707862078957855e-17 1.4203662888387517e-16 1.1707862078957855e-17 -0.9309141635097621 -0.3652380322156064
12633328000.0 -0.9353039932315039 -0.35384522074631786 1.4214208004299063e-16 9.958399542785694e-18 1.4214208004299063e-16 9.958399542785694e-18 -0.9353037463848507 -0.3538458732248697
12633945333.333334 -0.9395541613443552 -0.3424003181954036 1.4222599496491536e-16 8.208114716438426e-18 1.4222599496491536e-16 8.208114716438426e-18 -0.9395539224934638 -0.3424009736069025
12634562666.666666 -0.9436642891684315 -0.33090438097439623 1.422883693774093e-16 6.4572725696731896e-18 1.422883693774093e-16 6.4572725696731896e-18 -0.9436640583481187 -0.3309050392208714
12635180000.0 -0.9476337640904033 -0.3193591225496185 1.4232920226648266e-16 4.7061380529485495e-18 1.4232920226648266e-16 4.7061380529485495e-18 -0.9476335413342881 -0.3193597835326867
12635797333.333334 -0.9514619944612656 -0.3077662637385684 1.4234849587527392e-16 2.954976057400994e-18 1.4234849587527392e-16 2.954976057400994e-18 -0.9514617798017598 -0.30776692735944755
12636414666.666666 -0.955148409684385 -0.2961275324538365 1.4234625570243956e-16 1.2040513748259368e-18 1.4234625570243956e-16 1.2040513748259368e-18 -0.9551482031526909 -0.29612819861336126
12637032000.0 -0.9586924603007251 -0.2844446634450201 1.4232249050005016e-16 -5.463713423309559e-19 1.4232249050005016e-16 -5.463713423309559e-19 -0.9586922619268307 -0.28444533204365635
12637649333.333334 -0.9620936180706116 -0.27271939804056566 1.4227721227099642e-16 -2.2960276209052343e-18 1.4227721227099642e-16 -2.2960276209052343e-18 -0.9620934278832857 -0.2727200689784255
12638266666.666666 -0.9653513760525186 -0.26095348388806133 1.422104362659049e-16 -4.044653206942909e-18 1.422104362659049e-16 -4.044653206942909e-18 -0.9653511940793083 -0.2609541570649182
12638884000.0 -0.968465248678613 -0.24914867469380578 1.421221809795634e-16 -5.791984105536461e-18 1.421221809795634e-16 -5.791984105536461e-18 -0.9684650749458373 -0.249149350009109
12639501333.333334 -0.9714347718271629 -0.23730672996128066 1.4201246814685817e-16 -7.537756620650637e-18 1.4201246814685817e-16 -7.537756620650637e-18 -0.9714346063599104 -0.23730740731417074
12640118666.666666 -0.9742595028916233 -0.22542941472925523 1.4188132273822407e-16 -9.281707394834984e-18 1.4188132273822407e-16 -9.281707394834984e-18 -0.9742593457137494 -0.22543009401857902
12640736000.0 -0.9769390208467776 -0.2135184993080182 1.4172877295460073e-16 -1.1023573448982665e-17 1.4172877295460073e-16 -1.1023573448982665e-17 -0.9769388719808976 -0.21351918043234333
12641353333.333334 -0.979472926311258 -0.20157575901648012 1.4155485022191672e-16 -1.2763092221814968e-17 1.4155485022191672e-16 -1.2763092221814968e-17 -0.9794727857787479 -0.2015764418741111
12641970666.666666 -0.9818608416072714 -0.18960297391673392 1.4135958918507118e-16 -1.4500001609508882e-17 1.4135958918507118e-16 -1.4500001609508882e-17 -0.9818607094282635 -0.18960365840572688
12642588000.0 -0.9841024108168166 -0.1776019285490401 1.411430277014443e-16 -1.6234040005091053e-17 1.411430277014443e-16 -1.6234040005091053e-17 -0.9841022870101951 -0.17760261456721768
12643205333.333334 -0.9861972998347142 -0.16557441166595374 1.4090520683391763e-16 -1.796494633780964e-17 1.4090520683391763e-16 -1.796494633780964e-17 -0.9861971844181144 -0.16557509911092094
12643822666.666666 -0.9881451964184442 -0.1535222159655163 1.4064617084341614e-16 -1.9692460112377556e-17 1.4064617084341614e-16 -1.9692460112377556e-17 -0.9881450894082486 -0.15352290473467523
12644440000.0 -0.9899458102346697 -0.14144713782410956 1.4036596718096674e-16 -2.141632144814155e-17 1.4036596718096674e-16 -2.141632144814155e-17 -0.9899457116460068 -0.14144782781467513
12645057333.333334 -0.9915988729024914 -0.12935097702884696 1.4006464647928526e-16 -2.3136271118087057e-17 1.4006464647928526e-16 -2.3136271118087057e-17 -0.991598782749233 -0.12935166813786206
12645674666.666666 -0.993104138033473 -0.1172355365092043 1.3974226254387653e-16 -2.4852050587805215e-17 1.3974226254387653e-16 -2.4852050587805215e-17 -0.9931040563282325 -0.1172362286335552
12646292000.0 -0.99446138126838 -0.10510262206812343 1.3939887234365508e-16 -2.6563402054327153e-17 1.3939887234365508e-16 -2.6563402054327153e-17 -0.9944613080225099 -0.10510331510455506
12646909333.333334 -0.9956704003105752 -0.0929540421132247 1.3903453600111309e-16 -2.8270068484738046e-17 1.3903453600111309e-16 -2.8270068484738046e-17 -0.9956703355341668 -0.09295473595835621
12647526666.666666 -0.9967310149562079 -0.08079160738701081 1.3864931678199108e-16 -2.997179365478241e-17 1.3864931678199108e-16 -2.997179365478241e-17 -0.9967309586580885 -0.08079230193735087
12648144000.0 -0.9976430671210694 -0.06861713069689042 1.3824328108448451e-16 -3.1668322187288183e-17 1.3824328108448451e-16 -3.1668322187288183e-17 -0.9976430193088033 -0.06861782584885277
12648761333.333334 -0.9984064208641371 -0.05643242664526304 1.378164984279929e-16 -3.335939959040082e-17 1.378164984279929e-16 -3.335939959040082e-17 -0.9984063815440212 -0.05643312229518175
12649378666.666666 -0.9990209624078444 -0.04423931135893992 1.373690414413894e-16 -3.50447722957238e-17 1.373690414413894e-16 -3.50447722957238e-17 -0.9990209315849111 -0.044240007403085084
12649996000.0 -0.9994866001550488 -0.03203960221836589 1.3690098585082515e-16 -3.6724187696300585e-17 1.3690098585082515e-16 -3.6724187696300585e-17 -0.9994865778330622 -0.032040298552958875
12650613333.333334 -0.9998032647026774 -0.01983511758668207 1.3641241046707223e-16 -3.8397394184428474e-17 1.3641241046707223e-16 -3.8397394184428474e-17 -0.9998032508841354 -0.01983581410791115
12651230666.666666 -0.9999709088520646 -0.00762767653912572 1.3590339717241644e-16 -4.006414118926405e-17 1.3590339717241644e-16 -4.006414118926405e-17 -0.9999709035381966 -0.007628373143161435
12651848000.0 -0.9999895076160008 0.004580901408784407 1.3537403090706716e-16 -4.172417921434643e-17 1.3537403090706716e-16 -4.172417921434643e-17 -0.9999895108067697 0.0045802048257737
12652465333.333334 -0.9998590582224463 0.01678879657187802 1.3482439965513029e-16 -4.3377259874869924e-17 1.3482439965513029e-16 -4.3377259874869924e-17 -0.9998590699165459 0.016788100113710708
12653082666.666666 -0.9995795801149494 0.028994189366670534 1.3425459443012816e-16 -4.502313593477437e-17 1.3425459443012816e-16 -4.502313593477437e-17 -0.9995796003098077 0.028993493137136273
12653700000.0 -0.9991511149497423 0.04119526058294087 1.3366470926004127e-16 -4.666156134372369e-17 1.3366470926004127e-16 -4.666156134372369e-17 -0.99915114364152 0.04119456468578511
12654317333.333334 -0.9985737265895418 0.05339019165431595 1.330548411719382e-16 -4.829229127378053e-17 1.330548411719382e-16 -4.829229127378053e-17 -0.9985737637731339 0.0533894961932245
12654934666.666666 -0.9978475010940265 0.06557716492969698 1.3242509017612637e-16 -4.991508215597277e-17 1.3242509017612637e-16 -4.991508215597277e-17 -0.9978475467630622 0.06557647000828049
12655552000.0 -0.9969725467069933 0.07775436394429293 1.3177555924986418e-16 -5.152969171663652e-17 1.3177555924986418e-16 -5.152969171663652e-17 -0.9969726008538391 0.0777536696660716
12656169333.333334 -0.9959489938402643 0.08991997368979704 1.3110635432065815e-16 -5.313587901347755e-17 1.3110635432065815e-16 -5.313587901347755e-17 -0.9959490564560233 0.0899192801581851
12656786666.666666 -0.9947769950542025 0.10207218088559399 1.304175842490797e-16 -5.4733404471526685e-17 1.304175842490797e-16 -5.4733404471526685e-17 -0.9947770661287147 0.1020714882038841
12657404000.0 -0.9934567250350002 0.11420917424857459 1.2970936081117483e-16 -5.63220299187954e-17 1.2970936081117483e-16 -5.63220299187954e-17 -0.9934568045568491 0.11420848251992305
12658021333.333334 -0.9919883805686335 0.12632914476330626 1.2898179868042126e-16 -5.790151862175408e-17 1.2898179868042126e-16 -5.790151862175408e-17 -0.9919884685251428 0.126328454090717
12658638666.666666 -0.9903721805115504 0.13843028595146814 1.2823501540928157e-16 -5.947163532051659e-17 1.2823501540928157e-16 -5.947163532051659e-17 -0.9903722768887882 0.1384295964377777
12659256000.0 -0.9886083657580002 0.15051079414150095 1.2746913141028831e-16 -6.103214626387567e-17 1.2746913141028831e-16 -6.103214626387567e-17 -0.9886084705407807 0.1505101058893631
12659873333.333334 -0.9866971992041803 0.16256886873702064 1.2668426993673694e-16 -6.258281924402796e-17 1.2668426993673694e-16 -6.258281924402796e-17 -0.9866973123760673 0.16256818184889119
12660490666.666666 -0.9846389657090469 0.17460271248531065 1.2588055706295687e-16 -6.412342363105208e-17 1.2588055706295687e-16 -6.412342363105208e-17 -0.9846390872523544 0.174602027063432
12661108000.0 -0.982433972051805 0.1866105317454532 1.2505812166412776e-16 -6.565373040720661e-17 1.2505812166412776e-16 -6.565373040720661e-17 -0.9824341019476031 0.1866098478918396
12661725333.333334 -0.980082546886266 0.19859053675525215 1.242170953957343e-16 -6.717351220086768e-17 1.242170953957343e-16 -6.717351220086768e-17 -0.9800826851143786 0.19858985457167364
12662342666.666666 -0.9775850406917737 0.2105409418984142 1.2335761267256064e-16 -6.868254332029281e-17 1.2335761267256064e-16 -6.868254332029281e-17 -0.9775851872307881 0.21054026148638258
12662960000.0 -0.9749418257210335 0.2224599659703891 1.2247981064729822e-16 -7.018059978707935e-17 1.2247981064729822e-16 -7.018059978707935e-17 -0.9749419805482981 0.2224592874311417
12663577333.333334 -0.9721532959445953 0.23434583244399584 1.2158382918875474e-16 -7.166745936933635e-17 1.2158382918875474e-16 -7.166745936933635e-17 -0.972153459036226 0.2343451558784812
12664194666.666666 -0.9692198669921467 0.24619676973415874 1.2066981085964639e-16 -7.3142901614608e-17 1.2066981085964639e-16 -7.3142901614608e-17 -0.9692200383230314 0.24619609524302177
12664812000.0 -0.9661419760905372 0.25801101146207217 1.197379008939908e-16 -7.46067078825149e-17 1.197379008939908e-16 -7.46067078825149e-17 -0.9661421556343359 0.25801033914563803
12665429333.333334 -0.9629200819986393 0.2697867967183396 1.1878824717412144e-16 -7.605866137708101e-17 1.1878824717412144e-16 -7.605866137708101e-17 -0.9629202697277934 0.26978612667660057
12666046666.666666 -0.9595546649389864 0.2815223703254119 1.1782100020730348e-16 -7.74985471787838e-17 1.1782100020730348e-16 -7.74985471787838e-17 -0.959554860824718 0.2815217026580107
12666664000.0 -0.9560462265261143 0.2932159830994678 1.1683631310193648e-16 -7.892615227634416e-17 1.1683631310193648e-16 -7.892615227634416e-17 -0.9560464305384324 0.29321531790568367
12667281333.333334 -0.9523952896919136 0.3048658921107202 1.1583434154342994e-16 -8.0341265598133e-17 1.1583434154342994e-16 -8.0341265598133e-17 -0.9523955017996206 0.3048652294894544
12667898666.666666 -0.9486023986075769 0.316470360943581 1.1481524376963253e-16 -8.174367804336784e-17 1.1481524376963253e-16 -8.174367804336784e-17 -0.9486026187782711 0.31646970099334165
12668516000.0 -0.9446681186025346 0.3280276599553095 1.1377918054593094e-16 -8.313318251293356e-17 1.1377918054593094e-16 -8.313318251293356e-17 -0.9446683468026151 0.3280270027741968
12669133333.333334 -0.9405930360802406 0.3395360665336806 1.1272631513997674e-16 -8.450957393988914e-17 1.1272631513997674e-16 -8.450957393988914e-17 -0.9405932722749135 0.33953541221937256
12669750666.666666 -0.9363777584306981 0.3509938653539559 1.1165681329600062e-16 -8.58726493197169e-17 1.1165681329600062e-16 -8.58726493197169e-17 -0.936378002583981 0.3509932140036936
