! Parameters = {f0=12700.012000; bw=77.238000; Q=6100.000000; N=10; m_0_1=1.343238; m_1_1=1.383828; m_1_2=1.178050; m_2_2=1.383179; m_2_3=0.815013; m_2_8=0.004226; m_2_9=0.040930; m_3_3=1.381242; m_3_4=0.703542; m_3_7=0.004826; m_3_8=-0.092262; m_3_9=0.004226; m_4_4=1.378317; m_4_5=0.539877; m_4_6=0.008343; m_4_7=-0.112811; m_4_8=0.004826; m_5_5=1.378699; m_5_6=0.947232; m_5_7=0.008343; m_6_6=1.378698; m_6_7=0.540219; m_7_7=1.378331; m_7_8=0.703660; m_8_8=1.381240; m_8_9=0.815326; m_9_9=1.383174; m_9_10=1.179128; m_10_10=1.383818; m_10_11=1.344033}
!
! Created with skrf (http://scikit-rf.org).
# Hz S RI R 50.0 
!freq ReS11 ImS11 ReS21 ImS21 ReS12 ImS12 ReS22 ImS22
12607400000.0 0.8764255398181218 0.48153740576856036 -1.5083187148095107e-16 -3.2842982033940293e-17 -1.5083187148095107e-16 -3.2842982033940293e-17 0.8764251991027338 0.48153802588947875
12608017333.333334 0.882464606859485 0.4703788022861329 -1.5120956383839786e-16 -3.0907160051005274e-17 -1.5120956383839786e-16 -3.0907160051005274e-17 0.8824642740557354 0.4703794266494723
12608634666.666666 0.8883616105444901 0.4591444749864707 -1.51562424878953e-16 -2.896705073687828e-17 -1.51562424878953e-16 -2.896705073687828e-17 0.8883612857051788 0.45914510349130827
12609252000.0 0.8941156015454707 0.44783623242518494 -1.51890406731016e-16 -2.7022972436348336e-17 -1.51890406731016e-16 -2.7022972436348336e-17 0.8941152847221091 0.44783686496994024
12609869333.333334 0.8997256535576492 0.4364558950570644 -1.5219346560205475e-16 -2.5075244017294663e-17 -1.5219346560205475e-16 -2.5075244017294663e-17 0.8997253448004546 0.4364565315395172
12610486666.666666 0.9051908634482116 0.42500529494311384 -1.5247156178414798e-16 -2.3124184818491514e-17 -1.5247156178414798e-16 -2.3124184818491514e-17 0.9051905628060973 0.42500593526041963
12611104000.0 0.9105103514017912 0.41348627545541233 -1.5272465965887918e-16 -2.1170114597217925e-17 -1.5272465965887918e-16 -2.1170114597217925e-17 0.9105100589223585 0.4134869195041193
12611721333.333334 0.9156832610619594 0.4019006909806677 -1.5295272770153153e-16 -1.9213353477036657e-17 -1.5295272770153153e-16 -1.9213353477036657e-17 0.915682976791492 0.4019013386567338
12612338666.666666 0.9207087596691635 0.3902504066215352 -1.5315573848464128e-16 -1.7254221895325412e-17 -1.5315573848464128e-16 -1.7254221895325412e-17 0.9207084836526189 0.3902510578203444
12612956000.0 0.9255860381948513 0.3785372978962066 -1.5333366868086803e-16 -1.5293040550864115e-17 -1.5333366868086803e-16 -1.5293040550864115e-17 0.9255857704758546 0.3785379525125865
12613573333.333334 0.930314311471559 0.36676325043684727 -1.5348649906518927e-16 -1.3330130351478655e-17 -1.5348649906518927e-16 -1.3330130351478655e-17 0.9303140520923945 0.3667639083650851
12614190666.666666 0.9348928183194831 0.35493015968561675 -1.5361421451644017e-16 -1.1365812361505363e-17 -1.5361421451644017e-16 -1.1365812361505363e-17 0.9348925673210879 0.3549308208194769
12614808000.0 0.939320821668869 0.3430399305899009 -1.537168040181708e-16 -9.400407749381299e-18 -1.537168040181708e-16 -9.400407749381299e-18 0.9393205790908288 0.3430405948226428
12615425333.333334 0.9435976086787368 0.3310944772954875 -1.5379426065883792e-16 -7.43423773518571e-18 -1.5379426065883792e-16 -7.43423773518571e-18 0.9435973745592773 0.33109514451988187
12616042666.666666 0.9477224908516906 0.3190957228382561 -1.5384658163132673e-16 -5.467623538202368e-18 -1.5384658163132673e-16 -5.467623538202368e-18 0.9477222652276723 0.3190963929466025
12616660000.0 0.951694804144624 0.3070455988349732 -1.5387376823180219e-16 -3.500886324502491e-18 -1.5387376823180219e-16 -3.500886324502491e-18 0.9516945870515355 0.30704627171911736
12617277333.333334 0.9555139090757858 0.2949460451718478 -1.5387582585789243e-16 -1.5343471545481847e-18 -1.5387582585789243e-16 -1.5343471545481847e-18 0.9555137005477389 0.29494672072319933
12617894666.666666 0.9591791908275141 0.28279900969288724 -1.5385276400620242e-16 4.3167306912270795e-19 -1.5385276400620242e-16 4.3167306912270795e-19 0.9591789908972397 0.2827996878024372
12618512000.0 0.9626900593454565 0.2706064478855663 -1.5380459626916076e-16 2.3968536542529484e-18 -1.5380459626916076e-16 2.3968536542529484e-18 0.9626898680442976 0.27060712844390433
12619129333.333334 0.9660459494333569 0.2583703225666745 -1.5373134033119957e-16 4.360874171080013e-18 -1.5373134033119957e-16 4.360874171080013e-18 0.9660457667912636 0.2583710054640069
12619746666.666666 0.969246320844171 0.24609260356589696 -1.5363301796426692e-16 6.323414504530654e-18 -1.5363301796426692e-16 6.323414504530654e-18 0.9692461468896986 0.24609328869206432
12620364000.0 0.9722906583670038 0.23377526740880927 -1.5350965502267452e-16 8.28415490634368e-18 -1.5350965502267452e-16 8.28415490634368e-18 0.9722904931273056 0.23377595465330428
12620981333.333334 0.9751784719099597 0.22142029699907512 -1.5336128143728431e-16 1.02427760470689e-17 -1.5336128143728431e-16 1.02427760470689e-17 0.975178315410782 0.22142098625105988
12621598666.666666 0.9779092965792107 0.20902968129850993 -1.5318793120902608e-16 1.2198959068064593e-17 -1.5318793120902608e-16 1.2198959068064593e-17 0.9779091488448916 0.20903037244683445
12622216000.0 0.9804826927536823 0.19660541500755266 -1.5298964240175917e-16 1.4152385633310592e-17 -1.5298964240175917e-16 1.4152385633310592e-17 0.9804825538071466 0.19660610794077266
12622833333.333334 0.982898246155947 0.18414949824359383 -1.5276645713447042e-16 1.6102737981168152e-17 -1.5276645713447042e-16 1.6102737981168152e-17 0.9828981160187027 0.1841501928499886
12623450666.666666 0.9851555679187816 0.17166393621965614 -1.5251842157281882e-16 1.804969897597371e-17 -1.5251842157281882e-16 1.804969897597371e-17 0.9851554466109166 0.17166463238724644
12624068000.0 0.9872542946479133 0.15915073892086043 -1.522455859200151e-16 1.999295215958849e-17 -1.522455859200151e-16 1.999295215958849e-17 0.9872541821880909 0.1591514365374266
12624685333.333334 0.989194088480444 0.14661192078118218 -1.51948004407048e-16 2.193218180278246e-17 -1.51948004407048e-16 2.193218180278246e-17 0.9891939848859039 0.14661261973428255
12625302666.666666 0.9909746371391941 0.13404950035955307 -1.5162573528227195e-16 2.386707295638442e-17 -1.5162573528227195e-16 2.386707295638442e-17 0.9909745424257455 0.13405020053654168
12625920000.0 0.992595653983121 0.12146550001389192 -1.5127884080031204e-16 2.5797311502500594e-17 -1.5127884080031204e-16 2.5797311502500594e-17 0.9925955681651415 0.1214662013019367
12626537333.333334 0.9940568780532915 0.10886194557671648 -1.5090738721035705e-16 2.772258420532744e-17 -1.5090738721035705e-16 2.772258420532744e-17 0.9940568011437272 0.10886264786281773
12627154666.666666 0.9953580741150091 0.09624086602822829 -1.5051144474378e-16 2.964257876197329e-17 -1.5051144474378e-16 2.964257876197329e-17 0.9953580061253697 0.09624156919923658
12627772000.0 0.9964990326956586 0.08360429316978914 -1.500910876011085e-16 3.155698385310694e-17 -1.500910876011085e-16 3.155698385310694e-17 0.9964989736360168 0.0836049971124237
12628389333.333334 0.9974795701183942 0.07095426129717154 -1.4964639393839003e-16 3.346548919325551e-17 -1.4964639393839003e-16 3.346548919325551e-17 0.9974795199973839 0.0709549658980384
12629006666.666666 0.99829952853175 0.05829280687261523 -1.4917744585286438e-16 3.536778558116138e-17 -1.4917744585286438e-16 3.536778558116138e-17 0.9982994873565668 0.05829351201822567
12629624000.0 0.9989587759350212 0.045621968197441506 -1.4868432936804643e-16 3.726356494972077e-17 -1.4868432936804643e-16 3.726356494972077e-17 0.9989587437114172 0.045622673774230016
12630241333.333334 0.9994572061995363 0.032943785083406577 -1.4816713441814233e-16 3.915252041586268e-17 -1.4816713441814233e-16 3.915252041586268e-17 0.9994571829318253 0.032944490977749534
12630858666.666666 0.9997947390857177 0.02026029852506166 -1.4762595483185583e-16 4.1034346330121796e-17 -1.4762595483185583e-16 4.1034346330121796e-17 0.9997947247767703 0.020261004623295355
12631476000.0 0.9999713202560332 0.0075735503701044446 -1.4706088831554107e-16 4.2908738326083254e-17 -1.4706088831554107e-16 4.2908738326083254e-17 0.9999713149072769 0.007574256558543435
12632093333.333334 0.9999869212837085 -0.00511441700813416 -1.464720364357505e-16 4.4775393369523573e-17 -1.464720364357505e-16 4.4775393369523573e-17 0.9999869248951283 -0.005113710843178713
12632710666.666666 0.9998415396573256 -0.017801561040276442 -1.4585950460115879e-16 4.6634009807314535e-17 -1.4585950460115879e-16 4.6634009807314535e-17 0.9998415522274655 -0.017800855012478495
12633328000.0 0.9995351987812183 -0.030485839289606843 -1.4522340204384587e-16 4.8484287416158094e-17 -1.4522340204384587e-16 4.8484287416158094e-17 0.9995352203071793 -0.03048513351260716
12633945333.333334 0.9990679479717115 -0.043165209780532204 -1.445638417999882e-16 5.0325927450985566e-17 -1.445638417999882e-16 5.0325927450985566e-17 0.9990679784491523 -0.043164504367920034
12634562666.666666 0.9984398624491658 -0.05583763132776305 -1.4388094068992368e-16 5.215863269313813e-17 -1.4388094068992368e-16 5.215863269313813e-17 0.9984399018723061 -0.05583692639305795
12635180000.0 0.9976510433258915 -0.06850106386445913 -1.4317481929761037e-16 5.398210749827139e-17 -1.4317481929761037e-16 5.398210749827139e-17 0.9976510916875119 -0.06850035952109264
12635797333.333334 0.9967016175898434 -0.08115346877116 -1.4244560194947523e-16 5.579605784399232e-17 -1.4244560194947523e-16 5.579605784399232e-17 0.9967016748812854 -0.08115276513245734
12636414666.666666 0.9955917380842203 -0.0937928092032909 -1.4169341669267664e-16 5.760019137717244e-17 -1.4169341669267664e-16 5.760019137717244e-17 0.9955918042953878 -0.09379210638245274
12637032000.0 0.9943215834827983 -0.10641705041985708 -1.4091839527273663e-16 5.939421746105115e-17 -1.4091839527273663e-16 5.939421746105115e-17 0.9943216586021636 -0.10641634852994163
12637649333.333334 0.9928913582612328 -0.11902416011032724 -1.4012067311061007e-16 6.117784722195961e-17 -1.4012067311061007e-16 6.117784722195961e-17 0.9928914422758309 -0.11902345926423137
12638266666.666666 0.991301292664077 -0.1316121087223121 -1.393003892791471e-16 6.295079359577927e-17 -1.393003892791471e-16 6.295079359577927e-17 0.9913013855595164 -0.1316114090327541
12638884000.0 0.9895516426677734 -0.1441788697878976 -1.3845768647897268e-16 6.47127713740788e-17 -1.3845768647897268e-16 6.47127713740788e-17 0.9895517444282319 -0.14417817136739824
12639501333.333334 0.9876426899394108 -0.15672242025010003 -1.3759271101377884e-16 6.646349724993812e-17 -1.3759271101377884e-16 6.646349724993812e-17 0.9876428005476419 -0.15672172321096495
12640118666.666666 0.9855747417914098 -0.16924074078837936 -1.3670561276506302e-16 6.820268986339748e-17 -1.3670561276506302e-16 6.820268986339748e-17 0.9855748612287444 -0.169240045242681
12640736000.0 0.9833481311319633 -0.18173181614422348 -1.3579654516622864e-16 6.993006984669526e-17 -1.3579654516622864e-16 6.993006984669526e-17 0.9833482593783127 -0.18173112220378276
12641353333.333334 0.980963216411596 -0.19419363544467722 -1.3486566517621671e-16 7.164535986896987e-17 -1.3486566517621671e-16 7.164535986896987e-17 0.9809633534454542 -0.1941929432210456
12641970666.666666 0.9784203815653347 -0.2066241925267909 -1.3391313325247104e-16 7.334828468080436e-17 -1.3391313325247104e-16 7.334828468080436e-17 0.9784205273637855 -0.20662350213123293
12642588000.0 0.9757200359509172 -0.21902148626046916 -1.3293911332340839e-16 7.503857115829104e-17 -1.3293911332340839e-16 7.503857115829104e-17 0.975720190489634 -0.21902079780394404
12643205333.333334 0.9728626142829588 -0.23138352087028832 -1.3194377276030908e-16 7.671594834677833e-17 -1.3194377276030908e-16 7.671594834677833e-17 0.9728627775362113 -0.23138283446343225
12643822666.666666 0.9698485765628899 -0.2437083062571752 -1.3092728234866003e-16 7.838014750423861e-17 -1.3092728234866003e-16 7.838014750423861e-17 0.969848748503547 -0.2437076220102837
12644440000.0 0.9666784080049191 -0.25599385831867016 -1.2988981625895245e-16 8.003090214425832e-17 -1.2988981625895245e-16 8.003090214425832e-17 0.9666785886044549 -0.2559931763416805
12645057333.333334 0.9633526189580123 -0.2682381992680082 -1.2883155201693433e-16 8.166794807865075e-17 -1.2883155201693433e-16 8.166794807865075e-17 0.9633528081865086 -0.26823751967048115
12645674666.666666 0.9598717448236194 -0.2804393579529529 -1.2775267047334913e-16 8.329102345963993e-17 -1.2775267047334913e-16 8.329102345963993e-17 0.9598719426497732 -0.2804386808440559
12646292000.0 0.9562363459694949 -0.2925953701730658 -1.2665335577309836e-16 8.489986882172002e-17 -1.2665335577309836e-16 8.489986882172002e-17 0.9562365523606204 -0.29259469566155455
12646909333.333334 0.9524470076395599 -0.30470427899563846 -1.2553379532392561e-16 8.649422712303671e-17 -1.2553379532392561e-16 8.649422712303671e-17 0.9524472225615983 -0.30470360718984063
12647526666.666666 0.9485043398596503 -0.3167641350708954 -1.2439417976455514e-16 8.807384378639236e-17 -1.2439417976455514e-16 8.807384378639236e-17 0.9485045632771709 -0.3167634660786919
12648144000.0 0.9444089773392691 -0.32877299694591555 -1.2323470293232237e-16 8.963846673982701e-17 -1.2323470293232237e-16 8.963846673982701e-17 0.9444092092154778 -0.32877233087472413
12648761333.333334 0.9401615793694429 -0.3407289313770687 -1.220555618302893e-16 9.118784645678094e-17 -1.220555618302893e-16 9.118784645678094e-17 0.940161819666187 -0.34072826833382613
12649378666.666666 0.9357628297166225 -0.3526300136411302 -1.2085695659388193e-16 9.272173599579208e-17 -1.2085695659388193e-16 9.272173599579208e-17 0.9357630783943985 -0.3526293537322759
12649996000.0 0.9312134365125563 -0.3644743278452951 -1.1963909045697812e-16 9.423989103982493e-17 -1.1963909045697812e-16 9.423989103982493e-17 0.9312136935305149 -0.3644736711767532
12650613333.333334 0.9265141321403061 -0.37625996723555255 -1.1840216971754896e-16 9.574206993509376e-17 -1.1840216971754896e-16 9.574206993509376e-17 0.9265143974562596 -0.3762593139127155
12651230666.666666 0.921665673116369 -0.3879850345035924 -1.1714640370282138e-16 9.722803372943034e-17 -1.1714640370282138e-16 9.722803372943034e-17 0.9216659466867984 -0.38798438463130364
12651848000.0 0.9166688399688236 -0.3996476420924003 -1.15872004733882e-16 9.869754621028921e-17 -1.15872004733882e-16 9.869754621028921e-17 0.9166691217488844 -0.3996469957749373
12652465333.333334 0.9115244371116928 -0.41124591250007053 -1.1457918808991127e-16 1.0015037394216433e-16 -1.1457918808991127e-16 1.0015037394216433e-16 0.911524727055224 -0.41124526984112875
12653082666.666666 0.9062332927156129 -0.4227779785816942 -1.1326817197190057e-16 1.0158628630359893e-16 -1.1326817197190057e-16 1.0158628630359893e-16 0.9062335907751438 -0.42277733968437
12653700000.0 0.9007962585742058 -0.434241983850614 -1.1193917746584735e-16 1.0300505552378524e-16 -1.1193917746584735e-16 1.0300505552378524e-16 0.9007965647009647 -0.43424134881738835
12654317333.333334 0.8952142099672136 -0.4456360827767221 -1.1059242850563342e-16 1.0440645671853067e-16 -1.1059242850563342e-16 1.0440645671853067e-16 0.8952145241111339 -0.44563545170944374
12654934666.666666 0.8894880455195235 -0.4569584410837185 -1.0922815183531367e-16 1.0579026792589298e-16 -1.0922815183531367e-16 1.0579026792589298e-16 0.8894883676292528 -0.4569578140835876
12655552000.0 0.8836186870562937 -0.46820723604480546 -1.0784657697101778e-16 1.071562701412593e-16 -1.0784657697101778e-16 1.071562701412593e-16 0.8836190170792032 -0.468206613212358
12656169333.333334 0.8776070794549949 -0.4793806567752591 -1.0644793616247063e-16 1.0850424735187527e-16 -1.0644793616247063e-16 1.0850424735187527e-16 0.8776074173371867 -0.4793800382103502
12656786666.666666 0.8714541904928294 -0.4904769045248627 -1.0503246435396596e-16 1.0983398657098862e-16 -1.0503246435396596e-16 1.0983398657098862e-16 0.8714545361791458 -0.4904762903266509
12657404000.0 0.86516101069128 -0.501494192966826 -1.036003991450071e-16 1.1114527787139439e-16 -1.036003991450071e-16 1.1114527787139439e-16 0.865161364125312 -0.5014935832337568
12658021333.333334 0.8587285531563715 -0.5124307484858505 -1.0215198075048617e-16 1.124379144185092e-16 -1.0215198075048617e-16 1.124379144185092e-16 0.8587289142804697 -0.512430143315642
12658638666.666666 0.8521578534159242 -0.5232848104630687 -1.0068745196049134e-16 1.1371169250289467e-16 -1.0068745196049134e-16 1.1371169250289467e-16 0.852158222171205 -0.5232842099526938
12659256000.0 0.8454499692524683 -0.5340546315601096 -9.920705809964399e-17 1.1496641157231402e-16 -9.920705809964399e-17 1.1496641157231402e-16 0.8454503455788275 -0.5340540358057827
12659873333.333334 0.8386059805331338 -0.5447384780001012 -9.771104698610396e-17 1.1620187426320512e-16 -9.771104698610396e-17 1.1620187426320512e-16 0.8386063643692525 -0.5447378870972608
12660490666.666666 0.8316269890360197 -0.5553346298464462 -9.619966889015064e-17 1.174178864316489e-16 -9.619966889015064e-17 1.174178864316489e-16 0.8316273803193773 -0.5553340438897413
12661108000.0 0.8245141182722734 -0.5658413812805666 -9.467317649237994e-17 1.186142571837996e-16 -9.467317649237994e-17 1.186142571837996e-16 0.8245145169391572 -0.565840800363841
12661725333.333334 0.8172685133059093 -0.57625704087547 -9.31318248415589e-17 1.1979079890574727e-16 -9.31318248415589e-17 1.1979079890574727e-16 0.817268919291422 -0.5762564650917458
12662342666.666666 0.809891340568867 -0.5865799318689386 -9.157587131204178e-17 1.209473272928861e-16 -9.157587131204178e-17 1.209473272928861e-16 0.8098917538069413 -0.5865793613104036
12662960000.0 0.8023837876736186 -0.5968083924328996 -9.000557556089117e-17 1.2208366137867767e-16 -9.000557556089117e-17 1.2208366137867767e-16 0.8023842080970264 -0.5968078271908913
12663577333.333334 0.7947470632218565 -0.606940775941144 -8.842119948461006e-17 1.23199623562886e-16 -8.842119948461006e-17 1.23199623562886e-16 0.7947474907622184 -0.6069402161061352
12664194666.666666 0.7869823966098205 -0.6169754512345426 -8.682300717553143e-17 1.24295039639246e-16 -8.682300717553143e-17 1.24295039639246e-16 0.7869828311976182 -0.6169748968961262
12664812000.0 0.7790910378306233 -0.6269108028833191 -8.521126487786688e-17 1.25369738822568e-16 -8.521126487786688e-17 1.25369738822568e-16 0.7790914793952115 -0.6269102541301952
12665429333.333334 0.7710742572727066 -0.6367452314475142 -8.358624094341424e-17 1.2642355377527796e-16 -8.358624094341424e-17 1.2642355377527796e-16 0.771074705742324 -0.6367446883674752
12666046666.666666 0.7629333455157947 -0.6464771537338976 -8.194820578698174e-17 1.2745632063335677e-16 -8.194820578698174e-17 1.2745632063335677e-16 0.7629338008175749 -0.646476616413814
12666664000.0 0.7546696131224402 -0.6561050030516689 -8.029743184137692e-17 1.2846787903177735e-16 -8.029743184137692e-17 1.2846787903177735e-16 0.7546700751824246 -0.6561044715774754
12667281333.333334 0.7462843904278487 -0.6656272294637133 -7.86341935122657e-17 1.2945807212924476e-16 -7.86341935122657e-17 1.2945807212924476e-16 0.7462848591709973 -0.6656267039203955
12667898666.666666 0.7377790273250512 -0.6750423000368981 -7.695876713255227e-17 1.3042674663246311e-16 -7.695876713255227e-17 1.3042674663246311e-16 0.737779502675256 -0.6750417805084782
12668516000.0 0.7291548930478491 -0.6843486990885457 -7.52714309165344e-17 1.3137375281976567e-16 -7.52714309165344e-17 1.3137375281976567e-16 0.7291553749279457 -0.6843481856580693
12669133333.333334 0.720413375950621 -0.6935449284301871 -7.357246491383797e-17 1.3229894456411736e-16 -7.357246491383797e-17 1.3229894456411736e-16 0.7204138642824025 -0.6935444211797115
12669750666.666666 0.7115558832843197 -0.7026295076092924 -7.186215096292758e-17 1.3320217935560174e-16 -7.186215096292758e-17 1.3320217935560174e-16 0.7115563779885465 -0.7026290066198704
12670368000.0 0.702583840970348 -0.7116009741471392 -7.01407726444479e-17 1.3408331832324902e-16 -7.01407726444479e-17 1.3408331832324902e-16 0.7025843419667638 -0.7116004794988089
