! Parameters = {f0=12700.012000; bw=77.238000; Q=6100.000000; N=10; m_0_1=1.178473; m_1_1=-1.087644; m_1_2=1.013285; m_2_2=-1.088293; m_2_3=0.650248; m_2_8=-0.004013; m_2_9=0.032691; m_3_3=-1.090230; m_3_4=0.538777; m_3_7=-0.003413; m_3_8=-0.100501; m_3_9=-0.004013; m_4_4=-1.093155; m_4_5=0.375112; m_4_6=0.000104; m_4_7=-0.121050; m_4_8=-0.003413; m_5_5=-1.092773; m_5_6=0.782467; m_5_7=0.000104; m_6_6=-1.092774; m_6_7=0.375454; m_7_7=-1.093141; m_7_8=0.538895; m_8_8=-1.090232; m_8_9=0.650561; m_9_9=-1.088298; m_9_10=1.014363; m_10_10=-1.087654; m_10_11=1.179268}
!
! Created with skrf (http://scikit-rf.org).
# Hz S RI R 50.0 
!freq ReS11 ImS11 ReS21 ImS21 ReS12 ImS12 ReS22 ImS22
12607400000.0 0.8832302250474378 -0.46893962251285615 -5.020404085977149e-17 4.9278897583523617e-17 -5.020404085977149e-17 4.9278897583523617e-17 0.8832305162804165 -0.46893907398603135
12608017333.333334 0.8795374896675274 -0.47582959583152645 -4.9803126251992386e-17 4.9664530028320717e-17 -4.9803126251992386e-17 4.9664530028320717e-17 0.8795377851650257 -0.4758290496248095
12608634666.666666 0.8757910074881007 -0.4826904921404877 -4.939925504350978e-17 5.0046906442774627e-17 -4.939925504350978e-17 5.0046906442774627e-17 0.8757913072316454 -0.4826899482870277
12609252000.0 0.871991007449311 -0.48952189218397973 -4.899245363442711e-17 5.042600420394627e-17 -4.899245363442711e-17 5.042600420394627e-17 0.8719913114201706 -0.48952135071677855
12609869333.333334 0.8681377217617214 -0.4963233785086256 -4.85827485975791e-17 5.080180090261824e-17 -4.85827485975791e-17 5.080180090261824e-17 0.8681380299409069 -0.4963228394605355
12610486666.666666 0.8642313858920762 -0.503094535489018 -4.8170166676823537e-17 5.117427434459319e-17 -4.8170166676823537e-17 5.117427434459319e-17 0.8642316982603445 -0.5030939988927409
12611104000.0 0.8602722385488668 -0.5098349493531893 -4.7754734785275695e-17 5.1543402552021425e-17 -4.7754734785275695e-17 5.1543402552021425e-17 0.8602725550867214 -0.5098344152412742
12611721333.333334 0.856260521667836 -0.5165442082077516 -4.7336480003593435e-17 5.190916376465932e-17 -4.7336480003593435e-17 5.190916376465932e-17 0.8562608423555256 -0.5165436766125917
12612338666.666666 0.852196480397159 -0.523221902063114 -4.6915429578193735e-17 5.227153644116763e-17 -4.6915429578193735e-17 5.227153644116763e-17 0.8521968052146814 -0.5232213730169458
12612956000.0 0.848080363082348 -0.5298676228587301 -4.6491610919497385e-17 5.2630499260360195e-17 -4.6491610919497385e-17 5.2630499260360195e-17 0.8480806920094512 -0.5298670963936319
12613573333.333334 0.8439124212513269 -0.5364809644876228 -4.606505160015598e-17 5.298603112244718e-17 -4.606505160015598e-17 5.298603112244718e-17 0.8439127542675102 -0.5364804406355117
12614190666.666666 0.839692909598796 -0.5430615228216364 -4.5635779353255526e-17 5.3338111150275307e-17 -4.5635779353255526e-17 5.3338111150275307e-17 0.8396932466833098 -0.5430610016142666
12614808000.0 0.8354220859708592 -0.5496088957358184 -4.5203822070533494e-17 5.3686718690534435e-17 -4.5203822070533494e-17 5.3686718690534435e-17 0.8354224271027069 -0.5496083772047787
12615425333.333334 0.831100211349132 -0.5561226831332063 -4.476920780056228e-17 5.403183331497e-17 -4.476920780056228e-17 5.403183331497e-17 0.8311005565070725 -0.5561221673099198
12616042666.666666 0.8267275498349166 -0.5626024869690881 -4.433196474694822e-17 5.4373434821560933e-17 -4.433196474694822e-17 5.4373434821560933e-17 0.826727898997466 -0.5626019738848098
12616660000.0 0.8223043686329403 -0.5690479112755167 -4.389212126649683e-17 5.471150323570292e-17 -4.389212126649683e-17 5.471150323570292e-17 0.8223047217783706 -0.5690474009613301
12617277333.333334 0.817830938035136 -0.5754585621853392 -4.344970586739245e-17 5.504601881135814e-17 -4.344970586739245e-17 5.504601881135814e-17 0.8178312951414775 -0.5754580546721554
12617894666.666666 0.8133075314040921 -0.5818340479563131 -4.300474720735378e-17 5.537696203220312e-17 -4.300474720735378e-17 5.537696203220312e-17 0.8133078924491373 -0.5818335432748702
12618512000.0 0.8087344251562208 -0.5881739789952324 -4.2557274091780464e-17 5.570431361276131e-17 -4.2557274091780464e-17 5.570431361276131e-17 0.8087347901175224 -0.5881734771760919
12619129333.333334 0.8041118987451443 -0.5944779678813394 -4.2107315471907217e-17 5.60280544995089e-17 -4.2107315471907217e-17 5.60280544995089e-17 0.8041122676000172 -0.5944774689548846
12619746666.666666 0.7994402346443358 -0.6007456293903927 -4.1654900442927305e-17 5.63481658719826e-17 -4.1654900442927305e-17 5.63481658719826e-17 0.7994406073698602 -0.600745133386827
12620364000.0 0.79471971832999 -0.60697658051802 -4.120005824212333e-17 5.666462914386002e-17 -4.120005824212333e-17 5.666462914386002e-17 0.7947200949030135 -0.6069760874673673
12620981333.333334 0.7899506382636025 -0.6131704405031072 -4.0742818246989175e-17 5.697742596402722e-17 -4.0742818246989175e-17 5.697742596402722e-17 0.7899510186607369 -0.6131699504352054
12621598666.666666 0.7851332858743 -0.6193268308511048 -4.0283209973336575e-17 5.728653821763486e-17 -4.0283209973336575e-17 5.728653821763486e-17 0.7851336700719269 -0.6193263437956076
12622216000.0 0.7802679555409832 -0.6254453753572267 -3.982126307339255e-17 5.759194802714068e-17 -3.982126307339255e-17 5.759194802714068e-17 0.7802683435152546 -0.625444891343601
12622833333.333334 0.7753549445744434 -0.6315257001293056 -3.9357007333903675e-17 5.789363775332635e-17 -3.9357007333903675e-17 5.789363775332635e-17 0.7753553363012823 -0.6315252191868296
12623450666.666666 0.7703945531991226 -0.6375674336107294 -3.889047267421822e-17 5.819158999630986e-17 -3.889047267421822e-17 5.819158999630986e-17 0.770394948654226 -0.6375669557684908
12624068000.0 0.7653870845348226 -0.6435702066030804 -3.842168914436188e-17 5.848578759654035e-17 -3.842168914436188e-17 5.848578759654035e-17 0.7653874836936613 -0.6435697318899744
12624685333.333334 0.7603328445780172 -0.6495336522888931 -3.795068692311302e-17 5.87762136357738e-17 -3.795068692311302e-17 5.87762136357738e-17 0.7603332474158377 -0.6495331807336205
12625302666.666666 0.7552321421834821 -0.6554574062536763 -3.74774963160725e-17 5.906285143803244e-17 -3.74774963160725e-17 5.906285143803244e-17 0.7552325486753095 -0.6554569378847431
12625920000.0 0.7500852890450177 -0.6613411065086612 -3.700214775370913e-17 5.93456845705586e-17 -3.700214775370913e-17 5.93456845705586e-17 0.7500856991656563 -0.6613406413543755
12626537333.333334 0.7448925996767164 -0.6671843935125524 -3.6524671789422036e-17 5.962469684473896e-17 -3.6524671789422036e-17 5.962469684473896e-17 0.74489301340075 -0.6671839316010225
12627154666.666666 0.7396543913936875 -0.6729869101935655 -3.6045099097579125e-17 5.98998723170232e-17 -3.6045099097579125e-17 5.98998723170232e-17 0.7396548086954841 -0.6729864515527002
12627772000.0 0.734370984292423 -0.6787483019715232 -3.556346047154845e-17 6.017119528982687e-17 -3.556346047154845e-17 6.017119528982687e-17 0.734371405146133 -0.6787478466290275
12628389333.333334 0.7290427012316535 -0.6844682167790577 -3.507978682174056e-17 6.043865031240906e-17 -3.507978682174056e-17 6.043865031240906e-17 0.729043125611213 -0.6844677647624327
12629006666.666666 0.7236698678121779 -0.6901463050836061 -3.459410917361962e-17 6.070222218174726e-17 -3.459410917361962e-17 6.070222218174726e-17 0.7236702956913108 -0.6901458564201474
12629624000.0 0.7182528123573346 -0.6957822199083761 -3.410645866572601e-17 6.096189594338775e-17 -3.410645866572601e-17 6.096189594338775e-17 0.7182532437095535 -0.6957817746251714
12630241333.333334 0.7127918658926662 -0.701375616853837 -3.3616866547690365e-17 6.121765689228009e-17 -3.3616866547690365e-17 6.121765689228009e-17 0.712792300691273 -0.7013751749777646
12630858666.666666 0.7072873621259652 -0.7069261541184796 -3.3125364178234983e-17 6.146949057360032e-17 -3.3125364178234983e-17 6.146949057360032e-17 0.7072878003440543 -0.7069257156762068
12631476000.0 0.7017396374265036 -0.7124334925200859 -3.2631983023166895e-17 6.171738278355842e-17 -3.2631983023166895e-17 6.171738278355842e-17 0.7017400790369649 -0.7124330575380695
12632093333.333334 0.6961490308049035 -0.7178972955160394 -3.2136754653381404e-17 6.196131957018206e-17 -3.2136754653381404e-17 6.196131957018206e-17 0.6961494757804192 -0.7178968640205192
12632710666.666666 0.6905158838921313 -0.7233172292241614 -3.1639710742843664e-17 6.220128723409244e-17 -3.1639710742843664e-17 6.220128723409244e-17 0.6905163322051829 -0.723316801241164
12633328000.0 0.6848405409186883 -0.7286929624430631 -3.114088306656629e-17 6.243727232926257e-17 -3.114088306656629e-17 6.243727232926257e-17 0.6848409925415553 -0.7286925379983968
12633945333.333334 0.6791233486935921 -0.7340241666723586 -3.064030349858888e-17 6.266926166375672e-17 -3.064030349858888e-17 6.266926166375672e-17 0.6791238035983549 -0.7340237457916137
12634562666.666666 0.6733646565832468 -0.7393105161326825 -3.013800400995354e-17 6.289724230045206e-17 -3.013800400995354e-17 6.289724230045206e-17 0.6733651147417875 -0.7393100988412284
12635180000.0 0.6675648164899506 -0.7445516877857359 -2.963401666665771e-17 6.312120155775362e-17 -2.963401666665771e-17 6.312120155775362e-17 0.6675652778739548 -0.7445512741087197
12635797333.333334 0.6617241828305324 -0.7497473613538848 -2.912837362762649e-17 6.334112701028001e-17 -2.912837362762649e-17 6.334112701028001e-17 0.6617246474114924 -0.7497469513162318
12636414666.666666 0.655843112514638 -0.7548972193397983 -2.8621107142662386e-17 6.355700648954246e-17 -2.8621107142662386e-17 6.355700648954246e-17 0.6558435802638537 -0.7548968129662084
12637032000.0 0.6499219649228535 -0.7600009470459015 -2.8112249550389914e-17 6.376882808460648e-17 -2.8112249550389914e-17 6.376882808460648e-17 0.649922435811432 -0.7600005443608467
12637649333.333334 0.64396110188489 -0.7650582325934724 -2.7601833276213592e-17 6.397658014272962e-17 -2.7601833276213592e-17 6.397658014272962e-17 0.6439615758837521 -0.7650578336211996
12638266666.666666 0.6379608876573077 -0.7700687669418557 -2.708989083024426e-17 6.418025126999487e-17 -2.708989083024426e-17 6.418025126999487e-17 0.637961364737185 -0.7700683717063806
12638884000.0 0.6319216889014242 -0.7750322439071938 -2.6576454805249794e-17 6.437983033191481e-17 -2.6576454805249794e-17 6.437983033191481e-17 0.6319221690328646 -0.7750318524323034
12639501333.333334 0.625843874660717 -0.779948360181307 -2.6061557874570705e-17 6.457530645403276e-17 -2.6061557874570705e-17 6.457530645403276e-17 0.6258443578140834 -0.779947972490554
12640118666.666666 0.6197278163385759 -0.7848168153499703 -2.554523279007338e-17 6.476666902248979e-17 -2.554523279007338e-17 6.476666902248979e-17 0.6197283024840502 -0.7848164314666755
12640736000.0 0.6135738876750777 -0.7896373119117025 -2.5027512380031267e-17 6.495390768460235e-17 -2.5027512380031267e-17 6.495390768460235e-17 0.6135743767826615 -0.7896369318589508
12641353333.333334 0.6073824647248603 -0.7944095552953794 -2.4508429547094615e-17 6.513701234938838e-17 -2.4508429547094615e-17 6.513701234938838e-17 0.6073829567643773 -0.7944091790960196
12641970666.666666 0.6011539258334937 -0.7991332538787427 -2.3988017266172626e-17 6.531597318810698e-17 -2.3988017266172626e-17 6.531597318810698e-17 0.6011544207745912 -0.7991328815553861
12642588000.0 0.5948886516147643 -0.8038081190059082 -2.3466308582351377e-17 6.549078063476856e-17 -2.3466308582351377e-17 6.549078063476856e-17 0.5948891494269155 -0.8038077505809269
12643205333.333334 0.5885870249272137 -0.8084338650051597 -2.2943336608815222e-17 6.566142538662459e-17 -2.2943336608815222e-17 6.566142538662459e-17 0.5885875255797193 -0.8084335005006855
12643822666.666666 0.5822494308508327 -0.8130102092063362 -2.2419134524729536e-17 6.582789840465379e-17 -2.2419134524729536e-17 6.582789840465379e-17 0.582249934312823 -0.8130098486442595
12644440000.0 0.5758762566634614 -0.8175368719581572 -2.1893735573166846e-17 6.599019091401533e-17 -2.1893735573166846e-17 6.599019091401533e-17 0.5758767629038983 -0.8175365153601255
12645057333.333334 0.5694678918172852 -0.8220135766451944 -2.136717305898854e-17 6.614829440449935e-17 -2.136717305898854e-17 6.614829440449935e-17 0.5694684008049636 -0.8220132240326106
12645674666.666666 0.5630247279148527 -0.8264400497049101 -2.0839480346755577e-17 6.630220063095052e-17 -2.0839480346755577e-17 6.630220063095052e-17 0.563025239618402 -0.8264397010989306
12646292000.0 0.5565471586851648 -0.8308160206443527 -2.0310690858594674e-17 6.645190161368741e-17 -2.0310690858594674e-17 6.645190161368741e-17 0.5565476730730525 -0.8308156760658885
12646909333.333334 0.5500355799597592 -0.8351412220565937 -1.978083807211852e-17 6.659738963888832e-17 -1.978083807211852e-17 6.659738963888832e-17 0.5500360970002909 -0.835140881526306
12647526666.666666 0.5434903896483526 -0.8394153896371747 -1.9249955518299713e-17 6.673865725897291e-17 -1.9249955518299713e-17 6.673865725897291e-17 0.5434909093096764 -0.8394150531754775
12648144000.0 0.5369119877146259 -0.843638262200203 -1.871807677934422e-17 6.687569729296698e-17 -1.871807677934422e-17 6.687569729296698e-17 0.5369125099647313 -0.8436379298272578
12648761333.333334 0.5303007761517046 -0.8478095816943493 -1.818523548659647e-17 6.700850282684008e-17 -1.818523548659647e-17 6.700850282684008e-17 0.5303013009584275 -0.8478092534300674
12649378666.666666 0.5236571589577926 -0.8519290932185039 -1.7651465318404395e-17 6.713706721383781e-17 -1.7651465318404395e-17 6.713706721383781e-17 0.5236576862888142 -0.8519287690825418
12649996000.0 0.5169815421111656 -0.8559965450375417 -1.7116799998003077e-17 6.72613840747907e-17 -1.7116799998003077e-17 6.72613840747907e-17 0.5169820719340179 -0.8559962250493042
12650613333.333334 0.5102743335456346 -0.8600116885975487 -1.6581273291383253e-17 6.73814472984103e-17 -1.6581273291383253e-17 6.73814472984103e-17 0.5102748658276983 -0.8600113727761821
12651230666.666666 0.5035359431255142 -0.8639742785410611 -1.6044919005178904e-17 6.749725104156306e-17 -1.6044919005178904e-17 6.749725104156306e-17 0.5035364778340248 -0.8639739669054579
12651848000.0 0.49676678262053353 -0.8678840727220962 -1.5507770984526284e-17 6.760878972953342e-17 -1.5507770984526284e-17 6.760878972953342e-17 0.49676731972258065 -0.8678837652908898
12652465333.333334 0.48996726568069376 -0.8717408322209266 -1.4969863110938816e-17 6.771605805626686e-17 -1.4969863110938816e-17 6.771605805626686e-17 0.4899678051432243 -0.8717405290124925
12653082666.666666 0.4831378078111913 -0.8755443213585737 -1.4431229300191897e-17 6.781905098459261e-17 -1.4431229300191897e-17 6.781905098459261e-17 0.483138349601011 -0.8755440223910276
12653700000.0 0.4762788263465798 -0.8792943077114583 -1.3891903500156484e-17 6.791776374644111e-17 -1.3891903500156484e-17 6.791776374644111e-17 0.4762793704303555 -0.8792940130026549
12654317333.333334 0.469390740425815 -0.8829905621253004 -1.3351919688708489e-17 6.801219184302761e-17 -1.3351919688708489e-17 6.801219184302761e-17 0.4693912867700764 -0.8829902716928316
12654934666.666666 0.462473970966193 -0.8866328587293667 -1.2811311871560046e-17 6.810233104503539e-17 -1.2811311871560046e-17 6.810233104503539e-17 0.4624745195373353 -0.8866325725905629
12655552000.0 0.45552894063782834 -0.8902209749501673 -1.2270114080139983e-17 6.818817739277123e-17 -1.2270114080139983e-17 6.818817739277123e-17 0.45552949140211363 -0.8902206931220935
12656169333.333334 0.4485560738378768 -0.8937546915250283 -1.172836036946211e-17 6.826972719630756e-17 -1.172836036946211e-17 6.826972719630756e-17 0.4485566267614365 -0.8937544140244849
12656786666.666666 0.4415557966644234 -0.8972337925155821 -1.1186084815975213e-17 6.834697703560934e-17 -1.1186084815975213e-17 6.834697703560934e-17 0.4415563517132609 -0.8972335193591044
12657404000.0 0.43452853689064924 -0.9006580653208633 -1.0643321515441776e-17 6.841992376064004e-17 -1.0643321515441776e-17 6.841992376064004e-17 0.43452909403064044 -0.9006577965247179
12658021333.333334 0.4274747239384592 -0.9040273006904088 -1.0100104580783279e-17 6.848856449145588e-17 -1.0100104580783279e-17 6.848856449145588e-17 0.4274752831353561 -0.9040270362705951
12658638666.666666 0.420394788852576 -0.907341292736888 -9.55646813996806e-18 6.855289661827648e-17 -9.55646813996806e-18 6.855289661827648e-17 0.4203953500720083 -0.9073410327091368
12659256000.0 0.4132891642737362 -0.9105998389489021 -9.012446333838659e-18 6.861291780154728e-17 -9.012446333838659e-18 6.861291780154728e-17 0.4132897274812131 -0.9105995833286736
12659873333.333334 0.4061582844126899 -0.9138027402031528 -8.468073314007439e-18 6.86686259719758e-17 -8.468073314007439e-18 6.86686259719758e-17 0.4061588495736027 -0.9138024890056365
12660490666.666666 0.39900258502346153 -0.9169498007767078 -7.923383240703664e-18 6.872001933055775e-17 -7.923383240703664e-18 6.872001933055775e-17 0.3990031521030858 -0.916949554016823
12661108000.0 0.3918225033766698 -0.9200408283589855 -7.378410280632443e-18 6.87670963485839e-17 -7.378410280632443e-18 6.87670963485839e-17 0.39182307234016694 -0.920040586051377
12661725333.333334 0.38461847823296225 -0.9230756340634333 -6.833188604851851e-18 6.880985576762908e-17 -6.833188604851851e-18 6.880985576762908e-17 0.38461904904538174 -0.9230753962224731
12662342666.666666 0.37739094981612503 -0.9260540324391079 -6.287752386621132e-18 6.884829659952653e-17 -6.287752386621132e-18 6.884829659952653e-17 0.37739152244240715 -0.9260537990788934
12662960000.0 0.3701403597861042 -0.9289758414820388 -5.742135799281025e-18 6.888241812632302e-17 -5.742135799281025e-18 6.888241812632302e-17 0.3701409341910816 -0.9289756126163927
12663577333.333334 0.36286715121220003 -0.9318408826462763 -5.196373014103526e-18 6.89122199002196e-17 -5.196373014103526e-18 6.89122199002196e-17 0.3628677273606005 -0.9318406582887454
12664194666.666666 0.35557176854578093 -0.9346489808548849 -4.6504981981739506e-18 6.893770174349266e-17 -4.6504981981739506e-18 6.893770174349266e-17 0.3555723464022284 -0.9346487610187382
12664812000.0 0.34825465759333535 -0.9373999645105593 -4.10454551224279e-18 6.895886374840126e-17 -4.10454551224279e-18 6.895886374840126e-17 0.3482552371223538 -0.9373997492087899
12665429333.333334 0.34091626548901793 -0.9400936655061933 -3.55854910860813e-18 6.897570627707483e-17 -3.55854910860813e-18 6.897570627707483e-17 0.3409168466550319 -0.9400934547515147
12666046666.666666 0.3335570406675383 -0.9427299192350717 -3.0125431289798802e-18 6.898822996138598e-17 -3.0125431289798802e-18 6.898822996138598e-17 0.3335576234348759 -0.9427297130399183
12666664000.0 0.32617743283654427 -0.9453085646010047 -2.4665617023454418e-18 6.89964357028056e-17 -2.4665617023454418e-18 6.89964357028056e-17 0.32617801716943956 -0.9453083629775321
12667281333.333334 0.31877789294932923 -0.9478294440281102 -1.920638942856668e-18 6.900032467224146e-17 -1.920638942856668e-18 6.900032467224146e-17 0.31877847881192384 -0.9478292469881929
12667898666.666666 0.3113588731771945 -0.9502924034704671 -1.3748089476910735e-18 6.899989830986013e-17 -1.3748089476910735e-18 6.899989830986013e-17 0.31135946053354047 -0.9502922110256992
12668516000.0 0.30392082688173755 -0.9526972924215594 -8.291057949345675e-19 6.899515832489172e-17 -8.291057949345675e-19 6.899515832489172e-17 0.30392141569579845 -0.9526971045832514
12669133333.333334 0.29646420858733613 -0.9550439639234078 -2.8356354146425263e-19 6.898610669541856e-17 -2.8356354146425263e-19 6.898610669541856e-17 0.29646479882299026 -0.955043780702588
12669750666.666666 0.28898947395315644 -0.9573322745756185 2.6178377917449184e-19 6.897274566814649e-17 2.6178377917449184e-19 6.897274566814649e-17 0.28899006557419926 -0.9573320959830338
12670368000.0 0.28149707974550064 -0.9595620845440929 8.069021588905822e-19 6.895507775816012e-17 8.069021588905822e-19 6.895507775816012e-17 0.281497672715646 -0.9595619105902049
