! Parameters = {f0=12700.012000; bw=77.238000; Q=6100.000000; N=10; m_0_1=1.307803; m_1_1=0.852296; m_1_2=1.142615; m_2_2=0.851647; m_2_3=0.779578; m_2_8=0.002454; m_2_9=0.039158; m_3_3=0.849710; m_3_4=0.668107; m_3_7=0.003054; m_3_8=-0.094034; m_3_9=0.002454; m_4_4=0.846785; m_4_5=0.504442; m_4_6=0.006571; m_4_7=-0.114583; m_4_8=0.003054; m_5_5=0.847167; m_5_6=0.911797; m_5_7=0.006571; m_6_6=0.847166; m_6_7=0.504784; m_7_7=0.846799; m_7_8=0.668225; m_8_8=0.849708; m_8_9=0.779891; m_9_9=0.851642; m_9_10=1.143693; m_10_10=0.852286; m_10_11=1.308598}
!
! Created with skrf (http://scikit-rf.org).
# Hz S RI R 50.0 
!freq ReS11 ImS11 ReS21 ImS21 ReS12 ImS12 ReS22 ImS22
12607400000.0 -0.9967302305966252 0.08080128349605595 1.2288946722659992e-16 -4.7508640015614015e-17 1.2288946722659992e-16 -4.7508640015614015e-17 -0.9967302862650295 0.08080059679139447
12608017333.333334 -0.9957221564077392 0.09239798287048816 1.2229983688496261e-16 -4.8937148023514846e-17 1.2229983688496261e-16 -4.8937148023514846e-17 -0.9957222200626576 0.09239729689392878
12608634666.666666 -0.9945791622154899 0.10398216234791277 1.2169361214689694e-16 -5.035836418271407e-17 1.2169361214689694e-16 -5.035836418271407e-17 -0.994579233847517 0.10398147719232934
12609252000.0 -0.9933014028952902 0.11555225227601942 1.2107088289970357e-16 -5.1772095853408894e-17 1.2107088289970357e-16 -5.1772095853408894e-17 -0.9933014824939396 0.11555156803416539
12609869333.333334 -0.9918890515831698 0.12710668491174187 1.2043174126544417e-16 -5.31781515006156e-17 1.2043174126544417e-16 -5.31781515006156e-17 -0.9918891391368758 0.1271060016762377
12610486666.666666 -0.9903422996523411 0.13864389463343202 1.1977628158740372e-16 -5.4576340720062463e-17 1.1977628158740372e-16 -5.4576340720062463e-17 -0.9903423951484621 0.13864321249675285
12611104000.0 -0.9886613566872222 0.15016231815336772 1.1910460041622837e-16 -5.596647426397152e-17 1.1910460041622837e-16 -5.596647426397152e-17 -0.9886614601120428 0.15016163720783088
12611721333.333334 -0.9868464504551118 0.16166039472907132 1.1841679649581273e-16 -5.734836406656957e-17 1.1841679649581273e-16 -5.734836406656957e-17 -0.9868465617938414 0.16165971506682342
12612338666.666666 -0.9848978268752577 0.17313656637523933 1.177129707488365e-16 -5.872182326954163e-17 1.177129707488365e-16 -5.872182326954163e-17 -0.9848979461120362 0.17313588808824426
12612956000.0 -0.9828157499855452 0.18458927807476425 1.1699322626203714e-16 -6.008666624724392e-17 1.1699322626203714e-16 -6.008666624724392e-17 -0.9828158771034441 0.1845886012547906
12613573333.333334 -0.980600501906782 0.19601697798910306 1.1625766827120757e-16 -6.144270863170819e-17 1.1625766827120757e-16 -6.144270863170819e-17 -0.9806006368878059 0.19601630272771156
12614190666.666666 -0.978252382804388 0.20741811766899831 1.155064041458555e-16 -6.2789767337556e-17 1.155064041458555e-16 -6.2789767337556e-17 -0.9782525256294788 0.20741744405752977
12614808000.0 -0.9757717108477645 0.2187911522640688 1.1473954337361888e-16 -6.412766058664432e-17 1.1473954337361888e-16 -6.412766058664432e-17 -0.9757718614968031 0.2187904803936314
12615425333.333334 -0.9731588221671975 0.2301345407320812 1.1395719754437507e-16 -6.545620793256108e-17 1.1395719754437507e-16 -6.545620793256108e-17 -0.9731589806190059 0.23013387069353827
12616042666.666666 -0.9704140708082719 0.2414467460479268 1.1315948033407975e-16 -6.677523028490527e-17 1.1315948033407975e-16 -6.677523028490527e-17 -0.9704142370406172 0.2414460779318845
12616660000.0 -0.9675378286839253 0.25272623541177686 1.123465074883075e-16 -6.808454993340383e-17 1.123465074883075e-16 -6.808454993340383e-17 -0.9675380026735234 0.2527255693085723
12617277333.333334 -0.9645304855240339 0.2639714804568598 1.1151839680552793e-16 -6.938399057180272e-17 1.1151839680552793e-16 -6.938399057180272e-17 -0.9645306672465503 0.26397081645654813
12617894666.666666 -0.9613924488226665 0.2751809574563063 1.1067526812011949e-16 -7.067337732153754e-17 1.1067526812011949e-16 -7.067337732153754e-17 -0.9613926382527247 0.27518029564864965
12618512000.0 -0.9581241437827506 0.2863531475300815 1.098172432850591e-16 -7.195253675527694e-17 1.098172432850591e-16 -7.195253675527694e-17 -0.9581243408939285 0.28635248800453533
12619129333.333334 -0.9547260132585752 0.29748653685032495 1.0894444615441226e-16 -7.322129692014748e-17 1.0894444615441226e-16 -7.322129692014748e-17 -0.9547262180234153 0.29748587969602747
12619746666.666666 -0.9511985176957417 0.30857961684666774 1.0805700256549546e-16 -7.447948736083758e-17 1.0805700256549546e-16 -7.447948736083758e-17 -0.9511987300857506 0.3085789621524267
12620364000.0 -0.9475421350687155 0.3196308844108043 1.071550403207928e-16 -7.572693914245443e-17 1.071550403207928e-16 -7.572693914245443e-17 -0.9475423550543697 0.3196302322650853
12620981333.333334 -0.943757360816165 0.33063884209983785 1.0623868916964048e-16 -7.696348487312135e-17 1.0623868916964048e-16 -7.696348487312135e-17 -0.9437575883669139 0.3306381925907526
12621598666.666666 -0.939844707773768 0.3416019983393732 1.0530808078958808e-16 -7.818895872644186e-17 1.0530808078958808e-16 -7.818895872644186e-17 -0.9398449428580427 0.3416013515546684
12622216000.0 -0.9358047061047197 0.35251886762565277 1.0436334876755532e-16 -7.940319646366357e-17 1.0436334876755532e-16 -7.940319646366357e-17 -0.9358049486899291 0.3525182236526964
12622833333.333334 -0.9316379032278922 0.363387970726811 1.0340462858070624e-16 -8.060603545565485e-17 1.0340462858070624e-16 -8.060603545565485e-17 -0.931638153280435 0.3633873296525821
12623450666.666666 -0.9273448637437401 0.3742078348831275 1.0243205757709779e-16 -8.179731470461597e-17 1.0243205757709779e-16 -8.179731470461597e-17 -0.927345121229005 0.37420719679420344
12624068000.0 -0.9229261693576815 0.38497699400687513 1.0144577495603478e-16 -8.297687486561289e-17 1.0144577495603478e-16 -8.297687486561289e-17 -0.9229264342400546 0.38497635898942073
12624685333.333334 -0.9183824188013068 0.39569398888089546 1.0044592174820828e-16 -8.41445582678374e-17 1.0044592174820828e-16 -8.41445582678374e-17 -0.9183826910441755 0.3956933570206509
12625302666.666666 -0.9137142277513497 0.4063573673560853 9.94326407956161e-17 -8.53002089355976e-17 9.94326407956161e-17 -8.53002089355976e-17 -0.9137145073171064 0.40635673873835426
12625920000.0 -0.9089222287460834 0.41696568454858085 9.840607673116095e-17 -8.644367260916394e-17 9.840607673116095e-17 -8.644367260916394e-17 -0.908922515596133 0.41696505925821964
12626537333.333334 -0.9040070710998184 0.4275175030350706 9.736637595810162e-17 -8.757479676526326e-17 9.736637595810162e-17 -8.757479676526326e-17 -0.9040073651945832 0.42751688115647657
12627154666.666666 -0.8989694208147857 0.43801139304787845 9.631368662922126e-17 -8.869343063738322e-17 9.631368662922126e-17 -8.869343063738322e-17 -0.8989697221137092 0.4380107746649781
12627772000.0 -0.8938099604908475 0.4484459326687703 9.524815862573877e-17 -8.979942523585069e-17 9.524815862573877e-17 -8.979942523585069e-17 -0.8938102689524017 0.4484453178650087
12628389333.333334 -0.8885293892332217 0.45881970802119076 9.416994353606825e-17 -9.089263336757699e-17 9.416994353606825e-17 -9.089263336757699e-17 -0.8885297048149126 0.4588190968795198
12629006666.666666 -0.883128422557489 0.46913131346237813 9.30791946342638e-17 -9.197290965563955e-17 9.30791946342638e-17 -9.197290965563955e-17 -0.8831287452158597 0.46913070606524443
12629624000.0 -0.8776077922928112 0.47937935177346885 9.19760668583118e-17 -9.304011055853466e-17 9.19760668583118e-17 -9.304011055853466e-17 -0.8776081219834538 0.47937874820280546
12630241333.333334 -0.8719682464827428 0.4895624343489029 9.086071678815476e-17 -9.409409438921702e-17 9.086071678815476e-17 -9.409409438921702e-17 -0.8719685831602987 0.489561834686115
12630858666.666666 -0.8662105492838645 0.49967918138457557 8.973330262354483e-17 -9.513472133383435e-17 8.973330262354483e-17 -9.513472133383435e-17 -0.8662108929020327 0.499678585710531
12631476000.0 -0.8603354808621284 0.5097282220649983 8.859398416160888e-17 -9.616185347026453e-17 8.859398416160888e-17 -9.616185347026453e-17 -0.8603358313736732 0.5097276304600173
12632093333.333334 -0.8543438372873723 0.5197081947486499 8.74429227742927e-17 -9.717535478630202e-17 8.74429227742927e-17 -9.717535478630202e-17 -0.8543441946441287 0.5197076072924934
12632710666.666666 -0.8482364304252866 0.5296177471527757 8.628028138554689e-17 -9.81750911976239e-17 8.628028138554689e-17 -9.81750911976239e-17 -0.8482367945781654 0.529617163924634
12633328000.0 -0.8420140878273815 0.5394555365366402 8.510622444828374e-17 -9.916093056550094e-17 8.510622444828374e-17 -9.916093056550094e-17 -0.8420144587263795 0.5394549576151242
12633945333.333334 -0.8356776526189665 0.5492202298833033 8.392091792120189e-17 -1.0013274271417789e-16 8.392091792120189e-17 -1.0013274271417789e-16 -0.8356780302131684 0.5492196553464307
12634562666.666666 -0.8292279833848838 0.558910504080262 8.272452924535531e-17 -1.0109039944802347e-16 8.272452924535531e-17 -1.0109039944802347e-16 -0.8292283676224758 0.5589099340054513
12635180000.0 -0.8226659540531039 0.5685250460988588 8.151722732056285e-17 -1.0203377456837456e-16 8.151722732056285e-17 -1.0203377456837456e-16 -0.8226663448813749 0.5685244805629147
12635797333.333334 -0.8159924537763317 0.5780625531721421 8.029918248159131e-17 -1.0296274389012632e-16 8.029918248159131e-17 -1.0296274389012632e-16 -0.8159928511416829 0.5780619922512474
12636414666.666666 -0.8092083868116395 0.5875217329712297 7.907056647419103e-17 -1.0387718525800655e-16 7.907056647419103e-17 -1.0387718525800655e-16 -0.8092087906595931 0.5875211767409348
12637032000.0 -0.8023146723977532 0.5969013037807003 7.78315524309182e-17 -1.0477697856258821e-16 7.78315524309182e-17 -1.0477697856258821e-16 -0.8023150826729561 0.5969007523159117
12637649333.333334 -0.7953122446306159 0.6061999946720754 7.658231484677802e-17 -1.0566200575601105e-16 7.658231484677802e-17 -1.0566200575601105e-16 -0.7953126612768517 0.6061994480470478
12638266666.666666 -0.7882020523367769 0.6154165456761027 7.532302955470569e-17 -1.0653215086740342e-16 7.532302955470569e-17 -1.0653215086740342e-16 -0.7882024752969696 0.6154160039644266
12638884000.0 -0.7809850589448888 0.6245497079533879 7.405387370086056e-17 -1.0738730001802087e-16 7.405387370086056e-17 -1.0738730001802087e-16 -0.7809854881611146 0.6245491712279821
12639501333.333334 -0.7736622423550286 0.6335982439637939 7.277502571974638e-17 -1.0822734143609299e-16 7.277502571974638e-17 -1.0822734143609299e-16 -0.7736626777685196 0.6335977122968935
12640118666.666666 -0.7662345948064556 0.6425609276337935 7.148666530920128e-17 -1.0905216547135062e-16 7.148666530920128e-17 -1.0905216547135062e-16 -0.7662350363576121 0.642560401096942
12640736000.0 -0.7587031227426607 0.6514365445232164 7.018897340512436e-17 -1.0986166460932007e-16 7.018897340512436e-17 -1.0986166460932007e-16 -0.7587035703710562 0.651436023187255
12641353333.333334 -0.7510688466756839 0.6602238919889765 6.888213215619478e-17 -1.1065573348522028e-16 6.888213215619478e-17 -1.1065573348522028e-16 -0.7510693003200739 0.6602233759240344
12641970666.666666 -0.7433328010472302 0.6689217793487465 6.756632489829302e-17 -1.114342688976478e-16 6.756632489829302e-17 -1.114342688976478e-16 -0.7433332606455613 0.6689212686242317
12642588000.0 -0.7354960340888553 0.677529028041884 6.624173612883825e-17 -1.1219716982191647e-16 6.624173612883825e-17 -1.1219716982191647e-16 -0.735496499578274 0.677528522726475
12643205333.333334 -0.7275596076797807 0.6860444717892981 6.490855148097233e-17 -1.1294433742309338e-16 6.490855148097233e-17 -1.1294433742309338e-16 -0.7275600789966417 0.686043971950934
12643822666.666666 -0.7195245972030091 0.6944669567514796 6.356695769757301e-17 -1.136756750687451e-16 6.356695769757301e-17 -1.136756750687451e-16 -0.7195250742828828 0.69446646245735
12644440000.0 -0.7113920913996645 0.7027953416847793 6.221714260515268e-17 -1.1439108834135814e-16 6.221714260515268e-17 -1.1439108834135814e-16 -0.7113925741773472 0.702794853001316
12645057333.333334 -0.7031631922215327 0.7110284980959897 6.085929508761606e-17 -1.1509048505045332e-16 6.085929508761606e-17 -1.1509048505045332e-16 -0.7031636806310552 0.711028015088858
12645674666.666666 -0.6948390146816277 0.7191653103953775 5.949360505985332e-17 -1.1577377524440485e-16 5.949360505985332e-17 -1.1577377524440485e-16 -0.6948395086562642 0.7191648331294679
12646292000.0 -0.6864206867030237 0.7272046760479219 5.812026344120705e-17 -1.1644087122194147e-16 5.812026344120705e-17 -1.1644087122194147e-16 -0.686421186175301 0.7272042045873403
12646909333.333334 -0.6779093489663502 0.7351455057223936 5.673946212887903e-17 -1.1709168754330239e-16 5.673946212887903e-17 -1.1709168754330239e-16 -0.6779098538680564 0.7351450401304522
12647526666.666666 -0.6693061547549001 0.7429867234392706 5.5351393971106e-17 -1.1772614104113e-16 5.5351393971106e-17 -1.1772614104113e-16 -0.6693066650170949 0.7429862637784818
12648144000.0 -0.6606122697984652 0.7507272667164383 5.395625274028517e-17 -1.1834415083101116e-16 5.395625274028517e-17 -1.1834415083101116e-16 -0.660612785351488 0.7507268130485035
12648761333.333334 -0.651828872115417 0.7583660867131107 5.255423310597298e-17 -1.1894563832170549e-16 5.255423310597298e-17 -1.1894563832170549e-16 -0.6518293928888981 0.7583656390989142
12649378666.666666 -0.6429571518531785 0.7659021483718813 5.114553060777855e-17 -1.195305272250529e-16 5.114553060777855e-17 -1.195305272250529e-16 -0.6429576777760467 0.7659017068714808
12649996000.0 -0.6339983111267193 0.7733344305591738 4.9730341628096425e-17 -1.2009874356558088e-16 4.9730341628096425e-17 -1.2009874356558088e-16 -0.6339988421272136 0.7733339952317931
12650613333.333334 -0.6249535638557997 0.7806619262034943 4.830886336479229e-17 -1.2065021568976625e-16 4.830886336479229e-17 -1.2065021568976625e-16 -0.6249540998614771 0.7806614971075139
12651230666.666666 -0.6158241356006378 0.7878836424317623 4.68812938037906e-17 -1.2118487427497272e-16 4.68812938037906e-17 -1.2118487427497272e-16 -0.6158246765383858 0.787883219624715
12651848000.0 -0.6066112633954969 0.7949986007041355 4.544783169148576e-17 -1.217026523380962e-16 4.544783169148576e-17 -1.217026523380962e-16 -0.6066118091915401 0.794998184242694
12652465333.333334 -0.5973161955813281 0.8020058369463806 4.400867650715886e-17 -1.2220348524384497e-16 4.400867650715886e-17 -1.2220348524384497e-16 -0.5973167461612411 0.8020054268863535
12653082666.666666 -0.5879401916366928 0.8089044016804594 4.2564028435256896e-17 -1.2268731071271428e-16 4.2564028435256896e-17 -1.2268731071271428e-16 -0.58794074692541 0.8089039980767837
12653700000.0 -0.5784845220067438 0.8156933601534608 4.111408833755031e-17 -1.2315406882864445e-16 4.111408833755031e-17 -1.2315406882864445e-16 -0.5784850819285672 0.8156929630601906
12654317333.333334 -0.5689504679314838 0.8223717924639431 3.9659057725309666e-17 -1.2360370204631646e-16 3.9659057725309666e-17 -1.2360370204631646e-16 -0.5689510324100963 0.8223714019342477
12654934666.666666 -0.5593393212719127 0.8289387936867775 3.81991387312854e-17 -1.2403615519816018e-16 3.81991387312854e-17 -1.2403615519816018e-16 -0.5593398902303862 0.8289384097729295
12655552000.0 -0.5496523843349498 0.8353934739957676 3.673453408167851e-17 -1.2445137550100751e-16 3.673453408167851e-17 -1.2445137550100751e-16 -0.5496529576957584 0.8353930967491408
12656169333.333334 -0.5398909696972832 0.841734958784023 3.526544706807366e-17 -1.2484931256240964e-16 3.526544706807366e-17 -1.2484931256240964e-16 -0.5398915473823102 0.8417345882550802
12656786666.666666 -0.5300564000271099 0.8479623887827307 3.3792081519205746e-17 -1.252299183866499e-16 3.3792081519205746e-17 -1.252299183866499e-16 -0.5300569819576612 0.8479620250210206
12657404000.0 -0.5201500079052266 0.8540749201773848 3.231464177275249e-17 -1.2559314738040044e-16 3.231464177275249e-17 -1.2559314738040044e-16 -0.5201505940020411 0.8540745632315353
12658021333.333334 -0.5101731356442495 0.8600717247222629 3.083333264702159e-17 -1.2593895635805774e-16 3.083333264702159e-17 -1.2593895635805774e-16 -0.5101737258275086 0.8600713746399726
12658638666.666666 -0.5001271351069477 0.8659519898525156 2.934835941262973e-17 -1.262673045467355e-16 2.934835941262973e-17 -1.262673045467355e-16 -0.5001277292962871 0.8659516466805487
12659256000.0 -0.49001336752277425 0.8717149187944442 2.785992776404047e-17 -1.265781535909433e-16 2.785992776404047e-17 -1.265781535909433e-16 -0.49001396563729505 0.8717145825786248
12659873333.333334 -0.47983320330373946 0.8773597306732784 2.636824379115912e-17 -1.2687146755690747e-16 2.636824379115912e-17 -1.2687146755690747e-16 -0.47983380526201813 0.8773594014584821
12660490666.666666 -0.469588021858572 0.882885660619068 2.4873513950834255e-17 -1.2714721293656957e-16 2.4873513950834255e-17 -1.2714721293656957e-16 -0.46958862757867287 0.8828853384492191
12661108000.0 -0.4592792114056362 0.8882919598704202 2.337594503828344e-17 -1.2740535865125557e-16 2.337594503828344e-17 -1.2740535865125557e-16 -0.4592798208051216 0.8882916447884837
12661725333.333334 -0.44890816878525247 0.8935778958757238 2.1875744158588626e-17 -1.2764587605499035e-16 2.1875744158588626e-17 -1.2764587605499035e-16 -0.4489087817811943 0.8935775879237001
12662342666.666666 -0.4384762992700012 0.8987427523926406 2.0373118698033318e-17 -1.278687389374996e-16 2.0373118698033318e-17 -1.278687389374996e-16 -0.4384769157789923 0.8987424516115599
12662960000.0 -0.42798501637453346 0.9037858295850327 1.8868276295502752e-17 -1.2807392352685877e-16 1.8868276295502752e-17 -1.2807392352685877e-16 -0.4279856363126983 0.9037855360149494
12663577333.333334 -0.4174357416639643 0.9087064441178294 1.736142481383882e-17 -1.2826140849181042e-16 1.736142481383882e-17 -1.2826140849181042e-16 -0.41743636494697184 0.9087061577978182
12664194666.666666 -0.4068299045613564 0.9135039292495752 1.585277231114637e-17 -1.2843117494374989e-16 1.585277231114637e-17 -1.2843117494374989e-16 -0.40683053110442946 0.9135036502177222
12664812000.0 -0.39616894215387577 0.9181776349228371 1.4342527012120046e-17 -1.2858320643836758e-16 1.4342527012120046e-17 -1.2858320643836758e-16 -0.3961695718718044 0.918177363216239
12665429333.333334 -0.3854542989981199 0.9227269278522673 1.2830897279333972e-17 -1.2871748897695884e-16 1.2830897279333972e-17 -1.2871748897695884e-16 -0.38545493180527257 0.9227266635070253
12666046666.666666 -0.3746874269245905 0.9271511916103242 1.1318091584567613e-17 -1.2883401100739254e-16 1.1318091584567613e-17 -1.2883401100739254e-16 -0.3746880627349252 0.9271509346615379
12666664000.0 -0.3638697848405254 0.931449826710986 9.804318480032541e-18 -1.2893276342475162e-16 9.804318480032541e-18 -1.2893276342475162e-16 -0.36387042356760113 0.9314495771927479
12667281333.333334 -0.3530028385326616 0.9356222506907893 8.289786569727559e-18 -1.2901373957162542e-16 8.289786569727559e-18 -1.2901373957162542e-16 -0.35300348008965154 0.9356220086361848
12667898666.666666 -0.34208806046844165 0.939667898187841 6.7747044806916556e-18 -1.2907693523807485e-16 6.7747044806916556e-18 -1.2907693523807485e-16 -0.3420887047681433 0.939667663628939
12668516000.0 -0.3311269295963312 0.943586221018472 5.259280834301551e-18 -1.2912234866125624e-16 5.259280834301551e-18 -1.2912234866125624e-16 -0.3311275765511792 0.9435859939863233
12669133333.333334 -0.32012093114577056 0.947376688251394 3.743724217632688e-18 -1.291499805247088e-16 3.743724217632688e-18 -1.291499805247088e-16 -0.32012158066784835 0.9473764687760262
12669750666.666666 -0.3090715564256049 0.9510387862797544 2.228243154729616e-18 -1.2915983395730938e-16 2.228243154729616e-18 -1.2915983395730938e-16 -0.3090722084266564 0.951038574390168
12670368000.0 -0.29798030262222774 0.9545720188906548 7.13046077980657e-19 -1.2915191453188766e-16 7.13046077980657e-19 -1.2915191453188766e-16 -0.29798095701366983 0.9545718146148207
