! Parameters = {f0=12700.012000; bw=77.238000; Q=6100.000000; N=10; m_0_1=1.305801; m_1_1=0.822266; m_1_2=1.140613; m_2_2=0.821617; m_2_3=0.777576; m_2_8=0.002354; m_2_9=0.039058; m_3_3=0.819680; m_3_4=0.666105; m_3_7=0.002954; m_3_8=-0.094134; m_3_9=0.002354; m_4_4=0.816755; m_4_5=0.502440; m_4_6=0.006471; m_4_7=-0.114683; m_4_8=0.002954; m_5_5=0.817137; m_5_6=0.909795; m_5_7=0.006471; m_6_6=0.817136; m_6_7=0.502782; m_7_7=0.816769; m_7_8=0.666223; m_8_8=0.819678; m_8_9=0.777889; m_9_9=0.821612; m_9_10=1.141691; m_10_10=0.822256; m_10_11=1.306596}
!
! Created with skrf (http://scikit-rf.org).
# Hz S RI R 50.0 
!freq ReS11 ImS11 ReS21 ImS21 ReS12 ImS12 ReS22 ImS22
12607400000.0 -0.4279312880057981 -0.9038112705346794 8.708617536340226e-17 9.727050773740895e-17 8.708617536340226e-17 9.727050773740895e-17 -0.4279306662680951 -0.9038115649111587
12608017333.333334 -0.4383696769902609 -0.8987947631663569 8.819809281353067e-17 9.62287650889058e-17 8.819809281353067e-17 9.62287650889058e-17 -0.43836905873371257 -0.8987950647087091
12608634666.666666 -0.4487492695031723 -0.8936577046723103 8.929756321144853e-17 9.51743250193045e-17 8.929756321144853e-17 9.51743250193045e-17 -0.4487486548103578 -0.8936580133393915
12609252000.0 -0.45906867337845286 -0.888400784062216 9.03844417160651e-17 9.410733608419307e-17 9.03844417160651e-17 9.410733608419307e-17 -0.45906806233146497 -0.8884010998119306
12609869333.333334 -0.469326504522971 -0.8830247064222283 9.145858525741095e-17 9.302794848952718e-17 9.145858525741095e-17 9.302794848952718e-17 -0.4693258972034056 -0.8830250292115348
12610486666.666666 -0.479521387101882 -0.8775301928205665 9.251985255541523e-17 9.193631407054089e-17 9.251985255541523e-17 9.193631407054089e-17 -0.47952078359082695 -0.8775305226054831
12611104000.0 -0.4896519537235141 -0.8719179802106155 9.356810413844771e-17 9.083258627042835e-17 9.356810413844771e-17 9.083258627042835e-17 -0.48965135410153904 -0.8719183169462278
12611721333.333334 -0.49971684562249497 -0.8661888213322293 9.46032023615823e-17 8.971692011884206e-17 9.46032023615823e-17 8.971692011884206e-17 -0.49971624996963987 -0.8661891649726947
12612338666.666666 -0.5097147128420731 -0.8603434846107321 9.56250114246245e-17 8.858947221016165e-17 9.56250114246245e-17 8.858947221016165e-17 -0.5097141212378372 -0.8603438351092849
12612956000.0 -0.5196442144153746 -0.8543827540537333 9.663339738989636e-17 8.745040068154227e-17 9.663339738989636e-17 8.745040068154227e-17 -0.519643626938707 -0.8543831113626947
12613573333.333334 -0.5295040185448708 -0.8483074291462067 9.762822819970013e-17 8.629986519082643e-17 9.762822819970013e-17 8.629986519082643e-17 -0.5295034352741598 -0.8483077932169887
12614190666.666666 -0.5392928027813251 -0.842118324743071 9.860937369359234e-17 8.513802689417891e-17 9.860937369359234e-17 8.513802689417891e-17 -0.539292223794386 -0.8421186955261827
12614808000.0 -0.549009254201114 -0.8358162709599224 9.957670562535514e-17 8.396504842356713e-17 9.957670562535514e-17 8.396504842356713e-17 -0.5490086795751806 -0.8358166484049775
12615425333.333334 -0.5586520695821815 -0.8294021130617879 1.0053009767969052e-16 8.27810938640607e-17 1.0053009767969052e-16 8.27810938640607e-17 -0.5586514993938954 -0.8294024971175128
12616042666.666666 -0.5682199555790256 -0.8228767113496314 1.0146942548867968e-16 8.158632873090299e-17 1.0146942548867968e-16 8.158632873090299e-17 -0.5682193899044251 -0.8228771019638691
12616660000.0 -0.5777116288959997 -0.8162409410450715 1.0239456664793221e-16 8.038091994644234e-17 1.0239456664793221e-16 8.038091994644234e-17 -0.5777110678105115 -0.8162413381647932
12617277333.333334 -0.5871258164595339 -0.8094956921729349 1.0330540073250157e-16 7.916503581683166e-17 1.0330540073250157e-16 7.916503581683166e-17 -0.5871252600379604 -0.8094960957442418
12617894666.666666 -0.5964612555888364 -0.8026418694419092 1.0420180931247512e-16 7.793884600861354e-17 1.0420180931247512e-16 7.793884600861354e-17 -0.596460703905348 -0.8026422794100435
12618512000.0 -0.6057166941653662 -0.7956803921231155 1.0508367596835718e-16 7.67025215250341e-17 1.0508367596835718e-16 7.67025215250341e-17 -0.6057161472934902 -0.795680808432467
12619129333.333334 -0.6148908908005236 -0.7886121939269977 1.0595088630608524e-16 7.545623468230399e-17 1.0595088630608524e-16 7.545623468230399e-17 -0.6148903488131354 -0.7886126165211115
12619746666.666666 -0.6239826150024255 -0.781438222877886 1.0680332797183828e-16 7.420015908558785e-17 1.0680332797183828e-16 7.420015908558785e-17 -0.623982077971738 -0.7814386516994697
12620364000.0 -0.6329906473408953 -0.7741594411868704 1.0764089066653912e-16 7.293446960485715e-17 1.0764089066653912e-16 7.293446960485715e-17 -0.6329901153384496 -0.7741598761778016
12620981333.333334 -0.6419137796107783 -0.7667768251229417 1.0846346616003302e-16 7.165934235063933e-17 1.0846346616003302e-16 7.165934235063933e-17 -0.6419132527074343 -0.7667772662242767
12621598666.666666 -0.6507508149942581 -0.7592913648818368 1.0927094830504862e-16 7.037495464950262e-17 1.0927094830504862e-16 7.037495464950262e-17 -0.6507502932601841 -0.7592918120338176
12622216000.0 -0.6595005682213337 -0.7517040644532604 1.1006323305080659e-16 6.908148501948058e-17 1.1006323305080659e-16 6.908148501948058e-17 -0.6595000517259985 -0.7517045175953236
12622833333.333334 -0.668161865728709 -0.7440159414863002 1.1084021845638473e-16 6.777911314527328e-17 1.1084021845638473e-16 6.777911314527328e-17 -0.6681613545408716 -0.7440164005570851
12623450666.666666 -0.6767335458171744 -0.7362280271529524 1.1160180470374763e-16 6.646801985336392e-17 1.1160180470374763e-16 6.646801985336392e-17 -0.6767330400048764 -0.73622849209031
12624068000.0 -0.685214458807595 -0.7283413660096674 1.1234789411052122e-16 6.514838708693155e-17 1.1234789411052122e-16 6.514838708693155e-17 -0.6852139584381496 -0.7283418367506668
12624685333.333334 -0.6936034671949787 -0.7203570158573577 1.1307839114246147e-16 6.382039788063237e-17 1.1307839114246147e-16 6.382039788063237e-17 -0.6936029723349627 -0.7203574923382964
12625302666.666666 -0.7018994458010064 -0.7122760475995621 1.137932024255893e-16 6.248423633531111e-17 1.137932024255893e-16 6.248423633531111e-17 -0.7018989565162507 -0.7122765297559734
12625920000.0 -0.7101012819251097 -0.7040995450986518 1.1449223675809738e-16 6.114008759244733e-17 1.1449223675809738e-16 6.114008759244733e-17 -0.7101007982806918 -0.7041000328653152
12626537333.333334 -0.7182078754934915 -0.6958286050306781 1.151754051218796e-16 5.978813780861318e-17 1.151754051218796e-16 5.978813780861318e-17 -0.7182073975537251 -0.6958290983416253
12627154666.666666 -0.7262181392068516 -0.6874643367380967 1.1584262069381135e-16 5.84285741297054e-17 1.1584262069381135e-16 5.84285741297054e-17 -0.72621766703528 -0.6874648355266242
12627772000.0 -0.7341309986862234 -0.6790078620809792 1.1649379885672487e-16 5.706158466505192e-17 1.1649379885672487e-16 5.706158466505192e-17 -0.7341305323456098 -0.6790083662796543
12628389333.333334 -0.7419453926168572 -0.6704603152867671 1.171288572100319e-16 5.568735846149706e-17 1.171288572100319e-16 5.568735846149706e-17 -0.7419449321691765 -0.6704608248274386
12629006666.666666 -0.7496602728909018 -0.6618228427977928 1.1774771558010936e-16 5.430608547722649e-17 1.1774771558010936e-16 5.430608547722649e-17 -0.7496598183973325 -0.6618233576115997
12629624000.0 -0.7572746047477288 -0.6530966031177816 1.183502960303208e-16 5.291795655559808e-17 1.183502960303208e-16 5.291795655559808e-17 -0.7572741562686455 -0.6530971231351621
12630241333.333334 -0.7647873669127978 -0.644282766656383 1.1893652287075792e-16 5.152316339880272e-17 1.1893652287075792e-16 5.152316339880272e-17 -0.7647869245077622 -0.6442832918070848
12630858666.666666 -0.7721975517345645 -0.6353825155722796 1.1950632266766022e-16 5.012189854144525e-17 1.1950632266766022e-16 5.012189854144525e-17 -0.7721971154623171 -0.6353830457853679
12631476000.0 -0.7795041653198858 -0.6263970436143226 1.200596242525497e-16 4.871435532396143e-17 1.200596242525497e-16 4.871435532396143e-17 -0.7795037352383392 -0.6263975788181907
12632093333.333334 -0.7867062276669774 -0.6173275559618318 1.205963587310067e-16 4.730072786604755e-17 1.205963587310067e-16 4.730072786604755e-17 -0.7867058038332096 -0.6173280960842119
12632710666.666666 -0.7938027727970294 -0.6081752690627614 1.2111645949117309e-16 4.588121103989968e-17 1.2111645949117309e-16 4.588121103989968e-17 -0.7938023552672735 -0.6081758140307322
12633328000.0 -0.8007928488838998 -0.598941410470358 1.2161986221193646e-16 4.4456000443366667e-17 1.2161986221193646e-16 4.4456000443366667e-17 -0.8007924377135383 -0.5989419602103553
12633945333.333334 -0.8076755183815021 -0.5896272186788749 1.2210650487077673e-16 4.302529237307734e-17 1.2210650487077673e-16 4.302529237307734e-17 -0.8076751136250593 -0.5896277731167023
12634562666.666666 -0.8144498581497787 -0.5802339429571662 1.2257632775131517e-16 4.158928379743488e-17 1.2257632775131517e-16 4.158928379743488e-17 -0.8144494598609131 -0.5802345020180039
12635180000.0 -0.8211149595783631 -0.5707628431813321 1.2302927345054392e-16 4.014817232953715e-17 1.2302927345054392e-16 4.014817232953715e-17 -0.821114567809861 -0.5707634067897478
12635797333.333334 -0.8276699287085998 -0.561215189665531 1.234652868857405e-16 3.870215620000913e-17 1.234652868857405e-16 3.870215620000913e-17 -0.8276695435123671 -0.5612157577454897
12636414666.666666 -0.8341138863532614 -0.551592262991852 1.238843153010473e-16 3.7251434229814627e-17 1.238843153010473e-16 3.7251434229814627e-17 -0.8341135077803199 -0.5515928354667279
12637032000.0 -0.8404459682146265 -0.5418953538383523 1.2428630827376015e-16 3.5796205802910656e-17 1.2428630827376015e-16 3.5796205802910656e-17 -0.8404455963151014 -0.5418959306309356
12637649333.333334 -0.846665325000375 -0.5321257628059598 1.2467121772026711e-16 3.433667083892697e-17 1.2467121772026711e-16 3.433667083892697e-17 -0.8466649598234932 -0.5321263438384697
12638266666.666666 -0.8527711225374259 -0.5222848002441511 1.2503899790168996e-16 3.2873029765709514e-17 1.2503899790168996e-16 3.2873029765709514e-17 -0.8527707641315083 -0.5222853854382468
12638884000.0 -0.8587625418838725 -0.5123737860751325 1.2538960542918796e-16 3.1405483491862113e-17 1.2538960542918796e-16 3.1405483491862113e-17 -0.858762190296326 -0.5123743753519212
12639501333.333334 -0.8646387794388745 -0.5023940496167023 1.2572299926894966e-16 2.993423337919416e-17 1.2572299926894966e-16 2.993423337919416e-17 -0.8646384347161877 -0.5023946428967524
12640118666.666666 -0.8703990470502568 -0.4923469294042769 1.260391407468565e-16 2.8459481215146325e-17 1.260391407468565e-16 2.8459481215146325e-17 -0.8703987092379938 -0.4923475266076279
12640736000.0 -0.8760425721205639 -0.4822337730107691 1.2633799355283562e-16 2.6981429185103965e-17 1.2633799355283562e-16 2.6981429185103965e-17 -0.876042241263356 -0.4822343740569413
12641353333.333334 -0.881568597710243 -0.4720559368666072 1.2661952374486029e-16 2.5500279844811373e-17 1.2661952374486029e-16 2.5500279844811373e-17 -0.881568273851786 -0.47205654167461414
12641970666.666666 -0.8869763826395113 -0.46181478607721305 1.268836997526627e-16 2.4016236092570012e-17 1.268836997526627e-16 2.4016236092570012e-17 -0.8869760658225568 -0.4618153945655711
12642588000.0 -0.8922652015876615 -0.4515116942400762 1.2713049238109977e-16 2.2529501141508875e-17 1.2713049238109977e-16 2.2529501141508875e-17 -0.892264891854013 -0.45151230632681627
12643205333.333334 -0.8974343451902729 -0.441148043260674 1.2735987481319661e-16 2.104027849181942e-17 1.2735987481319661e-16 2.104027849181942e-17 -0.8974340425807793 -0.44114865886335203
12643822666.666666 -0.9024831201345047 -0.4307252231668168 1.2757182261287519e-16 1.9548771902897068e-17 1.2757182261287519e-16 1.9548771902897068e-17 -0.9024828246890568 -0.4307258422025261
12644440000.0 -0.9074108492519265 -0.4202446319225426 1.277663137273442e-16 1.8055185365545222e-17 1.277663137273442e-16 1.8055185365545222e-17 -0.9074105610094491 -0.42024525430792337
12645057333.333334 -0.9122168716094518 -0.409707675240383 1.2794332848917313e-16 1.6559723074100752e-17 1.2794332848917313e-16 1.6559723074100752e-17 -0.9122165906079014 -0.4097083008916353
12645674666.666666 -0.9169005425979082 -0.3991157663930051 1.2810284961804006e-16 1.5062589398546272e-17 1.2810284961804006e-16 1.5062589398546272e-17 -0.9169002688742649 -0.3991163952258981
12646292000.0 -0.9214612340186064 -0.38847032602339376 1.2824486222215042e-16 1.356398885661998e-17 1.2824486222215042e-16 1.356398885661998e-17 -0.921460967608871 -0.38847095795327846
12646909333.333334 -0.9258983341674837 -0.3777727819545675 1.2836935379933104e-16 1.2064126085934946e-17 1.2836935379933104e-16 1.2064126085934946e-17 -0.9258980751066729 -0.3777734168963881
12647526666.666666 -0.9302112479171868 -0.3670245689979954 1.2847631423779965e-16 1.0563205816067188e-17 1.2847631423779965e-16 1.0563205816067188e-17 -0.9302109962393286 -0.36702520686630036
12648144000.0 -0.9343993967969648 -0.3562271287609663 1.2856573581660962e-16 9.061432840623865e-18 1.2856573581660962e-16 9.061432840623865e-18 -0.9343991525350931 -0.35622776946991974
12648761333.333334 -0.938462219070141 -0.34538190945352315 1.2863761320576527e-16 7.559011989379533e-18 1.2863761320576527e-16 7.559011989379533e-18 -0.9384619822562914 -0.3453825529169166
12649378666.666666 -0.9423991698094882 -0.3344903656941432 1.2869194346601493e-16 6.0561481003671005e-18 1.2869194346601493e-16 6.0561481003671005e-18 -0.9423989404746957 -0.3344910118254076
12649996000.0 -0.9462097209704003 -0.32355395831442396 1.2872872604831946e-16 4.5530459919603166e-18 1.2872872604831946e-16 4.5530459919603166e-18 -0.9462094991446929 -0.3235546070266405
12650613333.333334 -0.949893361461621 -0.3125741541633874 1.2874796279299156e-16 3.049910435035601e-18 1.2874796279299156e-16 3.049910435035601e-18 -0.9498931471740171 -0.31257480536929977
12651230666.666666 -0.9534495972137936 -0.30155242591076736 1.2874965792851455e-16 1.5469461251000827e-18 1.2874965792851455e-16 1.5469461251000827e-18 -0.9534493904922978 -0.3015530795227934
12651848000.0 -0.9568779512458415 -0.29049025184913607 1.2873381807003355e-16 4.4357654448003765e-20 1.2873381807003355e-16 4.4357654448003765e-20 -0.9568777521174411 -0.2904909077793794
12652465333.333334 -0.9601779637288016 -0.2793891156960596 1.2870045221752384e-16 -1.4576505156469205e-18 1.2870045221752384e-16 -1.4576505156469205e-18 -0.9601777722194615 -0.27938977385632124
12653082666.666666 -0.9633491920475701 -0.2682505063948779 1.2864957175363568e-16 -2.958874082684897e-18 1.2864957175363568e-16 -2.958874082684897e-18 -0.9633490081822325 -0.2682511666966687
12653700000.0 -0.9663912108602907 -0.25707591791491746 1.28581190441213e-16 -4.459108930756061e-18 1.28581190441213e-16 -4.459108930756061e-18 -0.9663910346628686 -0.2570765802694695
12654317333.333334 -0.9693036121553167 -0.2458668490514124 1.2849532442049378e-16 -5.9581511581776645e-18 1.2849532442049378e-16 -5.9581511581776645e-18 -0.9693034436486951 -0.24586751336969154
12654934666.666666 -0.9720860053060337 -0.23462480322415152 1.2839199220598344e-16 -7.455797105215599e-18 1.2839199220598344e-16 -7.455797105215599e-18 -0.9720858445120619 -0.23462546941686854
12655552000.0 -0.9747380171232265 -0.22335128827588327 1.2827121468300703e-16 -8.95184338172557e-18 1.2827121468300703e-16 -8.95184338172557e-18 -0.9747378640627161 -0.22335195625350615
12656169333.333334 -0.9772592919050596 -0.2120478162703802 1.2813301510394455e-16 -1.0446086894677494e-17 1.2813301510394455e-16 -1.0446086894677494e-17 -0.9772591465977862 -0.21204848594314676
12656786666.666666 -0.9796494914848751 -0.20071590328930317 1.2797741908413812e-16 -1.1938324875752764e-17 1.2797741908413812e-16 -1.1938324875752764e-17 -0.9796493539495706 -0.20071657456723244
12657404000.0 -0.9819082952765256 -0.18935706922890977 1.2780445459748632e-16 -1.3428354908773495e-17 1.2780445459748632e-16 -1.3428354908773495e-17 -0.9819081655308782 -0.18935774202181418
12658021333.333334 -0.9840354003173531 -0.17797283759630936 1.2761415197171256e-16 -1.49159749571569e-17 1.2761415197171256e-16 -1.49159749571569e-17 -0.9840352783780039 -0.1779735118138069
12658638666.666666 -0.9860305213088134 -0.16656473530517826 1.2740654388332374e-16 -1.6400983391223737e-17 1.2740654388332374e-16 -1.6400983391223737e-17 -0.9860304071913562 -0.16656541085670493
12659256000.0 -0.9878933906548123 -0.15513429247059937 1.2718166535223808e-16 -1.7883179015553185e-17 1.2718166535223808e-16 -1.7883179015553185e-17 -0.987893284373789 -0.15513496926542084
12659873333.333334 -0.98962375849751 -0.14368304220428127 1.2693955373610982e-16 -1.9362361096144543e-17 1.2693955373610982e-16 -1.9362361096144543e-17 -0.9896236600664106 -0.14368372015150538
12660490666.666666 -0.991221392750879 -0.13221252040870626 1.2668024872433296e-16 -2.083832938757484e-17 1.2668024872433296e-16 -2.083832938757484e-17 -0.9912213021821402 -0.13221319941729534
12661108000.0 -0.9926860791318413 -0.12072426557104218 1.2640379233171938e-16 -2.2310884160114727e-17 1.2640379233171938e-16 -2.2310884160114727e-17 -0.9926859964368425 -0.1207249455498248
12661725333.333334 -0.9940176211889656 -0.10921981855710176 1.2611022889188583e-16 -2.377982622664157e-17 1.2611022889188583e-16 -2.377982622664157e-17 -0.9940175463780304 -0.10922049941478543
12662342666.666666 -0.9952158403288692 -0.09770072240427918 1.257996050503024e-16 -2.5244956969611906e-17 1.257996050503024e-16 -2.5244956969611906e-17 -0.9952157734112631 -0.0977014040494625
12662960000.0 -0.9962805758401314 -0.08616852211492841 1.254719697570495e-16 -2.670607836783096e-17 1.254719697570495e-16 -2.670607836783096e-17 -0.9962805168240598 -0.08616920445611316
12663577333.333334 -0.9972116849148751 -0.07462476444888475 1.251273742592495e-16 -2.816299302320946e-17 1.251273742592495e-16 -2.816299302320946e-17 -0.997211633807482 -0.07462544739448827
12664194666.666666 -0.9980090426678984 -0.06307099771623144 1.2476587209319933e-16 -2.9615504187367754e-17 1.2476587209319933e-16 -2.9615504187367754e-17 -0.9980089994752679 -0.06307168117459903
12664812000.0 -0.9986725421534463 -0.05150877156940592 1.2438751907618855e-16 -3.106341578817735e-17 1.2438751907618855e-16 -3.106341578817735e-17 -0.9986725068805997 -0.051509455448823016
12665429333.333334 -0.9992020943795393 -0.039939636795521906 1.2399237329800702e-16 -3.2506532456202805e-17 1.2399237329800702e-16 -3.2506532456202805e-17 -0.9992020670304353 -0.03994032100422638
12666046666.666666 -0.9995976283199125 -0.0283651451084267 1.2358049511216287e-16 -3.394465955098177e-17 1.2358049511216287e-16 -3.394465955098177e-17 -0.999597608897447 -0.028365829554621243
12666664000.0 -0.9998590909235534 -0.016786848940179424 1.2315194712676511e-16 -3.5377603187304384e-17 1.2315194712676511e-16 -3.5377603187304384e-17 -0.9998590794295591 -0.016787533532043805
12667281333.333334 -0.9999864471218013 -0.0052063012333986546 1.2270679419514406e-16 -3.6805170261235814e-17 1.2270679419514406e-16 -3.6805170261235814e-17 -0.9999864435570461 -0.005206985879102058
12667898666.666666 -0.9999796798330595 0.006374944767395751 1.2224510340612918e-16 -3.822716847616239e-17 1.2224510340612918e-16 -3.822716847616239e-17 -0.99997968419725 0.00637426015968241
12668516000.0 -0.9998387899650856 0.01795533572419734 1.2176694407405096e-16 -3.964340636862998e-17 1.2176694407405096e-16 -3.964340636862998e-17 -0.9998388022568634 0.017954651246289113
12669133333.333334 -0.9995637964148706 0.029533318413400317 1.2127238772844622e-16 -4.1053693334063415e-17 1.2127238772844622e-16 -4.1053693334063415e-17 -0.999563816631814 0.02953263415708587
12669750666.666666 -0.9991547360660987 0.041107339934637624 1.2076150810344091e-16 -4.2457839652423625e-17 1.2076150810344091e-16 -4.2457839652423625e-17 -0.999154764204724 0.04110665599166697
