! Parameters = {f0=12700.012000; bw=77.238000; Q=6100.000000; N=10; m_0_1=1.309605; m_1_1=0.879323; m_1_2=1.144417; m_2_2=0.878674; m_2_3=0.781380; m_2_8=0.002544; m_2_9=0.039248; m_3_3=0.876737; m_3_4=0.669909; m_3_7=0.003144; m_3_8=-0.093944; m_3_9=0.002544; m_4_4=0.873812; m_4_5=0.506244; m_4_6=0.006661; m_4_7=-0.114493; m_4_8=0.003144; m_5_5=0.874194; m_5_6=0.913599; m_5_7=0.006661; m_6_6=0.874193; m_6_7=0.506586; m_7_7=0.873826; m_7_8=0.670027; m_8_8=0.876735; m_8_9=0.781693; m_9_9=0.878669; m_9_10=1.145495; m_10_10=0.879313; m_10_11=1.310400}
!
! Created with skrf (http://scikit-rf.org).
# Hz S RI R 50.0 
!freq ReS11 ImS11 ReS21 ImS21 ReS12 ImS12 ReS22 ImS22
12607400000.0 -0.3906817088283732 0.920525829288214 1.502640693648073e-17 -1.3198296010038333e-16 1.502640693648073e-17 -1.3198296010038333e-16 -0.3906823439019934 0.9205255597554352
12608017333.333334 -0.3798908314831122 0.9250313271208073 1.3467679483429992e-17 -1.3212496614996125e-16 1.3467679483429992e-17 -1.3212496614996125e-16 -0.3798914696338491 0.9250310650455189
12608634666.666666 -0.3690480069014143 0.9294103338148898 1.1907692720717963e-17 -1.3224857419692374e-16 1.1907692720717963e-17 -1.3224857419692374e-16 -0.3690486480417087 0.9294100792321972
12609252000.0 -0.35815471775873914 0.9336622505740344 1.0346663678492167e-17 -1.3235377428798552e-16 1.0346663678492167e-17 -1.3235377428798552e-16 -0.35815536180063123 0.9336620035180139
12609869333.333334 -0.34721245363116837 0.9377864959804211 8.784809446566889e-18 -1.3244055902855843e-16 8.784809446566889e-18 -1.3244055902855843e-16 -0.34721310048631066 0.9377862564841177
12610486666.666666 -0.3362227107918542 0.9417825060743006 7.222347144293441e-18 -1.3250892358277505e-16 7.222347144293441e-18 -1.3250892358277505e-16 -0.336223360371523 0.941782274169722
12611104000.0 -0.3251869920061193 0.9456497344312129 5.659493890377753e-18 -1.3255886567315967e-16 5.659493890377753e-18 -1.3255886567315967e-16 -0.3251876442212273 0.9456495101493265
12611721333.333334 -0.3141068063263135 0.9493876522365857 4.0964667728041424e-18 -1.325903855799404e-16 4.0964667728041424e-18 -1.325903855799404e-16 -0.31410746108742116 0.9493874356073115
12612338666.666666 -0.3029836688853279 0.9529957483580914 2.5334828186846472e-18 -1.3260348614001047e-16 2.5334828186846472e-18 -1.3260348614001047e-16 -0.30298432610265685 0.9529955394103017
12612956000.0 -0.2918191006891149 0.9564735294156382 9.707589641625225e-19 -1.3259817274553314e-16 9.707589641625225e-19 -1.3259817274553314e-16 -0.2918197602725597 0.9564733281771524
12613573333.333334 -0.2806146284093244 0.9598205198486385 -5.914879756070738e-19 -1.3257445334219324e-16 -5.914879756070738e-19 -1.3257445334219324e-16 -0.2806152902684643 0.959820326346217
12614190666.666666 -0.2693717841739722 0.963036261981211 -2.1530413365571722e-18 -1.3253233842709453e-16 -2.1530413365571722e-18 -1.3253233842709453e-16 -0.26937244821808504 0.9630360762405568
12614808000.0 -0.2580921053582068 0.9661203160846893 -3.713684635682119e-18 -1.324718410463055e-16 -3.713684635682119e-18 -1.324718410463055e-16 -0.25809277149628035 0.9661201381304407
12615425333.333334 -0.24677713437402882 0.9690722604377623 -5.273201601015282e-18 -1.3239297679204948e-16 -5.273201601015282e-18 -1.3239297679204948e-16 -0.2467778025147728 0.9690720902934892
12616042666.666666 -0.2354284184593776 0.9718916913841422 -6.8313762015582475e-18 -1.3229576379954623e-16 -6.8313762015582475e-18 -1.3229576379954623e-16 -0.23542908851123726 0.971891529072345
12616660000.0 -0.22404750946655846 0.9745782233877619 -8.387992677164807e-18 -1.321802227434987e-16 -8.387992677164807e-18 -1.321802227434987e-16 -0.22404818133772664 0.9745780689298679
12617277333.333334 -0.21263596364998238 0.9771314890855046 -9.942835568379487e-18 -1.3204637683423044e-16 -9.942835568379487e-18 -1.3204637683423044e-16 -0.21263663724841247 0.9771313425018663
12617894666.666666 -0.20119534145363893 0.9795511393373839 -1.1495689746200177e-17 -1.3189425181347468e-16 -1.1495689746200177e-17 -1.3189425181347468e-16 -0.20119601668705664 0.9795510006472731
12618512000.0 -0.1897272072971038 0.981836843274408 -1.3046340441843112e-17 -1.3172387594980627e-16 -1.3046340441843112e-17 -1.3172387594980627e-16 -0.18972788407302082 0.9818367124960176
12619129333.333334 -0.17823312936239644 0.9839882883436666 -1.4594573276352773e-17 -1.315352800337367e-16 -1.4594573276352773e-17 -1.315352800337367e-16 -0.1782338075881222 0.9839881654941042
12619746666.666666 -0.1667146793789579 0.9860051803511903 -1.6140174290235822e-17 -1.3132849737245024e-16 -1.6140174290235822e-17 -1.3132849737245024e-16 -0.1667153589616128 0.9860050654464779
12620364000.0 -0.15517343240886683 0.9878872435021441 -1.7682929972991545e-17 -1.3110356378419623e-16 -1.7682929972991545e-17 -1.3110356378419623e-16 -0.15517411325539462 0.9878871365572155
12620981333.333334 -0.14361096663168574 0.9896342204385039 -1.9222627292516322e-17 -1.3086051759234297e-16 -1.9222627292516322e-17 -1.3086051759234297e-16 -0.14361164864886705 0.9896341214672054
12621598666.666666 -0.13202886312837764 0.9912458722743022 -2.0759053724538265e-17 -1.305993996190715e-16 -2.0759053724538265e-17 -1.305993996190715e-16 -0.13202954622284147 0.9912457812893853
12622216000.0 -0.12042870566524363 0.9927219786282604 -2.2291997281876738e-17 -1.3032025317873752e-16 -2.2291997281876738e-17 -1.3032025317873752e-16 -0.12042938974348119 0.992721895641385
12622833333.333334 -0.10881208047727127 0.9940623376539431 -2.3821246543660595e-17 -1.3002312407088445e-16 -2.3821246543660595e-17 -1.3002312407088445e-16 -0.10881276544564836 0.9940622626756752
12623450666.666666 -0.09718057605145401 0.9952667660673293 -2.5346590684430502e-17 -1.2970806057291856e-16 -2.5346590684430502e-17 -1.2970806057291856e-16 -0.09718126181622394 0.9952666991071384
12624068000.0 -0.0855357829092676 0.9963350991719158 -2.6867819503180484e-17 -1.2937511343243666e-16 -2.6867819503180484e-17 -1.2937511343243666e-16 -0.08553646937658374 0.9963350402381728
12624685333.333334 -0.07387929338926169 0.9972671908812185 -2.8384723452286574e-17 -1.2902433585921666e-16 -2.8384723452286574e-17 -1.2902433585921666e-16 -0.0738799804651906 0.9972671399811966
12625302666.666666 -0.06221270142957476 0.9980629137387323 -2.989709366629332e-17 -1.2865578351687925e-16 -2.989709366629332e-17 -1.2865578351687925e-16 -0.062213389020109075 0.9980628708786061
12625920000.0 -0.05053760234955008 0.9987221589353927 -3.1404721990685906e-17 -1.2826951451419108e-16 -3.1404721990685906e-17 -1.2826951451419108e-16 -0.05053829036062123 0.998722124120237
12626537333.333334 -0.038855592631956114 0.9992448363244273 -3.290740101044984e-17 -1.278655893960558e-16 -3.290740101044984e-17 -1.278655893960558e-16 -0.0388562809694472 0.9992448095582165
12627154666.666666 -0.027168269704651322 0.9996308744336923 -3.44049240785685e-17 -1.2744407113416005e-16 -3.44049240785685e-17 -1.2744407113416005e-16 -0.027168958274409967 0.9996308557192982
12627772000.0 -0.015477231721664786 0.9998802204754562 -3.589708534446029e-17 -1.2700502511726841e-16 -3.589708534446029e-17 -1.2700502511726841e-16 -0.015477920429516122 0.9998802098146511
12628389333.333334 -0.0037840773454560677 0.9999928403535981 -3.738367978213169e-17 -1.2654851914123286e-16 -3.738367978213169e-17 -1.2654851914123286e-16 -0.0037847660972155335 0.9999928377470519
12629006666.666666 0.007909594472428687 0.9999687186682867 -3.886450321839986e-17 -1.2607462339861668e-16 -3.886450321839986e-17 -1.2607462339861668e-16 0.007908905770942443 0.9999687241155693
12629624000.0 0.019602184709546815 0.9998078587180771 -4.033935236083453e-17 -1.2558341046803422e-16 -4.033935236083453e-17 -1.2558341046803422e-16 0.019601496152499058 0.9998078722176555
12630241333.333334 0.03129209449141245 0.9995102824994624 -4.180802482564923e-17 -1.2507495530313807e-16 -4.180802482564923e-17 -1.2507495530313807e-16 0.0312914061729395 0.9995103040487038
12630858666.666666 0.042977725309960156 0.9990760307038675 -4.3270319165409515e-17 -1.2454933522129707e-16 -4.3270319165409515e-17 -1.2454933522129707e-16 0.04297703732415653 0.9990760602990397
12631476000.0 0.054657479242441555 0.9985051627120789 -4.47260348966603e-17 -1.240066298919293e-16 -4.47260348966603e-17 -1.240066298919293e-16 0.05465679168334709 0.9985052003483487
12632093333.333334 0.06632975916958841 0.997797756586132 -4.617497252732405e-17 -1.2344692132454314e-16 -4.617497252732405e-17 -1.2344692132454314e-16 0.06632907213117534 0.9977978022575664
12632710666.666666 0.07799296899403547 0.996953909058643 -4.7616933584017874e-17 -1.2287029385643541e-16 -4.7616933584017874e-17 -1.2287029385643541e-16 0.0779922825701957 0.9969539627582121
12633328000.0 0.08964551385902843 0.9959737355195486 -4.9051720639214406e-17 -1.2227683414007038e-16 -4.9051720639214406e-17 -1.2227683414007038e-16 0.08964482814356074 0.9959737972391263
12633945333.333334 0.1012858003658567 0.9948573700003734 -5.04791373381986e-17 -1.2166663113016308e-16 -5.04791373381986e-17 -1.2166663113016308e-16 0.10128511545245375 0.994857439730736
12634562666.666666 0.11291223679219241 0.9936049651558694 -5.1898988425913766e-17 -1.2103977607042832e-16 -5.1898988425913766e-17 -1.2103977607042832e-16 0.11291155277442802 0.9936050428866995
12635180000.0 0.12452323330957626 0.9922166922431522 -5.331107977362362e-17 -1.2039636248002583e-16 -5.331107977362362e-17 -1.2039636248002583e-16 0.12452255028089268 0.9922167779630394
12635797333.333334 0.13611720220087126 0.9906927410982782 -5.471521840541794e-17 -1.197364861396904e-16 -5.471521840541794e-17 -1.197364861396904e-16 0.1361165202545664 0.9906928347947211
12636414666.666666 0.1476925580772589 0.9890333201103035 -5.611121252451394e-17 -1.1906024507756925e-16 -5.611121252451394e-17 -1.1906024507756925e-16 0.14769187730647343 0.9890334217697109
12637032000.0 0.15924771809519755 0.9872386561927595 -5.749887153945173e-17 -1.1836773955472172e-16 -5.749887153945173e-17 -1.1836773955472172e-16 0.15924703859290262 0.9872387658004542
12637649333.333334 0.17078110217275277 0.9853089947526474 -5.887800609004437e-17 -1.176590720503466e-16 -5.887800609004437e-17 -1.176590720503466e-16 0.17078042403173674 0.985309112292865
12638266666.666666 0.18229113320571708 0.9832445996568652 -6.024842807318077e-17 -1.169343472466909e-16 -6.024842807318077e-17 -1.169343472466909e-16 0.18229045651857304 0.9832447251127582
12638884000.0 0.19377623728315535 0.9810457531961467 -6.160995066843749e-17 -1.1619367201366309e-16 -6.160995066843749e-17 -1.1619367201366309e-16 0.1937755621422689 0.981045886549789
12639501333.333334 0.20523484390282176 0.9787127560464292 -6.296238836350584e-17 -1.154371553931459e-16 -6.296238836350584e-17 -1.154371553931459e-16 0.2052341704003577 0.9787128972788142
12640118666.666666 0.21666538618563477 0.9762459272277881 -6.430555697940452e-17 -1.146649085830278e-16 -6.430555697940452e-17 -1.146649085830278e-16 0.21666471441352497 0.9762460763188344
12640736000.0 0.22806630109040862 0.9736456040607139 -6.563927369557211e-17 -1.1387704492089774e-16 -6.563927369557211e-17 -1.1387704492089774e-16 0.2280656311403396 0.9736457609892687
12641353333.333334 0.23943602962692218 0.9709121421201354 -6.696335707461603e-17 -1.1307367986753466e-16 -6.696335707461603e-17 -1.1307367986753466e-16 0.23943536159032194 0.9709123068639748
12641970666.666666 0.25077301706968036 0.9680459151866624 -6.827762708703707e-17 -1.122549309900048e-16 -6.827762708703707e-17 -1.122549309900048e-16 0.25077235103770706 0.9680460877224982
12642588000.0 0.26207571317023604 0.9650473151955434 -6.95819051356169e-17 -1.114209179445509e-16 -6.95819051356169e-17 -1.114209179445509e-16 0.26207504923376396 0.9650474954990214
12643205333.333334 0.27334257236920045 0.9619167521830577 -7.087601407964904e-17 -1.1057176245916806e-16 -7.087601407964904e-17 -1.1057176245916806e-16 0.2733419106188092 0.9619169402287666
12643822666.666666 0.2845720540076985 0.9586546542304234 -7.215977825896384e-17 -1.0970758831589406e-16 -7.215977825896384e-17 -1.0970758831589406e-16 0.2845713945336596 0.9586548499918945
12644440000.0 0.2957626225379314 0.9552614674052842 -7.343302351771124e-17 -1.0882852133284088e-16 -7.343302351771124e-17 -1.0882852133284088e-16 0.2957619654301965 0.9552616708549972
12645057333.333334 0.30691274773307126 0.951737655700745 -7.46955772279436e-17 -1.0793468934593769e-16 -7.46955772279436e-17 -1.0793468934593769e-16 0.30691209308125905 0.9517378668101284
12645674666.666666 0.31802090489667034 0.9480837009718694 -7.5947268312975e-17 -1.0702622219040383e-16 -7.5947268312975e-17 -1.0702622219040383e-16 0.3180202527900556 0.9480839197113102
12646292000.0 0.32908557507123315 0.9443001028697653 -7.718792727053618e-17 -1.0610325168193511e-16 -7.718792727053618e-17 -1.0610325168193511e-16 0.32908492559873415 0.9443003292086101
12646909333.333334 0.34010524524559893 0.9403873787733675 -7.84173861956428e-17 -1.0516591159766775e-16 -7.84173861956428e-17 -1.0516591159766775e-16 0.3401045984957644 0.9403876126799249
12647526666.666666 0.3510784085621032 0.9363460637185984 -7.963547880330157e-17 -1.04214337656826e-16 -7.963547880330157e-17 -1.04214337656826e-16 0.3510777646231016 0.936346305160147
12648144000.0 0.3620035645226036 0.9321767103252172 -8.084204045095002e-17 -1.0324866750113282e-16 -8.084204045095002e-17 -1.0324866750113282e-16 0.36200292348220964 0.9321769592680066
12648761333.333334 0.3728792191935781 0.9278798887212726 -8.20369081606533e-17 -1.0226904067496511e-16 -8.20369081606533e-17 -1.0226904067496511e-16 0.37287858113916267 0.9278801451305329
12649378666.666666 0.3837038854103083 0.9234561864651984 -8.321992064105993e-17 -1.0127559860525697e-16 -8.321992064105993e-17 -1.0127559860525697e-16 0.38370325042882447 0.9234564503051392
12649996000.0 0.394476082980526 0.9189062084653443 -8.439091830915676e-17 -1.0026848458111272e-16 -8.439091830915676e-17 -1.0026848458111272e-16 0.39447545115849886 0.9189064796991651
12650613333.333334 0.4051943388866345 0.914230576897337 -8.554974331172753e-17 -9.924784373321263e-17 -8.554974331172753e-17 -9.924784373321263e-17 0.40519371031014834 0.9142308554872282
12651230666.666666 0.41585718748705414 0.9094299311190341 -8.669623954657431e-17 -9.821382301296202e-17 -8.669623954657431e-17 -9.821382301296202e-17 0.41585656224174133 0.9094302170261851
12651848000.0 0.426463170716899 0.9045049275829854 -8.783025268352424e-17 -9.716657117136367e-17 -8.783025268352424e-17 -9.716657117136367e-17 0.4264625488879284 0.9045052207675891
12652465333.333334 0.4370108382871481 0.8994562397467584 -8.895163018512888e-17 -9.61062387376956e-17 -8.895163018512888e-17 -9.61062387376956e-17 0.4370102199592118 0.8994565401680142
12653082666.666666 0.4474987478828333 0.8942845579809092 -9.006022132713284e-17 -9.503297799792901e-17 -9.006022132713284e-17 -9.503297799792901e-17 0.44749813314013775 0.8942848655970337
12653700000.0 0.457925465360804 0.8889905894743235 -9.115587721870861e-17 -9.394694297288416e-17 -9.115587721870861e-17 -9.394694297288416e-17 0.4579248542870569 0.8889909042425528
12654317333.333334 0.46828956494511964 0.8835750581378613 -9.223845082236495e-17 -9.284828939621624e-17 -9.223845082236495e-17 -9.284828939621624e-17 0.46828895762351863 0.883575380014457
12654934666.666666 0.47858962942254984 0.8780387045051036 -9.330779697365508e-17 -9.173717469211045e-17 -9.330779697365508e-17 -9.173717469211045e-17 0.47858902593577174 0.8780390334453606
12655552000.0 0.48882425033623794 0.8723822856311495 -9.436377240059197e-17 -9.061375795277344e-17 -9.436377240059197e-17 -9.061375795277344e-17 0.4888236507664268 0.8723826215894008
12656169333.333334 0.498992028178098 0.8666065749892049 -9.540623574275851e-17 -8.947819991574065e-17 -9.540623574275851e-17 -8.947819991574065e-17 0.498991432606855 0.8666069179188292
12656786666.666666 0.5090915725804381 0.8607123623646807 -9.643504757021942e-17 -8.8330662940886e-17 -9.643504757021942e-17 -8.8330662940886e-17 0.5090909810888083 0.8607127122181059
12657404000.0 0.519121502505955 0.8547004537472606 -9.745007040209331e-17 -8.71713109872827e-17 -9.745007040209331e-17 -8.71713109872827e-17 0.5191209151744189 0.854700810475974
12658021333.333334 0.5290804464366567 0.8485716712206469 -9.845116872487818e-17 -8.600030958981862e-17 -9.845116872487818e-17 -8.600030958981862e-17 0.529079863345118 0.8485720347752007
12658638666.666666 0.5389670425611647 0.8423268528502966 -9.943820901047688e-17 -8.481782583562493e-17 -9.943820901047688e-17 -8.481782583562493e-17 0.5389664637889394 0.8423272231803144
12659256000.0 0.548779938961438 0.8359668525685061 -1.0041105973397646e-16 -8.362402834025562e-17 -1.0041105973397646e-16 -8.362402834025562e-17 0.5487793645872439 0.8359672296226894
12659873333.333334 0.5585177937970834 0.8294925400579874 -1.0136959139109642e-16 -8.241908722371809e-17 -1.0136959139109642e-16 -8.241908722371809e-17 0.5585172238990294 0.8294929237841244
12660490666.666666 0.5681792754891101 0.822904800632785 -1.023136765153726e-16 -8.120317408627967e-17 -1.023136765153726e-16 -8.120317408627967e-17 0.5681787101446848 0.8229051909777552
12661108000.0 0.5777630629021255 0.8162045351171285 -1.0324318969507339e-16 -7.997646198404799e-17 -1.0324318969507339e-16 -7.997646198404799e-17 0.5777625021881879 0.8162049320269127
12661725333.333334 0.5872678455246888 0.8093926597224633 -1.0415800758977002e-16 -7.873912540442965e-17 -1.0415800758977002e-16 -7.873912540442965e-17 0.5872672895174575 0.8093930631421502
12662342666.666666 0.5966923236487696 0.802470105921988 -1.0505800894666932e-16 -7.749134024132609e-17 -1.0505800894666932e-16 -7.749134024132609e-17 0.5966917724238112 0.8024705157957798
12662960000.0 0.6060352085473548 0.7954378203233597 -1.0594307461661686e-16 -7.623328377018838e-17 -1.0594307461661686e-16 -7.623328377018838e-17 0.6060346621795758 0.7954382365945835
12663577333.333334 0.6152952226507005 0.7882967645392428 -1.0681308756980439e-16 -7.496513462288725e-17 -1.0681308756980439e-16 -7.496513462288725e-17 0.6152946812143354 0.7882971871503557
12664194666.666666 0.6244710997210476 0.7810479150557914 -1.0766793291119662e-16 -7.368707276237757e-17 -1.0766793291119662e-16 -7.368707276237757e-17 0.6244705632896496 0.7810483439483894
12664812000.0 0.6335615850256836 0.7736922630991974 -1.08507497895634e-16 -7.239927945721809e-17 -1.08507497895634e-16 -7.239927945721809e-17 0.6335610536721138 0.7736926982140224
12665429333.333334 0.6425654355086726 0.76623081450002 -1.093316719426444e-16 -7.110193725590193e-17 -1.093316719426444e-16 -7.110193725590193e-17 0.6425649093050912 0.7662312557769703
12666046666.666666 0.6514814199606367 0.7586645895558104 -1.1014034665093456e-16 -6.97952299610413e-17 -1.1014034665093456e-16 -6.97952299610413e-17 0.651480898978493 0.7586650369339473
12666664000.0 0.6603083191873752 0.7509946228913741 -1.1093341581260443e-16 -6.847934260333753e-17 -1.1093341581260443e-16 -6.847934260333753e-17 0.6603078034973976 0.7509950763089305
12667281333.333334 0.6690449261762772 0.7432219633175495 -1.117107754270038e-16 -6.715446141547044e-17 -1.117107754270038e-16 -6.715446141547044e-17 0.6690444158484631 0.7432224227119382
12667898666.666666 0.6776900462615891 0.7353476736876097 -1.1247232371432328e-16 -6.582077380575473e-17 -1.1247232371432328e-16 -6.582077380575473e-17 0.6776895413651958 0.7353481389954319
12668516000.0 0.6862424972877709 0.7273728307519177 -1.132179611288518e-16 -6.447846833167491e-17 -1.132179611288518e-16 -6.447846833167491e-17 0.6862419978913066 0.7273733019089736
12669133333.333334 0.694701109770982 0.7192985250108472 -1.1394759037190374e-16 -6.312773467330065e-17 -1.1394759037190374e-16 -6.312773467330065e-17 0.694700615942196 0.7192990019521422
12669750666.666666 0.7030647270591255 0.7111258605655479 -1.1466111640446327e-16 -6.176876360649537e-17 -1.1466111640446327e-16 -6.176876360649537e-17 0.7030642388649997 0.7111263432253039
