! Parameters = {f0=12700.012000; bw=77.238000; Q=6100.000000; N=10; m_0_1=1.299795; m_1_1=0.732176; m_1_2=1.134607; m_2_2=0.731527; m_2_3=0.771570; m_2_8=0.002053; m_2_9=0.038757; m_3_3=0.729590; m_3_4=0.660099; m_3_7=0.002653; m_3_8=-0.094435; m_3_9=0.002053; m_4_4=0.726665; m_4_5=0.496434; m_4_6=0.006170; m_4_7=-0.114984; m_4_8=0.002653; m_5_5=0.727047; m_5_6=0.903789; m_5_7=0.006170; m_6_6=0.727046; m_6_7=0.496776; m_7_7=0.726679; m_7_8=0.660217; m_8_8=0.729588; m_8_9=0.771883; m_9_9=0.731522; m_9_10=1.135685; m_10_10=0.732166; m_10_11=1.300590}
!
! Created with skrf (http://scikit-rf.org).
# Hz S RI R 50.0 
!freq ReS11 ImS11 ReS21 ImS21 ReS12 ImS12 ReS22 ImS22
12607400000.0 -0.044639273193682334 0.9990031708100604 -3.060826932032468e-17 -1.2328348852113542e-16 -3.060826932032468e-17 -1.2328348852113542e-16 -0.04463995726470146 0.9990031402429227
12608017333.333334 -0.0332442255581506 0.9994472579715518 -3.2016775241108663e-17 -1.228995206761979e-16 -3.2016775241108663e-17 -1.228995206761979e-16 -0.033244909899757265 0.9994472352083287
12608634666.666666 -0.021844854702431842 0.9997613726899258 -3.34205009097918e-17 -1.224994708896557e-16 -3.34205009097918e-17 -1.224994708896557e-16 -0.02184553922560916 0.9997613577328127
12609252000.0 -0.010442643050061557 0.999945474116436 -3.4819262824222795e-17 -1.2208339828914584e-16 -3.4819262824222795e-17 -1.2208339828914584e-16 -0.01044332766577777 0.9999454669666145
12609869333.333334 0.0009609266061391138 0.9999995383098301 -3.6212878209509424e-17 -1.2165136409479768e-16 -3.6212878209509424e-17 -1.2165136409479768e-16 0.0009602419869191053 0.9999995389674644
12610486666.666666 0.01236437129652273 0.999923558239457 -3.760116504187105e-17 -1.212034316103301e-16 -3.760116504187105e-17 -1.212034316103301e-16 0.012363686762825753 0.9999235667036983
12611104000.0 0.0237662080680073 0.9997175437861853 -3.898394207240252e-17 -1.2073966621386855e-16 -3.898394207240252e-17 -1.2073966621386855e-16 0.02376552370884034 0.9997175600551683
12611721333.333334 0.035164954176300695 0.9993815217411182 -4.0361028850644696e-17 -1.202601353485205e-16 -4.0361028850644696e-17 -1.202601353485205e-16 0.03516427008063937 0.9993815458119643
12612338666.666666 0.04655912727920628 0.9989155358021082 -4.173224574813583e-17 -1.1976490851264852e-16 -4.173224574813583e-17 -1.1976490851264852e-16 0.046558443535983186 0.9989155676709228
12612956000.0 0.057947245629307705 0.998319646568068 -4.309741398181131e-17 -1.192540572498886e-16 -4.309741398181131e-17 -1.192540572498886e-16 0.05794656232740087 0.9983196862299432
12613573333.333334 0.06932782826634928 0.9975939315311048 -4.4456355637238144e-17 -1.1872765513891716e-16 -4.4456355637238144e-17 -1.1872765513891716e-16 0.06932714549457074 0.9975939789801206
12614190666.666666 0.08069939521016765 0.9967384850664334 -4.580889369178713e-17 -1.1818577778293216e-16 -4.580889369178713e-17 -1.1818577778293216e-16 0.08069871305725175 0.9967385402956576
12614808000.0 0.09206046765309732 0.9957534184200965 -4.7154852037661006e-17 -1.1762850279887686e-16 -4.7154852037661006e-17 -1.1762850279887686e-16 0.09205978620768934 0.9957534814215865
12615425333.333334 0.10340956815211172 0.9946388596945172 -4.849405550476261e-17 -1.170559098064136e-16 -4.849405550476261e-17 -1.170559098064136e-16 0.1034088875027561 0.9946389304593188
12616042666.666666 0.11474522082118216 0.993394953831814 -4.9826329883480766e-17 -1.1646808041661778e-16 -4.9826329883480766e-17 -1.1646808041661778e-16 0.11474454105631139 0.9933950323499665
12616660000.0 0.1260659515229832 0.9920218625949835 -5.115150194728677e-17 -1.1586509822043532e-16 -5.115150194728677e-17 -1.1586509822043532e-16 0.12606527273090581 0.9920219488555168
12617277333.333334 0.1373702880608487 0.9905197645468238 -5.246939947524894e-17 -1.1524704877685905e-16 -5.246939947524894e-17 -1.1524704877685905e-16 0.1373696103297383 0.9905198585377634
12617894666.666666 0.14865676036985703 0.988888855026769 -5.3779851274333146e-17 -1.1461401960088257e-16 -5.3779851274333146e-17 -1.1461401960088257e-16 0.14865608378774064 0.988888956735137
12618512000.0 0.15992390070853962 0.9871293461254107 -5.50826872016633e-17 -1.1396610015115168e-16 -5.50826872016633e-17 -1.1396610015115168e-16 0.15992322536328613 0.9871294555372253
12619129333.333334 0.17117024384913299 0.9852414666570037 -5.63777381865015e-17 -1.13303381817428e-16 -5.63777381865015e-17 -1.13303381817428e-16 0.17116956982844195 0.9852415837572839
12619746666.666666 0.18239432726860214 0.9832254621296429 -5.766483625220425e-17 -1.1262595790774118e-16 -5.766483625220425e-17 -1.1262595790774118e-16 0.18239365465999224 0.9832255869024092
12620364000.0 0.19359469133874713 0.9810815947133407 -5.894381453796082e-17 -1.1193392363532406e-16 -5.894381453796082e-17 -1.1193392363532406e-16 0.19359402022954483 0.981081727141617
12620981333.333334 0.20476987951571288 0.9788101432059924 -6.021450732034749e-17 -1.1122737610531745e-16 -6.021450732034749e-17 -1.1122737610531745e-16 0.20476920999304143 0.9788102832718101
12621598666.666666 0.21591843852974066 0.9764114029970636 -6.147675003481556e-17 -1.105064143011815e-16 -6.147675003481556e-17 -1.105064143011815e-16 0.21591777068050802 0.9764115506814609
12622216000.0 0.2270389185740997 0.9738856860291766 -6.273037929692266e-17 -1.0977113907091516e-16 -6.273037929692266e-17 -1.0977113907091516e-16 0.2270382524849879 0.9738858413122035
12622833333.333334 0.23812987349348794 0.9712333207575776 -6.397523292347238e-17 -1.0902165311299501e-16 -6.397523292347238e-17 -1.0902165311299501e-16 0.2381292092509419 0.9712334836182991
12623450666.666666 0.24918986097220833 0.9684546521074011 -6.521114995342207e-17 -1.0825806096211373e-16 -6.521114995342207e-17 -1.0825806096211373e-16 0.249189198662424 0.9684548225238975
12624068000.0 0.2602174427216499 0.9655500414288322 -6.643797066867943e-17 -1.0748046897464579e-16 -6.643797066867943e-17 -1.0748046897464579e-16 0.26021678243056406 0.9655502193782048
12624685333.333334 0.2712111846675774 0.9625198664500516 -6.765553661471136e-17 -1.0668898531388811e-16 -6.765553661471136e-17 -1.0668898531388811e-16 0.27121052648085514 0.9625200519084226
12625302666.666666 0.2821696571361288 0.9593645212282425 -6.886369062093273e-17 -1.0588371993509657e-16 -6.886369062093273e-17 -1.0588371993509657e-16 0.28216900113915394 0.959364714170762
12625920000.0 0.29309143504036833 0.9560844160981781 -7.00622768209899e-17 -1.0506478457024544e-16 -7.00622768209899e-17 -1.0506478457024544e-16 0.2930907813182309 0.9560846164990231
12626537333.333334 0.30397509806500767 0.9526799776190246 -7.125114067280756e-17 -1.0423229271259569e-16 -7.125114067280756e-17 -1.0423229271259569e-16 0.3039744467024943 0.9526801854514073
12627154666.666666 0.31481923085149427 0.949151648518766 -7.243012897846767e-17 -1.0338635960102685e-16 -7.243012897846767e-17 -1.0338635960102685e-16 0.31481858193307566 0.9491518637549328
12627772000.0 0.3256224231820131 0.945499887636636 -7.359908990394998e-17 -1.0252710220411161e-16 -7.359908990394998e-17 -1.0252710220411161e-16 0.3256217767918348 0.9455001102478752
12628389333.333334 0.33638327016271696 0.9417251698635078 -7.475787299857978e-17 -1.0165463920404318e-16 -7.475787299857978e-17 -1.0165463920404318e-16 0.3363826263845871 0.9417253998201505
12629006666.666666 0.3471003724066141 0.9378279860800733 -7.590632921441646e-17 -1.0076909098024826e-16 -7.590632921441646e-17 -1.0076909098024826e-16 0.34709973132399274 0.9378282233514978
12629624000.0 0.3577723362154678 0.9338088430930295 -7.704431092532734e-17 -9.987057959287124e-17 -7.704431092532734e-17 -9.987057959287124e-17 0.35777169791145674 0.9338090876476672
12630241333.333334 0.3683977737609869 0.9296682635691955 -7.817167194596167e-17 -9.895922876597265e-17 -7.817167194596167e-17 -9.895922876597265e-17 0.36839713831831844 0.9296685153745333
12630858666.666666 0.37897530326535966 0.9254067859675248 -7.928826755044725e-17 -9.803516387057525e-17 -7.928826755044725e-17 -9.803516387057525e-17 0.3789746707663853 0.9254070449901086
12631476000.0 0.3895035491810219 0.9210249644690429 -8.03939544909799e-17 -9.709851190742636e-17 -8.03939544909799e-17 -9.709851190742636e-17 0.38950291970770323 0.9210252306744855
12632093333.333334 0.39998114236941096 0.9165233689048399 -8.148859101609875e-17 -9.614940148964123e-17 -8.148859101609875e-17 -9.614940148964123e-17 0.3999805160033072 0.9165236422578215
12632710666.666666 0.4104067202789594 0.9119025846819845 -8.257203688885184e-17 -9.518796282506436e-17 -8.257203688885184e-17 -9.518796282506436e-17 0.41040609710121906 0.9119028651462617
12633328000.0 0.4207789271226287 0.9071632127072529 -8.364415340472274e-17 -9.421432769845002e-17 -8.364415340472274e-17 -9.421432769845002e-17 0.4207783072139767 0.9071635002456595
12633945333.333334 0.4310964140537782 0.9023058693091771 -8.470480340931177e-17 -9.322862945347692e-17 -8.470480340931177e-17 -9.322862945347692e-17 0.4310957974945063 0.90230616388363
12634562666.666666 0.4413578393419108 0.8973311861577402 -8.575385131586919e-17 -9.223100297450583e-17 -8.575385131586919e-17 -9.223100297450583e-17 0.4413572262118679 0.8973314877292459
12635180000.0 0.45156186854692704 0.892239810182343 -8.679116312255904e-17 -9.122158466819193e-17 -8.679116312255904e-17 -9.122158466819193e-17 0.4515612589255088 0.8922401187110034
12635797333.333334 0.4617071746928921 0.8870324034875638 -8.781660642955424e-17 -9.020051244485924e-17 -8.781660642955424e-17 -9.020051244485924e-17 0.4617065686590291 0.8870327189325775
12636414666.666666 0.47179243844029345 0.8817096432672019 -8.883005045585897e-17 -8.916792569973576e-17 -8.883005045585897e-17 -8.916792569973576e-17 0.4717918360724435 0.8817099655868752
12637032000.0 0.4818163482579732 0.8762722217160418 -8.983136605597791e-17 -8.81239652939354e-17 -8.983136605597791e-17 -8.81239652939354e-17 0.48181574963410784 0.8762725508677873
12637649333.333334 0.49177760059337605 0.8707208459399822 -9.082042573629622e-17 -8.706877353531857e-17 -9.082042573629622e-17 -8.706877353531857e-17 0.491777005790974 0.8707211818803313
12638266666.666666 0.5016749000422996 0.8650562378639695 -9.179710367128899e-17 -8.600249415911693e-17 -9.179710367128899e-17 -8.600249415911693e-17 0.5016743091383341 0.8650565805485737
12638884000.0 0.5115069595171533 0.8592791341382223 -9.276127571946084e-17 -8.492527230841991e-17 -9.276127571946084e-17 -8.492527230841991e-17 0.5115063725880838 0.8592794835218612
12639501333.333334 0.5212725004145587 0.8533902860423066 -9.371281943909918e-17 -8.383725451443935e-17 -9.371281943909918e-17 -8.383725451443935e-17 0.52127191753632 0.8533906420788926
12640118666.666666 0.5309702527812832 0.8473904593876403 -9.465161410374178e-17 -8.273858867665959e-17 -9.465161410374178e-17 -8.273858867665959e-17 0.5309696740292758 0.8473908220302251
12640736000.0 0.5405989554799718 0.8412804344175485 -9.557754071750139e-17 -8.162942404271239e-17 -9.557754071750139e-17 -8.162942404271239e-17 0.5405983809290525 0.84128080361833
12641353333.333334 0.5501573563523791 0.8350610057062766 -9.649048203002526e-17 -8.050991118823348e-17 -9.649048203002526e-17 -8.050991118823348e-17 0.5501567860768511 0.8350613814166038
12641970666.666666 0.5596442123829014 0.8287329820552203 -9.739032255135954e-17 -7.938020199638554e-17 -9.739032255135954e-17 -7.938020199638554e-17 0.5596436464565047 0.8287333642256013
12642588000.0 0.5690582898597948 0.8222971863880244 -9.827694856646764e-17 -7.824044963734533e-17 -9.827694856646764e-17 -7.824044963734533e-17 0.5690577283556969 0.8222975749681319
12643205333.333334 0.5783983645358255 0.8157544556434239 -9.915024814956812e-17 -7.709080854755731e-17 -9.915024814956812e-17 -7.709080854755731e-17 0.5783978075266107 0.8157548505821011
12643822666.666666 0.5876632217873805 0.8091056406664664 -1.0001011117821382e-16 -7.593143440884723e-17 -1.0001011117821382e-16 -7.593143440884723e-17 0.5876626693450425 0.8091060419117355
12644440000.0 0.5968516567724924 0.8023516060978173 -1.0085642934710911e-16 -7.476248412740532e-17 -1.0085642934710911e-16 -7.476248412740532e-17 0.5968511089684245 0.8023520135968863
12645057333.333334 0.6059624745873873 0.7954932302614196 -1.0168909618171611e-16 -7.358411581257084e-17 -1.0168909618171611e-16 -7.358411581257084e-17 0.6059619314923709 0.7954936439606863
12645674666.666666 0.6149944904219395 0.7885314050502198 -1.0250800705157963e-16 -7.239648875551135e-17 -1.0250800705157963e-16 -7.239648875551135e-17 0.6149939521061396 0.7885318248952846
12646292000.0 0.6239465297139605 0.7814670358100345 -1.0331305918345131e-16 -7.11997634076879e-17 -1.0331305918345131e-16 -7.11997634076879e-17 0.6239459962469106 0.7814674617456996
12646909333.333334 0.6328174283015954 0.7743010412220628 -1.0410415167409024e-16 -6.999410135928081e-17 -1.0410415167409024e-16 -6.999410135928081e-17 0.6328168997521936 0.7743014731923467
12647526666.666666 0.6416060325748826 0.7670343531833078 -1.0488118550289004e-16 -6.877966531735867e-17 -1.0488118550289004e-16 -6.877966531735867e-17 0.6416055090113799 0.7670347911314483
12648144000.0 0.6503111996258996 0.7596679166852713 -1.056440635441987e-16 -6.755661908398824e-17 -1.056440635441987e-16 -6.755661908398824e-17 0.6503106811158927 0.7596683605537352
12648761333.333334 0.6589317973971318 0.7522026896912848 -1.0639269057940927e-16 -6.63251275341698e-17 -1.0639269057940927e-16 -6.63251275341698e-17 0.6589312840075533 0.7522031394217742
12649378666.666666 0.6674667048288628 0.7446396430117836 -1.0712697330877111e-16 -6.508535659367568e-17 -1.0712697330877111e-16 -6.508535659367568e-17 0.6674661966259742 0.7446400985452457
12649996000.0 0.6759148120049008 0.7369797601781185 -1.0784682036298263e-16 -6.383747321669503e-17 -1.0784682036298263e-16 -6.383747321669503e-17 0.6759143090542805 0.7369802214547491
12650613333.333334 0.6842750202970166 0.7292240373145509 -1.0855214231447983e-16 -6.258164536342426e-17 -1.0855214231447983e-16 -6.258164536342426e-17 0.6842745226635556 0.7292245042738069
12651230666.666666 0.6925462425075689 0.7213734830089501 -1.0924285168849281e-16 -6.131804197748862e-17 -1.0924285168849281e-16 -6.131804197748862e-17 0.6925457502554588 0.721373955589554
12651848000.0 0.7007274030112569 0.7134291181812775 -1.0991886297383435e-16 -6.00468329632472e-17 -1.0991886297383435e-16 -6.00468329632472e-17 0.7007269162039845 0.7134295963212276
12652465333.333334 0.7088174378946718 0.7053919759511377 -1.1058009263342192e-16 -5.876818916299097e-17 -1.1058009263342192e-16 -5.876818916299097e-17 0.7088169565950089 0.7053924595877148
12653082666.666666 0.7168152950947141 0.6972631015033672 -1.1122645911452208e-16 -5.748228233404673e-17 -1.1122645911452208e-16 -5.748228233404673e-17 0.7168148193647108 0.6972635905731442
12653700000.0 0.7247199345356515 0.689043551951875 -1.1185788285877248e-16 -5.618928512568789e-17 -1.1185788285877248e-16 -5.618928512568789e-17 0.7247194644366282 0.6890440463907248
12654317333.333334 0.7325303282640541 0.6807343962024943 -1.1247428631187174e-16 -5.4889371056063057e-17 -1.1247428631187174e-16 -5.4889371056063057e-17 0.7325298638565905 0.680734895945596
12654934666.666666 0.7402454605826101 0.6723367148138308 -1.1307559393306275e-16 -5.3582714488894706e-17 -1.1307559393306275e-16 -5.3582714488894706e-17 0.7402450019265432 0.6723372197956826
12655552000.0 0.7478643281823539 0.6638515998566042 -1.1366173220431503e-16 -5.2269490610139065e-17 -1.1366173220431503e-16 -5.2269490610139065e-17 0.747863875336764 0.6638521100110273
12656169333.333334 0.7553859402728047 0.6552801547719772 -1.1423262963922394e-16 -5.0949875404576133e-17 -1.1423262963922394e-16 -5.0949875404576133e-17 0.7553854932960135 0.6552806700321285
12656786666.666666 0.7628093187111644 0.6466234942276883 -1.1478821679168055e-16 -4.9624045632209293e-17 -1.1478821679168055e-16 -4.9624045632209293e-17 0.7628088776607225 0.6466240145260657
12657404000.0 0.7701334981292696 0.637882743973366 -1.1532842626422507e-16 -4.829217880466907e-17 -1.1532842626422507e-16 -4.829217880466907e-17 0.7701330630619523 0.6378832692418195
12658021333.333334 0.7773575260593184 0.6290590406939182 -1.1585319271615984e-16 -4.695445316145221e-17 -1.1585319271615984e-16 -4.695445316145221e-17 0.7773570970311177 0.6290595708636585
12658638666.666666 0.7844804630574986 0.6201535318619973 -1.1636245287135564e-16 -4.561104764614915e-17 -1.1636245287135564e-16 -4.561104764614915e-17 0.7844800401236152 0.620154066863604
12659256000.0 0.7915013828264786 0.6111673755883807 -1.1685614552582354e-16 -4.426214188248556e-17 -1.1685614552582354e-16 -4.426214188248556e-17 0.7915009660413158 0.6111679153518123
12659873333.333334 0.7984193723355812 0.602101740471718 -1.1733421155496508e-16 -4.290791615039947e-17 -1.1733421155496508e-16 -4.290791615039947e-17 0.7984189617527379 0.6021022849263207
12660490666.666666 0.8052335319395774 0.5929578054464997 -1.1779659392057767e-16 -4.1548551361958234e-17 -1.1779659392057767e-16 -4.1548551361958234e-17 0.8052331276118395 0.5929583545210159
12661108000.0 0.8119429754958815 0.5837367596294681 -1.1824323767757228e-16 -4.018422903722077e-17 -1.1824323767757228e-16 -4.018422903722077e-17 0.8119425774752169 0.5837373132520466
12661725333.333334 0.8185468304795142 0.5744398021653426 -1.1867408998040488e-16 -3.881513128005656e-17 -1.1867408998040488e-16 -3.881513128005656e-17 0.8185464388170663 0.5744403602635483
12662342666.666666 0.8250442380967127 0.5650681420706991 -1.1908910008923744e-16 -3.74414407538662e-17 -1.1908910008923744e-16 -3.74414407538662e-17 0.8250438528427922 0.5650687045715215
12662960000.0 0.8314343533966365 0.5556229980766938 -1.1948821937581908e-16 -3.6063340657237913e-17 -1.1948821937581908e-16 -3.6063340657237913e-17 0.8314339746007169 0.5556235649065576
12663577333.333334 0.8377163453811391 0.5461055984707393 -1.1987140132907466e-16 -3.468101469957636e-17 -1.1987140132907466e-16 -3.468101469957636e-17 0.8377159730918482 0.5461061695555127
12664194666.666666 0.843889397112961 0.5365171809365835 -1.2023860156042743e-16 -3.329464707662646e-17 -1.2023860156042743e-16 -3.329464707662646e-17 0.8438890313780766 0.5365177562015895
12664812000.0 0.8499527058218431 0.5268589923935477 -1.2058977780882822e-16 -3.190442244597617e-17 -1.2058977780882822e-16 -3.190442244597617e-17 0.8499523466882849 0.5268595717635716
12665429333.333334 0.8559054830090577 0.5171322888341525 -1.2092488994550453e-16 -3.051052590250135e-17 -1.2092488994550453e-16 -3.051052590250135e-17 0.8559051305228839 0.5171328722334546
12666046666.666666 0.8617469545497567 0.5073383351611006 -1.2124389997842484e-16 -2.9113142953769237e-17 -1.2124389997842484e-16 -2.9113142953769237e-17 0.8617466087561557 0.5073389225134242
12666664000.0 0.8674763607939208 0.49747840502232094 -1.2154677205649255e-16 -2.7712459495338478e-17 -1.2154677205649255e-16 -2.7712459495338478e-17 0.8674760217372071 0.49747899625090264
12667281333.333334 0.8730929566648418 0.4875537806458493 -1.2183347247342788e-16 -2.6308661786138335e-17 -1.2183347247342788e-16 -2.6308661786138335e-17 0.873092624388449 0.48755437567342924
12667898666.666666 0.8785960117562056 0.4775657526727659 -1.221039696713952e-16 -2.4901936423678314e-17 -1.221039696713952e-16 -2.4901936423678314e-17 0.8785956863026814 0.47756635142159753
12668516000.0 0.8839848104271 0.4675156199893018 -1.223582342443286e-16 -2.3492470319291608e-17 -1.223582342443286e-16 -2.3492470319291608e-17 0.8839844918381001 0.4675162223811622
12669133333.333334 0.8892586518949273 0.4574046895582 -1.225962389409679e-16 -2.2080450673378508e-17 -1.225962389409679e-16 -2.2080450673378508e-17 0.8892583402112126 0.45740529551440073
12669750666.666666 0.8944168503266396 0.44723427624858014 -1.2281795866762782e-16 -2.066606495052026e-17 -1.2281795866762782e-16 -2.066606495052026e-17 0.894416545588067 0.44723488568997616
12670368000.0 0.899458734927958 0.43700570266486816 -1.2302337049066195e-16 -1.9249500854668596e-17 -1.2302337049066195e-16 -1.9249500854668596e-17 0.8994584371734788 0.4370063155118696
