! Parameters = {f0=12700.012000; bw=77.238000; Q=6100.000000; N=10; m_0_1=1.217713; m_1_1=-0.499055; m_1_2=1.052525; m_2_2=-0.499704; m_2_3=0.689488; m_2_8=-0.002051; m_2_9=0.034653; m_3_3=-0.501641; m_3_4=0.578017; m_3_7=-0.001451; m_3_8=-0.098539; m_3_9=-0.002051; m_4_4=-0.504566; m_4_5=0.414352; m_4_6=0.002066; m_4_7=-0.119088; m_4_8=-0.001451; m_5_5=-0.504184; m_5_6=0.821707; m_5_7=0.002066; m_6_6=-0.504185; m_6_7=0.414694; m_7_7=-0.504552; m_7_8=0.578135; m_8_8=-0.501643; m_8_9=0.689801; m_9_9=-0.499709; m_9_10=1.053603; m_10_10=-0.499065; m_10_11=1.218508}
!
! Created with skrf (http://scikit-rf.org).
# Hz S RI R 50.0 
!freq ReS11 ImS11 ReS21 ImS21 ReS12 ImS12 ReS22 ImS22
12607400000.0 0.5907735041693893 0.8068374475513997 -6.831530293466035e-17 -5.201665129293169e-17 -6.831530293466035e-17 -5.201665129293169e-17 0.5907729864576564 0.8068378266242474
12608017333.333334 0.5979927407661952 0.8015015171481406 -6.87705942316247e-17 -5.1385117382866314e-17 -6.87705942316247e-17 -5.1385117382866314e-17 0.5979922265034728 0.8015019008344624
12608634666.666666 0.6051637854070189 0.796100994115498 -6.922005409998372e-17 -5.0749606843943226e-17 -6.922005409998372e-17 -5.0749606843943226e-17 0.6051632746344119 0.7961013823839228
12609252000.0 0.6122860601807802 0.7906363136791372 -6.966364788579637e-17 -5.011017346207287e-17 -6.966364788579637e-17 -5.011017346207287e-17 0.6122855529391072 0.7906367064979273
12609869333.333334 0.6193589911067617 0.7851079162351192 -7.010134143068208e-17 -4.9466871324406885e-17 -7.010134143068208e-17 -4.9466871324406885e-17 0.6193584874365533 0.7851083135721734
12610486666.666666 0.6263820081807557 0.7795162473145002 -7.053310107441705e-17 -4.881975481479891e-17 -7.053310107441705e-17 -4.881975481479891e-17 0.6263815081222508 0.7795166491373562
12611104000.0 0.6333545454212447 0.7738617575472292 -7.095889365752493e-17 -4.816887860919096e-17 -7.095889365752493e-17 -4.816887860919096e-17 0.6333540490143872 0.7738621638230667
12611721333.333334 0.640276040914702 0.768144902626081 -7.137868652378418e-17 -4.751429767103803e-17 -7.137868652378418e-17 -4.751429767103803e-17 0.6402755481991381 0.7681453133217249
12612338666.666666 0.6471459368611009 0.7623661432697584 -7.179244752272711e-17 -4.685606724666031e-17 -7.179244752272711e-17 -4.685606724666031e-17 0.6471454478761743 0.7623665583516788
12612956000.0 0.6539636796188607 0.7565259451857532 -7.220014501208242e-17 -4.6194242860593896e-17 -7.220014501208242e-17 -4.6194242860593896e-17 0.6539631944036118 0.7565263646200717
12613573333.333334 0.660728719749253 0.7506247790330071 -7.260174786016403e-17 -4.552888031093958e-17 -7.260174786016403e-17 -4.552888031093958e-17 0.6607282383424138 0.7506252027854967
12614190666.666666 0.6674405120609798 0.7446631203837171 -7.299722544824127e-17 -4.4860035664651474e-17 -7.299722544824127e-17 -4.4860035664651474e-17 0.667440034500972 0.7446635484198073
12614808000.0 0.6740985156538746 0.7386414496852173 -7.338654767284692e-17 -4.4187765252836495e-17 -7.338654767284692e-17 -4.4187765252836495e-17 0.6740980419788067 0.7386418819699955
12615425333.333334 0.6807021939626017 0.7325602522211654 -7.376968494804814e-17 -4.3512125666023605e-17 -7.376968494804814e-17 -4.3512125666023605e-17 0.6807017242102641 0.7325606887193792
12616042666.666666 0.687251014799874 0.7264200180724516 -7.41466082076794e-17 -4.283317374940533e-17 -7.41466082076794e-17 -4.283317374940533e-17 0.6872505490077382 0.7264204587485132
12616660000.0 0.6937444503993433 0.7202212420777041 -7.451728890751884e-17 -4.215096659808091e-17 -7.451728890751884e-17 -4.215096659808091e-17 0.6937439886045574 0.7202216868956925
12617277333.333334 0.7001819774581522 0.7139644237933914 -7.488169902743527e-17 -4.1465561552258154e-17 -7.488169902743527e-17 -4.1465561552258154e-17 0.7001815196975398 0.7139648727170556
12617894666.666666 0.7065630771790067 0.7076500674536608 -7.523981107347742e-17 -4.07770161924599e-17 -7.523981107347742e-17 -4.07770161924599e-17 0.7065626234890618 0.7076505204464222
12618512000.0 0.7128872353122075 0.7012786819294846 -7.55915980799391e-17 -4.008538833467638e-17 -7.55915980799391e-17 -4.008538833467638e-17 0.7128867857290924 0.7012791389544402
12619129333.333334 0.71915394219681 0.6948507806879296 -7.593703361135188e-17 -3.93907360255541e-17 -7.593703361135188e-17 -3.93907360255541e-17 0.7191534967563529 0.6948512417078553
12619746666.666666 0.725362692801901 0.6883668817505776 -7.627609176445998e-17 -3.8693117537515475e-17 -7.627609176445998e-17 -3.8693117537515475e-17 0.7253622515395923 0.6883673467279305
12620364000.0 0.7315129867672946 0.6818275076517739 -7.660874717013995e-17 -3.799259136388383e-17 -7.660874717013995e-17 -3.799259136388383e-17 0.7315125497182853 0.6818279765486972
12620981333.333334 0.737604328443682 0.6752331853967062 -7.693497499526483e-17 -3.728921621401379e-17 -7.693497499526483e-17 -3.728921621401379e-17 0.7376038956427797 0.6752336581750297
12621598666.666666 0.7436362269327701 0.6685844464187237 -7.72547509445492e-17 -3.658305100835349e-17 -7.72547509445492e-17 -3.658305100835349e-17 0.7436357984144366 0.6685849230399684
12622216000.0 0.7496081961267274 0.6618818265366353 -7.756805126232266e-17 -3.5874154873545944e-17 -7.756805126232266e-17 -3.5874154873545944e-17 0.7496077719250759 0.6618823069620164
12622833333.333334 0.7555197547474698 0.6551258659113999 -7.787485273427655e-17 -3.516258713747829e-17 -7.787485273427655e-17 -3.516258713747829e-17 0.7555193348962636 0.6551263501018307
12623450666.666666 0.7613704263852625 0.6483171090028096 -7.817513268915408e-17 -3.4448407324340726e-17 -7.817513268915408e-17 -3.4448407324340726e-17 0.7613700109179095 0.6483175969189026
12624068000.0 0.7671597395372822 0.6414561045254207 -7.846886900040496e-17 -3.373167514964886e-17 -7.846886900040496e-17 -3.373167514964886e-17 0.7671593284868339 0.6414565961274922
12624685333.333334 0.7728872276456091 0.6345434054043279 -7.87560400877909e-17 -3.3012450515261296e-17 -7.87560400877909e-17 -3.3012450515261296e-17 0.7728868210447589 0.6345439006524018
12625302666.666666 0.7785524291346515 0.6275795687308275 -7.903662491893507e-17 -3.229079350440857e-17 -7.903662491893507e-17 -3.229079350440857e-17 0.7785520270157296 0.6275800675846368
12625920000.0 0.7841548874486085 0.6205651557171886 -7.931060301084935e-17 -3.156676437665285e-17 -7.931060301084935e-17 -3.156676437665285e-17 0.7841544898435816 0.6205656581361804
12626537333.333334 0.7896941510880168 0.613500731651736 -7.957795443138947e-17 -3.084042356290062e-17 -7.957795443138947e-17 -3.084042356290062e-17 0.7896937580284848 0.6135012375950738
12627154666.666666 0.795169773646243 0.6063868658531614 -7.983865980068138e-17 -3.011183166036021e-17 -7.983865980068138e-17 -3.011183166036021e-17 0.7951693851634372 0.6063873752797294
12627772000.0 0.8005813138455654 0.5992241316245082 -8.009270029250551e-17 -2.9381049427476326e-17 -8.009270029250551e-17 -2.9381049427476326e-17 0.8005809299703438 0.5992246444929131
12628389333.333334 0.8059283355724899 0.5920131062072821 -8.034005763561001e-17 -2.8648137778921424e-17 -8.034005763561001e-17 -2.8648137778921424e-17 0.8059279563353362 0.592013622475857
12629006666.666666 0.8112104079131557 0.5847543707345927 -8.058071411501022e-17 -2.7913157780487475e-17 -8.058071411501022e-17 -2.7913157780487475e-17 0.8112100333441784 0.5847548903614023
12629624000.0 0.8164271051878765 0.5774485101845728 -8.081465257321659e-17 -2.717617064403806e-17 -8.081465257321659e-17 -2.717617064403806e-17 0.8164267353168037 0.5774490331274136
12630241333.333334 0.8215780069855442 0.5700961133330943 -8.104185641143095e-17 -2.643723772240925e-17 -8.104185641143095e-17 -2.643723772240925e-17 0.8215776418417223 0.5700966395495003
12630858666.666666 0.8266626981973971 0.5626977727064841 -8.126230959068704e-17 -2.5696420504328515e-17 -8.126230959068704e-17 -2.5696420504328515e-17 0.82666233780979 0.5626983021537304
12631476000.0 0.8316807690507156 0.555254084533422 -8.147599663295683e-17 -2.4953780609285072e-17 -8.147599663295683e-17 -2.4953780609285072e-17 0.8316804134479007 0.555254617168527
12632093333.333334 0.836631815141539 0.5477656486973351 -8.168290262219373e-17 -2.4209379782447222e-17 -8.168290262219373e-17 -2.4209379782447222e-17 0.8366314643517043 0.547766184477064
12632710666.666666 0.8415154374674179 0.5402330686878196 -8.18830132053422e-17 -2.346327988952721e-17 -8.18830132053422e-17 -2.346327988952721e-17 0.8415150915183623 0.5402336075686897
12633328000.0 0.8463312424596313 0.5326569515519112 -8.20763145932994e-17 -2.2715542911642853e-17 -8.20763145932994e-17 -2.2715542911642853e-17 0.8463309013787597 0.5326574934901925
12633945333.333334 0.8510788420147629 0.5250379078453752 -8.226279356182398e-17 -2.1966230940192576e-17 -8.226279356182398e-17 -2.1966230940192576e-17 0.8510785058290861 0.5250384527970969
12634562666.666666 0.8557578535260564 0.5173765515833847 -8.244243745240097e-17 -2.1215406171714156e-17 -8.244243745240097e-17 -2.1215406171714156e-17 0.855757522262187 0.517377099504337
12635180000.0 0.8603678999142346 0.5096735001910615 -8.261523417306261e-17 -2.0463130902727557e-17 -8.261523417306261e-17 -2.0463130902727557e-17 0.8603675735983872 0.5096740510367997
12635797333.333334 0.8649086096579008 0.5019293744536921 -8.278117219915957e-17 -1.970946752457833e-17 -8.278117219915957e-17 -1.970946752457833e-17 0.8649082883158886 0.5019299281795403
12636414666.666666 0.869379616823425 0.4941447984667987 -8.294024057408442e-17 -1.8954478518285017e-17 -8.294024057408442e-17 -1.8954478518285017e-17 0.8693793004806568 0.49414535502785273
12637032000.0 0.8737805610945165 0.48632039958569473 -8.309242890995235e-17 -1.8198226449357314e-17 -8.309242890995235e-17 -1.8198226449357314e-17 0.873780249775997 0.48632095893682714
12637649333.333334 0.878111087801208 0.47845680837502635 -8.323772738823033e-17 -1.7440773962633114e-17 -8.323772738823033e-17 -1.7440773962633114e-17 0.8781107815315339 0.47845737047088877
12638266666.666666 0.8823708479484507 0.4705546585579302 -8.337612676032141e-17 -1.668218377709913e-17 -8.337612676032141e-17 -1.668218377709913e-17 0.8823705467518093 0.47055522335295735
12638884000.0 0.886559498244239 0.46261458696496144 -8.350761834810168e-17 -1.5922518680712317e-17 -8.350761834810168e-17 -1.5922518680712317e-17 0.8865592021444066 0.46261515441337536
12639501333.333334 0.8906767011272777 0.45463723348277274 -8.363219404441205e-17 -1.516184152520325e-17 -8.363219404441205e-17 -1.516184152520325e-17 0.8906764101476183 0.4546378035385862
12640118666.666666 0.8947221247941594 0.4466232410025964 -8.374984631349616e-17 -1.4400215220916813e-17 -8.374984631349616e-17 -1.4400215220916813e-17 0.894721838957622 0.44662381361961667
12640736000.0 0.8986954432262331 0.43857325536818076 -8.38605681914041e-17 -1.3637702731573888e-17 -8.38605681914041e-17 -1.3637702731573888e-17 0.8986951625553486 0.4385738305000124
12641353333.333334 0.9025963362156212 0.43048792532424873 -8.39643532863317e-17 -1.2874367069137984e-17 -8.39643532863317e-17 -1.2874367069137984e-17 0.9025960607325039 0.43048850292429924
12641970666.666666 0.9064244893912817 0.42236790246370914 -8.406119577892944e-17 -1.2110271288570104e-17 -8.406119577892944e-17 -1.2110271288570104e-17 0.9064242191176244 0.422368482485191
12642588000.0 0.9101795942442131 0.4142138411753978 -8.415109042255369e-17 -1.1345478482656225e-17 -8.415109042255369e-17 -1.1345478482656225e-17 0.9101793292012877 0.41421442357133326
12643205333.333334 0.9138613481523347 0.40602639859131695 -8.423403254347403e-17 -1.0580051776807353e-17 -8.423403254347403e-17 -1.0580051776807353e-17 0.9138610883609892 0.40602698331454157
12643822666.666666 0.9174694544049188 0.39780623453357344 -8.431001804103455e-17 -9.814054323851733e-18 -8.431001804103455e-17 -9.814054323851733e-18 0.9174691998855742 0.39780682153673896
12644440000.0 0.9210036222264398 0.38955401146133084 -8.43790433877655e-17 -9.047549298848457e-18 -8.43790433877655e-17 -9.047549298848457e-18 0.9210033729990942 0.3895546006969116
12645057333.333334 0.9244635668000317 0.38127039441740207 -8.444110562944928e-17 -8.280599893889277e-18 -8.444110562944928e-17 -8.280599893889277e-18 0.9244633228842506 0.3812709858376954
12645674666.666666 0.9278490092904313 0.3729560509746492 -8.449620238514037e-17 -7.513269312891438e-18 -8.449620238514037e-17 -7.513269312891438e-18 0.9278487707053519 0.3729566445317818
12646292000.0 0.9311596768665261 0.36461165118200106 -8.454433184713647e-17 -6.7456207663987e-18 -8.454433184713647e-17 -6.7456207663987e-18 0.931159443630856 0.3646122468279327
12646909333.333334 0.9343953027232086 0.35623786751079856 -8.458549278090215e-17 -5.97771746640803e-18 -8.458549278090215e-17 -5.97771746640803e-18 0.9343950748552206 0.35623846519732466
12647526666.666666 0.9375556261029786 0.3478353748003352 -8.461968452494768e-17 -5.209622621154789e-18 -8.461968452494768e-17 -5.209622621154789e-18 0.937555403620511 0.3478359744790915
12648144000.0 0.9406403923169471 0.3394048502034979 -8.464690699065935e-17 -4.441399429924381e-18 -8.464690699065935e-17 -4.441399429924381e-18 0.9406401752374026 0.3394054518259642
12648761333.333334 0.9436493527653099 0.33094697313232846 -8.466716066208251e-17 -3.6731110778738535e-18 -8.466716066208251e-17 -3.6731110778738535e-18 0.9436491411056557 0.33094757664983326
12649378666.666666 0.9465822649574268 0.3224624252031651 -8.468044659565846e-17 -2.9048207308470755e-18 -8.468044659565846e-17 -2.9048207308470755e-18 0.9465820587341894 0.3224630305668884
12649996000.0 0.9494388925313492 0.3139518901817366 -8.468676641991449e-17 -2.1365915301814706e-18 -8.468676641991449e-17 -2.1365915301814706e-18 0.9494386917606168 0.3139524973427145
12650613333.333334 0.952219005272878 0.3054160539280308 -8.468612233510631e-17 -1.3684865875404662e-18 -8.468612233510631e-17 -1.3684865875404662e-18 0.9522188099702985 0.3054166628371598
12651230666.666666 0.9549223791340763 0.29685560434115804 -8.467851711281447e-17 -6.005689797407715e-19 -8.467851711281447e-17 -6.005689797407715e-19 0.9549221893148544 0.2968562149491981
12651848000.0 0.9575487962514082 0.28827123130364213 -8.466395409549331e-17 1.6709825642510659e-19 -8.466395409549331e-17 1.6709825642510659e-19 0.9575486119303047 0.2882718435612211
12652465333.333334 0.9600980449632192 0.2796636266260662 -8.464243719597373e-17 9.344521293393619e-19 -8.464243719597373e-17 9.344521293393619e-19 0.9600978661545512 0.2796642404836838
12653082666.666666 0.9625699198267963 0.2710334839913213 -8.461397089691931e-17 1.7014296977133094e-18 -8.461397089691931e-17 1.7014296977133094e-18 0.9625697465444357 0.2710340993993537
12653700000.0 0.9649642216350061 0.26238149889843054 -8.457856025023486e-17 2.467968075762102e-18 -8.457856025023486e-17 2.467968075762102e-18 0.9649640538923772 0.2623821158071331
12654317333.333334 0.9672807574322333 0.25370836860687984 -8.453621087643045e-17 3.234004438315169e-18 -8.453621087643045e-17 3.234004438315169e-18 0.9672805952423138 0.2537089869663923
12654934666.666666 0.9695193405300168 0.2450147920801547 -8.448692896393708e-17 3.999476025977384e-18 -8.448692896393708e-17 3.999476025977384e-18 0.9695191839053346 0.24501541184050474
12655552000.0 0.9716797905220838 0.23630146992940887 -8.443072126837601e-17 4.7643201502587405e-18 -8.443072126837601e-17 4.7643201502587405e-18 0.971679639474718 0.236302091040516
12656169333.333334 0.9737619332988313 0.22756910435725108 -8.436759511178426e-17 5.528474198674651e-18 -8.436759511178426e-17 5.528474198674651e-18 0.9737617878404103 0.22756972676893097
12656786666.666666 0.975765601061421 0.21881839910090733 -8.429755838179068e-17 6.291875639881204e-18 -8.429755838179068e-17 6.291875639881204e-18 0.9757654612031205 0.21881902276287546
12657404000.0 0.9776906323352874 0.21005005937553278 -8.422061953074715e-17 7.054462028777706e-18 -8.422061953074715e-17 7.054462028777706e-18 0.9776904980878329 0.21005068423740933
12658021333.333334 0.9795368719831336 0.20126479181749143 -8.413678757481494e-17 7.816171011593031e-18 -8.413678757481494e-17 7.816171011593031e-18 0.9795367433567952 0.20126541782880428
12658638666.666666 0.9813041712174223 0.19246330442743526 -8.404607209300419e-17 8.576940330969666e-18 -8.404607209300419e-17 8.576940330969666e-18 0.9813040482220172 0.19246393153762478
12659256000.0 0.9829923876124238 0.18364630651299726 -8.394848322616561e-17 9.336707831061736e-18 -8.394848322616561e-17 9.336707831061736e-18 0.9829922702573148 0.18364693467142035
12659873333.333334 0.9846013851156387 0.17481450863187878 -8.384403167593989e-17 1.0095411462579672e-17 -8.384403167593989e-17 1.0095411462579672e-17 0.9846012734097327 0.17481513778781255
12660490666.666666 0.9861310340587662 0.16596862253458639 -8.373272870366069e-17 1.0852989287845769e-17 -8.373272870366069e-17 1.0852989287845769e-17 0.9861309280105139 0.16596925263723267
12661108000.0 0.9875812111682034 0.15710936110679258 -8.36145861292076e-17 1.160937948586226e-17 -8.36145861292076e-17 1.160937948586226e-17 0.9875811107855988 0.1571099921052818
12661725333.333334 0.9889517995749111 0.14823743831227656 -8.348961632982211e-17 1.2364520357310859e-17 -8.348961632982211e-17 1.2364520357310859e-17 0.9889517048654912 0.14823807015567197
12662342666.666666 0.9902426888238838 0.13935356913507785 -8.335783223886955e-17 1.3118350329599667e-17 -8.335783223886955e-17 1.3118350329599667e-17 0.9902425997947281 0.1393542017723797
12662960000.0 0.9914537748830308 0.13045846952201667 -8.321924734456213e-17 1.3870807961857471e-17 -8.321924734456213e-17 1.3870807961857471e-17 0.9914536915407606 0.1304591029021662
12663577333.333334 0.9925849601515633 0.12155285632496801 -8.307387568863254e-17 1.4621831949941232e-17 -8.307387568863254e-17 1.4621831949941232e-17 0.9925848825023387 0.12155349039685118
12664194666.666666 0.9936361534678576 0.1126374472430902 -8.292173186496687e-17 1.5371361131404404e-17 -8.292173186496687e-17 1.5371361131404404e-17 0.9936360815173809 0.11263808195554255
12664812000.0 0.9946072701168032 0.10371296076498646 -8.276283101818881e-17 1.6119334490475315e-17 -8.276283101818881e-17 1.6119334490475315e-17 0.9946072038703179 0.10371359606679696
12665429333.333334 0.9954982318366323 0.09478011611080236 -8.259718884220105e-17 1.6865691163012163e-17 -8.259718884220105e-17 1.6865691163012163e-17 0.9954981712989212 0.09478075195071739
12666046666.666666 0.9963089668252223 0.08583963317429222 -8.242482157868415e-17 1.76103704414318e-17 -8.242482157868415e-17 1.76103704414318e-17 0.9963089120006061 0.08584026950101971
12666664000.0 0.9970394097458934 0.07689223246466168 -8.224574601554324e-17 1.835331177966133e-17 -8.224574601554324e-17 1.835331177966133e-17 0.9970393606382335 0.07689286922687537
12667281333.333334 0.9976895017326521 0.06793863504878536 -8.205997948532316e-17 1.909445479801589e-17 -8.205997948532316e-17 1.909445479801589e-17 0.9976894583453486 0.06793927219512898
12667898666.666666 0.9982591903949551 0.05897956249284172 -8.186753986356736e-17 1.983373928811712e-17 -8.186753986356736e-17 1.983373928811712e-17 0.9982591527309479 0.05898019997193305
12668516000.0 0.9987484298219326 0.050015736804162145 -8.166844556713708e-17 2.057110521777207e-17 -8.166844556713708e-17 2.057110521777207e-17 0.9987483978836978 0.05001637456459707
12669133333.333334 0.9991571805860675 0.04104788037329992 -8.146271555249417e-17 2.130649273581281e-17 -8.146271555249417e-17 2.130649273581281e-17 0.9991571543756207 0.04104851836365669
12669750666.666666 0.9994854097463924 0.03207671591552947 -8.125036931392418e-17 2.2039842176974575e-17 -8.125036931392418e-17 2.2039842176974575e-17 0.9994853892652882 0.03207735408437289
12670368000.0 0.9997330908511394 0.02310296641271671 -8.103142688173227e-17 2.277109406670157e-17 -8.103142688173227e-17 2.277109406670157e-17 0.99973307610047 0.02310360470860216
