! Parameters = {f0=12700.012000; bw=77.238000; Q=6100.000000; N=10; m_0_1=1.178674; m_1_1=-1.084641; m_1_2=1.013486; m_2_2=-1.085290; m_2_3=0.650449; m_2_8=-0.004003; m_2_9=0.032701; m_3_3=-1.087227; m_3_4=0.538978; m_3_7=-0.003403; m_3_8=-0.100491; m_3_9=-0.004003; m_4_4=-1.090152; m_4_5=0.375313; m_4_6=0.000114; m_4_7=-0.121040; m_4_8=-0.003403; m_5_5=-1.089770; m_5_6=0.782668; m_5_7=0.000114; m_6_6=-1.089771; m_6_7=0.375655; m_7_7=-1.090138; m_7_8=0.539096; m_8_8=-1.087229; m_8_9=0.650762; m_9_9=-1.085295; m_9_10=1.014564; m_10_10=-1.084651; m_10_11=1.179469}
!
! Created with skrf (http://scikit-rf.org).
# Hz S RI R 50.0 
!freq ReS11 ImS11 ReS21 ImS21 ReS12 ImS12 ReS22 ImS22
12607400000.0 0.8201986467002722 -0.572078823197372 -4.393721400976602e-17 5.50333288455814e-17 -4.393721400976602e-17 5.50333288455814e-17 0.8201990020476262 -0.5720783137297949
12608017333.333334 0.815698163798215 -0.5784777485574254 -4.349191064312219e-17 5.5368377248294234e-17 -4.349191064312219e-17 5.5368377248294234e-17 0.8156985231026743 -0.5784772419101409
12608634666.666666 0.8111477596868542 -0.5848412707349275 -4.30440585631053e-17 5.569982765371754e-17 -4.30440585631053e-17 5.569982765371754e-17 0.8111481229260424 -0.5848407669386652
12609252000.0 0.8065477128536412 -0.5911690002786076 -4.2593686800746126e-17 5.602766072471796e-17 -4.2593686800746126e-17 5.602766072471796e-17 0.8065480800049432 -0.5911684993639189
12609869333.333334 0.8018983048241728 -0.5974605499277471 -4.2140824533363425e-17 5.63518573580942e-17 -4.2140824533363425e-17 5.63518573580942e-17 0.8018986758647372 -0.5974600519250048
12610486666.666666 0.7971998201450995 -0.6037155346356997 -4.168550108269439e-17 5.667239868567086e-17 -4.168550108269439e-17 5.667239868567086e-17 0.7972001950518383 -0.6037150395750954
12611104000.0 0.7924525463664214 -0.6099335715938441 -4.122774591299061e-17 5.698926607539578e-17 -4.122774591299061e-17 5.698926607539578e-17 0.7924529251160125 -0.6099330795053861
12611721333.333334 0.7876567740241781 -0.6161142802546236 -4.076758862913251e-17 5.730244113240425e-17 -4.076758862913251e-17 5.730244113240425e-17 0.787657156593067 -0.6161137911681354
12612338666.666666 0.7828127966225521 -0.622257282354997 -4.030505897471239e-17 5.761190570008357e-17 -4.030505897471239e-17 5.761190570008357e-17 0.7828131829869527 -0.6222567963001158
12612956000.0 0.777920910615798 -0.628362201939722 -3.984018683011596e-17 5.791764186111734e-17 -3.984018683011596e-17 5.791764186111734e-17 0.7779213007516933 -0.628361718945896
12613573333.333334 0.7729814153903091 -0.6344286653840945 -3.937300221062137e-17 5.821963193849849e-17 -3.937300221062137e-17 5.821963193849849e-17 0.7729818092734548 -0.634428185480582
12614190666.666666 0.7679946132461745 -0.6404563014169722 -3.8903535264442205e-17 5.851785849655872e-17 -3.8903535264442205e-17 5.851785849655872e-17 0.7679950108520994 -0.6404558246328402
12614808000.0 0.7629608093786586 -0.6464447411435191 -3.8431816270802634e-17 5.881230434195553e-17 -3.8431816270802634e-17 5.881230434195553e-17 0.7629612106826655 -0.6464442675076398
12615425333.333334 0.7578803118595572 -0.6523936180677342 -3.795787563799553e-17 5.9102952524651e-17 -3.795787563799553e-17 5.9102952524651e-17 0.7578807168367259 -0.6523931476087855
12616042666.666666 0.7527534316184011 -0.6583025681148218 -3.748174390141963e-17 5.938978633888322e-17 -3.748174390141963e-17 5.938978633888322e-17 0.7527538402435877 -0.6583021008612829
12616660000.0 0.747580482423315 -0.6641712296535979 -3.7003451721624564e-17 5.967278932411238e-17 -3.7003451721624564e-17 5.967278932411238e-17 0.747580894671156 -0.6641707656337501
12617277333.333334 0.7423617808618496 -0.6699992435185804 -3.652302988234735e-17 5.995194526595233e-17 -3.652302988234735e-17 5.995194526595233e-17 0.7423621967067623 -0.6699987827605051
12617894666.666666 0.7370976463217627 -0.6757862530318033 -3.6040509288536916e-17 6.022723819708984e-17 -3.6040509288536916e-17 6.022723819708984e-17 0.7370980657379458 -0.6757857955633777
12618512000.0 0.7317884009711445 -0.6815319040250012 -3.5555920964361225e-17 6.049865239819365e-17 -3.5555920964361225e-17 6.049865239819365e-17 0.7317888239325805 -0.6815314498738986
12619129333.333334 0.7264343697390259 -0.6872358448609266 -3.506929605124052e-17 6.076617239878848e-17 -3.506929605124052e-17 6.076617239878848e-17 0.7264347962194845 -0.6872353940546162
12619746666.666666 0.7210358802953634 -0.6928977264550227 -3.4580665805843204e-17 6.10297829781317e-17 -3.4580665805843204e-17 6.10297829781317e-17 0.7210363102684 -0.6928972790207647
12620364000.0 0.715593263030861 -0.6985172022969034 -3.4090061598074783e-17 6.128946916607325e-17 -3.4090061598074783e-17 6.128946916607325e-17 0.7155936964698213 -0.6985167582617506
12620981333.333334 0.7101068510369913 -0.7040939284713198 -3.35975149090923e-17 6.154521624388258e-17 -3.35975149090923e-17 6.154521624388258e-17 0.7101072879150105 -0.7040934878621133
12621598666.666666 0.7045769800854694 -0.7096275636793483 -3.310305732927922e-17 6.179700974507771e-17 -3.310305732927922e-17 6.179700974507771e-17 0.7045774203754754 -0.7096271265227173
12622216000.0 0.6990039886076642 -0.7151177692593188 -3.260672055622469e-17 6.204483545623228e-17 -3.260672055622469e-17 6.204483545623228e-17 0.6990044322823781 -0.7151173355816781
12622833333.333334 0.6933882176740049 -0.7205642092074198 -3.2108536392700615e-17 6.228867941776479e-17 -3.2108536392700615e-17 6.228867941776479e-17 0.6933886647059437 -0.7205637790349693
12623450666.666666 0.6877300109730501 -0.7259665501983242 -3.160853674464338e-17 6.25285279247061e-17 -3.160853674464338e-17 6.25285279247061e-17 0.6877304613345282 -0.7259661235570463
12624068000.0 0.68202971479041 -0.7313244616056265 -3.1106753619098185e-17 6.276436752746714e-17 -3.1106753619098185e-17 6.276436752746714e-17 0.6820301684535408 -0.7313240385212854
12624685333.333334 0.6762876779875957 -0.7366376155220382 -3.060321912218239e-17 6.299618503257725e-17 -3.060321912218239e-17 6.299618503257725e-17 0.6762881349242931 -0.7366371960201775
12625302666.666666 0.6705042519807515 -0.7419056867793786 -3.009796545705291e-17 6.322396750340288e-17 -3.009796545705291e-17 6.322396750340288e-17 0.6705047121627314 -0.7419052708853201
12625920000.0 0.6646797907189178 -0.7471283529686868 -2.959102492183381e-17 6.344770226086517e-17 -2.959102492183381e-17 6.344770226086517e-17 0.6646802541177019 -0.7471279407075306
12626537333.333334 0.6588146506626227 -0.7523052944597254 -2.9082429907573417e-17 6.366737688412627e-17 -2.9082429907573417e-17 6.366737688412627e-17 0.6588151172495366 -0.7523048858563445
12627154666.666666 0.6529091907620229 -0.7574361944205779 -2.857221289617609e-17 6.388297921126734e-17 -2.857221289617609e-17 6.388297921126734e-17 0.6529096605082013 -0.7574357894996208
12627772000.0 0.646963772434682 -0.7625207388372677 -2.8060406458329334e-17 6.409449733995043e-17 -2.8060406458329334e-17 6.409449733995043e-17 0.6469642453110681 -0.7625203376231537
12628389333.333334 0.640978759543813 -0.7675586165326547 -2.7547043251446408e-17 6.430191962805558e-17 -2.7547043251446408e-17 6.430191962805558e-17 0.6409792355211616 -0.7675582190495746
12629006666.666666 0.6349545183757533 -0.7725495191857048 -2.7032156017567295e-17 6.45052346943162e-17 -2.7032156017567295e-17 6.45052346943162e-17 0.634954997424633 -0.7725491254576193
12629624000.0 0.6288914176176328 -0.7774931413502842 -2.6515777581303175e-17 6.470443141891834e-17 -2.6515777581303175e-17 6.470443141891834e-17 0.6288918997084264 -0.7774927514009212
12630241333.333334 0.6227898283348547 -0.7823891804738172 -2.5997940847728875e-17 6.489949894410345e-17 -2.5997940847728875e-17 6.489949894410345e-17 0.6227903134377621 -0.7823887943266711
12630858666.666666 0.616650123948365 -0.7872373369158213 -2.547867880030938e-17 6.509042667473798e-17 -2.547867880030938e-17 6.509042667473798e-17 0.6166506120334048 -0.7872369545941519
12631476000.0 0.6104726802116206 -0.7920373139663873 -2.4958024498791268e-17 6.527720427887957e-17 -2.4958024498791268e-17 6.527720427887957e-17 0.6104731712486312 -0.7920369354932176
12632093333.333334 0.604257875187947 -0.796788817864053 -2.443601107711769e-17 6.54598216883152e-17 -2.443601107711769e-17 6.54598216883152e-17 0.6042583691465903 -0.796788443262169
12632710666.666666 0.5980060892271396 -0.8014915578139996 -2.3912671741321214e-17 6.56382690990904e-17 -2.3912671741321214e-17 6.56382690990904e-17 0.5980065860768998 -0.8014911871059464
12633328000.0 0.59171770494213 -0.8061452460058713 -2.3388039767414535e-17 6.581253697202008e-17 -2.3388039767414535e-17 6.581253697202008e-17 0.5917182046523196 -0.8061448792139562
12633945333.333334 0.5853931071858514 -0.8107495976311943 -2.286214849928728e-17 6.598261603318009e-17 -2.286214849928728e-17 6.598261603318009e-17 0.5853936097256089 -0.8107492347774802
12634562666.666666 0.5790326830274285 -0.8153043309009876 -2.2335031346591612e-17 6.614849727438394e-17 -2.2335031346591612e-17 6.614849727438394e-17 0.5790331883657233 -0.8153039720072954
12635180000.0 0.5726368217285825 -0.8198091670629423 -2.1806721782624874e-17 6.631017195364356e-17 -2.1806721782624874e-17 6.631017195364356e-17 0.5726373298342162 -0.8198088121508493
12635797333.333334 0.5662059147198566 -0.8242638304184526 -2.127725334221624e-17 6.646763159560955e-17 -2.127725334221624e-17 6.646763159560955e-17 0.5662064255614631 -0.8242634795092885
12636414666.666666 0.5597403555766081 -0.8286680483395148 -2.074665961960128e-17 6.662086799199909e-17 -2.074665961960128e-17 6.662086799199909e-17 0.5597408691226585 -0.8286677014543641
12637032000.0 0.5532405399948579 -0.8330215512854674 -2.0214974266291483e-17 6.67698732020063e-17 -2.0214974266291483e-17 6.67698732020063e-17 0.5532410562136597 -0.8330212084451648
12637649333.333334 0.5467068657672322 -0.8373240728193696 -1.968223098896004e-17 6.691463955269042e-17 -1.968223098896004e-17 6.691463955269042e-17 0.546707384626933 -0.8373237340445012
12638266666.666666 0.5401397327584574 -0.8415753496244237 -1.9148463547298508e-17 6.705515963935517e-17 -1.9148463547298508e-17 6.705515963935517e-17 0.5401402542270458 -0.8415750149353235
12638884000.0 0.5335395428809534 -0.8457751215200356 -1.8613705751889953e-17 6.719142632590553e-17 -1.8613705751889953e-17 6.719142632590553e-17 0.5335400669262624 -0.845774790936788
12639501333.333334 0.5269067000702898 -0.849923131477716 -1.807799146207778e-17 6.732343274518766e-17 -1.807799146207778e-17 6.732343274518766e-17 0.5269072266599966 -0.8499228050201493
12640118666.666666 0.5202416102604609 -0.8540191256368044 -1.7541354583828738e-17 6.745117229931417e-17 -1.7541354583828738e-17 6.745117229931417e-17 0.5202421393620915 -0.8540188033244946
12640736000.0 0.5135446813587309 -0.8580628533202032 -1.700382906757054e-17 6.757463865997673e-17 -1.700382906757054e-17 6.757463865997673e-17 0.5135452129396603 -0.8580625351724704
12641353333.333334 0.5068163232213223 -0.8620540670493173 -1.6465448906093068e-17 6.769382576872652e-17 -1.6465448906093068e-17 6.769382576872652e-17 0.5068168572487765 -0.8620537530852246
12641970666.666666 0.5000569476276777 -0.8659925225595998 -1.59262481323727e-17 6.780872783725572e-17 -1.59262481323727e-17 6.780872783725572e-17 0.5000574840687368 -0.8659922127979525
12642588000.0 0.4932669682555737 -0.8698779788153068 -1.538626081743529e-17 6.791933934765189e-17 -1.538626081743529e-17 6.791933934765189e-17 0.493267507077173 -0.8698776732746509
12643205333.333334 0.48644680065585494 -0.8737101980242259 -1.484552106821394e-17 6.80256550526371e-17 -1.484552106821394e-17 6.80256550526371e-17 0.486447341824787 -0.8737098967228469
12643822666.666666 0.47959686222675385 -0.8774889456523659 -1.430406302539936e-17 6.812766997579029e-17 -1.430406302539936e-17 6.812766997579029e-17 0.47959740570967135 -0.8774886486082891
12644440000.0 0.47271757218854393 -0.8812139904382008 -1.3761920861289153e-17 6.822537941175355e-17 -1.3761920861289153e-17 6.822537941175355e-17 0.47271811795196106 -0.8812136976691889
12645057333.333334 0.46580935155793396 -0.8848851044067958 -1.3219128777643615e-17 6.83187789264194e-17 -1.3219128777643615e-17 6.83187789264194e-17 0.46580989956822855 -0.884884815930348
12645674666.666666 0.45887262312215166 -0.8885020628838423 -1.2675721003530834e-17 6.840786435710294e-17 -1.2675721003530834e-17 6.840786435710294e-17 0.45887317334556765 -0.8885017787171938
12646292000.0 0.4519078114129684 -0.8920646445094603 -1.2131731793168961e-17 6.849263181269708e-17 -1.2131731793168961e-17 6.849263181269708e-17 0.4519083638156167 -0.8920643646695797
12646909333.333334 0.4449153426811185 -0.895572631251532 -1.158719542378726e-17 6.857307767380773e-17 -1.158719542378726e-17 6.857307767380773e-17 0.44491589722898095 -0.8955723557551227
12647526666.666666 0.43789564486981125 -0.8990258084192582 -1.1042146193459262e-17 6.86491985928763e-17 -1.1042146193459262e-17 6.86491985928763e-17 0.43789620152874165 -0.8990255372827564
12648144000.0 0.4308491475886396 -0.9024239646762435 -1.0496618418956858e-17 6.872099149428156e-17 -1.0496618418956858e-17 6.872099149428156e-17 0.43084970632436553 -0.9024236979158163
12648761333.333334 0.42377628208746754 -0.905766892053343 -9.950646433592465e-18 6.878845357442668e-17 -9.950646433592465e-18 6.878845357442668e-17 0.4237768428655926 -0.9057666296848875
12649378666.666666 0.41667748122988185 -0.9090543859614616 -9.40426458507063e-18 6.885158230180719e-17 -9.40426458507063e-18 6.885158230180719e-17 0.4166780440158887 -0.9090541280006061
12649996000.0 0.4095531794666522 -0.912286245204105 -8.857507233329935e-18 6.891037541706406e-17 -8.857507233329935e-18 6.891037541706406e-17 0.4095537442259036 -0.9122859916662055
12650613333.333334 0.402403812809295 -0.9154622719896162 -8.310408748382888e-18 6.896483093301907e-17 -8.310408748382888e-18 6.896483093301907e-17 0.40240437950703645 -0.915462022889757
12651230666.666666 0.3952298188033387 -0.9185822719433077 -7.76300350817576e-18 6.901494713469176e-17 -7.76300350817576e-18 6.901494713469176e-17 0.3952303874047003 -0.9185820272962996
12651848000.0 0.3880316365013627 -0.921646054119434 -7.215325896421138e-18 6.906072257930118e-17 -7.215325896421138e-18 6.906072257930118e-17 0.38803220697136176 -0.9216458139398145
12652465333.333334 0.38080970643644085 -0.9246534310127452 -6.667410300450756e-18 6.910215609624996e-17 -6.667410300450756e-18 6.910215609624996e-17 0.38081027873998324 -0.924653195314776
12653082666.666666 0.37356447059502274 -0.9276042185700264 -6.119291109068847e-18 6.913924678709048e-17 -6.119291109068847e-18 6.913924678709048e-17 0.37356504469690643 -0.9276039873676953
12653700000.0 0.3662963723897019 -0.9304982362014422 -5.571002710386581e-18 6.917199402547578e-17 -5.571002710386581e-18 6.917199402547578e-17 0.3662969482546173 -0.9304980095084586
12654317333.333334 0.35900585663252327 -0.9333353067914001 -5.02257948968695e-18 6.920039745709175e-17 -5.02257948968695e-18 6.920039745709175e-17 0.35900643422505724 -0.9333350846211982
12654934666.666666 0.35169336950731545 -0.9361152567095784 -4.474055827261095e-18 6.922445699957371e-17 -4.474055827261095e-18 6.922445699957371e-17 0.3516939487919518 -0.9361150390753121
12655552000.0 0.34435935854259225 -0.9388379158214599 -3.925466096265495e-18 6.924417284240522e-17 -3.925466096265495e-18 6.924417284240522e-17 0.3443599394837152 -0.938837702736006
12656169333.333334 0.3370042725842187 -0.9415031174987313 -3.3768446605804314e-18 6.925954544679962e-17 -3.3768446605804314e-18 6.925954544679962e-17 0.3370048551461143 -0.9415029089746857
12656786666.666666 0.32962856176778144 -0.9441106986295369 -2.828225872652162e-18 6.927057554556602e-17 -2.828225872652162e-18 6.927057554556602e-17 0.32962914591464026 -0.9441104946792163
12657404000.0 0.32223267749111945 -0.946660499628432 -2.2796440713543527e-18 6.927726414295687e-17 -2.2796440713543527e-18 6.927726414295687e-17 0.3222332631870383 -0.9466603002638706
12658021333.333334 0.31481707238675255 -0.9491523644461317 -1.7311335798492363e-18 6.927961251449917e-17 -1.7311335798492363e-18 6.927961251449917e-17 0.3148176595957373 -0.9491521696790837
12658638666.666666 0.3073822002941264 -0.9515861405790801 -1.182728703444686e-18 6.92776222068092e-17 -1.182728703444686e-18 6.92776222068092e-17 0.3073827889800937 -0.951585950421016
12659256000.0 0.29992851623178335 -0.9539616790788028 -6.344637274414072e-19 6.927129503738964e-17 -6.344637274414072e-19 6.927129503738964e-17 0.29992910635856257 -0.9539614935409095
12659873333.333334 0.29245647636956806 -0.9562788345610002 -8.637291501965633e-20 6.926063309441033e-17 -8.637291501965633e-20 6.926063309441033e-17 0.29245706790090464 -0.956278653654182
12660490666.666666 0.2849665380007923 -0.9585374652144242 4.61509494907294e-19 6.924563873647226e-17 4.61509494907294e-19 6.924563873647226e-17 0.28496713090034853 -0.9585372889492992
12661108000.0 0.27745915951405664 -0.9607374328096113 1.009149289839285e-18 6.922631459235375e-17 1.009149289839285e-18 6.922631459235375e-17 0.2774597537454156 -0.9607372611965159
12661725333.333334 0.2699348003654168 -0.9628786027072843 1.5565122857856915e-18 6.920266356074176e-17 1.5565122857856915e-18 6.920266356074176e-17 0.26993539589208276 -0.962878435756266
12662342666.666666 0.26239392105007175 -0.96496084386664 2.1035643294261335e-18 6.917468880994418e-17 2.1035643294261335e-18 6.917468880994418e-17 0.26239451783547374 -0.9649606815874617
12662960000.0 0.2548369830742636 -0.9669840288533501 2.6502713002192533e-18 6.91423937775871e-17 2.6502713002192533e-18 6.91423937775871e-17 0.25483758108175697 -0.9669838712554869
12663577333.333334 0.2472644489271161 -0.9689480338473365 3.1965991125204068e-18 6.910578217029446e-17 3.1965991125204068e-18 6.910578217029446e-17 0.24726504811998495 -0.9689478809399765
12664194666.666666 0.23967678205213655 -0.9708527386503994 3.742513717712102e-18 6.90648579633514e-17 3.742513717712102e-18 6.90648579633514e-17 0.2396773823935963 -0.9708525904424432
12664812000.0 0.23207444681907446 -0.9726980266935207 4.2879811063116055e-18 6.901962540035062e-17 4.2879811063116055e-18 6.901962540035062e-17 0.23207504827227363 -0.9726978831935799
12665429333.333334 0.22445790849527994 -0.9744837850440475 4.832967310089037e-18 6.897008899282203e-17 4.832967310089037e-18 6.897008899282203e-17 0.22445851102330244 -0.9744836462604444
12666046666.666666 0.21682763321745055 -0.9762099044125541 5.377438404158561e-18 6.891625351984763e-17 5.377438404158561e-18 6.891625351984763e-17 0.21682823678331847 -0.9762097703533223
12666664000.0 0.2091840879628823 -0.9778762791595808 5.921360509116928e-18 6.88581240276551e-17 5.921360509116928e-18 6.88581240276551e-17 0.20918469252955763 -0.9778761498324641
12667281333.333334 0.2015277405211118 -0.97948280730205 6.464699793111832e-18 6.879570582920121e-17 6.464699793111832e-18 6.879570582920121e-17 0.20152834605149889 -0.979482682714501
12667898666.666666 0.19385905946509305 -0.9810293905195493 7.007422473953413e-18 6.872900450373402e-17 7.007422473953413e-18 6.872900450373402e-17 0.19385966592204112 -0.9810292706787316
12668516000.0 0.1861785141226041 -0.982515934160332 7.549494821219862e-18 6.865802589633874e-17 7.549494821219862e-18 6.865802589633874e-17 0.18617912146890891 -0.9825158190731152
12669133333.333334 0.17848657454760652 -0.9839423472470887 8.090883158323833e-18 6.858277611747116e-17 8.090883158323833e-18 6.858277611747116e-17 0.17848718274601347 -0.9839422369200542
12669750666.666666 0.1707837114912843 -0.985308542482562 8.631553864611766e-18 6.850326154247025e-17 8.631553864611766e-18 6.850326154247025e-17 0.17078432050448988 -0.9853084369219969
12670368000.0 0.16307039637342743 -0.9866144362548437 9.171473377449126e-18 6.841948881105569e-17 9.171473377449126e-18 6.841948881105569e-17 0.16307100616408207 -0.986614335466743
12670985333.333334 0.15534710125349777 -0.9878599486425116 9.710608194283693e-18 6.833146482681127e-17 9.710608194283693e-18 6.833146482681127e-17 0.15534771178420798 -0.9878598526325784
