! Parameters = {f0=12700.012000; bw=77.238000; Q=6100.000000; N=10; m_0_1=1.247142; m_1_1=-0.057614; m_1_2=1.081954; m_2_2=-0.058263; m_2_3=0.718917; m_2_8=-0.000579; m_2_9=0.036125; m_3_3=-0.060200; m_3_4=0.607446; m_3_7=0.000021; m_3_8=-0.097067; m_3_9=-0.000579; m_4_4=-0.063125; m_4_5=0.443781; m_4_6=0.003538; m_4_7=-0.117616; m_4_8=0.000021; m_5_5=-0.062743; m_5_6=0.851136; m_5_7=0.003538; m_6_6=-0.062744; m_6_7=0.444123; m_7_7=-0.063111; m_7_8=0.607564; m_8_8=-0.060202; m_8_9=0.719230; m_9_9=-0.058268; m_9_10=1.083032; m_10_10=-0.057624; m_10_11=1.247937}
!
! Created with skrf (http://scikit-rf.org).
# Hz S RI R 50.0 
!freq ReS11 ImS11 ReS21 ImS21 ReS12 ImS12 ReS22 ImS22
12607400000.0 -0.42425154140397964 0.9055443830184013 1.4833484444879376e-17 -9.806339904013444e-17 1.4833484444879376e-17 -9.806339904013444e-17 -0.42425213644589627 0.9055441042383977
12608017333.333334 -0.4153140318918233 0.9096781051083881 1.3855706450265811e-17 -9.818670727339399e-17 1.3855706450265811e-17 -9.818670727339399e-17 -0.41531462962078214 0.9096778322146706
12608634666.666666 -0.40633625073644525 0.9137236186819722 1.2876943405809704e-17 -9.830027317656743e-17 1.2876943405809704e-17 -9.830027317656743e-17 -0.4063368510942262 0.9137233517004248
12609252000.0 -0.3973190684839456 0.9176805314590037 1.1897292312471108e-17 -9.840408935503255e-17 1.1897292312471108e-17 -9.840408935503255e-17 -0.3973196714120792 0.917680270414934
12609869333.333334 -0.38826335950107055 0.921548459750638 1.0916850220862685e-17 -9.84981493792862e-17 1.0916850220862685e-17 -9.84981493792862e-17 -0.388263964940844 0.9215482046687763
12610486666.666666 -0.37917000189045474 0.9253270284965329 9.935714221656762e-18 -9.858244778520051e-17 9.935714221656762e-18 -9.858244778520051e-17 -0.3791706097829176 0.9253267794010286
12611104000.0 -0.3700398774052131 0.9290158713013273 8.953981435975367e-18 -9.865698007418517e-17 8.953981435975367e-18 -9.865698007418517e-17 -0.3700404876911832 0.9290156282157481
12611721333.333334 -0.3608738713638341 0.9326146304700071 7.971749005823127e-18 -9.872174271325073e-17 7.971749005823127e-18 -9.872174271325073e-17 -0.3608744839839021 0.932614393417334
12612338666.666666 -0.3516728725639638 0.9361229570427376 6.989114084471352e-18 -9.877673313498149e-17 6.989114084471352e-18 -9.877673313498149e-17 -0.35167348745850036 0.936122726045365
12612956000.0 -0.34243777319637997 0.9395405108286365 6.00617382685593e-18 -9.882194973741064e-17 6.00617382685593e-18 -9.882194973741064e-17 -0.34243839030554085 0.9395402859083688
12613573333.333334 -0.3331694687586125 0.9428669604387108 5.0230253800322445e-18 -9.885739188379812e-17 5.0230253800322445e-18 -9.885739188379812e-17 -0.3331700880223453 0.9428667416167633
12614190666.666666 -0.32386885796789944 0.9461019833180774 4.039765873553125e-18 -9.888305990231795e-17 4.039765873553125e-18 -9.888305990231795e-17 -0.32386947932594773 0.9461017706150693
12614808000.0 -0.3145368426740635 0.949245265777218 3.0564924099112797e-18 -9.88989550856466e-17 3.0564924099112797e-18 -9.88989550856466e-17 -0.3145374660659746 0.9492450592131757
12615425333.333334 -0.30517432777220005 0.95229650302236 2.0733020549544374e-18 -9.890507969045899e-17 2.0733020549544374e-18 -9.890507969045899e-17 -0.30517495313732934 0.9522963026167108
12616042666.666666 -0.29578222111482344 0.9552553991850615 1.0902918283387494e-18 -9.890143693682754e-17 1.0902918283387494e-18 -9.890143693682754e-17 -0.2957828483923414 0.955255204956635
12616660000.0 -0.28636143342389025 0.9581216673508877 1.0755869396239351e-19 -9.888803100752743e-17 1.0755869396239351e-19 -9.888803100752743e-17 -0.2863620625527874 0.9581214793179116
12617277333.333334 -0.2769128782023527 0.9608950295872694 -8.748004495775198e-19 -9.886486704724743e-17 -8.748004495775198e-19 -9.886486704724743e-17 -0.2769135091214464 0.9608948477673697
12617894666.666666 -0.26743747164587983 0.963575216970367 -1.8566887785178756e-18 -9.883195116170557e-17 -1.8566887785178756e-18 -9.883195116170557e-17 -0.2674381042938196 0.963575041380565
12618512000.0 -0.25793613255360687 0.9661619696112645 -2.8380095534682174e-18 -9.878929041667034e-17 -2.8380095534682174e-18 -9.878929041667034e-17 -0.2579367668688809 0.9661618002679768
12619129333.333334 -0.2484097822394532 0.9686550366810559 -3.818666128895232e-18 -9.87368928368884e-17 -3.818666128895232e-18 -9.87368928368884e-17 -0.2484104181603939 0.9686548736000913
12619746666.666666 -0.2388593444425388 0.971054176435234 -4.7985619626448016e-18 -9.867476740491673e-17 -4.7985619626448016e-18 -9.867476740491673e-17 -0.23885998190732893 0.9710540196317923
12620364000.0 -0.22928574523750173 0.9733591562371591 -5.777600625438876e-18 -9.8602924059861e-17 -5.777600625438876e-18 -9.8602924059861e-17 -0.22928638418418018 0.9733590057258293
12620981333.333334 -0.21968991294511256 0.9755697525805107 -6.7556858103042375e-18 -9.852137369602252e-17 -6.7556858103042375e-18 -9.852137369602252e-17 -0.21969055331158102 0.9755696083752722
12621598666.666666 -0.21007277804187333 0.9776857511110614 -7.732721342064021e-18 -9.843012816144793e-17 -7.732721342064021e-18 -9.843012816144793e-17 -0.21007341976590163 0.9776856132252791
12622216000.0 -0.20043527306998443 0.9797069466474099 -8.708611186770396e-18 -9.832920025638645e-17 -8.708611186770396e-18 -9.832920025638645e-17 -0.20043591608921696 0.9797068150938355
12622833333.333334 -0.19077833254675297 0.9816331432009157 -9.683259461114136e-18 -9.821860373165565e-17 -9.683259461114136e-18 -9.821860373165565e-17 -0.1907789767987147 0.9816330179916861
12623450666.666666 -0.18110289287425407 0.9834641539946466 -1.065657044182681e-17 -9.809835328691283e-17 -1.065657044182681e-17 -9.809835328691283e-17 -0.1811035382963563 0.9834640351412811
12624068000.0 -0.17140989224827985 0.9851998014815384 -1.1628448575071861e-17 -9.796846456883242e-17 -1.1628448575071861e-17 -9.796846456883242e-17 -0.17141053877782678 0.9851996889949394
12624685333.333334 -0.16170027056736586 0.9868399173616107 -1.2598798485820833e-17 -9.782895416918982e-17 -1.2598798485820833e-17 -9.782895416918982e-17 -0.16170091814156037 0.9868398112520629
12625302666.666666 -0.15197496934195967 0.9883843425982322 -1.3567524987149887e-17 -9.767983962286019e-17 -1.3567524987149887e-17 -9.767983962286019e-17 -0.15197561789790964 0.9883842428754008
12625920000.0 -0.14223493160259373 0.9898329274336328 -1.4534533089611385e-17 -9.752113940571209e-17 -1.4534533089611385e-17 -9.752113940571209e-17 -0.14223558107731768 0.9898328341065618
12626537333.333334 -0.13248110180900305 0.9911855314033301 -1.5499728010485264e-17 -9.735287293242317e-17 -1.5499728010485264e-17 -9.735287293242317e-17 -0.13248175213943694 0.9911854444804441
12627154666.666666 -0.1227144257582645 0.992442023349802 -1.6463015183078306e-17 -9.717506055419263e-17 -1.6463015183078306e-17 -9.717506055419263e-17 -0.12271507688126723 0.9924419428389025
12627772000.0 -0.11293585049297233 0.9936022814352131 -1.7424300265970864e-17 -9.698772355636683e-17 -1.7424300265970864e-17 -9.698772355636683e-17 -0.11293650234533217 0.9936022073434789
12628389333.333334 -0.10314632420968826 0.994666193153191 -1.8383489152210202e-17 -9.679088415597872e-17 -1.8383489152210202e-17 -9.679088415597872e-17 -0.10314697672812909 0.9946661254871795
12629006666.666666 -0.0933467961667447 0.9956336553397719 -1.9340487978540357e-17 -9.658456549918439e-17 -1.9340487978540357e-17 -9.658456549918439e-17 -0.09334744928793187 0.9956335941054155
12629624000.0 -0.08353821659239533 0.9965045741833765 -2.0295203134549475e-17 -9.636879165861981e-17 -2.0295203134549475e-17 -9.636879165861981e-17 -0.08353887025294206 0.9965045193859848
12630241333.333334 -0.07372153659253364 0.9972788652339255 -2.1247541271807692e-17 -9.614358763066284e-17 -2.1247541271807692e-17 -9.614358763066284e-17 -0.07372219072900693 0.9972788168781821
12630858666.666666 -0.06389770805866539 0.9979564534110098 -2.2197409312970348e-17 -9.590897933260739e-17 -2.2197409312970348e-17 -9.590897933260739e-17 -0.06389836260759234 0.9979564115009729
12631476000.0 -0.05406768357518157 0.9985372730112002 -2.3144714460880702e-17 -9.566499359973984e-17 -2.3144714460880702e-17 -9.566499359973984e-17 -0.05406833847305551 0.9985372375503044
12632093333.333334 -0.044232416327528244 0.9990212677143857 -2.4089364207592513e-17 -9.541165818233838e-17 -2.4089364207592513e-17 -9.541165818233838e-17 -0.04423307151081487 0.9990212387054389
12632710666.666666 -0.034392860009495735 0.999408390589252 -2.503126634338511e-17 -9.514900174257706e-17 -2.503126634338511e-17 -9.514900174257706e-17 -0.03439351541463923 0.9994083680344356
12633328000.0 -0.02454996873065664 0.9996986040978322 -2.5970328965769662e-17 -9.487705385133456e-17 -2.5970328965769662e-17 -9.487705385133456e-17 -0.024550624294085974 0.9996985879987034
12633945333.333334 -0.014704696923991106 0.9998918800991453 -2.6906460488407802e-17 -9.459584498492928e-17 -2.6906460488407802e-17 -9.459584498492928e-17 -0.014705352582126054 0.9998918704566339
12634562666.666666 -0.004857999253366842 0.9999881998519209 -2.783956965004942e-17 -9.430540652175156e-17 -2.783956965004942e-17 -9.430540652175156e-17 -0.0048586549426242265 0.9999881966663302
12635180000.0 0.0049891694791166594 0.999987554016418 -2.8769565523391715e-17 -9.400577073882001e-17 -2.8769565523391715e-17 -9.400577073882001e-17 0.004988513822316817 0.9999875572874269
12635797333.333334 0.014835854425683762 0.9998899426553356 -2.969635752393432e-17 -9.369697080824168e-17 -2.969635752393432e-17 -9.369697080824168e-17 0.014835198864912079 0.9998899523819953
12636414666.666666 0.024681100785471147 0.9996953752337996 -3.061985541876749e-17 -9.337904079359387e-17 -3.061985541876749e-17 -9.337904079359387e-17 0.024680445384282726 0.9996953914145366
12637032000.0 0.034523953897111784 0.9994038706184508 -3.153996933536492e-17 -9.305201564620611e-17 -3.153996933536492e-17 -9.305201564620611e-17 0.03452329871904003 0.9994038932510652
12637649333.333334 0.04436345933130522 0.9990154570756102 -3.245660977028432e-17 -9.271593120137306e-17 -3.245660977028432e-17 -9.271593120137306e-17 0.04436280443985569 0.9990154861572772
12638266666.666666 0.0541986629833656 0.9985301722685435 -3.336968759786812e-17 -9.23708241744688e-17 -3.336968759786812e-17 -9.23708241744688e-17 0.05419800844200988 0.998530207795813
12638884000.0 0.0640286111657096 0.9979480632538058 -3.4279114078884825e-17 -9.20167321569818e-17 -3.4279114078884825e-17 -9.20167321569818e-17 0.06402795703787914 0.9979481052226039
12639501333.333334 0.07385235070047422 0.9972691864766726 -3.518480086914732e-17 -9.165369361245856e-17 -3.518480086914732e-17 -9.165369361245856e-17 0.07385169704955422 0.9972692348823016
12640118666.666666 0.08366892901160322 0.9964936077656905 -3.608666002804453e-17 -9.12817478723796e-17 -3.608666002804453e-17 -9.12817478723796e-17 0.08366827590092633 0.9964936626028268
12640736000.0 0.09347739421778199 0.995621402326248 -3.698460402711288e-17 -9.090093513191862e-17 -3.698460402711288e-17 -9.090093513191862e-17 0.09347674171062234 0.9956214635889463
12641353333.333334 0.10327679522400171 0.9946526547333445 -3.787854575844493e-17 -9.05112964456664e-17 -3.787854575844493e-17 -9.05112964456664e-17 0.10327614338356883 0.9946527224150381
12641970666.666666 0.11306618181449225 0.993587458923331 -3.876839854318473e-17 -9.011287372321737e-17 -3.876839854318473e-17 -9.011287372321737e-17 0.11306553070392474 0.9935875330168296
12642588000.0 0.1228446047444083 0.9924259181848394 -3.9654076139871893e-17 -8.97057097247175e-17 -3.9654076139871893e-17 -8.97057097247175e-17 0.12284395442676777 0.9924259986823323
12643205333.333334 0.13261111583201582 0.9911681451487525 -4.05354927527908e-17 -8.928984805630832e-17 -4.05354927527908e-17 -8.928984805630832e-17 0.13261046637028104 0.9911682320418099
12643822666.666666 0.1423647680506912 0.9898142617772809 -4.141256304028003e-17 -8.886533316548596e-17 -4.141256304028003e-17 -8.886533316548596e-17 0.14236411950775169 0.9898143550568522
12644440000.0 0.1521046156207224 0.9883643993521332 -4.2285202122947956e-17 -8.843221033639904e-17 -4.2285202122947956e-17 -8.843221033639904e-17 0.15210396805937243 0.9883644990085508
12645057333.333334 0.1618297141008774 0.9868186984618091 -4.3153325591880416e-17 -8.799052568504826e-17 -4.3153325591880416e-17 -8.799052568504826e-17 0.16182906758381 0.9868188044847873
12645674666.666666 0.17153912048009703 0.9851773089879533 -4.401684951678073e-17 -8.754032615441327e-17 -4.401684951678073e-17 -8.754032615441327e-17 0.17153847506989783 0.9851774213665904
12646292000.0 0.18123189326910305 0.9834403900907912 -4.4875690454091936e-17 -8.708165950948414e-17 -4.4875690454091936e-17 -8.708165950948414e-17 0.1812312490282442 0.9834405088135698
12646909333.333334 0.19090709259129915 0.9816081101937618 -4.5729765454993e-17 -8.661457433225073e-17 -4.5729765454993e-17 -8.661457433225073e-17 0.19090644958213335 0.9816082352485509
12647526666.666666 0.20056378027429972 0.979680646967119 -4.657899207342537e-17 -8.613912001657264e-17 -4.657899207342537e-17 -8.613912001657264e-17 0.20056313855905428 0.9796807783411756
12648144000.0 0.2102010199407056 0.9776581873107378 -4.7423288374024333e-17 -8.565534676299182e-17 -4.7423288374024333e-17 -8.565534676299182e-17 0.21020037958147614 0.9776583249907063
12648761333.333334 0.21981787709890097 0.97554092733599 -4.826257294000446e-17 -8.516330557346422e-17 -4.826257294000446e-17 -8.516330557346422e-17 0.21981723815764567 0.9755410713079051
12649378666.666666 0.22941341923364125 0.973329072346737 -4.9096764880976163e-17 -8.466304824602235e-17 -4.9096764880976163e-17 -8.466304824602235e-17 0.22941278177217472 0.9733292225960252
12649996000.0 0.23898671589658696 0.9710228368193997 -4.9925783840743884e-17 -8.415462736934144e-17 -4.9925783840743884e-17 -8.415462736934144e-17 0.23898607997657423 0.9710229933308792
12650613333.333334 0.24853683879655286 0.9686224443821477 -5.074955000501434e-17 -8.363809631724821e-17 -5.074955000501434e-17 -8.363809631724821e-17 0.24853620447950361 0.9686226071400319
12651230666.666666 0.25806286188924593 0.9661281277932875 -5.1567984109060664e-17 -8.311350924314813e-17 -5.1567984109060664e-17 -8.311350924314813e-17 0.25806222923650846 0.9661282967811854
12651848000.0 0.26756386146744665 0.9635401289185933 -5.2381007445338525e-17 -8.258092107437147e-17 -5.2381007445338525e-17 -8.258092107437147e-17 0.26756323054020176 0.9635403041195116
12652465333.333334 0.2770389162502751 0.9608586987079338 -5.3188541871023265e-17 -8.20403875064589e-17 -5.3188541871023265e-17 -8.20403875064589e-17 0.2770382871095303 0.9608588801042786
12653082666.666666 0.2864871074726345 0.9580840971709078 -5.399050981549557e-17 -8.149196499736911e-17 -5.399050981549557e-17 -8.149196499736911e-17 0.2864864801792184 0.958084284744486
12653700000.0 0.29590751897441014 0.9552165933516019 -5.478683428780459e-17 -8.093571076158881e-17 -5.478683428780459e-17 -8.093571076158881e-17 0.295906893588966 0.955216787083623
12654317333.333334 0.3052992372890335 0.9522564653025811 -5.557743888399267e-17 -8.037168276422285e-17 -5.557743888399267e-17 -8.037168276422285e-17 0.30529861387201357 0.952256665173659
12654934666.666666 0.3146613517322762 0.9492040000578625 -5.636224779443501e-17 -7.979993971496144e-17 -5.636224779443501e-17 -7.979993971496144e-17 0.31466073034393666 0.9492042060480198
12655552000.0 0.32399295449066484 0.9460594936050485 -5.714118581109503e-17 -7.922054106199155e-17 -5.714118581109503e-17 -7.922054106199155e-17 0.32399233519105836 0.9460597056937136
12656169333.333334 0.3332931407091007 0.9428232508567517 -5.791417833467662e-17 -7.863354698586699e-17 -5.791417833467662e-17 -7.863354698586699e-17 0.33329252355807243 0.9428234690227663
12656786666.666666 0.3425610085789818 0.9394955856209127 -5.868115138177914e-17 -7.803901839326164e-17 -5.868115138177914e-17 -7.803901839326164e-17 0.3425603936361619 0.9394958098425287
12657404000.0 0.351795659425484 0.9360768205704172 -5.944203159194391e-17 -7.743701691068617e-17 -5.944203159194391e-17 -7.743701691068617e-17 0.3517950467502832 0.9360770508253031
12658021333.333334 0.3609961977947304 0.9325672872118022 -6.019674623465195e-17 -7.682760487812446e-17 -6.019674623465195e-17 -7.682760487812446e-17 0.3609955874463339 0.9325675234770442
12658638666.666666 0.3701617315405947 0.9289673258531219 -6.0945223216253e-17 -7.62108453426061e-17 -6.0945223216253e-17 -7.62108453426061e-17 0.37016112357795633 0.9289675681052252
12659256000.0 0.3792913719113146 0.925277285570906 -6.168739108683878e-17 -7.558680205170182e-17 -6.168739108683878e-17 -7.558680205170182e-17 0.3792907663931509 0.9252775337857974
12659873333.333334 0.3883842336355391 0.9214975241763623 -6.242317904703186e-17 -7.495553944696925e-17 -6.242317904703186e-17 -7.495553944696925e-17 0.3883836306203238 0.9214977783293928
12660490666.666666 0.39743943500811907 0.9176284081807069 -6.315251695471356e-17 -7.431712265732724e-17 -6.315251695471356e-17 -7.431712265732724e-17 0.3974388345540777 0.9176286682466538
12661108000.0 0.40645609797596877 0.913670312759466 -6.387533533171818e-17 -7.367161749233565e-17 -6.387533533171818e-17 -7.367161749233565e-17 0.40645550014107273 0.9136705787125367
12661725333.333334 0.4154333482226856 0.9096236217163226 -6.459156537038783e-17 -7.301909043547287e-17 -6.459156537038783e-17 -7.301909043547287e-17 0.4154327530646467 0.9096238935301552
12662342666.666666 0.42437031525372165 0.9054887274457308 -6.53011389401295e-17 -7.235960863728689e-17 -6.53011389401295e-17 -7.235960863728689e-17 0.42436972282998664 0.9054890050933981
12662960000.0 0.4332661324806344 0.9012660308949316 -6.600398859386972e-17 -7.169323990851328e-17 -6.600398859386972e-17 -7.169323990851328e-17 0.43326554284837954 0.9012663143489446
12663577333.333334 0.4421199373051206 0.8969559415250822 -6.670004757443255e-17 -7.102005271313522e-17 -6.670004757443255e-17 -7.102005271313522e-17 0.4421193505212453 0.8969562307573893
12664194666.666666 0.4509308712027591 0.8925588772714951 -6.738924982086632e-17 -7.034011616136644e-17 -6.738924982086632e-17 -7.034011616136644e-17 0.45093028732388146 0.8925591722534888
12664812000.0 0.45969807980610633 0.8880752645031896 -6.807152997468618e-17 -6.9653500002583e-17 -6.807152997468618e-17 -6.9653500002583e-17 0.45969749888855715 0.888075565205707
12665429333.333334 0.46842071298766996 0.8835055379814858 -6.874682338605959e-17 -6.896027461818254e-17 -6.874682338605959e-17 -6.896027461818254e-17 0.4684201350874875 0.8835058443748129
12666046666.666666 0.4770979249421656 0.8788501408179388 -6.941506611988745e-17 -6.826051101441418e-17 -6.941506611988745e-17 -6.826051101441418e-17 0.4770973501150903 0.8788504528718126
12666664000.0 0.48572887426890904 0.8741095244311722 -7.007619496186309e-17 -6.755428081509893e-17 -7.007619496186309e-17 -6.755428081509893e-17 0.48572830257037763 0.8741098421147832
12667281333.333334 0.4943127240529018 0.8692841485033713 -7.073014742439841e-17 -6.684165625435352e-17 -7.073014742439841e-17 -6.684165625435352e-17 0.4943121555380423 0.8692844717853677
12667898666.666666 0.5028486419463365 0.864374480935525 -7.137686175253304e-17 -6.612271016919679e-17 -7.137686175253304e-17 -6.612271016919679e-17 0.5028480766699626 0.8643748097840142
12668516000.0 0.5113358002492767 0.8593809978020598 -7.201627692973056e-17 -6.539751599213942e-17 -7.201627692973056e-17 -6.539751599213942e-17 0.5113352382658838 0.8593813321846147
12669133333.333334 0.519773375989676 0.8543041833048265 -7.264833268360248e-17 -6.466614774371641e-17 -7.264833268360248e-17 -6.466614774371641e-17 0.5197728173534342 0.8543045231884853
12669750666.666666 0.5281605510035178 0.8491445297259427 -7.327296949158018e-17 -6.39286800249376e-17 -7.327296949158018e-17 -6.39286800249376e-17 0.5281599957682669 0.8491448750772128
12670368000.0 0.5364965120139064 0.8439025373802032 -7.389012858649576e-17 -6.318518800970002e-17 -7.389012858649576e-17 -6.318518800970002e-17 0.5364959602331517 0.8439028881650659
