! Parameters = {f0=12700.012000; bw=77.238000; Q=6100.000000; N=10; m_0_1=1.193689; m_1_1=-0.859415; m_1_2=1.028501; m_2_2=-0.860064; m_2_3=0.665464; m_2_8=-0.003252; m_2_9=0.033452; m_3_3=-0.862001; m_3_4=0.553993; m_3_7=-0.002652; m_3_8=-0.099740; m_3_9=-0.003252; m_4_4=-0.864926; m_4_5=0.390328; m_4_6=0.000865; m_4_7=-0.120289; m_4_8=-0.002652; m_5_5=-0.864544; m_5_6=0.797683; m_5_7=0.000865; m_6_6=-0.864545; m_6_7=0.390670; m_7_7=-0.864912; m_7_8=0.554111; m_8_8=-0.862003; m_8_9=0.665777; m_9_9=-0.860069; m_9_10=1.029579; m_10_10=-0.859425; m_10_11=1.194484}
!
! Created with skrf (http://scikit-rf.org).
# Hz S RI R 50.0 
!freq ReS11 ImS11 ReS21 ImS21 ReS12 ImS12 ReS22 ImS22
12607400000.0 -0.9675661331503308 0.2526178496867585 6.511867498618711e-17 -3.933510166573431e-17 6.511867498618711e-17 -3.933510166573431e-17 -0.9675662920563589 0.252617241050868
12608017333.333334 -0.9654447062087079 0.26060798002637037 6.477504452779677e-17 -3.987002166100877e-17 6.477504452779677e-17 -3.987002166100877e-17 -0.9654448701328049 0.26060737275467655
12608634666.666666 -0.9632572982324241 0.2685802997276878 6.4427025298787e-17 -4.0401947932491846e-17 6.4427025298787e-17 -4.0401947932491846e-17 -0.9632574671628951 0.2685796938615573
12609252000.0 -0.9610040587147425 0.27653426394144454 6.407464331452165e-17 -4.0930844517637073e-17 6.407464331452165e-17 -4.0930844517637073e-17 -0.9610042326395523 0.27653365952214404
12609869333.333334 -0.9586851416480419 0.28446932907278244 6.371792488466473e-17 -4.145667567943987e-17 6.371792488466473e-17 -4.145667567943987e-17 -0.9586853205548156 0.284468726141476
12610486666.666666 -0.9563007055133109 0.29238495281834875 6.33568966112323e-17 -4.1979405908839404e-17 6.33568966112323e-17 -4.1979405908839404e-17 -0.9563008893893351 0.29238435141609465
12611104000.0 -0.9538509132692033 0.3002805942037392 6.299158538661617e-17 -4.249899992711364e-17 6.299158538661617e-17 -4.249899992711364e-17 -0.9538511021014251 0.300279994371487
12611721333.333334 -0.9513359323410707 0.308155713619898 6.262201839160188e-17 -4.301542268824044e-17 6.262201839160188e-17 -4.301542268824044e-17 -0.9513361261161009 0.3081551153984864
12612338666.666666 -0.9487559346093747 0.3160097728604865 6.224822309335621e-17 -4.352863938125494e-17 6.224822309335621e-17 -4.352863938125494e-17 -0.9487561333134849 0.3160091762906391
12612956000.0 -0.9461110963980001 0.32384223515844596 6.187022724338884e-17 -4.403861543260072e-17 6.187022724338884e-17 -4.403861543260072e-17 -0.94611130001713 0.3238416402807709
12613573333.333334 -0.9434015984622215 0.3316525652226574 6.148805887552582e-17 -4.4545316508419175e-17 6.148805887552582e-17 -4.4545316508419175e-17 -0.9434018069819742 0.3316519720776422
12614190666.666666 -0.9406276259763205 0.3394402292746047 6.110174630382051e-17 -4.504870851688304e-17 6.110174630382051e-17 -4.504870851688304e-17 -0.9406278393819657 0.3394396379026148
12614808000.0 -0.9377893685209461 0.34720469508479984 6.071131812048439e-17 -4.554875761045735e-17 6.071131812048439e-17 -4.554875761045735e-17 -0.9377895867974229 0.34720410552607606
12615425333.333334 -0.9348870200701256 0.3549454320092659 6.03168031937719e-17 -4.604543018818132e-17 6.03168031937719e-17 -4.604543018818132e-17 -0.9348872432020396 0.35494484430392054
12616042666.666666 -0.9319207789780705 0.36266191102561396 5.99182306658684e-17 -4.653869289790244e-17 5.99182306658684e-17 -4.653869289790244e-17 -0.9319210069496977 0.36266132521362876
12616660000.0 -0.9288908479655437 0.37035360476941115 5.951562995073898e-17 -4.7028512638519876e-17 5.951562995073898e-17 -4.7028512638519876e-17 -0.9288910807608307 0.37035302089063493
12617277333.333334 -0.9257974341060754 0.3780199875700372 5.910903073197902e-17 -4.75148565621839e-17 5.910903073197902e-17 -4.75148565621839e-17 -0.9257976717086415 0.37801940566418246
12617894666.666666 -0.9226407488117813 0.3856605354866886 5.869846296063362e-17 -4.799769207649383e-17 5.869846296063362e-17 -4.799769207649383e-17 -0.9226409912049187 0.3856599555933297
12618512000.0 -0.9194210078188809 0.3932747263442664 5.828395685299734e-17 -4.8476986846678674e-17 5.828395685299734e-17 -4.8476986846678674e-17 -0.919421254985555 0.39327414850283543
12619129333.333334 -0.916138431173018 0.40086203976890344 5.786554288841746e-17 -4.8952708797734335e-17 5.786554288841746e-17 -4.8952708797734335e-17 -0.9161386830958717 0.40086146401868933
12619746666.666666 -0.9127932432141903 0.4084219572236083 5.744325180704622e-17 -4.942482611658134e-17 5.744325180704622e-17 -4.942482611658134e-17 -0.9127934998755418 0.4084213836037528
12620364000.0 -0.9093856725613864 0.4159539620437822 5.701711460760345e-17 -4.9893307254170405e-17 5.701711460760345e-17 -4.9893307254170405e-17 -0.9093859339432303 0.415953390593277
12620981333.333334 -0.90591595209702 0.42345753947236975 5.658716254511413e-17 -5.0358120927579124e-17 5.658716254511413e-17 -5.0358120927579124e-17 -0.9059162181810335 0.42345697023005574
12621598666.666666 -0.902384318950993 0.43093217669512146 5.615342712862442e-17 -5.0819236122093564e-17 5.615342712862442e-17 -5.0819236122093564e-17 -0.9023845897185321 0.4309316096996842
12622216000.0 -0.898791014484445 0.43837736287571505 5.571594011889921e-17 -5.1276622093272244e-17 5.571594011889921e-17 -5.1276622093272244e-17 -0.8987912899165461 0.4383767981656824
12622833333.333334 -0.8951362842733294 0.4457925891905127 5.527473352611634e-17 -5.1730248368975884e-17 5.527473352611634e-17 -5.1730248368975884e-17 -0.8951365643507144 0.4457920268042533
12623450666.666666 -0.8914203780915871 0.45317734886344013 5.4829839607529786e-17 -5.218008475139357e-17 5.4829839607529786e-17 -5.218008475139357e-17 -0.891420662794661 0.45317678883915946
12624068000.0 -0.8876435498940975 0.46053113720056843 5.4381290865126434e-17 -5.262610131903749e-17 5.4381290865126434e-17 -5.262610131903749e-17 -0.8876438392029514 0.46053057957630733
12624685333.333334 -0.8838060577992722 0.4678534516247084 5.3929120043249386e-17 -5.3068268428736824e-17 5.3929120043249386e-17 -5.3068268428736824e-17 -0.8838063516936846 0.46785289643833977
12625302666.666666 -0.8799081640715053 0.4751437917095806 5.347336012624516e-17 -5.3506556717569214e-17 5.347336012624516e-17 -5.3506556717569214e-17 -0.8799084625309427 0.4751432389988068
12625920000.0 -0.8759501351031432 0.48240165921421674 5.3014044336033695e-17 -5.3940937104835135e-17 5.3014044336033695e-17 -5.3940937104835135e-17 -0.8759504381067629 0.48240110901656763
12626537333.333334 -0.87193224139636 0.4896265581168613 5.2551206129730855e-17 -5.4371380793943253e-17 5.2551206129730855e-17 -5.4371380793943253e-17 -0.8719325489230106 0.4896260104696911
12627154666.666666 -0.8678547575446993 0.4968179946488211 5.208487919720065e-17 -5.479785927432979e-17 5.208487919720065e-17 -5.479785927432979e-17 -0.8678550695729224 0.4968174495893065
12627772000.0 -0.8637179622141113 0.503975477328558 5.1615097458616224e-17 -5.52203443233325e-17 5.1615097458616224e-17 -5.52203443233325e-17 -0.8637182787221425 0.5039749348936945
12628389333.333334 -0.859522138124204 0.511098516994758 5.114189506201276e-17 -5.5638808008039e-17 5.114189506201276e-17 -5.5638808008039e-17 -0.8595224590899758 0.5110979772213592
12629006666.666666 -0.8552675720286669 0.5181866268402076 5.0665306380802814e-17 -5.605322268713361e-17 5.0665306380802814e-17 -5.605322268713361e-17 -0.8552678974298092 0.518186089764901
12629624000.0 -0.8509545546957858 0.525239322444864 5.018536601130254e-17 -5.646356101270066e-17 5.018536601130254e-17 -5.646356101270066e-17 -0.850954884509627 0.525238788104089
12630241333.333334 -0.8465833808885878 0.5322561218089399 4.970210877021633e-17 -5.686979593203083e-17 4.970210877021633e-17 -5.686979593203083e-17 -0.846583715092156 0.5322555902389449
12630858666.666666 -0.8421543493446643 0.5392365453858909 4.921556969214219e-17 -5.727190068937489e-17 4.921556969214219e-17 -5.727190068937489e-17 -0.8421546879146922 0.5392360166227328
12631476000.0 -0.8376677627557129 0.546180116115264 4.872578402701097e-17 -5.766984882772088e-17 4.872578402701097e-17 -5.766984882772088e-17 -0.837668105668636 0.5461795901948034
12632093333.333334 -0.8331239277469237 0.5530863594551779 4.8232787237577156e-17 -5.806361419049432e-17 4.8232787237577156e-17 -5.806361419049432e-17 -0.8331242749788834 0.5530858364130786
12632710666.666666 -0.8285231548560426 0.559954803414735 4.7736614996838344e-17 -5.845317092328528e-17 4.7736614996838344e-17 -5.845317092328528e-17 -0.8285235063828863 0.5599542832864594
12633328000.0 -0.8238657585120199 0.5667849785864648 4.723730318546849e-17 -5.883849347552955e-17 4.723730318546849e-17 -5.883849347552955e-17 -0.8238661143093047 0.566784461407273
12633945333.333334 -0.819152057013617 0.5735764181782629 4.673488788923527e-17 -5.921955660217179e-17 4.673488788923527e-17 -5.921955660217179e-17 -0.8191524170566108 0.5735759039832106
12634562666.666666 -0.8143823725076859 0.5803286580452472 4.6229405396406806e-17 -5.959633536530333e-17 4.6229405396406806e-17 -5.959633536530333e-17 -0.814382736771369 0.5803281468691829
12635180000.0 -0.8095570309670401 0.5870412367216429 4.572089219512879e-17 -5.996880513579143e-17 4.572089219512879e-17 -5.996880513579143e-17 -0.8095573994261058 0.5870407285992043
12635797333.333334 -0.8046763621682889 0.5937136954521549 4.520938497081216e-17 -6.033694159486767e-17 4.520938497081216e-17 -6.033694159486767e-17 -0.8046767347971474 0.5937131904177686
12636414666.666666 -0.7997406996692354 0.6003455782234153 4.469492060348976e-17 -6.070072073570923e-17 4.469492060348976e-17 -6.070072073570923e-17 -0.7997410764420145 0.6003450763112933
12637032000.0 -0.7947503807861148 0.6069364317951021 4.417753616516832e-17 -6.106011886499009e-17 4.417753616516832e-17 -6.106011886499009e-17 -0.7947507616766607 0.6069359330392399
12637649333.333334 -0.7897057465704704 0.6134858057310054 4.365726891716872e-17 -6.141511260441078e-17 4.365726891716872e-17 -6.141511260441078e-17 -0.7897061315523509 0.6134853101651788
12638266666.666666 -0.7846071417859498 0.6199932524296756 4.3134156307445074e-17 -6.176567889221141e-17 4.3134156307445074e-17 -6.176567889221141e-17 -0.7846075308324559 0.6199927600874396
12638884000.0 -0.7794549148846914 0.6264583271550813 4.2608235967911014e-17 -6.21117949846483e-17 4.2608235967911014e-17 -6.21117949846483e-17 -0.7794553079688391 0.6264578380697676
12639501333.333334 -0.7742494179834394 0.6328805880670941 4.2079545711726443e-17 -6.245343845746781e-17 4.2079545711726443e-17 -6.245343845746781e-17 -0.7742498150779701 0.6328801022718074
12640118666.666666 -0.7689910068397084 0.6392595962513937 4.154812353061292e-17 -6.27905872073293e-17 4.154812353061292e-17 -6.27905872073293e-17 -0.7689914079170949 0.6392591137790129
12640736000.0 -0.7636800408270442 0.6455949157499983 4.101400759209026e-17 -6.31232194532501e-17 4.101400759209026e-17 -6.31232194532501e-17 -0.7636804458594869 0.6455944366331696
12641353333.333334 -0.758316882911036 0.6518861135903526 4.047723623680212e-17 -6.34513137379622e-17 4.047723623680212e-17 -6.34513137379622e-17 -0.7583172918704687 0.6518856378614908
12641970666.666666 -0.7529018996239862 0.6581327598155539 3.993784797572099e-17 -6.377484892931644e-17 3.993784797572099e-17 -6.377484892931644e-17 -0.7529023124820775 0.6581322875068389
12642588000.0 -0.747435461040171 0.6643344275133665 3.939588148742699e-17 -6.409380422160929e-17 3.939588148742699e-17 -6.409380422160929e-17 -0.7474358777683258 0.6643339586567416
12643205333.333334 -0.741917940750475 0.6704906928454849 3.885137561532733e-17 -6.440815913691718e-17 3.885137561532733e-17 -6.440815913691718e-17 -0.7419183613198371 0.670490227472655
12643822666.666666 -0.7363497158367295 0.6766011350766501 3.830436936488894e-17 -6.47178935263929e-17 3.830436936488894e-17 -6.47178935263929e-17 -0.7363501402181815 0.6766006732190775
12644440000.0 -0.7307311668461639 0.6826653366031465 3.775490190084791e-17 -6.502298757154608e-17 3.775490190084791e-17 -6.502298757154608e-17 -0.7307315950103319 0.682664878292051
12645057333.333334 -0.7250626777652311 0.6886828829815346 3.7203012544427746e-17 -6.532342178548955e-17 3.7203012544427746e-17 -6.532342178548955e-17 -0.7250631096824843 0.6886824282478899
12645674666.666666 -0.7193446359935162 0.6946533629568056 3.6648740770519674e-17 -6.561917701417813e-17 3.6648740770519674e-17 -6.561917701417813e-17 -0.7193450716339728 0.6946529118313398
12646292000.0 -0.7135774323169723 0.7005763684908023 3.609212620487002e-17 -6.591023443761367e-17 3.609212620487002e-17 -6.591023443761367e-17 -0.7135778716504967 0.700575921003992
12646909333.333334 -0.7077614608816211 0.7064514947896692 3.5533208621265977e-17 -6.619657557102299e-17 3.5533208621265977e-17 -6.619657557102299e-17 -0.7077619038778286 0.7064510509717401
12647526666.666666 -0.7018971191662613 0.7122783403318869 3.497202793869678e-17 -6.647818226601936e-17 3.497202793869678e-17 -6.647818226601936e-17 -0.7018975657945207 0.7122779002128111
12648144000.0 -0.6959848079554644 0.7180565068955505 3.4408624218508007e-17 -6.675503671173983e-17 3.4408624218508007e-17 -6.675503671173983e-17 -0.6959852581848983 0.718056070505044
12648761333.333334 -0.6900249313122024 0.7237855995855649 3.384303766155253e-17 -6.702712143595488e-17 3.384303766155253e-17 -6.702712143595488e-17 -0.6900253851116911 0.7237851669530864
12649378666.666666 -0.6840178965501731 0.7294652268606924 3.3275308605344384e-17 -6.72944193061486e-17 3.3275308605344384e-17 -6.72944193061486e-17 -0.6840183538883561 0.7294647980154412
12649996000.0 -0.6779641142060058 0.7350950005602748 3.270547752116614e-17 -6.755691353059405e-17 3.270547752116614e-17 -6.755691353059405e-17 -0.6779645750512834 0.7350945755311882
12650613333.333334 -0.6718639980110978 0.7406745359308553 3.213358501121368e-17 -6.78145876593811e-17 3.213358501121368e-17 -6.78145876593811e-17 -0.6718644623316337 0.7406741147466067
12651230666.666666 -0.6657179648635697 0.7462034516522631 3.155967180570469e-17 -6.806742558543507e-17 3.155967180570469e-17 -6.806742558543507e-17 -0.6657184326272931 0.7462030343412603
12651848000.0 -0.6595264347995019 0.7516813698639228 3.0983778759982484e-17 -6.831541154550776e-17 3.0983778759982484e-17 -6.831541154550776e-17 -0.6595269059741102 0.7516809564543069
12652465333.333334 -0.6532898309643506 0.7571079161905616 3.0405946851618767e-17 -6.855853012114285e-17 3.0405946851618767e-17 -6.855853012114285e-17 -0.6532903055173117 0.7571075067102045
12653082666.666666 -0.6470085795841842 0.7624827197676691 2.982621717752215e-17 -6.879676623960987e-17 2.982621717752215e-17 -6.879676623960987e-17 -0.6470090574827367 0.7624823142441697
12653700000.0 -0.6406831099361618 0.7678054132671721 2.924463095098884e-17 -6.90301051748363e-17 2.924463095098884e-17 -6.90301051748363e-17 -0.6406835911473213 0.7678050117278586
12654317333.333334 -0.6343138543196748 0.7730756329221374 2.8661229498824804e-17 -6.925853254828148e-17 2.8661229498824804e-17 -6.925853254828148e-17 -0.6343143388102315 0.7730752353940612
12654934666.666666 -0.6279012480264096 0.7782930185519603 2.8076054258382495e-17 -6.948203432981903e-17 2.8076054258382495e-17 -6.948203432981903e-17 -0.6279017357629345 0.7782926250618979
12655552000.0 -0.6214457293107727 0.7834572135868346 2.7489146774640013e-17 -6.970059683857368e-17 2.7489146774640013e-17 -6.970059683857368e-17 -0.6214462202596168 0.7834568241612816
12656169333.333334 -0.6149477393599622 0.7885678650921035 2.69005486972725e-17 -6.991420674373545e-17 2.69005486972725e-17 -6.991420674373545e-17 -0.614948233487261 0.7885674797572766
12656786666.666666 -0.6084077222637485 0.7936246237924341 2.6310301777679235e-17 -7.012285106536299e-17 2.6310301777679235e-17 -7.012285106536299e-17 -0.608408219535424 0.793624242574268
12657404000.0 -0.6018261249841721 0.7986271440956545 2.57184478660546e-17 -7.032651717514313e-17 2.57184478660546e-17 -7.032651717514313e-17 -0.6018266253659341 0.7986267670197994
12658021333.333334 -0.5952033973248789 0.8035750841164546 2.5125028908409525e-17 -7.052519279714223e-17 2.5125028908409525e-17 -7.052519279714223e-17 -0.5952039007822286 0.8035747112082764
12658638666.666666 -0.5885399919006568 0.8084681056995509 2.4530086943633402e-17 -7.071886600851608e-17 2.4530086943633402e-17 -7.071886600851608e-17 -0.5885404983988876 0.8084677369841262
12659256000.0 -0.5818363641060886 0.8133058744430982 2.3933664100488356e-17 -7.090752524021632e-17 2.3933664100488356e-17 -7.090752524021632e-17 -0.5818368736102905 0.8133055099452162
12659873333.333334 -0.5750929720848196 0.8180880597212588 2.3335802594668943e-17 -7.109115927764822e-17 2.3335802594668943e-17 -7.109115927764822e-17 -0.5750934845598804 0.818087699465418
12660490666.666666 -0.5683102766980651 0.8228143347069342 2.2736544725806544e-17 -7.126975726132035e-17 2.2736544725806544e-17 -7.126975726132035e-17 -0.5683107921086723 0.8228139787173399
12661108000.0 -0.5614887414930396 0.8274843763941454 2.213593287448099e-17 -7.144330868746456e-17 2.213593287448099e-17 -7.144330868746456e-17 -0.5614892598036846 0.8274840246947099
12661725333.333334 -0.5546288326715385 0.8320978656199352 2.15340094992442e-17 -7.16118034086269e-17 2.15340094992442e-17 -7.16118034086269e-17 -0.5546293538465176 0.832097518234275
12662342666.666666 -0.5477310190577453 0.8366544870864019 2.0930817133621065e-17 -7.177523163423814e-17 2.0930817133621065e-17 -7.177523163423814e-17 -0.547731543061162 0.8366541440378362
12662960000.0 -0.5407957720664731 0.8411539293820558 2.0326398383106334e-17 -7.193358393115955e-17 2.0326398383106334e-17 -7.193358393115955e-17 -0.540796298862242 0.8411535906936061
12663577333.333334 -0.533823565670737 0.8455958850032486 1.9720795922178055e-17 -7.208685122419767e-17 1.9720795922178055e-17 -7.208685122419767e-17 -0.5338240952225842 0.8455955506976343
12664194666.666666 -0.5268148763695472 0.8499800503750571 1.911405249127672e-17 -7.223502479660247e-17 1.911405249127672e-17 -7.223502479660247e-17 -0.5268154086410154 0.8499797204746977
12664812000.0 -0.5197701831551574 0.8543061258721607 1.850621089381162e-17 -7.237809629053166e-17 1.850621089381162e-17 -7.237809629053166e-17 -0.5197707181096065 0.8543058003991721
12665429333.333334 -0.512689967480494 0.8585738158392064 1.7897313993141545e-17 -7.25160577074963e-17 1.7897313993141545e-17 -7.25160577074963e-17 -0.5126905050811036 0.8585734948153992
12666046666.666666 -0.5055747132261816 0.8627828286110647 1.7287404709564768e-17 -7.264890140877779e-17 1.7287404709564768e-17 -7.264890140877779e-17 -0.5055752534359546 0.8627825120579438
12666664000.0 -0.4984249066673749 0.8669328765328167 1.6676526017293722e-17 -7.277662011582212e-17 1.6676526017293722e-17 -7.277662011582212e-17 -0.4984254494491395 0.8669325644715795
12667281333.333334 -0.4912410364407956 0.8710236759792579 1.606472094144796e-17 -7.289920691060475e-17 1.606472094144796e-17 -7.289920691060475e-17 -0.4912415817572075 0.8710233684307919
12667898666.666666 -0.4840235935110167 0.8750549473744643 1.545203255502806e-17 -7.30166552359736e-17 1.545203255502806e-17 -7.30166552359736e-17 -0.4840241413245628 0.8750546443593482
12668516000.0 -0.47677307113708417 0.8790264152108055 1.483850397587498e-17 -7.31289588959694e-17 1.483850397587498e-17 -7.31289588959694e-17 -0.476773621410083 0.8790261167493039
12669133333.333334 -0.4694899648388259 0.8829378080677501 1.4224178363679308e-17 -7.323611205610976e-17 1.4224178363679308e-17 -7.323611205610976e-17 -0.46949051753343324 0.8829375141798171
12669750666.666666 -0.4621747723629184 0.8867888586304693 1.3609098916916116e-17 -7.333810924366316e-17 1.3609098916916116e-17 -7.333810924366316e-17 -0.4621753274411271 0.8867885693357425
12670368000.0 -0.4548279936488896 0.8905793037080814 1.2993308869840606e-17 -7.343494534788453e-17 1.2993308869840606e-17 -7.343494534788453e-17 -0.45482855107253384 0.8905790190258838
