! Parameters = {f0=12700.012000; bw=77.238000; Q=6100.000000; N=10; m_0_1=1.320616; m_1_1=1.044489; m_1_2=1.155428; m_2_2=1.043840; m_2_3=0.792391; m_2_8=0.003094; m_2_9=0.039798; m_3_3=1.041903; m_3_4=0.680920; m_3_7=0.003694; m_3_8=-0.093394; m_3_9=0.003094; m_4_4=1.038978; m_4_5=0.517255; m_4_6=0.007211; m_4_7=-0.113943; m_4_8=0.003694; m_5_5=1.039360; m_5_6=0.924610; m_5_7=0.007211; m_6_6=1.039359; m_6_7=0.517597; m_7_7=1.038992; m_7_8=0.681038; m_8_8=1.041901; m_8_9=0.792704; m_9_9=1.043835; m_9_10=1.156506; m_10_10=1.044479; m_10_11=1.321411}
!
! Created with skrf (http://scikit-rf.org).
# Hz S RI R 50.0 
!freq ReS11 ImS11 ReS21 ImS21 ReS12 ImS12 ReS22 ImS22
12607400000.0 -0.032394494277530876 0.9994751606419804 -3.529678095719412e-17 -1.3506844924375408e-16 -3.529678095719412e-17 -1.3506844924375408e-16 -0.032395189595446884 0.999475138105438
12608017333.333334 -0.020379473936707727 0.9997923169548126 -3.6922326882810066e-17 -1.3460482543042613e-16 -3.6922326882810066e-17 -1.3460482543042613e-16 -0.02038016944121672 0.9997923027776099
12608634666.666666 -0.00836150955331583 0.9999650419678677 -3.854182345259675e-17 -1.3412164994037106e-16 -3.854182345259675e-17 -1.3412164994037106e-16 -0.00836220514393097 0.9999650361512347
12609252000.0 0.0036576627418633788 0.9999933107291646 -4.0155035646382206e-17 -1.3361900125427984e-16 -4.0155035646382206e-17 -1.3361900125427984e-16 0.0036569671656315303 0.9999933132731232
12609869333.333334 0.015676306643582362 0.999877119155062 -4.176172945708052e-17 -1.3309696067615698e-16 -4.176172945708052e-17 -1.3309696067615698e-16 0.015675611182211325 0.9998771300584254
12610486666.666666 0.02769268592278589 0.9996164840308461 -4.336167192456856e-17 -1.325556123203067e-16 -4.336167192456856e-17 -1.325556123203067e-16 0.02769199067672677 0.9996165032912218
12611104000.0 0.039705064677883616 0.9992114430083021 -4.4954631169456223e-17 -1.319950430978924e-16 -4.4954631169456223e-17 -1.319950430978924e-16 0.03970436974754658 0.9992114706220898
12611721333.333334 0.051711707584838805 0.9986620546002883 -4.6540376426591173e-17 -1.3141534270312303e-16 -4.6540376426591173e-17 -1.3141534270312303e-16 0.051711013070578536 0.9986620905626805
12612338666.666666 0.06371088014839522 0.9979683981722696 -4.811867807847734e-17 -1.308166035990068e-16 -4.811867807847734e-17 -1.308166035990068e-16 0.06371018615049659 0.997968442477255
12612956000.0 0.07570084895261608 0.9971305739308479 -4.9689307688474304e-17 -1.3019892100271663e-16 -4.9689307688474304e-17 -1.3019892100271663e-16 0.0757001555712794 0.9971306265712095
12613573333.333334 0.08767988191089822 0.9961487029093097 -5.125203803377793e-17 -1.2956239287057196e-16 -5.125203803377793e-17 -1.2956239287057196e-16 0.08767918924622506 0.9961487638766279
12614190666.666666 0.09964624851658883 0.9950229269501178 -5.280664313827998e-17 -1.2890711988259655e-16 -5.280664313827998e-17 -1.2890711988259655e-16 0.09964555666856739 0.9950229962347708
12614808000.0 0.11159822009280651 0.9937534086844311 -5.435289830517358e-17 -1.282332054267078e-16 -5.435289830517358e-17 -1.282332054267078e-16 0.1115975291612973 0.9937534862755967
12615425333.333334 0.12353407004219669 0.9923403315086106 -5.58905801493986e-17 -1.2754075558249828e-16 -5.58905801493986e-17 -1.2754075558249828e-16 0.1235333801269179 0.9923404173942668
12616042666.666666 0.13545207409635776 0.9907838995577215 -5.741946662984199e-17 -1.2682987910464593e-16 -5.741946662984199e-17 -1.2682987910464593e-16 0.13545138529687112 0.9907839937246502
12616660000.0 0.1473505105649312 0.9890843376760462 -5.893933708136512e-17 -1.261006874059238e-16 -5.893933708136512e-17 -1.261006874059238e-16 0.14734982298062774 0.9890844401098354
12617277333.333334 0.15922766058434787 0.9872418913846008 -6.04499722466023e-17 -1.2535329453983284e-16 -6.04499722466023e-17 -1.2535329453983284e-16 0.1592269743144331 0.9872420020696446
12617894666.666666 0.17108180836599637 0.9852568268456859 -6.195115430752303e-17 -1.2458781718286366e-16 -6.195115430752303e-17 -1.2458781718286366e-16 0.17108112350947613 0.985256945765187
12618512000.0 0.18291124144439627 0.9831294308243852 -6.344266691682729e-17 -1.2380437461635193e-16 -6.344266691682729e-17 -1.2380437461635193e-16 0.18291055810006282 0.9831295579603601
12619129333.333334 0.19471425092419173 0.9808600106472084 -6.492429522902531e-17 -1.23003088708005e-16 -6.492429522902531e-17 -1.23003088708005e-16 0.194713569190609 0.9808601459804875
12619746666.666666 0.2064891317272999 0.9784488941576429 -6.639582593136916e-17 -1.2218408389301237e-16 -6.639582593136916e-17 -1.2218408389301237e-16 0.20648845170278998 0.9784490376678766
12620364000.0 0.21823418283922938 0.9758964296687962 -6.785704727451256e-17 -1.2134748715480573e-16 -6.785704727451256e-17 -1.2134748715480573e-16 0.2182335046218572 0.9758965813344523
12620981333.333334 0.22994770755455854 0.9732029859131198 -6.930774910289885e-17 -1.2049342800547107e-16 -6.930774910289885e-17 -1.2049342800547107e-16 0.2299470312421189 0.9732031457114929
12621598666.666666 0.24162801372232426 0.9703689519890946 -7.074772288496534e-17 -1.1962203846576268e-16 -7.074772288496534e-17 -1.1962203846576268e-16 0.2416273394123269 0.9703691198963051
12622216000.0 0.25327341399033165 0.9673947373050428 -7.217676174306341e-17 -1.1873345304477645e-16 -7.217676174306341e-17 -1.1873345304477645e-16 0.2532727417799875 0.9673949132960421
12622833333.333334 0.26488222604896655 0.9642807715199735 -7.359466048311798e-17 -1.178278087192715e-16 -7.359466048311798e-17 -1.178278087192715e-16 0.26488155603517416 0.9642809555685494
12623450666.666666 0.27645277287411507 0.9610275044815437 -7.500121562402225e-17 -1.1690524491264221e-16 -7.500121562402225e-17 -1.1690524491264221e-16 0.27645210515344604 0.9610276965603219
12624068000.0 0.2879833829695387 0.957635406161045 -7.639622542683372e-17 -1.1596590347350076e-16 -7.639622542683372e-17 -1.1596590347350076e-16 0.2879827176382238 0.9576356062414937
12624685333.333334 0.29947239060850295 0.9541049665854585 -7.777948992362538e-17 -1.1500992865395935e-16 -7.777948992362538e-17 -1.1500992865395935e-16 0.2994717277624184 0.9541051746378918
12625302666.666666 0.3109181360738393 0.9504366957668356 -7.915081094608169e-17 -1.1403746708756322e-16 -7.915081094608169e-17 -1.1403746708756322e-16 0.31091747580849294 0.9504369117604204
12625920000.0 0.3223189658984979 0.9466311236283825 -8.05099921538804e-17 -1.1304866776683947e-16 -8.05099921538804e-17 -1.1304866776683947e-16 0.32231830830901564 0.9466313475311411
12626537333.333334 0.3336732331037585 0.9426887999281067 -8.185683906270481e-17 -1.1204368202057222e-16 -8.185683906270481e-17 -1.1204368202057222e-16 0.3336725782848707 0.9426890317069234
12627154666.666666 0.3449792974373208 0.938610294179359 -8.319115907203814e-17 -1.1102266349069969e-16 -8.319115907203814e-17 -1.1102266349069969e-16 0.34497864548334733 0.9386105337999807
12627772000.0 0.35623552561065575 0.9343961955684058 -8.451276149266972e-17 -1.0998576810887934e-16 -8.451276149266972e-17 -1.0998576810887934e-16 0.3562348766154943 0.9343964429954521
12628389333.333334 0.36744029153431257 0.9300471128695519 -8.582145757384839e-17 -1.0893315407277594e-16 -8.582145757384839e-17 -1.0893315407277594e-16 0.3674396455914243 0.9300473680665188
12629006666.666666 0.3785919765533592 0.925563674357 -8.711706053022831e-17 -1.0786498182195845e-16 -8.711706053022831e-17 -1.0786498182195845e-16 0.3785913337557546 0.9255639372862627
12629624000.0 0.389688969680895 0.9209465277142058 -8.839938556845124e-17 -1.0678141401352952e-16 -8.839938556845124e-17 -1.0678141401352952e-16 0.38968833012112164 0.9209467983370275
12630241333.333334 0.4007296678309358 0.9161963399402541 -8.966824991345061e-17 -1.0568261549741907e-16 -8.966824991345061e-17 -1.0568261549741907e-16 0.4007290316010642 0.9161966182167902
12630858666.666666 0.41171247604984074 0.9113137972535691 -9.09234728344271e-17 -1.0456875329138826e-16 -9.09234728344271e-17 -1.0456875329138826e-16 0.4117118432414516 0.9113140831428734
12631476000.0 0.4226358077470076 0.9062996049926569 -9.216487567059315e-17 -1.0343999655565424e-16 -9.216487567059315e-17 -1.0343999655565424e-16 0.42263517845117815 0.906299898452687
12632093333.333334 0.43349808492373443 0.9011544875143578 -9.339228185648081e-17 -1.0229651656732094e-16 -9.339228185648081e-17 -1.0229651656732094e-16 0.4334974592310263 0.9011547885019832
12632710666.666666 0.4442977384013394 0.8958791880891446 -9.460551694701521e-17 -1.0113848669443667e-16 -9.460551694701521e-17 -1.0113848669443667e-16 0.4442971164017844 0.8958794965601504
12633328000.0 0.4550332080479701 0.8904744687936775 -9.580440864228981e-17 -9.996608236973307e-17 -9.580440864228981e-17 -9.996608236973307e-17 0.4550325898310578 0.8904747847027731
12633945333.333334 0.46570294300375337 0.8849411104008293 -9.69887868119228e-17 -9.877948106416067e-17 -9.69887868119228e-17 -9.877948106416067e-17 0.4657023286584181 0.8849414337016526
12634562666.666666 0.4763054019049618 0.8792799122668288 -9.815848351916948e-17 -9.757886226005819e-17 -9.815848351916948e-17 -9.757886226005819e-17 0.4763047915195703 0.8792802429119561
12635180000.0 0.48683905310665715 0.8734916922158017 -9.931333304466967e-17 -9.636440742407008e-17 -9.931333304466967e-17 -9.636440742407008e-17 0.4868384467689946 0.8734920301567509
12635797333.333334 0.49730237490397533 0.8675772864216058 -1.0045317190986842e-16 -9.513629997977495e-17 -1.0045317190986842e-16 -9.513629997977495e-17 0.4973017727012349 0.8675776316088484
12636414666.666666 0.5076938557518582 0.8615375492870994 -1.0157783890008716e-16 -9.389472528005341e-17 -1.0157783890008716e-16 -9.389472528005341e-17 0.507693257770627 0.8615379016700643
12637032000.0 0.5180119944835611 0.855373353320626 -1.026871750872797e-16 -9.263987057915421e-17 -1.026871750872797e-16 -9.263987057915421e-17 0.5180114008098075 0.8553737128477068
12637649333.333334 0.5282553005274125 0.8490855890100266 -1.0378102385241828e-16 -9.13719250045222e-17 -1.0378102385241828e-16 -9.13719250045222e-17 0.528254711246474 0.8490859556285891
12638266666.666666 0.5384222941221457 0.8426751646939973 -1.0485923090754299e-16 -9.00910795283509e-17 -1.0485923090754299e-16 -9.00910795283509e-17 0.5384217093187177 0.8426755383503902
12638884000.0 0.5485115065307646 0.8361430064308146 -1.0592164431747137e-16 -8.87975269388643e-17 -1.0592164431747137e-16 -8.87975269388643e-17 0.5485109262888869 0.8361433870703737
12639501333.333334 0.5585214802526197 0.8294900578646099 -1.0696811452113133e-16 -8.749146181137014e-17 -1.0696811452113133e-16 -8.749146181137014e-17 0.558520904655665 0.8294904454316682
12640118666.666666 0.5684507692337981 0.8227172800891642 -1.0799849435254694e-16 -8.617308047905478e-17 -1.0799849435254694e-16 -8.617308047905478e-17 0.5684501983644613 0.8227176745270608
12640736000.0 0.5782979390766135 0.8158256515086736 -1.0901263906150489e-16 -8.484258100347836e-17 -1.0901263906150489e-16 -8.484258100347836e-17 0.5782973730168962 0.8158260527597574
12641353333.333334 0.5880615672460164 0.8088161676969416 -1.100104063337657e-16 -8.350016314494973e-17 -1.100104063337657e-16 -8.350016314494973e-17 0.5880610060772198 0.8088165757025867
12641970666.666666 0.5977402432757117 0.8016898412531515 -1.1099165631101775e-16 -8.214602833252383e-17 -1.1099165631101775e-16 -8.214602833252383e-17 0.59773968707842 0.801690255953758
12642588000.0 0.607332568971652 0.7944477016557501 -1.1195625161038963e-16 -8.078037963386305e-17 -1.1195625161038963e-16 -8.078037963386305e-17 0.6073320178257254 0.7944481229907602
12643205333.333334 0.6168371586140526 0.7870907951137228 -1.1290405734361849e-16 -7.940342172483588e-17 -1.1290405734361849e-16 -7.940342172483588e-17 0.6168366125986134 0.7870912230216252
12643822666.666666 0.6262526391576614 0.7796201844153822 -1.1383494113584925e-16 -7.801536085888506e-17 -1.1383494113584925e-16 -7.801536085888506e-17 0.6262520983510829 0.7796206188337215
12644440000.0 0.6355776504299979 0.7720369487749229 -1.147487731440525e-16 -7.661640483618674e-17 -1.147487731440525e-16 -7.661640483618674e-17 0.6355771149098937 0.7720373896403108
12645057333.333334 0.6448108453278715 0.7643421836765046 -1.15645426075043e-16 -7.52067629726234e-17 -1.15645426075043e-16 -7.52067629726234e-17 0.6448103151710828 0.7643426309246256
12645674666.666666 0.6539508900119815 0.7565370007159911 -1.1652477520315875e-16 -7.378664606848949e-17 -1.1652477520315875e-16 -7.378664606848949e-17 0.6539503652945694 0.7565374542816169
12646292000.0 0.6629964640997632 0.7486225274402463 -1.1738669838754977e-16 -7.235626637699635e-17 -1.1738669838754977e-16 -7.235626637699635e-17 0.6629959448969932 0.7486229872572392
12646909333.333334 0.6719462608558437 0.7405999071844794 -1.1823107608902086e-16 -7.091583757267738e-17 -1.1823107608902086e-16 -7.091583757267738e-17 0.6719457472421798 0.7406003731858081
12647526666.666666 0.6807989873810386 0.7324702989069004 -1.1905779138658267e-16 -6.946557471944045e-17 -1.1905779138658267e-16 -6.946557471944045e-17 0.6807984794301274 0.7324707710246436
12648144000.0 0.689553364799072 0.7242348770213217 -1.1986672999353887e-16 -6.800569423854887e-17 -1.1986672999353887e-16 -6.800569423854887e-17 0.6895528625837374 0.7242353551866842
12648761333.333334 0.6982081284413523 0.7158948312274886 -1.2065778027320815e-16 -6.653641387637338e-17 -1.2065778027320815e-16 -6.653641387637338e-17 0.698207632033582 0.7158953153708076
12649378666.666666 0.7067620280294604 0.7074513663394079 -1.21430833254248e-16 -6.505795267196918e-17 -1.21430833254248e-16 -6.505795267196918e-17 0.7067615375003953 0.7074518563901625
12649996000.0 0.7152138278560736 0.6989057021110023 -1.2218578264559248e-16 -6.357053092445487e-17 -1.2218578264559248e-16 -6.357053092445487e-17 0.7152133432759993 0.6989061979978268
12650613333.333334 0.7235623069633144 0.6902590730600631 -1.229225248509766e-16 -6.207437016024779e-17 -1.229225248509766e-16 -6.207437016024779e-17 0.7235618284016497 0.6902595747107545
12651230666.666666 0.7318062593190521 0.6815127282899905 -1.2364095898305926e-16 -6.056969310013555e-17 -1.2364095898305926e-16 -6.056969310013555e-17 0.7318057868443405 0.6815132356315214
12651848000.0 0.7399444939914059 0.6726679313090621 -1.2434098687716782e-16 -5.905672362613649e-17 -1.2434098687716782e-16 -5.905672362613649e-17 0.7399440276713041 0.6726684442675891
12652465333.333334 0.7479758353205088 0.6637259598481878 -1.2502251310460484e-16 -5.753568674826949e-17 -1.2502251310460484e-16 -5.753568674826949e-17 0.7479753752217783 0.663726478349064
12653082666.666666 0.7558991230883346 0.6546881056763569 -1.2568544498556482e-16 -5.600680857114396e-17 -1.2568544498556482e-16 -5.600680857114396e-17 0.7558986692768321 0.6546886296441422
12653700000.0 0.7637132126866626 0.6455556744136225 -1.2632969260166606e-16 -5.44703162603445e-17 -1.2632969260166606e-16 -5.44703162603445e-17 0.7637127652273291 0.6455562037720938
12654317333.333334 0.7714169752819744 0.636329985342999 -1.2695516880801123e-16 -5.292643800881695e-17 -1.2695516880801123e-16 -5.292643800881695e-17 0.7714165342388277 0.6363305200151621
12654934666.666666 0.7790092979788099 0.6270123712195573 -1.275617892449131e-16 -5.1375403002941116e-17 -1.275617892449131e-16 -5.1375403002941116e-17 0.7790088634149352 0.627012911127659
12655552000.0 0.786489083980518 0.6176041780779151 -1.2814947234915278e-16 -4.98174413885965e-17 -1.2814947234915278e-16 -4.98174413885965e-17 0.7864886559580573 0.6176047231434517
12656169333.333334 0.7938552527475353 0.6081067650379803 -1.287181393648362e-16 -4.825278423707648e-17 -1.287181393648362e-16 -4.825278423707648e-17 0.7938548313276805 0.6081073151817123
12656786666.666666 0.8011067401536666 0.5985215041083953 -1.2926771435385312e-16 -4.6681663510832384e-17 -1.2926771435385312e-16 -4.6681663510832384e-17 0.80110632539665 0.5985220592503571
12657404000.0 0.8082424986397173 0.5888497799884423 -1.2979812420589832e-16 -4.5104312029151127e-17 -1.2979812420589832e-16 -4.5104312029151127e-17 0.8082420906048017 0.5888503400479532
12658021333.333334 0.81526149736486 0.5790929898679635 -1.3030929864808572e-16 -4.352096343369561e-17 -1.3030929864808572e-16 -4.352096343369561e-17 0.8152610961103325 0.579093554763641
12658638666.666666 0.8221627223554688 0.5692525432256361 -1.3080117025413357e-16 -4.193185215396375e-17 -1.3080117025413357e-16 -4.193185215396375e-17 0.8221623279386314 0.5692531128754071
12659256000.0 0.8289451766517656 0.5593298616251278 -1.3127367445314667e-16 -4.0337213372589636e-17 -1.3127367445314667e-16 -4.0337213372589636e-17 0.8289447891289261 0.5593304359462402
12659873333.333334 0.8356078804516895 0.5493263785099403 -1.3172674953795447e-16 -3.8737282990618745e-17 -1.3172674953795447e-16 -3.8737282990618745e-17 0.8356074998781553 0.5493269574189757
12660490666.666666 0.8421498712524483 0.5392435389963388 -1.3216033667303687e-16 -3.713229759266183e-17 -1.3216033667303687e-16 -3.713229759266183e-17 0.8421494976825177 0.5392441224092241
12661108000.0 0.8485702039897154 0.5290827996643478 -1.325743799020414e-16 -3.5522494411901874e-17 -1.325743799020414e-16 -3.5522494411901874e-17 0.8485698374766687 0.5290833874963673
12661725333.333334 0.8548679511739385 0.5188456283476656 -1.32968826154835e-16 -3.3908111295170046e-17 -1.32968826154835e-16 -3.3908111295170046e-17 0.8548675917700324 0.5188462205134735
12662342666.666666 0.8610422030244961 0.5085335039213571 -1.3334362525418102e-16 -3.22893866677574e-17 -1.3334362525418102e-16 -3.22893866677574e-17 0.8610418507809551 0.5085341003349904
12662960000.0 0.8670920676010487 0.498147916088333 -1.3369872992194837e-16 -3.066655949830975e-17 -1.3369872992194837e-16 -3.066655949830975e-17 0.8670917225680577 0.4981485166632227
12663577333.333334 0.8730166709323899 0.4876903651641456 -1.34034095784915e-16 -2.903986926357373e-17 -1.34034095784915e-16 -2.903986926357373e-17 0.8730163331590876 0.48769096981313076
12664194666.666666 0.8788151571427583 0.477162361860153 -1.343496813801375e-16 -2.7409555913108705e-17 -1.343496813801375e-16 -2.7409555913108705e-17 0.8788148266772294 0.47716297049549206
12664812000.0 0.8844866885753941 0.46656542706542736 -1.3464544815989222e-16 -2.5775859833939177e-17 -1.3464544815989222e-16 -2.5775859833939177e-17 0.8844863654646637 0.46656603959881193
12665429333.333334 0.8900304459136301 0.45590109162689657 -1.349213604961885e-16 -2.4139021815153197e-17 -1.349213604961885e-16 -2.4139021815153197e-17 0.890030130203656 0.45590170796946367
12666046666.666666 0.8954456282991077 0.4451708961284735 -1.351773856848482e-16 -2.249928301247859e-17 -1.351773856848482e-16 -2.249928301247859e-17 0.8954453200347741 0.4451715161908184
12666664000.0 0.9007314534477407 0.43437639066796957 -1.3541349394916564e-16 -2.08568849127579e-17 -1.3541349394916564e-16 -2.08568849127579e-17 0.9007311526728521 0.4343770143601592
12667281333.333334 0.9058871577624167 0.42351913463377333 -1.3562965844312136e-16 -1.921206929848467e-17 -1.3562965844312136e-16 -1.921206929848467e-17 0.9058868645196928 0.4235197618653596
12667898666.666666 0.9109119964435031 0.41260069647920156 -1.3582585525417957e-16 -1.756507821222186e-17 -1.3582585525417957e-16 -1.756507821222186e-17 0.9109117107745682 0.4126013271592325
12668516000.0 0.9158052435964175 0.4016226534959373 -1.3600206340565022e-16 -1.5916153921015046e-17 -1.3600206340565022e-16 -1.5916153921015046e-17 0.9158049655418002 0.4016232875329725
12669133333.333334 0.9205661923363924 0.39058659158640857 -1.3615826485861216e-16 -1.4265538880860167e-17 -1.3615826485861216e-16 -1.4265538880860167e-17 0.9205659219355171 0.39058722888853176
12669750666.666666 0.9251941548907077 0.3794941050344275 -1.3629444451341798e-16 -1.2613475701045288e-17 -1.3629444451341798e-16 -1.2613475701045288e-17 0.9251938921818892 0.3794947455092595
12670368000.0 0.9296884626979998 0.36834679627498085 -1.3641059021075883e-16 -1.0960207108557252e-17 -1.3641059021075883e-16 -1.0960207108557252e-17 0.9296882077184377 0.36834743982969315
