! Parameters = {f0=12700.012000; bw=77.238000; Q=6100.000000; N=10; m_0_1=1.185080; m_1_1=-0.988544; m_1_2=1.019892; m_2_2=-0.989193; m_2_3=0.656855; m_2_8=-0.003682; m_2_9=0.033022; m_3_3=-0.991130; m_3_4=0.545384; m_3_7=-0.003082; m_3_8=-0.100170; m_3_9=-0.003682; m_4_4=-0.994055; m_4_5=0.381719; m_4_6=0.000435; m_4_7=-0.120719; m_4_8=-0.003082; m_5_5=-0.993673; m_5_6=0.789074; m_5_7=0.000435; m_6_6=-0.993674; m_6_7=0.382061; m_7_7=-0.994041; m_7_8=0.545502; m_8_8=-0.991132; m_8_9=0.657168; m_9_9=-0.989198; m_9_10=1.020970; m_10_10=-0.988554; m_10_11=1.185875}
!
! Created with skrf (http://scikit-rf.org).
# Hz S RI R 50.0 
!freq ReS11 ImS11 ReS21 ImS21 ReS12 ImS12 ReS22 ImS22
12607400000.0 -0.23090163904065777 0.9729770979258372 -4.0019065917114675e-18 -7.268216769763104e-17 -4.0019065917114675e-18 -7.268216769763104e-17 -0.23090224668072906 0.9729769537237963
12608017333.333334 -0.2230983404174047 0.9747959430069691 -4.5896808873142045e-18 -7.26331332085437e-17 -4.5896808873142045e-18 -7.26331332085437e-17 -0.22309894916356324 0.9747958036850388
12608634666.666666 -0.2152807189571774 0.9765522065128551 -5.176923664575971e-18 -7.257934994914186e-17 -5.176923664575971e-18 -7.257934994914186e-17 -0.21528132877023562 0.9765520720795017
12609252000.0 -0.20744927654873602 0.9782457756920049 -5.7635965936149395e-18 -7.252082330922547e-17 -5.7635965936149395e-18 -7.252082330922547e-17 -0.2074498873894413 0.9782456461553789
12609869333.333334 -0.19960451596802858 0.9798765418179044 -6.3496613969522406e-18 -7.245755898767846e-17 -6.3496613969522406e-18 -7.245755898767846e-17 -0.19960512779706663 0.9798764171858426
12610486666.666666 -0.19174694084616423 0.9814444001959483 -6.935079851993704e-18 -7.238956299197481e-17 -6.935079851993704e-18 -7.238956299197481e-17 -0.19174755362416077 0.9814442804759707
12611104000.0 -0.18387705563674522 0.9829492501702249 -7.519813793529683e-18 -7.231684163766223e-17 -7.519813793529683e-18 -7.231684163766223e-17 -0.18387766932426938 0.9829491353695375
12611721333.333334 -0.17599536558387233 0.9843909951299057 -8.103825116199276e-18 -7.223940154782906e-17 -8.103825116199276e-18 -7.223940154782906e-17 -0.17599598014143822 0.9843908852553953
12612338666.666666 -0.16810237668940048 0.9857695425155014 -8.687075776978442e-18 -7.215724965254806e-17 -8.687075776978442e-18 -7.215724965254806e-17 -0.16810299207747062 0.98576943757374
12612956000.0 -0.16019859568056619 0.9870848038247885 -9.269527797652728e-18 -7.207039318830119e-17 -9.269527797652728e-18 -7.207039318830119e-17 -0.16019921185955338 0.9870847038220296
12613573333.333334 -0.15228452997753908 0.9883366946184724 -9.851143267264376e-18 -7.197883969738753e-17 -9.851143267264376e-18 -7.197883969738753e-17 -0.15228514690780937 0.9883365995606525
12614190666.666666 -0.1443606876606779 0.9895251345256381 -1.0431884344592885e-17 -7.188259702730599e-17 -1.0431884344592885e-17 -7.188259702730599e-17 -0.14436130530255303 0.9895250444183759
12614808000.0 -0.13642757743802456 0.9906500472488956 -1.101171326059945e-17 -7.178167333012292e-17 -1.101171326059945e-17 -7.178167333012292e-17 -0.1364281957517843 0.9906499620974903
12615425333.333334 -0.12848570861261605 0.9917113605692741 -1.159059232087983e-17 -7.167607706181687e-17 -1.159059232087983e-17 -7.167607706181687e-17 -0.12848632755850117 0.9917112803787078
12616042666.666666 -0.12053559104976033 0.9927090063508701 -1.2168483908099344e-17 -7.156581698160688e-17 -1.2168483908099344e-17 -7.156581698160688e-17 -0.12053621058797472 0.9927089311258046
12616660000.0 -0.11257773514441519 0.9936429205452026 -1.2745350484442086e-17 -7.145090215125711e-17 -1.2745350484442086e-17 -7.145090215125711e-17 -0.11257835523512871 0.993642850289982
12617277333.333334 -0.10461265178822404 0.9945130431953532 -1.3321154594035655e-17 -7.13313419343648e-17 -1.3321154594035655e-17 -7.13313419343648e-17 -0.10461327239157486 0.994512977914
12617894666.666666 -0.09664085233697058 0.9953193184397812 -1.3895858865367692e-17 -7.120714599563009e-17 -1.3895858865367692e-17 -7.120714599563009e-17 -0.09664147341306799 0.995319258136
12618512000.0 -0.08866284857741102 0.99606169451595 -1.4469426013726085e-17 -7.107832430009922e-17 -1.4469426013726085e-17 -7.107832430009922e-17 -0.08866347008633785 0.9960616391931247
12619129333.333334 -0.08067915269481347 0.9967401237636091 -1.5041818843582186e-17 -7.094488711239965e-17 -1.5041818843582186e-17 -7.094488711239965e-17 -0.08067977459662859 0.9967400734248038
12619746666.666666 -0.0726902772397643 0.9973545626278818 -1.561300025101764e-17 -7.080684499594475e-17 -1.561300025101764e-17 -7.080684499594475e-17 -0.07269089949450543 0.9973545172758412
12620364000.0 -0.06469673509537623 0.9979049716620543 -1.6182933226113927e-17 -7.066420881212551e-17 -1.6182933226113927e-17 -7.066420881212551e-17 -0.06469735766306219 0.9979049312992012
12620981333.333334 -0.05669903944444601 0.9983913155300997 -1.675158085533706e-17 -7.051698971948349e-17 -1.675158085533706e-17 -7.051698971948349e-17 -0.05669966228507953 0.9983912801585381
12621598666.666666 -0.04869770373633852 0.9988135630089605 -1.7318906323932848e-17 -7.036519917285937e-17 -1.7318906323932848e-17 -7.036519917285937e-17 -0.04869832680990865 0.9988135326304713
12622216000.0 -0.040693241654136604 0.9991716869905424 -1.788487291829485e-17 -7.020884892252783e-17 -1.788487291829485e-17 -7.020884892252783e-17 -0.04069386492062137 0.9991716616065872
12622833333.333334 -0.032686167081606134 0.9994656644834582 -1.8449444028336636e-17 -7.004795101330995e-17 -1.8449444028336636e-17 -7.004795101330995e-17 -0.03268679050097518 0.9994656440951795
12623450666.666666 -0.024676994070290226 0.999695476614505 -1.9012583149844653e-17 -6.988251778367076e-17 -1.9012583149844653e-17 -6.988251778367076e-17 -0.024677617602507217 0.9996954612227219
12624068000.0 -0.016666236806478676 0.9998611086298725 -1.9574253886842775e-17 -6.971256186479119e-17 -1.9574253886842775e-17 -6.971256186479119e-17 -0.01666686041150398 0.9998610982350847
12624685333.333334 -0.008654409577998588 0.9999625498960968 -2.013441995393112e-17 -6.953809617962692e-17 -2.013441995393112e-17 -6.953809617962692e-17 -0.008655033215791792 0.9999625444984825
12625302666.666666 -0.0006420267415950557 0.9999997939007335 -2.0693045178614814e-17 -6.935913394194916e-17 -2.0693045178614814e-17 -6.935913394194916e-17 -0.0006426503721175857 0.9999997935001513
12625920000.0 0.007370397310545055 0.9999728382527858 -2.1250093503653942e-17 -6.917568865535758e-17 -2.1250093503653942e-17 -6.917568865535758e-17 0.007369773727327401 0.9999728428487715
12626537333.333334 0.015382348183419018 0.9998816846828481 -2.1805528989357708e-17 -6.898777411228899e-17 -2.1805528989357708e-17 -6.898777411228899e-17 0.015381724687533498 0.9998816942746191
12627154666.666666 0.023393311512431205 0.9997263390430043 -2.2359315815907526e-17 -6.879540439299636e-17 -2.2359315815907526e-17 -6.879540439299636e-17 0.023392688143895557 0.9997263536294562
12627772000.0 0.03140277299647196 0.9995068113064454 -2.2911418285671087e-17 -6.859859386450862e-17 -2.2911418285671087e-17 -6.859859386450862e-17 0.03140214979529181 0.9995068308861526
12628389333.333334 0.03941021843070819 0.9992231155668337 -2.346180082546862e-17 -6.839735717958548e-17 -2.346180082546862e-17 -6.839735717958548e-17 0.03940959543687453 0.9992231401380512
12629006666.666666 0.047415133739907744 0.9988752700373927 -2.4010427988888418e-17 -6.819170927563379e-17 -2.4010427988888418e-17 -6.819170927563379e-17 0.047414510993394304 0.9988752995980547
12629624000.0 0.0554170050111586 0.9984632970497415 -2.4557264458533087e-17 -6.798166537362698e-17 -2.4557264458533087e-17 -6.798166537362698e-17 0.05541638255191943 0.9984633315974634
12630241333.333334 0.0634153185270326 0.9979872230524606 -2.5102275048308548e-17 -6.776724097698722e-17 -2.5102275048308548e-17 -6.776724097698722e-17 0.0634146963949993 0.9979872625845366
12630858666.666666 0.07140956079842378 0.9974470786093981 -2.5645424705661318e-17 -6.754845187046559e-17 -2.5645424705661318e-17 -6.754845187046559e-17 0.0714089390335031 0.9974471231228028
12631476000.0 0.07939921859771298 0.9968428983976958 -2.618667851384823e-17 -6.73253141189878e-17 -2.618667851384823e-17 -6.73253141189878e-17 0.07939859723978417 0.996842947889085
12632093333.333334 0.08738377899151813 0.9961747212055764 -2.6726001694148498e-17 -6.709784406650056e-17 -2.6726001694148498e-17 -6.709784406650056e-17 0.08738315808043039 0.9961747756712859
12632710666.666666 0.09536272937368148 0.9954425899298506 -2.72633596081024e-17 -6.686605833478638e-17 -2.72633596081024e-17 -6.686605833478638e-17 0.09536210894925148 0.9954426493658975
12633328000.0 0.10333555749834826 0.9946465515731464 -2.779871775973949e-17 -6.662997382225959e-17 -2.779871775973949e-17 -6.662997382225959e-17 0.10333493760035753 0.9946466159752296
12633945333.333334 0.11130175151259823 0.9937866572409164 -2.8332041797760883e-17 -6.638960770276053e-17 -2.8332041797760883e-17 -6.638960770276053e-17 0.11130113218079059 0.9937867266044159
12634562666.666666 0.11926079998947582 0.9928629621381376 -2.886329751775641e-17 -6.614497742431241e-17 -2.886329751775641e-17 -6.614497742431241e-17 0.11926018126355496 0.9928630364581162
12635180000.0 0.12721219196068279 0.9918755255657863 -2.939245086438116e-17 -6.589610070787393e-17 -2.939245086438116e-17 -6.589610070787393e-17 0.12721157388030951 0.9918756048369881
12635797333.333334 0.13515541694957953 0.990824410917006 -2.9919467933534545e-17 -6.564299554606856e-17 -2.9919467933534545e-17 -6.564299554606856e-17 0.1351547995543693 0.9908244951338578
12636414666.666666 0.14308996500373178 0.9897096856730653 -3.044431497451751e-17 -6.538568020190191e-17 -3.044431497451751e-17 -6.538568020190191e-17 0.14308934833325238 0.9897097748296781
12637032000.0 0.15101532672784704 0.988531421399001 -3.096695839219712e-17 -6.512417320745268e-17 -3.096695839219712e-17 -6.512417320745268e-17 0.15101471082161566 0.9885315154891681
12637649333.333334 0.15893099331636432 0.9872896937390363 -3.1487364749141956e-17 -6.485849336255579e-17 -3.1487364749141956e-17 -6.485849336255579e-17 0.15893037821384545 0.9872897927562361
12638266666.666666 0.1668364565861763 0.985984582411721 -3.200550076775709e-17 -6.458865973346273e-17 -3.200550076775709e-17 -6.458865973346273e-17 0.1668358423267787 0.9859846863491144
12638884000.0 0.17473120900914138 0.9846161712048254 -3.252133333239697e-17 -6.431469165149073e-17 -3.252133333239697e-17 -6.431469165149073e-17 0.17473059563221613 0.9846162800552599
12639501333.333334 0.182614743744864 0.9831845479699347 -3.303482949148682e-17 -6.403660871164472e-17 -3.303482949148682e-17 -6.403660871164472e-17 0.18261413128970144 0.9831846617259421
12640118666.666666 0.1904865546729529 0.981689804616853 -3.3545956459601623e-17 -6.375443077123862e-17 -3.3545956459601623e-17 -6.375443077123862e-17 0.19048594317878056 0.9816899232706515
12640736000.0 0.1983461364259895 0.9801320371076189 -3.4054681619582075e-17 -6.346817794847389e-17 -3.4054681619582075e-17 -6.346817794847389e-17 0.1983455259319691 0.9801321606511122
12641353333.333334 0.20619298442130157 0.9785113454504671 -3.4560972524565115e-17 -6.317787062104175e-17 -3.4560972524565115e-17 -6.317787062104175e-17 0.20619237496652731 0.9785114738752478
12641970666.666666 0.21402659489397238 0.976827833693297 -3.506479690008299e-17 -6.288352942466444e-17 -3.506479690008299e-17 -6.288352942466444e-17 0.2140259865174674 0.9768279669906427
12642588000.0 0.22184646492879054 0.9750816099170613 -3.556612264609664e-17 -6.25851752516498e-17 -3.556612264609664e-17 -6.25851752516498e-17 0.2218458576695051 0.9750817480779387
12643205333.333334 0.22965209249273233 0.9732727862287921 -3.606491783902764e-17 -6.228282924942409e-17 -3.606491783902764e-17 -6.228282924942409e-17 0.22965148638954172 0.9732729292438589
12643822666.666666 0.23744297646719315 0.9714014787544067 -3.6561150733800675e-17 -6.197651281903482e-17 -3.6561150733800675e-17 -6.197651281903482e-17 0.2374423715588937 0.9714016266140054
12644440000.0 0.2452186166800454 0.9694678076312653 -3.705478976584001e-17 -6.166624761365744e-17 -3.705478976584001e-17 -6.166624761365744e-17 0.24521801300535376 0.9694679603254321
12645057333.333334 0.2529785139377802 0.9674718970004653 -3.754580355307269e-17 -6.135205553707448e-17 -3.754580355307269e-17 -6.135205553707448e-17 0.2529779115353296 0.9674720545189252
12645674666.666666 0.26072217005758175 0.9654138749988589 -3.8034160897915855e-17 -6.103395874214162e-17 -3.8034160897915855e-17 -6.103395874214162e-17 0.26072156896592014 0.9654140373310285
12646292000.0 0.26844908789939265 0.9632938737508048 -3.851983078926238e-17 -6.071197962922885e-17 -3.851983078926238e-17 -6.071197962922885e-17 0.2684484881569798 0.9632940408857926
12646909333.333334 0.27615877139763834 0.961112029359738 -3.900278240442006e-17 -6.038614084466978e-17 -3.900278240442006e-17 -6.038614084466978e-17 0.2761581730428441 0.9611122012863461
12647526666.666666 0.28385072559323926 0.958868481899389 -3.9482985111078316e-17 -6.005646527916768e-17 -3.9482985111078316e-17 -6.005646527916768e-17 0.2838501286643404 0.9588686586061121
12648144000.0 0.29152445666538596 0.9565633754047864 -3.9960408469234204e-17 -5.97229760662042e-17 -3.9960408469234204e-17 -5.97229760662042e-17 0.29152386120056406 0.9565635568798142
12648761333.333334 0.29917947196313366 0.9541968578630453 -4.0435022233117497e-17 -5.938569658042524e-17 -4.0435022233117497e-17 -5.938569658042524e-17 0.29917887800047227 0.9541970440942612
12649378666.666666 0.3068152800370569 0.9517690812038551 -4.090679635309164e-17 -5.904465043601825e-17 -4.090679635309164e-17 -5.904465043601825e-17 0.30681468761454 0.9517692721788403
12649996000.0 0.314431390670829 0.949280201289722 -4.1375700977558163e-17 -5.869986148506286e-17 -4.1375700977558163e-17 -5.869986148506286e-17 0.314430799826338 0.9492803969957544
12650613333.333334 0.32202731491277453 0.9467303779059356 -4.184170645483223e-17 -5.835135381587722e-17 -4.184170645483223e-17 -5.835135381587722e-17 0.32202672568408514 0.9467305783299885
12651230666.666666 0.32960256510704267 0.9441197747503786 -4.230478333500269e-17 -5.799915175135051e-17 -4.230478333500269e-17 -5.799915175135051e-17 0.3296019775318236 0.9441199798791245
12651848000.0 0.33715665492521174 0.9414485594229186 -4.276490237180304e-17 -5.764327984724292e-17 -4.276490237180304e-17 -5.764327984724292e-17 0.3371560690410221 0.9414487692427309
12652465333.333334 0.34468909939726927 0.9387169034147337 -4.322203452442864e-17 -5.728376289049986e-17 -4.322203452442864e-17 -5.728376289049986e-17 0.3446885152415558 0.9387171179116846
12653082666.666666 0.35219941494277424 0.9359249820972915 -4.367615095937128e-17 -5.692062589752899e-17 -4.367615095937128e-17 -5.692062589752899e-17 0.3521988325528687 0.9359252012571538
12653700000.0 0.3596871194020619 0.9330729747110319 -4.412722305223875e-17 -5.655389411246197e-17 -4.412722305223875e-17 -5.655389411246197e-17 0.3596865388151796 0.9330731985192818
12654317333.333334 0.3671517320669868 0.9301610643539425 -4.457522238952999e-17 -5.618359300542654e-17 -4.457522238952999e-17 -5.618359300542654e-17 0.3671511533202233 0.9301612927957584
12654934666.666666 0.37459277371194194 0.9271894379697385 -4.5020120770432084e-17 -5.580974827077489e-17 -4.5020120770432084e-17 -5.580974827077489e-17 0.3745921968422717 0.9271896710300044
12655552000.0 0.382009766624653 0.9241582863358556 -4.5461890208587003e-17 -5.543238582531101e-17 -4.5461890208587003e-17 -5.543238582531101e-17 0.3820091916689253 0.9241585239991573
12656169333.333334 0.38940223463663326 0.9210678040512786 -4.590050293383073e-17 -5.5051531806514354e-17 -4.590050293383073e-17 -5.5051531806514354e-17 0.3894016616315716 0.9210680463019103
12656786666.666666 0.3967697031539143 0.9179181895239916 -4.633593139393976e-17 -5.466721257073162e-17 -4.633593139393976e-17 -5.466721257073162e-17 0.39676913213611337 0.9179184363459545
12657404000.0 0.4041116991875402 0.9147096449582275 -4.6768148256354666e-17 -5.427945469136141e-17 -4.6768148256354666e-17 -5.427945469136141e-17 0.4041111301934637 0.9147098963352306
12658021333.333334 0.41142775138388 0.9114423763415059 -4.719712640988392e-17 -5.3888284957029304e-17 -4.719712640988392e-17 -5.3888284957029304e-17 0.411427184449858 0.9114426322569676
12658638666.666666 0.4187173900547857 0.9081165934314581 -4.7622838966389536e-17 -5.349373036975216e-17 -4.7622838966389536e-17 -5.349373036975216e-17 0.4187168252170121 0.9081168538685062
12659256000.0 0.42598014720800403 0.9047325097422413 -4.804525926247877e-17 -5.3095818143070354e-17 -4.804525926247877e-17 -5.3095818143070354e-17 0.4259795845025352 0.9047327746837155
12659873333.333334 0.4332155565769897 0.9012903425309382 -4.846436086115156e-17 -5.2694575700192664e-17 -4.846436086115156e-17 -5.2694575700192664e-17 0.43321499603974134 0.9012906119593913
12660490666.666666 0.4404231536508652 0.8977903127835997 -4.8880117553447855e-17 -5.229003067211466e-17 -4.8880117553447855e-17 -5.229003067211466e-17 0.4404225953176103 0.8977905866812973
12661108000.0 0.44760247570439554 0.8942326452009803 -4.9292503360086165e-17 -5.188221089571659e-17 -4.9292503360086165e-17 -5.188221089571659e-17 0.4476019196107625 0.8942329235499038
12661725333.333334 0.45475306182749264 0.8906175681842173 -4.970149253306651e-17 -5.147114441186912e-17 -4.970149253306651e-17 -5.147114441186912e-17 0.4547525080089615 0.8906178509660619
12662342666.666666 0.46187445295498053 0.886945313820072 -5.010705955727878e-17 -5.105685946350424e-17 -5.010705955727878e-17 -5.105685946350424e-17 0.4618739014468831 0.8869456010162527
12662960000.0 0.4689661918959685 0.8832161178660871 -5.050917915207986e-17 -5.063938449369011e-17 -5.050917915207986e-17 -5.063938449369011e-17 0.4689656427334847 0.8832164094577368
12663577333.333334 0.4760278233632517 0.8794302197354219 -5.090782627286148e-17 -5.0218748143685726e-17 -5.090782627286148e-17 -5.0218748143685726e-17 0.4760272765814069 0.8794305157033928
12664194666.666666 0.4830588940024408 0.8755878624815372 -5.130297611260093e-17 -4.979497925098543e-17 -5.130297611260093e-17 -4.979497925098543e-17 0.4830583496361042 0.8755881628064021
12664812000.0 0.49005895242121605 0.8716892927825075 -5.1694604103396674e-17 -4.936810684734925e-17 -5.1694604103396674e-17 -4.936810684734925e-17 0.4900584105050989 0.8716895974445621
12665429333.333334 0.4970275492182334 0.8677347609252292 -5.2082685917982297e-17 -4.893816015682757e-17 -5.2082685917982297e-17 -4.893816015682757e-17 0.49702700978688574 0.8677350699044921
12666046666.666666 0.5039642370118752 0.8637245207894042 -5.2467197471229785e-17 -4.850516859376806e-17 -5.2467197471229785e-17 -4.850516859376806e-17 0.5039637000996847 0.8637248340656198
12666664000.0 0.5108685704692447 0.8596588298310892 -5.284811492164413e-17 -4.806916176080156e-17 -5.284811492164413e-17 -4.806916176080156e-17 0.5108680361104335 0.859659147383727
12667281333.333334 0.5177401063344357 0.8555379490663495 -5.32254146728144e-17 -4.763016944684669e-17 -5.32254146728144e-17 -4.763016944684669e-17 0.5177395745630583 0.8555382708746058
12667898666.666666 0.5245784034571365 0.8513621430544166 -5.3599073374879536e-17 -4.718822162506853e-17 -5.3599073374879536e-17 -4.718822162506853e-17 0.5245778743070794 0.8513624690972189
12668516000.0 0.5313830228211 0.8471316798806185 -5.396906792596318e-17 -4.6743348450840486e-17 -5.396906792596318e-17 -4.6743348450840486e-17 0.5313824963260765 0.8471320101366223
12669133333.333334 0.5381535275720077 0.8428468311393548 -5.4335375473580645e-17 -4.6295580259709554e-17 -5.4335375473580645e-17 -4.6295580259709554e-17 0.538153003765559 0.8428471655869487
12669750666.666666 0.5448894830457883 0.8385078719165026 -5.469797341605497e-17 -4.584494756531955e-17 -5.469797341605497e-17 -4.584494756531955e-17 0.5448889619612785 0.8385082105338075
