! Parameters = {f0=12700.012000; bw=77.238000; Q=6100.000000; N=10; m_0_1=1.155050; m_1_1=-1.438995; m_1_2=0.989862; m_2_2=-1.439644; m_2_3=0.626825; m_2_8=-0.005184; m_2_9=0.031520; m_3_3=-1.441581; m_3_4=0.515354; m_3_7=-0.004584; m_3_8=-0.101672; m_3_9=-0.005184; m_4_4=-1.444506; m_4_5=0.351689; m_4_6=-0.001067; m_4_7=-0.122221; m_4_8=-0.004584; m_5_5=-1.444124; m_5_6=0.759044; m_5_7=-0.001067; m_6_6=-1.444125; m_6_7=0.352031; m_7_7=-1.444492; m_7_8=0.515472; m_8_8=-1.441583; m_8_9=0.627138; m_9_9=-1.439649; m_9_10=0.990940; m_10_10=-1.439005; m_10_11=1.155845}
!
! Created with skrf (http://scikit-rf.org).
# Hz S RI R 50.0 
!freq ReS11 ImS11 ReS21 ImS21 ReS12 ImS12 ReS22 ImS22
12607400000.0 0.4567175404227065 0.8896117626639656 -4.295369080442298e-17 -4.498428872748933e-17 -4.295369080442298e-17 -4.498428872748933e-17 0.45671699887877704 0.8896120406868472
12608017333.333334 0.4630441334962636 0.8863352246382562 -4.326858322954063e-17 -4.466452743926486e-17 -4.326858322954063e-17 -4.466452743926486e-17 0.4630435939733234 0.8863355064985956
12608634666.666666 0.4693472217618007 0.883013694924565 -4.358110010007915e-17 -4.4342566547316064e-17 -4.358110010007915e-17 -4.4342566547316064e-17 0.4693466842870371 0.8830139806076787
12609252000.0 0.4756264852652165 0.8796473421287138 -4.3891226085680746e-17 -4.4018423665824214e-17 -4.3891226085680746e-17 -4.4018423665824214e-17 0.4756259498657107 0.8796476316197265
12609869333.333334 0.4818816052618915 0.8762363371317565 -4.419894598635288e-17 -4.3692116515560954e-17 -4.419894598635288e-17 -4.3692116515560954e-17 0.48188107196461627 0.8762366304156006
12610486666.666666 0.48811226423259035 0.8727808530814525 -4.450424473320524e-17 -4.336366292292775e-17 -4.450424473320524e-17 -4.336366292292775e-17 0.48811173306440997 0.8727811501428706
12611104000.0 0.4943181458999323 0.8692810653832896 -4.480710738918754e-17 -4.303308081898097e-17 -4.480710738918754e-17 -4.303308081898097e-17 0.49431761688759973 0.869281366206833
12611721333.333334 0.5004989352441693 0.8657371516917285 -4.5107519149801675e-17 -4.270038823847306e-17 -4.5107519149801675e-17 -4.270038823847306e-17 0.5004984084143252 0.8657374562617589
12612338666.666666 0.5066543185192774 0.8621492919011301 -4.540546534383486e-17 -4.2365603318857226e-17 -4.540546534383486e-17 -4.2365603318857226e-17 0.5066537938984499 0.8621496002018214
12612956000.0 0.5127839832689821 0.8585176681365687 -4.570093143406327e-17 -4.202874429931203e-17 -4.570093143406327e-17 -4.202874429931203e-17 0.5127834608835834 0.8585179801519057
12613573333.333334 0.5188876183423461 0.8548424647447402 -4.599390301794922e-17 -4.168982951975963e-17 -4.599390301794922e-17 -4.168982951975963e-17 0.518887098218674 0.854842780458523
12614190666.666666 0.5249649139099108 0.8511238682844081 -4.6284365828347e-17 -4.134887741986246e-17 -4.6284365828347e-17 -4.134887741986246e-17 0.5249643960741445 0.8511241876802488
12614808000.0 0.5310155614791517 0.847362067517089 -4.6572305734190424e-17 -4.100590653802662e-17 -4.6572305734190424e-17 -4.100590653802662e-17 0.531015045957352 0.8473623905784149
12615425333.333334 0.5370392539102615 0.8435572533973997 -4.6857708741168177e-17 -4.066093551040589e-17 -4.6857708741168177e-17 -4.066093551040589e-17 0.537038740728369 0.8435575801074531
12616042666.666666 0.543035685431691 0.8397096190633921 -4.7140560992401734e-17 -4.031398306989058e-17 -4.7140560992401734e-17 -4.031398306989058e-17 0.5430351746155259 0.8397099494052335
12616660000.0 0.5490045516557699 0.8358193598266925 -4.742084876911522e-17 -3.996506804509162e-17 -4.742084876911522e-17 -3.996506804509162e-17 0.5490040432310281 0.8358196937831973
12617277333.333334 0.554945549594032 0.8318866731626562 -4.7698558491288966e-17 -3.9614209359330755e-17 -4.7698558491288966e-17 -3.9614209359330755e-17 0.5549450435862875 0.83188701071652
12617894666.666666 0.5608583776725556 0.827911758700384 -4.7973676718310306e-17 -3.926142602962105e-17 -4.7973676718310306e-17 -3.926142602962105e-17 0.5608578741072563 0.8279120998341211
12618512000.0 0.566742735747599 0.823894818212363 -4.8246190149627695e-17 -3.890673716562906e-17 -4.8246190149627695e-17 -3.890673716562906e-17 0.5667422346500656 0.8238951629083064
12619129333.333334 0.5725983251203627 0.8198360556045402 -4.8516085625376465e-17 -3.8550161968658757e-17 -4.8516085625376465e-17 -3.8550161968658757e-17 0.5725978265157892 0.8198364038448456
12619746666.666666 0.578424848552486 0.815735676905754 -4.878335012701238e-17 -3.8191719730611744e-17 -4.878335012701238e-17 -3.8191719730611744e-17 0.578424352465937 0.8157360286723981
12620364000.0 0.5842220102810843 0.8115938902573026 -4.9047970777936284e-17 -3.783142983294446e-17 -4.9047970777936284e-17 -3.783142983294446e-17 0.5842215167374949 0.8115942455320856
12620981333.333334 0.589989516033648 0.8074109059024632 -4.930993484410191e-17 -3.746931174563402e-17 -4.930993484410191e-17 -3.746931174563402e-17 0.5899890250578205 0.8074112646670076
12621598666.666666 0.5957270730430713 0.803186936175751 -4.956922973462611e-17 -3.710538502612535e-17 -4.956922973462611e-17 -3.710538502612535e-17 0.5957265846596762 0.803187298411505
12622216000.0 0.6014343900624688 0.7989221954921766 -4.9825843002385566e-17 -3.67396693182831e-17 -4.9825843002385566e-17 -3.67396693182831e-17 0.6014339042960426 0.7989225611804146
12622833333.333334 0.6071111773800744 0.7946169003362776 -5.0079762344612926e-17 -3.637218435132931e-17 -5.0079762344612926e-17 -3.637218435132931e-17 0.6071106942550174 0.794617269458099
12623450666.666666 0.6127571468337175 0.7902712692512971 -5.033097560346855e-17 -3.6002949938799855e-17 -5.033097560346855e-17 -3.6002949938799855e-17 0.6127566663742947 0.79027164178763
12624068000.0 0.618372011825657 0.7858855228279387 -5.0579470766629305e-17 -3.56319859774627e-17 -5.0579470766629305e-17 -3.56319859774627e-17 0.6183715340559953 0.7858858987595398
12624685333.333334 0.6239554873371067 0.7814598836931859 -5.082523596784985e-17 -3.525931244625927e-17 -5.082523596784985e-17 -3.525931244625927e-17 0.6239550122811934 0.7814602630006404
12625302666.666666 0.6295072899425661 0.7769945764991035 -5.106825948751687e-17 -3.488494940524243e-17 -5.106825948751687e-17 -3.488494940524243e-17 0.6295068176242494 0.7769949591628278
12625920000.0 0.6350271378244096 0.7724898279112756 -5.130852975321357e-17 -3.4508916994482694e-17 -5.130852975321357e-17 -3.4508916994482694e-17 0.6350266682673965 0.7724902139115187
12626537333.333334 0.64051475078695 0.7679458665974996 -5.1546035340254265e-17 -3.413123543300441e-17 -5.1546035340254265e-17 -3.413123543300441e-17 0.6405142840148049 0.7679462559143421
12627154666.666666 0.6459698502708592 0.7633629232160142 -5.178076497222037e-17 -3.3751925017703596e-17 -5.178076497222037e-17 -3.3751925017703596e-17 0.6459693863070016 0.7633633158293696
12627772000.0 0.6513921593673044 0.7587412304037878 -5.201270752149746e-17 -3.3371006122248843e-17 -5.201270752149746e-17 -3.3371006122248843e-17 0.6513916982350111 0.7587416262934058
12628389333.333334 0.656781402831793 0.7540810227648987 -5.224185200978521e-17 -3.298849919600833e-17 -5.224185200978521e-17 -3.298849919600833e-17 0.656780944554193 0.7540814219103636
12629006666.666666 0.662137307098422 0.7493825368583829 -5.246818760861812e-17 -3.260442476294352e-17 -5.246818760861812e-17 -3.260442476294352e-17 0.6621368516984976 0.7493829392391155
12629624000.0 0.6674596002936122 0.7446460111863537 -5.2691703639862594e-17 -3.221880342052477e-17 -5.2691703639862594e-17 -3.221880342052477e-17 0.6674591477941982 0.7446464167816138
12630241333.333334 0.6727480122499125 0.7398716861818985 -5.2912389576221507e-17 -3.1831655838618216e-17 -5.2912389576221507e-17 -3.1831655838618216e-17 0.672747562673694 0.7398720949707847
12630858666.666666 0.678002274519672 0.7350598041969137 -5.3130235041711884e-17 -3.1443002758400795e-17 -5.3130235041711884e-17 -3.1443002758400795e-17 0.678001827889183 0.735060216158364
12631476000.0 0.6832221203888541 0.7302106094896276 -5.3345229812157516e-17 -3.105286499123272e-17 -5.3345229812157516e-17 -3.105286499123272e-17 0.6832216767264766 0.73021102460242
12632093333.333334 0.6884072848903856 0.7253243482123723 -5.3557363815652507e-17 -3.066126341756317e-17 -5.3557363815652507e-17 -3.066126341756317e-17 0.6884068442183495 0.7253247664551286
12632710666.666666 0.6935575048176111 0.7204012683990947 -5.3766627133025376e-17 -3.026821898581765e-17 -5.3766627133025376e-17 -3.026821898581765e-17 0.6935570671579925 0.7204016897502794
12633328000.0 0.6986725187378167 0.7154416199526061 -5.397300999830191e-17 -2.9873752711269906e-17 -5.397300999830191e-17 -2.9873752711269906e-17 0.6986720841125363 0.7154420443905284
12633945333.333334 0.7037520670053774 0.7104456546320155 -5.4176502799147914e-17 -2.9477885674932324e-17 -5.4176502799147914e-17 -2.9477885674932324e-17 0.7037516354361997 0.7104460821348293
12634562666.666666 0.7087958917749159 0.7054136260399682 -5.4377096077308155e-17 -2.9080639022435725e-17 -5.4377096077308155e-17 -2.9080639022435725e-17 0.7087954632834479 0.7054140565856739
12635180000.0 0.713803737014434 0.700345789609735 -5.4574780529040396e-17 -2.8682033962899996e-17 -5.4574780529040396e-17 -2.8682033962899996e-17 0.7138033116221248 0.7003462231761816
12635797333.333334 0.7187753485183873 0.6952424025921643 -5.476954700553775e-17 -2.8282091767807996e-17 -5.476954700553775e-17 -2.8282091767807996e-17 0.7187749262465267 0.6952428391570491
12636414666.666666 0.7237104739203909 0.6901037240428264 -5.4961386513344124e-17 -2.788083376987535e-17 -5.4961386513344124e-17 -2.788083376987535e-17 0.7237100547901077 0.6901041635836965
12637032000.0 0.7286088627062082 0.6849300148086803 -5.515029021475987e-17 -2.7478281361918686e-17 -5.515029021475987e-17 -2.7478281361918686e-17 0.7286084467384706 0.684930457302935
12637649333.333334 0.7334702662264484 0.6797215375148543 -5.533624942824399e-17 -2.7074455995713775e-17 -5.533624942824399e-17 -2.7074455995713775e-17 0.7334698534420605 0.6797219829397432
12638266666.666666 0.7382944377090868 0.674478556551414 -5.55192556287993e-17 -2.6669379180866285e-17 -5.55192556287993e-17 -2.6669379180866285e-17 0.73829402812869 0.6744790048840414
12638884000.0 0.7430811322720731 0.6692013380598618 -5.569930044835813e-17 -2.6263072483664766e-17 -5.569930044835813e-17 -2.6263072483664766e-17 0.743080725916145 0.6692017892771875
12639501333.333334 0.7478301069357408 0.6638901499196481 -5.587637567615481e-17 -2.5855557525938543e-17 -5.587637567615481e-17 -2.5855557525938543e-17 0.7478297038245927 0.6638906039984869
12640118666.666666 0.7525411206351057 0.6585452617346156 -5.605047325909031e-17 -2.544685598391525e-17 -5.605047325909031e-17 -2.544685598391525e-17 0.7525407207888819 0.6585457186516392
12640736000.0 0.7572139342322873 0.653166944819099 -5.62215853020949e-17 -2.5036989587057773e-17 -5.62215853020949e-17 -2.5036989587057773e-17 0.7572135376709643 0.6531674045508371
12641353333.333334 0.7618483105282561 0.6477554721846025 -5.638970406846633e-17 -2.4625980116939575e-17 -5.638970406846633e-17 -2.4625980116939575e-17 0.7618479172716418 0.6477559347074447
12641970666.666666 0.7664440142753215 0.6423111185254271 -5.655482198021958e-17 -2.42138494060692e-17 -5.655482198021958e-17 -2.42138494060692e-17 0.7664436243430552 0.6423115838156241
12642588000.0 0.7710008121887779 0.6368341602050718 -5.671693161841489e-17 -2.3800619336744908e-17 -5.671693161841489e-17 -2.3800619336744908e-17 0.7710004256003276 0.6368346282387353
12643205333.333334 0.775518472958838 0.631324875242095 -5.687602572348127e-17 -2.338631183989743e-17 -5.687602572348127e-17 -2.338631183989743e-17 0.7755180897334988 0.6313253459951997
12643822666.666666 0.779996767262427 0.6257835432959379 -5.703209719553381e-17 -2.2970948893925868e-17 -5.703209719553381e-17 -2.2970948893925868e-17 0.779996387419323 0.6257840167443236
12644440000.0 0.7844354677747165 0.6202104456528582 -5.718513909467952e-17 -2.2554552523537974e-17 -5.718513909467952e-17 -2.2554552523537974e-17 0.7844350913327981 0.6202109217722299
12645057333.333334 0.7888343491807541 0.6146058652115437 -5.733514464131203e-17 -2.2137144798596653e-17 -5.733514464131203e-17 -2.2137144798596653e-17 0.7888339761587971 0.6146063439774734
12645674666.666666 0.7931931881867953 0.6089700864688853 -5.748210721640666e-17 -2.1718747832941896e-17 -5.748210721640666e-17 -2.1718747832941896e-17 0.7931928186033995 0.6089705678568125
12646292000.0 0.7975117635318109 0.6033033955053096 -5.76260203618015e-17 -2.129938378322363e-17 -5.76260203618015e-17 -2.129938378322363e-17 0.7975113974054001 0.6033038794905436
12646909333.333334 0.8017898559985449 0.5976060799704833 -5.776687778046432e-17 -2.0879074847749426e-17 -5.776687778046432e-17 -2.0879074847749426e-17 0.8017894933473659 0.5976065665282037
12647526666.666666 0.8060272484247144 0.5918784290686213 -5.790467333676525e-17 -2.045784326529281e-17 -5.790467333676525e-17 -2.045784326529281e-17 0.8060268892668356 0.5918789181738797
12648144000.0 0.8102237257140635 0.5861207335437606 -5.803940105672791e-17 -2.0035711313932446e-17 -5.803940105672791e-17 -2.0035711313932446e-17 0.810223370067375 0.5861212251714822
12648761333.333334 0.8143790748472681 0.580333285665025 -5.817105512827704e-17 -1.9612701309880342e-17 -5.817105512827704e-17 -1.9612701309880342e-17 0.8143787227294783 0.5803337797900084
12649378666.666666 0.8184930848926433 0.5745163792119241 -5.829962990147863e-17 -1.9188835606301516e-17 -5.829962990147863e-17 -1.9188835606301516e-17 0.8184927363212815 0.5745168758088448
12649996000.0 0.8225655470169914 0.5686703094592614 -5.84251198887701e-17 -1.8764136592139076e-17 -5.84251198887701e-17 -1.8764136592139076e-17 0.8225652020094046 0.5686708085026713
12650613333.333334 0.8265962544961963 0.562795373162141 -5.854751976518213e-17 -1.8338626690936108e-17 -5.854751976518213e-17 -1.8338626690936108e-17 0.8265959130695489 0.5627958746264701
12651230666.666666 0.8305850027255566 0.5568918685411386 -5.866682436855156e-17 -1.7912328359657968e-17 -5.866682436855156e-17 -1.7912328359657968e-17 0.830584664896829 0.5568923724006967
12651848000.0 0.8345315892303975 0.5509600952668366 -5.87830286997282e-17 -1.7485264087504892e-17 -5.87830286997282e-17 -1.7485264087504892e-17 0.8345312550163866 0.5509606014958145
12652465333.333334 0.8384358136761709 0.5450003544448679 -5.889612792276789e-17 -1.7057456394740056e-17 -5.889612792276789e-17 -1.7057456394740056e-17 0.838435483093488 0.5450008630173387
12653082666.666666 0.842297477878692 0.5390129486005413 -5.900611736512244e-17 -1.662892783150174e-17 -5.900611736512244e-17 -1.662892783150174e-17 0.8422971509437628 0.5390134594904613
12653700000.0 0.846116385814257 0.5329981816633854 -5.911299251781956e-17 -1.6199700976612117e-17 -5.911299251781956e-17 -1.6199700976612117e-17 0.8461160625433203 0.5329986948445964
12654317333.333334 0.8498923436294277 0.5269563589519864 -5.921674903562987e-17 -1.576979843640922e-17 -5.921674903562987e-17 -1.576979843640922e-17 0.8498920240385348 0.5269568743982163
12654934666.666666 0.8536251596510692 0.5208877871581774 -5.931738273723196e-17 -1.5339242843547153e-17 -5.931738273723196e-17 -1.5339242843547153e-17 0.8536248437560834 0.5208883048430415
12655552000.0 0.857314644395986 0.5147927743316122 -5.941488960536753e-17 -1.490805685580233e-17 -5.941488960536753e-17 -1.490805685580233e-17 0.8573143322125819 0.5147932942286154
12656169333.333334 0.860960610580472 0.508671629864254 -5.950926578698005e-17 -1.447626315491094e-17 -5.950926578698005e-17 -1.447626315491094e-17 0.8609603021241322 0.5086721519467904
12656786666.666666 0.8645628731299279 0.5025246644744705 -5.96005075933563e-17 -1.4043884445358285e-17 -5.96005075933563e-17 -1.4043884445358285e-17 0.8645625684159461 0.5025251887158266
12657404000.0 0.8681212491882483 0.49635219019129084 -5.968861150025333e-17 -1.3610943453192804e-17 -5.968861150025333e-17 -1.3610943453192804e-17 0.8681209482317265 0.4963527165646459
12658021333.333334 0.8716355581270383 0.4901545203386586 -5.977357414801563e-17 -1.3177462924842743e-17 -5.977357414801563e-17 -1.3177462924842743e-17 0.8716352609428868 0.490155048817087
12658638666.666666 0.8751056215547786 0.4839319695195592 -5.985539234168521e-17 -1.2743465625929e-17 -5.985539234168521e-17 -1.2743465625929e-17 0.8751053281577129 0.4839325000760299
12659256000.0 0.8785312633259835 0.4776848535998458 -5.9934063051108e-17 -1.2308974340051796e-17 -5.9934063051108e-17 -1.2308974340051796e-17 0.8785309737305272 0.4776853862072259
12659873333.333334 0.8819123095500777 0.47141348969233277 -6.000958341102166e-17 -1.1874011867624554e-17 -6.000958341102166e-17 -1.1874011867624554e-17 0.8819120237705595 0.47141402432338725
12660490666.666666 0.88524858860014 0.4651181961408469 -6.008195072114202e-17 -1.1438601024675116e-17 -6.008195072114202e-17 -1.1438601024675116e-17 0.8852483066506937 0.46511873276824134
12661108000.0 0.8885399311217919 0.45879929250374407 -6.015116244624113e-17 -1.1002764641639565e-17 -6.015116244624113e-17 -1.1002764641639565e-17 0.8885396530163556 0.4587998311000452
12661725333.333334 0.8917861700416471 0.45245709953796276 -6.021721621621204e-17 -1.0566525562186766e-17 -6.021721621621204e-17 -1.0566525562186766e-17 0.8917858957939614 0.45245764007563943
12662342666.666666 0.8949871405758565 0.4460919391826161 -6.028010982612868e-17 -1.012990664201853e-17 -6.028010982612868e-17 -1.012990664201853e-17 0.8949868701994667 0.4460924816340423
12662960000.0 0.8981426802384637 0.4397041345426762 -6.033984123629675e-17 -9.692930747671448e-18 -6.033984123629675e-17 -9.692930747671448e-18 0.8981424137467156 0.4397046788801306
12663577333.333334 0.9012526288496369 0.43329400987259703 -6.039640857229372e-17 -9.255620755333982e-18 -6.039640857229372e-17 -9.255620755333982e-18 0.9012523662556784 0.4332945560682657
12664194666.666666 0.9043168285438504 0.4268618905597529 -6.044981012500303e-17 -8.817999549646459e-18 -6.044981012500303e-17 -8.817999549646459e-18 0.9043165698606312 0.4268624385857308
12664812000.0 0.9073351237778269 0.42040810310807614 -6.050004435063792e-17 -8.380090022511305e-18 -6.050004435063792e-17 -8.380090022511305e-18 0.9073348690180953 0.42040865293636703
12665429333.333334 0.9103073613384769 0.4139329751213787 -6.054710987075821e-17 -7.941915071891351e-18 -6.054710987075821e-17 -7.941915071891351e-18 0.9103071105147817 0.41393352672389805
12666046666.666666 0.9132333903506555 0.4074368352867747 -6.059100547227524e-17 -7.503497600635857e-18 -6.059100547227524e-17 -7.503497600635857e-18 0.9132331434753456 0.4074373886353511
12666664000.0 0.9161130622848807 0.4009200133578676 -6.063173010745329e-17 -7.064860515263659e-18 -6.063173010745329e-17 -7.064860515263659e-18 0.9161128193701019 0.4009205684242435
12667281333.333334 0.9189462309647428 0.3943828401382957 -6.066928289389749e-17 -6.626026724789706e-18 -6.066928289389749e-17 -6.626026724789706e-18 0.9189459920224383 0.3943833968941286
12667898666.666666 0.9217327525744742 0.38782564746460185 -6.070366311453582e-17 -6.18701913952602e-18 -6.070366311453582e-17 -6.18701913952602e-18 0.9217325176163857 0.3878262058814668
12668516000.0 0.9244724856661823 0.38124876818954556 -6.07348702175925e-17 -5.747860669884809e-18 -6.07348702175925e-17 -5.747860669884809e-18 0.9244722547038474 0.381249328238936
12669133333.333334 0.9271652911669717 0.3746525361653371 -6.076290381655132e-17 -5.308574225197597e-18 -6.076290381655132e-17 -5.308574225197597e-18 0.927165064211725 0.3746530978186664
12669750666.666666 0.9298110323860979 0.36803728622648335 -6.078776369011183e-17 -4.8691827125175505e-18 -6.078776369011183e-17 -4.8691827125175505e-18 0.9298108094490679 0.36803784945508594
12670368000.0 0.932409575021897 0.3614033541727873 -6.080944978213624e-17 -4.42970903543107e-18 -6.080944978213624e-17 -4.42970903543107e-18 0.9324093561140085 0.3614039189479209
