! Parameters = {f0=12700.012000; bw=77.238000; Q=6100.000000; N=10; m_0_1=1.255751; m_1_1=0.071516; m_1_2=1.090563; m_2_2=0.070867; m_2_3=0.727526; m_2_8=-0.000149; m_2_9=0.036555; m_3_3=0.068930; m_3_4=0.616055; m_3_7=0.000451; m_3_8=-0.096637; m_3_9=-0.000149; m_4_4=0.066005; m_4_5=0.452390; m_4_6=0.003968; m_4_7=-0.117186; m_4_8=0.000451; m_5_5=0.066387; m_5_6=0.859745; m_5_7=0.003968; m_6_6=0.066386; m_6_7=0.452732; m_7_7=0.066019; m_7_8=0.616173; m_8_8=0.068928; m_8_9=0.727839; m_9_9=0.070862; m_9_10=1.091641; m_10_10=0.071506; m_10_11=1.256546}
!
! Created with skrf (http://scikit-rf.org).
# Hz S RI R 50.0 
!freq ReS11 ImS11 ReS21 ImS21 ReS12 ImS12 ReS22 ImS22
12607400000.0 -0.9987375525705846 0.050232470426464046 9.750868343506786e-17 -3.4301933603852893e-17 9.750868343506786e-17 -3.4301933603852893e-17 -0.9987375858056724 0.05023180963179496
12608017333.333334 -0.9981791704223502 0.060318684789847955 9.713505019688796e-17 -3.5286875015785746e-17 9.713505019688796e-17 -3.5286875015785746e-17 -0.9981792103288245 0.06031802439695539
12608634666.666666 -0.9975189305673234 0.07039874402039856 9.675147565646002e-17 -3.62677661003272e-17 9.675147565646002e-17 -3.62677661003272e-17 -0.9975189771404612 0.07039808409662882
12609252000.0 -0.9967569003787801 0.08047161951343212 9.635800353471599e-17 -3.724450659549145e-17 9.635800353471599e-17 -3.724450659549145e-17 -0.9967569536131737 0.08047096012607671
12609869333.333334 -0.9958931576170245 0.09053628339743303 9.595467856296355e-17 -3.821699670944871e-17 9.595467856296355e-17 -3.821699670944871e-17 -0.9958932175065911 0.09053562461372244
12610486666.666666 -0.9949277904214842 0.10059170863868697 9.554154647785208e-17 -3.918513713068799e-17 9.554154647785208e-17 -3.918513713068799e-17 -0.9949278569594615 0.10059105052578345
12611104000.0 -0.9938608973016823 0.11063686914642251 9.511865401622362e-17 -4.01488290381558e-17 9.511865401622362e-17 -4.01488290381558e-17 -0.9938609704806296 0.11063621177141322
12611721333.333334 -0.9926925871272212 0.12067073987712088 9.468604890987959e-17 -4.1107974111299656e-17 9.468604890987959e-17 -4.1107974111299656e-17 -0.9926926669390215 0.12067008330701116
12612338666.666666 -0.9914229791166458 0.13069229693942622 9.424377988022995e-17 -4.2062474540093313e-17 9.424377988022995e-17 -4.2062474540093313e-17 -0.991423065552505 0.13069164124113264
12612956000.0 -0.9900522028252845 0.14070051769851363 9.379189663284718e-17 -4.301223303499151e-17 9.379189663284718e-17 -4.301223303499151e-17 -0.9900522958757352 0.1406998629388574
12613573333.333334 -0.9885803981320452 0.15069438088035833 9.33304498519331e-17 -4.3957152836800415e-17 9.33304498519331e-17 -4.3957152836800415e-17 -0.9885804977869453 0.15069372712605833
12614190666.666666 -0.987007715225117 0.16067286667611894 9.285949119466247e-17 -4.489713772653948e-17 9.285949119466247e-17 -4.489713772653948e-17 -0.9870078214736512 0.16067221399378476
12614808000.0 -0.9853343145866589 0.1706349568460894 9.237907328544533e-17 -4.583209203520637e-17 9.237907328544533e-17 -4.583209203520637e-17 -0.9853344274173405 0.17063430530221496
12615425333.333334 -0.9835603669764207 0.18057963482363235 9.188924971009044e-17 -4.676192065348366e-17 9.188924971009044e-17 -4.676192065348366e-17 -0.983560486377092 0.1805789844845887
12616042666.666666 -0.9816860534143123 0.19050588581894054 9.139007500985877e-17 -4.768652904140722e-17 9.139007500985877e-17 -4.768652904140722e-17 -0.9816861793721475 0.19050523675096956
12616660000.0 -0.979711565161955 0.20041269692247873 9.088160467543414e-17 -4.8605823237945656e-17 9.088160467543414e-17 -4.8605823237945656e-17 -0.9797116976634591 0.2004120491916857
12617277333.333334 -0.9776371037031217 0.21029905720853836 9.036389514078887e-17 -4.9519709870531345e-17 9.036389514078887e-17 -4.9519709870531345e-17 -0.9776372427341348 0.21029841088088616
12617894666.666666 -0.9754628807232341 0.2201639578381471 8.983700377696459e-17 -5.0428096164509003e-17 8.983700377696459e-17 -5.0428096164509003e-17 -0.975463026268931 0.2201633129794488
12618512000.0 -0.9731891180876865 0.2300063921623467 8.930098888573443e-17 -5.133088995255903e-17 8.930098888573443e-17 -5.133088995255903e-17 -0.9731892701325777 0.23000574883825875
12619129333.333334 -0.9708160478192838 0.23982535582455383 8.875590969320676e-17 -5.222799968399337e-17 8.875590969320676e-17 -5.222799968399337e-17 -0.9708162063472195 0.23982471410057013
12619746666.666666 -0.9683439120745335 0.24961984686321603 8.820182634330705e-17 -5.3119334434031716e-17 8.820182634330705e-17 -5.3119334434031716e-17 -0.968344077068704 0.24961920680466065
12620364000.0 -0.9657729631188894 0.2593888658142197 8.763879989116704e-17 -5.4004803913009065e-17 8.763879989116704e-17 -5.4004803913009065e-17 -0.9657731345618257 0.25938822748624024
12620981333.333334 -0.9631034633011013 0.2691314158125211 8.706689229645112e-17 -5.48843184754664e-17 8.706689229645112e-17 -5.48843184754664e-17 -0.9631036411746781 0.269130779280082
12621598666.666666 -0.9603356850263649 0.27884650269417194 8.648616641655407e-17 -5.575778912923046e-17 8.648616641655407e-17 -5.575778912923046e-17 -0.9603358693118039 0.27884586802204875
12622216000.0 -0.9574699107285622 0.2885331350976311 8.589668599973349e-17 -5.662512754438273e-17 8.589668599973349e-17 -5.662512754438273e-17 -0.957470101406432 0.28853250235040273
12622833333.333334 -0.9545064328414149 0.29819032456500716 8.529851567814135e-17 -5.748624606217329e-17 8.529851567814135e-17 -5.748624606217329e-17 -0.9545066298916343 0.29818969380705024
12623450666.666666 -0.9514455537687156 0.307817085642709 8.469172096077488e-17 -5.834105770384957e-17 8.469172096077488e-17 -5.834105770384957e-17 -0.9514457571705531 0.3078164569381899
12624068000.0 -0.9482875858533688 0.3174124359823002 8.407636822633214e-17 -5.918947617942054e-17 8.407636822633214e-17 -5.918947617942054e-17 -0.9482877955854497 0.3174118093951707
12624685333.333334 -0.9450328513455493 0.3269753964406627 8.345252471597035e-17 -6.003141589636031e-17 8.345252471597035e-17 -6.003141589636031e-17 -0.9450330673858537 0.3269747720346517
12625302666.666666 -0.9416816823698976 0.3365049911796679 8.282025852601356e-17 -6.086679196818639e-17 8.282025852601356e-17 -6.086679196818639e-17 -0.9416819046957631 0.3365043690182753
12625920000.0 -0.9382344208914877 0.3460002477661576 8.217963860052157e-17 -6.169552022303129e-17 8.217963860052157e-17 -6.169552022303129e-17 -0.9382346494796152 0.3459996279126486
12626537333.333334 -0.9346914186810601 0.35546019727082717 8.1530734723828e-17 -6.251751721206766e-17 8.1530734723828e-17 -6.251751721206766e-17 -0.9346916535075117 0.35545957978822496
12627154666.666666 -0.9310530372791042 0.364883874367152 8.087361751295717e-17 -6.333270021790041e-17 8.087361751295717e-17 -6.333270021790041e-17 -0.9310532783193087 0.3648832593182316
12627772000.0 -0.9273196479588455 0.37427031743021116 8.020835840995616e-17 -6.414098726288228e-17 8.020835840995616e-17 -6.414098726288228e-17 -0.9273198951876002 0.3742697048774936
12628389333.333334 -0.923491631688544 0.3836185686343386 7.953502967419002e-17 -6.494229711729263e-17 7.953502967419002e-17 -6.494229711729263e-17 -0.9234918850800169 0.38361795864008363
12629006666.666666 -0.9195693790924501 0.3929276740512847 7.885370437448325e-17 -6.573654930752345e-17 7.885370437448325e-17 -6.573654930752345e-17 -0.9195696386201834 0.3929270666774854
12629624000.0 -0.9155532904110643 0.4021966837472705 7.81644563812468e-17 -6.65236641241026e-17 7.81644563812468e-17 -6.65236641241026e-17 -0.9155535560479752 0.40219607905564564
12630241333.333334 -0.9114437754602116 0.4114246518801024 7.746736035848457e-17 -6.730356262968421e-17 7.746736035848457e-17 -6.730356262968421e-17 -0.9114440471785986 0.41142404993209214
12630858666.666666 -0.9072412535893462 0.4206106367954332 7.676249175574466e-17 -6.807616666692671e-17 7.676249175574466e-17 -6.807616666692671e-17 -0.9072415313608888 0.4206100376521909
12631476000.0 -0.9029461536385558 0.4297537011232902 7.604992679995974e-17 -6.884139886632408e-17 7.604992679995974e-17 -6.884139886632408e-17 -0.9029464374343188 0.4297531048456775
12632093333.333334 -0.8985589138950012 0.43885291187328757 7.532974248725464e-17 -6.959918265390237e-17 7.532974248725464e-17 -6.959918265390237e-17 -0.8985592036854383 0.4388523185218679
12632710666.666666 -0.8940799820481147 0.4479073405300157 7.460201657465015e-17 -7.034944225886115e-17 7.460201657465015e-17 -7.034944225886115e-17 -0.8940802778030694 0.4479067501650474
12633328000.0 -0.8895098151438466 0.4569160631479143 7.386682757167287e-17 -7.109210272114742e-17 7.386682757167287e-17 -7.109210272114742e-17 -0.889510116832558 0.45691547582934555
12633945333.333334 -0.884848879538129 0.46587816044535174 7.312425473193812e-17 -7.182708989889138e-17 7.312425473193812e-17 -7.182708989889138e-17 -0.8848491871292339 0.4658775762328145
12634562666.666666 -0.8800976508492797 0.47479271789846045 7.237437804462102e-17 -7.255433047579502e-17 7.237437804462102e-17 -7.255433047579502e-17 -0.8800979643108146 0.47479213685126287
12635180000.0 -0.8752566139093967 0.48365882583458025 7.161727822586876e-17 -7.327375196841706e-17 7.161727822586876e-17 -7.327375196841706e-17 -0.8752569332088027 0.48365824801170226
12635797333.333334 -0.8703262627149272 0.4924755795250114 7.085303671013617e-17 -7.398528273337265e-17 7.085303671013617e-17 -7.398528273337265e-17 -0.8703265878190528 0.49247500498509805
12636414666.666666 -0.8653071003762977 0.5012420792772605 7.00817356414613e-17 -7.468885197443347e-17 7.00817356414613e-17 -7.468885197443347e-17 -0.8653074312514034 0.5012415080786166
12637032000.0 -0.8601996390664816 0.5099574305270235 6.930345786464711e-17 -7.538438974955875e-17 6.930345786464711e-17 -7.538438974955875e-17 -0.8601999756782404 0.5099568627276061
12637649333.333334 -0.8550043999688417 0.5186207439292698 6.85182869164057e-17 -7.607182697780501e-17 6.85182869164057e-17 -7.607182697780501e-17 -0.855004742282347 0.518620179586685
12638266666.666666 -0.8497219132238542 0.5272311354491704 6.772630701640267e-17 -7.675109544617396e-17 6.772630701640267e-17 -7.675109544617396e-17 -0.8497222612036189 0.5272305746206648
12638884000.0 -0.8443527178750627 0.5357877264522057 6.692760305825695e-17 -7.742212781634522e-17 6.692760305825695e-17 -7.742212781634522e-17 -0.8443530714850264 0.5357871691946621
12639501333.333334 -0.8388973618140456 0.5442896437938749 6.612226060046183e-17 -7.80848576313279e-17 6.612226060046183e-17 -7.80848576313279e-17 -0.8388977210175764 0.5442890901638064
12640118666.666666 -0.833356401724599 0.5527360199086515 6.531036585725824e-17 -7.873921932200314e-17 6.531036585725824e-17 -7.873921932200314e-17 -0.8333567664844986 0.5527354699621956
12640736000.0 -0.8277304030256672 0.5611259928989167 6.449200568939367e-17 -7.938514821361191e-17 6.449200568939367e-17 -7.938514821361191e-17 -0.8277307733041726 0.5611254466918292
12641353333.333334 -0.822019939814082 0.5694587066222463 6.366726759490617e-17 -8.002258053207682e-17 6.366726759490617e-17 -8.002258053207682e-17 -0.8220203155728719 0.5694581642098961
12641970666.666666 -0.8162255948055573 0.577733310779414 6.283623969975513e-17 -8.065145341030048e-17 6.283623969975513e-17 -8.065145341030048e-17 -0.8162259760057542 0.5777327722167773
12642588000.0 -0.8103479592754458 0.5859489610008276 6.199901074843794e-17 -8.127170489432921e-17 6.199901074843794e-17 -8.127170489432921e-17 -0.8103483458776214 0.5859484263424827
12643205333.333334 -0.8043876329983732 0.5941048189327388 6.115567009454422e-17 -8.188327394942146e-17 6.115567009454422e-17 -8.188327394942146e-17 -0.8043880249625519 0.5941042882328603
12643822666.666666 -0.7983452241869697 0.6022000523228856 6.030630769123183e-17 -8.248610046603245e-17 6.030630769123183e-17 -8.248610046603245e-17 -0.7983456214726318 0.6021995256352384
12644440000.0 -0.7922213494298666 0.610233835105322 5.945101408166764e-17 -8.308012526568318e-17 5.945101408166764e-17 -8.308012526568318e-17 -0.7922217519959549 0.6102333124832574
12645057333.333334 -0.7860166336288378 0.6182053474846501 5.858988038939719e-17 -8.366529010674112e-17 5.858988038939719e-17 -8.366529010674112e-17 -0.7860170414337592 0.6182048289810983
12645674666.666666 -0.7797317099349264 0.6261137760198094 5.77229983086599e-17 -8.424153769009967e-17 5.77229983086599e-17 -8.424153769009967e-17 -0.779732122936557 0.6261132616872755
12646292000.0 -0.7733672196837789 0.6339583137071471 5.685046009462949e-17 -8.480881166477002e-17 5.685046009462949e-17 -8.480881166477002e-17 -0.7733676378394697 0.6339578035977058
12646909333.333334 -0.7669238123304178 0.6417381600625033 5.597235855366042e-17 -8.536705663333248e-17 5.597235855366042e-17 -8.536705663333248e-17 -0.7669242355969972 0.6417376542277927
12647526666.666666 -0.7604021453827877 0.649452521203115 5.508878703340136e-17 -8.591621815734007e-17 5.508878703340136e-17 -8.591621815734007e-17 -0.7604025737165679 0.6494520196943329
12648144000.0 -0.7538028843346621 0.657100609928627 5.4199839412906716e-17 -8.645624276258593e-17 5.4199839412906716e-17 -8.645624276258593e-17 -0.7538033176914416 0.6571001127965241
12648761333.333334 -0.7471267025978774 0.6646816458012444 5.330561009269243e-17 -8.698707794427261e-17 5.330561009269243e-17 -8.698707794427261e-17 -0.7471271409329473 0.6646811530961209
12649378666.666666 -0.7403742814335115 0.672194855225507 5.2406193984734485e-17 -8.750867217208382e-17 5.2406193984734485e-17 -8.750867217208382e-17 -0.7403747247016579 0.6721943669972047
12649996000.0 -0.7335463098823394 0.6796394715272437 5.1501686502405196e-17 -8.802097489515958e-17 5.1501686502405196e-17 -8.802097489515958e-17 -0.7335467580378512 0.6796389878251442
12650613333.333334 -0.7266434846945624 0.6870147350317681 5.059218355037911e-17 -8.852393654695778e-17 5.059218355037911e-17 -8.852393654695778e-17 -0.7266439376912335 0.6870142559047863
12651230666.666666 -0.7196665102587869 0.6943198931413147 4.967778151450721e-17 -8.901750855000347e-17 4.967778151450721e-17 -8.901750855000347e-17 -0.7196669680499216 0.6943194186378931
12651848000.0 -0.7126160985299304 0.7015542004120633 4.875857725158408e-17 -8.950164332056715e-17 4.875857725158408e-17 -8.950164332056715e-17 -0.7126165610683477 0.7015537305801679
12652465333.333334 -0.7054929689568243 0.7087169186299379 4.7834668079144e-17 -8.99762942731978e-17 4.7834668079144e-17 -8.99762942731978e-17 -0.705493436194865 0.7087164535170543
12653082666.666666 -0.6982978484086869 0.7158073168860646 4.690615176517774e-17 -9.044141582517021e-17 4.690615176517774e-17 -9.044141582517021e-17 -0.698298320298216 0.7158068565391916
12653700000.0 -0.6910314711008246 0.7228246716514719 4.597312651778297e-17 -9.089696340083769e-17 4.597312651778297e-17 -9.089696340083769e-17 -0.6910319475932375 0.7228242161171179
12654317333.333334 -0.6836945785199746 0.7297682668506639 4.5035690974835523e-17 -9.13428934358479e-17 4.5035690974835523e-17 -9.13428934358479e-17 -0.6836950595662017 0.7297678161748412
12654934666.666666 -0.6762879193484389 0.7366373939348906 4.409394419355756e-17 -9.177916338128263e-17 4.409394419355756e-17 -9.177916338128263e-17 -0.6762884048989501 0.7366369481631114
12655552000.0 -0.6688122493876609 0.7434313519544666 4.314798564006961e-17 -9.22057317076788e-17 4.314798564006961e-17 -9.22057317076788e-17 -0.6688127393924718 0.743430911131738
12656169333.333334 -0.6612683314813745 0.7501494476300481 4.2197915178941146e-17 -9.26225579089254e-17 4.2197915178941146e-17 -9.26225579089254e-17 -0.6612688258900522 0.7501490118008693
12656786666.666666 -0.6536569354374279 0.7567909954236898 4.1243833062627855e-17 -9.302960250608827e-17 4.1243833062627855e-17 -9.302960250608827e-17 -0.6536574341990927 0.7567905646320435
12657404000.0 -0.6459788379494125 0.7633553176086186 4.028583992093799e-17 -9.342682705109537e-17 4.028583992093799e-17 -9.342682705109537e-17 -0.6459793410127479 0.763354891897972
12658021333.333334 -0.6382348225173491 0.7698417443384559 3.932403675043281e-17 -9.381419413032969e-17 3.932403675043281e-17 -9.381419413032969e-17 -0.6382353298306033 0.7698413237517516
12658638666.666666 -0.6304256793678418 0.7762496137154745 3.8358524903813706e-17 -9.419166736810285e-17 3.8358524903813706e-17 -9.419166736810285e-17 -0.630426190878835 0.7762491982951292
12659256000.0 -0.6225522053732012 0.7825782718583436 3.7389406079236745e-17 -9.455921143003693e-17 3.7389406079236745e-17 -9.455921143003693e-17 -0.6225527210293302 0.7825778616462424
12659873333.333334 -0.6146152039704138 0.7888270729686165 3.6416782309643564e-17 -9.491679202631683e-17 3.6416782309643564e-17 -9.491679202631683e-17 -0.6146157237186571 0.7888266680061085
12660490666.666666 -0.6066154850790259 0.7949953793967407 3.5440755952051386e-17 -9.526437591483841e-17 3.5440755952051386e-17 -9.526437591483841e-17 -0.60661600886595 0.7949949797246355
12661108000.0 -0.5985538650183587 0.8010825617072267 3.446142967675903e-17 -9.560193090426588e-17 3.446142967675903e-17 -9.560193090426588e-17 -0.5985543927901243 0.8010821673657914
12661725333.333334 -0.5904311664245053 0.807087998742657 3.347890645661707e-17 -9.592942585694566e-17 3.347890645661707e-17 -9.592942585694566e-17 -0.5904316981268699 0.8070876097716088
12662342666.666666 -0.5822482181661099 0.8130110776872723 3.2493289556189164e-17 -9.624683069173887e-17 3.2493289556189164e-17 -9.624683069173887e-17 -0.5822487537444363 0.8130106941257776
12662960000.0 -0.5740058552599947 0.8188511941293555 3.1504682520933566e-17 -9.655411638672666e-17 3.1504682520933566e-17 -9.655411638672666e-17 -0.5740063946592556 0.8188508160160257
12663577333.333334 -0.5657049187857912 0.8246077521230261 3.0513189166343493e-17 -9.68512549818106e-17 3.0513189166343493e-17 -9.68512549818106e-17 -0.5657054619505747 0.824607379495912
12664194666.666666 -0.5573462558002062 0.830280164248985 2.951891356706355e-17 -9.713821958120135e-17 2.951891356706355e-17 -9.713821958120135e-17 -0.5573468026747207 0.8302797971455732
12664812000.0 -0.5489307192505581 0.8358678516744702 2.852196004599743e-17 -9.741498435579212e-17 2.852196004599743e-17 -9.741498435579212e-17 -0.5489312697786406 0.8358674901316822
12665429333.333334 -0.5404591678877213 0.8413702442123445 2.7522433163363515e-17 -9.76815245454292e-17 2.7522433163363515e-17 -9.76815245454292e-17 -0.5404597220128403 0.8413698882665293
12666046666.666666 -0.5319324661786117 0.8467867803791992 2.6520437705774677e-17 -9.793781646105835e-17 2.6520437705774677e-17 -9.793781646105835e-17 -0.5319330238438739 0.8467864300661302
12666664000.0 -0.5233514842176853 0.8521169074528296 2.551607867524017e-17 -9.818383748677447e-17 2.551607867524017e-17 -9.818383748677447e-17 -0.523352045365843 0.8521165628077046
12667281333.333334 -0.5147170976385882 0.8573600815283732 2.4509461278222307e-17 -9.841956608174114e-17 2.4509461278222307e-17 -9.841956608174114e-17 -0.5147176622120423 0.8573597425858052
12667898666.666666 -0.5060301875244119 0.8625157675740415 2.350069091460876e-17 -9.86449817820137e-17 2.350069091460876e-17 -9.86449817820137e-17 -0.5060307554652211 0.8625154343680613
12668516000.0 -0.497291640317886 0.867583439485665 2.24898731666945e-17 -9.886006520224432e-17 2.24898731666945e-17 -9.886006520224432e-17 -0.49729221156777004 0.867583112049713
12669133333.333334 -0.48850234773111345 0.8725625801402555 2.1477113788188422e-17 -9.906479803726555e-17 2.1477113788188422e-17 -9.906479803726555e-17 -0.4885029222314606 0.8725622585071808
12669750666.666666 -0.47966320665431156 0.8774526814489385 2.0462518693124808e-17 -9.925916306357906e-17 2.0462518693124808e-17 -9.925916306357906e-17 -0.47966378434618373 0.8774523656509945
12670368000.0 -0.4707751190644842 0.8822532444086846 1.944619394483004e-17 -9.944314414071648e-17 1.944619394483004e-17 -9.944314414071648e-17 -0.47077569988862333 0.8822529344775256
12670985333.333334 -0.46183899193330846 0.8869637791532718 1.8428245744861384e-17 -9.961672621249217e-17 1.8428245744861384e-17 -9.961672621249217e-17 -0.46183957583014323 0.886963475119952
