! Parameters = {f0=12700.012000; bw=77.238000; Q=6100.000000; N=10; m_0_1=1.342838; m_1_1=1.377822; m_1_2=1.177650; m_2_2=1.377173; m_2_3=0.814613; m_2_8=0.004206; m_2_9=0.040910; m_3_3=1.375236; m_3_4=0.703142; m_3_7=0.004806; m_3_8=-0.092282; m_3_9=0.004206; m_4_4=1.372311; m_4_5=0.539477; m_4_6=0.008323; m_4_7=-0.112831; m_4_8=0.004806; m_5_5=1.372693; m_5_6=0.946832; m_5_7=0.008323; m_6_6=1.372692; m_6_7=0.539819; m_7_7=1.372325; m_7_8=0.703260; m_8_8=1.375234; m_8_9=0.814926; m_9_9=1.377168; m_9_10=1.178728; m_10_10=1.377812; m_10_11=1.343633}
!
! Created with skrf (http://scikit-rf.org).
# Hz S RI R 50.0 
!freq ReS11 ImS11 ReS21 ImS21 ReS12 ImS12 ReS22 ImS22
12607400000.0 0.7355591431031172 0.6774605132383816 -1.3832932250617315e-16 -6.789804985849467e-17 -1.3832932250617315e-16 -6.789804985849467e-17 0.735558663903361 0.6774610335336676
12608017333.333334 0.7440874587256557 0.6680822208134246 -1.3915749041932748e-16 -6.611385713231512e-17 -1.3915749041932748e-16 -6.611385713231512e-17 0.7440869861827372 0.6680827471154259
12608634666.666666 0.7524962109981753 0.6585965779088073 -1.3996266007827721e-16 -6.431959055280305e-17 -1.3996266007827721e-16 -6.431959055280305e-17 0.7524957451873687 0.6585971101323707
12609252000.0 0.760784048764261 0.6490051087207727 -1.4074470931092888e-16 -6.251554638353596e-17 -1.4074470931092888e-16 -6.251554638353596e-17 0.7607835897597516 0.6490056467798021
12609869333.333334 0.7689496402966282 0.6393093544501669 -1.4150351975932632e-16 -6.070202236485358e-17 -1.4150351975932632e-16 -6.070202236485358e-17 0.7689491881715015 0.6393098982576383
12610486666.666666 0.7769916735110393 0.6295108730548804 -1.4223897689742195e-16 -5.887931766481587e-17 -1.4223897689742195e-16 -5.887931766481587e-17 0.7769912283372676 0.6295114225228534
12611104000.0 0.7849088561773105 0.6196112389992838 -1.4295097004826787e-16 -5.704773282982687e-17 -1.4295097004826787e-16 -5.704773282982687e-17 0.7849084180257435 0.6196117940389186
12611721333.333334 0.7926999161265653 0.6096120430017269 -1.4363939240049248e-16 -5.52075697352471e-17 -1.4363939240049248e-16 -5.52075697352471e-17 0.7926994850669152 0.6096126035232952
12612338666.666666 0.8003636014561086 0.5995148917783525 -1.4430414102420517e-16 -5.3359131535655386e-17 -1.4430414102420517e-16 -5.3359131535655386e-17 0.8003631775569432 0.5995154576912555
12612956000.0 0.8078986807303773 0.5893214077851914 -1.4494511688625996e-16 -5.150272261492096e-17 -1.4494511688625996e-16 -5.150272261492096e-17 0.8078982640591059 0.5893219789979722
12613573333.333334 0.815303943178641 0.5790332289576843 -1.4556222486482113e-16 -4.96386485362507e-17 -1.4556222486482113e-16 -4.96386485362507e-17 0.8153035338015063 0.579033805378044
12614190666.666666 0.8225781988898344 0.5686520084471328 -1.461553737633592e-16 -4.776721599186716e-17 -1.461553737633592e-16 -4.776721599186716e-17 0.8225777968719002 0.5686525899819447
12614808000.0 0.8297202790037127 0.5581794143551012 -1.4672447632395594e-16 -4.588873275264524e-17 -1.4672447632395594e-16 -4.588873275264524e-17 0.829719884408853 0.5581800009104252
12615425333.333334 0.836729035898508 0.5476171294656119 -1.4726944923996804e-16 -4.400350761758526e-17 -1.4726944923996804e-16 -4.400350761758526e-17 0.836728648789399 0.5476177209467112
12616042666.666666 0.8436033433754347 0.5369668509746116 -1.4779021316806583e-16 -4.211185036306365e-17 -1.4779021316806583e-16 -4.211185036306365e-17 0.8436029638135436 0.5369674472859672
12616660000.0 0.850342096839746 0.5262302902171134 -1.4828669273959505e-16 -4.0214071692027113e-17 -1.4828669273959505e-16 -4.0214071692027113e-17 0.8503417248853206 0.526230891262439
12617277333.333334 0.856944213478063 0.5154091723924473 -1.4875881657130188e-16 -3.8310483183005947e-17 -1.4875881657130188e-16 -3.8310483183005947e-17 0.8569438491901237 0.515409778074706
12617894666.666666 0.8634086324323483 0.5045052362871024 -1.4920651727539276e-16 -3.6401397239055387e-17 -1.4920651727539276e-16 -3.6401397239055387e-17 0.8634082758686777 0.5045058465085218
12618512000.0 0.8697343149706303 0.4935202339948909 -1.4962973146896087e-16 -3.4487127036489275e-17 -1.4962973146896087e-16 -3.4487127036489275e-17 0.8697339661877639 0.49352084865697826
12619129333.333334 0.8759202446536167 0.48245593063589964 -1.5002839978272768e-16 -3.2567986473635383e-17 -1.5002839978272768e-16 -3.2567986473635383e-17 0.8759199037068351 0.48245654963945883
12619746666.666666 0.8819654274981419 0.47131410407267005 -1.5040246686915406e-16 -3.0644290119373934e-17 -1.5040246686915406e-16 -3.0644290119373934e-17 0.8819650944414608 0.47131472731781704
12620364000.0 0.8878688921369623 0.46009654462437155 -1.5075188140988287e-16 -2.871635316162958e-17 -1.5075188140988287e-16 -2.871635316162958e-17 0.8878685670231246 0.4600971720105506
12620981333.333334 0.8936296899746786 0.4488050547794251 -1.510765961225068e-16 -2.6784491355868412e-17 -1.510765961225068e-16 -2.6784491355868412e-17 0.8936293728551453 0.4488056862054247
12621598666.666666 0.8992468953402678 0.4374414489056706 -1.5137656776670873e-16 -2.4849020973351433e-17 -1.5137656776670873e-16 -2.4849020973351433e-17 0.899246586265211 0.4374420842696405
12622216000.0 0.9047196056357734 0.4260075529589282 -1.5165175714970973e-16 -2.291025874949562e-17 -1.5165175714970973e-16 -2.291025874949562e-17 0.9047193046540674 0.42600819215839486
12622833333.333334 0.9100469414814587 0.4145052041893375 -1.5190212913108095e-16 -2.0968521832033655e-17 -1.5190212913108095e-16 -2.0968521832033655e-17 0.9100466486406734 0.4145058471212217
12623450666.666666 0.9152280468568716 0.40293625084665546 -1.5212765262687215e-16 -1.9024127729264563e-17 -1.5212765262687215e-16 -1.9024127729264563e-17 0.9152277622032626 0.40293689740728755
12624068000.0 0.9202620892386071 0.39130255188280727 -1.523283006130955e-16 -1.7077394258145023e-17 -1.523283006130955e-16 -1.7077394258145023e-17 0.9202618128171115 0.3913032019679455
12624685333.333334 0.925148259734054 0.3796059766532312 -1.52504050128539e-16 -1.51286394923938e-17 -1.52504050128539e-16 -1.51286394923938e-17 0.925147991588282 0.3796066301580777
12625302666.666666 0.9298857732112397 0.3678484046168166 -1.5265488227691042e-16 -1.317818171066144e-17 -1.5265488227691042e-16 -1.317818171066144e-17 0.929885513383466 0.3678490614360337
12625920000.0 0.9344738684251611 0.3560317250334834 -1.527807822283341e-16 -1.1226339344513425e-17 -1.527807822283341e-16 -1.1226339344513425e-17 0.9344736169563206 0.35603238506121127
12626537333.333334 0.9389118081399747 0.34415783666092215 -1.5288173922017112e-16 -9.273430926573632e-18 -1.5288173922017112e-16 -9.273430926573632e-18 0.9389115650696565 0.3441584997907966
12627154666.666666 0.9431988792474493 0.3322286474495509 -1.5295774655718343e-16 -7.319775038584749e-18 -1.5295774655718343e-16 -7.319775038584749e-18 0.9431986446138871 0.3322293135747188
12627772000.0 0.9473343928817236 0.32024607423545437 -1.5300880161103665e-16 -5.365690259437541e-18 -1.5300880161103665e-16 -5.365690259437541e-18 0.9473341667217923 0.320246743248592
12628389333.333334 0.9513176845297807 0.30821204243296574 -1.530349058191331e-16 -3.4114951133947608e-18 -1.530349058191331e-16 -3.4114951133947608e-18 0.951317466878992 0.3082127142262964
12629006666.666666 0.9551481141383985 0.2961284857248004 -1.5303606468279187e-16 -1.4575080181355425e-18 -1.5303606468279187e-16 -1.4575080181355425e-18 0.9551479050308922 0.29612916019011076
12629624000.0 0.9588250662168684 0.2839973457517203 -1.5301228776476302e-16 4.959527670234011e-19 -1.5301228776476302e-16 4.959527670234011e-19 0.9588248656854068 0.28399802278037817
12630241333.333334 0.9623479499359616 0.2718205718003248 -1.5296358868608168e-16 2.4485691929214448e-18 -1.5296358868608168e-16 2.4485691929214448e-18 0.9623477580119288 0.27182125128329726
12630858666.666666 0.9657161992228415 0.2596001204899414 -1.5288998512226462e-16 4.400023472232372e-18 -1.5288998512226462e-16 4.400023472232372e-18 0.9657160159362335 0.2596008023178114
12631476000.0 0.968929272852092 0.24733795545795176 -1.5279149879884372e-16 6.349998131218926e-18 -1.5279149879884372e-16 6.349998131218926e-18 0.9689290982315144 0.24733863952093624
12632093333.333334 0.9719866545325361 0.23503604704481432 -1.5266815548624736e-16 8.29817606120748e-18 -1.5266815548624736e-16 8.29817606120748e-18 0.9719864886051996 0.23503673323278187
12632710666.666666 0.974887852990332 0.22269637197696784 -1.5251998499402129e-16 1.0244240570156991e-17 -1.5251998499402129e-16 1.0244240570156991e-17 0.9748876957820481 0.22269706017945648
12633328000.0 0.9776324020478918 0.21032091304925515 -1.5234702116439254e-16 1.2187875434087662e-17 -1.5234702116439254e-16 1.2187875434087662e-17 0.9776322535830679 0.21032160315548992
12633945333.333334 0.9802198606987239 0.19791165880659553 -1.5214930186518346e-16 1.4128764948378697e-17 -1.5214930186518346e-16 1.4128764948378697e-17 0.9802197210003605 0.19791235070550636
12634562666.666666 0.9826498131783372 0.18547060322429068 -1.5192686898206965e-16 1.6066593978996036e-17 -1.5192686898206965e-16 1.6066593978996036e-17 0.9826496822680245 0.1854712968045306
12635180000.0 0.9849218690310814 0.1729997453874566 -1.5167976841018734e-16 1.8001048013607252e-17 -1.5167976841018734e-16 1.8001048013607252e-17 0.9849217469289948 0.173000440537419
12635797333.333334 0.9870356631728169 0.16050108917013525 -1.514080500450941e-16 1.9931813212531844e-17 -1.514080500450941e-16 1.9931813212531844e-17 0.9870355498977154 0.16050178577797253
12636414666.666666 0.9889908559496281 0.1479766429130808 -1.5111176777307318e-16 2.185857645965725e-17 -1.5111176777307318e-16 2.185857645965725e-17 0.9889907515188491 0.14797734086672176
12637032000.0 0.9907871331923828 0.1354284191011052 -1.5079097946080428e-16 2.3781025413087545e-17 -1.5079097946080428e-16 2.3781025413087545e-17 0.9907870376218417 0.1354291182882735
12637649333.333334 0.9924242062672173 0.12285843403970363 -1.5044574694437643e-16 2.5698848555775636e-17 -1.5044574694437643e-16 2.5698848555775636e-17 0.9924241195714056 0.1228591343479358
12638266666.666666 0.9939018121219118 0.11026870753112178 -1.5007613601766922e-16 2.7611735245906568e-17 -1.5007613601766922e-16 2.7611735245906568e-17 0.9939017343138926 0.1102694088477851
12638884000.0 0.9952197133281809 0.09766126254957887 -1.4968221642008957e-16 2.9519375767161744e-17 -1.4968221642008957e-16 2.9519375767161744e-17 0.995219644419588 0.09766196476188962
12639501333.333334 0.9963776981197854 0.0850381249165456 -1.4926406182366884e-16 3.142146137881243e-17 -1.4926406182366884e-16 3.142146137881243e-17 0.9963776381208217 0.08503882791158718
12640118666.666666 0.9973755804265838 0.07240132297505715 -1.4882174981953717e-16 3.331768436558435e-17 -1.4882174981953717e-16 3.331768436558435e-17 0.9973755293460199 0.0724020266397982
12640736000.0 0.9982131999044451 0.05975288726356264 -1.4835536190373037e-16 3.5207738087479104e-17 -1.4835536190373037e-16 3.5207738087479104e-17 0.9982131577496174 0.059753591484875246
12641353333.333334 0.9988904219609701 0.04709485019021596 -1.4786498346242745e-16 3.7091317029148153e-17 -1.4786498346242745e-16 3.7091317029148153e-17 0.9988903887377798 0.047095554854893786
12641970666.666666 0.9994071377771593 0.03442924570578905 -1.4735070375648886e-16 3.896811684935926e-17 -1.4735070375648886e-16 3.896811684935926e-17 0.999407113490073 0.034429950700565655
12642588000.0 0.9997632643248864 0.021758108976903865 -1.4681261590542266e-16 4.083783443003335e-17 -1.4681261590542266e-16 4.083783443003335e-17 0.9997632489769341 0.02175881418847078
12643205333.333334 0.9999587443802282 0.009083476059353328 -1.4625081687070607e-16 4.2700167925155596e-17 -1.4625081687070607e-16 4.2700167925155596e-17 0.9999587379730029 0.00908418137437832
12643822666.666666 0.9999935465326736 -0.0035926164295157492 -1.4566540743849236e-16 4.4554816809443557e-17 -1.4566540743849236e-16 4.4554816809443557e-17 0.9999935490663318 -0.0035919111243704507
12644440000.0 0.9998676651901611 -0.016268131637657786 -1.450564922016987e-16 4.640148192678941e-17 -1.450564922016987e-16 4.640148192678941e-17 0.9998676766634229 -0.016267426455717313
12645057333.333334 0.9995811205799819 -0.028941032805903235 -1.4442417954149112e-16 4.823986553842712e-17 -1.4442417954149112e-16 4.823986553842712e-17 0.9995811409901313 -0.028940327860461856
12645674666.666666 0.9991339587455347 -0.0416092835948933 -1.437685816081509e-16 5.0069671370883557e-17 -1.437685816081509e-16 5.0069671370883557e-17 0.9991339880884204 -0.041608578999196254
12646292000.0 0.9985262515389134 -0.054270848412856426 -1.4308981430131488e-16 5.1890604663720336e-17 -1.4308981430131488e-16 5.1890604663720336e-17 0.998526289808948 -0.054270144280081645
12646909333.333334 0.9977580966093739 -0.0669236927421281 -1.4238799724966845e-16 5.370237221685593e-17 -1.4238799724966845e-16 5.370237221685593e-17 0.9977581437995376 -0.06692298918536817
12647526666.666666 0.9968296173876453 -0.07956578346629406 -1.416632537899884e-16 5.55046824377624e-17 -1.416632537899884e-16 5.55046824377624e-17 0.9968296734894841 -0.07956508059853785
12648144000.0 0.995740963066074 -0.09219508919705015 -1.4091571094558976e-16 5.729724538837257e-17 -1.4091571094558976e-16 5.729724538837257e-17 0.9957410280697047 -0.09219438713116493
12648761333.333334 0.9944923085746808 -0.1048095806002751 -1.4014549940422164e-16 5.907977283159477e-17 -1.4014549940422164e-16 5.907977283159477e-17 0.9944923824687903 -0.10480887944898828
12649378666.666666 0.9930838545530365 -0.11740723072234019 -1.3935275349534908e-16 6.08519782776058e-17 -1.3935275349534908e-16 6.08519782776058e-17 0.9930839373248833 -0.11740653059822108
12649996000.0 0.991515827318027 -0.1299860153156953 -1.3853761116683048e-16 6.261357702987975e-17 -1.3853761116683048e-16 6.261357702987975e-17 0.9915159189534469 -0.12998531633113755
12650613333.333334 0.989788478827461 -0.14254391316441758 -1.3770021396106085e-16 6.436428623080439e-17 -1.3770021396106085e-16 6.436428623080439e-17 0.9897885793108641 -0.14254321543162027
12651230666.666666 0.9879020866396573 -0.15507890640836808 -1.3684070699050863e-16 6.61038249070516e-17 -1.3684070699050863e-16 6.61038249070516e-17 0.9879021959540352 -0.15507821003931851
12651848000.0 0.9858569538687426 -0.16758898086822024 -1.3595923891266298e-16 6.78319140146534e-17 -1.3595923891266298e-16 6.78319140146534e-17 0.9858570719956694 -0.16758828597467568
12652465333.333334 0.9836534091360308 -0.18007212636848755 -1.3505596190446665e-16 6.954827648363754e-17 -1.3505596190446665e-16 6.954827648363754e-17 0.9836535360556664 -0.18007143306195722
12653082666.666666 0.9812918065171908 -0.1925263370607537 -1.3413103163615395e-16 7.1252637262395e-17 -1.3413103163615395e-16 7.1252637262395e-17 0.9812919422082859 -0.19252564545248113
12653700000.0 0.9787725254853181 -0.20494961174614834 -1.3318460724450707e-16 7.294472336173835e-17 -1.3318460724450707e-16 7.294472336173835e-17 0.9787726699252122 -0.20494892194709283
12654317333.333334 0.9760959708500159 -0.21733995419657262 -1.3221685130561618e-16 7.462426389850103e-17 -1.3221685130561618e-16 7.462426389850103e-17 0.9760961240146492 -0.21733926631739273
12654934666.666666 0.9732625726923303 -0.2296953734756324 -1.3122792980703249e-16 7.629099013888285e-17 -1.3122792980703249e-16 7.629099013888285e-17 0.9732627345562409 -0.22969468762666675
12655552000.0 0.9702727862955803 -0.24201388425876974 -1.302180121193958e-16 7.79446355413897e-17 -1.302180121193958e-16 7.79446355413897e-17 0.9702729568319111 -0.24201320055002004
12656169333.333334 0.967127092072345 -0.25429350715166604 -1.291872709675673e-16 7.958493579932602e-17 -1.291872709675673e-16 7.958493579932602e-17 0.9671272712528507 -0.25429282569278006
12656786666.666666 0.9638259954870897 -0.2665322690090745 -1.2813588240113906e-16 8.1211628883055e-17 -1.2813588240113906e-16 8.1211628883055e-17 0.9638261832821362 -0.26653158990932724
12657404000.0 0.9603700269750849 -0.2787282032512657 -1.2706402576450231e-16 8.282445508172342e-17 -1.2706402576450231e-16 8.282445508172342e-17 0.9603702233536584 -0.27872752661954264
12658021333.333334 0.956759741857113 -0.2908793501803031 -1.259718836663143e-16 8.442315704471768e-17 -1.259718836663143e-16 8.442315704471768e-17 0.9567599467868225 -0.29087867612508234
12658638666.666666 0.9529957202502611 -0.302983757294826 -1.2485964194852362e-16 8.600747982259546e-17 -1.2485964194852362e-16 8.600747982259546e-17 0.9529959336973465 -0.3029830859241616
12659256000.0 0.9490785669746432 -0.3150394796040046 -1.2372748965478648e-16 8.757717090775409e-17 -1.2372748965478648e-16 8.757717090775409e-17 0.9490787889039767 -0.3150388110255081
12659873333.333334 0.9450089114563113 -0.32704457993974256 -1.2257561899846965e-16 8.91319802745426e-17 -1.2257561899846965e-16 8.91319802745426e-17 0.9450091418314066 -0.32704391426056667
12660490666.666666 0.94078740762607 -0.3389971292681148 -1.2140422533010308e-16 9.067166041902603e-17 -1.2140422533010308e-16 9.067166041902603e-17 0.940787646409089 -0.33899646659493626
12661108000.0 0.9364147338143233 -0.3508952069995469 -1.2021350710430596e-16 9.219596639835645e-17 -1.2021350710430596e-16 9.219596639835645e-17 0.9364149809660783 -0.3508945474385484
12661725333.333334 0.9318915926422648 -0.3627369012968877 -1.1900366584629429e-16 9.370465586961648e-17 -1.1900366584629429e-16 9.370465586961648e-17 0.9318918481222291 -0.36273624495374224
12662342666.666666 0.9272187109088101 -0.37452030938309544 -1.177749061178217e-16 9.519748912832568e-17 -1.177749061178217e-16 9.519748912832568e-17 0.9272189746751216 -0.37451965636294804
12662960000.0 0.9223968394738208 -0.3862435378469278 -1.1652743548269764e-16 9.667422914642778e-17 -1.1652743548269764e-16 9.667422914642778e-17 0.9223971114832911 -0.3862428882543799
12663577333.333334 0.9174267531375613 -0.3979047029469201 -1.1526146447179792e-16 9.813464160986812e-17 -1.1526146447179792e-16 9.813464160986812e-17 0.9174270333456815 -0.39790405688601216
12664194666.666666 0.9123092505161154 -0.40950193091428544 -1.139772065476388e-16 9.957849495567402e-17 -1.139772065476388e-16 9.957849495567402e-17 0.9123095388770629 -0.4095012884884798
12664812000.0 0.9070451539131069 -0.42103335825389515 -1.1267487806843214e-16 1.0100556040863935e-16 -1.1267487806843214e-16 1.0100556040863935e-16 0.9070454503797545 -0.4210327195660605
12665429333.333334 0.901635309187447 -0.43249713204397194 -1.1135469825173183e-16 1.0241561201748022e-16 -1.1135469825173183e-16 1.0241561201748022e-16 0.9016356137113698 -0.4324964971963664
12666046666.666666 0.8960805856176851 -0.44389141023325923 -1.100168891376372e-16 1.038084266905128e-16 -1.100168891376372e-16 1.038084266905128e-16 0.8960808981491668 -0.4438907793275133
12666664000.0 0.8903818757619847 -0.4552143619377291 -1.0866167555146163e-16 1.0518378423094457e-16 -1.0866167555146163e-16 1.0518378423094457e-16 0.8903821962500296 -0.455213735074831
12667281333.333334 0.8845400953149786 -0.46646416773421445 -1.0728928506610453e-16 1.0654146737153095e-16 -1.0728928506610453e-16 1.0654146737153095e-16 0.8845404237073156 -0.4664635450144921
12667898666.666666 0.8785561829605288 -0.47763901995296587 -1.0589994796387782e-16 1.0788126180885957e-16 -1.0589994796387782e-16 1.0788126180885957e-16 0.8785565192036235 -0.4776384014760725
12668516000.0 0.8724311002208169 -0.48873712296826793 -1.0449389719790419e-16 1.0920295623713671e-16 -1.0449389719790419e-16 1.0920295623713671e-16 0.8724314442598771 -0.4887365088331646
12669133333.333334 0.8661658313019975 -0.49975669348666496 -1.030713683532129e-16 1.1050634238135887e-16 -1.030713683532129e-16 1.1050634238135887e-16 0.8661661830809848 -0.499756083791606
12669750666.666666 0.8597613829359496 -0.5106959608337117 -1.0163259960727392e-16 1.1179121503012134e-16 -1.0163259960727392e-16 1.1179121503012134e-16 0.8597617423975875 -0.5106953556762284
