! Parameters = {f0=12700.012000; bw=77.238000; Q=6100.000000; N=10; m_0_1=1.291587; m_1_1=0.609053; m_1_2=1.126399; m_2_2=0.608404; m_2_3=0.763362; m_2_8=0.001643; m_2_9=0.038347; m_3_3=0.606467; m_3_4=0.651891; m_3_7=0.002243; m_3_8=-0.094845; m_3_9=0.001643; m_4_4=0.603542; m_4_5=0.488226; m_4_6=0.005760; m_4_7=-0.115394; m_4_8=0.002243; m_5_5=0.603924; m_5_6=0.895581; m_5_7=0.005760; m_6_6=0.603923; m_6_7=0.488568; m_7_7=0.603556; m_7_8=0.652009; m_8_8=0.606465; m_8_9=0.763675; m_9_9=0.608399; m_9_10=1.127477; m_10_10=0.609043; m_10_11=1.292382}
!
! Created with skrf (http://scikit-rf.org).
# Hz S RI R 50.0 
!freq ReS11 ImS11 ReS21 ImS21 ReS12 ImS12 ReS22 ImS22
12607400000.0 0.9579155315583106 0.2870502297493882 -1.2232082342713871e-16 -3.8372042828936505e-19 -1.2232082342713871e-16 -3.8372042828936505e-19 0.957915336236315 0.2870508815577554
12608017333.333334 0.961059599071257 0.2763411786773952 -1.2229344772607236e-16 9.92164222435352e-19 -1.2229344772607236e-16 9.92164222435352e-19 0.9610594110453823 0.2763418325931121
12608634666.666666 0.9640839484124063 0.26559770408149663 -1.2225060523217562e-16 2.367384519791032e-18 -1.2225060523217562e-16 2.367384519791032e-18 0.9640837677053595 0.26559836002290343
12609252000.0 0.9669882028418586 0.2548211442649357 -1.221923074236589e-16 3.741766701805556e-18 -1.221923074236589e-16 3.741766701805556e-18 0.9669880294754315 0.25482180215012795
12609869333.333334 0.969772000579823 0.2440128416522893 -1.2211856772967652e-16 5.11513718059608e-18 -1.2211856772967652e-16 5.11513718059608e-18 0.9697718345748937 0.24401350139912897
12610486666.666666 0.9724349948516462 0.23317414262241007 -1.2202940152786505e-16 6.48732256423943e-18 -1.2202940152786505e-16 6.48732256423943e-18 0.9724348362281708 0.2331748041485348
12611104000.0 0.9749768539310802 0.22230639734040508 -1.2192482614163207e-16 7.858149678681971e-18 -1.2192482614163207e-16 7.858149678681971e-18 0.974976702708095 0.22230706056323907
12611721333.333334 0.9773972611815128 0.21141095958983352 -1.2180486083720722e-16 9.227445589492007e-18 -1.2180486083720722e-16 9.227445589492007e-18 0.9773971173771306 0.21141162442659786
12612338666.666666 0.979695915095473 0.2004891866038198 -1.216695268204412e-16 1.0595037623687734e-17 -1.216695268204412e-16 1.0595037623687734e-17 0.9796957787268794 0.20048985297154245
12612956000.0 0.9818725293322048 0.18954243889587122 -1.2151884723336253e-16 1.196075339148883e-17 -1.2151884723336253e-16 1.196075339148883e-17 0.9818724004156592 0.18954310671139774
12613573333.333334 0.9839268327532569 0.17857208009081912 -1.2135284715049732e-16 1.3324420807961627e-17 -1.2135284715049732e-16 1.3324420807961627e-17 0.9839267113040875 0.17857274927082273
12614190666.666666 0.9858585694563318 0.16757947675456272 -1.2117155357493527e-16 1.468586811471732e-17 -1.2117155357493527e-16 1.468586811471732e-17 0.9858584554889364 0.16758014721555503
12614808000.0 0.987667498807133 0.1565659982240052 -1.2097499543416171e-16 1.6044923901491417e-17 -1.2097499543416171e-16 1.6044923901491417e-17 0.9876673923349758 0.15656666988234627
12615425333.333334 0.9893533954693426 0.14553301643647704 -1.2076320357564372e-16 1.7401417127694785e-17 -1.2076320357564372e-16 1.7401417127694785e-17 0.9893532965049516 0.14553368920838597
12616042666.666666 0.9909160494327058 0.13448190575872276 -1.205362107621778e-16 1.875517714390275e-17 -1.205362107621778e-16 1.875517714390275e-17 0.9909159579876734 0.13448257956028817
12616660000.0 0.9923552660391645 0.12341404281586561 -1.2029405166699263e-16 2.0106033713303255e-17 -1.2029405166699263e-16 2.0106033713303255e-17 0.992355182124147 0.12341471756305632
12617277333.333334 0.9936708660071324 0.1123308063197834 -1.2003676286861822e-16 2.145381703305379e-17 -1.2003676286861822e-16 2.145381703305379e-17 0.993670789631845 0.11233148192845831
12617894666.666666 0.9948626854538014 0.10123357689753201 -1.1976438284551378e-16 2.2798357755588732e-17 -1.1976438284551378e-16 2.2798357755588732e-17 0.9948626166270195 0.10123425328345106
12618512000.0 0.9959305759155919 0.09012373691905169 -1.194769519704498e-16 2.413948700989815e-17 -1.194769519704498e-16 2.413948700989815e-17 0.9959305146451515 0.09012441399788643
12619129333.333334 0.9968744043666081 0.07900267032536291 -1.1917451250466941e-16 2.5477036422656486e-17 -1.1917451250466941e-16 2.5477036422656486e-17 0.9968743506594006 0.07900334801270653
12619746666.666666 0.9976940532352316 0.06787176245591514 -1.1885710859179653e-16 2.6810838139358062e-17 -1.1885710859179653e-16 2.6810838139358062e-17 0.9976940070972075 0.06787244066729352
12620364000.0 0.9983894204187752 0.05673239987590354 -1.1852478625151222e-16 2.8140724845361654e-17 -1.1852478625151222e-16 2.8140724845361654e-17 0.9983893818549412 0.05673307852678549
12620981333.333334 0.9989604192961703 0.045585970203971024 -1.1817759337301022e-16 2.946652978679444e-17 -1.1817759337301022e-16 2.946652978679444e-17 0.998960388310589 0.04558664920977885
12621598666.666666 0.9994069787387855 0.03443386193895711 -1.178155797081968e-16 3.078808679147465e-17 -1.178155797081968e-16 3.078808679147465e-17 0.9994069553345749 0.0344345412150772
12622216000.0 0.9997290431192744 0.02327746428710439 -1.1743879686467279e-16 3.210523028968517e-17 -1.1743879686467279e-16 3.210523028968517e-17 0.9997290272986092 0.023278143748897757
12622833333.333334 0.9999265723185102 0.012118166988949759 -1.1704729829847736e-16 3.341779533488944e-17 -1.1704729829847736e-16 3.341779533488944e-17 0.9999265640826192 0.012118846551762543
12623450666.666666 0.9999995417305786 0.0009573601463195292 -1.1664113930660778e-16 3.472561762433752e-17 -1.1664113930660778e-16 3.472561762433752e-17 0.9999995410797456 0.0009580397254935766
12624068000.0 0.9999479422658477 -0.010203565950947688 -1.1622037701929489e-16 3.602853351962879e-17 -1.1622037701929489e-16 3.602853351962879e-17 0.9999479491994117 -0.010202886440064287
12624685333.333334 0.9997717803520936 -0.021363220998330015 -1.1578507039206345e-16 3.7326380067136124e-17 -1.1578507039206345e-16 3.7326380067136124e-17 0.9997717948684497 -0.021362541640372393
12625302666.666666 0.9994710779337086 -0.032520214849356355 -1.1533528019756738e-16 3.8618995018332716e-17 -1.1533528019756738e-16 3.8618995018332716e-17 0.999471100030307 -0.03251953572893231
12625920000.0 0.999045872468958 -0.04367315768931538 -1.148710690171755e-16 3.990621685008706e-17 -1.148710690171755e-16 3.990621685008706e-17 0.9990459021423055 -0.043672478890994876
12626537333.333334 0.998496216925323 -0.054820660207957096 -1.1439250123236283e-16 4.1187884784766576e-17 -1.1439250123236283e-16 4.1187884784766576e-17 0.9984962541709819 -0.05481998181626166
12627154666.666666 0.9978221797729 -0.06596133377272824 -1.138996430158575e-16 4.246383881030153e-17 -1.138996430158575e-16 4.246383881030153e-17 0.9978222245854904 -0.0659606558721205
12627772000.0 0.997023844975859 -0.07709379060192283 -1.1339256232255608e-16 4.37339197001597e-17 -1.1339256232255608e-16 4.37339197001597e-17 0.9970238973490602 -0.07709311327679605
12628389333.333334 0.9961013119820128 -0.0882166439371314 -1.1287132888025516e-16 4.4997969033117464e-17 -1.1287132888025516e-16 4.4997969033117464e-17 0.9961013719085617 -0.0882159672717989
12629006666.666666 0.9950546957103903 -0.09932850821652658 -1.1233601418011339e-16 4.6255829213046675e-17 -1.1233601418011339e-16 4.6255829213046675e-17 0.9950547631820834 -0.09932783229521115
12629624000.0 0.9938841265369553 -0.1104279992469791 -1.1178669146693516e-16 4.7507343488487037e-17 -1.1178669146693516e-16 4.7507343488487037e-17 0.9938842015446513 -0.11042732415380277
12630241333.333334 0.9925897502783465 -0.12151373437676877 -1.1122343572920572e-16 4.875235597217699e-17 -1.1122343572920572e-16 4.875235597217699e-17 0.9925898328119646 -0.121513060195742
12630858666.666666 0.9911717281737302 -0.13258433266762185 -1.1064632368893996e-16 4.999071166039828e-17 -1.1064632368893996e-16 4.999071166039828e-17 0.9911718182222552 -0.1325836594826335
12631476000.0 0.9896302368646812 -0.14363841506704372 -1.1005543379127748e-16 5.1222256452286046e-17 -1.1005543379127748e-16 5.1222256452286046e-17 0.9896303344161611 -0.14363774296185022
12632093333.333334 0.9879654683732214 -0.15467460457973908 -1.0945084619390623e-16 5.244683716892639e-17 -1.0945084619390623e-16 5.244683716892639e-17 0.9879655734147721 -0.15467393363795431
12632710666.666666 0.9861776300778873 -0.16569152643928448 -1.088326427562454e-16 5.366430157238927e-17 -1.088326427562454e-16 5.366430157238927e-17 0.986177742595692 -0.16569085674436904
12633328000.0 0.9842669446878513 -0.17668780827963323 -1.0820090702841103e-16 5.487449838464697e-17 -1.0820090702841103e-16 5.487449838464697e-17 0.9842670646671644 -0.1766871399148845
12633945333.333334 0.9822336502152496 -0.18766208030564924 -1.0755572424000873e-16 5.607727730628975e-17 -1.0755572424000873e-16 5.607727730628975e-17 0.9822337776403974 -0.1876614133541907
12634562666.666666 0.9800779999454926 -0.1986129754639933 -1.0689718128868168e-16 5.727248903518445e-17 -1.0689718128868168e-16 5.727248903518445e-17 0.9800781347998744 -0.19861231000876406
12635180000.0 0.9778002624057193 -0.20953912961335897 -1.0622536672846901e-16 5.845998528496574e-17 -1.0622536672846901e-16 5.845998528496574e-17 0.9778004046718116 -0.2095384657371039
12635797333.333334 0.9754007213313447 -0.22043918169443036 -1.0554037075795442e-16 5.963961880340097e-17 -1.0554037075795442e-16 5.963961880340097e-17 0.9754008709907022 -0.22043851947968957
12636414666.666666 0.9728796756307444 -0.23131177389928936 -1.0484228520822164e-16 6.081124339059881e-17 -1.0484228520822164e-16 6.081124339059881e-17 0.9728798326640022 -0.23131111342838764
12637032000.0 0.9702374393479566 -0.24215555184083265 -1.0413120353058259e-16 6.19747139171227e-17 -1.0413120353058259e-16 6.19747139171227e-17 0.970237603734835 -0.2421548931958701
12637649333.333334 0.9674743416236278 -0.2529691647212103 -1.0340722078413915e-16 6.312988634190203e-17 -1.0340722078413915e-16 6.312988634190203e-17 0.9674745133429309 -0.25296850798405096
12638266666.666666 0.9645907266539758 -0.26375126550023054 -1.0267043362312164e-16 6.42766177300435e-17 -1.0267043362312164e-16 6.42766177300435e-17 0.9645909056835985 -0.2637506107524934
12638884000.0 0.9615869536479248 -0.27450051106313245 -1.0192094028403991e-16 6.541476627047758e-17 -1.0192094028403991e-16 6.541476627047758e-17 0.9615871399648523 -0.2744998583861803
12639501333.333334 0.958463396782349 -0.2852155623879233 -1.01158840572636e-16 6.654419129346184e-17 -1.01158840572636e-16 6.654419129346184e-17 0.9584635903626609 -0.2852149118628531
12640118666.666666 0.9552204451555167 -0.2958950847119877 -1.0038423585065921e-16 6.766475328791053e-17 -1.0038423585065921e-16 6.766475328791053e-17 0.955220645974391 -0.2958944364196206
12640736000.0 0.9518585027384592 -0.30653774769890263 -9.959722902239635e-17 6.877631391864695e-17 -9.959722902239635e-17 6.877631391864695e-17 0.9518587107701746 -0.3065371017197738
12641353333.333334 0.9483779883248967 -0.31714222560334027 -9.879792452111033e-17 6.987873604335925e-17 -9.879792452111033e-17 6.987873604335925e-17 0.9483782035428353 -0.31714158201768855
12641970666.666666 0.9447793354788594 -0.32770719743689336 -9.798642829518274e-17 7.0971883729554e-17 -9.798642829518274e-17 7.0971883729554e-17 0.9447795578555113 -0.327706556324652
12642588000.0 0.9410629924807725 -0.338231347132331 -9.716284779414089e-17 7.205562227124839e-17 -9.716284779414089e-17 7.205562227124839e-17 0.9410632219877391 -0.3382307085731174
12643205333.333334 0.9372294222716177 -0.3487133637075412 -9.632729195447896e-17 7.312981820553236e-17 -9.632729195447896e-17 7.312981820553236e-17 0.9372296588796146 -0.34871272778064666
12643822666.666666 0.933279102395185 -0.35915194142905077 -9.547987118527977e-17 7.419433932898808e-17 -9.547987118527977e-17 7.419433932898808e-17 0.933279346074046 -0.35915130821343105
12644440000.0 0.9292125249386931 -0.369545779974386 -9.462069735369546e-17 7.524905471389233e-17 -9.462069735369546e-17 7.524905471389233e-17 0.9292127756573749 -0.3695451495486517
12645057333.333334 0.9250301964714438 -0.37989358459418643 -9.374988377021636e-17 7.629383472429494e-17 -9.374988377021636e-17 7.629383472429494e-17 0.925030454198029 -0.37989295703659287
12645674666.666666 0.9207326379817309 -0.39019406627346465 -9.286754517377557e-17 7.73285510319111e-17 -9.286754517377557e-17 7.73285510319111e-17 0.9207329026834322 -0.3901934416619022
12646292000.0 0.9163203848118621 -0.4004459418923601 -9.197379771666028e-17 7.835307663186261e-17 -9.197379771666028e-17 7.835307663186261e-17 0.916320656455026 -0.4004453203043444
12646909333.333334 0.9117939865916147 -0.41064793438563485 -9.10687589492979e-17 7.936728585819156e-17 -9.10687589492979e-17 7.936728585819156e-17 0.9117942651417275 -0.41064731589829756
12647526666.666666 0.907154007169673 -0.42079877290199397 -9.015254780480822e-17 8.037105439927092e-17 -9.015254780480822e-17 8.037105439927092e-17 0.9071542925913628 -0.42079815759207284
12648144000.0 0.9024010245433478 -0.4308971929624682 -8.922528458343354e-17 8.136425931298311e-17 -8.922528458343354e-17 8.136425931298311e-17 0.9024013168003917 -0.4308965809062981
12648761333.333334 0.8975356307866974 -0.44094193661767184 -8.828709093678698e-17 8.23467790417384e-17 -8.828709093678698e-17 8.23467790417384e-17 0.8975359298420237 -0.44094132789117463
12649378666.666666 0.8925584319767277 -0.4509317526046083 -8.733808985193808e-17 8.331849342730931e-17 -8.733808985193808e-17 8.331849342730931e-17 0.8925587377924215 -0.45093114728328365
12649996000.0 0.8874700481178419 -0.46086539650263986 -8.637840563532363e-17 8.427928372549469e-17 -8.637840563532363e-17 8.427928372549469e-17 0.8874703606551495 -0.46086479466155544
12650613333.333334 0.8822711130646428 -0.47074163088842563 -8.540816389650508e-17 8.522903262059157e-17 -8.540816389650508e-17 8.522903262059157e-17 0.8822714322839793 -0.47074103260220995
12651230666.666666 0.8769622744430338 -0.4805592254899701 -8.442749153179405e-17 8.616762423965415e-17 -8.442749153179405e-17 8.616762423965415e-17 0.876962600303983 -0.4805586308327997
12651848000.0 0.8715441935694184 -0.4903169573400981 -8.343651670766318e-17 8.709494416662274e-17 -8.343651670766318e-17 8.709494416662274e-17 0.8715445260307423 -0.49031636638569126
12652465333.333334 0.8660175453683873 -0.5000136109286736 -8.24353688440614e-17 8.801087945620506e-17 -8.24353688440614e-17 8.801087945620506e-17 0.8660178843880305 -0.5000130237502804
12653082666.666666 0.8603830182887335 -0.5096479783538693 -8.142417859755562e-17 8.89153186475884e-17 -8.142417859755562e-17 8.89153186475884e-17 0.8603833638238263 -0.5096473950242617
12653700000.0 0.8546413142174911 -0.5192188594729757 -8.040307784428419e-17 8.980815177799264e-17 -8.040307784428419e-17 8.980815177799264e-17 0.8546416662243563 -0.5192182800644392
12654317333.333334 0.848793148392716 -0.5287250620515349 -7.937219966284868e-17 9.068927039595004e-17 -7.937219966284868e-17 9.068927039595004e-17 0.8487935068268759 -0.5287244866358597
12654934666.666666 0.8428392493142484 -0.5381654019121002 -7.833167831697454e-17 9.155856757446745e-17 -7.833167831697454e-17 9.155856757446745e-17 0.8428396141304283 -0.5381648305605724
12655552000.0 0.8367803586529602 -0.5475387030817472 -7.728164923806605e-17 9.24159379239553e-17 -7.728164923806605e-17 9.24159379239553e-17 0.8367807298050945 -0.5475381358651393
12656169333.333334 0.8306172311585176 -0.5568437979383228 -7.622224900764456e-17 9.326127760493813e-17 -7.622224900764456e-17 9.326127760493813e-17 0.8306176085997573 -0.5568432349268858
12656786666.666666 0.82435063456515 -0.56607952735623 -7.515361533958476e-17 9.409448434061616e-17 -7.515361533958476e-17 9.409448434061616e-17 0.8243510182478662 -0.566078968619684
12657404000.0 0.8179813494961822 -0.5752447408505562 -7.40758870622808e-17 9.491545742917026e-17 -7.40758870622808e-17 9.491545742917026e-17 0.8179817393719732 -0.5752441864580821
12658021333.333334 0.8115101693666986 -0.5843382967205298 -7.298920410063312e-17 9.572409775589925e-17 -7.298920410063312e-17 9.572409775589925e-17 0.811510565386397 -0.5843377467407608
12658638666.666666 0.8049379002848103 -0.5933590621916035 -7.189370745793657e-17 9.652030780512729e-17 -7.189370745793657e-17 9.652030780512729e-17 0.8049383023984868 -0.5933585166926157
12659256000.0 0.7982653609510687 -0.6023059135567903 -7.07895391975972e-17 9.730399167193395e-17 -7.07895391975972e-17 9.730399167193395e-17 0.7982657691080404 -0.6023053726060955
12659873333.333334 0.79149338255663 -0.6111777363164351 -6.967684242476098e-17 9.807505507364804e-17 -6.967684242476098e-17 9.807505507364804e-17 0.7914937967054676 -0.6111771999809731
12660490666.666666 0.7846228086797415 -0.619973425317031 -6.85557612678214e-17 9.883340536113061e-17 -6.85557612678214e-17 9.883340536113061e-17 0.7846232287682722 -0.6199728936631589
12661108000.0 0.7776544951804043 -0.6286918848891948 -6.742644085974793e-17 9.957895152988495e-17 -6.742644085974793e-17 9.957895152988495e-17 0.7776549211557218 -0.6286913579826803
12661725333.333334 0.7705893100941166 -0.6373320289837096 -6.628902731937726e-17 1.0031160423089937e-16 -6.628902731937726e-17 1.0031160423089937e-16 0.7705897419025862 -0.6373315068897226
12662342666.666666 0.763428133523476 -0.6458927813071452 -6.514366773251272e-17 1.0103127578132493e-16 -6.514366773251272e-17 1.0103127578132493e-16 0.7634285711107419 -0.6458922640902505
12662960000.0 0.7561718575286549 -0.6543730754558005 -6.399051013295765e-17 1.0173788017490672e-16 -6.399051013295765e-17 1.0173788017490672e-16 0.7561723008396459 -0.6543725631799479
12663577333.333334 0.7488213860162564 -0.6627718550485622 -6.28297034834045e-17 1.024313330922194e-16 -6.28297034834045e-17 1.024313330922194e-16 0.7488218349951947 -0.6627713477770809
12664194666.666666 0.741377634626737 -0.6710880738584791 -6.16613976562458e-17 1.0311155191066521e-16 -6.16613976562458e-17 1.0311155191066521e-16 0.7413780892171443 -0.6710875716540686
12664812000.0 0.7338415306202707 -0.6793206959431736 -6.048574341424852e-17 1.0377845571427174e-16 -6.048574341424852e-17 1.0377845571427174e-16 0.7338419907649748 -0.6793201988678961
12665429333.333334 0.7262140127613325 -0.6874686957737798 -5.93028923911346e-17 1.0443196530326209e-16 -5.93028923911346e-17 1.0443196530326209e-16 0.7262144784024752 -0.6874682038890524
12666046666.666666 0.7184960312017834 -0.6955310583626766 -5.811299707207774e-17 1.0507200320339582e-16 -5.811299707207774e-17 1.0507200320339582e-16 0.7184965022808271 -0.6955305717292637
12666664000.0 0.7106885473623107 -0.7035067793901267 -5.691621077403597e-17 1.0569849367512042e-16 -5.691621077403597e-17 1.0569849367512042e-16 0.7106890238200465 -0.703506298068133
12667281333.333334 0.702792533812942 -0.7113948653290969 -5.571268762609277e-17 1.0631136272244475e-16 -5.571268762609277e-17 1.0631136272244475e-16 0.7027930155894968 -0.7113943893779596
12667898666.666666 0.6948089741517179 -0.7191943335692076 -5.450258254960058e-17 1.069105381016426e-16 -5.450258254960058e-17 1.069105381016426e-16 0.694809461186562 -0.7191938630476895
12668516000.0 0.6867388628820791 -0.72690421253921 -5.328605123827636e-17 1.0749594932970617e-16 -5.328605123827636e-17 1.0749594932970617e-16 0.6867393551140333 -0.7269037475053908
12669133333.333334 0.67858320528929 -0.7345235418277168 -5.2063250138232826e-17 1.0806752769256347e-16 -5.2063250138232826e-17 1.0806752769256347e-16 0.678583702656534 -0.7345230823389879
12669750666.666666 0.6703430173149255 -0.7420513723031181 -5.0834336427866355e-17 1.0862520625309432e-16 -5.0834336427866355e-17 1.0862520625309432e-16 0.670343519755006 -0.7420509184161749
12670368000.0 0.6620193254304187 -0.7494867662317145 -4.959946799768807e-17 1.0916891985890577e-16 -4.959946799768807e-17 1.0916891985890577e-16 0.6620198328802559 -0.7494863180025483
