! Parameters = {f0=12700.012000; bw=77.238000; Q=6100.000000; N=10; m_0_1=1.290986; m_1_1=0.600044; m_1_2=1.125798; m_2_2=0.599395; m_2_3=0.762761; m_2_8=0.001613; m_2_9=0.038317; m_3_3=0.597458; m_3_4=0.651290; m_3_7=0.002213; m_3_8=-0.094875; m_3_9=0.001613; m_4_4=0.594533; m_4_5=0.487625; m_4_6=0.005730; m_4_7=-0.115424; m_4_8=0.002213; m_5_5=0.594915; m_5_6=0.894980; m_5_7=0.005730; m_6_6=0.594914; m_6_7=0.487967; m_7_7=0.594547; m_7_8=0.651408; m_8_8=0.597456; m_8_9=0.763074; m_9_9=0.599390; m_9_10=1.126876; m_10_10=0.600034; m_10_11=1.291781}
!
! Created with skrf (http://scikit-rf.org).
# Hz S RI R 50.0 
!freq ReS11 ImS11 ReS21 ImS21 ReS12 ImS12 ReS22 ImS22
12607400000.0 0.7936621696516583 0.6083587432293878 -1.139040825083155e-16 -4.3653488724129016e-17 -1.139040825083155e-16 -4.3653488724129016e-17 0.7936617558888801 0.6083592830221272
12608017333.333334 0.8003919068871523 0.5994771016388919 -1.143648055458355e-16 -4.236309012677313e-17 -1.143648055458355e-16 -4.236309012677313e-17 0.8003914991849991 0.5994776459820733
12608634666.666666 0.8070222571203968 0.5905210212279648 -1.1481091974879838e-16 -4.106785225426864e-17 -1.1481091974879838e-16 -4.106785225426864e-17 0.8070218555288978 0.5905215700535531
12609252000.0 0.8135523970414765 0.5814916140993656 -1.1524237456427583e-16 -3.9767940385847515e-17 -1.1524237456427583e-16 -3.9767940385847515e-17 0.8135520016098979 0.5814921673387762
12609869333.333334 0.8199815157839522 0.572390001460954 -1.156591213080248e-16 -3.846352032550972e-17 -1.156591213080248e-16 -3.846352032550972e-17 0.8199811265607896 0.5723905590450599
12610486666.666666 0.8263088150253962 0.563217313486671 -1.1606111316988508e-16 -3.715475838093877e-17 -1.1606111316988508e-16 -3.715475838093877e-17 0.8263084320583713 0.5632178753458142
12611104000.0 0.8325335090867385 0.5539746891759043 -1.1644830521896672e-16 -3.5841821342276486e-17 -1.1644830521896672e-16 -3.5841821342276486e-17 0.8325331324227901 0.5539752552399017
12611721333.333334 0.8386548250295318 0.5446632762124712 -1.1682065440856125e-16 -3.452487646096067e-17 -1.1682065440856125e-16 -3.452487646096067e-17 0.8386544547148129 0.544663846410625
12612338666.666666 0.8446720027521922 0.5352842308217374 -1.1717811958084382e-16 -3.320409142841703e-17 -1.1717811958084382e-16 -3.320409142841703e-17 0.8446716388320616 0.535284805082843
12612956000.0 0.8505842950843091 0.5258387176271316 -1.1752066147132382e-16 -3.1879634354736854e-17 -1.1752066147132382e-16 -3.1879634354736854e-17 0.8505839376033282 0.5258392958794877
12613573333.333334 0.8563909678793243 0.5163279095057048 -1.1784824271304402e-16 -3.055167374735738e-17 -1.1784824271304402e-16 -3.055167374735738e-17 0.8563906168812496 0.5163284916771205
12614190666.666666 0.8620913001057822 0.5067529874423435 -1.1816082784056393e-16 -2.922037848960325e-17 -1.1816082784056393e-16 -2.922037848960325e-17 0.8620909556335613 0.5067535734601488
12614808000.0 0.8676845839368751 0.49711514038309956 -1.1845838329367971e-16 -2.788591781927259e-17 -1.1845838329367971e-16 -2.788591781927259e-17 0.8676842460326424 0.49711573017415445
12615425333.333334 0.8731701248382961 0.4874155650876291 -1.1874087742091216e-16 -2.6548461307150037e-17 -1.1874087742091216e-16 -2.6548461307150037e-17 0.873169793543364 0.48741615857833115
12616042666.666666 0.8785472416544896 0.4776554659805607 -1.190082804827521e-16 -2.520817883548956e-17 -1.190082804827521e-16 -2.520817883548956e-17 0.8785469170093478 0.47765606309685643
12616660000.0 0.8838152666932508 0.4678360550019152 -1.1926056465465892e-16 -2.386524057648314e-17 -1.1926056465465892e-16 -2.386524057648314e-17 0.8838149487375594 0.4678366556693081
12617277333.333334 0.8889735458085952 0.45795855145669173 -1.1949770402982525e-16 -2.251981697066436e-17 -1.1949770402982525e-16 -2.251981697066436e-17 0.8889732345811784 0.45795915560025097
12617894666.666666 0.8940214384819959 0.4480241818634355 -1.1971967462168724e-16 -2.1172078705340627e-17 -1.1971967462168724e-16 -2.1172078705340627e-17 0.89402113402084 0.4480247894078065
12618512000.0 0.898958317902025 0.43803417980173703 -1.199264543662056e-16 -1.9822196692928003e-17 -1.199264543662056e-16 -1.9822196692928003e-17 0.8989580202442712 0.4380347906711498
12619129333.333334 0.9037835710419662 0.4279897857594845 -1.2011802312388576e-16 -1.8470342049371846e-17 -1.2011802312388576e-16 -1.8470342049371846e-17 0.903783280223909 0.42799039987776455
12619746666.666666 0.9084965987361437 0.4178922469784245 -1.202943626815732e-16 -1.7116686072434125e-17 -1.202943626815732e-16 -1.7116686072434125e-17 0.9084963147932237 0.4178928642690007
12620364000.0 0.9130968157542642 0.4077428172993863 -1.204554567539935e-16 -1.576140022003456e-17 -1.204554567539935e-16 -1.576140022003456e-17 0.9130965387210656 0.40774343768530147
12620981333.333334 0.9175836508739968 0.3975427570067976 -1.20601290985049e-16 -1.4404656088593925e-17 -1.20601290985049e-16 -1.4404656088593925e-17 0.917583380784241 0.39754338041071713
12621598666.666666 0.9219565469520276 0.38729333267190486 -1.2073185294887813e-16 -1.3046625391306557e-17 -1.2073185294887813e-16 -1.3046625391306557e-17 0.9219562838385729 0.3872939590161281
12622216000.0 0.9262149609931456 0.37699581699573637 -1.2084713215066582e-16 -1.1687479936454713e-17 -1.2084713215066582e-16 -1.1687479936454713e-17 0.9262147048879793 0.37699644620220435
12622833333.333334 0.9303583642177511 0.3666514886508553 -1.2094712002721052e-16 -1.032739160571249e-17 -1.2094712002721052e-16 -1.032739160571249e-17 0.9303581151519867 0.36665212064116115
12623450666.666666 0.9343862421274304 0.35626163212279416 -1.2103180994724965e-16 -8.966532332435358e-18 -1.2103180994724965e-16 -8.966532332435358e-18 0.9343860001313055 0.35626226681819345
12624068000.0 0.9382980945689087 0.3458275375503991 -1.2110119721154006e-16 -7.605074079955002e-18 -1.2110119721154006e-16 -7.605074079955002e-18 0.9382978596717805 0.34582817487181955
12624685333.333334 0.9420934357961728 0.3353505005655755 -1.2115527905269514e-16 -6.24318881987198e-18 -1.2115527905269514e-16 -6.24318881987198e-18 0.9420932080265119 0.33535114043362546
12625302666.666666 0.9457717945306459 0.32483182213277745 -1.211940546347764e-16 -4.881048510414454e-18 -1.211940546347764e-16 -4.881048510414454e-18 0.9457715739160385 0.32483246446775815
12625920000.0 0.9493327140199191 0.31427280838690463 -1.2121752505264577e-16 -3.51882507468643e-18 -1.2121752505264577e-16 -3.51882507468643e-18 0.9493325005870583 0.314273453108818
12626537333.333334 0.9527757520942999 0.3036747704715692 -1.212256933310713e-16 -2.1566903790633695e-18 -1.212256933310713e-16 -2.1566903790633695e-18 0.9527755458689839 0.30367541750012844
12627154666.666666 0.9561004812217485 0.29303902437620755 -1.2121856442359094e-16 -7.948162115171839e-19 -1.2121856442359094e-16 -7.948162115171839e-19 0.9561002822288799 0.293039673630848
12627772000.0 0.9593064885610726 0.2823668907723465 -1.2119614521113384e-16 5.666257400403401e-19 -1.2119614521113384e-16 5.666257400403401e-19 0.959306296824653 0.2823675421722347
12628389333.333334 0.962393376013037 0.2716596948500987 -1.2115844450039937e-16 1.927463909306944e-18 -1.2115844450039937e-16 1.927463909306944e-18 0.9623931915561627 0.2716603483141422
12629006666.666666 0.9653607602699226 0.26091876615317394 -1.2110547302199238e-16 3.28752687324986e-18 -1.2110547302199238e-16 3.28752687324986e-18 0.9653605831147872 0.26091942160003284
12629624000.0 0.9682082728630529 0.2501454384140606 -1.2103724342831945e-16 4.6466433736152785e-18 -1.2103724342831945e-16 4.6466433736152785e-18 0.9682081030309382 0.250146095762156
12630241333.333334 0.9709355602085543 0.23934104938835551 -1.2095377029124006e-16 6.004642338484336e-18 -1.2095377029124006e-16 6.004642338484336e-18 0.9709353977198324 0.23934170855588088
12630858666.666666 0.9735422836512698 0.2285069406886529 -1.2085507009948118e-16 7.36135290375254e-18 -1.2085507009948118e-16 7.36135290375254e-18 0.9735421285253998 0.22850760159358385
12631476000.0 0.9760281195068563 0.21764445761775864 -1.207411612558048e-16 8.716604434636332e-18 -1.207411612558048e-16 8.716604434636332e-18 0.9760279717623781 0.21764512017786244
12632093333.333334 0.9783927591018966 0.20675494900194244 -1.2061206407394346e-16 1.0070226547042841e-17 -1.2061206407394346e-16 1.0070226547042841e-17 0.9783926187564352 0.20675561313478968
12632710666.666666 0.9806359088122564 0.19583976702339811 -1.2046780077528933e-16 1.142204912899922e-17 -1.2046780077528933e-16 1.142204912899922e-17 0.9806357758825135 0.1958404326463715
12633328000.0 0.9827572900995982 0.18490026705203086 -1.2030839548534472e-16 1.27719023620014e-17 -1.2030839548534472e-16 1.27719023620014e-17 0.9827571646013562 0.18490093408233674
12633945333.333334 0.9847566395458988 0.1739378074775202 -1.201338742299382e-16 1.411961674229027e-17 -1.201338742299382e-16 1.411961674229027e-17 0.9847565214940136 0.17393847583219793
12634562666.666666 0.9866337088861936 0.16295374954044853 -1.1994426493119994e-16 1.546502310210717e-17 -1.1994426493119994e-16 1.546502310210717e-17 0.9866335982945962 0.16295441913638123
12635180000.0 0.9883882650393833 0.15194945716341282 -1.1973959740329734e-16 1.680795263091244e-17 -1.1973959740329734e-16 1.680795263091244e-17 0.9883881619210759 0.1519501279173375
12635797333.333334 0.9900200901372062 0.1409262967814655 -1.1951990334793684e-16 1.8148236896523148e-17 -1.1951990334793684e-16 1.8148236896523148e-17 0.9900199945042618 0.14092696860998358
12636414666.666666 0.9915289815512555 0.12988563717266485 -1.1928521634963013e-16 1.9485707866198526e-17 -1.1928521634963013e-16 1.9485707866198526e-17 0.9915288934148184 0.1298863099922526
12637032000.0 0.9929147519181772 0.11882884928788527 -1.1903557187072202e-16 2.0820197927680234e-17 -1.1903557187072202e-16 2.0820197927680234e-17 0.9929146712884587 0.11882952301490397
12637649333.333334 0.9941772291629023 0.10775730608080737 -1.1877100724618356e-16 2.2151539910171432e-17 -1.1877100724618356e-16 2.2151539910171432e-17 0.9941771560491803 0.10775798063151383
12638266666.666666 0.9953162565200381 0.09667238233723682 -1.1849156167817412e-16 2.3479567105235026e-17 -1.1849156167817412e-16 2.3479567105235026e-17 0.9953161909306564 0.0966730576277937
12638884000.0 0.9963316925533215 0.08557545450450617 -1.1819727623036757e-16 2.4804113287639018e-17 -1.1819727623036757e-16 2.4804113287639018e-17 0.9963316344956903 0.08557613045099256
12639501333.333334 0.9972234111731891 0.07446790052047242 -1.178881938220451e-16 2.6125012736136012e-17 -1.178881938220451e-16 2.6125012736136012e-17 0.9972233606537813 0.0744685770388941
12640118666.666666 0.9979913016524141 0.06335109964269794 -1.1756435922196708e-16 2.744210025412787e-17 -1.1756435922196708e-16 2.744210025412787e-17 0.9979912586767651 0.06335177664899784
12640736000.0 0.9986352686398978 0.05222643227656036 -1.1722581904198293e-16 2.8755211190382623e-17 -1.1722581904198293e-16 2.8755211190382623e-17 0.9986352332126077 0.052227109686629074
12641353333.333334 0.9991552321724575 0.041095279804637425 -1.1687262173046437e-16 3.006418145945807e-17 -1.1687262173046437e-16 3.006418145945807e-17 0.9991552042971881 0.04109595753432367
12641970666.666666 0.999551127684796 0.0299590244145245 -1.1650481756545225e-16 3.1368847562279166e-17 -1.1650481756545225e-16 3.1368847562279166e-17 0.9995511073642716 0.029959702379645518
12642588000.0 0.999822906017501 0.018819048927601553 -1.1612245864761293e-16 3.266904660648024e-17 -1.1612245864761293e-16 3.266904660648024e-17 0.9998228932535053 0.018819727043953516
12643205333.333334 0.9999705334231483 0.0076767366271252545 -1.1572559889295845e-16 3.3964616326702895e-17 -1.1572559889295845e-16 3.3964616326702895e-17 0.9999705282165302 0.0076774148104938504
12643822666.666666 0.9999939915705043 -0.0034665289135370966 -1.1531429402532935e-16 3.525539510484644e-17 -1.1531429402532935e-16 3.525539510484644e-17 0.9999939939211712 -0.0034658507473663207
12644440000.0 0.999893277546788 -0.014609364002596466 -1.1488860156866996e-16 3.6541221990166136e-17 -1.1488860156866996e-16 3.6541221990166136e-17 0.9998932874537105 -0.014608685937827591
12645057333.333334 0.9996684038580402 -0.02575038500171584 -1.1444858083906968e-16 3.7821936719315774e-17 -1.1444858083906968e-16 3.7821936719315774e-17 0.9996684213192507 -0.025749707122532144
12645674666.666666 0.9993193984275741 -0.03688820849770706 -1.139942929365836e-16 3.9097379736289235e-17 -1.139942929365836e-16 3.9097379736289235e-17 0.9993194234401661 -0.03688753088826052
12646292000.0 0.9988463045924952 -0.048021451474682536 -1.1352580073682104e-16 4.036739221229055e-17 -1.1352580073682104e-16 4.036739221229055e-17 0.9988463371526265 -0.048020774219083476
12646909333.333334 0.9982491810983349 -0.05914873148533391 -1.1304316888234367e-16 4.163181606542429e-17 -1.1304316888234367e-16 4.163181606542429e-17 0.9982492212012251 -0.05914805466764045
12647526666.666666 0.9975281020917489 -0.07026866682279333 -1.1254646377380525e-16 4.2890493980390244e-17 -1.1254646377380525e-16 4.2890493980390244e-17 0.9975281497316835 -0.07026799052700111
12648144000.0 0.9966831571113045 -0.08137987669234607 -1.1203575356089684e-16 4.414326942800588e-17 -1.1203575356089684e-16 4.414326942800588e-17 0.9966832122816326 -0.08137920100237771
12648761333.333334 0.9957144510763704 -0.09248098138266057 -1.115111081330733e-16 4.53899866846322e-17 -1.115111081330733e-16 4.53899866846322e-17 0.9957145137695064 -0.09248030638235522
12649378666.666666 0.9946221042740934 -0.10357060243713995 -1.1097259911006584e-16 4.663049085148409e-17 -1.1097259911006584e-16 4.663049085148409e-17 0.9946221744815182 -0.1035699282102429
12649996000.0 0.9934062523444434 -0.11464736282525867 -1.1042029983216065e-16 4.7864627873876394e-17 -1.1042029983216065e-16 4.7864627873876394e-17 0.9934063300567062 -0.11464668945541108
12650613333.333334 0.9920670462633896 -0.12570988711335426 -1.0985428535028784e-16 4.909224456029922e-17 -1.0985428535028784e-16 4.909224456029922e-17 0.9920671314701089 -0.12570921468408275
12651230666.666666 0.9906046523241517 -0.13675680163547616 -1.0927463241589393e-16 5.031318860138981e-17 -1.0927463241589393e-16 5.031318860138981e-17 0.9906047450140162 -0.13675613023018232
12651848000.0 0.9890192521165262 -0.1477867346641262 -1.0868141947058387e-16 5.1527308588829357e-17 -1.0868141947058387e-16 5.1527308588829357e-17 0.9890193522772972 -0.1477860643660765
12652465333.333334 0.9873110425043631 -0.15879831658039317 -1.08074726635588e-16 5.273445403404398e-17 -1.08074726635588e-16 5.273445403404398e-17 0.987311150122874 -0.15879764747270825
12653082666.666666 0.9854802356011388 -0.16979018004390983 -1.0745463570099507e-16 5.393447538684215e-17 -1.0745463570099507e-16 5.393447538684215e-17 0.9854803506633001 -0.16978951220955463
12653700000.0 0.9835270587435493 -0.18076096016308915 -1.068212301147764e-16 5.5127224053924955e-17 -1.068212301147764e-16 5.5127224053924955e-17 0.9835271812343477 -0.18076029368486232
12654317333.333334 0.9814517544633623 -0.19170929466410191 -1.061745949716371e-16 5.631255241721193e-17 -1.061745949716371e-16 5.631255241721193e-17 0.9814518843668634 -0.1917086296246256
12654934666.666666 0.9792545804572481 -0.20263382406034228 -1.0551481700162659e-16 5.74903138521059e-17 -1.0551481700162659e-16 5.74903138521059e-17 0.9792547177565999 -0.2026331605420521
12655552000.0 0.9769358095547742 -0.21353319182126673 -1.0484198455856107e-16 5.866036274559796e-17 -1.0484198455856107e-16 5.866036274559796e-17 0.9769359542322059 -0.21353252990640104
12656169333.333334 0.9744957296845984 -0.22440604454047614 -1.041561876082706e-16 5.98225545141967e-17 -1.041561876082706e-16 5.98225545141967e-17 0.9744958817214269 -0.2244053843110666
12656786666.666666 0.9719346438386279 -0.2352510321042182 -1.0345751771659815e-16 6.097674562180675e-17 -1.0345751771659815e-16 6.097674562180675e-17 0.9719348032152573 -0.23525037364207899
12657404000.0 0.9692528700344445 -0.24606680785878368 -1.0274606803724333e-16 6.212279359739366e-17 -1.0274606803724333e-16 6.212279359739366e-17 0.9692530367303703 -0.24606615124550174
12658021333.333334 0.9664507412757926 -0.256852028777836 -1.0202193329938908e-16 6.326055705254642e-17 -1.0202193329938908e-16 6.326055705254642e-17 0.9664509152696023 -0.25685137409476055
12658638666.666666 0.963528605511291 -0.26760535562893045 -1.0128520979515813e-16 6.43898956988591e-17 -1.0128520979515813e-16 6.43898956988591e-17 0.9635287867806689 -0.26760470295716315
12659256000.0 0.9604868255911135 -0.27832545314025053 -1.0053599536683029e-16 6.551067036523825e-17 -1.0053599536683029e-16 6.551067036523825e-17 0.9604870141128418 -0.27832480256063535
12659873333.333334 0.957325779222024 -0.28901099016605525 -9.977438939392427e-17 6.662274301498023e-17 -9.977438939392427e-17 6.662274301498023e-17 0.957325974971988 -0.2890103417591688
12660490666.666666 0.9540458589204674 -0.29966063985202723 -9.900049278006389e-17 6.77259767627386e-17 -9.900049278006389e-17 6.77259767627386e-17 0.9540460618736563 -0.2996599936981682
12661108000.0 0.9506474719637776 -0.3102730798001953 -9.821440793963796e-17 6.882023589136772e-17 -9.821440793963796e-17 6.882023589136772e-17 0.9506476820942885 -0.3102724359793747
12661725333.333334 0.9471310403396703 -0.3208469922329223 -9.74162387843315e-17 6.990538586853148e-17 -9.74162387843315e-17 6.990538586853148e-17 0.9471312576207129 -0.32084635082485413
12662342666.666666 0.9434970006937885 -0.3313810641567288 -9.660609070940456e-17 7.09812933632535e-17 -9.660609070940456e-17 7.09812933632535e-17 0.9434972250976854 -0.3313804252408192
12662960000.0 0.9397458042754996 -0.3418739875252472 -9.578407057984085e-17 7.204782626223739e-17 -9.578407057984085e-17 7.204782626223739e-17 0.9397460357736952 -0.34187335118058604
12663577333.333334 0.9358779168819042 -0.35232445940156937 -9.495028671629432e-17 7.31048536860575e-17 -9.495028671629432e-17 7.31048536860575e-17 0.9358781554449598 -0.35232382570691795
12664194666.666666 0.9318938187999252 -0.3627311821201923 -9.41048488808599e-17 7.41522460051847e-17 -9.41048488808599e-17 7.41522460051847e-17 0.9318940643975321 -0.36273055115397684
12664812000.0 0.9277940047467192 -0.37309286344804976 -9.324786826267833e-17 7.518987485583539e-17 -9.324786826267833e-17 7.518987485583539e-17 0.9277942573476956 -0.37309223528834895
12665429333.333334 0.9235789838082077 -0.38340821674504943 -9.237945746334365e-17 7.621761315568384e-17 -9.237945746334365e-17 7.621761315568384e-17 0.9235792433805069 -0.38340759146958664
12666046666.666666 0.9192492793759628 -0.3936759611236038 -9.149973048217241e-17 7.723533511936447e-17 -9.149973048217241e-17 7.723533511936447e-17 0.9192495458866751 -0.3936753388097363
12666664000.0 0.9148054290820312 -0.40389482160812723 -9.06088027012542e-17 7.824291627386194e-17 -9.06088027012542e-17 7.824291627386194e-17 0.9148057024973882 -0.4038942023328371
12667281333.333334 0.9102479847323706 -0.41406352929288154 -8.970679087040253e-17 7.924023347364996e-17 -8.970679087040253e-17 7.924023347364996e-17 0.9102482650177509 -0.41406291313276644
12667898666.666666 0.9055775122382126 -0.424180821499829 -8.879381309186353e-17 8.022716491574396e-17 -8.879381309186353e-17 8.022716491574396e-17 0.9055777993581439 -0.4241802085310917
12668516000.0 0.9007945915457699 -0.43424544193544445 -8.786998880490388e-17 8.120359015452712e-17 -8.786998880490388e-17 8.120359015452712e-17 0.9007948854639354 -0.4342448322338842
12669133333.333334 0.8958998165643857 -0.4442561408463804 -8.693543877024676e-17 8.216939011639019e-17 -8.693543877024676e-17 8.216939011639019e-17 0.8959001172436287 -0.44425553448738403
12669750666.666666 0.8908937950925916 -0.45421167517506444 -8.599028505430519e-17 8.312444711423735e-17 -8.599028505430519e-17 8.312444711423735e-17 0.8908941024949185 -0.45421107223359575
12670368000.0 0.8857771487427164 -0.4641108087138711 -8.503465101328672e-17 8.406864486177907e-17 -8.503465101328672e-17 8.406864486177907e-17 0.8857774628293028 -0.46411020926446234
