! Parameters = {f0=12700.012000; bw=77.238000; Q=6100.000000; N=10; m_0_1=1.310606; m_1_1=0.894338; m_1_2=1.145418; m_2_2=0.893689; m_2_3=0.782381; m_2_8=0.002594; m_2_9=0.039298; m_3_3=0.891752; m_3_4=0.670910; m_3_7=0.003194; m_3_8=-0.093894; m_3_9=0.002594; m_4_4=0.888827; m_4_5=0.507245; m_4_6=0.006711; m_4_7=-0.114443; m_4_8=0.003194; m_5_5=0.889209; m_5_6=0.914600; m_5_7=0.006711; m_6_6=0.889208; m_6_7=0.507587; m_7_7=0.888841; m_7_8=0.671028; m_8_8=0.891750; m_8_9=0.782694; m_9_9=0.893684; m_9_10=1.146496; m_10_10=0.894328; m_10_11=1.311401}
!
! Created with skrf (http://scikit-rf.org).
# Hz S RI R 50.0 
!freq ReS11 ImS11 ReS21 ImS21 ReS12 ImS12 ReS22 ImS22
12607400000.0 0.20197055517424292 0.9793915942269572 -6.296256127159945e-17 -1.1765179271211316e-16 -6.296256127159945e-17 -1.1765179271211316e-16 0.20196987897417715 0.9793917336729813
12608017333.333334 0.21343816918266462 0.9769565742323273 -6.433524473427575e-17 -1.1687699578095079e-16 -6.433524473427575e-17 -1.1687699578095079e-16 0.2134374946968257 0.976956721588707
12608634666.666666 0.22487644920830502 0.974387285729487 -6.569841436960476e-17 -1.1608619507136134e-16 -6.569841436960476e-17 -1.1608619507136134e-16 0.22487577652921886 0.9743874409751966
12609252000.0 0.2362838232255827 0.9716840818299506 -6.705188373404043e-17 -1.152795071708247e-16 -6.705188373404043e-17 -1.152795071708247e-16 0.23628315244551779 0.9716842449428823
12609869333.333334 0.24765872345641696 0.9688473340499784 -6.839546781008478e-17 -1.144570508372106e-16 -6.839546781008478e-17 -1.144570508372106e-16 0.24765805466737198 0.9688475050069459
12610486666.666666 0.25899958658578043 0.9658774322595015 -6.97289830315407e-17 -1.1361894698136375e-16 -6.97289830315407e-17 -1.1361894698136375e-16 0.2589989198794712 0.9658776110362424
12611104000.0 0.2703048539766355 0.9627747846285144 -7.105224730857025e-17 -1.1276531864938093e-16 -7.105224730857025e-17 -1.1276531864938093e-16 0.270304189444483 0.9627749711996946
12611721333.333334 0.2815729718839823 0.959539817571025 -7.236508005246076e-17 -1.118962910046464e-16 -7.236508005246076e-17 -1.118962910046464e-16 0.2815723096170991 0.9595400119102403
12612338666.666666 0.29280239166845223 0.9561729756864318 -7.366730220026206e-17 -1.1101199130952297e-16 -7.366730220026206e-17 -1.1101199130952297e-16 0.29280173175763174 0.9561731777662158
12612956000.0 0.3039915700093661 0.9526747216983622 -7.495873623916833e-17 -1.1011254890677694e-16 -7.495873623916833e-17 -1.1011254890677694e-16 0.30399091254506827 0.9526749314901849
12613573333.333334 0.31513896911637646 0.94904553639121 -7.623920623063386e-17 -1.0919809520074749e-16 -7.623920623063386e-17 -1.0919809520074749e-16 0.315138314188716 0.9490457538654843
12614190666.666666 0.32624305694127737 0.94528591854392 -7.75085378343162e-17 -1.0826876363819844e-16 -7.75085378343162e-17 -1.0826876363819844e-16 0.32624240464001225 0.9452861436700077
12614808000.0 0.3373023073883445 0.9413963848615051 -7.876655833177172e-17 -1.0732468968890334e-16 -7.876655833177172e-17 -1.0732468968890334e-16 0.3373016578028625 0.9413966176077183
12615425333.333334 0.34831520052402215 0.9373774699040525 -8.001309664988744e-17 -1.0636601082597515e-16 -8.001309664988744e-17 -1.0636601082597515e-16 0.3483145537433293 0.9373777102376594
12616042666.666666 0.3592802227860033 0.9332297260131893 -8.124798338411765e-17 -1.0539286650589382e-16 -8.124798338411765e-17 -1.0539286650589382e-16 0.35927957889871154 0.9332299739004191
12616660000.0 0.3701958671910331 0.92895372323625 -8.247105082144777e-17 -1.04405398148287e-16 -8.247105082144777e-17 -1.04405398148287e-16 0.37019522628534784 0.9289539786422965
12617277333.333334 0.3810606335422614 0.9245500492478402 -8.368213296311983e-17 -1.0340374911544079e-16 -8.368213296311983e-17 -1.0340374911544079e-16 0.38105999570596966 0.9245503121368672
12617894666.666666 0.3918730286350782 0.9200193092692044 -8.488106554710469e-17 -1.0238806469155306e-16 -8.488106554710469e-17 -1.0238806469155306e-16 0.3918723939555371 0.920019579604352
12618512000.0 0.40263156646283527 0.9153621259848453 -8.606768607036871e-17 -1.0135849206168696e-16 -8.606768607036871e-17 -1.0135849206168696e-16 0.4026309350269591 0.9153624037282334
12619129333.333334 0.41333476842049705 0.9105791394571842 -8.724183381080327e-17 -1.0031518029053904e-16 -8.724183381080327e-17 -1.0031518029053904e-16 0.4133341403147458 0.9105794245699176
12619746666.666666 0.42398116350829956 0.9056710070384063 -8.840334984896348e-17 -9.925828030089695e-17 -8.840334984896348e-17 -9.925828030089695e-17 0.42398053881866726 0.9056712994805812
12620364000.0 0.4345692885338368 0.900638403280144 -8.955207708954642e-17 -9.818794485184608e-17 -8.955207708954642e-17 -9.818794485184608e-17 0.4345686673458397 0.9006387030108538
12620981333.333334 0.4450976883128737 0.8954820198409064 -9.068786028253957e-17 -9.710432851678957e-17 -9.068786028253957e-17 -9.710432851678957e-17 0.4450970707115382 0.8954823268182462
12621598666.666666 0.45556491586964787 0.890202565390874 -9.181054604419817e-17 -9.600758766113684e-17 -9.181054604419817e-17 -9.600758766113684e-17 0.4555643019394999 0.8902028795719487
12622216000.0 0.46596953263565966 0.8848007655145408 -9.291998287768537e-17 -9.489788041981598e-17 -9.291998287768537e-17 -9.489788041981598e-17 0.46596892246071153 0.8848010868554674
12622833333.333334 0.4763101086473797 0.8792773626109878 -9.401602119345945e-17 -9.377536667452879e-17 -9.401602119345945e-17 -9.377536667452879e-17 0.47630950231111957 0.8792776910669045
12623450666.666666 0.4865852227426269 0.8736331157919329 -9.509851332939958e-17 -9.264020803076229e-17 -9.509851332939958e-17 -9.264020803076229e-17 0.4865846203280075 0.8736334513170047
12624068000.0 0.4967934627560646 0.8678688007773132 -9.61673135706374e-17 -9.149256779458355e-17 -9.61673135706374e-17 -9.149256779458355e-17 0.4967928643454916 0.8678691433247381
12624685333.333334 0.5069334257133523 0.8619852097886231 -9.722227816914098e-17 -9.033261094917389e-17 -9.722227816914098e-17 -9.033261094917389e-17 0.5069328313886734 0.861985559310639
12625302666.666666 0.5170037180236704 0.8559831514402099 -9.826326536294791e-17 -8.916050413121346e-17 -9.826326536294791e-17 -8.916050413121346e-17 0.5170031278661628 0.8559835078880997
12625920000.0 0.5270029556715417 0.8498634506279648 -9.929013539521524e-17 -8.797641560693277e-17 -9.929013539521524e-17 -8.797641560693277e-17 0.5270023697619027 0.8498638139520657
12626537333.333334 0.5369297644068746 0.843626948416058 -1.0030275053288387e-16 -8.678051524805543e-17 -1.0030275053288387e-16 -8.678051524805543e-17 0.5369291828252098 0.8436273185657664
12627154666.666666 0.5467827799337868 0.8372745019213783 -1.0130097508510457e-16 -8.557297450747108e-17 -1.0130097508510457e-16 -8.557297450747108e-17 0.5467822027595992 0.8372748788451574
12627772000.0 0.5565606480984426 0.830806984195519 -1.0228467542139475e-16 -8.435396639466698e-17 -1.0228467542139475e-16 -8.435396639466698e-17 0.5565600754106216 0.8308073678409066
12628389333.333334 0.5662620250746372 0.8242252841051307 -1.0325371998941738e-16 -8.312366545105472e-17 -1.0325371998941738e-16 -8.312366545105472e-17 0.5662614569514478 0.8242256744187455
12629006666.666666 0.5758855775490309 0.8175303062093979 -1.0420797933256986e-16 -8.188224772496072e-17 -1.0420797933256986e-16 -8.188224772496072e-17 0.5758850140681037 0.8175307031369479
12629624000.0 0.5854299829039462 0.8107229706360227 -1.0514732610717517e-16 -8.062989074654046e-17 -1.0514732610717517e-16 -8.062989074654046e-17 0.5854294241422661 0.8107233741223128
12630241333.333334 0.5948939293994705 0.803804212954542 -1.0607163509944851e-16 -7.936677350239791e-17 -1.0607163509944851e-16 -7.936677350239791e-17 0.5948933754333656 0.8038046229434797
12630858666.666666 0.6042761163534103 0.7967749840479751 -1.0698078324209587e-16 -7.809307641009559e-17 -1.0698078324209587e-16 -7.809307641009559e-17 0.6042755672585436 0.7967754004825813
12631476000.0 0.6135752543204903 0.7896362499818248 -1.0787464963067933e-16 -7.680898129237843e-17 -1.0787464963067933e-16 -7.680898129237843e-17 0.6135747101718461 0.7896366728042382
12632093333.333334 0.6227900652690838 0.7823889918716539 -1.0875311553959772e-16 -7.551467135131468e-17 -1.0875311553959772e-16 -7.551467135131468e-17 0.6227895261409613 0.7823894210231437
12632710666.666666 0.6319192827571632 0.7750342057480338 -1.0961606443780074e-16 -7.421033114219753e-17 -1.0961606443780074e-16 -7.421033114219753e-17 0.6319187487231628 0.7750346411690029
12633328000.0 0.6409616521063897 0.7675729024196076 -1.1046338200420838e-16 -7.289614654723925e-17 -1.1046338200420838e-16 -7.289614654723925e-17 0.6409611232394056 0.7675733440496042
12633945333.333334 0.6499159305742892 0.7600061073343877 -1.112949561427556e-16 -7.157230474918137e-17 -1.112949561427556e-16 -7.157230474918137e-17 0.649915406946498 0.7600065551121123
12634562666.666666 0.6587808875253108 0.7523348604386055 -1.121106769971815e-16 -7.023899420464293e-17 -1.121106769971815e-16 -7.023899420464293e-17 0.6587803692081627 0.7523353143019205
12635180000.0 0.6675553045997674 0.7445602160339525 -1.1291043696546663e-16 -6.889640461735172e-17 -1.1291043696546663e-16 -6.889640461735172e-17 0.6675547916639741 0.7445606759198885
12635797333.333334 0.6762379758814681 0.7366832426325088 -1.136941307139574e-16 -6.754472691120277e-17 -1.136941307139574e-16 -6.754472691120277e-17 0.6762374683969968 0.7366837084772767
12636414666.666666 0.6848277080632076 0.7287050228101263 -1.1446165519116652e-16 -6.618415320316067e-17 -1.1446165519116652e-16 -6.618415320316067e-17 0.6848272060992687 0.7287054945491231
12637032000.0 0.6933233206110581 0.7206266530573707 -1.152129096412687e-16 -6.481487677597347e-17 -1.152129096412687e-16 -6.481487677597347e-17 0.6933228242360966 0.7206271306251903
12637649333.333334 0.7017236459263677 0.7124492436290595 -1.159477956172442e-16 -6.343709205077996e-17 -1.159477956172442e-16 -6.343709205077996e-17 0.7017231552080534 0.7124497269595005
12638266666.666666 0.7100275295064146 0.7041739183914951 -1.1666621699370337e-16 -6.205099455955623e-17 -1.1666621699370337e-16 -6.205099455955623e-17 0.7100270445116338 0.7041744074175712
12638884000.0 0.7182338301029136 0.6958018146681654 -1.173680799793986e-16 -6.065678091738848e-17 -1.173680799793986e-16 -6.065678091738848e-17 0.7182333508977603 0.6958023093221144
12639501333.333334 0.7263414198790488 0.6873340830832564 -1.1805329312938095e-16 -5.925464879465175e-17 -1.1805329312938095e-16 -5.925464879465175e-17 0.7263409465288133 0.6873345832965485
12640118666.666666 0.7343491845641963 0.678771887403798 -1.1872176735683904e-16 -5.784479688902599e-17 -1.1872176735683904e-16 -5.784479688902599e-17 0.7343487171333586 0.6787723931071467
12640736000.0 0.7422560236075354 0.6701164043792268 -1.1937341594462344e-16 -5.642742489733902e-17 -1.1937341594462344e-16 -5.642742489733902e-17 0.7422555621597566 0.6701169155025982
12641353333.333334 0.7500608503286845 0.6613688235803258 -1.200081545563737e-16 -5.50027334874133e-17 -1.200081545563737e-16 -5.50027334874133e-17 0.7500603949267965 0.6613693400529473
12641970666.666666 0.7577625920676068 0.6525303472351268 -1.2062590124738677e-16 -5.35709242696219e-17 -1.2062590124738677e-16 -5.35709242696219e-17 0.7577621427736041 0.6525308689854977
12642588000.0 0.7653601903316876 0.6436021900640614 -1.2122657647509959e-16 -5.213219976842998e-17 -1.2122657647509959e-16 -5.213219976842998e-17 0.76535974720672 0.6436027170199629
12643205333.333334 0.7728526009413612 0.6345855791128461 -1.218101031092408e-16 -5.068676339379887e-17 -1.218101031092408e-16 -5.068676339379887e-17 0.7728521640457243 0.634586111201351
12643822666.666666 0.7802387941736338 0.6254817535838179 -1.223764064416545e-16 -4.923481941245046e-17 -1.223764064416545e-16 -4.923481941245046e-17 0.7802383635667612 0.6254822907313007
12644440000.0 0.7875177549034583 0.6162919646657995 -1.2292541419576251e-16 -4.777657291907225e-17 -1.2292541419576251e-16 -4.777657291907225e-17 0.787517330643914 0.6162925067979468
12645057333.333334 0.7946884827433943 0.6070174753619668 -1.2345705653569946e-16 -4.631222980737954e-17 -1.2345705653569946e-16 -4.631222980737954e-17 0.7946880648888642 0.6070180224037875
12645674666.666666 0.8017499921809568 0.5976595603164465 -1.2397126607510258e-16 -4.484199674108133e-17 -1.2397126607510258e-16 -4.484199674108133e-17 0.8017495807882415 0.5976601121922824
12646292000.0 0.80870131271432 0.5882195056387959 -1.2446797788555882e-16 -4.336608112473886e-17 -1.2446797788555882e-16 -4.336608112473886e-17 0.8087009078393251 0.5882200622723309
12646909333.333334 0.8155414889853349 0.5786986087277194 -1.2494712950468096e-16 -4.188469107460695e-17 -1.2494712950468096e-16 -4.188469107460695e-17 0.8155410906830654 0.5786991700419916
12647526666.666666 0.8222695809111373 0.5690981780923521 -1.2540866094387757e-16 -4.0398035389270843e-17 -1.2540866094387757e-16 -4.0398035389270843e-17 0.8222691892356917 0.569098744009765
12648144000.0 0.828884663813203 0.5594195331726329 -1.2585251469574197e-16 -3.8906323520290936e-17 -1.2585251469574197e-16 -3.8906323520290936e-17 0.82888427881776 0.5594201036149625
12648761333.333334 0.8353858285444838 0.5496640041578661 -1.2627863574110896e-16 -3.740976554272211e-17 -1.2627863574110896e-16 -3.740976554272211e-17 0.8353854502813015 0.5496645790462761
12649378666.666666 0.8417721816142419 0.5398329318041019 -1.2668697155574873e-16 -3.5908572125600734e-17 -1.2668697155574873e-16 -3.5908572125600734e-17 0.8417718101346479 0.5398335110591522
12649996000.0 0.8480428453110461 0.5299276672495585 -1.2707747211673035e-16 -3.440295450228809e-17 -1.2707747211673035e-16 -3.440295450228809e-17 0.848042480665429 0.5299282507912163
12650613333.333334 0.8541969578232278 0.5199495718291884 -1.2745008990841588e-16 -3.289312444081163e-17 -1.2745008990841588e-16 -3.289312444081163e-17 0.8541966000610348 0.5199501595768403
12651230666.666666 0.8602336733573768 0.5099000168875136 -1.2780477992810228e-16 -3.1379294214147134e-17 -1.2780477992810228e-16 -3.1379294214147134e-17 0.8602333225271033 0.509900608759976
12651848000.0 0.8661521622546831 0.49978038358998306 -1.281414996913326e-16 -2.9861676570354824e-17 -1.281414996913326e-16 -2.9861676570354824e-17 0.8661518184038659 0.49978097950551276
12652465333.333334 0.8719516111047964 0.4895920627334172 -1.284602092368229e-16 -2.8340484702784353e-17 -1.284602092368229e-16 -2.8340484702784353e-17 0.8719512742800103 0.4895926626097241
12653082666.666666 0.8776312228576578 0.47933645455482027 -1.2876087113105865e-16 -2.6815932220138685e-17 -1.2876087113105865e-16 -2.6815932220138685e-17 0.8776308931045064 0.47933705830907725
12653700000.0 0.8831902169332149 0.4690149685386105 -1.2904345047252938e-16 -2.5288233116513093e-17 -1.2904345047252938e-16 -2.5288233116513093e-17 0.8831898942963259 0.46901557608746636
12654317333.333334 0.8886278293284157 0.4586290232234325 -1.2930791489560474e-16 -2.3757601741421798e-17 -1.2930791489560474e-16 -2.3757601741421798e-17 0.8886275138514352 0.4586296344830226
12654934666.666666 0.893943312722444 0.44818004600677563 -1.2955423457406013e-16 -2.2224252769757235e-17 -1.2955423457406013e-16 -2.2224252769757235e-17 0.8939430044480278 0.44818066089273256
12655552000.0 0.8991359365793765 0.43766947294886915 -1.2978238222425005e-16 -2.0688401171697258e-17 -1.2978238222425005e-16 -2.0688401171697258e-17 0.8991356355491881 0.4376700913763364
12656169333.333334 0.9042049872484383 0.4270987485756247 -1.2999233310791378e-16 -1.915026218265291e-17 -1.2999233310791378e-16 -1.915026218265291e-17 0.9042046935031421 0.42709937045926744
12656786666.666666 0.9091497680622984 0.41646932567967415 -1.3018406503463714e-16 -1.7610051273120938e-17 -1.3018406503463714e-16 -1.7610051273120938e-17 0.9091494816415523 0.4164699509336903
12657404000.0 0.9139695994326524 0.4057826651210357 -1.303575583639539e-16 -1.6067984118533617e-17 -1.303575583639539e-16 -1.6067984118533617e-17 0.9139693203751043 0.40578329365916854
12658021333.333334 0.9186638189437438 0.39504023562608265 -1.3051279600708733e-16 -1.4524276569121397e-17 -1.3051279600708733e-16 -1.4524276569121397e-17 0.9186635472870263 0.3950408673616327
12658638666.666666 0.9232317814432516 0.3842435135860255 -1.3064976342833978e-16 -1.2979144619733411e-17 -1.3064976342833978e-16 -1.2979144619733411e-17 0.9232315172239767 0.3842441484318625
12659256000.0 0.9276728591311524 0.3733939828535612 -1.3076844864612577e-16 -1.1432804379630819e-17 -1.3076844864612577e-16 -1.1432804379630819e-17 0.927672602384907 0.37339462072213603
12659873333.333334 0.9319864416458656 0.3624931345392516 -1.3086884223364336e-16 -9.88547204234298e-18 -1.3086884223364336e-16 -9.88547204234298e-18 0.9319861924072036 0.3624937753426073
12660490666.666666 0.9361719361481059 0.3515424668066708 -1.309509373191937e-16 -8.337363855475315e-18 -1.309509373191937e-16 -8.337363855475315e-18 0.9361716944505494 0.35154311045645703
12661108000.0 0.9402287674025462 0.34054348466605794 -1.3101472958614537e-16 -6.7886960904841396e-18 -1.3101472958614537e-16 -6.7886960904841396e-18 0.9402285332785749 0.34054413107354076
12661725333.333334 0.9441563778566511 0.3294976997680289 -1.310602172725367e-16 -5.2396850125641764e-18 -1.310602172725367e-16 -5.2396850125641764e-18 0.9441561513377023 0.32949834884410445
12662342666.666666 0.9479542277174519 0.318406630195452 -1.3108740117032638e-16 -3.6905468504593374e-18 -1.3108740117032638e-16 -3.6905468504593374e-18 0.9479540088339141 0.31840728185065836
12662960000.0 0.9516217950256993 0.307271800254888 -1.3109628462428826e-16 -2.1414977663127507e-18 -1.3109628462428826e-16 -2.1414977663127507e-18 0.9516215838069099 0.3072724543994177
12663577333.333334 0.9551585757275904 0.29609474026712307 -1.3108687353054772e-16 -5.927538255712621e-19 -1.3108687353054772e-16 -5.927538255712621e-19 0.955158372201829 0.2960953968108351
12664194666.666666 0.9585640837440172 0.2848769863569301 -1.3105917633476572e-16 9.554690331369135e-19 -1.3105917633476572e-16 9.554690331369135e-19 0.9585638879385048 0.28487764520936265
12664812000.0 0.9618378510374327 0.2736200802417609 -1.3101320402996644e-16 2.502955028057905e-18 -1.3101320402996644e-16 2.502955028057905e-18 0.9618376629783251 0.27362074131214337
12665429333.333334 0.9649794276761146 0.26232556902004883 -1.30948970154011e-16 4.049488564338015e-18 -1.30948970154011e-16 4.049488564338015e-18 0.9649792473885024 0.2623262322173152
12666046666.666666 0.9679883818960304 0.2509950049585027 -1.308664907867179e-16 5.5948542640267e-18 -1.308664907867179e-16 5.5948542640267e-18 0.9679882094039325 0.2509956701913031
12666664000.0 0.9708643001601961 0.23962994527868609 -1.3076578454662788e-16 7.138836996041272e-18 -1.3076578454662788e-16 7.138836996041272e-18 0.9708641354865589 0.2396306124554003
12667281333.333334 0.9736067872154683 0.22823195194316576 -1.3064687258741975e-16 8.681221906052088e-18 -1.3064687258741975e-16 8.681221906052088e-18 0.9736066303821599 0.22823262097191482
12667898666.666666 0.9762154661468813 0.21680259144078748 -1.3050977859397102e-16 1.0221794446347201e-17 -1.3050977859397102e-16 1.0221794446347201e-17 0.9762153171746912 0.21680326222944715
12668516000.0 0.9786899784294986 0.205343434571163 -1.303545287780656e-16 1.1760340405664833e-17 -1.303545287780656e-16 1.1760340405664833e-17 0.978689837338134 0.2053441070273761
12669133333.333334 0.981029983977581 0.19385605622925792 -1.301811518737594e-16 1.3296645938874712e-17 -1.301811518737594e-16 1.3296645938874712e-17 0.9810298507856636 0.193856730260447
12669750666.666666 0.9832351611914363 0.18234203518844555 -1.2998967913238327e-16 1.4830497596722638e-17 -1.2998967913238327e-16 1.4830497596722638e-17 0.9832350359165013 0.18234271070182606
12670368000.0 0.9853052070015471 0.17080295388386113 -1.29780144317206e-16 1.636168235541943e-17 -1.29780144317206e-16 1.636168235541943e-17 0.9853050896600393 0.17080363078645353
