! Parameters = {f0=12700.012000; bw=77.238000; Q=6100.000000; N=10; m_0_1=1.283579; m_1_1=0.488933; m_1_2=1.118391; m_2_2=0.488284; m_2_3=0.755354; m_2_8=0.001243; m_2_9=0.037947; m_3_3=0.486347; m_3_4=0.643883; m_3_7=0.001843; m_3_8=-0.095245; m_3_9=0.001243; m_4_4=0.483422; m_4_5=0.480218; m_4_6=0.005360; m_4_7=-0.115794; m_4_8=0.001843; m_5_5=0.483804; m_5_6=0.887573; m_5_7=0.005360; m_6_6=0.483803; m_6_7=0.480560; m_7_7=0.483436; m_7_8=0.644001; m_8_8=0.486345; m_8_9=0.755667; m_9_9=0.488279; m_9_10=1.119469; m_10_10=0.488923; m_10_11=1.284374}
!
! Created with skrf (http://scikit-rf.org).
# Hz S RI R 50.0 
!freq ReS11 ImS11 ReS21 ImS21 ReS12 ImS12 ReS22 ImS22
12607400000.0 0.4047356355925612 -0.9144337402356204 -1.5125127912602105e-17 1.1689054498453146e-16 -1.5125127912602105e-17 1.1689054498453146e-16 0.40473625396958135 -0.91443346653679
12608017333.333334 0.39472207511769375 -0.9188005678136039 -1.383420529663809e-17 1.1702710570246092e-16 -1.383420529663809e-17 1.1702710570246092e-16 0.3947226964173219 -0.9188003008994164
12608634666.666666 0.3846614082852215 -0.9230577452011599 -1.2542110238923347e-17 1.1714941859364611e-16 -1.2542110238923347e-17 1.1714941859364611e-16 0.38466203243302866 -0.9230574851028028
12609252000.0 0.37455483574100845 -0.9272047643443411 -1.1248999893507071e-17 1.1725747440460476e-16 -1.1248999893507071e-17 1.1725747440460476e-16 0.3745554626622332 -0.9272045110921863
12609869333.333334 0.364403563609227 -0.9312411303355946 -9.955031475998128e-18 1.173512656141895e-16 -9.955031475998128e-18 1.173512656141895e-16 0.3644041932287842 -0.9312408839591926
12610486666.666666 0.3542088033486539 -0.9351663614727245 -8.660362244497847e-18 1.1743078643381987e-16 -8.660362244497847e-18 1.1743078643381987e-16 0.354209435591144 -0.935166122000804
12611104000.0 0.3439717716077783 -0.9389799893165071 -7.365149480481687e-18 1.1749603280750854e-16 -7.365149480481687e-18 1.1749603280750854e-16 0.3439724063974959 -0.9389797567769688
12611721333.333334 0.33369369007997496 -0.9426815587464461 -6.069550469769002e-18 1.1754700241167115e-16 -6.069550469769002e-18 1.1754700241167115e-16 0.33369432734091875 -0.9426813331663633
12612338666.666666 0.3233757853574451 -0.9462706280151972 -4.7737224834196576e-18 1.1758369465473235e-16 -4.7737224834196576e-18 1.1758369465473235e-16 0.3233764250133253 -0.9462704094208064
12612956000.0 0.31301928878482876 -0.949746768801274 -3.477822758673212e-18 1.1760611067651847e-16 -3.477822758673212e-18 1.1760611067651847e-16 0.3130199307590779 -0.9497465572179777
12613573333.333334 0.30262543631250005 -0.9531095662600859 -2.182008479929832e-18 1.1761425334744105e-16 -2.182008479929832e-18 1.1761425334744105e-16 0.30262608052828155 -0.9531093617124476
12614190666.666666 0.2921954683487988 -0.9563586190735387 -8.864367596814966e-19 1.1760812726747203e-16 -8.864367596814966e-19 1.1760812726747203e-16 0.29219611472901597 -0.9563584215852797
12614808000.0 0.2817306296121333 -0.9594935394978799 4.0873538049045192e-19 1.1758773876490865e-16 4.0873538049045192e-19 1.1758773876490865e-16 0.28173127807943876 -0.9594933490918763
12615425333.333334 0.2712321689824094 -0.9625139534099842 1.7033510289193686e-18 1.1755309589493027e-16 1.7033510289193686e-18 1.1755309589493027e-16 0.27123281945921396 -0.9625137701082646
12616042666.666666 0.2607013393519864 -0.9654195003519973 2.9972534028332507e-18 1.1750420843794474e-16 2.9972534028332507e-18 1.1750420843794474e-16 0.26070199176046904 -0.9654193241757408
12616660000.0 0.2501393974761577 -0.9682098335743567 4.290285867311645e-18 1.1744108789772867e-16 4.290285867311645e-18 1.1744108789772867e-16 0.2501400517382745 -0.9682096645438906
12617277333.333334 0.2395476038231415 -0.9708846200771807 5.5822919542205304e-18 1.1736374749935724e-16 5.5822919542205304e-18 1.1736374749935724e-16 0.2395482598606346 -0.9708844582119757
12617894666.666666 0.22892722242379202 -0.9734435406499692 6.8731153810996e-18 1.1727220218692887e-16 6.8731153810996e-18 1.1727220218692887e-16 0.2289278801581999 -0.9734433859686412
12618512000.0 0.21827952072041978 -0.9758862899097847 8.162600070072907e-18 1.1716646862107753e-16 8.162600070072907e-18 1.1716646862107753e-16 0.2182801800730858 -0.9758861424300895
12619129333.333334 0.20760576941603104 -0.9782125763375755 9.450590166644139e-18 1.1704656517628561e-16 9.450590166644139e-18 1.1704656517628561e-16 0.20760643030811327 -0.978212436076409
12619746666.666666 0.19690724232226703 -0.9804221223130672 1.0736930058537257e-17 1.1691251193798216e-16 1.0736930058537257e-17 1.1691251193798216e-16 0.19690790467474747 -0.9804219892864604
12620364000.0 0.1861852162073568 -0.9825146641478893 1.2021464394467143e-17 1.1676433069943855e-16 1.2021464394467143e-17 1.1676433069943855e-16 0.18618587994105082 -0.9825145383710088
12620981333.333334 0.17544097064424868 -0.9844899521169443 1.3304038102841454e-17 1.1660204495846128e-16 1.3304038102841454e-17 1.1660204495846128e-16 0.17544163567981477 -0.9844898336040909
12621598666.666666 0.16467578785734863 -0.9863477504883262 1.4584496410484244e-17 1.1642567991387285e-16 1.4584496410484244e-17 1.1642567991387285e-16 0.16467645411529755 -0.9863476392529321
12622216000.0 0.1538909525697769 -0.9880878375513923 1.5862684861266355e-17 1.1623526246179298e-16 1.5862684861266355e-17 1.1623526246179298e-16 0.15389161997048134 -0.9880877336060196
12622833333.333334 0.14308775184996497 -0.989710005643241 1.7138449334713313e-17 1.1603082119171317e-16 1.7138449334713313e-17 1.1603082119171317e-16 0.14308842031366908 -0.9897099089995807
12623450666.666666 0.13226747495816818 -0.9912140611734738 1.8411636064545394e-17 1.158123863823702e-16 1.8411636064545394e-17 1.158123863823702e-16 0.13226814440499715 -0.9912139718423455
12624068000.0 0.1214314131924646 -0.9925998246473254 1.968209165719727e-17 1.1557998999741224e-16 1.968209165719727e-17 1.1557998999741224e-16 0.12143208354243407 -0.9925997426386748
12624685333.333334 0.11058085973462199 -0.9938671306870821 2.094966311027182e-17 1.1533366568086336e-16 2.094966311027182e-17 1.1533366568086336e-16 0.11058153090764741 -0.993867056009978
12625302666.666666 0.09971710949605066 -0.9950158280517822 2.2214197830903552e-17 1.1507344875239423e-16 2.2214197830903552e-17 1.1507344875239423e-16 0.09971778141195745 -0.9950157607144205
12625920000.0 0.08884145896284507 -0.9960457796553195 2.3475543654146774e-17 1.1479937620237484e-16 2.3475543654146774e-17 1.1479937620237484e-16 0.08884213154137763 -0.9960457196650182
12626537333.333334 0.07795520604145577 -0.996956862582758 2.473354886121339e-17 1.1451148668674536e-16 2.473354886121339e-17 1.1451148668674536e-16 0.07795587920228726 -0.9969568099459563
12627154666.666666 0.06705964990362667 -0.997748968105015 2.598806219769518e-17 1.1420982052167825e-16 2.598806219769518e-17 1.1420982052167825e-16 0.06706032356636887 -0.9977489228272782
12627772000.0 0.056156090831181775 -0.9984220016918604 2.7238932891774414e-17 1.1389441967802798e-16 2.7238932891774414e-17 1.1389441967802798e-16 0.05615676491539407 -0.9984219637778693
12628389333.333334 0.0452458300612447 -0.9989758830231532 2.8486010672219894e-17 1.1356532777561853e-16 2.8486010672219894e-17 1.1356532777561853e-16 0.045246504486444315 -0.9989758524767144
12629006666.666666 0.0343301696305237 -0.9994105459984703 2.97291457865061e-17 1.1322259007728628e-16 2.97291457865061e-17 1.1322259007728628e-16 0.03433084431619488 -0.9994105228225073
12629624000.0 0.023410412220237365 -0.9997259387449637 3.0968189018694456e-17 1.1286625348276822e-16 3.0968189018694456e-17 1.1286625348276822e-16 0.023411087085841237 -0.9997259229415226
12630241333.333334 0.012487861000453541 -0.9999220236235693 3.2202991707352145e-17 1.1249636652236595e-16 3.2202991707352145e-17 1.1249636652236595e-16 0.012488535965437607 -0.9999220151938154
12630858666.666666 0.0015638194748522505 -0.9999987772334878 3.3433405763319745e-17 1.1211297935043578e-16 3.3433405763319745e-17 1.1211297935043578e-16 0.0015644944586600115 -0.9999987761777059
12631476000.0 -0.009360408675318264 -0.9999561904149851 3.465928368751109e-17 1.1171614373865258e-16 3.465928368751109e-17 1.1171614373865258e-16 -0.009359733753237676 -0.9999561967325816
12632093333.333334 -0.020283519746340527 -0.9997942682504841 3.588047858847838e-17 1.1130591306912666e-16 3.588047858847838e-17 1.1130591306912666e-16 -0.0202828449665227 -0.999794281939982
12632710666.666666 -0.0312042101678114 -0.9995130300639513 3.7096844200037156e-17 1.1088234232728692e-16 3.7096844200037156e-17 1.1088234232728692e-16 -0.03120353561076717 -0.9995130511229995
12633328000.0 -0.04212117665835327 -0.9991125094186017 3.8308234898754e-17 1.1044548809458688e-16 3.8308234898754e-17 1.1044548809458688e-16 -0.0421205024045589 -0.999112537843965
12633945333.333334 -0.05303311638089225 -0.9985927541128822 3.951450572132449e-17 1.0999540854102971e-16 3.951450572132449e-17 1.0999540854102971e-16 -0.053032442510780015 -0.9985927899004486
12634562666.666666 -0.06393872709828191 -0.9979538261747743 4.071551238190562e-17 1.0953216341749037e-16 4.071551238190562e-17 1.0953216341749037e-16 -0.06393805369223049 -0.9979538693195544
12635180000.0 -0.07483670732868448 -0.9971958018543906 4.191111128933999e-17 1.090558140478546e-16 4.191111128933999e-17 1.090558140478546e-16 -0.07483603446700919 -0.9971958523505163
12635797333.333334 -0.08572575650091871 -0.9963187716148709 4.310115956429567e-17 1.0856642332096866e-16 4.310115956429567e-17 1.0856642332096866e-16 -0.08572508426386218 -0.9963188294555985
12636414666.666666 -0.09660457510955754 -0.9953228401215967 4.42855150562974e-17 1.0806405568240846e-16 4.42855150562974e-17 1.0806405568240846e-16 -0.09660390357728003 -0.9953229052993068
12637032000.0 -0.10747186487018189 -0.9942081262296872 4.546403636069362e-17 1.0754877712605039e-16 4.546403636069362e-17 1.0754877712605039e-16 -0.10747119412275158 -0.9942081987358837
12637649333.333334 -0.11832632887420505 -0.9929747629698225 4.663658283549596e-17 1.0702065518547124e-16 4.663658283549596e-17 1.0702065518547124e-16 -0.11832565899158876 -0.9929748427951371
12638266666.666666 -0.1291666717436749 -0.9916228975323642 4.7803014618134654e-17 1.0647975892515744e-16 4.7803014618134654e-17 1.0647975892515744e-16 -0.12916600280572854 -0.9916229846665574
12638884000.0 -0.13999159978586562 -0.9901526912497962 4.8963192642110257e-17 1.0592615893153434e-16 4.8963192642110257e-17 1.0592615893153434e-16 -0.13999093187232434 -0.9901527856817549
12639501333.333334 -0.1507998211477231 -0.9885643195774548 5.011697865354501e-17 1.0535992730381234e-16 5.011697865354501e-17 1.0535992730381234e-16 -0.15079915433819202 -0.9885644212951965
12640118666.666666 -0.1615900459697265 -0.9868579720726389 5.1264235227608726e-17 1.0478113764466424e-16 5.1264235227608726e-17 1.0478113764466424e-16 -0.1615893803436717 -0.9868580810633154
12640736000.0 -0.17236098654058005 -0.9850338523718761 5.240482578490275e-17 1.0418986505069058e-16 5.240482578490275e-17 1.0418986505069058e-16 -0.17236032217731784 -0.9850339686217687
12641353333.333334 -0.18311135744982096 -0.9830921781667799 5.3538614607616783e-17 1.03586186102768e-16 5.3538614607616783e-17 1.03586186102768e-16 -0.18311069442851 -0.9830923016613087
12641970666.666666 -0.19383987574212072 -0.9810331811779357 5.466546685570816e-17 1.0297017885615385e-16 5.466546685570816e-17 1.0297017885615385e-16 -0.19383921414175112 -0.9810333119016545
12642588000.0 -0.20454526106997126 -0.9788571071273062 5.578524858287621e-17 1.0234192283046177e-16 5.578524858287621e-17 1.0234192283046177e-16 -0.20454460096935634 -0.9788572450639101
12643205333.333334 -0.21522623584653974 -0.9765642157089058 5.689782675245537e-17 1.0170149899944851e-16 5.689782675245537e-17 1.0170149899944851e-16 -0.215225577324306 -0.9765643608412298
12643822666.666666 -0.2258815253982475 -0.9741547805577822 5.800306925319997e-17 1.0104898978062262e-16 5.800306925319997e-17 1.0104898978062262e-16 -0.2258808685328255 -0.9741549328678046
12644440000.0 -0.23650985811675118 -0.9716290892173901 5.910084491492449e-17 1.0038447902469656e-16 5.910084491492449e-17 1.0038447902469656e-16 -0.2365092029863658 -0.9716292486862336
12645057333.333334 -0.24710996561072485 -0.9689874431052692 6.019102352404152e-17 9.970805200486036e-17 6.019102352404152e-17 9.970805200486036e-17 -0.2471093122933866 -0.9689876097132047
12645674666.666666 -0.25768058285723167 -0.9662301574770777 6.127347583897456e-17 9.901979540588819e-17 6.127347583897456e-17 9.901979540588819e-17 -0.25767993143072704 -0.9662303312035266
12646292000.0 -0.2682204483528843 -0.9633575613889159 6.23480736054663e-17 9.831979731306536e-17 6.23480736054663e-17 9.831979731306536e-17 -0.2682197988947664 -0.9633577422124512
12646909333.333334 -0.27872830426403555 -0.96036999765815 6.341468957170566e-17 9.76081472009858e-17 6.341468957170566e-17 9.76081472009858e-17 -0.27872765685161544 -0.9603701855565012
12647526666.666666 -0.2892028965771658 -0.9572678228224317 6.447319750339154e-17 9.688493592214455e-17 6.447319750339154e-17 9.688493592214455e-17 -0.2892022512875022 -0.957268017772484
12648144000.0 -0.2996429752485064 -0.9540514070971462 6.552347219863636e-17 9.615025569538656e-17 6.552347219863636e-17 9.615025569538656e-17 -0.29964233215839786 -0.9540516090749479
12648761333.333334 -0.3100472943531141 -0.9507211343312688 6.656538950273077e-17 9.540420009420096e-17 6.656538950273077e-17 9.540420009420096e-17 -0.3100466535390889 -0.950721343312031
12649378666.666666 -0.32041461223356027 -0.9472774019615572 6.759882632278704e-17 9.464686403484836e-17 6.759882632278704e-17 9.464686403484836e-17 -0.32041397377186764 -0.9472776179196579
12649996000.0 -0.33074369164824646 -0.943720620965077 6.862366064226062e-17 9.387834376431945e-17 6.862366064226062e-17 9.387834376431945e-17 -0.3307430556148474 -0.9437208438740635
12650613333.333334 -0.3410332999190019 -0.9400512158101689 6.963977153531717e-17 9.309873684815109e-17 6.963977153531717e-17 9.309873684815109e-17 -0.34103266638956053 -0.9400514456427626
12651230666.666666 -0.3512822090779797 -0.9362696244058738 7.064703918104367e-17 9.230814215810161e-17 7.064703918104367e-17 9.230814215810161e-17 -0.3512815781278534 -0.9362698611339709
12651848000.0 -0.36148919601462964 -0.9323762980495147 7.164534487759581e-17 9.150665985961405e-17 7.164534487759581e-17 9.150665985961405e-17 -0.36148856771886134 -0.9323765416441937
12652465333.333334 -0.3716530426213185 -0.9283717013729672 7.26345710561047e-17 9.069439139920393e-17 7.26345710561047e-17 9.069439139920393e-17 -0.3716524170546264 -0.928371951804488
12653082666.666666 -0.38177253593872634 -0.9242563122872003 7.361460129448853e-17 8.987143949166111e-17 7.361460129448853e-17 8.987143949166111e-17 -0.3817719131754963 -0.9242565695250111
12653700000.0 -0.39184646830086695 -0.9200306219251386 7.458532033117034e-17 8.903790810706045e-17 7.458532033117034e-17 8.903790810706045e-17 -0.3918458484151428 -0.9200308859378782
12654317333.333334 -0.40187363747884197 -0.9156951345832005 7.554661407852755e-17 8.819390245772614e-17 7.554661407852755e-17 8.819390245772614e-17 -0.40187302054431645 -0.9156954053387009
12654934666.666666 -0.41185284682457773 -0.9112503676610025 7.649836963631607e-17 8.733952898494959e-17 7.649836963631607e-17 8.733952898494959e-17 -0.4118522329145849 -0.911250645126296
12655552000.0 -0.42178290541363367 -0.906696851599615 7.744047530489328e-17 8.647489534560452e-17 7.744047530489328e-17 8.647489534560452e-17 -0.4217822946011394 -0.9066971357409362
12656169333.333334 -0.4316626281870952 -0.9020351298183625 7.837282059824751e-17 8.5600110398661e-17 7.837282059824751e-17 8.5600110398661e-17 -0.4316620205446884 -0.9020354206011518
12656786666.666666 -0.44149083609325734 -0.8972657586498538 7.929529625696855e-17 8.47152841914752e-17 7.929529625696855e-17 8.47152841914752e-17 -0.4414902316931415 -0.897266056038763
12657404000.0 -0.45126635622820394 -0.8923893072736478 8.02077942609899e-17 8.382052794600581e-17 8.02077942609899e-17 8.382052794600581e-17 -0.4512657551421889 -0.8923896112325438
12658021333.333334 -0.46098802197583444 -0.8874063576483032 8.11102078422087e-17 8.291595404486553e-17 8.11102078422087e-17 8.291595404486553e-17 -0.4609874242753275 -0.8874066681402724
12658638666.666666 -0.47065467314696274 -0.8823175044419934 8.20024314969295e-17 8.20016760172554e-17 8.20024314969295e-17 8.20016760172554e-17 -0.4706540789029599 -0.8823178214293456
12659256000.0 -0.48026515611802534 -0.8771233549614041 8.288436099818459e-17 8.107780852473025e-17 8.288436099818459e-17 8.107780852473025e-17 -0.4802645654011039 -0.8771236784056792
12659873333.333334 -0.4898183239685551 -0.871824529079365 8.375589340785152e-17 8.014446734687765e-17 8.375589340785152e-17 8.014446734687765e-17 -0.4898177368488641 -0.8718248589413349
12660490666.666666 -0.4993130366179313 -0.8664216591609426 8.461692708862958e-17 7.920176936684514e-17 8.461692708862958e-17 7.920176936684514e-17 -0.49931245316518374 -0.8664219954006175
12661108000.0 -0.5087481609619591 -0.8609153899876834 8.546736171587713e-17 7.82498325567158e-17 8.546736171587713e-17 7.82498325567158e-17 -0.5087475812454233 -0.8609157325643159
12661725333.333334 -0.5181225710074012 -0.8553063786810556 8.630709828923122e-17 7.728877596281519e-17 8.630709828923122e-17 7.728877596281519e-17 -0.5181219950958934 -0.8553067275531467
12662342666.666666 -0.527435148006898 -0.8495952946237183 8.713603914411749e-17 7.631871969083313e-17 8.713603914411749e-17 7.631871969083313e-17 -0.5274345759687732 -0.8495956497490216
12662960000.0 -0.5366847805922328 -0.8437828193797785 8.795408796305843e-17 7.533978489086177e-17 8.795408796305843e-17 7.533978489086177e-17 -0.5366842124953777 -0.8437831807153056
12663577333.333334 -0.5458703649070131 -0.8378696466134251 8.876114978682762e-17 7.435209374229867e-17 8.876114978682762e-17 7.435209374229867e-17 -0.5458698008188368 -0.8378700141154503
12664194666.666666 -0.554990804738404 -0.8318564820061447 8.955713102543198e-17 7.335576943863289e-17 8.955713102543198e-17 7.335576943863289e-17 -0.5549902447258314 -0.8318568556302116
12664812000.0 -0.5640450116479527 -0.8257440431725084 9.034193946892434e-17 7.235093617211447e-17 9.034193946892434e-17 7.235093617211447e-17 -0.5640444557774155 -0.825744422873434
12665429333.333334 -0.5730319051015056 -0.8195330595745118 9.111548429804637e-17 7.133771911830603e-17 9.111548429804637e-17 7.133771911830603e-17 -0.5730313534389343 -0.8195334453063915
12666046666.666666 -0.5819504125980426 -0.8132242724346029 9.187767609468674e-17 7.031624442053701e-17 9.187767609468674e-17 7.031624442053701e-17 -0.5819498652088599 -0.8132246641508185
12666664000.0 -0.5907994697979275 -0.806818434647046 9.262842685219706e-17 6.92866391742045e-17 9.262842685219706e-17 6.92866391742045e-17 -0.5907989267470393 -0.8068188323002679
12667281333.333334 -0.5995780206496008 -0.800316310688298 9.336764998548378e-17 6.824903141103093e-17 9.336764998548378e-17 6.824903141103093e-17 -0.5995774820013894 -0.8003167142304946
12667898666.666666 -0.6082850175158425 -0.7937186765256142 9.40952603409705e-17 6.720355008315074e-17 9.40952603409705e-17 6.720355008315074e-17 -0.608284483334158 -0.7937190859080545
12668516000.0 -0.6169194212987944 -0.7870263195244381 9.481117420636303e-17 6.615032504711785e-17 9.481117420636303e-17 6.615032504711785e-17 -0.6169188916469477 -0.7870267346976991
12669133333.333334 -0.6254802015637628 -0.7802400383545921 9.551530932022001e-17 6.508948704783486e-17 9.551530932022001e-17 6.508948704783486e-17 -0.6254796765045193 -0.7802404592685663
12669750666.666666 -0.6339663366624207 -0.7733606428947957 9.620758488137851e-17 6.402116770232864e-17 9.620758488137851e-17 6.402116770232864e-17 -0.63396581625799 -0.7733610694986929
12670368000.0 -0.6423768138546573 -0.7663889541360572 9.688792155817337e-17 6.294549948346485e-17 9.688792155817337e-17 6.294549948346485e-17 -0.6423762981666885 -0.7663893863784148
