! Parameters = {f0=12700.012000; bw=77.238000; Q=6100.000000; N=10; m_0_1=1.253148; m_1_1=0.032477; m_1_2=1.087960; m_2_2=0.031828; m_2_3=0.724923; m_2_8=-0.000279; m_2_9=0.036425; m_3_3=0.029891; m_3_4=0.613452; m_3_7=0.000321; m_3_8=-0.096767; m_3_9=-0.000279; m_4_4=0.026966; m_4_5=0.449787; m_4_6=0.003838; m_4_7=-0.117316; m_4_8=0.000321; m_5_5=0.027348; m_5_6=0.857142; m_5_7=0.003838; m_6_6=0.027347; m_6_7=0.450129; m_7_7=0.026980; m_7_8=0.613570; m_8_8=0.029889; m_8_9=0.725236; m_9_9=0.031823; m_9_10=1.089038; m_10_10=0.032467; m_10_11=1.253943}
!
! Created with skrf (http://scikit-rf.org).
# Hz S RI R 50.0 
!freq ReS11 ImS11 ReS21 ImS21 ReS12 ImS12 ReS22 ImS22
12607400000.0 -0.04870250681853811 -0.9988133288204646 3.372949642465768e-17 9.63526756356855e-17 3.372949642465768e-17 9.63526756356855e-17 -0.04870184733866953 -0.9988133609767283
12608017333.333334 -0.0587127578206389 -0.9982749180806468 3.469541677307576e-17 9.598783052802177e-17 3.469541677307576e-17 9.598783052802177e-17 -0.058712098728533973 -0.9982749568444147
12608634666.666666 -0.06871710848102205 -0.997636185691876 3.5657409853301677e-17 9.561330973557911e-17 3.5657409853301677e-17 9.561330973557911e-17 -0.06871644984287503 -0.9976362310586055
12609252000.0 -0.07871455341233265 -0.9968971958436463 3.661537881986779e-17 9.522915535027798e-17 3.661537881986779e-17 9.522915535027798e-17 -0.07871389529428566 -0.9968972478081317
12609869333.333334 -0.088704087921265 -0.9960580228008229 3.75692272767125e-17 9.483541043259989e-17 3.75692272767125e-17 9.483541043259989e-17 -0.08870343038940148 -0.9960580813571969
12610486666.666666 -0.09868470810935948 -0.9951187508961925 3.851885928684282e-17 9.44321190068121e-17 3.851885928684282e-17 9.44321190068121e-17 -0.09868405122969749 -0.995118816037925
12611104000.0 -0.1086554109742006 -0.9940794745219599 3.946417938199204e-17 9.401932605607777e-17 3.946417938199204e-17 9.401932605607777e-17 -0.10865475481268616 -0.99407954624186
12611721333.333334 -0.11861519450981751 -0.9929402981202978 4.0405092572155796e-17 9.359707751749783e-17 4.0405092572155796e-17 9.359707751749783e-17 -0.1186145391323181 -0.992940376410515
12612338666.666666 -0.1285630578076355 -0.9917013361728306 4.1341504355153514e-17 9.316542027702629e-17 4.1341504355153514e-17 9.316542027702629e-17 -0.12856240327993337 -0.9917014210248541
12612956000.0 -0.1384980011571748 -0.9903627131891098 4.22733207260821e-17 9.272440216431103e-17 4.22733207260821e-17 9.272440216431103e-17 -0.13849734754496013 -0.99036280459377
12613573333.333334 -0.14841902614609306 -0.9889245636941543 4.320044818671885e-17 9.227407194744184e-17 4.320044818671885e-17 9.227407194744184e-17 -0.14841837351495793 -0.988924661641625
12614190666.666666 -0.15832513576091622 -0.9873870322148832 4.412279375490505e-17 9.18144793275857e-17 4.412279375490505e-17 9.18144793275857e-17 -0.15832448417634765 -0.9873871366946817
12614808000.0 -0.16821533448706405 -0.9857502732656144 4.5040264973836715e-17 9.134567493354681e-17 4.5040264973836715e-17 9.134567493354681e-17 -0.16821468401443712 -0.9857503842666007
12615425333.333334 -0.17808862840892212 -0.9840144513325286 4.595276992131092e-17 9.086771031622757e-17 4.595276992131092e-17 9.086771031622757e-17 -0.17808797911349425 -0.984014568842911
12616042666.666666 -0.18794402530972593 -0.9821797408571433 4.686021721892429e-17 9.038063794299215e-17 4.686021721892429e-17 9.038063794299215e-17 -0.1879433772566297 -0.9821798648644763
12616660000.0 -0.1977805347712457 -0.9802463262187864 4.776251604118659e-17 8.988451119195199e-17 4.776251604118659e-17 8.988451119195199e-17 -0.19777988802548244 -0.9802464567099723
12617277333.333334 -0.2075971682734579 -0.9782144017160399 4.865957612460226e-17 8.937938434614535e-17 4.865957612460226e-17 8.937938434614535e-17 -0.20759652289989103 -0.9782145386773308
12617894666.666666 -0.21739293929357958 -0.9760841715472731 4.9551307776663224e-17 8.886531258764233e-17 4.9551307776663224e-17 8.886531258764233e-17 -0.2173922953569286 -0.9760843149642731
12618512000.0 -0.22716686340562697 -0.973855849790038 5.0437621884822504e-17 8.834235199153571e-17 5.0437621884822504e-17 8.834235199153571e-17 -0.22716622097046074 -0.9738559996477039
12619129333.333334 -0.2369179583789289 -0.9715296603796453 5.1318429925339875e-17 8.781055951988059e-17 5.1318429925339875e-17 8.781055951988059e-17 -0.2369173175096586 -0.9715298166622867
12619746666.666666 -0.2466452442771127 -0.9691058370865961 5.2193643972136354e-17 8.726999301550347e-17 5.2193643972136354e-17 8.726999301550347e-17 -0.24664460503798613 -0.9691059997778798
12620364000.0 -0.25634774355658296 -0.9665846234930892 5.3063176705534146e-17 8.672071119575268e-17 5.3063176705534146e-17 8.672071119575268e-17 -0.2563471060116781 -0.96658479257604
12620981333.333334 -0.2660244811645115 -0.9639662729686036 5.3926941420934095e-17 8.61627736461614e-17 5.3926941420934095e-17 8.61627736461614e-17 -0.26602384537772955 -0.9639664484256051
12621598666.666666 -0.2756744846370742 -0.9612510486443754 5.478485203746107e-17 8.559624081400236e-17 5.478485203746107e-17 8.559624081400236e-17 -0.27567385067213324 -0.9612512304571718
12622216000.0 -0.28529678419714916 -0.9584392233869571 5.563682310650794e-17 8.502117400177888e-17 5.563682310650794e-17 8.502117400177888e-17 -0.28529615211757825 -0.9584394115366562
12622833333.333334 -0.2948904128516661 -0.9555310797708269 5.648276982022621e-17 8.443763536062149e-17 5.648276982022621e-17 8.443763536062149e-17 -0.2948897827207985 -0.955531274237902
12623450666.666666 -0.30445440648878436 -0.9525269100499943 5.732260801994553e-17 8.38456878836023e-17 5.732260801994553e-17 8.38456878836023e-17 -0.3044537783697515 -0.9525271108142856
12624068000.0 -0.31398780397489107 -0.9494270161285987 5.8156254204521e-17 8.3245395398967e-17 5.8156254204521e-17 8.3245395398967e-17 -0.3139871779306157 -0.9494272231693149
12624685333.333334 -0.323489647251215 -0.946231709530553 5.898362553862424e-17 8.26368225632747e-17 5.898362553862424e-17 8.26368225632747e-17 -0.32348902334440577 -0.9462319228262757
12625302666.666666 -0.3329589814298386 -0.9429413113683337 5.980463986092572e-17 8.202003485448248e-17 5.980463986092572e-17 8.202003485448248e-17 -0.3329583597229828 -0.9429415308970164
12625920000.0 -0.34239485489006255 -0.9395561523105692 6.061921569226546e-17 8.139509856490455e-17 6.061921569226546e-17 8.139509856490455e-17 -0.3423942354454205 -0.9395563780495421
12626537333.333334 -0.3517963193736364 -0.9360765725489514 6.142727224368366e-17 8.076208079414054e-17 6.142727224368366e-17 8.076208079414054e-17 -0.35179570225323475 -0.9360768044749223
12627154666.666666 -0.36116243008032095 -0.9325029217639514 6.222872942442178e-17 8.012104944189165e-17 6.222872942442178e-17 8.012104944189165e-17 -0.3611618153459472 -0.93250315985301
12627772000.0 -0.37049224576283735 -0.9288355590896806 6.302350784985957e-17 7.947207320068801e-17 6.302350784985957e-17 7.947207320068801e-17 -0.37049163347603253 -0.9288358033172978
12628389333.333334 -0.3797848288211892 -0.9250748530778948 6.38115288493099e-17 7.88152215485922e-17 6.38115288493099e-17 7.88152215485922e-17 -0.3797842190432433 -0.9250751034189287
12629006666.666666 -0.38903924539726153 -0.921221181660821 6.459271447382445e-17 7.815056474175452e-17 6.459271447382445e-17 7.815056474175452e-17 -0.38903863818920537 -0.9212214380895163
12629624000.0 -0.3982545654683737 -0.9172749321132817 6.5366987503854e-17 7.747817380694844e-17 6.5366987503854e-17 7.747817380694844e-17 -0.39825396089097503 -0.917275194603276
12630241333.333334 -0.4074298629409041 -0.9132365010137217 6.613427145686835e-17 7.679812053399855e-17 6.613427145686835e-17 7.679812053399855e-17 -0.40742926105465954 -0.9132367695380443
12630858666.666666 -0.41656421574317265 -0.9091062942044262 6.689449059488311e-17 7.611047746814708e-17 6.689449059488311e-17 7.611047746814708e-17 -0.4165636166083027 -0.9091065687355031
12631476000.0 -0.425656705918495 -0.904884726750565 6.764756993192188e-17 7.541531790233221e-17 6.764756993192188e-17 7.541531790233221e-17 -0.4256561095949379 -0.9048850072602213
12632093333.333334 -0.43470641971694 -0.900572222898701 6.839343524136897e-17 7.47127158694201e-17 6.839343524136897e-17 7.47127158694201e-17 -0.43470582626434584 -0.9005725093581646
12632710666.666666 -0.4437124476874171 -0.8961692160340423 6.913201306327207e-17 7.400274613433797e-17 6.913201306327207e-17 7.400274613433797e-17 -0.4437118571651407 -0.8961695084139438
12633328000.0 -0.45267388476917103 -0.8916761486368331 6.986323071156242e-17 7.328548418613406e-17 6.986323071156242e-17 7.328548418613406e-17 -0.45267329723626826 -0.891676446907214
12633945333.333334 -0.4615898303825086 -0.8870934722380023 7.058701628116258e-17 7.256100622999717e-17 7.058701628116258e-17 7.256100622999717e-17 -0.4615892458977284 -0.8870937763683132
12634562666.666666 -0.4704593885194277 -0.8824216473737221 7.130329865505075e-17 7.182938917916821e-17 7.130329865505075e-17 7.182938917916821e-17 -0.4704588071412073 -0.8824219573328288
12635180000.0 -0.4792816678336133 -0.8776611435391554 7.201200751120876e-17 7.109071064681433e-17 7.201200751120876e-17 7.109071064681433e-17 -0.4792810896200717 -0.8776614592953401
12635797333.333334 -0.48805578173013603 -0.8728124391412019 7.271307332951084e-17 7.034504893781074e-17 7.271307332951084e-17 7.034504893781074e-17 -0.48805520673906855 -0.8728127606621674
12636414666.666666 -0.49678084845430226 -0.8678760214505598 7.340642739850726e-17 6.959248304047531e-17 7.340642739850726e-17 6.959248304047531e-17 -0.4967802767431749 -0.867876348703433
12637032000.0 -0.5054559911805151 -0.8628523865526193 7.409200182214501e-17 6.883309261821413e-17 7.409200182214501e-17 6.883309261821413e-17 -0.5054554228064594 -0.8628527195039557
12637649333.333334 -0.5140803381002675 -0.8577420392976807 7.476972952638013e-17 6.806695800112355e-17 7.476972952638013e-17 6.806695800112355e-17 -0.5140797731200726 -0.8577423779134637
12638266666.666666 -0.5226530225097765 -0.8525454932501976 7.543954426572364e-17 6.729416017750704e-17 7.543954426572364e-17 6.729416017750704e-17 -0.5226524609798865 -0.8525458374958482
12638884000.0 -0.531173182897087 -0.8472632706371771 7.610138062967849e-17 6.651478078535101e-17 7.610138062967849e-17 6.651478078535101e-17 -0.5311726248735923 -0.8472636204775504
12639501333.333334 -0.5396399630286689 -0.8418959022956732 7.675517404910973e-17 6.572890210371408e-17 7.675517404910973e-17 6.572890210371408e-17 -0.5396394085673031 -0.8418962576950677
12640118666.666666 -0.5480525120353003 -0.8364439276195544 7.74008608025044e-17 6.493660704408074e-17 7.74008608025044e-17 6.493660704408074e-17 -0.5480519611914334 -0.836444288541713
12640736000.0 -0.5564099844980503 -0.8309078945049849 7.803837802218342e-17 6.413797914160215e-17 7.803837802218342e-17 6.413797914160215e-17 -0.5564094373266837 -0.8309082609130998
12641353333.333334 -0.5647115405325281 -0.8252883592958328 7.86676637003503e-17 6.333310254636856e-17 7.86676637003503e-17 6.333310254636856e-17 -0.5647109970882879 -0.8252887311525466
12641970666.666666 -0.5729563458738773 -0.819585886727365 7.928865669513907e-17 6.25220620145099e-17 7.928865669513907e-17 6.25220620145099e-17 -0.5729558062110107 -0.8195862639947791
12642588000.0 -0.5811435719603587 -0.8138010498696744 7.990129673649833e-17 6.170494289933052e-17 7.990129673649833e-17 6.170494289933052e-17 -0.5811430361327266 -0.813801432509347
12643205333.333334 -0.5892723960166367 -0.807934430070065 8.050552443202095e-17 6.088183114233854e-17 8.050552443202095e-17 6.088183114233854e-17 -0.5892718640777102 -0.807934818043021
12643822666.666666 -0.59734200113656 -0.801986616894571 8.110128127267842e-17 6.005281326422325e-17 8.110128127267842e-17 6.005281326422325e-17 -0.5973414731394137 -0.8019870101613016
12644440000.0 -0.605351576365115 -0.7959582080688022 8.168850963844858e-17 5.92179763557952e-17 8.168850963844858e-17 5.92179763557952e-17 -0.6053510523624233 -0.7959586065892722
12645057333.333334 -0.6133003167800409 -0.789849809417797 8.226715280386097e-17 5.837740806885775e-17 8.226715280386097e-17 5.837740806885775e-17 -0.6132997968240699 -0.7898502131514448
12645674666.666666 -0.6211874235725817 -0.783662034805238 8.283715494344512e-17 5.753119660702963e-17 8.283715494344512e-17 5.753119660702963e-17 -0.6211869077151876 -0.7836624437109844
12646292000.0 -0.629012104128012 -0.7773955060715748 8.339846113710395e-17 5.667943071648599e-17 8.339846113710395e-17 5.667943071648599e-17 -0.6290115924206323 -0.777395920107823
12646909333.333334 -0.6367735721049745 -0.7710508529717743 8.395101737534412e-17 5.582219967671888e-17 8.395101737534412e-17 5.582219967671888e-17 -0.6367730645986264 -0.7710512720964172
12647526666.666666 -0.6444710475147298 -0.7646287131118583 8.449477056446454e-17 5.4959593291168443e-17 8.449477056446454e-17 5.4959593291168443e-17 -0.6444705442600024 -0.7646291372822817
12648144000.0 -0.6521037567995162 -0.7581297318848446 8.502966853162335e-17 5.4091701877842244e-17 8.502966853162335e-17 5.4091701877842244e-17 -0.6521032578465665 -0.7581301610579307
12648761333.333334 -0.6596709329102013 -0.75155456240596 8.555566002980447e-17 5.3218616259893014e-17 8.555566002980447e-17 5.3218616259893014e-17 -0.659670438308749 -0.7515549965380928
12649378666.666666 -0.667171815383346 -0.7449038654470255 8.607269474270142e-17 5.2340427756126737e-17 8.607269474270142e-17 5.2340427756126737e-17 -0.667171325182669 -0.7449043044940945
12649996000.0 -0.67460565041782 -0.7381783093698828 8.658072328949612e-17 5.145722817147558e-17 8.658072328949612e-17 5.145722817147558e-17 -0.6746051646667495 -0.7381787532872895
12650613333.333334 -0.6819716909503634 -0.7313785700593982 8.707969722954384e-17 5.05691097874205e-17 8.707969722954384e-17 5.05691097874205e-17 -0.6819712096972782 -0.7313790188020575
12651230666.666666 -0.6892691967306641 -0.7245053308555396 8.756956906695119e-17 4.967616535238339e-17 8.756956906695119e-17 4.967616535238339e-17 -0.6892687200234856 -0.7245057843778858
12651848000.0 -0.6964974343959339 -0.7175592824845284 8.805029225507663e-17 4.877848807203774e-17 8.805029225507663e-17 4.877848807203774e-17 -0.6964969622821235 -0.717559740740521
12652465333.333334 -0.7036556775444252 -0.7105411229896028 8.852182120090507e-17 4.7876171599626845e-17 8.852182120090507e-17 4.7876171599626845e-17 -0.7036552100709773 -0.7105415859327296
12653082666.666666 -0.7107432068084284 -0.7034515576608672 8.89841112693423e-17 4.696931002620461e-17 8.89841112693423e-17 4.696931002620461e-17 -0.710742744021867 -0.7034520252441501
12653700000.0 -0.7177593099267503 -0.6962912989642362 8.943711878740912e-17 4.605799787083524e-17 8.943711878740912e-17 4.605799787083524e-17 -0.7177588518731234 -0.6962917711402347
12654317333.333334 -0.7247032818160886 -0.6890610664700336 8.988080104831783e-17 4.5142330070788697e-17 8.988080104831783e-17 4.5142330070788697e-17 -0.7247028285409637 -0.6890615431908502
12654934666.666666 -0.7315744246419691 -0.6817615867805996 9.031511631547312e-17 4.422240197164918e-17 9.031511631547312e-17 4.422240197164918e-17 -0.7315739761904304 -0.6817620679978855
12655552000.0 -0.738372047888955 -0.6743935934571883 9.07400238263594e-17 4.3298309317407815e-17 9.07400238263594e-17 4.3298309317407815e-17 -0.7383716043055966 -0.6743940791221472
12656169333.333334 -0.7450954684298451 -0.6669578269464567 9.11554837963165e-17 4.2370148240545335e-17 9.11554837963165e-17 4.2370148240545335e-17 -0.7450950297587673 -0.6669583170098498
12656786666.666666 -0.7517440105945161 -0.6594550345058428 9.156145742224202e-17 4.143801525201614e-17 9.156145742224202e-17 4.143801525201614e-17 -0.751743576879322 -0.6594555289179945
12657404000.0 -0.7583170062377306 -0.6518859701285767 9.195790688616195e-17 4.050200723126261e-17 9.195790688616195e-17 4.050200723126261e-17 -0.7583165775215215 -0.6518864688393802
12658021333.333334 -0.7648137948063183 -0.6442513944678653 9.234479535871974e-17 3.956222141615152e-17 9.234479535871974e-17 3.956222141615152e-17 -0.7648133711316877 -0.6442518974267849
12658638666.666666 -0.7712337234054486 -0.6365520747605795 9.272208700254938e-17 3.8618755392909253e-17 9.272208700254938e-17 3.8618755392909253e-17 -0.7712333048144802 -0.6365525819166589
12659256000.0 -0.7775761468644988 -0.6287887847498462 9.308974697556238e-17 3.767170708598274e-17 9.308974697556238e-17 3.767170708598274e-17 -0.7775757333987614 -0.6287892960517121
12659873333.333334 -0.7838404278016178 -0.620962304607619 9.344774143411129e-17 3.6721174747923134e-17 9.344774143411129e-17 3.6721174747923134e-17 -0.7838400195021606 -0.6209628200034862
12660490666.666666 -0.7900259366878539 -0.6130734208561881 9.37960375360643e-17 3.576725694920253e-17 9.37960375360643e-17 3.576725694920253e-17 -0.7900255335952026 -0.6130739402938647
12661108000.0 -0.7961320519105758 -0.6051229262889369 9.413460344377582e-17 3.481005256800214e-17 9.413460344377582e-17 3.481005256800214e-17 -0.7961316540647296 -0.6051234497158305
12661725333.333334 -0.8021581598356985 -0.5971116198909849 9.446340832694008e-17 3.384966078001053e-17 9.446340832694008e-17 3.384966078001053e-17 -0.8021577672761255 -0.5971121472541073
12662342666.666666 -0.8081036548695414 -0.5890403067586455 9.478242236535954e-17 3.2886181048141754e-17 9.478242236535954e-17 3.2886181048141754e-17 -0.8081032676351747 -0.5890408380046185
12662960000.0 -0.8139679395195829 -0.5809097980186543 9.509161675159475e-17 3.1919713112268394e-17 9.509161675159475e-17 3.1919713112268394e-17 -0.8139675576488167 -0.5809103330937142
12663577333.333334 -0.8197504244545915 -0.5727209107465399 9.539096369351478e-17 3.0950356978917004e-17 9.539096369351478e-17 3.0950356978917004e-17 -0.8197500479852767 -0.5727214495965436
12664194666.666666 -0.8254505285637488 -0.56447446788465 9.568043641674558e-17 2.997821291092922e-17 9.568043641674558e-17 2.997821291092922e-17 -0.8254501575331895 -0.56447501045508
12664812000.0 -0.8310676790151131 -0.5561712981593561 9.596000916700553e-17 2.900338141712808e-17 9.596000916700553e-17 2.900338141712808e-17 -0.831067313460065 -0.5561718443953269
12665429333.333334 -0.8366013113131905 -0.5478122359977728 9.622965721234452e-17 2.8025963241933156e-17 9.622965721234452e-17 2.8025963241933156e-17 -0.8366009512698546 -0.5478127858440364
12666046666.666666 -0.8420508693555818 -0.5393981214440202 9.648935684526949e-17 2.7046059354985885e-17 9.648935684526949e-17 2.7046059354985885e-17 -0.8420505148596016 -0.5393986748449701
12666664000.0 -0.8474158054890403 -0.5309298000745403 9.673908538477627e-17 2.606377094070896e-17 9.673908538477627e-17 2.606377094070896e-17 -0.8474154565754975 -0.5309303569742182
12667281333.333334 -0.8526955805642891 -0.5224081229134541 9.697882117825764e-17 2.5079199387919682e-17 9.697882117825764e-17 2.5079199387919682e-17 -0.8526952372677031 -0.5224086832555569
12667898666.666666 -0.8578896639903495 -0.5138339463468284 9.720854360332618e-17 2.4092446279346508e-17 9.720854360332618e-17 2.4092446279346508e-17 -0.8578893263446696 -0.5138345100747111
12668516000.0 -0.8629975337879084 -0.5052081320365073 9.742823306951579e-17 2.3103613381184657e-17 9.742823306951579e-17 2.3103613381184657e-17 -0.8629972018265148 -0.5052086990931912
12669133333.333334 -0.8680186766415652 -0.49653154683389067 9.763787101987987e-17 2.2112802632634932e-17 9.763787101987987e-17 2.2112802632634932e-17 -0.8680183503972625 -0.49653211716206774
12669750666.666666 -0.8729525879516146 -0.4878050626924754 9.783743993249113e-17 2.112011613538971e-17 9.783743993249113e-17 2.112011613538971e-17 -0.8729522674566291 -0.487805636234514
12670368000.0 -0.8777987718846851 -0.4790295565803504 9.802692332182664e-17 2.0125656143142525e-17 9.802692332182664e-17 2.0125656143142525e-17 -0.8777984571706655 -0.47903013327830324
12670985333.333334 -0.8825567414235334 -0.4702059103921441 9.820630574004739e-17 1.912952505108643e-17 9.820630574004739e-17 1.912952505108643e-17 -0.8825564325215396 -0.47020649018775
