! Parameters = {f0=12700.012000; bw=77.238000; Q=6100.000000; N=10; m_0_1=1.199294; m_1_1=-0.775331; m_1_2=1.034106; m_2_2=-0.775980; m_2_3=0.671069; m_2_8=-0.002972; m_2_9=0.033732; m_3_3=-0.777917; m_3_4=0.559598; m_3_7=-0.002372; m_3_8=-0.099460; m_3_9=-0.002972; m_4_4=-0.780842; m_4_5=0.395933; m_4_6=0.001145; m_4_7=-0.120009; m_4_8=-0.002372; m_5_5=-0.780460; m_5_6=0.803288; m_5_7=0.001145; m_6_6=-0.780461; m_6_7=0.396275; m_7_7=-0.780828; m_7_8=0.559716; m_8_8=-0.777919; m_8_9=0.671382; m_9_9=-0.775985; m_9_10=1.035184; m_10_10=-0.775341; m_10_11=1.200089}
!
! Created with skrf (http://scikit-rf.org).
# Hz S RI R 50.0 
!freq ReS11 ImS11 ReS21 ImS21 ReS12 ImS12 ReS22 ImS22
12607400000.0 0.8774168970186139 -0.4797286616683126 -5.518681455176596e-17 5.551408697169395e-17 -5.518681455176596e-17 5.551408697169395e-17 0.8774172001984022 -0.47972810715637615
12608017333.333334 0.873340340306639 -0.48711051106799946 -5.470104336230084e-17 5.597136897933758e-17 -5.470104336230084e-17 5.597136897933758e-17 0.8733406481365501 -0.4871099591594009
12608634666.666666 0.8692016803509319 -0.4944577220298605 -5.421148960522252e-17 5.642440677889497e-17 -5.421148960522252e-17 5.642440677889497e-17 0.8692019928086222 -0.4944571727635894
12609252000.0 0.8650012114517308 -0.5017697720936175 -5.3718190308224466e-17 5.687316913825981e-17 -5.3718190308224466e-17 5.687316913825981e-17 0.8650015285145289 -0.5017692255084716
12609869333.333334 0.8607392323044482 -0.5090461412993823 -5.3221182756382175e-17 5.731762514791489e-17 -5.3221182756382175e-17 5.731762514791489e-17 0.8607395539493585 -0.5090455974339647
12610486666.666666 0.8564160459785941 -0.516286312224363 -5.272050448935484e-17 5.77577442230415e-17 -5.272050448935484e-17 5.77577442230415e-17 0.856416372182296 -0.5162857711170796
12611104000.0 0.8520319598960033 -0.5234897700200234 -5.221619329854298e-17 5.819349610562787e-17 -5.221619329854298e-17 5.819349610562787e-17 0.852032290634856 -0.5234892317090806
12611721333.333334 0.8475872858091971 -0.5306560024483294 -5.1708287224272425e-17 5.862485086651517e-17 -5.1708287224272425e-17 5.862485086651517e-17 0.8475876210592374 -0.53065546697173
12612338666.666666 0.8430823397790637 -0.537784499918416 -5.1196824552912863e-17 5.905177890746126e-17 -5.1196824552912863e-17 5.905177890746126e-17 0.8430826795160133 -0.5377839673139598
12612956000.0 0.8385174421523883 -0.5448747555228263 -5.068184381401277e-17 5.947425096314992e-17 -5.068184381401277e-17 5.947425096314992e-17 0.8385177863516485 -0.5448742258281022
12613573333.333334 0.8338929175392 -0.5519262650733364 -5.016338377741686e-17 5.989223810317745e-17 -5.016338377741686e-17 5.989223810317745e-17 0.833893266175861 -0.5519257383257258
12614190666.666666 0.8292090947895485 -0.5589385271370558 -4.964148345034302e-17 6.03057117340338e-17 -4.964148345034302e-17 6.03057117340338e-17 0.8292094478383838 -0.5589380033737241
12614808000.0 0.8244663069701842 -0.5659110430719557 -4.9116182074467117e-17 6.071464360103859e-17 -4.9116182074467117e-17 6.071464360103859e-17 0.8244666644056593 -0.5659105223298547
12615425333.333334 0.8196648913408678 -0.5728433170623587 -4.858751912298172e-17 6.111900579026033e-17 -4.858751912298172e-17 6.111900579026033e-17 0.8196652531371366 -0.5728427993782206
12616042666.666666 0.8148051893303822 -0.5797348561541922 -4.8055534297640763e-17 6.151877073040869e-17 -4.8055534297640763e-17 6.151877073040869e-17 0.8148055554612922 -0.5797343415645285
12616660000.0 0.8098875465122728 -0.586585170290021 -4.7520267525789053e-17 6.19139111947013e-17 -4.7520267525789053e-17 6.19139111947013e-17 0.8098879169513656 -0.5865846588311194
12617277333.333334 0.8049123125801894 -0.5933937723440095 -4.6981758957376203e-17 6.230440030270462e-17 -4.6981758957376203e-17 6.230440030270462e-17 0.804912687300702 -0.5933932640519317
12617894666.666666 0.7998798413232022 -0.6001601781563086 -4.6440048961957785e-17 6.269021152214806e-17 -4.6440048961957785e-17 6.269021152214806e-17 0.7998802202980707 -0.6001596730668873
12618512000.0 0.794790490600394 -0.6068839065678281 -4.589517812567049e-17 6.307131867071921e-17 -4.589517812567049e-17 6.307131867071921e-17 0.7947908738022544 -0.6068834047166651
12619129333.333334 0.7896446223156656 -0.6135644794541097 -4.53471872482202e-17 6.344769591781438e-17 -4.53471872482202e-17 6.344769591781438e-17 0.7896450097168568 -0.6135639808765735
12619746666.666666 0.7844426023918318 -0.6202014217595551 -4.47961173398213e-17 6.381931778628703e-17 -4.47961173398213e-17 6.381931778628703e-17 0.7844429939643955 -0.6202009264907771
12620364000.0 0.7791848007445963 -0.6267942615312032 -4.4242009618137803e-17 6.41861591541579e-17 -4.4242009618137803e-17 6.41861591541579e-17 0.7791851964602814 -0.6267937696060767
12620981333.333334 0.7738715912564085 -0.6333425299520928 -4.368490550522784e-17 6.454819525628835e-17 -4.368490550522784e-17 6.454819525628835e-17 0.7738719910866714 -0.6333420414052695
12621598666.666666 0.7685033517496975 -0.6398457613748204 -4.312484662443907e-17 6.490540168605008e-17 -4.312484662443907e-17 6.490540168605008e-17 0.7685037556657053 -0.639845276240709
12622216000.0 0.7630804639600965 -0.6463034933545437 -4.256187479731841e-17 6.525775439694984e-17 -4.256187479731841e-17 6.525775439694984e-17 0.7630808719327282 -0.6463030116673061
12622833333.333334 0.7576033135092595 -0.6527152666819085 -4.1996032040497783e-17 6.5605229704235e-17 -4.1996032040497783e-17 6.5605229704235e-17 0.7576037255091085 -0.6527147884754586
12623450666.666666 0.7520722898775309 -0.6590806254155941 -4.142736056256856e-17 6.594780428647064e-17 -4.142736056256856e-17 6.594780428647064e-17 0.752072705874908 -0.6590801507235954
12624068000.0 0.7464877863760877 -0.6653991169149324 -4.085590276094519e-17 6.62854551870889e-17 -4.085590276094519e-17 6.62854551870889e-17 0.7464882063410213 -0.6653986457707947
12624685333.333334 0.7408502001190571 -0.6716702918719835 -4.028170121870496e-17 6.661815981591755e-17 -4.028170121870496e-17 6.661815981591755e-17 0.7408506240212975 -0.6716698243088617
12625302666.666666 0.735159931995397 -0.6778937043433624 -3.970479870144619e-17 6.694589595066396e-17 -3.970479870144619e-17 6.694589595066396e-17 0.7351603598044165 -0.6778932403941524
12625920000.0 0.7294173866401189 -0.6840689117822428 -3.912523815408449e-17 6.726864173840042e-17 -3.912523815408449e-17 6.726864173840042e-17 0.7294178183251151 -0.6840684514795812
12626537333.333334 0.7236229724057845 -0.6901954750695348 -3.854306269769299e-17 6.758637569699017e-17 -3.854306269769299e-17 6.758637569699017e-17 0.7236234079356828 -0.6901950184457952
12627154666.666666 0.7177771013333516 -0.6962729585452352 -3.795831562629255e-17 6.789907671650787e-17 -3.795831562629255e-17 6.789907671650787e-17 0.7177775406768072 -0.6962725056325271
12627772000.0 0.7118801891227572 -0.7023009300395315 -3.7371040403632597e-17 6.820672406063136e-17 -3.7371040403632597e-17 6.820672406063136e-17 0.7118806322481568 -0.702300480869697
12628389333.333334 0.7059326551036306 -0.7082789609032458 -3.678128065998982e-17 6.850929736798964e-17 -3.678128065998982e-17 6.850929736798964e-17 0.7059331019790953 -0.7082785155078577
12629006666.666666 0.6999349222051798 -0.7142066260386217 -3.618908018891933e-17 6.880677665350338e-17 -3.618908018891933e-17 6.880677665350338e-17 0.6999353727985674 -0.7142061844489817
12629624000.0 0.6938874169263347 -0.7200835039293304 -3.559448294402633e-17 6.909914230968078e-17 -3.559448294402633e-17 6.909914230968078e-17 0.6938878712052416 -0.7200830661764663
12630241333.333334 0.6877905693052982 -0.7259091766705642 -3.499753303570391e-17 6.938637510789796e-17 -3.499753303570391e-17 6.938637510789796e-17 0.6877910272370616 -0.7259087427852278
12630858666.666666 0.6816448128890911 -0.7316832299986382 -3.439827472788262e-17 6.966845619964045e-17 -3.439827472788262e-17 6.966845619964045e-17 0.6816452744407915 -0.731682800011303
12631476000.0 0.6754505847025125 -0.7374052533206401 -3.3796752434736133e-17 6.994536711773278e-17 -3.3796752434736133e-17 6.994536711773278e-17 0.6754510498409777 -0.737404827261501
12632093333.333334 0.669208325217253 -0.743074839743456 -3.319301071742534e-17 7.021708977751729e-17 -3.319301071742534e-17 7.021708977751729e-17 0.6692087939090572 -0.7430744176424238
12632710666.666666 0.6629184783205714 -0.7486915861027027 -3.2587094280795034e-17 7.048360647802269e-17 -3.2587094280795034e-17 7.048360647802269e-17 0.6629189505320408 -0.7486911679894054
12633328000.0 0.6565814912835415 -0.7542550929915711 -3.1979047970065496e-17 7.074489990310233e-17 -3.1979047970065496e-17 7.074489990310233e-17 0.6565819669807548 -0.7542546788953491
12633945333.333334 0.6501978147294568 -0.7597649647890349 -3.1368916767533056e-17 7.100095312253556e-17 -3.1368916767533056e-17 7.100095312253556e-17 0.6501982938782471 -0.75976455473894
12634562666.666666 0.64376790260168 -0.7652208096880786 -3.075674578925422e-17 7.125174959310472e-17 -3.075674578925422e-17 7.125174959310472e-17 0.6437683851676402 -0.7652204037128729
12635180000.0 0.6372922121313868 -0.7706222397235417 -3.014258028171323e-17 7.149727315964727e-17 -3.014258028171323e-17 7.149727315964727e-17 0.6372926980798691 -0.7706218378516948
12635797333.333334 0.6307712038050285 -0.7759688707997243 -2.9526465618487464e-17 7.173750805607619e-17 -2.9526465618487464e-17 7.173750805607619e-17 0.6307716931011484 -0.775968473059411
12636414666.666666 0.6242053413316746 -0.7812603227176265 -2.890844729691312e-17 7.197243890636888e-17 -2.890844729691312e-17 7.197243890636888e-17 0.6242058339403134 -0.7812599291367252
12637032000.0 0.6175950916099089 -0.7864962192020959 -2.8288570934722893e-17 7.220205072553556e-17 -2.8288570934722893e-17 7.220205072553556e-17 0.6175955874957142 -0.7864958298081854
12637649333.333334 0.6109409246947121 -0.7916761879285076 -2.766688226669636e-17 7.242632892055024e-17 -2.766688226669636e-17 7.242632892055024e-17 0.6109414238221031 -0.7916758027488677
12638266666.666666 0.6042433137640171 -0.7967998605492618 -2.7043427141293425e-17 7.264525929125788e-17 -2.7043427141293425e-17 7.264525929125788e-17 0.6042438160971861 -0.7967994796108697
12638884000.0 0.5975027350850837 -0.8018668727199593 -2.641825151728459e-17 7.285882803125031e-17 -2.641825151728459e-17 7.285882803125031e-17 0.5975032405879984 -0.8018664960494877
12639501333.333334 0.5907196679805179 -0.8068768641253948 -2.5791401460362206e-17 7.306702172871805e-17 -2.5791401460362206e-17 7.306702172871805e-17 0.5907201766169237 -0.8068764917492102
12640118666.666666 0.5838945947944582 -0.8118294785049744 -2.5162923139780612e-17 7.326982736726069e-17 -2.5162923139780612e-17 7.326982736726069e-17 0.5838951065278821 -0.8118291104491362
12640736000.0 0.5770280008578219 -0.8167243636783884 -2.453286282492347e-17 7.346723232669125e-17 -2.453286282492347e-17 7.346723232669125e-17 0.5770285156515738 -0.8167239999686458
12641353333.333334 0.570120374454366 -0.821561171570235 -2.3901266881959057e-17 7.365922438377978e-17 -2.3901266881959057e-17 7.365922438377978e-17 0.5701208922715413 -0.821560812232025
12641970666.666666 0.5631722067854804 -0.8263395582351217 -2.3268181770393646e-17 7.384579171299971e-17 -2.3268181770393646e-17 7.384579171299971e-17 0.5631727275889639 -0.826339203293569
12642588000.0 0.5561839919354911 -0.8310591838819575 -2.263365403968442e-17 7.40269228872239e-17 -2.263365403968442e-17 7.40269228872239e-17 0.5561845156879583 -0.8310588333618714
12643205333.333334 0.5491562268365031 -0.8357197128981336 -2.1997730325824112e-17 7.420260687839903e-17 -2.1997730325824112e-17 7.420260687839903e-17 0.549156753500424 -0.8357193668240063
12643822666.666666 0.5420894112329676 -0.84032081387345 -2.136045734791431e-17 7.437283305819238e-17 -2.136045734791431e-17 7.437283305819238e-17 0.5420899407706089 -0.840320472269456
12644440000.0 0.534984047646265 -0.8448621596236054 -2.0721881904755233e-17 7.453759119860326e-17 -2.0721881904755233e-17 7.453759119860326e-17 0.5349845800196918 -0.8448618225135974
12645057333.333334 0.5278406413389451 -0.8493434272134764 -2.0082050871407827e-17 7.469687147255211e-17 -2.0082050871407827e-17 7.469687147255211e-17 0.5278411765100259 -0.8493430946209871
12645674666.666666 0.5206597002788025 -0.8537642979800872 -1.9441011195774926e-17 7.485066445443354e-17 -1.9441011195774926e-17 7.485066445443354e-17 0.5206602382092095 -0.8537639699283247
12646292000.0 0.5134417351026042 -0.8581244575553537 -1.8798809895142304e-17 7.499896112064942e-17 -1.8798809895142304e-17 7.499896112064942e-17 0.5134422757538177 -0.8581241340672013
12646909333.333334 0.5061872590800011 -0.8624235958883082 -1.8155494052769444e-17 7.514175285009952e-17 -1.8155494052769444e-17 7.514175285009952e-17 0.5061878024133113 -0.8624232769863218
12647526666.666666 0.49889678807692783 -0.8666614072672025 -1.7511110814425472e-17 7.527903142465508e-17 -1.7511110814425472e-17 7.527903142465508e-17 0.4988973340534391 -0.8666610929736116
12648144000.0 0.4915708405188513 -0.870837590341296 -1.686570738494544e-17 7.541078902959703e-17 -1.686570738494544e-17 7.541078902959703e-17 0.491571389099482 -0.8708372806779974
12648761333.333334 0.4842099373540214 -0.8749518481422041 -1.6219331024790213e-17 7.553701825402393e-17 -1.6219331024790213e-17 7.553701825402393e-17 0.48421048849951054 -0.8749515431307661
12649378666.666666 0.4768146020164335 -0.8790038881050263 -1.5572029046597132e-17 7.565771209123169e-17 -1.5572029046597132e-17 7.565771209123169e-17 0.4768151556873406 -0.8790035877666832
12649996000.0 0.4693853603884792 -0.8829934220892139 -1.4923848811706778e-17 7.577286393906805e-17 -1.4923848811706778e-17 7.577286393906805e-17 0.46938591654518796 -0.8829931264448654
12650613333.333334 0.4619227407636258 -0.8869201663990192 -1.4274837726726235e-17 7.588246760024981e-17 -1.4274837726726235e-17 7.588246760024981e-17 0.46192329936634685 -0.8869198754692286
12651230666.666666 0.4544272738089501 -0.8907838418036161 -1.362504324007119e-17 7.598651728265502e-17 -1.362504324007119e-17 7.598651728265502e-17 0.4544278348177244 -0.8907835556086103
12651848000.0 0.4468994925271511 -0.8945841735570883 -1.2974512838486681e-17 7.608500759958799e-17 -1.2974512838486681e-17 7.608500759958799e-17 0.4469000559018529 -0.8945838921167562
12652465333.333334 0.4393399322188752 -0.8983208914178488 -1.2323294043605494e-17 7.61779335700089e-17 -1.2323294043605494e-17 7.61779335700089e-17 0.4393404979192137 -0.8983206147517385
12653082666.666666 0.4317491304446508 -0.9019937296678568 -1.1671434408485863e-17 7.626529061873696e-17 -1.1671434408485863e-17 7.626529061873696e-17 0.43174969843017424 -0.9019934577951755
12653700000.0 0.42412762698643514 -0.9056024271316302 -1.1018981514126573e-17 7.634707457662742e-17 -1.1018981514126573e-17 7.634707457662742e-17 0.4241281972165326 -0.9056021600712411
12654317333.333334 0.41647596380948215 -0.9091467271946854 -1.0365982966035545e-17 7.64232816807105e-17 -1.0365982966035545e-17 7.64232816807105e-17 0.4164765362433879 -0.9091464649651091
12654934666.666666 0.40879468502370436 -0.9126263778218416 -9.71248639073518e-18 7.64939085743107e-17 -9.71248639073518e-18 7.64939085743107e-17 0.4087952596204993 -0.9126261204412528
12655552000.0 0.4010843368448758 -0.9160411315751873 -9.058539432310804e-18 7.655895230712951e-17 -9.058539432310804e-18 7.655895230712951e-17 0.4010849135634917 -0.916040879061415
12656169333.333334 0.3933454675560508 -0.9193907456315592 -8.404189748957177e-18 7.661841033529996e-17 -8.404189748957177e-18 7.661841033529996e-17 0.39334604635527215 -0.919390498002084
12656786666.666666 0.38557862746831567 -0.9226749817999257 -7.749485009494794e-18 7.667228052141486e-17 -7.749485009494794e-18 7.667228052141486e-17 0.3855792083067826 -0.9226747390718782
12657404000.0 0.37778436888178496 -0.9258936065382651 -7.094472889917255e-18 7.672056113452214e-17 -7.094472889917255e-18 7.672056113452214e-17 0.3777849517179972 -0.9258933687284268
12658021333.333334 0.3699632460462762 -0.9290463909701963 -6.439201069924178e-18 7.676325085009183e-17 -6.439201069924178e-18 7.676325085009183e-17 0.3699638308385956 -0.9290461580949976
12658638666.666666 0.362115815122029 -0.9321331109012018 -5.783717229470579e-18 7.680034874995347e-17 -5.783717229470579e-18 7.680034874995347e-17 0.36211640182868216 -0.9321328829767201
12659256000.0 0.3542426341398926 -0.9351535468346759 -5.1280690452847e-18 7.683185432220524e-17 -5.1280690452847e-18 7.683185432220524e-17 0.35424322271897407 -0.9351533238766354
12659873333.333334 0.34634426296188103 -0.9381074839874352 -4.472304187431185e-18 7.685776746109114e-17 -4.472304187431185e-18 7.685776746109114e-17 0.3463448533713561 -0.9381072660112048
12660490666.666666 0.3384212632413626 -0.9409947123049972 -3.816470315845496e-18 7.68780884668512e-17 -3.816470315845496e-18 7.68780884668512e-17 0.33842185543907133 -0.9409944993255914
12661108000.0 0.3304741983828815 -0.9438150264766055 -3.1606150768703733e-18 7.689281804554106e-17 -3.1606150768703733e-18 7.689281804554106e-17 0.33047479232654003 -0.9438148185086809
12661725333.333334 0.32250363350235983 -0.9465682259497303 -2.50478609982527e-18 7.690195730882204e-17 -2.50478609982527e-18 7.690195730882204e-17 0.3225042291495646 -0.9465680230075857
12662342666.666666 0.3145101353867788 -0.9492541149443776 -1.849030993534629e-18 7.69055077737228e-17 -1.849030993534629e-18 7.69055077737228e-17 0.3145107326950093 -0.9492539170419537
12662960000.0 0.3064942724539021 -0.9518725024670049 -1.19339734289179e-18 7.690347136237078e-17 -1.19339734289179e-18 7.690347136237078e-17 0.3064948713805235 -0.9518723096178814
12663577333.333334 0.2984566147118541 -0.9544232023240968 -5.379327054128583e-19 7.689585040169484e-17 -5.379327054128583e-19 7.689585040169484e-17 0.2984572152141215 -0.9544230145414953
12664194666.666666 0.29039773371858885 -0.9569060331354132 1.1731539220391142e-19 7.68826476230985e-17 1.1731539220391142e-19 7.68826476230985e-17 0.2903983357536487 -0.9569058504321912
12664812000.0 0.2823182025412439 -0.959320818346879 7.722994575151525e-19 7.686386616210387e-17 7.722994575151525e-19 7.686386616210387e-17 0.2823188060661382 -0.9593206407355331
12665429333.333334 0.2742185957153646 -0.9616673862431532 1.426972035765596e-18 7.683950955796652e-17 1.426972035765596e-18 7.683950955796652e-17 0.2742192006870335 -0.9616672137358162
12666046666.666666 0.26609948920418397 -0.9639455699597967 2.0812857133150327e-18 7.680958175326152e-17 2.0812857133150327e-18 7.680958175326152e-17 0.266100095579469 -0.9639454025682375
12666664000.0 0.25796146035736556 -0.9661552074952241 2.735193121074036e-18 7.677408709343918e-17 2.735193121074036e-18 7.677408709343918e-17 0.25796206809301275 -0.9661550452308469
12667281333.333334 0.2498050878703317 -0.968296141722118 3.388646937902394e-18 7.673303032635372e-17 3.388646937902394e-18 7.673303032635372e-17 0.24980569692299434 -0.9682959845959608
12667898666.666666 0.24163095174283813 -0.9703682203986764 4.0415998940441954e-18 7.66864166017612e-17 4.0415998940441954e-18 7.66864166017612e-17 0.24163156206908012 -0.9703680684214108
12668516000.0 0.23343963323775718 -0.9723712961794305 4.6940047745381835e-18 7.663425147078855e-17 4.6940047745381835e-18 7.663425147078855e-17 0.23344024479405626 -0.9723711493613612
12669133333.333334 0.22523171483988216 -0.9743052266256864 5.345814422603228e-18 7.657654088537567e-17 5.345814422603228e-18 7.657654088537567e-17 0.22523232758263287 -0.9743050849767508
12669750666.666666 0.21700778021439657 -0.9761698742156838 5.996981743059649e-18 7.651329119768597e-17 5.996981743059649e-18 7.651329119768597e-17 0.21700839409991318 -0.9761697377454499
12670368000.0 0.20876841416536956 -0.9779651063543728 6.6474597057120325e-18 7.644450915948976e-17 6.6474597057120325e-18 7.644450915948976e-17 0.2087690291498895 -0.97796497507204
12670985333.333334 0.2005142025942818 -0.9796907953828207 7.297201348739126e-18 7.637020192151873e-17 7.297201348739126e-18 7.637020192151873e-17 0.20051481863396836 -0.9796906692972178
