! Parameters = {f0=12700.012000; bw=77.238000; Q=6100.000000; N=10; m_0_1=1.278774; m_1_1=0.416861; m_1_2=1.113586; m_2_2=0.416212; m_2_3=0.750549; m_2_8=0.001002; m_2_9=0.037706; m_3_3=0.414275; m_3_4=0.639078; m_3_7=0.001602; m_3_8=-0.095486; m_3_9=0.001002; m_4_4=0.411350; m_4_5=0.475413; m_4_6=0.005119; m_4_7=-0.116035; m_4_8=0.001602; m_5_5=0.411732; m_5_6=0.882768; m_5_7=0.005119; m_6_6=0.411731; m_6_7=0.475755; m_7_7=0.411364; m_7_8=0.639196; m_8_8=0.414273; m_8_9=0.750862; m_9_9=0.416207; m_9_10=1.114664; m_10_10=0.416851; m_10_11=1.279569}
!
! Created with skrf (http://scikit-rf.org).
# Hz S RI R 50.0 
!freq ReS11 ImS11 ReS21 ImS21 ReS12 ImS12 ReS22 ImS22
12607400000.0 -0.1769204553983883 0.9842251533371051 -1.2669784246398932e-17 -1.1455492450451657e-16 -1.2669784246398932e-17 -1.1455492450451657e-16 -0.17692111848849174 0.9842250341423967
12608017333.333334 -0.1662981434561115 0.9860755181439568 -1.391161409492132e-17 -1.1438802040252782e-16 -1.391161409492132e-17 -1.1438802040252782e-16 -0.16629880776031514 0.986075406111175
12608634666.666666 -0.155656498133116 0.9878112444129987 -1.5151313516683856e-17 -1.142076629039715e-16 -1.5151313516683856e-17 -1.142076629039715e-16 -0.1556571635740746 0.987811139554467
12609252000.0 -0.14499675659901548 0.989432130353359 -1.6388736857956764e-17 -1.1401387858924631e-16 -1.6388736857956764e-17 -1.1401387858924631e-16 -0.14499742309925917 0.989432032680565
12609869333.333334 -0.1343201581271837 0.990937987525208 -1.7623738790964865e-17 -1.1380669561465197e-16 -1.7623738790964865e-17 -1.1380669561465197e-16 -0.13432082560912692 0.9909378970488025
12610486666.666666 -0.12362794395093267 0.992328640861628 -1.8856174330897777e-17 -1.135861437084503e-16 -1.8856174330897777e-17 -1.135861437084503e-16 -0.12362861233688346 0.9923285575914246
12611104000.0 -0.11292135711873225 0.9936039286890349 -2.0085898852956984e-17 -1.1335225416672906e-16 -2.0085898852956984e-17 -1.1335225416672906e-16 -0.11292202633090108 0.9936038526340081
12611721333.333334 -0.10220164235020304 0.9947637027459045 -2.131276810924073e-17 -1.1310505984910132e-16 -2.131276810924073e-17 -1.1310505984910132e-16 -0.10220231231071204 0.9947636339141901
12612338666.666666 -0.09147004589109901 0.9958078282000506 -2.2536638245671304e-17 -1.1284459517420523e-16 -2.2536638245671304e-17 -1.1284459517420523e-16 -0.09147071652199083 0.9958077665989427
12612956000.0 -0.08072781536839328 0.9967361836642981 -2.3757365818833617e-17 -1.125708961150275e-16 -2.3757365818833617e-17 -1.125708961150275e-16 -0.08072848659164038 0.9967361293002501
12613573333.333334 -0.06997619964560024 0.9975486612105604 -2.4974807812733277e-17 -1.1228400019405134e-16 -2.4974807812733277e-17 -1.1228400019405134e-16 -0.06997687138311383 0.9975486140891843
12614190666.666666 -0.05921644867713333 0.9982451663824318 -2.618882165554228e-17 -1.1198394647821283e-16 -2.618882165554228e-17 -1.1198394647821283e-16 -0.059217120850772534 0.9982451265084977
12614808000.0 -0.04844981336324348 0.9988256182061455 -2.739926523626978e-17 -1.116707755736814e-16 -2.739926523626978e-17 -1.116707755736814e-16 -0.048450485894824195 0.998825585583578
12615425333.333334 -0.037677545404535585 0.9992899491999861 -2.8605996921359116e-17 -1.113445296204625e-16 -2.8605996921359116e-17 -1.113445296204625e-16 -0.03767821821583988 0.9992899238318681
12616042666.666666 -0.02690089715644967 0.9996381053821426 -2.98088755712346e-17 -1.1100525228681847e-16 -2.98088755712346e-17 -1.1100525228681847e-16 -0.026901570169234768 0.9996380872707141
12616660000.0 -0.01612112148363667 0.9998700462769807 -3.1007760556780523e-17 -1.106529887635123e-16 -3.1007760556780523e-17 -1.106529887635123e-16 -0.01612179461964397 0.9998700354236364
12617277333.333334 -0.005339471614388971 0.9999857449197465 -3.220251177575948e-17 -1.1028778575787153e-16 -3.220251177575948e-17 -1.1028778575787153e-16 -0.005340144795353233 0.9999857413250385
12617894666.666666 0.005442799005084971 0.9999851878597064 -3.3392989669124665e-17 -1.0990969148768696e-16 -3.3392989669124665e-17 -1.0990969148768696e-16 0.005442125857426561 0.9999851915233416
12618512000.0 0.01622443685658194 0.9998683751617045 -3.4579055237361464e-17 -1.0951875567490458e-16 -3.4579055237361464e-17 -1.0951875567490458e-16 0.016223763820480675 0.999868386082548
12619129333.333334 0.027004188495265268 0.9996353204061641 -3.576057005660067e-17 -1.091150295391907e-16 -3.576057005660067e-17 -1.091150295391907e-16 0.027003515648951773 0.9996353385822345
12619746666.666666 0.03778080069567113 0.999286050687498 -3.693739629481007e-17 -1.0869856579127511e-16 -3.693739629481007e-17 -1.0869856579127511e-16 0.03778012811734636 0.9992860761159734
12620364000.0 0.04855302059743359 0.9988206066109605 -3.810939672782861e-17 -1.082694186261451e-16 -3.810939672782861e-17 -1.082694186261451e-16 0.048552348365259713 0.998820639288176
12620981333.333334 0.059319595850569694 0.9982390422879411 -3.9276434755313856e-17 -1.0782764371607252e-16 -3.9276434755313856e-17 -1.0782764371607252e-16 0.05931892404266096 0.9982390822093886
12621598666.666666 0.07007927476152882 0.9975414253296552 -4.0438374416664644e-17 -1.0737329820344803e-16 -4.0438374416664644e-17 -1.0737329820344803e-16 0.07007860345594247 0.9975414724899841
12622216000.0 0.08083080643845542 0.9967278368392903 -4.159508040681893e-17 -1.0690644069346046e-16 -4.159508040681893e-17 -1.0690644069346046e-16 0.08083013571318276 0.9967278912323111
12622833333.333334 0.09157294093672805 0.995798371402575 -4.2746418091974205e-17 -1.0642713124660378e-16 -4.2746418091974205e-17 -1.0642713124660378e-16 0.09157227086968524 0.9957984330212567
12623450666.666666 0.10230442940404799 0.9947531370767994 -4.3892253525235e-17 -1.0593543137101142e-16 -4.3892253525235e-17 -1.0593543137101142e-16 0.10230376007306712 0.9947532059132724
12624068000.0 0.11302402422593935 0.993592255378229 -4.503245346216966e-17 -1.0543140401462287e-16 -4.503245346216966e-17 -1.0543140401462287e-16 0.11302335570875927 0.9935923314237852
12624685333.333334 0.12373047917070767 0.9923158612679781 -4.61668853762809e-17 -1.0491511355718124e-16 -4.61668853762809e-17 -1.0491511355718124e-16 0.12372981154496497 0.9923159445130711
12625302666.666666 0.13442254953406985 0.9909241031363516 -4.729541747435031e-17 -1.043866258020824e-16 -4.729541747435031e-17 -1.043866258020824e-16 0.13442188287728998 0.9909241935706007
12625920000.0 0.1450989922842833 0.9894171427855433 -4.841791871176713e-17 -1.0384600796802325e-16 -4.841791871176713e-17 -1.0384600796802325e-16 0.14509832667387157 0.9894172403977324
12626537333.333334 0.1557585662062909 0.9877951554108688 -4.9534258807661934e-17 -1.0329332868053236e-16 -4.9534258807661934e-17 -1.0329332868053236e-16 0.15575790171952325 0.9877952601889486
12627154666.666666 0.16640003204607862 0.9860583295803987 -5.064430826003322e-17 -1.0272865796329743e-16 -5.064430826003322e-17 -1.0272865796329743e-16 0.16639936876009292 0.9860584415114878
12627772000.0 0.17702215265508423 0.9842068672129771 -5.174793836074555e-17 -1.0215206722934278e-16 -5.174793836074555e-17 -1.0215206722934278e-16 0.17702149064687112 0.9842069862833637
12628389333.333334 0.18762369313351984 0.9822409835548301 -5.284502121038567e-17 -1.015636292720704e-16 -5.284502121038567e-17 -1.015636292720704e-16 0.18762303247991416 0.9822411097499749
12629006666.666666 0.1982034209743873 0.9801609071544689 -5.39354297330975e-17 -1.0096341825609835e-16 -5.39354297330975e-17 -1.0096341825609835e-16 0.1982027617520586 0.9801610404590044
12629624000.0 0.2087601062064569 0.9779668798361681 -5.501903769123956e-17 -1.0035150970798073e-16 -5.501903769123956e-17 -1.0035150970798073e-16 0.20875944849190098 0.9779670202339028
12630241333.333334 0.21929252153745724 0.9756591566718196 -5.609571969998908e-17 -9.972798050674254e-17 -5.609571969998908e-17 -9.972798050674254e-17 0.219291865406987 0.9756593041457379
12630858666.666666 0.22979944249647827 0.9732380059513346 -5.71653512417918e-17 -9.909290887428608e-17 -5.71653512417918e-17 -9.909290887428608e-17 0.2297987880262152 0.9732381604836012
12631476000.0 0.24027964757679748 0.9707037091513516 -5.822780868077914e-17 -9.844637436559752e-17 -5.822780868077914e-17 -9.844637436559752e-17 0.2402789948426627 0.9707038707233124
12632093333.333334 0.25073191837741726 0.9680565609026172 -5.92829692769806e-17 -9.77884578588566e-17 -5.92829692769806e-17 -9.77884578588566e-17 0.2507312674551225 0.9680567294948006
12632710666.666666 0.26115503974490734 0.9652968689556901 -6.033071120049214e-17 -9.71192415453542e-17 -6.033071120049214e-17 -9.71192415453542e-17 0.26115439070994617 0.9652970445478107
12633328000.0 0.27154779991483974 0.9624249541451175 -6.13709135455251e-17 -9.643880891926097e-17 -6.13709135455251e-17 -9.643880891926097e-17 0.2715471528424794 0.9624251367160794
12633945333.333334 0.281908990652309 0.9594411503522342 -6.240345634430531e-17 -9.574724476726945e-17 -6.240345634430531e-17 -9.574724476726945e-17 0.2819083456175807 0.9594413398801303
12634562666.666666 0.292237407392699 0.9563458044662589 -6.342822058088039e-17 -9.50446351580714e-17 -6.342822058088039e-17 -9.50446351580714e-17 0.2922367644703901 0.9563460009283767
12635180000.0 0.3025318493815859 0.9531392763440079 -6.444508820482047e-17 -9.433106743168125e-17 -6.444508820482047e-17 -9.433106743168125e-17 0.30253120864623106 0.9531394797168316
12635797333.333334 0.31279111981438995 0.9498219387680421 -6.545394214477727e-17 -9.360663018862718e-17 -6.545394214477727e-17 -9.360663018862718e-17 0.31279048134026155 0.9498221490272528
12636414666.666666 0.32301402597542994 0.9463941774033516 -6.645466632192281e-17 -9.287141327899826e-17 -6.645466632192281e-17 -9.287141327899826e-17 0.32301338983653105 0.9463943945238341
12637032000.0 0.3331993793766409 0.9428563907525064 -6.744714566328941e-17 -9.212550779133123e-17 -6.744714566328941e-17 -9.212550779133123e-17 0.3331987456466956 0.9428566147083499
12637649333.333334 0.34334599589579823 0.939208990109307 -6.843126611496162e-17 -9.136900604137216e-17 -6.843126611496162e-17 -9.136900604137216e-17 0.3433453646482434 0.9392092208738086
12638266666.666666 0.35345269591409867 0.9354523995109948 -6.940691465514316e-17 -9.060200156069802e-17 -6.940691465514316e-17 -9.060200156069802e-17 0.3534520672220751 0.9354526370566619
12638884000.0 0.36351830445332745 0.9315870556889461 -7.037397930712007e-17 -8.982458908518152e-17 -7.037397930712007e-17 -8.982458908518152e-17 0.36351767838967236 0.9315872999875019
12639501333.333334 0.3735416513125113 0.9276134080178793 -7.133234915207175e-17 -8.903686454333534e-17 -7.133234915207175e-17 -8.903686454333534e-17 0.3735410279497487 0.9276136590402638
12640118666.666666 0.38352157120369756 0.9235319184637145 -7.228191434174771e-17 -8.823892504452514e-17 -7.228191434174771e-17 -8.823892504452514e-17 0.3835209506140307 0.9235321761800892
12640736000.0 0.3934569038880094 0.9193430615296363 -7.322256611106513e-17 -8.743086886700383e-17 -7.322256611106513e-17 -8.743086886700383e-17 0.39345628614331185 0.9193433259093872
12641353333.333334 0.4033464943097933 0.9150473242012253 -7.415419679047656e-17 -8.66127954458936e-17 -7.415419679047656e-17 -8.66127954458936e-17 0.40334587948160133 0.9150475952129676
12641970666.666666 0.4131891927314822 0.9106452058896086 -7.507669981830281e-17 -8.57848053609529e-17 -7.507669981830281e-17 -8.57848053609529e-17 0.4131885808909859 0.9106454835011895
12642588000.0 0.42298385486702395 0.906137218373495 -7.598996975287794e-17 -8.494700032425637e-17 -7.598996975287794e-17 -8.494700032425637e-17 0.42298324608505855 0.9061375025519957
12643205333.333334 0.43272934201483537 0.9015238857397118 -7.68939022845597e-17 -8.409948316774399e-17 -7.68939022845597e-17 -8.409948316774399e-17 0.43272873636187476 0.9015241764514561
12643822666.666666 0.44242452119044523 0.896805744322163 -7.778839424762133e-17 -8.324235783062604e-17 -7.778839424762133e-17 -8.324235783062604e-17 0.44242391873659137 0.8968060415327163
12644440000.0 0.4520682652579752 0.8919833426395737 -7.867334363197923e-17 -8.23757293466833e-17 -7.867334363197923e-17 -8.23757293466833e-17 0.4520676660729528 0.8919836463137514
12645057333.333334 0.46165945306123524 0.8870572413317097 -7.954864959479431e-17 -8.149970383143062e-17 -7.954864959479431e-17 -8.149970383143062e-17 0.4616588572143811 0.8870575514335775
12645674666.666666 0.4711969695540637 0.8820280130941929 -8.041421247192856e-17 -8.061438846915951e-17 -8.041421247192856e-17 -8.061438846915951e-17 0.4711963771143198 0.8820283295870728
12646292000.0 0.48067970593015996 0.8768962426118142 -8.126993378927545e-17 -7.971989149984086e-17 -8.126993378927545e-17 -7.971989149984086e-17 0.4806791169660661 0.8768965654582903
12646909333.333334 0.49010655975156614 0.8716625264907896 -8.211571627388934e-17 -7.881632220596608e-17 -8.211571627388934e-17 -7.881632220596608e-17 0.4901059743312511 0.87166285565271
12647526666.666666 0.49947643507723505 0.866327473189185 -8.295146386504319e-17 -7.790379089919411e-17 -8.295146386504319e-17 -7.790379089919411e-17 0.499475853268409 0.8663278086276677
12648144000.0 0.5087882425903136 0.8608917029462432 -8.377708172509099e-17 -7.698240890693024e-17 -8.377708172509099e-17 -7.698240890693024e-17 0.50878766446026 0.8608920446216798
12648761333.333334 0.5180408997247098 0.855355847710317 -8.459247625018618e-17 -7.605228855878566e-17 -8.459247625018618e-17 -7.605228855878566e-17 0.5180403253402786 0.8553561955823785
12649378666.666666 0.527233330790977 0.849720551065393 -8.53975550808579e-17 -7.511354317291803e-17 -8.53975550808579e-17 -7.511354317291803e-17 0.5272327602185752 0.8497209050930338
12649996000.0 0.5363644671013926 0.8439864681562509 -8.619222711244764e-17 -7.416628704224474e-17 -8.619222711244764e-17 -7.416628704224474e-17 0.5363639004069786 0.8439868282977142
12650613333.333334 0.5454332470942743 0.8381542656122557 -8.697640250536617e-17 -7.321063542057829e-17 -8.697640250536617e-17 -7.321063542057829e-17 0.5454326843433487 0.8381546318250774
12651230666.666666 0.5544386164572018 0.8322246214699768 -8.774999269521705e-17 -7.224670450863246e-17 -8.774999269521705e-17 -7.224670450863246e-17 0.5544380577148007 0.8322249937109926
12651848000.0 0.563379528249852 0.8261982250941937 -8.851291040277239e-17 -7.127461143991092e-17 -8.851291040277239e-17 -7.127461143991092e-17 0.563378973580539 0.8261986033195411
12652465333.333334 0.5722549430255209 0.8200757770978729 -8.926506964376503e-17 -7.029447426652679e-17 -8.926506964376503e-17 -7.029447426652679e-17 0.5722543924933796 0.8200761612629985
12653082666.666666 0.5810638289518755 0.8138579892607853 -9.000638573854034e-17 -6.930641194489924e-17 -9.000638573854034e-17 -6.930641194489924e-17 0.5810632826205022 0.8138583793204494
12653700000.0 0.5898051619312857 0.8075455844464959 -9.073677532157154e-17 -6.831054432132056e-17 -9.073677532157154e-17 -6.831054432132056e-17 0.5898046198637829 0.8075459803547786
12654317333.333334 0.598477925719464 0.8011392965186204 -9.145615635075938e-17 -6.730699211749819e-17 -9.145615635075938e-17 -6.730699211749819e-17 0.5984773879784324 0.8011396982289266
12654934666.666666 0.6070811120438674 0.7946398702553271 -9.216444811663824e-17 -6.629587691591145e-17 -9.216444811663824e-17 -6.629587691591145e-17 0.6070805786913975 0.7946402777203909
12655552000.0 0.6156137207209127 0.7880480612627482 -9.286157125138166e-17 -6.527732114512378e-17 -9.286157125138166e-17 -6.527732114512378e-17 0.6156131918185797 0.7880484744346395
12656169333.333334 0.6240747597720753 0.7813646358872717 -9.354744773763991e-17 -6.425144806501176e-17 -9.354744773763991e-17 -6.425144806501176e-17 0.6240742353809311 0.781365054717402
12656786666.666666 0.6324632455393514 0.7745903711263475 -9.422200091724715e-17 -6.321838175185406e-17 -9.422200091724715e-17 -6.321838175185406e-17 0.6324627257199168 0.7745907955654749
12657404000.0 0.640778202799635 0.7677260545381361 -9.488515549973748e-17 -6.217824708336965e-17 -9.488515549973748e-17 -6.217824708336965e-17 0.6407776876118941 0.7677264845363717
12658021333.333334 0.6490186648780504 0.7607724841499827 -9.553683757071024e-17 -6.113116972364554e-17 -9.553683757071024e-17 -6.113116972364554e-17 0.6490181543814433 0.7607729196567968
12658638666.666666 0.6571836737602503 0.7537304683657174 -9.617697460000912e-17 -6.007727610801051e-17 -9.617697460000912e-17 -6.007727610801051e-17 0.6571831680136655 0.7537309093299444
12659256000.0 0.6652722802040063 0.7466008258714855 -9.680549544977718e-17 -5.901669342775515e-17 -9.680549544977718e-17 -5.901669342775515e-17 0.6652717792657747 0.7466012722413303
12659873333.333334 0.6732835438493935 0.7393843855407176 -9.742233038229465e-17 -5.794954961484789e-17 -9.742233038229465e-17 -5.794954961484789e-17 0.6732830477772804 0.7393848372637613
12660490666.666666 0.6812165333280299 0.7320819863378443 -9.802741106767303e-17 -5.68759733265315e-17 -9.802741106767303e-17 -5.68759733265315e-17 0.6812160421792304 0.7320824433610514
12661108000.0 0.6890703263716942 0.7246944772204558 -9.862067059139326e-17 -5.579609392981447e-17 -9.862067059139326e-17 -5.579609392981447e-17 0.6890698402028249 0.7246949394901799
12661725333.333334 0.6968440099191655 0.7172227170409485 -9.920204346163724e-17 -5.4710041485948794e-17 -9.920204346163724e-17 -5.4710041485948794e-17 0.696843528786259 0.7172231845029386
12662342666.666666 0.7045366802226268 0.709667574446447 -9.977146561648081e-17 -5.361794673477624e-17 -9.977146561648081e-17 -5.361794673477624e-17 0.7045362041811246 0.7096680470458533
12662960000.0 0.7121474429526454 0.7020299277778911 -1.0032887443090455e-16 -5.251994107901682e-17 -1.0032887443090455e-16 -5.251994107901682e-17 0.7121469720573916 0.7020304054592725
12663577333.333334 0.7196754133020891 0.694310664967988 -1.0087420872362694e-16 -5.141615656849693e-17 -1.0087420872362694e-16 -5.141615656849693e-17 0.7196749476073248 0.694311147675318
12664194666.666666 0.7271197160891097 0.6865106834378589 -1.0140740876376941e-16 -5.030672588429526e-17 -1.0140740876376941e-16 -5.030672588429526e-17 0.7271192556484648 0.6865111711145312
12664812000.0 0.7344794858588076 0.6786308899927882 -1.0192841627734716e-16 -4.919178232282397e-17 -1.0192841627734716e-16 -4.919178232282397e-17 0.7344790307252981 0.6786313825816263
12665429333.333334 0.7417538669838918 0.6706722007167629 -1.0243717445358726e-16 -4.807145977983691e-17 -1.0243717445358726e-16 -4.807145977983691e-17 0.7417534172099094 0.6706726981600226
12666046666.666666 0.7489420137640511 0.662635540866071 -1.0293362795105543e-16 -4.694589273440858e-17 -1.0293362795105543e-16 -4.694589273440858e-17 0.7489415694013608 0.662636043105451
12666664000.0 0.7560430905245052 0.6545218447614845 -1.0341772290365011e-16 -4.5815216232756915e-17 -1.0341772290365011e-16 -4.5815216232756915e-17 0.7560426516242379 0.6545223517381313
12667281333.333334 0.7630562717128174 0.6463320556800182 -1.0388940692635315e-16 -4.467956587215176e-17 -1.0388940692635315e-16 -4.467956587215176e-17 0.7630558383254628 0.6463325673345326
12667898666.666666 0.7699807419951695 0.6380671257449256 -1.043486291208681e-16 -4.3539077784620837e-17 -1.043486291208681e-16 -4.3539077784620837e-17 0.7699803141705728 0.6380676420173715
12668516000.0 0.776815696351078 0.6297280158150927 -1.0479534008104589e-16 -4.239388862067489e-17 -1.0479534008104589e-16 -4.239388862067489e-17 0.7768152741384319 0.6297285366450022
12669133333.333334 0.7835603401668324 0.6213156953735035 -1.0522949189813049e-16 -4.124413553298783e-17 -1.0522949189813049e-16 -4.124413553298783e-17 0.783559923614674 0.6213162206998857
12669750666.666666 0.7902138893280817 0.6128311424142937 -1.0565103816584601e-16 -4.0089956159969576e-17 -1.0565103816584601e-16 -4.0089956159969576e-17 0.7902134784842836 0.61283167217564
12670368000.0 0.796775570310844 0.6042753433292245 -1.060599339852894e-16 -3.893148860932705e-17 -1.060599339852894e-16 -3.893148860932705e-17 0.7967751652226113 0.604275877463517
