! Parameters = {f0=12700.012000; bw=77.238000; Q=6100.000000; N=10; m_0_1=1.347643; m_1_1=1.449894; m_1_2=1.182455; m_2_2=1.449245; m_2_3=0.819418; m_2_8=0.004446; m_2_9=0.041150; m_3_3=1.447308; m_3_4=0.707947; m_3_7=0.005046; m_3_8=-0.092042; m_3_9=0.004446; m_4_4=1.444383; m_4_5=0.544282; m_4_6=0.008563; m_4_7=-0.112591; m_4_8=0.005046; m_5_5=1.444765; m_5_6=0.951637; m_5_7=0.008563; m_6_6=1.444764; m_6_7=0.544624; m_7_7=1.444397; m_7_8=0.708065; m_8_8=1.447306; m_8_9=0.819731; m_9_9=1.449240; m_9_10=1.183533; m_10_10=1.449884; m_10_11=1.348438}
!
! Created with skrf (http://scikit-rf.org).
# Hz S RI R 50.0 
!freq ReS11 ImS11 ReS21 ImS21 ReS12 ImS12 ReS22 ImS22
12607400000.0 -0.5544137798715848 -0.8322411673837707 1.208621431298554e-16 1.0079847013820522e-16 1.208621431298554e-16 1.0079847013820522e-16 -0.5544131890895683 -0.8322415609444984
12608017333.333334 -0.5650358313639698 -0.8250663665879419 1.2212912484756494e-16 9.921072683695654e-17 1.2212912484756494e-16 9.921072683695654e-17 -0.5650352457037869 -0.8250667676692971
12608634666.666666 -0.5755650442210849 -0.8177560026502899 1.2337526582126308e-16 9.760707833975852e-17 1.2337526582126308e-16 9.760707833975852e-17 -0.5755644637784569 -0.8177564111856404
12609252000.0 -0.5859996884328857 -0.8103112767056626 1.2460036664856902e-16 9.598779798454284e-17 1.2460036664856902e-16 9.598779798454284e-17 -0.5859991133026676 -0.8103116926271574
12609869333.333334 -0.5963380495275001 -0.8027334119653534 1.2580423150928997e-16 9.435316160564723e-17 1.2580423150928997e-16 9.435316160564723e-17 -0.5963374798036638 -0.8027338352039337
12610486666.666666 -0.6065784288527435 -0.7950236535162575 1.2698666819664588e-16 9.27034474868844e-17 1.2698666819664588e-16 9.27034474868844e-17 -0.6065778646283642 -0.7950240840016701
12611104000.0 -0.6167191438557199 -0.7871832681159247 1.281474881478815e-16 9.103893631421167e-17 1.281474881478815e-16 9.103893631421167e-17 -0.6167185852229606 -0.7871837057767335
12611721333.333334 -0.6267585283586397 -0.7792135439849038 1.2928650647418418e-16 8.935991112812947e-17 1.2928650647418418e-16 8.935991112812947e-17 -0.6267579754087347 -0.7792139887484986
12612338666.666666 -0.6366949328330773 -0.7711157905946983 1.304035419901012e-16 8.766665727553144e-17 1.304035419901012e-16 8.766665727553144e-17 -0.6366943856563183 -0.7711162423873101
12612956000.0 -0.6465267246708172 -0.7628913384527497 1.3149841724223039e-16 8.595946236132681e-17 1.3149841724223039e-16 8.595946236132681e-17 -0.6465261833565401 -0.7628917971994632
12613573333.333334 -0.6562522884519735 -0.7545415388839433 1.3257095853728186e-16 8.423861619970879e-17 1.3257095853728186e-16 8.423861619970879e-17 -0.6562517530885412 -0.7545420045087069
12614190666.666666 -0.6658700262106733 -0.7460677638083546 1.3362099596959336e-16 8.250441076493057e-17 1.3362099596959336e-16 8.250441076493057e-17 -0.6658694968854622 -0.746068236233994
12614808000.0 -0.6753783576974348 -0.7374714055159814 1.3464836344788868e-16 8.075714014192121e-17 1.3464836344788868e-16 8.075714014192121e-17 -0.6753778344968212 -0.7374718846642127
12615425333.333334 -0.6847757206388583 -0.7287538764379466 1.356528987214622e-16 7.899710047645689e-17 1.356528987214622e-16 7.899710047645689e-17 -0.684775203648203 -0.7287543622293886
12616042666.666666 -0.6940605709943143 -0.7199166089144277 1.3663444340570915e-16 7.722458992501544e-17 1.3663444340570915e-16 7.722458992501544e-17 -0.6940600602979504 -0.7199171012686161
12616660000.0 -0.7032313832096384 -0.7109610549593137 1.3759284300695963e-16 7.543990860438456e-17 1.3759284300695963e-16 7.543990860438456e-17 -0.7032308788908568 -0.7109615537947144
12617277333.333334 -0.7122866504678316 -0.7018886860215936 1.3852794694670162e-16 7.364335854088679e-17 1.3852794694670162e-16 7.364335854088679e-17 -0.7122861526088662 -0.7018891912556143
12617894666.666666 -0.7212248849364741 -0.6927009927437466 1.3943960858511639e-16 7.183524361935315e-17 1.3943960858511639e-16 7.183524361935315e-17 -0.7212243936184901 -0.6927015042927527
12618512000.0 -0.7300446180124679 -0.6833994847165409 1.403276852439718e-16 7.001586953175894e-17 1.403276852439718e-16 7.001586953175894e-17 -0.7300441333155477 -0.6834000024958681
12619129333.333334 -0.7387444005630168 -0.6739856902313212 1.411920382288084e-16 6.818554372565906e-17 1.411920382288084e-16 6.818554372565906e-17 -0.7387439225661487 -0.6739862141552914
12619746666.666666 -0.7473228031639699 -0.6644611560286638 1.4203253285048913e-16 6.634457535227932e-17 1.4203253285048913e-16 6.634457535227932e-17 -0.7473223319450308 -0.6644616860105953
12620364000.0 -0.7557784163347094 -0.6548274470441828 1.4284903844607267e-16 6.449327521434395e-17 1.4284903844607267e-16 6.449327521434395e-17 -0.7557779519704567 -0.654827982996408
12620981333.333334 -0.7641098507694007 -0.6450861461517888 1.4364142839897454e-16 6.263195571372125e-17 1.4364142839897454e-16 6.263195571372125e-17 -0.7641093933354585 -0.6450866879856688
12621598666.666666 -0.7723157375656425 -0.6352388539031901 1.44409580158481e-16 6.076093079875097e-17 1.44409580158481e-16 6.076093079875097e-17 -0.7723152871364889 -0.635239401529128
12622216000.0 -0.7803947284492321 -0.6252871882650808 1.4515337525857649e-16 5.888051591133421e-17 1.4515337525857649e-16 5.888051591133421e-17 -0.7803942850981855 -0.6252877415925356
12622833333.333334 -0.788345495995586 -0.6152327843534315 1.4587269933605246e-16 5.699102793386885e-17 1.4587269933605246e-16 5.699102793386885e-17 -0.788345059794796 -0.6152333432909354
12623450666.666666 -0.796166733848095 -0.6050772941645216 1.4656744214796143e-16 5.509278513588456e-17 1.4656744214796143e-16 5.509278513588456e-17 -0.7961663048685292 -0.6050778586196938
12624068000.0 -0.8038571569324516 -0.5948223863039107 1.4723749758835753e-16 5.318610712051665e-17 1.4723749758835753e-16 5.318610712051665e-17 -0.8038567352438842 -0.594822956183473
12624685333.333334 -0.8114155016682055 -0.584469745711732 1.4788276370435914e-16 5.127131477072857e-17 1.4788276370435914e-16 5.127131477072857e-17 -0.8114150873392068 -0.5844703209215245
12625302666.666666 -0.8188405261758697 -0.5740210733865323 1.4850314271148283e-16 4.934873019543517e-17 1.4850314271148283e-16 4.934873019543517e-17 -0.8188401192737931 -0.5740216538315281
12625920000.0 -0.8261310104815028 -0.5634780861050525 1.490985410083218e-16 4.7418676675307596e-17 1.490985410083218e-16 4.7418676675307596e-17 -0.8261306110724751 -0.5634786716893738
12626537333.333334 -0.8332857567166942 -0.5528425161407976 1.4966886919046752e-16 4.5481478608573806e-17 1.4966886919046752e-16 4.5481478608573806e-17 -0.8332853648656048 -0.552843106767732
12627154666.666666 -0.840303589315615 -0.542116110979093 1.502140420637817e-16 4.3537461456484664e-17 1.502140420637817e-16 4.3537461456484664e-17 -0.8403032050861055 -0.5421167065511087
12627772000.0 -0.8471833552081963 -0.5313006330299115 1.5073397865693257e-16 4.1586951688708576e-17 1.5073397865693257e-16 4.1586951688708576e-17 -0.8471829786626495 -0.5313012334486741
12628389333.333334 -0.8539239240094924 -0.5203978593384418 1.512286022332147e-16 3.963027672862326e-17 1.512286022332147e-16 3.963027672862326e-17 -0.8539235552090227 -0.5203984645048301
12629006666.666666 -0.8605241882054389 -0.509409581293062 1.5169784030168947e-16 3.766776489834942e-17 1.5169784030168947e-16 3.766776489834942e-17 -0.8605238272098825 -0.5094101911071844
12629624000.0 -0.8669830633348252 -0.49833760433100444 1.521416246275804e-16 3.569974536379444e-17 1.521416246275804e-16 3.569974536379444e-17 -0.8669827102027305 -0.49833821869221584
12630241333.333334 -0.8732994881675056 -0.4871837476416624 1.525598912419897e-16 3.372654807942979e-17 1.525598912419897e-16 3.372654807942979e-17 -0.8732991429561222 -0.48718436644858
12630858666.666666 -0.8794724248786527 -0.47594984386788514 1.52952580450861e-16 3.174850373314105e-17 1.52952580450861e-16 3.174850373314105e-17 -0.8794720876439244 -0.4759504670184061
12631476000.0 -0.8855008592194481 -0.4646377388045673 1.5331963684327466e-16 2.976594369075147e-17 1.5331963684327466e-16 2.976594369075147e-17 -0.885500530016002 -0.4646383661958849
12632093333.333334 -0.8913838006836395 -0.4532492910955207 1.5366100929898086e-16 2.7779199940671504e-17 1.5366100929898086e-16 2.7779199940671504e-17 -0.8913834795647783 -0.45324992262414154
12632710666.666666 -0.8971202826702132 -0.44178637192824144 1.5397665099524378e-16 2.578860503833622e-17 1.5397665099524378e-16 2.578860503833622e-17 -0.8971199696879063 -0.4417870074900027
12633328000.0 -0.9027093626423693 -0.4302508647261614 1.5426651941296223e-16 2.3794492050578056e-17 1.5426651941296223e-16 2.3794492050578056e-17 -0.9027090578472434 -0.4302515042162474
12633945333.333334 -0.9081501222822785 -0.4186446648393905 1.5453057634206008e-16 2.1797194500015297e-17 1.5453057634206008e-16 2.1797194500015297e-17 -0.9081498257236112 -0.4186453081523509
12634562666.666666 -0.9134416676419943 -0.40696967923325067 1.5476878788617024e-16 1.9797046309307562e-17 1.5476878788617024e-16 1.9797046309307562e-17 -0.9134413793677048 -0.406970326263017
12635180000.0 -0.9185831292903358 -0.39522782617495084 1.5498112446659696e-16 1.7794381745366295e-17 1.5498112446659696e-16 1.7794381745366295e-17 -0.9185828493469774 -0.3952284768148545
12635797333.333334 -0.9235736624557583 -0.3834210349183508 1.5516756082554632e-16 1.5789535363608718e-17 1.5516756082554632e-16 1.5789535363608718e-17 -0.9235733908885118 -0.3834216890611407
12636414666.666666 -0.92841244716507 -0.37155124538718504 1.553280760286504e-16 1.3782841952097958e-17 1.553280760286504e-16 1.3782841952097958e-17 -0.9284121840177347 -0.37155190292504464
12637032000.0 -0.9330986883783086 -0.35962040785595334 1.5546265346676135e-16 1.1774636475709831e-17 1.5546265346676135e-16 1.1774636475709831e-17 -0.9330984336932964 -0.3596210686805191
12637649333.333334 -0.9376316161192004 -0.34763048262990187 1.5557128085702827e-16 9.765254020292386e-18 1.5557128085702827e-16 9.765254020292386e-18 -0.9376313699375292 -0.34763114663228073
12638266666.666666 -0.9420104856018188 -0.33558343972256266 1.5565395024325367e-16 7.755029736782641e-18 1.5565395024325367e-16 7.755029736782641e-18 -0.9420102479631051 -0.33558410679335027
12638884000.0 -0.9462345773528743 -0.3234812585322823 1.5571065799552574e-16 5.744298785422942e-18 1.5571065799552574e-16 5.744298785422942e-18 -0.9462343482953269 -0.3234819285615807
12639501333.333334 -0.9503031973299642 -0.3113259275168868 1.5574140480913418e-16 3.733396279908984e-18 1.5574140480913418e-16 3.733396279908984e-18 -0.9503029768903785 -0.31132660039432264
12640118666.666666 -0.9542156770355211 -0.29911944386723743 1.5574619570276548e-16 1.722657231629436e-18 1.5574619570276548e-16 1.722657231629436e-18 -0.9542154652492736 -0.2991201194819805
12640736000.0 -0.9579713736268435 -0.2868638131784862 1.557250400159773e-16 -2.8758350616194004e-19 1.557250400159773e-16 -2.8758350616194004e-19 -0.9579711705278855 -0.2868644914192672
12641353333.333334 -0.9615696700214771 -0.274561049121303 1.55677951405957e-16 -2.2969912939046556e-18 1.55677951405957e-16 -2.2969912939046556e-18 -0.9615694756423288 -0.2745617298764322
12641970666.666666 -0.9650099749988051 -0.2622131731103662 1.5560494784355977e-16 -4.3052317614893365e-18 1.5560494784355977e-16 -4.3052317614893365e-18 -0.9650097893705517 -0.2622138562677516
12642588000.0 -0.9682917232970494 -0.24982221397272455 1.555060516086318e-16 -6.311970863816101e-18 1.555060516086318e-16 -6.311970863816101e-18 -0.968291546449333 -0.24982289941989003
12643205333.333334 -0.9714143757062317 -0.23739020761411875 1.553812892846186e-16 -8.316874936241813e-18 1.553812892846186e-16 -8.316874936241813e-18 -0.971414207667253 -0.23739089523822385
12643822666.666666 -0.9743774191567739 -0.22491919668447222 1.5523069175245478e-16 -1.0319610750066071e-17 1.5523069175245478e-16 -1.0319610750066071e-17 -0.9743772599532793 -0.2249198863723289
12644440000.0 -0.9771803668037319 -0.21241123024248962 1.5505429418374666e-16 -1.231984556779041e-17 1.5505429418374666e-16 -1.231984556779041e-17 -0.9771802164610167 -0.2124119218805825
12645057333.333334 -0.9798227581068124 -0.19986836341893227 1.548521360332384e-16 -1.4317247198371342e-17 1.548521360332384e-16 -1.4317247198371342e-17 -0.9798226166487126 -0.19986905689343637
12645674666.666666 -0.9823041589060543 -0.1872926570788928 1.5462426103057088e-16 -1.6311484052307857e-17 1.5462426103057088e-16 -1.6311484052307857e-17 -0.9823040263549442 -0.18729335227569277
12646292000.0 -0.9846241614931847 -0.17468617748307164 1.5437071717132505e-16 -1.8302225196668733e-17 1.5437071717132505e-16 -1.8302225196668733e-17 -0.9846240378699719 -0.17468687428777982
12646909333.333334 -0.9867823846785759 -0.16205099594838773 1.540915567073756e-16 -2.028914040984867e-17 1.540915567073756e-16 -2.028914040984867e-17 -0.9867822700027021 -0.16205169424636418
12647526666.666666 -0.9887784738538559 -0.1493891885078768 1.5378683613651502e-16 -2.2271900236395204e-17 1.5378683613651502e-16 -2.2271900236395204e-17 -0.9887783681432866 -0.14938988818424662
12648144000.0 -0.9906121010502501 -0.1367028355690239 1.5345661619139375e-16 -2.4250176041511035e-17 1.5345661619139375e-16 -2.4250176041511035e-17 -0.990612004321479 -0.13670353650869746
12648761333.333334 -0.9922829649923931 -0.1239940215724463 1.5310096182775612e-16 -2.622364006545134e-17 1.5310096182775612e-16 -2.622364006545134e-17 -0.9922828772604355 -0.12399472366013743
12649378666.666666 -0.9937907911478429 -0.11126483464935254 1.5271994221197188e-16 -2.81919654777891e-17 1.5271994221197188e-16 -2.81919654777891e-17 -0.9937907124262355 -0.11126553776959788
12649996000.0 -0.995135331772225 -0.09851736627816872 1.5231363070787483e-16 -3.0154826431469274e-17 1.5231363070787483e-16 -3.0154826431469274e-17 -0.9951352620730226 -0.09851807031534648
12650613333.333334 -0.9963163659499118 -0.08575371094106503 1.5188210486290818e-16 -3.211189811668713e-17 1.5188210486290818e-16 -3.211189811668713e-17 -0.9963163052836853 -0.08575441577941402
12651230666.666666 -0.9973336996303095 -0.07297596577999067 1.5142544639358088e-16 -3.406285681456429e-17 1.5142544639358088e-16 -3.406285681456429e-17 -0.9973336480061448 -0.07297667130362936
12651848000.0 -0.9981871656597698 -0.06018623025176154 1.509437411702253e-16 -3.600737995065617e-17 1.509437411702253e-16 -3.600737995065617e-17 -0.9981871230852665 -0.060186936344707155
12652465333.333334 -0.9988766238090383 -0.04738660578327721 1.5043707920107936e-16 -3.7945146148214015e-17 1.5043707920107936e-16 -3.7945146148214015e-17 -0.9988765902903085 -0.047387312329464755
12653082666.666666 -0.9994019607962853 -0.03457919542647161 1.4990555461569807e-16 -3.987583528117522e-17 1.4990555461569807e-16 -3.987583528117522e-17 -0.9994019363379528 -0.034579902309772925
12653700000.0 -0.9997630903057492 -0.02176610351214505 1.493492656476422e-16 -4.179912852709589e-17 1.493492656476422e-16 -4.179912852709589e-17 -0.9997630749109478 -0.021766810616387914
12654317333.333334 -0.9999599530018812 -0.008949435305005485 1.487683146165429e-16 -4.3714708419640505e-17 1.487683146165429e-16 -4.3714708419640505e-17 -0.9999599466722567 -0.008950142513992742
12654934666.666666 -0.999992516539123 0.0038687033428632016 1.4816280790945997e-16 -4.562225890095356e-17 1.4816280790945997e-16 -4.562225890095356e-17 -0.9999925192748308 0.003867996145334598
12655552000.0 -0.9998607755672078 0.016686206337720826 1.4753285596157045e-16 -4.752146537376699e-17 1.4753285596157045e-16 -4.752146537376699e-17 -0.9998607873669143 0.0166854992678407
12656169333.333334 -0.9995647517320416 0.02950096769032781 1.4687857323621523e-16 -4.941201475316879e-17 1.4687857323621523e-16 -4.941201475316879e-17 -0.9995647725929239 0.029500260864253672
12656786666.666666 -0.9991044936721507 0.04231088186174396 1.462000782042584e-16 -5.129359551817497e-17 1.462000782042584e-16 -5.129359551817497e-17 -0.9991045235898984 0.04231017539558198
12657404000.0 -0.9984800770106855 0.05511384410962169 1.4549749332278693e-16 -5.3165897763020914e-17 1.4549749332278693e-16 -5.3165897763020914e-17 -0.998480115979499 0.05511313811940751
12658021333.333334 -0.9976916043429901 0.06790775083385639 1.4477094501318062e-16 -5.5028613248088784e-17 1.4477094501318062e-16 -5.5028613248088784e-17 -0.9976916523555855 0.06790704543553625
12658638666.666666 -0.9967392052197713 0.08069049992199366 1.4402056363850557e-16 -5.68814354506129e-17 1.4402056363850557e-16 -5.68814354506129e-17 -0.996739262267378 0.08068979523140517
12659256000.0 -0.9956230361257666 0.09345999109518514 1.4324648348025718e-16 -5.872405961507832e-17 1.4324648348025718e-16 -5.872405961507832e-17 -0.9956231021981308 0.09345928722803834
12659873333.333334 -0.9943432804540717 0.10621412625276622 1.4244884271449075e-16 -6.055618280323255e-17 1.4244884271449075e-16 -6.055618280323255e-17 -0.9943433555394569 0.10621342332462452
12660490666.666666 -0.9929001484760049 0.11895080981704277 1.4162778338728284e-16 -6.237750394384856e-17 1.4162778338728284e-16 -6.237750394384856e-17 -0.992900232561197 0.11895010794330421
12661108000.0 -0.9912938773065281 0.13166794907794635 1.4078345138955345e-16 -6.418772388216498e-17 1.4078345138955345e-16 -6.418772388216498e-17 -0.9912939703768346 0.13166724837382443
12661725333.333334 -0.9895247308653342 0.1443634545364262 1.399159964313114e-16 -6.59865454288677e-17 1.399159964313114e-16 -6.59865454288677e-17 -0.9895248329045875 0.14436275511693086
12662342666.666666 -0.987592999833436 0.15703524024816085 1.3902557201518403e-16 -6.777367340892538e-17 1.3902557201518403e-16 -6.777367340892538e-17 -0.9875931108239974 0.15703454222808
12662960000.0 -0.9854990016054351 0.16968122416606543 1.3811233540942013e-16 -6.954881470986262e-17 1.3811233540942013e-16 -6.954881470986262e-17 -0.9854991215281957 0.16968052765994562
12663577333.333334 -0.9832430802373617 0.18229932848243968 1.3717644762019843e-16 -7.13116783298381e-17 1.3717644762019843e-16 -7.13116783298381e-17 -0.9832432090717486 0.18229863360456788
12664194666.666666 -0.980825606390149 0.19488747997036465 1.3621807336338612e-16 -7.306197542522609e-17 1.3621807336338612e-16 -7.306197542522609e-17 -0.9808257441141267 0.19488678683474905
12664812000.0 -0.9782469772687175 0.2074436103244009 1.352373810356514e-16 -7.479941935789881e-17 1.352373810356514e-16 -7.479941935789881e-17 -0.9782471238587902 0.20744291904475198
12665429333.333334 -0.9755076165567548 0.21996565650019972 1.3423454268496844e-16 -7.65237257421298e-17 1.3423454268496844e-16 -7.65237257421298e-17 -0.9755077719879752 0.2199649671899125
12666046666.666666 -0.9726079743470389 0.2324515610538082 1.332097339805917e-16 -7.823461249098967e-17 1.332097339805917e-16 -7.823461249098967e-17 -0.9726081385930091 0.23245087382594304
12666664000.0 -0.9695485270675159 0.2448992724795514 1.3216313418232927e-16 -7.993179986253152e-17 1.3216313418232927e-16 -7.993179986253152e-17 -0.969548700100391 0.24489858744681517
12667281333.333334 -0.9663297774030588 0.2573067455469404 1.3109492610934068e-16 -8.16150105053779e-17 1.3109492610934068e-16 -8.16150105053779e-17 -0.9663299591935532 0.2573060628216685
12667898666.666666 -0.9629522542128125 0.2696719416369931 1.3000529610828782e-16 -8.328396950400565e-17 1.3000529610828782e-16 -8.328396950400565e-17 -0.9629524447302056 0.2696712613311309
12668516000.0 -0.959416512443275 0.2819928290772432 1.28894434020914e-16 -8.493840442359926e-17 1.28894434020914e-16 -8.493840442359926e-17 -0.959416711655414 0.28199215130232763
12669133333.333334 -0.955723133037253 0.29426738347506315 1.2776253315109684e-16 -8.657804535440741e-17 1.2776253315109684e-16 -8.657804535440741e-17 -0.9557233409105623 0.2942667083422048
12669750666.666666 -0.9518727228382458 0.30649358805088606 1.2660979023129494e-16 -8.820262495572838e-17 1.2660979023129494e-16 -8.820262495572838e-17 -0.9518729393377274 0.3064929156707501
