! Parameters = {f0=12700.012000; bw=77.238000; Q=6100.000000; N=10; m_0_1=1.348844; m_1_1=1.467912; m_1_2=1.183656; m_2_2=1.467263; m_2_3=0.820619; m_2_8=0.004506; m_2_9=0.041210; m_3_3=1.465326; m_3_4=0.709148; m_3_7=0.005106; m_3_8=-0.091982; m_3_9=0.004506; m_4_4=1.462401; m_4_5=0.545483; m_4_6=0.008623; m_4_7=-0.112531; m_4_8=0.005106; m_5_5=1.462783; m_5_6=0.952838; m_5_7=0.008623; m_6_6=1.462782; m_6_7=0.545825; m_7_7=1.462415; m_7_8=0.709266; m_8_8=1.465324; m_8_9=0.820932; m_9_9=1.467258; m_9_10=1.184734; m_10_10=1.467902; m_10_11=1.349639}
!
! Created with skrf (http://scikit-rf.org).
# Hz S RI R 50.0 
!freq ReS11 ImS11 ReS21 ImS21 ReS12 ImS12 ReS22 ImS22
12607400000.0 -0.9670428835880601 -0.25461355286294324 1.581341724512942e-16 -4.834240010345576e-18 1.581341724512942e-16 -4.834240010345576e-18 -0.9670427026851334 -0.2546142399459105
12608017333.333334 -0.9702356535879283 -0.24216270668004616 1.5802741669760372e-16 -6.879077089723984e-18 1.5802741669760372e-16 -6.879077089723984e-18 -0.9702354815397382 -0.24216339599773173
12608634666.666666 -0.9732681238226452 -0.22967185101912024 1.578942329835208e-16 -8.921961293432959e-18 1.578942329835208e-16 -8.921961293432959e-18 -0.9732679606567475 -0.22967254245742352
12609252000.0 -0.9761397932756465 -0.21714304958616312 1.577346539625503e-16 -1.0962551239996788e-17 1.577346539625503e-16 -1.0962551239996788e-17 -0.9761396390181286 -0.21714374303064451
12609869333.333334 -0.9788501874974198 -0.20457837235658025 1.575487166956414e-16 -1.3000506065806106e-17 1.575487166956414e-16 -1.3000506065806106e-17 -0.9788500421728944 -0.20457906769247994
12610486666.666666 -0.9813988586838848 -0.19197989523324585 1.5733646264325988e-16 -1.503548548196377e-17 1.5733646264325988e-16 -1.503548548196377e-17 -0.9813987223154874 -0.19198059234550288
12611104000.0 -0.9837853857504872 -0.17934969970302764 1.5709793765671694e-16 -1.7067149831101618e-17 1.5709793765671694e-16 -1.7067149831101618e-17 -0.9837852583598687 -0.17935039847629847
12611721333.333334 -0.9860093744016436 -0.16668987249344375 1.5683319196878057e-16 -1.909516014393525e-17 1.5683319196878057e-16 -1.909516014393525e-17 -0.9860092560089725 -0.16669057281212216
12612338666.666666 -0.9880704571959431 -0.15400250522767864 1.5654228018354208e-16 -2.111917819581536e-17 1.5654228018354208e-16 -2.111917819581536e-17 -0.9880703478198981 -0.15400320697591424
12612956000.0 -0.9899682936068835 -0.14128969407878478 1.562252612655652e-16 -2.3138866563033996e-17 1.562252612655652e-16 -2.3138866563033996e-17 -0.9899681932646521 -0.14129039714050232
12613573333.333334 -0.9917025700790384 -0.12855353942397652 1.5588219852830544e-16 -2.5153888679028547e-17 1.5588219852830544e-16 -2.5153888679028547e-17 -0.9917024787863143 -0.1285542436828952
12614190666.666666 -0.9932730000799778 -0.1157961454968243 1.5551315962180979e-16 -2.7163908890366346e-17 1.5551315962180979e-16 -2.7163908890366346e-17 -0.9932729178509578 -0.11579685083647685
12614808000.0 -0.9946793241475211 -0.10301962004021767 1.5511821651968533e-16 -2.9168592512643797e-17 1.5511821651968533e-16 -2.9168592512643797e-17 -0.9946792509949036 -0.10302032634396975
12615425333.333334 -0.9959213099326445 -0.09022607395784837 1.546974455053603e-16 -3.116760588611227e-17 1.546974455053603e-16 -3.116760588611227e-17 -0.995921245867626 -0.0902267811089176
12616042666.666666 -0.9969987522378515 -0.07741762096556459 1.5425092715762093e-16 -3.316061643116395e-17 1.5425092715762093e-16 -3.316061643116395e-17 -0.9969986972701282 -0.07741832884704028
12616660000.0 -0.9979114730511024 -0.06459637724192285 1.537787463354459e-16 -3.5147292703562366e-17 1.537787463354459e-16 -3.5147292703562366e-17 -0.9979114271888643 -0.06459708573678488
12617277333.333334 -0.9986593215751897 -0.05176446107884082 1.5328099216210898e-16 -3.712730444955771e-17 1.5328099216210898e-16 -3.712730444955771e-17 -0.9986592848251232 -0.05176517006997928
12617894666.666666 -0.9992421742526661 -0.03892399253167665 1.5275775800860594e-16 -3.9100322660641373e-17 1.5275775800860594e-16 -3.9100322660641373e-17 -0.9992421466199515 -0.03892470190191107
12618512000.0 -0.9996599347862754 -0.026077093068447563 1.5220914147633107e-16 -4.1066019628253227e-17 1.5220914147633107e-16 -4.1066019628253227e-17 -0.9996599162745862 -0.026077802700546347
12619129333.333334 -0.999912534154839 -0.01322588521989451 1.516352443791093e-16 -4.3024068998033105e-17 1.516352443791093e-16 -4.3024068998033105e-17 -0.9999125247663402 -0.013226594996594223
12619746666.666666 -0.9999999306246681 -0.00037249222857606095 1.510361727244867e-16 -4.4974145823989017e-17 1.510361727244867e-16 -4.4974145823989017e-17 -0.9999999303600197 -0.0003732020326008853
12620364000.0 -0.9999221097564617 0.012480962302155415 1.504120366943237e-16 -4.691592662240774e-17 1.504120366943237e-16 -4.691592662240774e-17 -0.9999221186148143 0.012480252588074362
12620981333.333334 -0.9996790844076898 0.025332354758384707 1.497629506247464e-16 -4.8849089425336517e-17 1.497629506247464e-16 -4.8849089425336517e-17 -0.9996791023866877 0.025331645251489975
12621598666.666666 -0.9992708947304643 0.038179561867287284 1.4908903298534504e-16 -5.077331383400433e-17 1.4908903298534504e-16 -5.077331383400433e-17 -0.999270921826246 0.038178852684775756
12622216000.0 -0.9986976081649145 0.05102046104730571 1.4839040635774468e-16 -5.268828107178012e-17 1.4839040635774468e-16 -5.268828107178012e-17 -0.9986976443721113 0.05101975230630915
12622833333.333334 -0.9979593194280371 0.06385293075912095 1.4766719741344858e-16 -5.459367403698324e-17 1.4766719741344858e-16 -5.459367403698324e-17 -0.9979593647397764 0.06385222257668681
12623450666.666666 -0.9970561504980522 0.0766748508561109 1.4691953689105225e-16 -5.648917735525769e-17 1.4691953689105225e-16 -5.648917735525769e-17 -0.9970562049059569 0.07667414334918277
12624068000.0 -0.9959882505942506 0.08948410293457837 1.4614755957273966e-16 -5.837447743176257e-17 1.4614755957273966e-16 -5.837447743176257e-17 -0.9959883140884435 0.08948339621997699
12624685333.333334 -0.9947557961523188 0.10227857068403164 1.4535140426014203e-16 -6.024926250296033e-17 1.4535140426014203e-16 -6.024926250296033e-17 -0.9947558687214211 0.10227786487843527
12625302666.666666 -0.9933589907952444 0.11505614023621265 1.4453121374953985e-16 -6.211322268807089e-17 1.4453121374953985e-16 -6.211322268807089e-17 -0.9933590724263807 0.11505543545613815
12625920000.0 -0.991798065299599 0.12781470051513727 1.4368713480635106e-16 -6.396605004031317e-17 1.4368713480635106e-16 -6.396605004031317e-17 -0.9917981559783965 0.12781399687692052
12626537333.333334 -0.9900732775574617 0.1405521435853153 1.428193181390499e-16 -6.580743859760587e-17 1.428193181390499e-16 -6.580743859760587e-17 -0.9900733772680552 0.14055144120509222
12627154666.666666 -0.9881849125338242 0.15326636500001967 1.4192791837236625e-16 -6.763708443308063e-17 1.4192791837236625e-16 -6.763708443308063e-17 -0.9881850212588578 0.1532656639937071
12627772000.0 -0.9861332822194354 0.16595526414948383 1.4101309401985448e-16 -6.94546857051926e-17 1.4101309401985448e-16 -6.94546857051926e-17 -0.9861333999400648 0.16595456463276007
12628389333.333334 -0.9839187255793429 0.1786167446073397 1.4007500745586236e-16 -7.125994270738228e-17 1.4007500745586236e-16 -7.125994270738228e-17 -0.983918852275241 0.17861604669562592
12629006666.666666 -0.9815416084968117 0.19124871447748948 1.3911382488678947e-16 -7.305255791751294e-17 1.3911382488678947e-16 -7.305255791751294e-17 -0.9815417441461699 0.1912480182859303
12629624000.0 -0.979002323712943 0.20384908673933091 1.3812971632179506e-16 -7.483223604676303e-17 1.3812971632179506e-16 -7.483223604676303e-17 -0.9790024682924757 0.20384839238277552
12630241333.333334 -0.9763012907617431 0.21641577959279285 1.3712285554283605e-16 -7.659868408821311e-17 1.3712285554283605e-16 -7.659868408821311e-17 -0.9763014442466913 0.21641508718577593
12630858666.666666 -0.9734389559008344 0.2289467168021736 1.3609342007409554e-16 -7.83516113650171e-17 1.3609342007409554e-16 -7.83516113650171e-17 -0.9734391182649711 0.22894602645889683
12631476000.0 -0.9704157920376626 0.24143982803944836 1.3504159115076194e-16 -8.009072957821681e-17 1.3504159115076194e-16 -8.009072957821681e-17 -0.970415963253295 0.24143913987376098
12632093333.333334 -0.9672322986514894 0.2538930492257687 1.3396755368728586e-16 -8.181575285399384e-17 1.3396755368728586e-16 -8.181575285399384e-17 -0.9672324786894666 0.25389236335114934
12632710666.666666 -0.9638890017107596 0.2663043228729842 1.328714962449486e-16 -8.3526397790644e-17 1.328714962449486e-16 -8.3526397790644e-17 -0.9638891905404758 0.2663036394025219
12633328000.0 -0.9603864535862031 0.27867159842351624 1.317536109988577e-16 -8.522238350507183e-17 1.317536109988577e-16 -8.522238350507183e-17 -0.9603866511756034 0.27867091746989187
12633945333.333334 -0.9567252329596547 0.29099283258887365 1.3061409370437102e-16 -8.690343167881618e-17 1.3061409370437102e-16 -8.690343167881618e-17 -0.9567254392752393 0.29099215426434105
12634562666.666666 -0.9529059447283812 0.3032659896874573 1.2945314366291416e-16 -8.856926660365787e-17 1.2945314366291416e-16 -8.856926660365787e-17 -0.9529061597352124 0.3032653141038252
12635180000.0 -0.9489292199051788 0.3154890419807823 1.2827096368721844e-16 -9.02196152267729e-17 1.2827096368721844e-16 -9.02196152267729e-17 -0.9489294435668855 0.31548836924939533
12635797333.333334 -0.9447957155140249 0.32765997000876407 1.2706776006600419e-16 -9.185420719539371e-17 1.2706776006600419e-16 -9.185420719539371e-17 -0.944795947792812 0.32765930024048545
12636414666.666666 -0.940506114481711 0.33977676292283027 1.2584374252807123e-16 -9.347277490103819e-17 1.2584374252807123e-16 -9.347277490103819e-17 -0.9405063553383611 0.33977609622802235
12637032000.0 -0.9360611255248475 0.3518374188186331 1.2459912420582612e-16 -9.507505352326093e-17 1.2459912420582612e-16 -9.507505352326093e-17 -0.9360613749187316 0.3518367553071398
12637649333.333334 -0.931461483032784 0.363839945066742 1.2333412159828036e-16 -9.666078107288476e-17 1.2333412159828036e-16 -9.666078107288476e-17 -0.9314617409218652 0.3638392848478705
12638266666.666666 -0.9267079469463735 0.37578235864159454 1.2204895453347323e-16 -9.82296984347776e-17 1.2204895453347323e-16 -9.82296984347776e-17 -0.9267082132872174 0.3757817018240977
12638884000.0 -0.9218013026323422 0.38766268644934104 1.207438461303845e-16 -9.978154941008882e-17 1.207438461303845e-16 -9.978154941008882e-17 -0.9218015773801208 0.38766203314139885
12639501333.333334 -0.9167423607535488 0.3994789656537788 1.1941902276024993e-16 -1.013160807580576e-16 1.1941902276024993e-16 -1.013160807580576e-16 -0.9167426438620507 0.3994783159629814
12640118666.666666 -0.9115319571350753 0.41122924400059657 1.1807471400743803e-16 -1.0283304223719972e-16 1.1807471400743803e-16 -1.0283304223719972e-16 -0.9115322485567113 0.4112285980339254
12640736000.0 -0.9061709526260157 0.42291158014017916 1.1671115262968224e-16 -1.0433218664611783e-16 1.1671115262968224e-16 -1.0433218664611783e-16 -0.9061712523118285 0.42291093800399016
12641353333.333334 -0.900660232957506 0.43452404394778144 1.1532857451794463e-16 -1.0581326986361999e-16 1.1532857451794463e-16 -1.0581326986361999e-16 -0.9006605408571784 0.43452340574778775
12641970666.666666 -0.8950007085960592 0.44606471684314497 1.139272186556522e-16 -1.0727605088843981e-16 1.139272186556522e-16 -1.0727605088843981e-16 -0.8950010246579206 0.44606408268439857
12642588000.0 -0.8891933145933963 0.45753169210690947 1.1250732707746654e-16 -1.0872029187837837e-16 1.1250732707746654e-16 -1.0872029187837837e-16 -0.8891936387644341 0.45753106209378486
12643205333.333334 -0.8832390104318724 0.46892307519584664 1.1106914482758388e-16 -1.1014575818887669e-16 1.1106914482758388e-16 -1.1014575818887669e-16 -0.8832393426577385 0.4689224494320232
12643822666.666666 -0.877138779865867 0.480236984056019 1.0961291991752168e-16 -1.115522184110627e-16 1.0961291991752168e-16 -1.115522184110627e-16 -0.877139120090888 0.48023636264446357
12644440000.0 -0.8708936307594112 0.49147154943342647 1.0813890328342624e-16 -1.1293944440924218e-16 1.0813890328342624e-16 -1.1293944440924218e-16 -0.8708939789265984 0.49147093247637746
12645057333.333334 -0.8645045949195374 0.5026249151830909 1.0664734874293215e-16 -1.143072113578024e-16 1.0664734874293215e-16 -1.143072113578024e-16 -0.8645049509705944 0.5026243027820402
12645674666.666666 -0.8579727279259747 0.5136952385754259 1.0513851295153124e-16 -1.1565529777757188e-16 1.0513851295153124e-16 -1.1565529777757188e-16 -0.8579730918013095 0.5136946308311032
12646292000.0 -0.8512991089564649 0.5246806906011808 1.036126553584427e-16 -1.1698348557164065e-16 1.036126553584427e-16 -1.1698348557164065e-16 -0.8512994805951981 0.5246800876135367
12646909333.333334 -0.8444848406087461 0.5355794562731311 1.0207003816215816e-16 -1.182915600604872e-16 1.0207003816215816e-16 -1.182915600604872e-16 -0.8444852199487219 0.5355788581413207
12647526666.666666 -0.8375310487182774 0.5463897349261468 1.0051092626542625e-16 -1.195793100166276e-16 1.0051092626542625e-16 -1.195793100166276e-16 -0.8375314356960732 0.5463891417485124
12648144000.0 -0.8304388821721318 0.5571097405148323 9.893558722980602e-17 -1.2084652769866485e-16 9.893558722980602e-17 -1.2084652769866485e-16 -0.83043927672307 0.5571091523888891
12648761333.333334 -0.8232095127193654 0.5677377019083262 9.734429122988164e-17 -1.2209300888466687e-16 9.734429122988164e-17 -1.2209300888466687e-16 -0.8232099147775241 0.5677371189307455
12649378666.666666 -0.8158441347773052 0.578271863183116 9.573731100699037e-17 -1.2331855290500069e-16 9.573731100699037e-17 -1.2331855290500069e-16 -0.8158445442755277 0.5782712854497086
12649996000.0 -0.8083439652342369 0.5887104839130972 9.411492182254506e-17 -1.2452296267455252e-16 9.411492182254506e-17 -1.2452296267455252e-16 -0.8083443821041442 0.5887099115187981
12650613333.333334 -0.8007102432483555 0.5990518394571223 9.247740141093837e-17 -1.2570604472434523e-16 9.247740141093837e-17 -1.2570604472434523e-16 -0.8007106674203578 0.5990512724959757
12651230666.666666 -0.7929442300430694 0.6092942212438965 9.082502993212958e-17 -1.2686760923247997e-16 9.082502993212958e-17 -1.2686760923247997e-16 -0.7929446614463767 0.6092936598090392
12651848000.0 -0.7850472086984865 0.6194359370544441 8.915808992370102e-17 -1.2800747005455988e-16 8.915808992370102e-17 -1.2800747005455988e-16 -0.7850476472611216 0.6194353812380913
12652465333.333334 -0.7770204839395977 0.629475311301465 8.74768662527145e-17 -1.2912544475335672e-16 8.74768662527145e-17 -1.2912544475335672e-16 -0.7770209295884074 0.6294747611948944
12653082666.666666 -0.7688653819207542 0.6394106853061308 8.578164606706047e-17 -1.3022135462794374e-16 8.578164606706047e-17 -1.3022135462794374e-16 -0.7688658345814217 0.6394101409996679
12653700000.0 -0.7605832500062418 0.6492404175725236 8.407271874644203e-17 -1.3129502474218893e-16 8.407271874644203e-17 -1.3129502474218893e-16 -0.7605837096033002 0.6492398791555279
12654317333.333334 -0.7521754565480305 0.6589628840583995 8.235037585314547e-17 -1.3234628395251474e-16 8.235037585314547e-17 -1.3234628395251474e-16 -0.7521759230048729 0.6589623516192475
12654934666.666666 -0.7436433906595576 0.6685764784436851 8.061491108228716e-17 -1.3337496493512916e-16 8.061491108228716e-17 -1.3337496493512916e-16 -0.7436438638984516 0.6685759520697575
12655552000.0 -0.7349884619860663 0.6780796123960362 7.886662021183291e-17 -1.3438090421253206e-16 7.886662021183291e-17 -1.3438090421253206e-16 -0.7349889419281677 0.6780790921737037
12656169333.333334 -0.7262121004721311 0.6874707158327973 7.710580105228301e-17 -1.353639421793763e-16 7.710580105228301e-17 -1.353639421793763e-16 -0.7262125870374943 0.6874702018474046
12656786666.666666 -0.717315756124865 0.6967482371809898 7.533275339596659e-17 -1.3632392312770823e-16 7.533275339596659e-17 -1.3632392312770823e-16 -0.7173162492324594 0.6967477295168446
12657404000.0 -0.7083008987747802 0.7059106436332026 7.354777896609306e-17 -1.372606952715062e-16 7.354777896609306e-17 -1.372606952715062e-16 -0.7083013983425018 0.7059101423735588
12658021333.333334 -0.6991690178327522 0.7149564214010445 7.175118136549283e-17 -1.3817411077055823e-16 7.175118136549283e-17 -1.3817411077055823e-16 -0.6991695237774385 0.7149559266280913
12658638666.666666 -0.6899216220440232 0.7238840759651691 6.994326602504039e-17 -1.390640257536829e-16 6.994326602504039e-17 -1.390640257536829e-16 -0.6899221342814651 0.7238835877600145
12659256000.0 -0.6805602392387672 0.7326921323223522 6.812434015175143e-17 -1.3993030034129555e-16 6.812434015175143e-17 -1.3993030034129555e-16 -0.6805607576837245 0.7326916507650114
12659873333.333334 -0.6710864160798677 0.7413791352289871 6.629471267671265e-17 -1.4077279866724039e-16 6.629471267671265e-17 -1.4077279866724039e-16 -0.6710869406460839 0.7413786603983706
12660490666.666666 -0.6615017178074337 0.7499436494414884 6.445469420267412e-17 -1.415913888999816e-16 6.445469420267412e-17 -1.415913888999816e-16 -0.6615022484076475 0.7499431814153853
12661108000.0 -0.6518077279798081 0.7583842599537547 6.260459695133991e-17 -1.423859432631253e-16 6.260459695133991e-17 -1.423859432631253e-16 -0.651808264525772 0.7583837988088248
12661725333.333334 -0.6420060482123633 0.7666995722305752 6.074473471052225e-17 -1.4315633805520557e-16 6.074473471052225e-17 -1.4315633805520557e-16 -0.6420065906148555 0.7666991180423335
12662342666.666666 -0.6320982979126736 0.774888212438222 5.887542278093183e-17 -1.4390245366883256e-16 5.887542278093183e-17 -1.4390245366883256e-16 -0.6320988460815129 0.774887765281026
12662960000.0 -0.6220861140130032 0.7829488276713905 5.699697792281731e-17 -1.4462417460911374e-16 5.699697792281731e-17 -1.4462417460911374e-16 -0.6220866678570645 0.7829483876184288
12663577333.333334 -0.6119711506998992 0.7908800861766869 5.510971830238114e-17 -1.4532138951137902e-16 5.510971830238114e-17 -1.4532138951137902e-16 -0.6119717101271298 0.7908796532999688
12664194666.666666 -0.6017550791407174 0.7986806775728028 5.3213963437907466e-17 -1.4599399115823847e-16 5.3213963437907466e-17 -1.4599399115823847e-16 -0.6017556440581504 0.7986802519431436
12664812000.0 -0.59143958720778 0.8063493130667962 5.1310034145766224e-17 -1.4664187649590457e-16 5.1310034145766224e-17 -1.4664187649590457e-16 -0.5914401575215503 0.8063488947538072
12665429333.333334 -0.5810263791993326 0.8138847256671653 4.9398252486171866e-17 -1.4726494664983112e-16 4.9398252486171866e-17 -1.4726494664983112e-16 -0.5810269548146932 0.8138843147392427
12666046666.666666 -0.5705171755580561 0.8212856703931101 4.7478941708804993e-17 -1.4786310693962929e-16 4.7478941708804993e-17 -1.4786310693962929e-16 -0.5705177563793943 0.8212852669174243
12666664000.0 -0.559913712586588 0.8285509244803881 4.555242619816369e-17 -1.4843626689330503e-16 4.555242619816369e-17 -1.4843626689330503e-16 -0.5599142985174386 0.8285505285228705
12667281333.333334 -0.5492177421611181 0.8356792875830096 4.361903141887244e-17 -1.4898434026074714e-16 4.361903141887244e-17 -1.4898434026074714e-16 -0.5492183331041818 0.8356788992083427
12667898666.666666 -0.5384310314415319 0.8426695819718497 4.1679083860704954e-17 -1.4950724502654168e-16 4.1679083860704954e-17 -1.4950724502654168e-16 -0.5384316272986909 0.8426692012434575
12668516000.0 -0.5275553625794859 0.8495206527291901 3.9732910983540936e-17 -1.5000490342204602e-16 3.9732910983540936e-17 -1.5000490342204602e-16 -0.5275559632518209 0.8495202797092286
12669133333.333334 -0.5165925324242078 0.8562313679393828 3.778084116218297e-17 -1.5047724193675078e-16 3.778084116218297e-17 -1.5047724193675078e-16 -0.5165931378120124 0.8562310026887267
12669750666.666666 -0.5055443522254303 0.8628006188759789 3.58232036309639e-17 -1.5092419132894087e-16 3.58232036309639e-17 -1.5092419132894087e-16 -0.5055449622282299 0.8628002614542141
