! Parameters = {f0=12700.012000; bw=77.238000; Q=6100.000000; N=10; m_0_1=1.192287; m_1_1=-0.880436; m_1_2=1.027099; m_2_2=-0.881085; m_2_3=0.664062; m_2_8=-0.003322; m_2_9=0.033382; m_3_3=-0.883022; m_3_4=0.552591; m_3_7=-0.002722; m_3_8=-0.099810; m_3_9=-0.003322; m_4_4=-0.885947; m_4_5=0.388926; m_4_6=0.000795; m_4_7=-0.120359; m_4_8=-0.002722; m_5_5=-0.885565; m_5_6=0.796281; m_5_7=0.000795; m_6_6=-0.885566; m_6_7=0.389268; m_7_7=-0.885933; m_7_8=0.552709; m_8_8=-0.883024; m_8_9=0.664375; m_9_9=-0.881090; m_9_10=1.028177; m_10_10=-0.880446; m_10_11=1.193082}
!
! Created with skrf (http://scikit-rf.org).
# Hz S RI R 50.0 
!freq ReS11 ImS11 ReS21 ImS21 ReS12 ImS12 ReS22 ImS22
12607400000.0 -0.830242687253539 -0.5574020813217927 7.208794340388418e-17 2.2555927335366402e-17 7.208794340388418e-17 2.2555927335366402e-17 -0.8302423370365825 -0.5574026029647495
12608017333.333334 -0.8347994901138823 -0.5505540948039959 7.225882904132007e-17 2.1951497511845267e-17 7.225882904132007e-17 2.1951497511845267e-17 -0.8347991442164672 -0.5505546192843163
12608634666.666666 -0.8392998109640368 -0.5436688581439774 7.242465166296085e-17 2.134578667948488e-17 7.242465166296085e-17 2.134578667948488e-17 -0.8392994694091432 -0.5436693854258999
12609252000.0 -0.8437433453151852 -0.5367468371925299 7.258540179006569e-17 2.0738837208209357e-17 7.258540179006569e-17 2.0738837208209357e-17 -0.8437430081254951 -0.5367473672401059
12609869333.333334 -0.8481297925206164 -0.5297885002892946 7.274107029813269e-17 2.0130691536937094e-17 7.274107029813269e-17 2.0130691536937094e-17 -0.8481294597185159 -0.5297890330663924
12610486666.666666 -0.8524588557961027 -0.5227943182310273 7.289164841738577e-17 1.952139217063844e-17 7.289164841738577e-17 1.952139217063844e-17 -0.8524585274036771 -0.5227948537013335
12611104000.0 -0.856730242240019 -0.5157647642396701 7.303712773325166e-17 1.891098167733611e-17 7.303712773325166e-17 1.891098167733611e-17 -0.8567299182790555 -0.5157653023666939
12611721333.333334 -0.8609436628530784 -0.5087003139304815 7.317750018679033e-17 1.8299502685185433e-17 7.317750018679033e-17 1.8299502685185433e-17 -0.8609433433450603 -0.5087008546775548
12612338666.666666 -0.8650988325579076 -0.5016014452798053 7.331275807512172e-17 1.7686997879468413e-17 7.331275807512172e-17 1.7686997879468413e-17 -0.8650985175240165 -0.5016019886100872
12612956000.0 -0.8691954702184584 -0.4944686385925382 7.344289405181437e-17 1.7073509999639148e-17 7.344289405181437e-17 1.7073509999639148e-17 -0.869195159679569 -0.49446918446901567
12613573333.333334 -0.8732332986587776 -0.4873023764700462 7.356790112725297e-17 1.6459081836352104e-17 7.356790112725297e-17 1.6459081836352104e-17 -0.8732329926354603 -0.4873029248555384
12614190666.666666 -0.8772120446820239 -0.4801031437770732 7.368777266898245e-17 1.584375622848176e-17 7.368777266898245e-17 1.584375622848176e-17 -0.8772117431945402 -0.4801036946342325
12614808000.0 -0.8811314390887621 -0.47287142760925205 7.380250240202726e-17 1.5227576060140053e-17 7.380250240202726e-17 1.5227576060140053e-17 -0.8811311421570669 -0.4728719809005684
12615425333.333334 -0.8849912166953086 -0.46560771725992867 7.391208440918379e-17 1.4610584257700206e-17 7.391208440918379e-17 1.4610584257700206e-17 -0.8849909243390448 -0.4656082729477302
12616042666.666666 -0.8887911163515603 -0.4583125041872543 7.401651313128805e-17 1.399282378682101e-17 7.401651313128805e-17 1.399282378682101e-17 -0.8887908285900591 -0.4583130622337104
12616660000.0 -0.892530880958771 -0.4509862819807324 7.411578336746226e-17 1.3374337649448465e-17 7.411578336746226e-17 1.3374337649448465e-17 -0.8925305978110522 -0.45098684234785735
12617277333.333334 -0.8962102574868559 -0.4436295463280008 7.420989027533123e-17 1.2755168880845572e-17 7.420989027533123e-17 1.2755168880845572e-17 -0.8962099789716241 -0.4436301089776549
12617894666.666666 -0.8998289969915513 -0.43624279498121726 7.429882937121772e-17 1.2135360546599933e-17 7.429882937121772e-17 1.2135360546599933e-17 -0.8998287231271958 -0.4362433598751104
12618512000.0 -0.9033868546312912 -0.4288265277233045 7.438259653031257e-17 1.1514955739630364e-17 7.438259653031257e-17 1.1514955739630364e-17 -0.903386585435887 -0.4288270948229992
12619129333.333334 -0.9068835896837057 -0.42138124633429086 7.446118798681755e-17 1.0893997577211909e-17 7.446118798681755e-17 1.0893997577211909e-17 -0.9068833251750075 -0.4213818156012029
12619746666.666666 -0.9103189655619258 -0.4139074545573063 7.453460033406535e-17 1.0272529197983307e-17 7.453460033406535e-17 1.0272529197983307e-17 -0.9103187057573714 -0.4139080259527097
12620364000.0 -0.9136927498306919 -0.4064056580642953 7.460283052461649e-17 9.650593758943638e-18 7.460283052461649e-17 9.650593758943638e-18 -0.9136924947473973 -0.406406231549323
12620981333.333334 -0.9170047142218732 -0.39887636442224056 7.46658758703259e-17 9.028234432489105e-18 7.46658758703259e-17 9.028234432489105e-18 -0.9170044638766356 -0.3988769399578888
12621598666.666666 -0.9202546346501299 -0.3913200830583578 7.472373404238993e-17 8.405494403409662e-18 7.472373404238993e-17 8.405494403409662e-18 -0.9202543890594217 -0.391320660605487
12622216000.0 -0.9234422912279182 -0.3837373252259636 7.477640307136718e-17 7.78241686589653e-18 7.477640307136718e-17 7.78241686589653e-18 -0.9234420504078911 -0.3837379047453027
12622833333.333334 -0.9265674682804731 -0.37612860396965053 7.482388134717209e-17 7.159045020567195e-18 7.482388134717209e-17 7.159045020567195e-18 -0.9265672322469527 -0.37612918542179863
12623450666.666666 -0.9296299543603227 -0.36849443409075844 7.486616761904717e-17 6.535422071470011e-18 7.486616761904717e-17 6.535422071470011e-18 -0.9296297231288104 -0.3684950174361877
12624068000.0 -0.9326295422616172 -0.3608353321124907 7.490326099550754e-17 5.9115912231044325e-18 7.490326099550754e-17 5.9115912231044325e-18 -0.9326293158472865 -0.3608359173115487
12624685333.333334 -0.9355660290342291 -0.3531518162447544 7.493516094426388e-17 5.287595677417006e-18 7.493516094426388e-17 5.287595677417006e-18 -0.9355658074519279 -0.3531524032576679
12625302666.666666 -0.9384392159973033 -0.3454444063495765 7.496186729211567e-17 4.6634786308561025e-18 7.496186729211567e-17 4.6634786308561025e-18 -0.9384389992615507 -0.3454449951364532
12625920000.0 -0.9412489087529302 -0.33771362390531917 7.498338022482578e-17 4.0392832713430315e-18 7.498338022482578e-17 4.0392832713430315e-18 -0.9412486968779147 -0.33771421442615024
12626537333.333334 -0.9439949171990778 -0.32995999197198134 7.499970028696525e-17 3.4150527753280102e-18 7.499970028696525e-17 3.4150527753280102e-18 -0.9439947101986603 -0.32996058418664553
12627154666.666666 -0.9466770555425983 -0.32218403515543825 7.50108283817356e-17 2.7908303048054513e-18 7.50108283817356e-17 2.7908303048054513e-18 -0.9466768534303054 -0.3221846290237023
12627772000.0 -0.9492951423117697 -0.3143862795719969 7.501676577076709e-17 2.1666590043100904e-18 7.501676577076709e-17 2.1666590043100904e-18 -0.9492949451007977 -0.3143868750535205
12628389333.333334 -0.9518490003685239 -0.3065672528129622 7.501751407389006e-17 1.5425819979901339e-18 7.501751407389006e-17 1.5425819979901339e-18 -0.9518488080717364 -0.3065678498672999
12629006666.666666 -0.954338456920495 -0.29872748390875237 7.50130752688839e-17 9.18642386586998e-19 7.50130752688839e-17 9.18642386586998e-19 -0.9543382695504214 -0.2987280824953558
12629624000.0 -0.9567633435326809 -0.2908675032931846 7.500345169119998e-17 2.948832445074027e-19 7.500345169119998e-17 2.948832445074027e-19 -0.9567631611015162 -0.29086810337140606
12630241333.333334 -0.9591234961388245 -0.2829878427676415 7.49886460336605e-17 -3.2865238317193114e-19 7.49886460336605e-17 -3.2865238317193114e-19 -0.9591233186584287 -0.2829884442967362
12630858666.666666 -0.961418755052532 -0.2750890354650353 7.496866134613284e-17 -9.519214836367e-19 7.496866134613284e-17 -9.519214836367e-19 -0.9614185825344291 -0.27508963840416445
12631476000.0 -0.9636489649781016 -0.26717161581365534 7.494350103517883e-17 -1.5748810793322567e-18 7.494350103517883e-17 -1.5748810793322567e-18 -0.963648797433477 -0.26717222012188824
12632093333.333334 -0.9658139750209839 -0.2592361195011429 7.491316886368045e-17 -2.1974882308847948e-18 7.491316886368045e-17 -2.1974882308847948e-18 -0.9658138124606882 -0.259236725137461
12632710666.666666 -0.9679136386979896 -0.2512830834383055 7.487766895044054e-17 -2.819700040059249e-18 7.487766895044054e-17 -2.819700040059249e-18 -0.9679134811325331 -0.2512836903616037
12633328000.0 -0.9699478139472862 -0.24331304572243037 7.483700576975815e-17 -3.4414736527323224e-18 7.483700576975815e-17 -3.4414736527323224e-18 -0.9699476613868409 -0.243313653891521
12633945333.333334 -0.9719163631378895 -0.23532654560134528 7.4791184150982e-17 -4.062766261799617e-18 7.4791184150982e-17 -4.062766261799617e-18 -0.9719162155922884 -0.23532715497496023
12634562666.666666 -0.9738191530790702 -0.22732412343657576 7.474020927803643e-17 -4.683535110142171e-18 7.474020927803643e-17 -4.683535110142171e-18 -0.9738190105578045 -0.2273247339733694
12635180000.0 -0.9756560550292988 -0.2193063206670319 7.468408668892617e-17 -5.303737493541648e-18 7.468408668892617e-17 -5.303737493541648e-18 -0.9756559175415205 -0.21930693232558401
12635797333.333334 -0.9774269447050136 -0.21127367977215478 7.462282227521366e-17 -5.9233307636289256e-18 7.462282227521366e-17 -5.9233307636289256e-18 -0.9774268122595331 -0.21127429251097352
12636414666.666666 -0.9791317022889828 -0.20322674423540607 7.455642228147608e-17 -6.5422723307831426e-18 7.455642228147608e-17 -6.5422723307831426e-18 -0.9791315748942677 -0.20322735801293032
12637032000.0 -0.9807702124384317 -0.1951660585074134 7.448489330473362e-17 -7.160519667078577e-18 7.448489330473362e-17 -7.160519667078577e-18 -0.9807700901026069 -0.19516667328201565
12637649333.333334 -0.9823423642928608 -0.18709216796904904 7.440824229385701e-17 -7.778030309183657e-18 7.440824229385701e-17 -7.778030309183657e-18 -0.9823422470237088 -0.18709278369903873
12638266666.666666 -0.9838480514815087 -0.17900561889472508 7.432647654895056e-17 -8.394761861265052e-18 7.432647654895056e-17 -8.394761861265052e-18 -0.9838479392864694 -0.1790062355383512
12638884000.0 -0.9852871721305961 -0.1709069584152105 7.423960372070928e-17 -9.010671997904993e-18 7.423960372070928e-17 -9.010671997904993e-18 -0.9852870650167641 -0.170907575930664
12639501333.333334 -0.9866596288701738 -0.16279673448080645 7.414763180975436e-17 -9.625718466982924e-18 7.414763180975436e-17 -9.625718466982924e-18 -0.9866595268443002 -0.16279735282622362
12640118666.666666 -0.9879653288407326 -0.1546754958242186 7.405056916594416e-17 -1.0239859092570119e-17 7.405056916594416e-17 -1.0239859092570119e-17 -0.9879652319092221 -0.15467611495768335
12640736000.0 -0.9892041836995105 -0.14654379192320363 7.394842448765735e-17 -1.0853051777830311e-17 7.394842448765735e-17 -1.0853051777830311e-17 -0.989204091868423 -0.1465444118027508
12641353333.333334 -0.9903761096264043 -0.13840217296384222 7.384120682106173e-17 -1.1465254507863469e-17 7.384120682106173e-17 -1.1465254507863469e-17 -0.9903760229014554 -0.13840279354746043
12641970666.666666 -0.9914810273297016 -0.13025118980294897 7.372892555934896e-17 -1.2076425352603645e-17 7.372892555934896e-17 -1.2076425352603645e-17 -0.9914809457162601 -0.13025181104858324
12642588000.0 -0.9925188620514298 -0.1220913939308572 7.361159044195079e-17 -1.268652246967617e-17 7.361159044195079e-17 -1.268652246967617e-17 -0.9925187855545178 -0.12209201579641177
12643205333.333334 -0.9934895435723897 -0.11392333743430269 7.348921155373185e-17 -1.3295504107249897e-17 7.348921155373185e-17 -1.3295504107249897e-17 -0.9934894721966826 -0.113923959877644
12643822666.666666 -0.9943930062169504 -0.10574757295873179 7.336179932415747e-17 -1.3903328606888266e-17 7.336179932415747e-17 -1.3903328606888266e-17 -0.9943929399667768 -0.10574819593769132
12644440000.0 -0.995229188857446 -0.09756465367127622 7.322936452643799e-17 -1.4509954406394978e-17 7.322936452643799e-17 -1.4509954406394978e-17 -0.9952291277367878 -0.0975652771436534
12645057333.333334 -0.9959980349183442 -0.08937513322307246 7.309191827665287e-17 -1.511534004263306e-17 7.309191827665287e-17 -1.511534004263306e-17 -0.9959979789308363 -0.0893757571466375
12645674666.666666 -0.9966994923800515 -0.08117956571202822 7.294947203284581e-17 -1.571944415436735e-17 7.294947203284581e-17 -1.571944415436735e-17 -0.99669944152898 -0.08118019004452474
12646292000.0 -0.9973335137824666 -0.07297850564490753 7.280203759409944e-17 -1.632222548507986e-17 7.280203759409944e-17 -1.632222548507986e-17 -0.9973334680707707 -0.07297913034405577
12646909333.333334 -0.9979000562281464 -0.06477250790040828 7.264962709958986e-17 -1.6923642885768837e-17 7.264962709958986e-17 -1.6923642885768837e-17 -0.997900015658416 -0.06477313292390773
12647526666.666666 -0.9983990813852446 -0.05656212769110933 7.249225302761389e-17 -1.75236553177536e-17 7.249225302761389e-17 -1.75236553177536e-17 -0.9983990459597234 -0.056562752996641694
12648144000.0 -0.998830555490091 -0.04834792052616037 7.232992819459126e-17 -1.812222185548097e-17 7.232992819459126e-17 -1.812222185548097e-17 -0.9988305252106726 -0.04834854607139237
12648761333.333334 -0.9991944493494737 -0.04013044217358268 7.2162665754053e-17 -1.8719301689283717e-17 7.2162665754053e-17 -1.8719301689283717e-17 -0.999194424217706 -0.040131067916169064
12649378666.666666 -0.9994907383426171 -0.03191024862289398 7.199047919559804e-17 -1.931485412816907e-17 7.199047919559804e-17 -1.931485412816907e-17 -0.9994907183596969 -0.031910874520480165
12649996000.0 -0.9997194024228518 -0.023687896047149284 7.181338234382837e-17 -1.9908838602587463e-17 7.181338234382837e-17 -1.9908838602587463e-17 -0.9997193875896287 -0.023688522057374366
12650613333.333334 -0.9998804261189671 -0.01546394076548109 7.163138935726665e-17 -2.0501214667175622e-17 7.163138935726665e-17 -2.0501214667175622e-17 -0.9998804164359413 -0.015464566845980668
12651230666.666666 -0.9999737985362526 -0.0072389392056581205 7.14445147272464e-17 -2.1091942003508353e-17 7.14445147272464e-17 -2.1091942003508353e-17 -0.9999737940035773 -0.007239565314067205
12651848000.0 -0.9999995133572471 0.0009865521340452809 7.125277327677909e-17 -2.1680980422838315e-17 7.125277327677909e-17 -2.1680980422838315e-17 -0.9999995139747264 0.0009859260400894507
12652465333.333334 -0.9999575688421577 0.00921197672201842 7.105618015940171e-17 -2.2268289868819866e-17 7.105618015940171e-17 -2.2268289868819866e-17 -0.999957574609246 0.009211350684873483
12653082666.666666 -0.999847967828977 0.017436778031196132 7.08547508580058e-17 -2.2853830420208456e-17 7.08547508580058e-17 -2.2853830420208456e-17 -0.9998479787447828 0.01743615209321177
12653700000.0 -0.9996707177332977 0.02566039957676998 7.064850118362826e-17 -2.343756229360005e-17 7.064850118362826e-17 -2.343756229360005e-17 -0.9996707337965786 0.025659773780284986
12654317333.333334 -0.9994258305478021 0.033882284953668976 7.043744727424192e-17 -2.4019445846091493e-17 7.043744727424192e-17 -2.4019445846091493e-17 -0.9994258517569701 0.033881659341008515
12654934666.666666 -0.9991133228414618 0.042101877874262714 7.022160559350895e-17 -2.459944157797855e-17 7.022160559350895e-17 -2.459944157797855e-17 -0.9991133491945793 0.04210125248773529
12655552000.0 -0.9987332157583986 0.050318622206226335 7.00009929295109e-17 -2.517751013544269e-17 7.00009929295109e-17 -2.517751013544269e-17 -0.9987332472531819 0.05031799708812114
12656169333.333334 -0.9982855350164811 0.05853196200968564 6.977562639347458e-17 -2.5753612313179e-17 6.977562639347458e-17 -2.5753612313179e-17 -0.9982855716502967 0.05853133720226948
12656786666.666666 -0.9977703109055552 0.06674134157534244 6.954552341845093e-17 -2.6327709057082547e-17 6.954552341845093e-17 -2.6327709057082547e-17 -0.9977703526754234 0.06674071712085701
12657404000.0 -0.9971875782854185 0.07494620546170469 6.93107017579945e-17 -2.6899761466861548e-17 6.93107017579945e-17 -2.6899761466861548e-17 -0.9971876251880117 0.07494558140236368
12658021333.333334 -0.9965373765834398 0.08314599853295077 6.907117948480426e-17 -2.7469730798684503e-17 6.907117948480426e-17 -2.7469730798684503e-17 -0.9965374286150848 0.08314537491093707
12658638666.666666 -0.9958197497919229 0.0913401659961214 6.882697498936096e-17 -2.8037578467770214e-17 6.882697498936096e-17 -2.8037578467770214e-17 -0.9958198069485985 0.0913395428535841
12659256000.0 -0.9950347464650852 0.09952815343916623 6.857810697851798e-17 -2.8603266051026535e-17 6.857810697851798e-17 -2.8603266051026535e-17 -0.9950348087424248 0.09952753081821797
12659873333.333334 -0.9941824197158162 0.1077094068679738 6.832459447409941e-17 -2.91667552896085e-17 6.832459447409941e-17 -2.91667552896085e-17 -0.9941824871091073 0.10770878481068784
12660490666.666666 -0.9932628272120637 0.11588337274408098 6.806645681145752e-17 -2.972800809151109e-17 6.806645681145752e-17 -2.972800809151109e-17 -0.9932628997162476 0.11588275129248826
12661108000.0 -0.9922760311729244 0.12404949802218128 6.780371363800842e-17 -3.028698653414904e-17 6.780371363800842e-17 -3.028698653414904e-17 -0.9922761087825971 0.1240488772182677
12661725333.333334 -0.9912220983644523 0.13220723018737407 6.753638491176773e-17 -3.084365286687793e-17 6.753638491176773e-17 -3.084365286687793e-17 -0.9912221810738653 0.13220661007307763
12662342666.666666 -0.9901011000951346 0.14035601729263242 6.7264490899835e-17 -3.139796951356967e-17 6.7264490899835e-17 -3.139796951356967e-17 -0.9901011878981946 0.1403553979098404
12662960000.0 -0.9889131122110525 0.1484953079962316 6.698805217688447e-17 -3.194989907511547e-17 6.698805217688447e-17 -3.194989907511547e-17 -0.9889132051013222 0.14849468938677757
12663577333.333334 -0.987658215090779 0.15662455159885572 6.670708962361553e-17 -3.249940433195756e-17 6.670708962361553e-17 -3.249940433195756e-17 -0.9876583130614773 0.15662393380451692
12664194666.666666 -0.9863364936399053 0.16474319808108231 6.642162442519825e-17 -3.304644824657531e-17 6.642162442519825e-17 -3.304644824657531e-17 -0.9863365966839093 0.1647425811435769
12664812000.0 -0.9849480372853342 0.1728506981403722 6.613167806968368e-17 -3.359099396598811e-17 6.613167806968368e-17 -3.359099396598811e-17 -0.9849481453951775 0.17285008210135622
12665429333.333334 -0.9834929399691893 0.18094650322845876 6.583727234640751e-17 -3.4133004824215987e-17 6.583727234640751e-17 -3.4133004824215987e-17 -0.9834930531370638 0.1809458881295233
12666046666.666666 -0.9819713001425 0.18903006558823854 6.5538429344366e-17 -3.4672444344743784e-17 6.5538429344366e-17 -3.4672444344743784e-17 -0.981971418360256 0.1890294514709072
12666664000.0 -0.9803832207584996 0.197100838291056 6.52351714505646e-17 -3.5209276242981866e-17 6.52351714505646e-17 -3.5209276242981866e-17 -0.9803833440176465 0.19710022519678183
12667281333.333334 -0.9787288092656943 0.20515827527351255 6.49275213483725e-17 -3.574346442866652e-17 6.49275213483725e-17 -3.574346442866652e-17 -0.9787289375574019 0.20515766324367538
12667898666.666666 -0.9770081776005864 0.21320183137446916 6.461550201582265e-17 -3.6274973008308903e-17 6.461550201582265e-17 -3.6274973008308903e-17 -0.9770083109156834 0.21320122045037262
12668516000.0 -0.9752214421800507 0.2212309623721537 6.429913672391773e-17 -3.6803766287583184e-17 6.429913672391773e-17 -3.6803766287583184e-17 -0.9752215805090285 0.22123035259502288
12669133333.333334 -0.9733687238935596 0.22924512502051012 6.397844903490923e-17 -3.732980877371309e-17 6.397844903490923e-17 -3.732980877371309e-17 -0.9733688672265711 0.22924451643148838
12669750666.666666 -0.971450148094898 0.23724377708645494 6.365346280055413e-17 -3.7853065177848825e-17 6.365346280055413e-17 -3.7853065177848825e-17 -0.9714502964217573 0.23724316972660103
