! Parameters = {f0=12700.012000; bw=77.238000; Q=6100.000000; N=10; m_0_1=1.342237; m_1_1=1.368813; m_1_2=1.177049; m_2_2=1.368164; m_2_3=0.814012; m_2_8=0.004176; m_2_9=0.040880; m_3_3=1.366227; m_3_4=0.702541; m_3_7=0.004776; m_3_8=-0.092312; m_3_9=0.004176; m_4_4=1.363302; m_4_5=0.538876; m_4_6=0.008293; m_4_7=-0.112861; m_4_8=0.004776; m_5_5=1.363684; m_5_6=0.946231; m_5_7=0.008293; m_6_6=1.363683; m_6_7=0.539218; m_7_7=1.363316; m_7_8=0.702659; m_8_8=1.366225; m_8_9=0.814325; m_9_9=1.368159; m_9_10=1.178127; m_10_10=1.368803; m_10_11=1.343032}
!
! Created with skrf (http://scikit-rf.org).
# Hz S RI R 50.0 
!freq ReS11 ImS11 ReS21 ImS21 ReS12 ImS12 ReS22 ImS22
12607400000.0 0.44721281522631007 0.8944275811362042 -1.0494572131501714e-16 -1.12278155475428e-16 -1.0494572131501714e-16 -1.12278155475428e-16 0.44721218283759345 0.8944278973295937
12608017333.333334 0.4584987680195111 0.8886950431528206 -1.0634755741142627e-16 -1.1090959042531063e-16 -1.0634755741142627e-16 -1.1090959042531063e-16 0.45849813971463593 0.888695367309868
12608634666.666666 0.46971125338747355 0.8828201053674366 -1.077315647740042e-16 -1.0952354010479998e-16 -1.077315647740042e-16 -1.0952354010479998e-16 0.46971062926671153 0.882820437435424
12609252000.0 0.4808484747007711 0.8768037091491717 -1.0909752552997743e-16 -1.0812023654573276e-16 -1.0909752552997743e-16 -1.0812023654573276e-16 0.48084785486371323 0.8768040490741179
12609869333.333334 0.49190864738994383 0.870646818533669 -1.104452248234926e-16 -1.0669991449181541e-16 -1.104452248234926e-16 -1.0669991449181541e-16 0.4919080319354857 0.8706471662603402
12610486666.666666 0.5028899992312005 0.8643504200687624 -1.117744508492851e-16 -1.0526281135948393e-16 -1.117744508492851e-16 -1.0526281135948393e-16 0.5028893882575255 0.86435077554068
12611104000.0 0.5137907706309349 0.857915522656091 -1.1308499488599056e-16 -1.0380916719818769e-16 -1.1308499488599056e-16 -1.0380916719818769e-16 0.5137901642354984 0.8579158858155397
12611721333.333334 0.5246092149069818 0.8513431573898288 -1.1437665132873752e-16 -1.0233922465047546e-16 -1.1437665132873752e-16 -1.0233922465047546e-16 0.5246086131864971 0.8513435281778697
12612338666.666666 0.535343598568991 0.8446343773911914 -1.156492177213654e-16 -1.0085322891152445e-16 -1.156492177213654e-16 -1.0085322891152445e-16 0.5353430016194123 0.8446347557476669
12612956000.0 0.5459922015961383 0.8377902576397056 -1.1690249478811598e-16 -9.935142768826824e-17 -1.1690249478811598e-16 -9.935142768826824e-17 0.5459916095126456 0.8377906435032522
12613573333.333334 0.5565533177124925 0.8308118948011151 -1.1813628646465937e-16 -9.783407115829153e-17 -1.1813628646465937e-16 -9.783407115829153e-17 0.556552730589478 0.8308122881091728
12614190666.666666 0.5670252546606148 0.8237004070515372 -1.1935039992877995e-16 -9.63014119281147e-17 -1.1935039992877995e-16 -9.63014119281147e-17 0.567024672591665 0.8237008077403581
12614808000.0 0.5774063344726649 0.8164569338983186 -1.2054464563038117e-16 -9.475370499126598e-17 -1.2054464563038117e-16 -9.475370499126598e-17 0.5774057575505492 0.8164573419029801
12615425333.333334 0.587694893739275 0.8090826359974518 -1.217188373209827e-16 -9.319120768594316e-17 -1.217188373209827e-16 -9.319120768594316e-17 0.5876943220559276 0.8090830512518643
12616042666.666666 0.5978892838760814 0.801578694967593 -1.2287279208271822e-16 -9.161417965224955e-17 -1.2287279208271822e-16 -9.161417965224955e-17 0.5978887175225888 0.8015791174045119
12616660000.0 0.6079878713878867 0.7939463132007285 -1.2400633035669994e-16 -9.002288278917545e-17 -1.2400633035669994e-16 -9.002288278917545e-17 0.607987310454473 0.7939467427517661
12617277333.333334 0.6179890381304475 0.786186713669474 -1.2511927597091122e-16 -8.841758121111898e-17 -1.2511927597091122e-16 -8.841758121111898e-17 0.6179884827064586 0.7861871502651083
12617894666.666666 0.6278911815695325 0.7783011397312865 -1.2621145616745595e-16 -8.679854120417631e-17 -1.2621145616745595e-16 -8.679854120417631e-17 0.6278906317434235 0.778301583300874
12618512000.0 0.6376927150381523 0.7702908549288853 -1.2728270162932263e-16 -8.516603118198246e-17 -1.2728270162932263e-16 -8.516603118198246e-17 0.6376921708974723 0.770291305400672
12619129333.333334 0.6473920679903511 0.7621571427881396 -1.2833284650650127e-16 -8.352032164133907e-17 -1.2833284650650127e-16 -8.352032164133907e-17 0.64739152962173 0.7621576000892726
12619746666.666666 0.6569876862530846 0.7539013066122253 -1.2936172844159893e-16 -8.186168511741244e-17 -1.2936172844159893e-16 -8.186168511741244e-17 0.6569871537422196 0.7539017706687655
12620364000.0 0.6664780322752125 0.7455246692728313 -1.3036918859482976e-16 -8.019039613869034e-17 -1.3036918859482976e-16 -8.019039613869034e-17 0.666477505706852 0.7455251400097623
12620981333.333334 0.6758615853738602 0.7370285729981813 -1.3135507166843069e-16 -7.850673118162674e-17 -1.3135507166843069e-16 -7.850673118162674e-17 0.6758610648317943 0.7370290503394257
12621598666.666666 0.6851368419780922 0.7284143791579691 -1.3231922593050888e-16 -7.681096862495723e-17 -1.3231922593050888e-16 -7.681096862495723e-17 0.6851363275451363 0.7284148630263985
12622216000.0 0.6943023158698316 0.7196834680452171 -1.3326150323830162e-16 -7.510338870372389e-17 -1.3326150323830162e-16 -7.510338870372389e-17 0.6943018076278142 0.7196839583626641
12622833333.333334 0.7033565384220472 0.7108372386550659 -1.341817590608255e-16 -7.338427346304601e-17 -1.341817590608255e-16 -7.338427346304601e-17 0.7033560364517963 0.7108377353423371
12623450666.666666 0.7122980588338726 0.7018771084608043 -1.350798525009311e-16 -7.165390671161551e-17 -1.350798525009311e-16 -7.165390671161551e-17 0.7122975632152048 0.7018776114376951
12624068000.0 0.7211254443634848 0.6928045131863466 -1.3595564631677672e-16 -6.99125739748942e-17 -1.3595564631677672e-16 -6.99125739748942e-17 0.7211249551751897 0.6928050223716509
12624685333.333334 0.7298372805572679 0.6836209065765724 -1.3680900694270123e-16 -6.816056244804131e-17 -1.3680900694270123e-16 -6.816056244804131e-17 0.7298367978770989 0.6836214218880986
12625302666.666666 0.738432171476667 0.6743277601641927 -1.3763980450945132e-16 -6.639816094867503e-17 -1.3763980450945132e-16 -6.639816094867503e-17 0.738431695381326 0.6743282815187752
12625920000.0 0.74690873992182 0.6649265630339952 -1.384479128638746e-16 -6.462565986923163e-17 -1.384479128638746e-16 -6.462565986923163e-17 0.746908270486946 0.6649270903475077
12626537333.333334 0.7552656276522728 0.6554188215841998 -1.39233209587913e-16 -6.284335112927653e-17 -1.39233209587913e-16 -6.284335112927653e-17 0.755265164952431 0.65541935477157
12627154666.666666 0.7635014956044295 0.6458060592852956 -1.3999557601703455e-16 -6.105152812747594e-17 -1.3999557601703455e-16 -6.105152812747594e-17 0.7635010397130977 0.6458065982605179
12627772000.0 0.7716150241065252 0.6360898164354544 -1.407348972580818e-16 -5.925048569326715e-17 -1.407348972580818e-16 -5.925048569326715e-17 0.7716145750960849 0.6360903611116053
12628389333.333334 0.779604913089531 0.6262716499143711 -1.4145106220640048e-16 -5.744052003854622e-17 -1.4145106220640048e-16 -5.744052003854622e-17 0.7796044710312525 0.6262722002036213
12629006666.666666 0.7874698822960173 0.6163531329331438 -1.421439635624452e-16 -5.562192870891837e-17 -1.421439635624452e-16 -5.562192870891837e-17 0.7874694472600506 0.6163536887467733
12629624000.0 0.7952086714848949 0.6063358547826705 -1.4281349784770694e-16 -5.379501053487935e-17 -1.4281349784770694e-16 -5.379501053487935e-17 0.7952082435402592 0.606336416031084
12630241333.333334 0.8028200406335355 0.5962214205787747 -1.4345956542002117e-16 -5.196006558279099e-17 -1.4345956542002117e-16 -5.196006558279099e-17 0.8028196198481051 0.5962219871715131
12630858666.666666 0.8103027701363904 0.5860114510050946 -1.440820704882593e-16 -5.011739510564309e-17 -1.440820704882593e-16 -5.011739510564309e-17 0.8103023565768865 0.5860120228508523
12631476000.0 0.8176556610005835 0.5757075820531664 -1.4468092112639038e-16 -4.826730149363299e-17 -1.4468092112639038e-16 -4.826730149363299e-17 0.8176552547325637 0.5757081590598052
12632093333.333334 0.8248775350377305 0.5653114647606945 -1.4525602928688522e-16 -4.6410088224654026e-17 -1.4525602928688522e-16 -4.6410088224654026e-17 0.8248771361255777 0.565312046835258
12632710666.666666 0.8319672350528974 0.5548247649467714 -1.4580731081351033e-16 -4.454605981455263e-17 -1.4580731081351033e-16 -4.454605981455263e-17 0.8319668435598093 0.5548253519955009
12633328000.0 0.8389236250301797 0.5442491629447184 -1.4633468545348127e-16 -4.2675521767244284e-17 -1.4633468545348127e-16 -4.2675521767244284e-17 0.8389232410181585 0.5442497548730663
12633945333.333334 0.8457455903144395 0.5335863533332578 -1.4683807686896468e-16 -4.079878052473009e-17 -1.4683807686896468e-16 -4.079878052473009e-17 0.8457452138442835 0.5335869500459044
12634562666.666666 0.8524320377900769 0.522838044664751 -1.4731741264795263e-16 -3.891614341693889e-17 -1.4731741264795263e-16 -3.891614341693889e-17 0.8524316689213703 0.52283864606562
12635180000.0 0.8589818960561517 0.5120059591914754 -1.4777262431448104e-16 -3.702791861149484e-17 -1.4777262431448104e-16 -3.702791861149484e-17 0.8589815348472541 0.5120065651837479
12635797333.333334 0.8653941155980557 0.5010918325896574 -1.4820364733822975e-16 -3.51344150632768e-17 -1.4820364733822975e-16 -3.51344150632768e-17 0.865393762106095 0.5010924430757889
12636414666.666666 0.8716676689556889 0.49009741368136117 -1.4861042114344758e-16 -3.323594246398657e-17 -1.4861042114344758e-16 -3.323594246398657e-17 0.871667323236549 0.4900980285630958
12637032000.0 0.8778015508880846 0.4790244641542616 -1.4899288911725247e-16 -3.1332811191533464e-17 -1.4899288911725247e-16 -3.1332811191533464e-17 0.8778012129964002 0.4790250833326496
12637649333.333334 0.8837947785344915 0.46787475827936464 -1.493509986172822e-16 -2.942533225933526e-17 -1.493509986172822e-16 -2.942533225933526e-17 0.8837944485236374 0.4678753816547773
12638266666.666666 0.8896463915718582 0.4566500826267052 -1.4968470097869026e-16 -2.7513817265569807e-17 -1.4968470097869026e-16 -2.7513817265569807e-17 0.8896460694939411 0.4566507100988512
12638884000.0 0.8953554523687118 0.4453522357790781 -1.499939515204915e-16 -2.5598578342359935e-17 -1.499939515204915e-16 -2.5598578342359935e-17 0.895355138274563 0.4453528672470196
12639501333.333334 0.9009210461353988 0.43398302804384176 -1.5027870955127468e-16 -2.3679928104806555e-17 -1.5027870955127468e-16 -2.3679928104806555e-17 0.9009207400745655 0.4339836634060104
12640118666.666666 0.9063422810706427 0.4225442811628962 -1.5053893837424025e-16 -2.1758179600099403e-17 -1.5053893837424025e-16 -2.1758179600099403e-17 0.9063419830913779 0.42254492031710905
12640736000.0 0.911618288504558 0.41103782802051747 -1.5077460529161734e-16 -1.9833646256389693e-17 -1.5077460529161734e-16 -1.9833646256389693e-17 0.911617998653818 0.41103847086399503
12641353333.333334 0.9167482230376067 0.3994655123501839 -1.5098568160839245e-16 -1.790664183187746e-17 -1.5098568160839245e-16 -1.790664183187746e-17 0.9167479413610391 0.3994661587795649
12641970666.666666 0.9217312626762961 0.3878291884386283 -1.5117214263542272e-16 -1.5977480363608465e-17 -1.5117214263542272e-16 -1.5977480363608465e-17 0.921730989218235 0.38782983834998713
12642588000.0 0.9265666089647736 0.37613072082897586 -1.513339676918774e-16 -1.404647611638263e-17 -1.513339676918774e-16 -1.404647611638263e-17 0.926566343768232 0.37613137411783937
12643205333.333334 0.9312534871127676 0.3643719840219801 -1.5147114010702985e-16 -1.211394353163702e-17 -1.5147114010702985e-16 -1.211394353163702e-17 0.931253230219431 0.3643726405833444
12643822666.666666 0.9357911461198228 0.3525548621754526 -1.5158364722140073e-16 -1.0180197176285735e-17 -1.5158364722140073e-16 -1.0180197176285735e-17 0.9357908975700412 0.352555521903799
12644440000.0 0.9401788588955261 0.34068124880261724 -1.5167148038724655e-16 -8.245551691602456e-18 -1.5167148038724655e-16 -8.245551691602456e-18 0.9401786187283094 0.3406819115919304
12645057333.333334 0.9444159223760201 0.328753046468707 -1.517346349683996e-16 -6.310321742059174e-18 -1.517346349683996e-16 -6.310321742059174e-18 0.9444156906290314 0.32875371221249156
12645674666.666666 0.9485016576367549 0.31677216648583983 -1.517731103394539e-16 -4.374821964232826e-18 -1.517731103394539e-16 -4.374821964232826e-18 0.9485014343463044 0.3167728350771373
12646292000.0 0.9524354100011962 0.30474052860697304 -1.517869098843021e-16 -2.4393669156328806e-18 -1.517869098843021e-16 -2.4393669156328806e-18 0.9524351952022355 0.30474119993837917
12646909333.333334 0.956216549145747 0.29266006071823886 -1.517760409940182e-16 -5.042710237860825e-19 -1.517760409940182e-16 -5.042710237860825e-19 0.956216342871864 0.2926607346819209
12647526666.666666 0.9598444692007307 0.2805326985300848 -1.5174051506409486e-16 1.4301514649311552e-18 -1.5174051506409486e-16 1.4301514649311552e-18 0.959844271484144 0.2805333750177986
12648144000.0 0.9633185888475386 0.2683603852668874 -1.51680347491028e-16 3.3635865361866536e-18 -1.51680347491028e-16 3.3635865361866536e-18 0.9633183997190916 0.268361064169995
12648761333.333334 0.9666383514116901 0.2561450713558519 -1.5159555766825461e-16 5.295720458632338e-18 -1.5159555766825461e-16 5.295720458632338e-18 0.9666381709008495 0.25614575256533945
12649378666.666666 0.9698032249520441 0.2438887141144889 -1.5148616898144323e-16 7.226239834726548e-18 -1.5148616898144323e-16 7.226239834726548e-18 0.9698030530868915 0.2438893975209831
12649996000.0 0.9728127023461036 0.23159327743670877 -1.5135220880313684e-16 9.154831651525388e-18 -1.5135220880313684e-16 9.154831651525388e-18 0.9728125391533318 0.23159396293049483
12650613333.333334 0.9756663013712119 0.21926073147835598 -1.5119370848674905e-16 1.1081183331400337e-17 -1.5119370848674905e-16 1.1081183331400337e-17 0.9756661468761232 0.21926141894939596
12651230666.666666 0.9783635647818429 0.206893052341469 -1.510107033599224e-16 1.3004982782579445e-17 -1.510107033599224e-16 1.3004982782579445e-17 0.9783634190083427 0.2068937416794185
12651848000.0 0.9809040603828608 0.19449222175763828 -1.5080323271723333e-16 1.4925918449710067e-17 -1.5080323271723333e-16 1.4925918449710067e-17 0.980903923353455 0.19449291285186474
12652465333.333334 0.983287381098777 0.1820602267704649 -1.5057133981226482e-16 1.6843679364229026e-17 -1.5057133981226482e-16 1.6843679364229026e-17 0.9832872528345691 0.18206091951006517
12653082666.666666 0.9855131450389675 0.1695990594172233 -1.5031507184903876e-16 1.8757955194617834e-17 -1.5031507184903876e-16 1.8757955194617834e-17 0.9855130255596537 0.16959975369104133
12653700000.0 0.9875809955589133 0.15711071640938745 -1.5003447997279958e-16 2.0668436296620342e-17 -1.5003447997279958e-16 2.0668436296620342e-17 0.9875808848827792 0.15711141210603205
12654317333.333334 0.9894906013172469 0.14459719881324803 -1.497296192601787e-16 2.2574813763201087e-17 -1.497296192601787e-16 2.2574813763201087e-17 0.9894904994611683 0.1445978958211113
12654934666.666666 0.9912416563289399 0.13206051172876937 -1.4940054870870628e-16 2.44767794744924e-17 -1.4940054870870628e-16 2.44767794744924e-17 0.9912415633083758 0.1320612099360438
12655552000.0 0.9928338800143173 0.11950266396830023 -1.4904733122570132e-16 2.6374026147508723e-17 -1.4904733122570132e-16 2.6374026147508723e-17 0.9928337958433108 0.11950336326299739
12656169333.333334 0.9942670172439525 0.10692566773520028 -1.4867003361653265e-16 2.82662473857146e-17 -1.4867003361653265e-16 2.82662473857146e-17 0.9942669419351264 0.10692636800516821
12656786666.666666 0.9955408383796212 0.09433153830085152 -1.482687265722442e-16 3.015313772846308e-17 -1.482687265722442e-16 3.015313772846308e-17 0.9955407719441782 0.0943322394337931
12657404000.0 0.9966551393110626 0.08172229368202384 -1.4784348465655362e-16 3.203439270026273e-17 -1.4784348465655362e-16 3.203439270026273e-17 0.9966550817587818 0.08172299556551445
12658021333.333334 0.9976097414886892 0.06909995431746202 -1.4739438629223139e-16 3.390970885983996e-17 -1.4739438629223139e-16 3.390970885983996e-17 0.9976096928279257 0.06910065683896785
12658638666.666666 0.9984044919521959 0.05646654274419825 -1.4692151374687357e-16 3.577878384895602e-17 -1.4692151374687357e-16 3.577878384895602e-17 0.9984044521898792 0.05646724579109428
12659256000.0 0.9990392633550816 0.043824083273244524 -1.4642495311800637e-16 3.764131644123814e-17 -1.4642495311800637e-16 3.764131644123814e-17 0.9990392324967156 0.04382478673283249
12659873333.333334 0.999513953985036 0.03117460166551121 -1.4590479431764172e-16 3.9497006590523486e-17 -1.4590479431764172e-16 3.9497006590523486e-17 0.9995139320346967 0.03117530542503772
12660490666.666666 0.9998284877802429 0.018520124807267054 -1.4536113105616953e-16 4.1345555479201595e-17 -1.4536113105616953e-16 4.1345555479201595e-17 0.999828474740579 0.01852082875394166
12661108000.0 0.9999828143415819 0.005862680384793364 -1.4479406082564994e-16 4.318666556628775e-17 -1.4479406082564994e-16 4.318666556628775e-17 0.9999828102138124 0.005863384405806599
12661725333.333334 0.9999769089406837 -0.00679570343972624 -1.4420368488252035e-16 4.5020040635196515e-17 -1.4420368488252035e-16 4.5020040635196515e-17 0.9999769137246024 -0.00679499945718471
12662342666.666666 0.9998107725239068 -0.019452998353812884 -1.4359010822966351e-16 4.684538584139662e-17 -1.4359010822966351e-16 4.684538584139662e-17 0.9998107862178789 -0.01945229452253626
12662960000.0 0.9994844317121823 -0.03210717621935757 -1.4295343959789798e-16 4.866240775974193e-17 -1.4295343959789798e-16 4.866240775974193e-17 0.9994844543131441 -0.0321064726521038
12663577333.333334 0.9989979387967415 -0.04475620939788341 -1.4229379142687304e-16 5.04708144315544e-17 -1.4229379142687304e-16 5.04708144315544e-17 0.9989979703002044 -0.044755506207357194
12664194666.666666 0.9983513717307466 -0.05739807107510278 -1.416112798453396e-16 5.227031541153114e-17 -1.416112798453396e-16 5.227031541153114e-17 0.9983514121307943 -0.05739736837393738
12664812000.0 0.9975448341167928 -0.07003073558591047 -1.4090602465087218e-16 5.4060621814266094e-17 -1.4090602465087218e-16 5.4060621814266094e-17 0.9975448834060868 -0.07003003348664995
12665429333.333334 0.9965784551903119 -0.08265217873896594 -1.4017814928895712e-16 5.584144636062944e-17 -1.4017814928895712e-16 5.584144636062944e-17 0.9965785133600856 -0.08265147735404664
12666046666.666666 0.9954523897988712 -0.09526037814075465 -1.3942778083154344e-16 5.761250342373922e-17 -1.3942778083154344e-16 5.761250342373922e-17 0.9954524568389417 -0.09525967758248792
12666664000.0 0.9941668183773299 -0.10785331352027028 -1.3865504995496425e-16 5.937350907477489e-17 -1.3865504995496425e-16 5.937350907477489e-17 0.9941668942760892 -0.10785261390082368
12667281333.333334 0.9927219469189787 -0.12042896705193815 -1.3786009091733272e-16 6.112418112836998e-17 -1.3786009091733272e-16 6.112418112836998e-17 0.9927220316634031 -0.12042826848331813
12667898666.666666 0.9911180069424932 -0.13298532367950805 -1.3704304153531533e-16 6.28642391878226e-17 -1.3704304153531533e-16 6.28642391878226e-17 0.9911181005181426 -0.1329846262735417
12668516000.0 0.9893552554548318 -0.14552037143887867 -1.3620404316036908e-16 6.45934046899184e-17 -1.3620404316036908e-16 6.45934046899184e-17 0.9893553578458516 -0.1455196753071958
12669133333.333334 0.9874339749100883 -0.1580321017802017 -1.353432406544127e-16 6.631140094944735e-17 -1.353432406544127e-16 6.631140094944735e-17 0.9874340860992138 -0.1580314070342172
12669750666.666666 0.9853544731642094 -0.17051850988994763 -1.3446078236492194e-16 6.801795320342884e-17 -1.3446078236492194e-16 6.801795320342884e-17 0.9853545931327687 -0.17051781664084362
12670368000.0 0.9831170834256601 -0.18297759501214558 -1.3355682009946336e-16 6.971278865501441e-17 -1.3355682009946336e-16 6.971278865501441e-17 0.9831172121535751 -0.18297690337085326
