! Parameters = {f0=12700.012000; bw=77.238000; Q=6100.000000; N=10; m_0_1=1.155450; m_1_1=-1.432989; m_1_2=0.990262; m_2_2=-1.433638; m_2_3=0.627225; m_2_8=-0.005164; m_2_9=0.031540; m_3_3=-1.435575; m_3_4=0.515754; m_3_7=-0.004564; m_3_8=-0.101652; m_3_9=-0.005164; m_4_4=-1.438500; m_4_5=0.352089; m_4_6=-0.001047; m_4_7=-0.122201; m_4_8=-0.004564; m_5_5=-1.438118; m_5_6=0.759444; m_5_7=-0.001047; m_6_6=-1.438119; m_6_7=0.352431; m_7_7=-1.438486; m_7_8=0.515872; m_8_8=-1.435577; m_8_9=0.627538; m_9_9=-1.433643; m_9_10=0.991340; m_10_10=-1.432999; m_10_11=1.156245}
!
! Created with skrf (http://scikit-rf.org).
# Hz S RI R 50.0 
!freq ReS11 ImS11 ReS21 ImS21 ReS12 ImS12 ReS22 ImS22
12607400000.0 0.6565219923179604 0.7543068829082163 -5.259086342245016e-17 -3.34565273368983e-17 -5.259086342245016e-17 -3.34565273368983e-17 0.6565215329810634 0.7543072826985352
12608017333.333334 0.661888385406229 0.7496024047881572 -5.2820871329954835e-17 -3.306919615209937e-17 -5.2820871329954835e-17 -3.306919615209937e-17 0.6618879289564891 0.7496028078266139
12608634666.666666 0.6672210683260357 0.7448597492023024 -5.3048030696390843e-17 -3.268028973822957e-17 -5.3048030696390843e-17 -3.268028973822957e-17 0.6672206147864156 0.7448601554680525
12609252000.0 0.6725197694823704 0.7400791576954677 -5.327233077925142e-17 -3.228982901465478e-17 -5.327233077925142e-17 -3.228982901465478e-17 0.672519318875683 0.7400795671675048
12609869333.333334 0.6777842190108601 0.7352608737446128 -5.3493760989451454e-17 -3.189783497364932e-17 -5.3493760989451454e-17 -3.189783497364932e-17 0.6777837713597668 0.7352612864017697
12610486666.666666 0.68301414879158 0.7304051427463857 -5.3712310891812934e-17 -3.150432867928465e-17 -5.3712310891812934e-17 -3.150432867928465e-17 0.6830137041185882 0.7304055585673338
12611104000.0 0.6882092924627657 0.7255122120045627 -5.392797020555542e-17 -3.110933126628991e-17 -5.392797020555542e-17 -3.110933126628991e-17 0.6882088507902312 0.7255126309678165
12611721333.333334 0.6933693854342395 0.720582330717593 -5.4140728804766565e-17 -3.071286393893291e-17 -5.4140728804766565e-17 -3.071286393893291e-17 0.6933689467843616 0.7205827528015075
12612338666.666666 0.6984941649010281 0.7156157499657689 -5.4350576718870886e-17 -3.0314947969883417e-17 -5.4350576718870886e-17 -3.0314947969883417e-17 0.6984937292958497 0.7156161751485426
12612956000.0 0.7035833698566833 0.7106127226984946 -5.455750413309583e-17 -2.9915604699064254e-17 -5.455750413309583e-17 -2.9915604699064254e-17 0.7035829373180915 0.7106131509581708
12613573333.333334 0.7086367411065388 0.705573503721447 -5.476150138890878e-17 -2.95148555325384e-17 -5.476150138890878e-17 -2.95148555325384e-17 0.7086363116562612 0.7055739350359137
12614190666.666666 0.7136540212809489 0.7004983496835557 -5.4962558984474364e-17 -2.911272194133818e-17 -5.4962558984474364e-17 -2.911272194133818e-17 0.7136535949405544 0.7004987840305485
12614808000.0 0.718634954848458 0.695387519063874 -5.5160667575078076e-17 -2.870922546034016e-17 -5.5160667575078076e-17 -2.870922546034016e-17 0.718634531639354 0.6953879564209751
12615425333.333334 0.7235792881286729 0.6902412721585527 -5.535581797355895e-17 -2.83043876871043e-17 -5.535581797355895e-17 -2.83043876871043e-17 0.7235788680721067 0.6902417125031942
12616042666.666666 0.7284867693053451 0.6850598710674242 -5.554800115072455e-17 -2.789823028072745e-17 -5.554800115072455e-17 -2.789823028072745e-17 0.7284863524224001 0.6850603143768874
12616660000.0 0.733357148439034 0.6798435796808131 -5.573720823575763e-17 -2.749077496069408e-17 -5.573720823575763e-17 -2.749077496069408e-17 0.7333567347506316 0.6798440259322319
12617277333.333334 0.7381901774799977 0.6745926636659364 -5.592343051662338e-17 -2.708204350570708e-17 -5.592343051662338e-17 -2.708204350570708e-17 0.7381897670068925 0.6745931128362957
12617894666.666666 0.7429856102806666 0.6693073904535349 -5.610665944045155e-17 -2.667205775254907e-17 -5.610665944045155e-17 -2.667205775254907e-17 0.7429852030434484 0.6693078425196738
12618512000.0 0.7477432026083346 0.6639880292240861 -5.62868866139339e-17 -2.6260839594891844e-17 -5.62868866139339e-17 -2.6260839594891844e-17 0.7477427986274267 0.6639884841626985
12619129333.333334 0.7524627121574667 0.6586348508942445 -5.646410380368701e-17 -2.584841098215924e-17 -5.646410380368701e-17 -2.584841098215924e-17 0.7524623114531244 0.6586353086818801
12619746666.666666 0.7571438985620954 0.6532481281029785 -5.663830293662505e-17 -2.5434793918347512e-17 -5.663830293662505e-17 -2.5434793918347512e-17 0.7571435011544047 0.6532485887160446
12620364000.0 0.761786523408118 0.6478281351976216 -5.680947610031946e-17 -2.5020010460852814e-17 -5.680947610031946e-17 -2.5020010460852814e-17 0.7617861293169952 0.6478285986123832
12620981333.333334 0.7663903502453081 0.6423751482200477 -5.697761554334396e-17 -2.4604082719311054e-17 -5.697761554334396e-17 -2.4604082719311054e-17 0.7663899594904996 0.6423756144126307
12621598666.666666 0.7709551445995088 0.6368894448924433 -5.714271367562153e-17 -2.4187032854411153e-17 -5.714271367562153e-17 -2.4187032854411153e-17 0.7709547572005883 0.6368899138388335
12622216000.0 0.7754806739844258 0.631371304603334 -5.730476306875148e-17 -2.3768883076731934e-17 -5.730476306875148e-17 -2.3768883076731934e-17 0.7754802899607934 0.631371776279379
12622833333.333334 0.7799667079136301 0.6258210083931581 -5.746375645633924e-17 -2.334965564555104e-17 -5.746375645633924e-17 -2.334965564555104e-17 0.7799663272845136 0.6258214827745698
12623450666.666666 0.7844130179120841 0.6202388389402196 -5.761968673430754e-17 -2.2929372867676222e-17 -5.761968673430754e-17 -2.2929372867676222e-17 0.784412640696536 0.6202393160025743
12624068000.0 0.7888193775280086 0.6146250805460025 -5.777254696120434e-17 -2.2508057096259632e-17 -5.777254696120434e-17 -2.2508057096259632e-17 0.7888190037449061 0.6146255602647421
12624685333.333334 0.7931855623442909 0.6089800191208458 -5.792233035850681e-17 -2.208573072960067e-17 -5.792233035850681e-17 -2.208573072960067e-17 0.7931851920123341 0.6089805014712796
12625302666.666666 0.7975113499898809 0.603303942169428 -5.806903031089966e-17 -2.1662416209989452e-17 -5.806903031089966e-17 -2.1662416209989452e-17 0.7975109831275923 0.6033044271267334
12625920000.0 0.8017965201512371 0.5975971387759667 -5.821264036657057e-17 -2.123813602248096e-17 -5.821264036657057e-17 -2.123813602248096e-17 0.8017961567769605 0.5975976263151908
12626537333.333334 0.8060408545834264 0.5918598995896533 -5.83531542374695e-17 -2.0812912693741757e-17 -5.83531542374695e-17 -2.0812912693741757e-17 0.8060404947153268 0.5918603896857142
12627154666.666666 0.8102441371212932 0.586092516809783 -5.849056579958054e-17 -2.038676879083712e-17 -5.849056579958054e-17 -2.038676879083712e-17 0.8102437807773553 0.5860930094374717
12627772000.0 0.8144061536905162 0.5802952841708037 -5.862486909317856e-17 -1.9959726920032918e-17 -5.862486909317856e-17 -1.9959726920032918e-17 0.8144058008885424 0.5802957793047834
12628389333.333334 0.8185266923183958 0.5744684969275163 -5.875605832306638e-17 -1.9531809725629414e-17 -5.875605832306638e-17 -1.9531809725629414e-17 0.818526343076008 0.5744689945423266
12629006666.666666 0.8226055431447667 0.5686124518398779 -5.888412785882508e-17 -1.9103039888728417e-17 -5.888412785882508e-17 -1.9103039888728417e-17 0.8226051974794025 0.5686129519099331
12629624000.0 0.8266424984326335 0.5627274471579533 -5.900907223503253e-17 -1.8673440126067436e-17 -5.900907223503253e-17 -1.8673440126067436e-17 0.826642156361547 0.5627279496575461
12630241333.333334 0.8306373525787224 0.5568137826067756 -5.913088615149127e-17 -1.8243033188799025e-17 -5.913088615149127e-17 -1.8243033188799025e-17 0.8306370141189832 0.5568142875100772
12630858666.666666 0.8345899021239818 0.550871759371032 -5.924956447343559e-17 -1.7811841861305604e-17 -5.924956447343559e-17 -1.7811841861305604e-17 0.8345895672924739 0.550872266652094
12631476000.0 0.838499945763995 0.5449016800796559 -5.93651022317384e-17 -1.737988895998433e-17 -5.93651022317384e-17 -1.737988895998433e-17 0.8384996145774156 0.5449021897124108
12632093333.333334 0.8423672843591348 0.5389038487905522 -5.947749462310331e-17 -1.694719733205467e-17 -5.947749462310331e-17 -1.694719733205467e-17 0.8423669568339947 0.5389043607488159
12632710666.666666 0.8461917209447569 0.5328785709750452 -5.958673701024893e-17 -1.6513789854357767e-17 -5.958673701024893e-17 -1.6513789854357767e-17 0.846191397097377 0.5328790852325165
12633328000.0 0.8499730607412567 0.5268261535022675 -5.969282492209217e-17 -1.607968943212953e-17 -5.969282492209217e-17 -1.607968943212953e-17 0.8499727405877718 0.5268266700325327
12633945333.333334 0.8537111111639638 0.5207469046235836 -5.979575405390842e-17 -1.5644918997823413e-17 -5.979575405390842e-17 -1.5644918997823413e-17 0.8537107947203171 0.5207474234001148
12634562666.666666 0.8574056818329031 0.5146411339569616 -5.989552026749735e-17 -1.5209501509881584e-17 -5.989552026749735e-17 -1.5209501509881584e-17 0.8574053691148483 0.5146416549531191
12635180000.0 0.8610565845825964 0.5085091524710338 -5.999211959132922e-17 -1.4773459951542287e-17 -5.999211959132922e-17 -1.4773459951542287e-17 0.8610562756056938 0.5085096756600664
12635797333.333334 0.8646636334715367 0.5023512724694276 -6.008554822069057e-17 -1.4336817329617645e-17 -6.008554822069057e-17 -1.4336817329617645e-17 0.8646633282511581 0.5023517978244775
12636414666.666666 0.8682266447917282 0.496167807574768 -6.017580251781471e-17 -1.3899596673296297e-17 -6.017580251781471e-17 -1.3899596673296297e-17 0.868226343343049 0.49616833506886737
12637032000.0 0.8717454370780031 0.48995907271274813 -6.026287901200706e-17 -1.3461821032928103e-17 -6.026287901200706e-17 -1.3461821032928103e-17 0.8717451394160073 0.489959602318824
12637649333.333334 0.8752198311173245 0.4837253840959929 -6.034677439976248e-17 -1.3023513478808402e-17 -6.034677439976248e-17 -1.3023513478808402e-17 0.8752195372568018 0.4837259157868676
12638266666.666666 0.8786496499578184 0.47746705920812965 -6.042748554486921e-17 -1.2584697099978677e-17 -6.042748554486921e-17 -1.2584697099978677e-17 0.8786493599133619 0.47746759295652086
12638884000.0 0.882034718917875 0.4711844167874404 -6.050500947850985e-17 -1.21453950030028e-17 -6.050500947850985e-17 -1.21453950030028e-17 0.8820344327038846 0.47118495256596515
12639501333.333334 0.8853748655950273 0.4648777768106826 -6.057934339935004e-17 -1.170563031075827e-17 -6.057934339935004e-17 -1.170563031075827e-17 0.8853745832257042 0.46487831459185636
12640118666.666666 0.8886699198746165 0.45854746047699024 -6.065048467361651e-17 -1.1265426161237383e-17 -6.065048467361651e-17 -1.1265426161237383e-17 0.8886696413639662 0.45854800023322956
12640736000.0 0.8919197139387007 0.45219379019106465 -6.071843083517467e-17 -1.0824805706303316e-17 -6.071843083517467e-17 -1.0824805706303316e-17 0.8919194393005299 0.45219433189468783
12641353333.333334 0.8951240822743081 0.44581708954730676 -6.078317958558501e-17 -1.0383792110514938e-17 -6.078317958558501e-17 -1.0383792110514938e-17 0.8951238115222249 0.44581763317053563
12641970666.666666 0.8982828616821185 0.4394176833128583 -6.084472879416297e-17 -9.942408549882405e-18 -6.084472879416297e-17 -9.942408549882405e-18 0.8982825948295317 0.4394182288278196
12642588000.0 0.9013958912846017 0.43299589741138844 -6.090307649802191e-17 -9.500678210667484e-18 -6.090307649802191e-17 -9.500678210667484e-18 0.9013956283447211 0.43299644479011573
12643205333.333334 0.9044630125343196 0.4265520589062936 -6.095822090210958e-17 -9.058624288173518e-18 -6.095822090210958e-17 -9.058624288173518e-18 0.904462753520154 0.42655260812072804
12643822666.666666 0.9074840692219457 0.4200864959841399 -6.101016037923785e-17 -8.61626998552153e-18 -6.101016037923785e-17 -8.61626998552153e-18 0.9074838141463031 0.42008704700613214
12644440000.0 0.91045890748426 0.4135995379378727 -6.1058893470101e-17 -8.173638512441939e-18 -6.1058893470101e-17 -8.173638512441939e-18 0.9104586563597457 0.4136000907391837
12645057333.333334 0.9133873758118994 0.40709151515022507 -6.110441888328615e-17 -7.730753084064761e-18 -6.110441888328615e-17 -7.730753084064761e-18 0.9133871286509169 0.4070920697025281
12645674666.666666 0.916269325057173 0.40056275907668654 -6.114673549527512e-17 -7.28763691970295e-18 -6.114673549527512e-17 -7.28763691970295e-18 0.9162690818719216 0.4005633153515681
12646292000.0 0.9191046084416407 0.39401360222864495 -6.118584235043822e-17 -6.8443132416343296e-18 -6.118584235043822e-17 -6.8443132416343296e-18 0.9191043692441183 0.39401416019760743
12646909333.333334 0.9218930815635248 0.3874443781566104 -6.122173866101747e-17 -6.4008052738994995e-18 -6.122173866101747e-17 -6.4008052738994995e-18 0.9218928463655233 0.38744493779107214
12647526666.666666 0.9246346024051408 0.38085542143304296 -6.125442380710227e-17 -5.957136241086139e-18 -6.125442380710227e-17 -5.957136241086139e-18 0.9246343712182482 0.3808559827043404
12648144000.0 0.9273290313400884 0.37424706763541876 -6.128389733659765e-17 -5.513329367105133e-18 -6.128389733659765e-17 -5.513329367105133e-18 0.9273288041756853 0.3742476305148073
12648761333.333334 0.9299762311403865 0.3676196533290571 -6.13101589651799e-17 -5.069407874000203e-18 -6.13101589651799e-17 -5.069407874000203e-18 0.9299760080096516 0.3676202177877143
12649378666.666666 0.9325760669833933 0.36097351605019523 -6.133320857624768e-17 -4.625394980723382e-18 -6.133320857624768e-17 -4.625394980723382e-18 0.9325758478972946 0.36097408205921977
12649996000.0 0.9351284064587938 0.3543089942884493 -6.135304622086181e-17 -4.18131390193017e-18 -6.135304622086181e-17 -4.18131390193017e-18 0.9351281914280942 0.3543095618188641
12650613333.333334 0.9376331195752374 0.34762642746986805 -6.136967211767771e-17 -3.737187846763276e-18 -6.136967211767771e-17 -3.737187846763276e-18 0.9376329086104929 0.34762699649262196
12651230666.666666 0.9400900787669993 0.3409261559395407 -6.138308665286786e-17 -3.2930400176562596e-18 -6.138308665286786e-17 -3.2930400176562596e-18 0.9400898718785563 0.3409267264255087
12651848000.0 0.9424991589004946 0.3342085209442079 -6.139329038003666e-17 -2.8488936091135652e-18 -6.139329038003666e-17 -2.8488936091135652e-18 0.9424989560984919 0.3342090928641937
12652465333.333334 0.9448602372806326 0.3274738646149363 -6.140028402012633e-17 -2.404771806507184e-18 -6.140028402012633e-17 -2.404771806507184e-18 0.9448600385749992 0.3274744379396732
12653082666.666666 0.9471731936570377 0.3207225299497738 -6.140406846131326e-17 -1.9606977848846975e-18 -6.140406846131326e-17 -1.9606977848846975e-18 0.9471729990574933 0.3207231046499264
12653700000.0 0.9494379102302382 0.31395486079609247 -6.140464475889741e-17 -1.516694707734708e-18 -6.140464475889741e-17 -1.516694707734708e-18 0.9494377197462931 0.31395543684225863
12654317333.333334 0.9516542716576035 0.30717120183326535 -6.14020141351811e-17 -1.072785725812695e-18 -6.14020141351811e-17 -1.072785725812695e-18 0.9516540852985567 0.3071717791959767
12654934666.666666 0.9538221650592342 0.30037189855505686 -6.139617797934053e-17 -6.289939759243581e-19 -6.139617797934053e-17 -6.289939759243581e-19 0.9538219828341749 0.30037247720478144
12655552000.0 0.9559414800237862 0.2935572972518124 -6.138713784728803e-17 -1.853425797206356e-19 -6.138713784728803e-17 -1.853425797206356e-19 0.9559413019415902 0.29355787715895487
12656169333.333334 0.9580121086139385 0.2867277449932788 -6.137489546152601e-17 2.581453574903114e-19 -6.137489546152601e-17 2.581453574903114e-19 0.9580119346832716 0.28672832612818344
12656786666.666666 0.9600339453720524 0.27988358961044313 -6.135945271099167e-17 7.014467479559727e-19 -6.135945271099167e-17 7.014467479559727e-19 0.960033775601367 0.2798841719433939
12657404000.0 0.9620068873254278 0.27302517967816825 -6.134081165089393e-17 1.1445385226630596e-18 -6.134081165089393e-17 1.1445385226630596e-18 0.9620067217229648 0.27302576317939165
12658021333.333334 0.9639308339916262 0.26615286449719683 -6.131897450254104e-17 1.587397632547544e-18 -6.131897450254104e-17 1.587397632547544e-18 0.9639306725654117 0.2661534491368621
12658638666.666666 0.9658056873835182 0.2592669940765774 -6.129394365316011e-17 2.030001049675286e-18 -6.129394365316011e-17 2.030001049675286e-18 0.9658055301413668 0.2592675798247993
12659256000.0 0.9676313520143439 0.2523679191156219 -6.126572165570766e-17 2.472325768447248e-18 -6.126572165570766e-17 2.472325768447248e-18 0.9676311989638536 0.25236850594246096
12659873333.333334 0.9694077349025133 0.24545599098623358 -6.123431122867154e-17 2.914348806787376e-18 -6.123431122867154e-17 2.914348806787376e-18 0.9694075860510716 0.2454565788616993
12660490666.666666 0.9711347455763758 0.2385315617149324 -6.119971525586561e-17 3.3560472073183808e-18 -6.119971525586561e-17 3.3560472073183808e-18 0.9711346009311523 0.2385321506089829
12661108000.0 0.972812296078838 0.23159498396484052 -6.116193678621274e-17 3.797398038580975e-18 -6.116193678621274e-17 3.797398038580975e-18 0.9728121556467904 0.23159557384738572
12661725333.333334 0.9744403009718045 0.22464661101791658 -6.112097903352402e-17 4.238378396181748e-18 -6.112097903352402e-17 4.238378396181748e-18 0.9744401647596727 0.22464720185881842
12662342666.666666 0.9760186773405748 0.21768679675674005 -6.107684537626433e-17 4.6789654040086935e-18 -6.107684537626433e-17 4.6789654040086935e-18 0.976018545354885 0.21768738852581498
12662960000.0 0.9775473447980202 0.21071589564671042 -6.102953935731315e-17 5.11913621539962e-18 -6.102953935731315e-17 5.11913621539962e-18 0.977547217045082 0.21071648831373044
12663577333.333334 0.9790262254887258 0.20373426271777229 -6.097906468371564e-17 5.558868014318992e-18 -6.097906468371564e-17 5.558868014318992e-18 0.9790261019746317 0.20373485625246646
12664194666.666666 0.980455244092905 0.19674225354655486 -6.092542522642446e-17 5.9981380165483354e-18 -6.092542522642446e-17 5.9981380165483354e-18 0.9804551248235327 0.19674284791861124
12664812000.0 0.9818343278302881 0.18974022423804124 -6.086862502003493e-17 6.436923470848501e-18 -6.086862502003493e-17 6.436923470848501e-18 0.9818342128112971 0.189740819417108
12665429333.333334 0.9831634064637821 0.18272853140762532 -6.080866826250948e-17 6.8752016601474785e-18 -6.080866826250948e-17 6.8752016601474785e-18 0.9831632957006161 0.18272912736331265
12666046666.666666 0.984442412303071 0.1757075321628669 -6.074555931489649e-17 7.312949902698285e-18 -6.074555931489649e-17 7.312949902698285e-18 0.9844423058009563 0.17570812886474846
12666664000.0 0.9856712802080768 0.16867758408521988 -6.067930270103745e-17 7.750145553262195e-18 -6.067930270103745e-17 7.750145553262195e-18 0.9856711779720214 0.16867818150283415
12667281333.333334 0.9868499475922379 0.16163904521201566 -6.060990310726896e-17 8.186766004263711e-18 -6.060990310726896e-17 8.186766004263711e-18 0.986849849627033 0.16163964331486774
12667898666.666666 0.9879783544257376 0.15459227401803333 -6.053736538211476e-17 8.622788686958705e-18 -6.053736538211476e-17 8.622788686958705e-18 0.9879782607359553 0.15459287277559625
12668516000.0 0.989056443238541 0.14753762939732554 -6.046169453596713e-17 9.058191072610272e-18 -6.046169453596713e-17 9.058191072610272e-18 0.989056353828536 0.14753822877904202
12669133333.333334 0.9900841591233152 0.1404754706449963 -6.038289574076712e-17 9.492950673619186e-18 -6.038289574076712e-17 9.492950673619186e-18 0.9900840739972243 0.14047607062028047
12669750666.666666 0.9910614497382375 0.13340615743884637 -6.030097432966679e-17 9.927045044711813e-18 -6.030097432966679e-17 9.927045044711813e-18 0.991061368899978 0.13340675797708484
12670368000.0 0.9919882653096691 0.12633004982096974 -6.02159357966915e-17 1.0360451784073888e-17 -6.02159357966915e-17 1.0360451784073888e-17 0.9919881887629406 0.12633065089152365
