! Parameters = {f0=12700.012000; bw=77.238000; Q=6100.000000; N=10; m_0_1=1.287382; m_1_1=0.545990; m_1_2=1.122194; m_2_2=0.545341; m_2_3=0.759157; m_2_8=0.001433; m_2_9=0.038137; m_3_3=0.543404; m_3_4=0.647686; m_3_7=0.002033; m_3_8=-0.095055; m_3_9=0.001433; m_4_4=0.540479; m_4_5=0.484021; m_4_6=0.005550; m_4_7=-0.115604; m_4_8=0.002033; m_5_5=0.540861; m_5_6=0.891376; m_5_7=0.005550; m_6_6=0.540860; m_6_7=0.484363; m_7_7=0.540493; m_7_8=0.647804; m_8_8=0.543402; m_8_9=0.759470; m_9_9=0.545336; m_9_10=1.123272; m_10_10=0.545980; m_10_11=1.288177}
!
! Created with skrf (http://scikit-rf.org).
# Hz S RI R 50.0 
!freq ReS11 ImS11 ReS21 ImS21 ReS12 ImS12 ReS22 ImS22
12607400000.0 -0.9521711519334694 0.30556520977609464 9.911055266668347e-17 -6.759311098389477e-17 9.911055266668347e-17 -6.759311098389477e-17 -0.9521713591790193 0.3055645639778901
12608017333.333334 -0.948740761376146 0.31605532380143453 9.833316749710388e-17 -6.86781085856206e-17 9.833316749710388e-17 -6.86781085856206e-17 -0.9487409757259898 0.31605468036135065
12608634666.666666 -0.9451948046395796 0.32650693910262535 9.754391506083432e-17 -6.975418032523877e-17 9.754391506083432e-17 -6.975418032523877e-17 -0.945195026066913 0.32650629809880505
12609252000.0 -0.9415337136570786 0.33691878256774155 9.674289768381503e-17 -7.082119652256978e-17 9.674289768381503e-17 -7.082119652256978e-17 -0.9415339421342382 0.33691814407802323
12609869333.333334 -0.9377579343864784 0.34728958592941483 9.593021910771892e-17 -7.187902866878025e-17 9.593021910771892e-17 -7.187902866878025e-17 -0.9377581698849443 0.34728895003132293
12610486666.666666 -0.9338679267558436 0.3576180859192704 9.510598447658632e-17 -7.292754944179095e-17 9.510598447658632e-17 -7.292754944179095e-17 -0.9338681692462435 0.357617452690006
12611104000.0 -0.9298641646073015 0.367903024422177 9.427030032323818e-17 -7.39666327216024e-17 9.427030032323818e-17 -7.39666327216024e-17 -0.9298644140594152 0.3679023939386091
12611721333.333334 -0.9257471356395384 0.3781431486289416 9.342327455557512e-17 -7.499615360539896e-17 9.342327455557512e-17 -7.499615360539896e-17 -0.9257473920222998 0.3781425209675968
12612338666.666666 -0.9215173413482061 0.3883372111893903 9.256501644268177e-17 -7.601598842253321e-17 9.256501644268177e-17 -7.601598842253321e-17 -0.9215176046297086 0.3883365864264441
12612956000.0 -0.9171752969649065 0.3984839703641225 9.169563660075742e-17 -7.702601474936549e-17 9.169563660075742e-17 -7.702601474936549e-17 -0.9171755671124058 0.3984833485753898
12613573333.333334 -0.9127215313944996 0.4085821901756107 9.081524697894025e-17 -7.80261114238779e-17 9.081524697894025e-17 -7.80261114238779e-17 -0.9127218083744184 0.4085815714365369
12614190666.666666 -0.9081565871505318 0.4186306405590957 8.992396084489522e-17 -7.901615856021773e-17 8.992396084489522e-17 -7.901615856021773e-17 -0.9081568709284642 0.4186300249447471
12614808000.0 -0.9034810202892876 0.42862809751210595 8.902189277031265e-17 -7.999603756299665e-17 8.902189277031265e-17 -7.999603756299665e-17 -0.9034813108300033 0.42862748509716136
12615425333.333334 -0.8986954003419532 0.43857334324378944 8.810915861620317e-17 -8.096563114148197e-17 8.810915861620317e-17 -8.096563114148197e-17 -0.8986956976094019 0.4385727341025306
12616042666.666666 -0.8938003102453377 0.448465166323045 8.71858755180736e-17 -8.19248233235792e-17 8.71858755180736e-17 -8.19248233235792e-17 -0.8938006142026521 0.44846456052934724
12616660000.0 -0.8887963462707646 0.4583023618262919 8.625216187092947e-17 -8.287349946967248e-17 8.625216187092947e-17 -8.287349946967248e-17 -0.8887966568802669 0.45830175945361584
12617277333.333334 -0.8836841179515169 0.46808373148408855 8.530813731412416e-17 -8.38115462862958e-17 8.530813731412416e-17 -8.38115462862958e-17 -0.8836844351747223 0.46808313260547074
12617894666.666666 -0.8784642480086182 0.47780808382704487 8.435392271609865e-17 -8.473885183959445e-17 8.435392271609865e-17 -8.473885183959445e-17 -0.8784645718062403 0.4778074885150893
12618512000.0 -0.8731373722747902 0.48747423433130566 8.33896401589004e-17 -8.565530556868708e-17 8.33896401589004e-17 -8.565530556868708e-17 -0.8731377026067472 0.4874736426581754
12619129333.333334 -0.8677041396172881 0.49708100556231355 8.241541292265774e-17 -8.656079829875503e-17 8.241541292265774e-17 -8.656079829875503e-17 -0.8677044764427037 0.49708041759972016
12619746666.666666 -0.8621652118586128 0.5066272273186792 8.14313654698144e-17 -8.74552222540499e-17 8.14313654698144e-17 -8.74552222540499e-17 -0.8621655551358255 0.5066266431378761
12620364000.0 -0.8565212636959905 0.5161117367745494 8.043762342928759e-17 -8.833847107066139e-17 8.043762342928759e-17 -8.833847107066139e-17 -0.8565216133825567 0.5161111564463224
12620981333.333334 -0.8507729826192786 0.5255333786211066 7.943431358047134e-17 -8.921043980912265e-17 7.943431358047134e-17 -8.921043980912265e-17 -0.8507733386719778 0.5255328022157653
12621598666.666666 -0.8449210688270289 0.5348910052076123 7.842156383709558e-17 -9.007102496684064e-17 7.842156383709558e-17 -9.007102496684064e-17 -0.8449214312018698 0.5348904327949813
12622216000.0 -0.8389662351413758 0.5441834766809117 7.739950323094917e-17 -9.092012449034665e-17 7.739950323094917e-17 -9.092012449034665e-17 -0.8389666037936014 0.5441829083303229
12622833333.333334 -0.8329092069210559 0.5534096611245201 7.636826189549061e-17 -9.175763778734391e-17 7.636826189549061e-17 -9.175763778734391e-17 -0.8329095818051494 0.5534090969048037
12623450666.666666 -0.8267507219732217 0.5625684346962393 7.532797104931995e-17 -9.258346573858023e-17 7.532797104931995e-17 -9.258346573858023e-17 -0.8267511030429099 0.5625678746757148
12624068000.0 -0.820491530463444 0.5716586817652419 7.427876297949851e-17 -9.339751070955219e-17 7.427876297949851e-17 -9.339751070955219e-17 -0.820491917671707 0.5716581260117125
12624685333.333334 -0.8141323948242717 0.5806792950480633 7.322077102477928e-17 -9.41996765619905e-17 7.322077102477928e-17 -9.41996765619905e-17 -0.8141327881233456 0.5806787436288042
12625302666.666666 -0.8076740896626309 0.589629175743077 7.215412955870467e-17 -9.498986866516594e-17 7.215412955870467e-17 -9.498986866516594e-17 -0.8076744890040145 0.5896286287248298
12625920000.0 -0.8011174016650953 0.5985072336648787 7.107897397255726e-17 -9.576799390702141e-17 7.107897397255726e-17 -9.576799390702141e-17 -0.8011178069995566 0.598506691113842
12626537333.333334 -0.7944631295024085 0.6073123873765942 6.999544065822747e-17 -9.65339607050864e-17 6.999544065822747e-17 -9.65339607050864e-17 -0.7944635407799902 0.6073118493584164
12627154666.666666 -0.7877120837320492 0.6160435643218201 6.890366699095301e-17 -9.728767901720571e-17 6.890366699095301e-17 -9.728767901720571e-17 -0.7877125009020746 0.6160430309015905
12627772000.0 -0.7808650866993383 0.6246997009554711 6.780379131189899e-17 -9.802906035210447e-17 6.780379131189899e-17 -9.802906035210447e-17 -0.780865509710418 0.6246991721977129
12628389333.333334 -0.7739229724376346 0.6332797428728594 6.669595291072279e-17 -9.875801777968954e-17 6.669595291072279e-17 -9.875801777968954e-17 -0.7739234012376743 0.6332792188415224
12629006666.666666 -0.7668865865663407 0.6417826449386478 6.558029200791951e-17 -9.947446594122884e-17 6.558029200791951e-17 -9.947446594122884e-17 -0.7668870211025434 0.641782125697098
12629624000.0 -0.7597567861882287 0.6502073714137315 6.44569497371321e-17 -1.0017832105928247e-16 6.44569497371321e-17 -1.0017832105928247e-16 -0.7597572264071061 0.6502068570247473
12630241333.333334 -0.7525344397847893 0.6585528960817135 6.332606812733555e-17 -1.0086950094744777e-16 6.332606812733555e-17 -1.0086950094744777e-16 -0.752534885632166 0.6585523866074754
12630858666.666666 -0.7452204271107004 0.6668182023736043 6.21877900849094e-17 -1.0154792501990963e-16 6.21877900849094e-17 -1.0154792501990963e-16 -0.7452208785317193 0.6668176978756873
12631476000.0 -0.7378156390863045 0.6750022834920546 6.104225937560481e-17 -1.0221351430078993e-16 6.104225937560481e-17 -1.0221351430078993e-16 -0.7378160960254361 0.6750017840314224
12632093333.333334 -0.7303209776894654 0.683104142533569 5.988962060643622e-17 -1.0286619143328064e-16 5.988962060643622e-17 -1.0286619143328064e-16 -0.7303214400905137 0.6831036481705661
12632710666.666666 -0.7227373558455308 0.6911227926101344 5.873001920746747e-17 -1.035058806885789e-16 5.873001920746747e-17 -1.035058806885789e-16 -0.7227378236516393 0.6911223034044777
12633328000.0 -0.7150656973159675 0.699057256969591 5.756360141345832e-17 -1.0413250797464094e-16 5.756360141345832e-17 -1.0413250797464094e-16 -0.7150661704696275 0.699056772980364
12633945333.333334 -0.7073069365861541 0.7069065691142854 5.639051424550799e-17 -1.0474600084468166e-16 5.639051424550799e-17 -1.0474600084468166e-16 -0.707307415029211 0.70690609039993
12634562666.666666 -0.6994620187512932 0.714669772919063 5.521090549251931e-17 -1.0534628850551611e-16 5.521090549251931e-17 -1.0534628850551611e-16 -0.6994625024249542 0.7146692995373739
12635180000.0 -0.69153189940147 0.722345922747554 5.402492369263736e-17 -1.0593330182565853e-16 5.402492369263736e-17 -1.0593330182565853e-16 -0.69153238824631 0.7223454547556691
12635797333.333334 -0.6835175445050681 0.7299340835675379 5.28327181145676e-17 -1.0650697334323322e-16 5.28327181145676e-17 -1.0650697334323322e-16 -0.683518038461039 0.7299336210219346
12636414666.666666 -0.6754199302913327 0.7374333310646269 5.1634438738825245e-17 -1.0706723727366677e-16 5.1634438738825245e-17 -1.0706723727366677e-16 -0.6754204292977688 0.7374328740211124
12637032000.0 -0.6672400431312676 0.7448427517550295 5.043023623890404e-17 -1.0761402951716986e-16 5.043023623890404e-17 -1.0761402951716986e-16 -0.6672405471268946 0.7448423002687361
12637649333.333334 -0.6589788794175078 0.7521614430968032 4.922026196235168e-17 -1.0814728766601583e-16 4.922026196235168e-17 -1.0814728766601583e-16 -0.6589793883404498 0.7521609972221814
12638266666.666666 -0.6506374454430738 0.7593885135996796 4.80046679118026e-17 -1.0866695101159027e-16 4.80046679118026e-17 -1.0866695101159027e-16 -0.6506379592308605 0.7593880733904906
12638884000.0 -0.6422167572786253 0.7665230829338061 4.678360672589153e-17 -1.0917296055125015e-16 4.678360672589153e-17 -1.0917296055125015e-16 -0.6422172758681998 0.7665226484431155
12639501333.333334 -0.6337178406488216 0.7735642820368672 4.555723166013819e-17 -1.0966525899494806e-16 4.555723166013819e-17 -1.0966525899494806e-16 -0.633718363976549 0.7735638533170396
12640118666.666666 -0.6251417308074463 0.7805112532198939 4.432569656775501e-17 -1.1014379077164849e-16 4.432569656775501e-17 -1.1014379077164849e-16 -0.6251422588091199 0.7805108303225851
12640736000.0 -0.616489472410883 0.7873631502720778 4.308915588031867e-17 -1.1060850203555496e-16 4.308915588031867e-17 -1.1060850203555496e-16 -0.6164900050217335 0.7873627332482295
12641353333.333334 -0.607762119391551 0.794119138563295 4.1847764588534984e-17 -1.1105934067206e-16 4.1847764588534984e-17 -1.1105934067206e-16 -0.6077626565462543 0.7941187274631292
12641970666.666666 -0.598960734828883 0.8007783951462875 4.060167822275319e-17 -1.114962563035519e-16 4.060167822275319e-17 -1.114962563035519e-16 -0.5989612764615678 0.8007779900192996
12642588000.0 -0.5900863908202094 0.807340108856607 3.935105283356944e-17 -1.1191920029494745e-16 3.935105283356944e-17 -1.1191920029494745e-16 -0.5900869368644649 0.8073397097515594
12643205333.333334 -0.5811401683500783 0.8138034804114945 3.8096044972288095e-17 -1.123281257590395e-16 3.8096044972288095e-17 -1.123281257590395e-16 -0.5811407187389638 0.8138030873764124
12643822666.666666 -0.5721231571584184 0.8201677225073561 3.6836811671369694e-17 -1.1272298756160998e-16 3.6836811671369694e-17 -1.1272298756160998e-16 -0.5721237118244695 0.8201673355895194
12644440000.0 -0.5630364556080735 0.8264320599154639 3.557351042480528e-17 -1.1310374232633345e-16 3.557351042480528e-17 -1.1310374232633345e-16 -0.5630370144833123 0.8264316791614041
12645057333.333334 -0.5538811705508051 0.8325957295765389 3.4306299168469557e-17 -1.1347034843945071e-16 3.4306299168469557e-17 -1.1347034843945071e-16 -0.5538817335667475 0.8325953550320315
12645674666.666666 -0.5446584171926527 0.8386579806935683 3.3035336260398726e-17 -1.1382276605423252e-16 3.3035336260398726e-17 -1.1382276605423252e-16 -0.5446589842803164 0.8386576124036277
12646292000.0 -0.5353693189577359 0.8446180748234968 3.176078046100052e-17 -1.141609570952285e-16 3.176078046100052e-17 -1.141609570952285e-16 -0.5353698900476498 0.8446177128323717
12646909333.333334 -0.5260150073518837 0.8504752859668631 3.0482790913319726e-17 -1.1448488526226822e-16 3.0482790913319726e-17 -1.1448488526226822e-16 -0.5260155823740963 0.8504749303180311
12647526666.666666 -0.5165966218245 0.8562289006564396 2.9201527123140766e-17 -1.1479451603427515e-16 2.9201527123140766e-17 -1.1479451603427515e-16 -0.5165972007085872 0.856228551392601
12648144000.0 -0.5071153096297124 0.8618782180441622 2.791714893914074e-17 -1.150898166728353e-16 2.791714893914074e-17 -1.150898166728353e-16 -0.5071158923047872 0.8618778752072356
12648761333.333334 -0.49757222568689624 0.8674225499863423 2.662981653296562e-17 -1.1537075622555503e-16 2.662981653296562e-17 -1.1537075622555503e-16 -0.497572812081616 0.8674222136174593
12649378666.666666 -0.4879685324397963 0.8728612211276037 2.533969037931348e-17 -1.1563730552918703e-16 2.533969037931348e-17 -1.1563730552918703e-16 -0.4879691224823726 0.8728608912671038
12649996000.0 -0.4783053997149802 0.8781935689831216 2.4046931235919257e-17 -1.1588943721255045e-16 2.4046931235919257e-17 -1.1588943721255045e-16 -0.47830599333318763 0.8781932456705486
12650613333.333334 -0.4685840045793405 0.8834189440193185 2.2751700123587515e-17 -1.161271256992093e-16 2.2751700123587515e-17 -1.161271256992093e-16 -0.46858460170052507 0.8834186272934139
12651230666.666666 -0.4588055311967427 0.8885367097329715 2.1454158306171363e-17 -1.1635034720993722e-16 2.1454158306171363e-17 -1.1635034720993722e-16 -0.4588061317478306 0.8885363996316711
12651848000.0 -0.44897117068370496 0.8935462427287828 2.0154467270485802e-17 -1.1655907976496462e-16 2.0154467270485802e-17 -1.1655907976496462e-16 -0.44897177459121146 0.893545939289211
12652465333.333334 -0.4390821209643326 0.8984469327953006 1.885278870627746e-17 -1.167533031859892e-16 1.885278870627746e-17 -1.167533031859892e-16 -0.43908272815437255 0.8984466360537691
12653082666.666666 -0.4291395866246053 0.9032381829791531 1.7549284486147392e-17 -1.1693299909796878e-16 1.7549284486147392e-17 -1.1693299909796878e-16 -0.4291401970228999 0.903237892971152
12653700000.0 -0.419144778765185 0.9079194096579851 1.6244116645412515e-17 -1.17098150930697e-16 1.6244116645412515e-17 -1.17098150930697e-16 -0.41914539229707204 0.9079191264181812
12654317333.333334 -0.4090989148544289 0.9124900426112873 1.4937447362031232e-17 -1.1724874392014387e-16 1.4937447362031232e-17 -1.1724874392014387e-16 -0.409099531444872 0.9124897661735203
12654934666.666666 -0.39900321857975773 0.9169495250900203 1.3629438936472619e-17 -1.173847651095789e-16 1.3629438936472619e-17 -1.173847651095789e-16 -0.39900383815335555 0.9169492554872984
12655552000.0 -0.3888589196985184 0.9212973138844601 1.2320253771561708e-17 -1.1750620335047215e-16 1.2320253771561708e-17 -1.1750620335047215e-16 -0.3888595421795128 0.9212970511489545
12656169333.333334 -0.3786672538886029 0.9255328793901841 1.101005435240332e-17 -1.1761304930316174e-16 1.101005435240332e-17 -1.1761304930316174e-16 -0.3786678792008898 0.9255326235532275
12656786666.666666 -0.36842946259746184 0.9296557056727862 9.699003226186735e-18 -1.1770529543730985e-16 9.699003226186735e-18 -1.1770529543730985e-16 -0.3684300906645995 0.9296554567648678
12657404000.0 -0.35814679289122375 0.9336652905305791 8.38726298209411e-18 -1.1778293603212439e-16 8.38726298209411e-18 -1.1778293603212439e-16 -0.35814742363644236 0.9336650485813415
12658021333.333334 -0.34782049730252607 0.9375611455558738 7.074996231134643e-18 -1.1784596717636347e-16 7.074996231134643e-18 -1.1784596717636347e-16 -0.34782113064873704 0.9375609105941085
12658638666.666666 -0.3374518336782629 0.9413427961943511 5.762365586060897e-18 -1.1789438676811093e-16 5.762365586060897e-18 -1.1789438676811093e-16 -0.3374524695480678 0.9413425682479942
12659256000.0 -0.32704206502601885 0.9450097818029911 4.449533641188878e-18 -1.179281945143333e-16 4.449533641188878e-18 -1.179281945143333e-16 -0.32704270334172086 0.945009560899126
12659873333.333334 -0.31659245936038466 0.9485616557061347 3.1366629523422187e-18 -1.1794739193020836e-16 3.1366629523422187e-18 -1.1794739193020836e-16 -0.3165931000439954 0.9485614418709802
12660490666.666666 -0.3061042895486861 0.9519979852498194 1.8239160167452647e-18 -1.1795198233823311e-16 1.8239160167452647e-18 -1.1795198233823311e-16 -0.30610493252193666 0.951997778508732
12661108000.0 -0.295578833155452 0.955318351854648 5.11455252897717e-19 -1.1794197086710813e-16 5.11455252897717e-19 -1.1794197086710813e-16 -0.2955794783398026 0.955318152232119
12661725333.333334 -0.2850173722873616 0.9585223510665927 -8.005570194191498e-19 -1.1791736445039825e-16 -8.005570194191498e-19 -1.1791736445039825e-16 -0.28501801960401013 0.9585221585862415
12662342666.666666 -0.27442119343669136 0.9616095926063775 -2.1119585992503555e-18 -1.1787817182497095e-16 -2.1119585992503555e-18 -1.1787817182497095e-16 -0.27442184280658427 0.9616094072909531
12662960000.0 -0.263791587324661 0.9645797004170027 -3.4225874244452765e-18 -1.17824403529212e-16 -3.4225874244452765e-18 -1.17824403529212e-16 -0.2637922386685026 0.9645795222883802
12663577333.333334 -0.25312984874437655 0.9674323127095086 -4.732281591684472e-18 -1.177560719010192e-16 -4.732281591684472e-18 -1.177560719010192e-16 -0.2531305019826374 0.9674321417886822
12664194666.666666 -0.24243727640288937 0.9701670820070996 -6.040879376422117e-18 -1.176731910755747e-16 -6.040879376422117e-18 -1.176731910755747e-16 -0.24243793145581785 0.9701669183141858
12664812000.0 -0.23171517276322182 0.9727836751874129 -7.3482192528521e-18 -1.175757769828943e-16 -7.3482192528521e-18 -1.175757769828943e-16 -0.23171582955085313 0.9727835187416467
12665429333.333334 -0.2209648438854671 0.9752817735231656 -8.654139913794896e-18 -1.174638473451576e-16 -8.654139913794896e-18 -1.174638473451576e-16 -0.2209655023276324 0.9752816243428952
12666046666.666666 -0.21018759926802782 0.9776610727208909 -9.958480290563099e-18 -1.1733742167381776e-16 -9.958480290563099e-18 -1.1733742167381776e-16 -0.2101882592843652 0.97766093082358
12666664000.0 -0.19938475168771946 0.9799212829580984 -1.1261079572842996e-17 -1.1719652126648554e-16 -1.1261079572842996e-17 -1.1719652126648554e-16 -0.19938541319768266 0.9799211483603208
12667281333.333334 -0.18855761704016583 0.9820621289185099 -1.2561777228419779e-17 -1.1704116920360457e-16 -1.2561777228419779e-17 -1.1704116920360457e-16 -0.1885582799630343 0.9820620016359468
12667898666.666666 -0.1777075141794257 0.9840833498256082 -1.3860413022990646e-17 -1.1687139034489513e-16 -1.3860413022990646e-17 -1.1687139034489513e-16 -0.1777081784343153 0.9840832298730519
12668516000.0 -0.16683576475712086 0.9859846994744522 -1.515682703984661e-17 -1.1668721132558687e-16 -1.515682703984661e-17 -1.1668721132558687e-16 -0.16683643026299294 0.9859845868657998
12669133333.333334 -0.15594369306189237 0.9877659462615817 -1.645085969953086e-17 -1.1648866055243277e-16 -1.645085969953086e-17 -1.1648866055243277e-16 -0.1559443597375635 0.9877658410098328
12669750666.666666 -0.14503262585772506 0.9894268732132927 -1.7742351779457535e-17 -1.1627576819950257e-16 -1.7742351779457535e-17 -1.1627576819950257e-16 -0.14503329362187728 0.9894267753305499
12670368000.0 -0.1341038922223619 0.9909672780120609 -1.903114443348542e-17 -1.1604856620375938e-16 -1.903114443348542e-17 -1.1604856620375938e-16 -0.1341045609935529 0.9909671875095296
