! Parameters = {f0=12700.012000; bw=77.238000; Q=6100.000000; N=10; m_0_1=1.261156; m_1_1=0.152597; m_1_2=1.095968; m_2_2=0.151948; m_2_3=0.732931; m_2_8=0.000122; m_2_9=0.036826; m_3_3=0.150011; m_3_4=0.621460; m_3_7=0.000722; m_3_8=-0.096366; m_3_9=0.000122; m_4_4=0.147086; m_4_5=0.457795; m_4_6=0.004239; m_4_7=-0.116915; m_4_8=0.000722; m_5_5=0.147468; m_5_6=0.865150; m_5_7=0.004239; m_6_6=0.147467; m_6_7=0.458137; m_7_7=0.147100; m_7_8=0.621578; m_8_8=0.150009; m_8_9=0.733244; m_9_9=0.151943; m_9_10=1.097046; m_10_10=0.152587; m_10_11=1.261951}
!
! Created with skrf (http://scikit-rf.org).
# Hz S RI R 50.0 
!freq ReS11 ImS11 ReS21 ImS21 ReS12 ImS12 ReS22 ImS22
12607400000.0 0.9848541376278271 -0.173384911676809 -9.493321304976143e-17 4.730379625123289e-17 -9.493321304976143e-17 4.730379625123289e-17 0.9848542528363544 -0.17338425727260354
12608017333.333334 0.9830231283040873 -0.18348168633155457 -9.44200393911845e-17 4.8274365893877597e-17 -9.44200393911845e-17 4.8274365893877597e-17 0.983023250215631 -0.1834810331759759
12608634666.666666 0.9810886091486295 -0.19355914082944622 -9.38969511807643e-17 4.9239383652294184e-17 -9.38969511807643e-17 4.9239383652294184e-17 0.9810887377496958 -0.1935584889911442
12609252000.0 0.979050783861459 -0.20361621404025804 -9.336400833152346e-17 5.01987483338596e-17 -9.336400833152346e-17 5.01987483338596e-17 0.9790509191378526 -0.2036155635877372
12609869333.333334 0.9769098670204648 -0.2136518469798072 -9.282127178840016e-17 5.115235939099996e-17 -9.282127178840016e-17 5.115235939099996e-17 0.9769100089572889 -0.21365119798141963
12610486666.666666 0.9746660840588393 -0.22366498292140755 -9.226880352132162e-17 5.2100116931699065e-17 -9.226880352132162e-17 5.2100116931699065e-17 0.9746662326404963 -0.22366433544534528
12611104000.0 0.9723196712412525 -0.23365456750752786 -9.170666651815887e-17 5.3041921729950217e-17 -9.170666651815887e-17 5.3041921729950217e-17 0.9723198264514471 -0.23365392162181603
12611721333.333334 0.9698708756390977 -0.24361954886025852 -9.11349247776011e-17 5.397767523609204e-17 -9.11349247776011e-17 5.397767523609204e-17 0.96987103746084 -0.24361890463274855
12612338666.666666 0.9673199551044004 -0.2535588776924333 -9.055364330188712e-17 5.4907279587129373e-17 -9.055364330188712e-17 5.4907279587129373e-17 0.967320123520004 -0.2535582351907949
12612956000.0 0.9646671782426358 -0.2634715074181967 -8.996288808946256e-17 5.583063761692501e-17 -8.996288808946256e-17 5.583063761692501e-17 0.9646673532337217 -0.26347086670991127
12613573333.333334 0.9619128243845539 -0.27335639426279473 -8.93627261275252e-17 5.674765286632853e-17 -8.93627261275252e-17 5.674765286632853e-17 0.9619130059320542 -0.27335575541514867
12614190666.666666 0.9590571835566767 -0.28321249737283993 -8.875322538446014e-17 5.765822959323568e-17 -8.875322538446014e-17 5.765822959323568e-17 0.9590573716408334 -0.2832118604529167
12614808000.0 0.956100556450769 -0.2930387789258544 -8.813445480218121e-17 5.856227278255412e-17 -8.813445480218121e-17 5.856227278255412e-17 0.9561007510511386 -0.29303814400052797
12615425333.333334 0.953043254392217 -0.3028342042394137 -8.750648428836128e-17 5.945968815610285e-17 -8.750648428836128e-17 5.945968815610285e-17 0.9530434554876718 -0.30283357137534156
12616042666.666666 0.9498855993072219 -0.3125977418801777 -8.686938470858022e-17 6.035038218240079e-17 -8.686938470858022e-17 6.035038218240079e-17 0.9498858068759529 -0.31259711114379407
12616660000.0 0.9466279236888782 -0.32232836377258 -8.622322787834898e-17 6.123426208640989e-17 -8.622322787834898e-17 6.123426208640989e-17 0.9466281377083969 -0.3223277352300886
12617277333.333334 0.9432705705622046 -0.33202504530694604 -8.556808655505764e-17 6.211123585915752e-17 -8.556808655505764e-17 6.211123585915752e-17 0.9432707910093442 -0.33202441902431234
12617894666.666666 0.9398138934480428 -0.3416867654473275 -8.490403442982054e-17 6.298121226728446e-17 -8.490403442982054e-17 6.298121226728446e-17 0.9398141202989634 -0.3416861414902734
12618512000.0 0.9362582563257046 -0.3513125068393921 -8.423114611919485e-17 6.384410086254349e-17 -8.423114611919485e-17 6.384410086254349e-17 0.936258489555894 -0.3513118852733878
12619129333.333334 0.9326040335948322 -0.3609012559170107 -8.354949715686496e-17 6.46998119911292e-17 -8.354949715686496e-17 6.46998119911292e-17 0.9326042731791087 -0.36090063680726847
12619746666.666666 0.9288516100358543 -0.3704520030093337 -8.285916398517229e-17 6.554825680299792e-17 -8.285916398517229e-17 6.554825680299792e-17 0.9288518559483703 -0.3704513864208007
12620364000.0 0.925001380769433 -0.37996374244718273 -8.216022394656855e-17 6.638934726107367e-17 -8.216022394656855e-17 6.638934726107367e-17 0.9250016329836763 -0.3799631284445344
12620981333.333334 0.9210537512150258 -0.3894354726685233 -8.145275527501244e-17 6.722299615031933e-17 -8.145275527501244e-17 6.722299615031933e-17 0.9210540097038239 -0.3894348613161563
12621598666.666666 0.9170091370480072 -0.3988661963244015 -8.073683708720948e-17 6.804911708679562e-17 -8.073683708720948e-17 6.804911708679562e-17 0.9170094017835295 -0.39886558768642727
12622216000.0 0.9128679641560268 -0.40825492038364614 -8.001254937381813e-17 6.886762452655748e-17 -8.001254937381813e-17 6.886762452655748e-17 0.9128682351097878 -0.40825431452388433
12622833333.333334 0.9086306685940989 -0.4176006562375902 -7.927997299053339e-17 6.967843377449706e-17 -7.927997299053339e-17 6.967843377449706e-17 0.9086309457369616 -0.4176000532195615
12623450666.666666 0.904297696538758 -0.4269024198040135 -7.853918964909254e-17 7.04814609930778e-17 -7.853918964909254e-17 7.04814609930778e-17 0.904297979840935 -0.4269018196909327
12624068000.0 0.8998695042409679 -0.43615923163099496 -7.779028190819475e-17 7.127662321097165e-17 -7.779028190819475e-17 7.127662321097165e-17 0.8998697936720279 -0.4361586344857657
12624685333.333334 0.8953465579781535 -0.4453701169998934 -7.703333316431166e-17 7.206383833162417e-17 -7.703333316431166e-17 7.206383833162417e-17 0.8953468535070217 -0.4453695228850998
12625302666.666666 0.8907293340051263 -0.45453410602793004 -7.626842764246457e-17 7.284302514166571e-17 -7.626842764246457e-17 7.284302514166571e-17 0.8907296356000899 -0.4545335150058318
12625920000.0 0.8860183185038379 -0.4636502337705207 -7.549565038684493e-17 7.361410331930114e-17 -7.549565038684493e-17 7.361410331930114e-17 0.8860186261325472 -0.4636496459030449
12626537333.333334 0.881214007532323 -0.4727175403226005 -7.471508725141041e-17 7.437699344253778e-17 -7.471508725141041e-17 7.437699344253778e-17 0.8812143211617981 -0.4727169556713372
12627154666.666666 0.8763169069723556 -0.48173507091993034 -7.392682489037576e-17 7.513161699733801e-17 -7.392682489037576e-17 7.513161699733801e-17 0.876317226568987 -0.4817344895461242
12627772000.0 0.8713275324761737 -0.490701876039627 -7.313095074860169e-17 7.587789638568973e-17 -7.313095074860169e-17 7.587789638568973e-17 0.8713278580057261 -0.4907012980041715
12628389333.333334 0.8662464094123344 -0.49961701149987353 -7.232755305194648e-17 7.661575493353446e-17 -7.232755305194648e-17 7.661575493353446e-17 0.8662467408399531 -0.4996164368633055
12629006666.666666 0.8610740728101469 -0.5084795385597854 -7.151672079749588e-17 7.734511689863199e-17 -7.151672079749588e-17 7.734511689863199e-17 0.8610744101003582 -0.5084789673822774
12629624000.0 0.8558110673035694 -0.5172885240178362 -7.069854374373901e-17 7.80659074783003e-17 -7.069854374373901e-17 7.80659074783003e-17 0.8558114104202859 -0.5172879563591902
12630241333.333334 0.8504579470737373 -0.5260430403103451 -6.987311240066173e-17 7.87780528170557e-17 -6.987311240066173e-17 7.87780528170557e-17 0.8504582959802613 -0.5260424762299871
12630858666.666666 0.8450152757906497 -0.5347421656090716 -6.904051801976841e-17 7.948148001414488e-17 -6.904051801976841e-17 7.948148001414488e-17 0.8450156304496789 -0.5347416051660454
12631476000.0 0.8394836265537423 -0.5433849839184032 -6.820085258398912e-17 8.017611713100472e-17 -6.820085258398912e-17 8.017611713100472e-17 0.8394839869273717 -0.543384427171364
12632093333.333334 0.8338635818316943 -0.5519705851715677 -6.735420879758815e-17 8.086189319855215e-17 -6.735420879758815e-17 8.086189319855215e-17 0.8338639478814205 -0.5519700321787752
12632710666.666666 0.8281557334009587 -0.5604980653266768 -6.650068007593498e-17 8.153873822442198e-17 -6.650068007593498e-17 8.153873822442198e-17 0.8281561050876839 -0.5604975161459894
12633328000.0 0.822360682283459 -0.5689665264618916 -6.564036053520494e-17 8.220658320009401e-17 -6.564036053520494e-17 8.220658320009401e-17 0.8223610595674979 -0.5689659811507619
12633945333.333334 0.8164790386834062 -0.5773750768698347 -6.47733449820653e-17 8.286536010786811e-17 -6.47733449820653e-17 8.286536010786811e-17 0.8164794215244859 -0.5773745354853014
12634562666.666666 0.8105114219229114 -0.5857228311516692 -6.389972890322317e-17 8.351500192778387e-17 -6.389972890322317e-17 8.351500192778387e-17 0.8105118102801792 -0.5857222937503523
12635180000.0 0.804458460376906 -0.5940089103101437 -6.301960845495434e-17 8.415544264439219e-17 -6.301960845495434e-17 8.415544264439219e-17 0.8044588542089314 -0.5940083769482382
12635797333.333334 0.7983207914068252 -0.6022324418423561 -6.213308045253612e-17 8.478661725343865e-17 -6.213308045253612e-17 8.478661725343865e-17 0.7983211906716056 -0.6022319125756259
12636414666.666666 0.7920990612936806 -0.610392559831374 -6.124024235962568e-17 8.540846176842712e-17 -6.124024235962568e-17 8.540846176842712e-17 0.7920994659486459 -0.6103920347151468
12637032000.0 0.7857939251698389 -0.6184884050376409 -6.03411922775703e-17 8.602091322707284e-17 -6.03411922775703e-17 8.602091322707284e-17 0.7857943351718552 -0.6184878841268019
12637649333.333334 0.7794060469501423 -0.626519124989318 -5.943602893465684e-17 8.662390969764297e-17 -5.943602893465684e-17 8.662390969764297e-17 0.7794064622555174 -0.6265186083383044
12638266666.666666 0.7729360992619085 -0.6344838740721561 -5.852485167528516e-17 8.721739028519149e-17 -5.852485167528516e-17 8.721739028519149e-17 0.7729365198263967 -0.6344833617349515
12638884000.0 0.7663847633742352 -0.6423818136183842 -5.76077604491073e-17 8.780129513766288e-17 -5.76077604491073e-17 8.780129513766288e-17 0.7663851891530393 -0.6423813056485119
12639501333.333334 0.7597527291260953 -0.650212111995215 -5.668485580006656e-17 8.837556545190832e-17 -5.668485580006656e-17 8.837556545190832e-17 0.7597531600738748 -0.6502116084457334
12640118666.666666 0.7530406948539399 -0.6579739446921304 -5.575623885543454e-17 8.894014347954959e-17 -5.575623885543454e-17 8.894014347954959e-17 0.753041130924815 -0.6579734456156282
12640736000.0 0.7462493673178157 -0.6656664944081139 -5.482201131469421e-17 8.949497253278834e-17 -5.482201131469421e-17 8.949497253278834e-17 0.7462498084653707 -0.6656659998567027
12641353333.333334 0.7393794616273317 -0.673288951137255 -5.3882275438505686e-17 9.003999699001347e-17 -5.3882275438505686e-17 9.003999699001347e-17 0.7393799078046217 -0.6732884611625657
12641970666.666666 0.7324317011660826 -0.6808405122543648 -5.2937134037473574e-17 9.057516230137887e-17 -5.2937134037473574e-17 9.057516230137887e-17 0.7324321523256373 -0.6808400269075411
12642588000.0 0.7254068175156096 -0.6883203825993408 -5.198669046095432e-17 9.11004149942075e-17 -5.198669046095432e-17 9.11004149942075e-17 0.7254072736094388 -0.6883199019310338
12643205333.333334 0.718305550378289 -0.695727774560978 -5.10310485857666e-17 9.16157026783035e-17 -5.10310485857666e-17 9.16157026783035e-17 0.7183060113578875 -0.6957272986213415
12643822666.666666 0.7111286474994817 -0.7030619081598606 -5.007031280487045e-17 9.2120974051135e-17 -5.007031280487045e-17 9.2120974051135e-17 0.7111291133158355 -0.7030614369985462
12644440000.0 0.7038768645888394 -0.7103220111304529 -4.9104588015979804e-17 9.261617890290661e-17 -4.9104588015979804e-17 9.261617890290661e-17 0.7038773351924286 -0.710321544796603
12645057333.333334 0.6965509652406479 -0.7175073190024961 -4.813397961014902e-17 9.310126812150047e-17 -4.813397961014902e-17 9.310126812150047e-17 0.6965514405814538 -0.7175068575447404
12645674666.666666 0.6891517208535449 -0.7246170751813849 -4.71585934602879e-17 9.357619369731113e-17 -4.71585934602879e-17 9.357619369731113e-17 0.689152200881056 -0.724616618647836
12646292000.0 0.6816799105490924 -0.7316505310280371 -4.617853590961002e-17 9.404090872796833e-17 -4.617853590961002e-17 9.404090872796833e-17 0.6816803952123077 -0.7316500794662835
12646909333.333334 0.6741363210899379 -0.738606945937521 -4.51939137601132e-17 9.449536742290193e-17 -4.51939137601132e-17 9.449536742290193e-17 0.6741368103373732 -0.7386064993946229
12647526666.666666 0.6665217467968908 -0.745485587417121 -4.420483426092966e-17 9.493952510782793e-17 -4.420483426092966e-17 9.493952510782793e-17 0.6665222405765846 -0.7454851459396061
12648144000.0 0.6588369894652386 -0.7522857311635038 -4.321140509666199e-17 9.53733382290981e-17 -4.321140509666199e-17 9.53733382290981e-17 0.6588374877247585 -0.7522852947973631
12648761333.333334 0.6510828582803432 -0.7590066611389686 -4.221373437571261e-17 9.579676435791273e-17 -4.221373437571261e-17 9.579676435791273e-17 0.6510833609667881 -0.7590062299296483
12649378666.666666 0.6432601697325604 -0.7656476696467278 -4.12119306185209e-17 9.620976219443445e-17 -4.12119306185209e-17 9.620976219443445e-17 0.643260676792569 -0.7656472436391273
12649996000.0 0.6353697475310974 -0.7722080574055792 -4.0206102745787645e-17 9.661229157176701e-17 -4.0206102745787645e-17 9.661229157176701e-17 0.6353702589108531 -0.7722076366440458
12650613333.333334 0.6274124225172735 -0.7786871336235318 -3.9196360066656075e-17 9.700431345981385e-17 -3.9196360066656075e-17 9.700431345981385e-17 0.6274129381625119 -0.7786867181518581
12651230666.666666 0.6193890325772832 -0.7850842160703555 -3.818281226685875e-17 9.738578996901305e-17 -3.818281226685875e-17 9.738578996901305e-17 0.6193895524332929 -0.7850838059317694
12651848000.0 0.6113004225535621 -0.7913986311497281 -3.7165569396817333e-17 9.775668435395155e-17 -3.7165569396817333e-17 9.775668435395155e-17 0.6113009465651958 -0.7913982263868947
12652465333.333334 0.6031474441561882 -0.7976297139698875 -3.61447418597194e-17 9.811696101685274e-17 -3.61447418597194e-17 9.811696101685274e-17 0.6031479722678662 -0.7976293146249002
12653082666.666666 0.5949309558731328 -0.8037768084136959 -3.5120440399578626e-17 9.846658551093244e-17 -3.5120440399578626e-17 9.846658551093244e-17 0.5949314880288489 -0.803776414528074
12653700000.0 0.5866518228795676 -0.809839267207948 -3.4092776089207556e-17 9.880552454365175e-17 -3.4092776089207556e-17 9.880552454365175e-17 0.5866523590228956 -0.8098388788226327
12654317333.333334 0.5783109169472204 -0.8158164519911897 -3.3061860318226833e-17 9.913374597982025e-17 -3.3061860318226833e-17 9.913374597982025e-17 0.5783114570213185 -0.8158160691465368
12654934666.666666 0.5699091163522809 -0.8217077333811518 -3.202780478100594e-17 9.945121884458835e-17 -3.202780478100594e-17 9.945121884458835e-17 0.5699096602999005 -0.821707356116932
12655552000.0 0.5614473057828522 -0.8275124910410739 -3.0990721464561956e-17 9.975791332631823e-17 -3.0990721464561956e-17 9.975791332631823e-17 0.5614478535463423 -0.8275121193964667
12656169333.333334 0.5529263762461429 -0.8332301137447784 -2.995072263649944e-17 1.0005380077930784e-16 -2.995072263649944e-17 1.0005380077930784e-16 0.5529269277674553 -0.8332297477583658
12656786666.666666 0.5443472249743437 -0.8388599994412407 -2.8907920832843145e-17 1.0033885372641502e-16 -2.8907920832843145e-17 1.0033885372641502e-16 0.5443477801950416 -0.8388596391510071
12657404000.0 0.5357107553301971 -0.8444015553179526 -2.786242884588877e-17 1.0061304586154124e-16 -2.786242884588877e-17 1.0061304586154124e-16 0.5357113141914587 -0.8444012007612778
12658021333.333334 0.5270178767119693 -0.8498541978632775 -2.681435971203716e-17 1.0087635205198856e-16 -2.681435971203716e-17 1.0087635205198856e-16 0.5270184391545956 -0.8498538490769344
12658638666.666666 0.5182695044577442 -0.8552173529278692 -2.576382669960144e-17 1.0112874834069176e-16 -2.576382669960144e-17 1.0112874834069176e-16 0.5182700704221653 -0.8552170099480194
12659256000.0 0.5094665597487251 -0.8604904557853196 -2.4710943296550757e-17 1.0137021194833417e-16 -2.4710943296550757e-17 1.0137021194833417e-16 0.5094671291750056 -0.8604901186475097
12659873333.333334 0.5006099695125985 -0.865672951191397 -2.365582319831589e-17 1.0160072127531649e-16 -2.365582319831589e-17 1.0160072127531649e-16 0.5006105423404449 -0.865672619930556
12660490666.666666 0.491700666325863 -0.8707642934425653 -2.2598580295525824e-17 1.0182025590361217e-16 -2.2598580295525824e-17 1.0182025590361217e-16 0.49170124249462865 -0.8707639680929987
12661108000.0 0.48273958831530744 -0.8757639464336235 -2.153932866169887e-17 1.0202879659850071e-16 -2.153932866169887e-17 1.0202879659850071e-16 0.48274016776400114 -0.8757636270290124
12661725333.333334 0.4737276790597242 -0.8806713837138768 -2.047818254101771e-17 1.0222632531015265e-16 -2.047818254101771e-17 1.0222632531015265e-16 0.4737282617270145 -0.8806710702872722
12662342666.666666 0.4646658874902058 -0.8854860885427653 -1.9415256335974924e-17 1.0241282517511187e-16 -1.9415256335974924e-17 1.0241282517511187e-16 0.4646664733144284 -0.8854857811265856
12662960000.0 0.45555516779027444 -0.8902075539442488 -1.8350664595096275e-17 1.025882805176312e-16 -1.8350664595096275e-17 1.025882805176312e-16 0.4555557567094382 -0.8902072525702758
12663577333.333334 0.44639647929553194 -0.894835282760118 -1.7284522000606803e-17 1.0275267685089034e-16 -1.7284522000606803e-17 1.0275267685089034e-16 0.44639707124732725 -0.8948349874594964
12664194666.666666 0.4371907863925733 -0.8993687877023925 -1.621694335609019e-17 1.029060008780849e-16 -1.621694335609019e-17 1.029060008780849e-16 0.43719138131437585 -0.8993684985056215
12664812000.0 0.4279390584173585 -0.9038075914046603 -1.5148043574169118e-17 1.0304824049338238e-16 -1.5148043574169118e-17 1.0304824049338238e-16 0.42793965624623803 -0.9038073083415951
12665429333.333334 0.4186422695532728 -0.9081512264722837 -1.4077937664132117e-17 1.0317938478275839e-16 -1.4077937664132117e-17 1.0317938478275839e-16 0.4186428702259997 -0.9081509495721319
12666046666.666666 0.4093013987286015 -0.912399235531595 -1.3006740719616277e-17 1.0329942402469583e-16 -1.3006740719616277e-17 1.0329942402469583e-16 0.4093020021816521 -0.9123989648229107
12666664000.0 0.39991742951308734 -0.916551171278218 -1.1934567906209452e-17 1.0340834969076561e-16 -1.1934567906209452e-17 1.0340834969076561e-16 0.39991803568265155 -0.9165509067889013
12667281333.333334 0.39049135001488156 -0.9206065965239353 -1.0861534449123157e-17 1.0350615444607153e-16 -1.0861534449123157e-17 1.0350615444607153e-16 0.3904919588368697 -0.9206063382812288
12667898666.666666 0.3810241527761622 -0.9245650842428751 -9.787755620822544e-18 1.0359283214957093e-16 -9.787755620822544e-18 1.0359283214957093e-16 0.3810247641862119 -0.9245648322733618
12668516000.0 0.3715168346685426 -0.9284262176165078 -8.713346728641558e-18 1.036683778542691e-16 -8.713346728641558e-18 1.036683778542691e-16 0.3715174486020242 -0.9284259719461054
12669133333.333334 0.3619703967885206 -0.9321895900773556 -7.638423102469809e-18 1.0373278780727954e-16 -7.638423102469809e-18 1.0373278780727954e-16 0.361971013180546 -0.9321893507313181
12669750666.666666 0.35238584435159653 -0.9358548053520054 -6.563100082356407e-18 1.0378605944976353e-16 -6.563100082356407e-18 1.0378605944976353e-16 0.3523864631370249 -0.935854572354918
12670368000.0 0.3427641865867128 -0.9394214775027113 -5.4874930061587794e-18 1.038281914167381e-16 -5.4874930061587794e-18 1.038281914167381e-16 0.34276480770015727 -0.9394212508784876
12670985333.333334 0.3331064366299873 -0.942889230968039 -4.411717197220165e-18 1.0385918353675569e-16 -4.411717197220165e-18 1.0385918353675569e-16 0.33310706000582274 -0.94288901073992
