! Parameters = {f0=12700.012000; bw=77.238000; Q=6100.000000; N=10; m_0_1=1.285581; m_1_1=0.518963; m_1_2=1.120393; m_2_2=0.518314; m_2_3=0.757356; m_2_8=0.001343; m_2_9=0.038047; m_3_3=0.516377; m_3_4=0.645885; m_3_7=0.001943; m_3_8=-0.095145; m_3_9=0.001343; m_4_4=0.513452; m_4_5=0.482220; m_4_6=0.005460; m_4_7=-0.115694; m_4_8=0.001943; m_5_5=0.513834; m_5_6=0.889575; m_5_7=0.005460; m_6_6=0.513833; m_6_7=0.482562; m_7_7=0.513466; m_7_8=0.646003; m_8_8=0.516375; m_8_9=0.757669; m_9_9=0.518309; m_9_10=1.121471; m_10_10=0.518953; m_10_11=1.286376}
!
! Created with skrf (http://scikit-rf.org).
# Hz S RI R 50.0 
!freq ReS11 ImS11 ReS21 ImS21 ReS12 ImS12 ReS22 ImS22
12607400000.0 -0.7123166581445659 -0.7018582325011063 1.0496876360991687e-16 5.598826011154724e-17 1.0496876360991687e-16 5.598826011154724e-17 -0.7123161827817717 -0.701858714946979
12608017333.333334 -0.7199824322286282 -0.6939922890652083 1.055615566616831e-16 5.481187734955864e-17 1.055615566616831e-16 5.481187734955864e-17 -0.7199819622163819 -0.6939927766791725
12608634666.666666 -0.7275613496761173 -0.6860426243735058 1.0614117594665126e-16 5.362923543222216e-17 1.0614117594665126e-16 5.362923543222216e-17 -0.7275608850705922 -0.686043117096233
12609252000.0 -0.7350524961880687 -0.6780101974509738 1.0670755557479128e-16 5.244048177749934e-17 1.0670755557479128e-16 5.244048177749934e-17 -0.7350520370447827 -0.6780106952225271
12609869333.333334 -0.7424549680539191 -0.6698959773068303 1.0726063130452099e-16 5.124576449467986e-17 1.0726063130452099e-16 5.124576449467986e-17 -0.7424545144277238 -0.669896480066668
12610486666.666666 -0.7497678722605048 -0.6617009428176556 1.0780034054992921e-16 5.004523236596724e-17 1.0780034054992921e-16 5.004523236596724e-17 -0.7497674242055816 -0.6617014505046409
12611104000.0 -0.756990326599966 -0.6534260826091163 1.0832662238781739e-16 4.88390348279409e-17 1.0832662238781739e-16 4.88390348279409e-17 -0.7569898841698194 -0.6534265951615242
12611721333.333334 -0.7641214597759829 -0.6450723949369097 1.0883941756448519e-16 4.7627321953048997e-17 1.0883941756448519e-16 4.7627321953048997e-17 -0.7641210230234325 -0.6450729122924339
12612338666.666666 -0.7711604115089622 -0.6366408875662535 1.093386685023583e-16 4.641024443092691e-17 1.093386685023583e-16 4.641024443092691e-17 -0.7711599804861385 -0.6366414096620144
12612956000.0 -0.7781063326398929 -0.6281325776502247 1.0982431930638375e-16 4.518795354969556e-17 1.0982431930638375e-16 4.518795354969556e-17 -0.7781059073982299 -0.6281331044227775
12613573333.333334 -0.7849583852325848 -0.6195484916072928 1.1029631577021498e-16 4.3960601177204267e-17 1.1029631577021498e-16 4.3960601177204267e-17 -0.7849579658228146 -0.6195490229926348
12614190666.666666 -0.7917157426750085 -0.6108896649971889 1.107546053821981e-16 4.272833974218108e-17 1.107546053821981e-16 4.272833974218108e-17 -0.7917153291471541 -0.6108902009307667
12614808000.0 -0.798377589778819 -0.602157142396221 1.1119913733114175e-16 4.1491322215337674e-17 1.1119913733114175e-16 4.1491322215337674e-17 -0.7983771821821882 -0.6021576828129388
12615425333.333334 -0.8049431228777839 -0.5933519772711479 1.1162986251187712e-16 4.024970209041538e-17 1.1162986251187712e-16 4.024970209041538e-17 -0.8049427212609657 -0.5933525221053759
12616042666.666666 -0.8114115499247032 -0.5844752318521378 1.1204673353061195e-16 3.900363336515848e-17 1.1204673353061195e-16 3.900363336515848e-17 -0.81141115433556 -0.5844757810377199
12616660000.0 -0.8177820905870276 -0.5755279770045327 1.124497047100617e-16 3.7753270522265085e-17 1.124497047100617e-16 3.7753270522265085e-17 -0.8177817010726901 -0.5755285304747941
12617277333.333334 -0.8240539763409086 -0.5665112920997754 1.128387320943802e-16 3.6498768510250954e-17 1.128387320943802e-16 3.6498768510250954e-17 -0.8240535929477701 -0.5665118497875312
12617894666.666666 -0.8302264505638981 -0.5574262648852221 1.1321377345386566e-16 3.52402827243023e-17 1.1321377345386566e-16 3.52402827243023e-17 -0.8302260733376092 -0.5574268267227852
12618512000.0 -0.8362987686263725 -0.5482739913527108 1.135747882894744e-16 3.3977968987010345e-17 1.135747882894744e-16 3.3977968987010345e-17 -0.8362983976118347 -0.5482745572719
12619129333.333334 -0.8422701979811961 -0.539055575606575 1.1392173783708733e-16 3.27119835291742e-17 1.1392173783708733e-16 3.27119835291742e-17 -0.8422698332225574 -0.539056145538723
12619746666.666666 -0.8481400182521635 -0.529772129730357 1.1425458507159344e-16 3.144248297045432e-17 1.1425458507159344e-16 3.144248297045432e-17 -0.8481396597928139 -0.52977270360632
12620364000.0 -0.8539075213209619 -0.5204247736525512 1.1457329471074882e-16 3.0169624300018425e-17 1.1457329471074882e-16 3.0169624300018425e-17 -0.8539071692035259 -0.5204253514027158
12620981333.333334 -0.8595720114124307 -0.5110146350117651 1.148778332188055e-16 2.8893564857208194e-17 1.148778332188055e-16 2.8893564857208194e-17 -0.8595716656787641 -0.5110152165660574
12621598666.666666 -0.8651328051787047 -0.5015428490203439 1.151681688099492e-16 2.761446231207614e-17 1.151681688099492e-16 2.761446231207614e-17 -0.8651324658698903 -0.5015434343082387
12622216000.0 -0.8705892317814946 -0.4920105583276918 1.1544427145150427e-16 2.6332474645958168e-17 1.1544427145150427e-16 2.6332474645958168e-17 -0.8705888989378343 -0.49201114727821926
12622833333.333334 -0.8759406329730934 -0.4824189128822752 1.1570611286693238e-16 2.504776013197297e-17 1.1570611286693238e-16 2.504776013197297e-17 -0.8759403066341065 -0.4824195054240316
12623450666.666666 -0.8811863631757239 -0.4727690697930242 1.1595366653860355e-16 2.3760477315545896e-17 1.1595366653860355e-16 2.3760477315545896e-17 -0.8811860433801411 -0.47276966585417934
12624068000.0 -0.8863257895594708 -0.46306219318964065 1.1618690771036313e-16 2.2470784994847887e-17 1.1618690771036313e-16 2.2470784994847887e-17 -0.8863254763452296 -0.46306279269794665
12624685333.333334 -0.8913582921186911 -0.4532994540820358 1.164058133898788e-16 2.1178842201224142e-17 1.164058133898788e-16 2.1178842201224142e-17 -0.8913579855229303 -0.4533000569648358
12625302666.666666 -0.8962832637465921 -0.443482030219463 1.1661036235075836e-16 1.9884808179668032e-17 1.1661036235075836e-16 1.9884808179668032e-17 -0.8962829638056513 -0.4434826364037012
12625920000.0 -0.9011001103087178 -0.433611105947988 1.1680053513447135e-16 1.8588842369160673e-17 1.1680053513447135e-16 1.8588842369160673e-17 -0.9010998170581273 -0.4336117153602163
12626537333.333334 -0.9058082507144687 -0.4236878720678855 1.1697631405203357e-16 1.729110438310704e-17 1.1697631405203357e-16 1.729110438310704e-17 -0.9058079641889512 -0.42368848463427483
12627154666.666666 -0.9104071169872174 -0.4137135256899915 1.1713768318548617e-16 1.599175398969215e-17 1.1713768318548617e-16 1.599175398969215e-17 -0.910406837220677 -0.4137141413363377
12627772000.0 -0.9148961543329364 -0.4036892700910237 1.1728462838915713e-16 1.4690951092209015e-17 1.1728462838915713e-16 1.4690951092209015e-17 -0.9148958813584623 -0.4036898887427603
12628389333.333334 -0.9192748212069473 -0.39361631456884033 1.1741713729069345e-16 1.3388855709481236e-17 1.1741713729069345e-16 1.3388855709481236e-17 -0.9192745550568037 -0.3936169361510442
12629006666.666666 -0.9235425893794629 -0.3834958742960564 1.1753519929189226e-16 1.2085627956132248e-17 1.1753519929189226e-16 1.2085627956132248e-17 -0.9235423300850901 -0.3834964987334594
12629624000.0 -0.927698943999125 -0.3733291701738949 1.1763880556929986e-16 1.0781428022987503e-17 1.1763880556929986e-16 1.0781428022987503e-17 -0.9276986915911308 -0.37332979739089084
12630241333.333334 -0.9317433836552199 -0.3631174286846365 1.17727949074602e-16 9.476416157381303e-18 1.17727949074602e-16 9.476416157381303e-18 -0.93174313816338 -0.363118058605292
12630858666.666666 -0.9356754204380878 -0.3528618817438737 1.1780262453479192e-16 8.170752643524754e-18 1.1780262453479192e-16 8.170752643524754e-18 -0.9356751818913405 -0.3528625142919363
12631476000.0 -0.9394945799981346 -0.3425637665514972 1.1786282845212545e-16 6.8645977827997606e-18 1.1786282845212545e-16 6.8645977827997606e-18 -0.9394943484245765 -0.34256440165040486
12632093333.333334 -0.9432004016028611 -0.3322243254429475 1.179085591038515e-16 5.558111874172515e-18 1.179085591038515e-16 5.558111874172515e-18 -0.943200177029746 -0.33222496301583837
12632710666.666666 -0.9467924381925508 -0.32184480573907925 1.179398165417323e-16 4.251455194517857e-18 1.179398165417323e-16 4.251455194517857e-18 -0.9467922206462848 -0.32184544570880014
12633328000.0 -0.9502702564342331 -0.3114264595955788 1.1795660259134247e-16 2.94478797897739e-18 1.1795660259134247e-16 2.94478797897739e-18 -0.9502700459403731 -0.3114271018846953
12633945333.333334 -0.9536334367738714 -0.3009705438521772 1.1795892085115214e-16 1.6382704013572675e-18 1.1795892085115214e-16 1.6382704013572675e-18 -0.9536332333571199 -0.30097118838298237
12634562666.666666 -0.9568815734870522 -0.29047831988078476 1.1794677669139251e-16 3.3206255452770946e-19 1.1794677669139251e-16 3.3206255452770946e-19 -0.9568813771712563 -0.29047896657530914
12635180000.0 -0.9600142747278745 -0.2799510534335138 1.1792017725270623e-16 -9.736755691699343e-19 1.1792017725270623e-16 -9.736755691699343e-19 -0.9600140855360219 -0.27995170221353416
12635797333.333334 -0.9630311625762595 -0.26939001448984434 1.1787913144457956e-16 -2.278784097502865e-18 1.1787913144457956e-16 -2.278784097502865e-18 -0.9630309805304771 -0.2693906652768941
12636414666.666666 -0.9659318730834973 -0.258796477103583 1.178236499435604e-16 -3.5831032978572315e-18 1.178236499435604e-16 -3.5831032978572315e-18 -0.9659316982050479 -0.25879712981896086
12637032000.0 -0.9687160563162299 -0.24817171924889045 1.1775374519125847e-16 -4.886473596790803e-18 1.1775374519125847e-16 -4.886473596790803e-18 -0.968715888625508 -0.24817237381366977
12637649333.333334 -0.9713833763985852 -0.23751702266638317 1.1766943139213173e-16 -6.188735599504914e-18 1.1766943139213173e-16 -6.188735599504914e-18 -0.9713832159151181 -0.2375176790014226
12638266666.666666 -0.9739335115527396 -0.2268336727083723 1.1757072451105607e-16 -7.489730109323706e-18 1.1757072451105607e-16 -7.489730109323706e-18 -0.9739333582951816 -0.22683433073432407
12638884000.0 -0.976366154137718 -0.21612295818385646 1.1745764227068225e-16 -8.789298147104746e-18 1.1745764227068225e-16 -8.789298147104746e-18 -0.9763660081238518 -0.21612361782117714
12639501333.333334 -0.9786810106865412 -0.20538617120290553 1.1733020414857637e-16 -1.0087280970652105e-17 1.1733020414857637e-16 -1.0087280970652105e-17 -0.9786808719332728 -0.2053868323718648
12640118666.666666 -0.9808778019415548 -0.19462460702111714 1.1718843137415e-16 -1.1383520094049552e-17 1.1718843137415e-16 -1.1383520094049552e-17 -0.9808776704649124 -0.1946252696418076
12640736000.0 -0.9829562628882328 -0.18383956388280398 1.1703234692536739e-16 -1.2677857307047927e-17 1.1703234692536739e-16 -1.2677857307047927e-17 -0.9829561387033665 -0.18384022787515117
12641353333.333334 -0.984916142787006 -0.17303234286510233 1.1686197552525764e-16 -1.3970134694244877e-17 1.1686197552525764e-16 -1.3970134694244877e-17 -0.9849160259081844 -0.17303300814887415
12641970666.666666 -0.9867572052036441 -0.16220424772031625 1.1667734363819372e-16 -1.526019465440382e-17 1.1667734363819372e-16 -1.526019465440382e-17 -0.986757095644253 -0.16220491421513247
12642588000.0 -0.9884792280376938 -0.151356584719083 1.1647847946597454e-16 -1.6547879919603964e-17 1.1647847946597454e-16 -1.6547879919603964e-17 -0.9884791258102348 -0.15135725234442535
12643205333.333334 -0.9900820035492962 -0.14049066249267742 1.1626541294368819e-16 -1.78330335743984e-17 1.1626541294368819e-16 -1.78330335743984e-17 -0.9900819086653849 -0.14049133116789891
12643822666.666666 -0.9915653383842747 -0.12960779187494487 1.1603817573536765e-16 -1.9115499074894986e-17 1.1603817573536765e-16 -1.9115499074894986e-17 -0.9915652508546399 -0.12960846151927988
12644440000.0 -0.9929290535974147 -0.11870928574447528 1.1579680122943436e-16 -2.0395120267804176e-17 1.1579680122943436e-16 -2.0395120267804176e-17 -0.9929289734318968 -0.1187099562770491
12645057333.333334 -0.9941729846740723 -0.10779645886608097 1.1554132453393662e-16 -2.1671741409401826e-17 1.1554132453393662e-16 -2.1671741409401826e-17 -0.9941729118816242 -0.1077971302059198
12645674666.666666 -0.9952969815500227 -0.09687062773221558 1.1527178247157384e-16 -2.2945207184467445e-17 1.1527178247157384e-16 -2.2945207184467445e-17 -0.995296916138705 -0.096871299798256
12646292000.0 -0.9963009086295771 -0.08593311040395782 1.1498821357451042e-16 -2.421536272516884e-17 1.1498821357451042e-16 -2.421536272516884e-17 -0.9963008506065595 -0.0859337831150567
12646909333.333334 -0.9971846448019043 -0.0749852263524003 1.1469065807899617e-16 -2.5482053629819312e-17 1.1469065807899617e-16 -2.5482053629819312e-17 -0.9971845941734646 -0.07498589962734468
12647526666.666666 -0.9979480834556766 -0.06402829629907629 1.1437915791976056e-16 -2.674512598166185e-17 1.1437915791976056e-16 -2.674512598166185e-17 -0.9979480402272013 -0.06402897005659318
12648144000.0 -0.9985911324919153 -0.05306364205682971 1.1405375672421566e-16 -2.800442636751795e-17 1.1405375672421566e-16 -2.800442636751795e-17 -0.9985910966678961 -0.05306431621559574
12648761333.333334 -0.9991137143350971 -0.04209258637035528 1.1371449980645e-16 -2.925980189638717e-17 1.1371449980645e-16 -2.925980189638717e-17 -0.9991136859191341 -0.042093260849006726
12649378666.666666 -0.9995157659425201 -0.031116452756683628 1.1336143416101553e-16 -3.051110021798851e-17 1.1336143416101553e-16 -3.051110021798851e-17 -0.9995157449373162 -0.031117127473825966
12649996000.0 -0.9997972388119083 -0.02013656534525986 1.1299460845651288e-16 -3.1758169541215027e-17 1.1299460845651288e-16 -3.1758169541215027e-17 -0.9997972252192758 -0.02013724021947788
12650613333.333334 -0.999958098987263 -0.009154248718460363 1.1261407302897384e-16 -3.3000858652519465e-17 1.1261407302897384e-16 -3.3000858652519465e-17 -0.9999580928081176 -0.009154923668327791
12651230666.666666 -0.9999983270629542 0.0018291722481727961 1.1221987987504724e-16 -3.423901693419937e-17 1.1221987987504724e-16 -3.423901693419937e-17 -0.9999983282973173 0.0018284973040834061
12651848000.0 -0.9999179181860683 0.01281237254613048 1.1181208264496614e-16 -3.5472494382666065e-17 1.1181208264496614e-16 -3.5472494382666065e-17 -0.9999179268330676 0.012811697689237914
12652465333.333334 -0.9997168820569867 0.023794027193355403 1.1139073663534232e-16 -3.6701141626538614e-17 1.1139073663534232e-16 -3.6701141626538614e-17 -0.9997168981148564 0.023793352505060004
12653082666.666666 -0.9993952429282239 0.03477281139419794 1.1095589878174558e-16 -3.792480994471097e-17 1.1095589878174558e-16 -3.792480994471097e-17 -0.9993952663943042 0.03477213695587178
12653700000.0 -0.9989530396014927 0.04574740069949147 1.1050762765107255e-16 -3.914335128436342e-17 1.1050762765107255e-16 -3.914335128436342e-17 -0.9989530704722291 0.04574672659246848
12654317333.333334 -0.998390325423032 0.0567164711659038 1.1004598343375532e-16 -4.0356618278781373e-17 1.1004598343375532e-16 -4.0356618278781373e-17 -0.9983903636939793 0.0567157974714701
12654934666.666666 -0.9977071682771635 0.06767869951605193 1.0957102793573809e-16 -4.156446426518701e-17 1.0957102793573809e-16 -4.156446426518701e-17 -0.9977072139429821 0.06767802631543582
12655552000.0 -0.9969036505781024 0.07863276329796762 1.0908282457026858e-16 -4.2766743302445846e-17 1.0908282457026858e-16 -4.2766743302445846e-17 -0.9969037036325619 0.07863209067232994
12656169333.333334 -0.9959798692600269 0.08957734104449262 1.0858143834951882e-16 -4.3963310188622453e-17 1.0858143834951882e-16 -4.3963310188622453e-17 -0.9959799296960072 0.08957666907491706
12656786666.666666 -0.9949359357653722 0.10051111243292381 1.0806693587597707e-16 -4.515402047852843e-17 1.0806693587597707e-16 -4.515402047852843e-17 -0.9949360035748631 0.1005104412004069
12657404000.0 -0.9937719760313852 0.11143275844426458 1.0753938533367539e-16 -4.633873050110627e-17 1.0753938533367539e-16 -4.633873050110627e-17 -0.9937720512054867 0.11143208802970597
12658021333.333334 -0.9924881304749373 0.12234096152223368 1.0699885647920845e-16 -4.7517297376750886e-17 1.0699885647920845e-16 -4.7517297376750886e-17 -0.9924882130038639 0.12234029200642672
12658638666.666666 -0.9910845539756028 0.13323440573215653 1.0644542063258765e-16 -4.8689579034476256e-17 1.0644542063258765e-16 -4.8689579034476256e-17 -0.9910846438486811 0.13323373719577802
12659256000.0 -0.989561415856923 0.14411177692008145 1.0587915066787201e-16 -4.985543422905175e-17 1.0587915066787201e-16 -4.985543422905175e-17 -0.9895615130625945 0.1441111094436822
12659873333.333334 -0.9879188998660315 0.15497176287089248 1.0530012100364749e-16 -5.1014722557955216e-17 1.0530012100364749e-16 -5.1014722557955216e-17 -0.9879190043918556 0.1549710965348877
12660490666.666666 -0.9861572041514789 0.16581305346672484 1.0470840759329955e-16 -5.216730447826132e-17 1.0470840759329955e-16 -5.216730447826132e-17 -0.9861573159841338 0.16581238835138443
12661108000.0 -0.9842765412392895 0.17663434084526652 1.041040879151011e-16 -5.331304132341781e-17 1.041040879151011e-16 -5.331304132341781e-17 -0.9842766603645708 0.17663367703070496
12661725333.333334 -0.9822771380073865 0.18743431955711362 1.034872409621387e-16 -5.445179531986645e-17 1.034872409621387e-16 -5.445179531986645e-17 -0.9822772644102139 0.18743365712328108
12662342666.666666 -0.9801592356581531 0.19821168672367678 1.0285794723202831e-16 -5.558342960360432e-17 1.0285794723202831e-16 -5.558342960360432e-17 -0.9801593693225684 0.19821102575034874
12662960000.0 -0.977923089689389 0.20896514219404871 1.0221628871646562e-16 -5.670780823659739e-17 1.0221628871646562e-16 -5.670780823659739e-17 -0.9779232305985605 0.20896448276081692
12663577333.333334 -0.9755689698634616 0.21969338870199057 1.0156234889060386e-16 -5.782479622306276e-17 1.0156234889060386e-16 -5.782479622306276e-17 -0.9755691179996846 0.21969273088825308
12664194666.666666 -0.9730971601747754 0.23039513202237483 1.0089621270224205e-16 -5.893425952565279e-17 1.0089621270224205e-16 -5.893425952565279e-17 -0.9730973155194754 0.23039447590732665
12664812000.0 -0.9705079588154849 0.2410690811274278 1.0021796656083557e-16 -6.003606508151462e-17 1.0021796656083557e-16 -6.003606508151462e-17 -0.9705081213492192 0.2410684267900512
12665429333.333334 -0.9678016781395519 0.25171394834233624 9.95276983263463e-17 -6.113008081820177e-17 9.95276983263463e-17 -6.113008081820177e-17 -0.9678018478420135 0.2517132958613916
12666046666.666666 -0.9649786446250777 0.26232844950056317 9.882549729791256e-17 -6.221617566946956e-17 9.882549729791256e-17 -6.221617566946956e-17 -0.9649788214750967 0.2623277989545792
12666664000.0 -0.9620391988348483 0.2729113040990121 9.811145420232932e-17 -6.329421959096898e-17 9.811145420232932e-17 -6.329421959096898e-17 -0.962039382810395 0.2729106555662765
12667281333.333334 -0.958983695375326 0.2834612354522298 9.738566118239174e-17 -6.436408357575616e-17 9.738566118239174e-17 -6.436408357575616e-17 -0.958983886453512 0.28346058901077953
12667898666.666666 -0.955812502853838 0.29397697084653046 9.664821178504464e-17 -6.542563966970758e-17 9.664821178504464e-17 -6.542563966970758e-17 -0.9558127010109218 0.293976326574143
12668516000.0 -0.9525260038340787 0.30445724169364247 9.589920094936447e-17 -6.647876098680038e-17 9.589920094936447e-17 -6.647876098680038e-17 -0.9525262090454656 0.3044565996678255
12669133333.333334 -0.9491245947900473 0.31490078368344704 9.513872499440347e-17 -6.752332172421469e-17 9.513872499440347e-17 -6.752332172421469e-17 -0.9491248070302951 0.3149001439814302
12669750666.666666 -0.9456086860581012 0.3253063369368814 9.436688160682233e-17 -6.855919717736554e-17 9.436688160682233e-17 -6.855919717736554e-17 -0.9456089053009227 0.32530569963560646
