! Parameters = {f0=12700.012000; bw=77.238000; Q=6100.000000; N=10; m_0_1=1.299194; m_1_1=0.723167; m_1_2=1.134006; m_2_2=0.722518; m_2_3=0.770969; m_2_8=0.002023; m_2_9=0.038727; m_3_3=0.720581; m_3_4=0.659498; m_3_7=0.002623; m_3_8=-0.094465; m_3_9=0.002023; m_4_4=0.717656; m_4_5=0.495833; m_4_6=0.006140; m_4_7=-0.115014; m_4_8=0.002623; m_5_5=0.718038; m_5_6=0.903188; m_5_7=0.006140; m_6_6=0.718037; m_6_7=0.496175; m_7_7=0.717670; m_7_8=0.659616; m_8_8=0.720579; m_8_9=0.771282; m_9_9=0.722513; m_9_10=1.135084; m_10_10=0.723157; m_10_11=1.299989}
!
! Created with skrf (http://scikit-rf.org).
# Hz S RI R 50.0 
!freq ReS11 ImS11 ReS21 ImS21 ReS12 ImS12 ReS22 ImS22
12607400000.0 -0.3963144152700804 0.918114853517222 1.5100674245151773e-17 -1.2577401729365315e-16 1.5100674245151773e-17 -1.2577401729365315e-16 -0.3963150436629781 0.9181145822642328
12608017333.333334 -0.38583529244838455 0.9225676815828115 1.3653819510077668e-17 -1.259143480877682e-16 1.3653819510077668e-17 -1.259143480877682e-16 -0.38583592385805726 0.9225674175150641
12608634666.666666 -0.3753061500603526 0.9269009082564823 1.220573354021818e-17 -1.2603804477726003e-16 1.220573354021818e-17 -1.2603804477726003e-16 -0.3753067844046527 0.9269006514075038
12609252000.0 -0.36472835310080337 0.9311139717801422 1.0756607459581549e-17 -1.2614509759119386e-16 1.0756607459581549e-17 -1.2614509759119386e-16 -0.3647289902972116 0.9311137221825226
12609869333.333334 -0.3541032728720917 0.9352063259736259 9.30663245423028e-18 -1.2623549895332503e-16 9.30663245423028e-18 -1.2623549895332503e-16 -0.35410391283772696 0.9352060836590117
12610486666.666666 -0.3434322868064663 0.9391774403054497 7.855999747133807e-18 -1.2630924348223387e-16 7.855999747133807e-18 -1.2630924348223387e-16 -0.34343292945809656 0.9391772053045396
12611104000.0 -0.3327167782872056 0.9430267999616967 6.404900572932803e-18 -1.263663279911776e-16 6.404900572932803e-18 -1.263663279911776e-16 -0.33271742354125877 0.9430265723042387
12611721333.333334 -0.32195813646965077 0.946753905912622 4.953526152819637e-18 -1.2640675148764776e-16 4.953526152819637e-18 -1.2640675148764776e-16 -0.3219587842422256 0.9467536856274094
12612338666.666666 -0.31115775610087576 0.9503582749774341 3.502067669340576e-18 -1.264305151726436e-16 3.502067669340576e-18 -1.264305151726436e-16 -0.31115840630775293 0.9503580620923013
12612956000.0 -0.30031703733876375 0.9538394398869672 2.050716241248886e-18 -1.2643762243965453e-16 2.050716241248886e-18 -1.2643762243965453e-16 -0.3003176898954165 0.9538392344287874
12613573333.333334 -0.28943738557089616 0.9571969493441254 5.996628984121088e-19 -1.2642807887335498e-16 5.996628984121088e-19 -1.2642807887335498e-16 -0.28943804039250154 0.957196751338806
12614190666.666666 -0.2785202112319807 0.9604303680825116 -8.509014433453917e-19 -1.2640189224801228e-16 -8.509014433453917e-19 -1.2640189224801228e-16 -0.2785208682334301 0.9604301775549909
12614808000.0 -0.2675669296211645 0.9635392769228034 -2.3007860072851963e-18 -1.263590725256057e-16 -2.3007860072851963e-18 -1.263590725256057e-16 -0.2675675887170754 0.9635390938970485
12615425333.333334 -0.25657896071852926 0.9665232728271033 -3.7498001808269744e-18 -1.2629963185365926e-16 -3.7498001808269744e-18 -1.2629963185365926e-16 -0.25657962182325594 0.9665230973261064
12616042666.666666 -0.24555772900100453 0.9693819689511894 -5.197753540567663e-18 -1.2622358456278768e-16 -5.197753540567663e-18 -1.2622358456278768e-16 -0.24555839202864915 0.969381800996965
12616660000.0 -0.23450466325769917 0.9721149946946648 -6.644455877269552e-18 -1.2613094716395577e-16 -6.644455877269552e-18 -1.2613094716395577e-16 -0.23450532812212313 0.9721148343082471
12617277333.333334 -0.2234211964046464 0.9747219957490095 -8.089717220813971e-18 -1.260217383454515e-16 -8.089717220813971e-18 -1.260217383454515e-16 -0.22342186301948125 0.9747218429504488
12617894666.666666 -0.21230876529920625 0.977202634143473 -9.533347865088726e-18 -1.258959789695764e-16 -9.533347865088726e-18 -1.258959789695764e-16 -0.21230943357786533 0.9772024889518351
12618512000.0 -0.20116881055337682 0.9795565882889843 -1.0975158392906149e-17 -1.2575369206904455e-16 -1.0975158392906149e-17 -1.2575369206904455e-16 -0.20116948040906607 0.9795564507223466
12619129333.333334 -0.19000277634758825 0.981783553019719 -1.2414959700748235e-17 -1.2559490284310787e-16 -1.2414959700748235e-17 -1.2559490284310787e-16 -0.1900034476933178 0.9817834230951691
12619746666.666666 -0.1788121102430913 0.9838832396327464 -1.3852563023582349e-17 -1.2541963865338738e-16 -1.3852563023582349e-17 -1.2541963865338738e-16 -0.17881278299168657 0.9838831173663788
12620364000.0 -0.1675982629943225 0.9858553759254456 -1.5287779959569033e-17 -1.2522792901942617e-16 -1.5287779959569033e-17 -1.2522792901942617e-16 -0.16759893705843557 0.9858552613323608
12620981333.333334 -0.15636268836108103 0.9876997062307508 -1.6720422494683988e-17 -1.2501980561396393e-16 -1.6720422494683988e-17 -1.2501980561396393e-16 -0.1563633636532021 0.9876995993250538
12621598666.666666 -0.14510684291978387 0.9894159914503448 -1.8150303027346838e-17 -1.247953022579211e-16 -1.8150303027346838e-17 -1.247953022579211e-16 -0.1451075193522524 0.989415892245142
12622216000.0 -0.13383218587477563 0.9910040090856319 -1.9577234392929355e-17 -1.2455445491511074e-16 -1.9577234392929355e-17 -1.2455445491511074e-16 -0.13383286335979194 0.9910039175930309
12622833333.333334 -0.12254017886910129 0.9924635532665889 -2.1001029888242385e-17 -1.2429730168666238e-16 -2.1001029888242385e-17 -1.2429730168666238e-16 -0.12254085731873779 0.9924634694976958
12623450666.666666 -0.11123228579513267 0.9937944347784434 -2.242150329587496e-17 -1.240238828051808e-16 -2.242150329587496e-17 -1.240238828051808e-16 -0.11123296512134524 0.9937943587433615
12624068000.0 -0.0999099726046763 0.9949964810862134 -2.3838468908579905e-17 -1.2373424062860546e-16 -2.3838468908579905e-17 -1.2373424062860546e-16 -0.09991065271931596 0.9949964127940439
12624685333.333334 -0.08857470711878719 0.9960695363570942 -2.5251741553480335e-17 -1.2342841963380986e-16 -2.5251741553480335e-17 -1.2342841963380986e-16 -0.08857538793361124 0.9960694758159319
12625302666.666666 -0.07722795883793271 0.9970134614806073 -2.6661136616214334e-17 -1.2310646640992366e-16 -2.6661136616214334e-17 -1.2310646640992366e-16 -0.07722864026461636 0.9970134086975428
12625920000.0 -0.06587119875094982 0.9978281340866916 -2.8066470065063195e-17 -1.2276842965136434e-16 -2.8066470065063195e-17 -1.2276842965136434e-16 -0.0658718807010977 0.9978280890678093
12626537333.333334 -0.054505899144771205 0.998513448561528 -2.946755847489535e-17 -1.2241436015061515e-16 -2.946755847489535e-17 -1.2241436015061515e-16 -0.05450658152992861 0.9985134113119047
12627154666.666666 -0.04313353341338864 0.9990693160612495 -3.086421905108804e-17 -1.2204431079071724e-16 -3.086421905108804e-17 -1.2204431079071724e-16 -0.04313421614505315 0.9990692865849536
12627772000.0 -0.03175557586667195 0.999495664523459 -3.2256269653373094e-17 -1.2165833653748164e-16 -3.2256269653373094e-17 -1.2165833653748164e-16 -0.03175625885630494 0.9994956428235531
12628389333.333334 -0.02037350153963784 0.9997924386765642 -3.3643528819484214e-17 -1.212564944314601e-16 -3.3643528819484214e-17 -1.212564944314601e-16 -0.02037418469867578 0.9997924247550992
12629006666.666666 -0.008988786000828758 0.9999596000469453 -3.5025815788839866e-17 -1.208388435796076e-16 -3.5025815788839866e-17 -1.208388435796076e-16 -0.00898946924069494 0.9999595939049674
12629624000.0 0.002397094838780137 0.999997126963948 -3.6402950526018253e-17 -1.2040544514670782e-16 -3.6402950526018253e-17 -1.2040544514670782e-16 0.002396411606664305 0.9999971286014915
12630241333.333334 0.013782664917117838 0.9999050145626821 -3.777475374418916e-17 -1.1995636234651175e-16 -3.777475374418916e-17 -1.1995636234651175e-16 0.013781981781321274 0.9999050239787752
12630858666.666666 0.025166448212316825 0.9996832747846658 -3.9141046928394065e-17 -1.194916604326252e-16 -3.9141046928394065e-17 -1.194916604326252e-16 0.025165765261387273 0.9996832919773265
12631476000.0 0.03654696893434814 0.9993319363762615 -4.0501652358793383e-17 -1.1901140668910466e-16 -4.0501652358793383e-17 -1.1901140668910466e-16 0.03654628625680077 0.9993319613425021
12632093333.333334 0.0479227517159731 0.9988510448849643 -4.1856393133667905e-17 -1.1851567042083438e-16 -4.1856393133667905e-17 -1.1851567042083438e-16 0.04792206940027901 0.998851077620789
12632710666.666666 0.05929232180417997 0.9982406626534933 -4.3205093192432606e-17 -1.180045229435987e-16 -4.3205093192432606e-17 -1.180045229435987e-16 0.059291639938754644 0.9982407031538985
12633328000.0 0.07065420525151228 0.9975008688116985 -4.454757733849262e-17 -1.1747803757390367e-16 -4.454757733849262e-17 -1.1747803757390367e-16 0.0706535239247042 0.9975009170706748
12633945333.333334 0.08200692910689546 0.9966317592663163 -4.588367126191683e-17 -1.1693628961856335e-16 -4.588367126191683e-17 -1.1693628961856335e-16 0.0820062484069747 0.9966318152768503
12634562666.666666 0.09334902160673172 0.9956334466885297 -4.7213201562062975e-17 -1.163793563639996e-16 -4.7213201562062975e-17 -1.163793563639996e-16 0.09334834162187844 0.995633510442603
12635180000.0 0.1046790123656425 0.994506060499367 -4.85359957700373e-17 -1.1580731706529903e-16 -4.85359957700373e-17 -1.1580731706529903e-16 0.10467833318393552 0.9945061319879577
12635797333.333334 0.11599543256725788 0.9932497468529007 -4.985188237103273e-17 -1.1522025293501102e-16 -4.985188237103273e-17 -1.1522025293501102e-16 0.1159947542766634 0.9932498260659868
12636414666.666666 0.1272968151542103 0.9918646686173528 -5.116069082651328e-17 -1.1461824713170145e-16 -5.116069082651328e-17 -1.1461824713170145e-16 0.1272961378425703 0.9918647555439106
12637032000.0 0.1385816950188879 0.9903510053539142 -5.2462251596310413e-17 -1.1400138474823342e-16 -5.2462251596310413e-17 -1.1400138474823342e-16 0.13858101877390896 0.9903510999819215
12637649333.333334 0.14984860919294718 0.9887089532935137 -5.375639616051368e-17 -1.1336975279982624e-16 -5.375639616051368e-17 -1.1336975279982624e-16 0.149847934102189 0.9887090556099516
12638266666.666666 0.16109609703714117 0.9869387253113621 -5.504295704126796e-17 -1.1272344021184478e-16 -5.504295704126796e-17 -1.1272344021184478e-16 0.1610954231880053 0.9869388353022157
12638884000.0 0.17232270043064793 0.9850405508993554 -5.632176782440528e-17 -1.1206253780735126e-16 -5.632176782440528e-17 -1.1206253780735126e-16 0.1723220279103664 0.9850406685496164
12639501333.333334 0.1835269639601289 0.98301467613632 -5.759266318093451e-17 -1.1138713829440827e-16 -5.759266318093451e-17 -1.1138713829440827e-16 0.18352629285575292 0.9830148014299888
12640118666.666666 0.19470743510821267 0.9808613636561473 -5.885547888835512e-17 -1.1069733625315313e-16 -5.885547888835512e-17 -1.1069733625315313e-16 0.19470676550660165 0.9808614965762362
12640736000.0 0.2058626644423852 0.978580892613635 -6.011005185190416e-17 -1.0999322812258242e-16 -6.011005185190416e-17 -1.0999322812258242e-16 0.20586199643019482 0.9785810331421668
12641353333.333334 0.21699120580194478 0.9761735586484784 -6.135622012547193e-17 -1.0927491218719342e-16 -6.135622012547193e-17 -1.0927491218719342e-16 0.21699053946561672 0.9761737067664942
12641970666.666666 0.22809161648631945 0.9736396738467851 -6.259382293257662e-17 -1.0854248856326752e-16 -6.259382293257662e-17 -1.0854248856326752e-16 0.2280909519120694 0.973639829534342
12642588000.0 0.23916245744179013 0.9709795667006692 -6.382270068700231e-17 -1.0779605918501443e-16 -6.382270068700231e-17 -1.0779605918501443e-16 0.23916179471559704 0.9709797299368462
12643205333.333334 0.2502022934479395 0.9681935820656979 -6.504269501335645e-17 -1.0703572779043612e-16 -6.504269501335645e-17 -1.0703572779043612e-16 0.2502016326555342 0.9681937528285963
12643822666.666666 0.261209693303934 0.9652820811161276 -6.625364876745015e-17 -1.0626159990696323e-16 -6.625364876745015e-17 -1.0626159990696323e-16 0.2612090345307884 0.965282259382876
12644440000.0 0.27218323001389827 0.9622454412981215 -6.745540605648426e-17 -1.054737828368767e-16 -6.745540605648426e-17 -1.054737828368767e-16 0.2721825733452146 0.9622456270448795
12645057333.333334 0.2831214809719406 0.95908405628082 -6.864781225908176e-17 -1.0467238564249103e-16 -6.864781225908176e-17 -1.0467238564249103e-16 0.28312082649263925 0.9590842494827767
12645674666.666666 0.29402302814657644 0.9557983359052955 -6.983071404513803e-17 -1.0385751913111469e-16 -6.983071404513803e-17 -1.0385751913111469e-16 0.2940223759412862 0.9557985365366788
12646292000.0 0.3048864582647545 0.9523887061313728 -7.100395939552956e-17 -1.0302929583976337e-16 -7.100395939552956e-17 -1.0302929583976337e-16 0.30488580841780066 0.9523889141654478
12646909333.333334 0.31571036299471683 0.9488556089825054 -7.216739762155369e-17 -1.0218783001971101e-16 -7.216739762155369e-17 -1.0218783001971101e-16 0.3157097155901111 0.9488558243915814
12647526666.666666 0.3264933391288217 0.9451995024884053 -7.33208793842828e-17 -1.0133323762075554e-16 -7.33208793842828e-17 -1.0133323762075554e-16 0.326492694250251 0.9451997252438388
12648144000.0 0.33723398876553395 0.9414208606256314 -7.446425671368649e-17 -1.0046563627529943e-16 -7.446425671368649e-17 -1.0046563627529943e-16 0.33723334649634945 0.9414210906978286
12648761333.333334 0.3479309194903785 0.9375201732562323 -7.55973830275601e-17 -9.958514528221874e-17 -7.55973830275601e-17 -9.958514528221874e-17 0.3479302799135852 0.9375204106146544
12649378666.666666 0.35858274455656247 0.9334979460642101 -7.672011315027558e-17 -9.869188559051199e-17 -7.672011315027558e-17 -9.869188559051199e-17 0.35858210775480814 0.9334981906773767
12649996000.0 0.36918808306485795 0.9293547004899217 -7.783230333135041e-17 -9.77859797827287e-17 -7.783230333135041e-17 -9.77859797827287e-17 0.3691874491204223 0.9293549523254139
12650613333.333334 0.3797455601425411 0.9250909736625066 -7.893381126381327e-17 -9.686755205819571e-17 -7.893381126381327e-17 -9.686755205819571e-17 0.3797449291373256 0.9250912326869735
12651230666.666666 0.39025380712152535 0.9207073183303 -8.002449610234284e-17 -9.593672821606273e-17 -8.002449610234284e-17 -9.593672821606273e-17 0.39025317913704255 0.9207075845094619
12651848000.0 0.4007114617160585 0.9162043027890654 -8.11042184812724e-17 -9.499363563808936e-17 -8.11042184812724e-17 -9.499363563808936e-17 0.40071083683342124 0.916204576087718
12652465333.333334 0.41111716819909133 0.9115825108084175 -8.217284053232752e-17 -9.403840327128485e-17 -8.217284053232752e-17 -9.403840327128485e-17 0.4111165464990026 0.9115827911904378
12653082666.666666 0.42146957757800974 0.9068425415561578 -8.323022590218733e-17 -9.307116161032694e-17 -8.323022590218733e-17 -9.307116161032694e-17 0.42146895914075244 0.9068428289845084
12653700000.0 0.4317673477698804 0.9019850095204355 -8.427623976986517e-17 -9.209204267975879e-17 -8.427623976986517e-17 -9.209204267975879e-17 0.43176673267530635 0.9019853039571687
12654317333.333334 0.4420091437749204 0.8970105444303198 -8.531074886381593e-17 -9.110118001605228e-17 -8.531074886381593e-17 -9.110118001605228e-17 0.4420085321024403 0.8970108458365831
12654934666.666666 0.4521936378499278 0.8919197911739966 -8.633362147890793e-17 -9.009870864940892e-17 -8.633362147890793e-17 -9.009870864940892e-17 0.4521930296785007 0.8919200995100373
12655552000.0 0.46231950968038205 0.8867134097151728 -8.734472749312985e-17 -8.908476508541936e-17 -8.734472749312985e-17 -8.908476508541936e-17 0.4623189050885059 0.8867137249403446
12656169333.333334 0.4723854465513819 0.8813920750076366 -8.834393838408686e-17 -8.805948728653519e-17 -8.834393838408686e-17 -8.805948728653519e-17 0.47238484561708294 0.881392397080404
12656786666.666666 0.48239014351807896 0.8759564769076285 -8.933112724531411e-17 -8.702301465331991e-17 -8.933112724531411e-17 -8.702301465331991e-17 0.4823895463189009 0.8759568057855711
12657404000.0 0.4923323035747215 0.8704073200844683 -9.030616880233618e-17 -8.597548800555358e-17 -9.030616880233618e-17 -8.597548800555358e-17 0.49233171018771765 0.8704076557242898
12658021333.333334 0.5022106378228505 0.86474532392918 -9.126893942852319e-17 -8.491704956314034e-17 -9.126893942852319e-17 -8.491704956314034e-17 0.5022100483245717 0.864745666286711
12658638666.666666 0.5120238656382441 0.8589712224613157 -9.221931716070487e-17 -8.384784292686043e-17 -9.221931716070487e-17 -8.384784292686043e-17 0.5120232801047299 0.8589715714915196
12659256000.0 0.521770714837279 0.8530857642335922 -9.315718171460602e-17 -8.276801305889416e-17 -9.315718171460602e-17 -8.276801305889416e-17 0.5217701333440472 0.8530861198905725
12659873333.333334 0.5314499218414899 0.8470897122350685 -9.408241449998802e-17 -8.167770626325232e-17 -9.408241449998802e-17 -8.167770626325232e-17 0.5314493444635274 0.847090074472074
12660490666.666666 0.5410602318414783 0.8409838437921761 -9.499489863560521e-17 -8.057707016598657e-17 -9.499489863560521e-17 -8.057707016598657e-17 0.5410596586532314 0.8409842125616066
12661108000.0 0.5506003989598013 0.8347689504678073 -9.589451896394198e-17 -7.946625369521986e-17 -9.589451896394198e-17 -7.946625369521986e-17 0.5505998300351657 0.8347693257212218
12661725333.333334 0.5600691864121515 0.8284458379589145 -9.678116206566534e-17 -7.834540706107623e-17 -9.678116206566534e-17 -7.834540706107623e-17 0.5600686218244632 0.8284462196470351
12662342666.666666 0.5694653666679558 0.8220153259918872 -9.765471627389894e-17 -7.721468173538079e-17 -9.765471627389894e-17 -7.721468173538079e-17 0.5694648064899811 0.8220157140646068
12662960000.0 0.5787877216093927 0.8154782482163614 -9.851507168822303e-17 -7.60742304312486e-17 -9.851507168822303e-17 -7.60742304312486e-17 0.5787871659133197 0.8154786426227508
12663577333.333334 0.5880350426893333 0.8088354520971316 -9.936212018846144e-17 -7.492420708248809e-17 -9.936212018846144e-17 -7.492420708248809e-17 0.5880344915467619 0.808835852785445
12664194666.666666 0.5972061310880162 0.8020877988042833 -1.0019575544820378e-16 -7.376476682288175e-17 -1.0019575544820378e-16 -7.376476682288175e-17 0.5972055845699488 0.8020882057219656
12664812000.0 0.6062997978684397 0.7952361631015695 -1.0101587294810889e-16 -7.259606596528953e-17 -1.0101587294810889e-16 -7.259606596528953e-17 0.6062992560452728 0.795236576195264
12665429333.333334 0.6153148641306306 0.7882814332329038 -1.0182236998895659e-16 -7.141826198061653e-17 -1.0182236998895659e-16 -7.141826198061653e-17 0.6153143270721446 0.7882818524484569
12666046666.666666 0.6242501611641166 0.7812245108074837 -1.0261514570444414e-16 -7.023151347665062e-17 -1.0261514570444414e-16 -7.023151347665062e-17 0.6242496289394676 0.7812249360899547
12666664000.0 0.6331045305999972 0.7740663106824724 -1.0339410107376902e-16 -6.903598017671226e-17 -1.0339410107376902e-16 -6.903598017671226e-17 0.633104003277709 0.7740667419761398
12667281333.333334 0.6418768245605581 0.7668077608448365 -1.0415913893391461e-16 -6.783182289823922e-17 -1.0415913893391461e-16 -6.783182289823922e-17 0.6418763022085107 0.7668081980932034
12667898666.666666 0.6505659058084131 0.7594498022907746 -1.0491016399173121e-16 -6.661920353116781e-17 -1.0491016399173121e-16 -6.661920353116781e-17 0.6505653884938364 0.759450245436579
12668516000.0 0.6591706478939117 0.7519933889037437 -1.0564708283575648e-16 -6.539828501619602e-17 -1.0564708283575648e-16 -6.539828501619602e-17 0.659170135683377 0.7519938378889655
12669133333.333334 0.667689935300979 0.7444394873309653 -1.063698039477481e-16 -6.416923132297372e-17 -1.063698039477481e-16 -6.416923132297372e-17 0.6676894282603878 0.7444399420968311
12669750666.666666 0.6761226635919452 0.736789076857923 -1.0707823771401709e-16 -6.293220742807917e-17 -1.0707823771401709e-16 -6.293220742807917e-17 0.676122161786523 0.7367895373449166
