! Parameters = {f0=12700.012000; bw=77.238000; Q=6100.000000; N=10; m_0_1=1.249945; m_1_1=-0.015572; m_1_2=1.084757; m_2_2=-0.016221; m_2_3=0.721720; m_2_8=-0.000439; m_2_9=0.036265; m_3_3=-0.018158; m_3_4=0.610249; m_3_7=0.000161; m_3_8=-0.096927; m_3_9=-0.000439; m_4_4=-0.021083; m_4_5=0.446584; m_4_6=0.003678; m_4_7=-0.117476; m_4_8=0.000161; m_5_5=-0.020701; m_5_6=0.853939; m_5_7=0.003678; m_6_6=-0.020702; m_6_7=0.446926; m_7_7=-0.021069; m_7_8=0.610367; m_8_8=-0.018160; m_8_9=0.722033; m_9_9=-0.016226; m_9_10=1.085835; m_10_10=-0.015582; m_10_11=1.250740}
!
! Created with skrf (http://scikit-rf.org).
# Hz S RI R 50.0 
!freq ReS11 ImS11 ReS21 ImS21 ReS12 ImS12 ReS22 ImS22
12607400000.0 0.9505932370983315 0.3104392011050535 -1.004888304504126e-16 -2.778817941220344e-18 -1.004888304504126e-16 -2.778817941220344e-18 0.9505930326486316 0.31043982714804164
12608017333.333334 0.9536290016416114 0.30098459632986474 -1.0049194277055047e-16 -1.7715753699161148e-18 -1.0049194277055047e-16 -1.7715753699161148e-18 0.9536288034282443 0.30098522434140196
12608634666.666666 0.9565707331980191 0.29150031284517225 -1.0048496611749921e-16 -7.645494310157766e-19 -1.0048496611749921e-16 -7.645494310157766e-19 0.9565705412399167 0.2915009427631431
12609252000.0 0.9594181416969544 0.2819872858527324 -1.0046790514283645e-16 2.4215889062880777e-19 -1.0046790514283645e-16 2.4215889062880777e-19 0.9594179560124331 0.28198791761484027
12609869333.333334 0.9621709463685936 0.27244645338853957 -1.0044076550823283e-16 1.248448681582458e-18 -1.0044076550823283e-16 1.248448681582458e-18 0.9621707669753463 0.2724470869323115
12610486666.666666 0.9648288757715288 0.2628787562304655 -1.00403553884489e-16 2.2542191099201184e-18 -1.00403553884489e-16 2.2542191099201184e-18 0.9648287026866285 0.26287939149325945
12611104000.0 0.9673916678196228 0.25328513780519424 -1.0035627795047004e-16 3.2593694353395526e-18 -1.0035627795047004e-16 3.2593694353395526e-18 0.9673915010595182 0.2532857747242046
12611721333.333334 0.9698590698077468 0.24366654409557792 -1.0029894639194203e-16 4.263799019192424e-18 -1.0029894639194203e-16 4.263799019192424e-18 0.9698589093882605 0.24366718260784176
12612338666.666666 0.9722308384367664 0.23402392354708262 -1.002315689003047e-16 5.2674073345696956e-18 -1.002315689003047e-16 5.2674073345696956e-18 0.9722306843730961 0.23402456358948656
12612956000.0 0.9745067398375407 0.2243582269742683 -1.0015415617122571e-16 6.270093976343351e-18 -1.0015415617122571e-16 6.270093976343351e-18 0.9745065921442544 0.22435886848355382
12613573333.333334 0.9766865495939125 0.2146704074672792 -1.000667199031758e-16 7.271758671166361e-18 -1.000667199031758e-16 7.271758671166361e-18 0.9766864082849496 0.2146710503800496
12614190666.666666 0.9787700527649034 0.20496142029761727 -9.996927279586056e-17 8.272301287509589e-18 -9.996927279586056e-17 8.272301287509589e-18 0.9787699178535734 0.20496206455034383
12614808000.0 0.9807570439058997 0.19523222282397407 -9.986182854855558e-17 9.271621845637874e-18 -9.986182854855558e-17 9.271621845637874e-18 0.9807569154048771 0.19523286835300158
12615425333.333334 0.9826473270888766 0.1854837743979683 -9.974440185834014e-17 1.0269620527584017e-17 -9.974440185834014e-17 1.0269620527584017e-17 0.9826472050102038 0.18548442113952224
12616042666.666666 0.9844407159217431 0.1757170362694377 -9.961700841823278e-17 1.1266197687097005e-17 -9.961700841823278e-17 1.1266197687097005e-17 0.9844406002768301 0.1757176841596306
12616660000.0 0.9861370335667196 0.16593297149168318 -9.947966491522564e-17 1.2261253859583251e-17 -9.947966491522564e-17 1.2261253859583251e-17 0.9861369243663385 0.16593362046652013
12617277333.333334 0.9877361127577737 0.15613254482647748 -9.933238902822262e-17 1.3254689772000204e-17 -9.933238902822262e-17 1.3254689772000204e-17 0.9877360100120613 0.15613319482186305
12617894666.666666 0.9892377958170943 0.1463167226490751 -9.917519942587849e-17 1.4246406352738326e-17 -9.917519942587849e-17 1.4246406352738326e-17 0.9892376995355501 0.14631737360081953
12618512000.0 0.9906419346706875 0.1364864728526139 -9.900811576433411e-17 1.5236304741509894e-17 -9.900811576433411e-17 1.5236304741509894e-17 0.9906418448621722 0.13648712469643937
12619129333.333334 0.9919483908629162 0.12664276475306835 -9.883115868486395e-17 1.6224286299145122e-17 -9.883115868486395e-17 1.6224286299145122e-17 0.9919483075356519 0.12664341742461538
12619746666.666666 0.9931570355701973 0.11678656899338928 -9.864434981141548e-17 1.7210252617429934e-17 -9.864434981141548e-17 1.7210252617429934e-17 0.9931569587317655 0.11678722242822309
12620364000.0 0.9942677496136983 0.10691885744779236 -9.844771174805483e-17 1.819410552888841e-17 -9.844771174805483e-17 1.819410552888841e-17 0.9942676792710413 0.10691951158140928
12620981333.333334 0.9952804234710622 0.09704060312618036 -9.824126807632004e-17 1.9175747116512182e-17 -9.824126807632004e-17 1.9175747116512182e-17 0.9952803596304797 0.09704125789401398
12621598666.666666 0.9961949572872371 0.08715278007791662 -9.802504335246769e-17 2.0155079723514075e-17 -9.802504335246769e-17 2.0155079723514075e-17 0.9961948999543879 0.08715343541534441
12622216000.0 0.9970112608843081 0.07725636329591981 -9.77990631046304e-17 2.1132005963009817e-17 -9.77990631046304e-17 2.1132005963009817e-17 0.997011210064209 0.07725701913826945
12622833333.333334 0.9977292537703953 0.06735232862046785 -9.756335382987447e-17 2.2106428727688508e-17 -9.756335382987447e-17 2.2106428727688508e-17 0.9977292094674197 0.06735298490302344
12623450666.666666 0.9983488651475801 0.0574416526430879 -9.731794299116549e-17 2.3078251199431792e-17 -9.731794299116549e-17 2.3078251199431792e-17 0.9983488273654587 0.05744230930109655
12624068000.0 0.998870033918898 0.0475253126101176 -9.706285901422931e-17 2.4047376858939006e-17 -9.706285901422931e-17 2.4047376858939006e-17 0.9988700026607189 0.047525969578795756
12624685333.333334 0.9992927086943632 0.03760428632631485 -9.679813128432692e-17 2.5013709495279877e-17 -9.679813128432692e-17 2.5013709495279877e-17 0.9992926839625706 0.03760494354085462
12625302666.666666 0.9996168477960227 0.027679552058753134 -9.652379014293531e-17 2.5977153215409915e-17 -9.652379014293531e-17 2.5977153215409915e-17 0.9996168295924163 0.027680209454328697
12625920000.0 0.9998424192620834 0.017752088439791112 -9.62398668843191e-17 2.6937612453705077e-17 -9.62398668843191e-17 2.6937612453705077e-17 0.9998424075878198 0.01775274595156518
12626537333.333334 0.9999694008500462 0.007822874371255988 -9.594639375202875e-17 2.789499198138307e-17 -9.594639375202875e-17 2.789499198138307e-17 0.9999693957056393 0.007823531934386166
12627154666.666666 0.9999977800389154 -0.0021071110725076024 -9.564340393529009e-17 2.884919691594209e-17 -9.564340393529009e-17 2.884919691594209e-17 0.9999977814242315 -0.002106453522862468
12627772000.0 0.9999275540304201 -0.01203688874132188 -9.533093156529945e-17 2.980013273056075e-17 -9.533093156529945e-17 2.980013273056075e-17 0.9999275619446863 -0.012036231269995257
12628389333.333334 0.9997587297493017 -0.021965479505185386 -9.50090117114429e-17 3.074770526340465e-17 -9.50090117114429e-17 3.074770526340465e-17 0.9997587441910984 -0.02196482217699668
12629006666.666666 0.9994913238426202 -0.031891904351360495 -9.467768037739795e-17 3.169182072697105e-17 -9.467768037739795e-17 3.169182072697105e-17 0.9994913448098856 -0.03189124723110866
12629624000.0 0.9991253626781202 -0.04181518448056831 -9.433697449716587e-17 3.2632385717322174e-17 -9.433697449716587e-17 3.2632385717322174e-17 0.9991253901681489 -0.04181452763302548
12630241333.333334 0.9986608823416274 -0.05173434140367415 -9.398693193099702e-17 3.3569307223322295e-17 -9.398693193099702e-17 3.3569307223322295e-17 0.9986609163510712 -0.05173368489357922
12630858666.666666 0.9980979286334958 -0.06164839703800139 -9.36275914612371e-17 3.4502492635796896e-17 -9.36275914612371e-17 3.4502492635796896e-17 0.9980979691583638 -0.06164774093005364
12631476000.0 0.997436557064077 -0.07155637380408801 -9.325899278806076e-17 3.543184975670651e-17 -9.325899278806076e-17 3.543184975670651e-17 0.9974366040997369 -0.07155571816294079
12632093333.333334 0.9966768328482661 -0.08145729472171227 -9.288117652514878e-17 3.6357286808185425e-17 -9.288117652514878e-17 3.6357286808185425e-17 0.9966768863894434 -0.08145663961196652
12632710666.666666 0.9958188308990631 -0.09135018350639858 -9.249418419524681e-17 3.727871244161188e-17 -9.249418419524681e-17 3.727871244161188e-17 0.9958188909398435 -0.09134952899259667
12633328000.0 0.9948626358201752 -0.10123406466582624 -9.209805822563904e-17 3.819603574661511e-17 -9.209805822563904e-17 3.819603574661511e-17 0.9948627023540023 -0.10123341081244523
12633945333.333334 0.9938083418976882 -0.11110796359576257 -9.1692841943548e-17 3.910916626000126e-17 -9.1692841943548e-17 3.910916626000126e-17 0.9938084149173686 -0.11110731046720843
12634562666.666666 0.9926560530907688 -0.12097090667630697 -9.127857957143085e-17 4.001801397466762e-17 -9.127857957143085e-17 4.001801397466762e-17 0.9926561325884676 -0.1209702543369076
12635180000.0 0.9914058830214048 -0.13082192136786566 -9.085531622219325e-17 4.09224893484516e-17 -9.085531622219325e-17 4.09224893484516e-17 0.991405968988651 -0.13082126988186502
12635797333.333334 0.9900579549632034 -0.14066003630707782 -9.042309789431458e-17 4.1822503312935196e-17 -9.042309789431458e-17 4.1822503312935196e-17 0.9900580473908894 -0.14065938573862963
12636414666.666666 0.9886124018292544 -0.15048428140248563 -8.998197146689166e-17 4.271796728218543e-17 -8.998197146689166e-17 4.271796728218543e-17 0.9886125007076344 -0.15048363181564642
12637032000.0 0.9870693661589924 -0.1602936879303578 -8.953198469458415e-17 4.360879316146871e-17 -8.953198469458415e-17 4.360879316146871e-17 0.9870694714776868 -0.1602930393890814
12637649333.333334 0.9854290001041628 -0.17008728863009948 -8.9073186202486e-17 4.4494893355886685e-17 -8.9073186202486e-17 4.4494893355886685e-17 0.9854291118521584 -0.1700866411982304
12638266666.666666 0.9836914654138157 -0.17986411779965752 -8.860562548090737e-17 4.5376180778969305e-17 -8.860562548090737e-17 4.5376180778969305e-17 0.9836915835794653 -0.17986347154092439
12638884000.0 0.9818569334183579 -0.18962321139071545 -8.812935288006582e-17 4.625256886122308e-17 -8.812935288006582e-17 4.625256886122308e-17 0.9818570579893835 -0.1896225663687252
12639501333.333334 0.979925585012635 -0.19936360710389386 -8.764441960470546e-17 4.712397155860169e-17 -8.764441960470546e-17 4.712397155860169e-17 0.979925715976128 -0.19936296338212525
12640118666.666666 0.9778976106381573 -0.2090843444833032 -8.715087770862895e-17 4.799030336092853e-17 -8.715087770862895e-17 4.799030336092853e-17 0.9778977479805809 -0.20908370212510066
12640736000.0 0.9757732102642125 -0.2187844650118078 -8.664878008912246e-17 4.885147930030384e-17 -8.664878008912246e-17 4.885147930030384e-17 0.9757733539714011 -0.21878382408037497
12641353333.333334 0.9735525933682878 -0.22846301220484438 -8.613818048135251e-17 4.970741495935834e-17 -8.613818048135251e-17 4.970741495935834e-17 0.9735527434254501 -0.22846237276323814
12641970666.666666 0.9712359789152948 -0.23811903170532142 -8.561913345261872e-17 5.055802647955929e-17 -8.561913345261872e-17 5.055802647955929e-17 0.9712361353070149 -0.2381183938164455
12642588000.0 0.9688235953360328 -0.24775157137744472 -8.509169439656749e-17 5.1403230569380424e-17 -8.509169439656749e-17 5.1403230569380424e-17 0.9688237580462722 -0.24775093510404392
12643205333.333334 0.9663156805046654 -0.2573596814006327 -8.455591952731087e-17 5.224294451243967e-17 -8.455591952731087e-17 5.224294451243967e-17 0.9663158495167633 -0.2573590468052861
12643822666.666666 0.9637124817152322 -0.2669424143632829 -8.401186587346034e-17 5.307708617558256e-17 -8.401186587346034e-17 5.307708617558256e-17 0.9637126570119087 -0.26694178150839803
12644440000.0 0.9610142556572988 -0.27649882535605413 -8.345959127209454e-17 5.3905574016882595e-17 -8.345959127209454e-17 5.3905574016882595e-17 0.9610144372206559 -0.2764981943038611
12645057333.333334 0.9582212683906444 -0.2860279720650684 -8.28991543626396e-17 5.47283270935936e-17 -8.28991543626396e-17 5.47283270935936e-17 0.958221456202167 -0.28602734287761294
12645674666.666666 0.9553337953190222 -0.2955289148648271 -8.233061458067442e-17 5.554526507003416e-17 -8.233061458067442e-17 5.554526507003416e-17 0.9553339893595837 -0.2955282876039659
12646292000.0 0.9523521211629505 -0.3050007169110551 -8.175403215163906e-17 5.63563082254359e-17 -8.175403215163906e-17 5.63563082254359e-17 0.9523523214128097 -0.3050000916384482
12646909333.333334 0.9492765399317421 -0.3144424442327243 -8.116946808451467e-17 5.716137746165727e-17 -8.116946808451467e-17 5.716137746165727e-17 0.949276746370547 -0.31444182100982954
12647526666.666666 0.9461073548944283 -0.32385316582441886 -8.057698416537413e-17 5.796039431090859e-17 -8.057698416537413e-17 5.796039431090859e-17 0.946107567501221 -0.3238525447124868
12648144000.0 0.942844878549866 -0.33323195373811176 -7.997664295088272e-17 5.87532809433734e-17 -7.997664295088272e-17 5.87532809433734e-17 0.9428450973030804 -0.333231334798178
12648761333.333334 0.9394894325959559 -0.3425778831745563 -7.936850776172831e-17 5.953996017475888e-17 -7.936850776172831e-17 5.953996017475888e-17 0.9394896574734228 -0.3425772664674367
12649378666.666666 0.9360413478979254 -0.3518900325744772 -7.875264267597003e-17 6.032035547378744e-17 -7.875264267597003e-17 6.032035547378744e-17 0.9360415788768742 -0.35188941816076147
12649996000.0 0.9325009644556541 -0.361167483709575 -7.812911252230553e-17 6.109439096963106e-17 -7.812911252230553e-17 6.109439096963106e-17 0.9325012015127148 -0.361166871649621
12650613333.333334 0.9288686313701767 -0.37040932177298835 -7.749798287327882e-17 6.186199145925858e-17 -7.749798287327882e-17 6.186199145925858e-17 0.9288688744813822 -0.37040871212691584
12651230666.666666 0.9251447068093134 -0.3796146354693665 -7.685932003841858e-17 6.262308241471115e-17 -7.685932003841858e-17 6.262308241471115e-17 0.9251449559501018 -0.37961402829705143
12651848000.0 0.921329557972203 -0.38878251710509737 -7.621319105727975e-17 6.337758999033756e-17 -7.621319105727975e-17 6.337758999033756e-17 0.9213298131174203 -0.3887819124661658
12652465333.333334 0.9174235610532548 -0.3979120626774157 -7.555966369244917e-17 6.412544102991713e-17 -7.555966369244917e-17 6.412544102991713e-17 0.9174238221771578 -0.3979114606312381
12653082666.666666 0.9134271012050136 -0.4070023719636485 -7.489880642246674e-17 6.486656307372807e-17 -7.489880642246674e-17 6.486656307372807e-17 0.913427368281272 -0.40700177256933423
12653700000.0 0.9093405725000804 -0.41605254861021745 -7.423068843465013e-17 6.560088436557503e-17 -7.423068843465013e-17 6.560088436557503e-17 0.9093408455017786 -0.4160519519266079
12654317333.333334 0.9051643778924104 -0.42506170022065776 -7.355537961791374e-17 6.632833385967115e-17 -7.355537961791374e-17 6.632833385967115e-17 0.9051646567920534 -0.4250611063063223
12654934666.666666 0.9008989291774705 -0.43402893844387563 -7.287295055545708e-17 6.704884122751819e-17 -7.287295055545708e-17 6.704884122751819e-17 0.9008992139469827 -0.4340283473571042
12655552000.0 0.8965446469516261 -0.4429533790617411 -7.218347251741455e-17 6.776233686468025e-17 -7.218347251741455e-17 6.776233686468025e-17 0.8965449375623565 -0.44295279086053957
12656169333.333334 0.8921019605707817 -0.45183414207604805 -7.148701745345385e-17 6.846875189746563e-17 -7.148701745345385e-17 6.846875189746563e-17 0.8921022569935055 -0.4518335568181314
12656786666.666666 0.8875713081079197 -0.46067035179554083 -7.078365798527364e-17 6.916801818957253e-17 -7.078365798527364e-17 6.916801818957253e-17 0.8875716103128428 -0.460669769538329
12657404000.0 0.8829531363099663 -0.46946113692213615 -7.007346739906467e-17 6.986006834862639e-17 -7.007346739906467e-17 6.986006834862639e-17 0.8829534442667274 -0.46946055772274753
12658021333.333334 0.8782479005537146 -0.4782056306368876 -6.935651963789436e-17 7.054483573265538e-17 -6.935651963789436e-17 7.054483573265538e-17 0.8782482142313878 -0.47820505455213325
12658638666.666666 0.8734560648009885 -0.48690297068533367 -6.863288929404199e-17 7.122225445647359e-17 -6.863288929404199e-17 7.122225445647359e-17 0.8734563841680868 -0.486902397771712
12659256000.0 0.8685781015527572 -0.4955522994627697 -6.790265160124162e-17 7.189225939801533e-17 -6.790265160124162e-17 7.189225939801533e-17 0.8685784265772365 -0.49555172977646134
12659873333.333334 0.8636144918026698 -0.5041527640985899 -6.716588242690216e-17 7.25547862045533e-17 -6.716588242690216e-17 7.25547862045533e-17 0.8636148224519297 -0.5041521976954508
12660490666.666666 0.858565724989623 -0.5127035165403825 -6.642265826425098e-17 7.320977129885323e-17 -6.642265826425098e-17 7.320977129885323e-17 0.8585660612305133 -0.5127029534759409
12661108000.0 0.8534322989493629 -0.5212037136378023 -6.567305622438624e-17 7.38571518852762e-17 -6.567305622438624e-17 7.38571518852762e-17 0.8534326407481847 -0.5212031539672508
12661725333.333334 0.848214719865593 -0.5296525172253631 -6.491715402834157e-17 7.449686595573625e-17 -6.491715402834157e-17 7.449686595573625e-17 0.8482150671881034 -0.5296519610035549
12662342666.666666 0.8429135022199051 -0.538049094205357 -6.415502999901888e-17 7.512885229564214e-17 -6.415502999901888e-17 7.512885229564214e-17 0.8429138550313183 -0.5380485414867993
12662960000.0 0.8375291687411175 -0.5463926166298773 -6.338676305310882e-17 7.575305048971853e-17 -6.338676305310882e-17 7.575305048971853e-17 0.8375295270061115 -0.5463920674687269
12663577333.333334 0.8320622503537359 -0.5546822617824613 -6.261243269293928e-17 7.6369400927757e-17 -6.261243269293928e-17 7.6369400927757e-17 0.8320626140364541 -0.5546817162325196
12664194666.666666 0.8265132861255384 -0.562917212259311 -6.183211899827114e-17 7.697784481028281e-17 -6.183211899827114e-17 7.697784481028281e-17 0.8265136551895927 -0.5629166703740169
12664812000.0 0.8208828232145119 -0.5710966560497472 -6.104590261803878e-17 7.757832415413788e-17 -6.104590261803878e-17 7.757832415413788e-17 0.8208831976229874 -0.5710961178821736
12665429333.333334 0.8151714168148213 -0.5792197866163987 -6.025386476203461e-17 7.817078179798113e-17 -6.025386476203461e-17 7.817078179798113e-17 0.8151717965302814 -0.5792192522192474
12666046666.666666 0.8093796301021653 -0.5872858029745927 -5.945608719255445e-17 7.875516140769503e-17 -5.945608719255445e-17 7.875516140769503e-17 0.8093800150866516 -0.5872852724001875
12666664000.0 0.8035080341780583 -0.5952939097715878 -5.865265221595397e-17 7.933140748173256e-17 -5.865265221595397e-17 7.933140748173256e-17 0.8035084243930971 -0.5952933830718707
12667281333.333334 0.7975572080137501 -0.6032433173646784 -5.784364267421092e-17 7.989946535633802e-17 -5.784364267421092e-17 7.989946535633802e-17 0.7975576034203566 -0.6032427945912054
12667898666.666666 0.7915277383929726 -0.6111332418992902 -5.70291419363849e-17 8.045928121071979e-17 -5.70291419363849e-17 8.045928121071979e-17 0.791528138951654 -0.6111327231032242
12668516000.0 0.7854202198540741 -0.6189629053862667 -5.620923389003804e-17 8.101080207212707e-17 -5.620923389003804e-17 8.101080207212707e-17 0.7854206255248322 -0.6189623906183735
12669133333.333334 0.7792352546315512 -0.6267315357783838 -5.53840029326515e-17 8.15539758208101e-17 -5.53840029326515e-17 8.15539758208101e-17 0.7792356653738887 -0.6267310250890274
12669750666.666666 0.7729734525964942 -0.6344383670467018 -5.455353396292719e-17 8.208875119493929e-17 -5.455353396292719e-17 8.208875119493929e-17 0.7729738683694175 -0.6344378604858391
12670368000.0 0.7666354311965163 -0.6420826392560092 -5.3717912372086094e-17 8.261507779540526e-17 -5.3717912372086094e-17 8.261507779540526e-17 0.7666358519585392 -0.6420821368731847
