! Parameters = {f0=12700.012000; bw=77.238000; Q=6100.000000; N=10; m_0_1=1.270165; m_1_1=0.287732; m_1_2=1.104977; m_2_2=0.287083; m_2_3=0.741940; m_2_8=0.000572; m_2_9=0.037276; m_3_3=0.285146; m_3_4=0.630469; m_3_7=0.001172; m_3_8=-0.095916; m_3_9=0.000572; m_4_4=0.282221; m_4_5=0.466804; m_4_6=0.004689; m_4_7=-0.116465; m_4_8=0.001172; m_5_5=0.282603; m_5_6=0.874159; m_5_7=0.004689; m_6_6=0.282602; m_6_7=0.467146; m_7_7=0.282235; m_7_8=0.630587; m_8_8=0.285144; m_8_9=0.742253; m_9_9=0.287078; m_9_10=1.106055; m_10_10=0.287722; m_10_11=1.270960}
!
! Created with skrf (http://scikit-rf.org).
# Hz S RI R 50.0 
!freq ReS11 ImS11 ReS21 ImS21 ReS12 ImS12 ReS22 ImS22
12607400000.0 0.7861477211772704 0.6180386399632363 -1.0286497257486752e-16 -4.087535937820511e-17 -1.0286497257486752e-16 -4.087535937820511e-17 0.7861473075867257 0.6180391660517681
12608017333.333334 0.7926106405671068 0.6097281135552329 -1.0327289354467e-16 -3.97732182579444e-17 -1.0327289354467e-16 -3.97732182579444e-17 0.7926102325579278 0.6097286439427709
12608634666.666666 0.7989857116079943 0.6013500084360942 -1.0366901425196184e-16 -3.8667025669305905e-17 -1.0366901425196184e-16 -3.8667025669305905e-17 0.7989853092248534 0.6013505430634354
12609252000.0 0.8052722277242328 0.5929052531862697 -1.0405329467648445e-16 -3.7556907863453e-17 -1.0405329467648445e-16 -3.7556907863453e-17 0.8052718310111754 0.5929057919937472
12609869333.333334 0.8114694921551041 0.5843947837732297 -1.0442569614779067e-16 -3.644299148438423e-17 -1.0442569614779067e-16 -3.644299148438423e-17 0.8114691011555423 0.5843953267007187
12610486666.666666 0.8175768180319108 0.5758195434479794 -1.047861813490659e-16 -3.5325403554532853e-17 -1.047861813490659e-16 -3.5325403554532853e-17 0.8175764327886182 0.5758200904349039
12611104000.0 0.8235935284543525 0.567180482640167 -1.0513471432081637e-16 -3.420427146026356e-17 -1.0513471432081637e-16 -3.420427146026356e-17 0.8235931490094625 0.5671810336255085
12611721333.333334 0.8295189565653058 0.5584785588530947 -1.0547126046436972e-16 -3.30797229374387e-17 -1.0547126046436972e-16 -3.30797229374387e-17 0.8295185829603041 0.5584791137753967
12612338666.666666 0.835352445624881 0.549714736557383 -1.0579578654525257e-16 -3.1951886056851974e-17 -1.0579578654525257e-16 -3.1951886056851974e-17 0.835352077900602 0.5497152953547586
12612956000.0 0.8410933490832728 0.54088998708398 -1.0610826069640275e-16 -3.082088920965992e-17 -1.0610826069640275e-16 -3.082088920965992e-17 0.8410929872798948 0.5408905496941186
12613573333.333334 0.8467410306521816 0.5320052885168575 -1.0640865242121084e-16 -2.9686861092837294e-17 -1.0640865242121084e-16 -2.9686861092837294e-17 0.8467406748092241 0.5320058548770334
12614190666.666666 0.8522948643755608 0.5230616255842775 -1.066969325964317e-16 -2.854993069451636e-17 -1.066969325964317e-16 -2.854993069451636e-17 0.8522945145318782 0.5230621956313547
12614808000.0 0.8577542346988829 0.5140599895498162 -1.0697307347492259e-16 -2.741022727935938e-17 -1.0697307347492259e-16 -2.741022727935938e-17 0.8577538908926599 0.5140605632202556
12615425333.333334 0.8631185365374362 0.5050013781023748 -1.0723704868823047e-16 -2.6267880373887568e-17 -1.0723704868823047e-16 -2.6267880373887568e-17 0.8631181988061858 0.5050019553322428
12616042666.666666 0.868387175343305 0.4958867952457507 -1.074888332490261e-16 -2.5123019751774218e-17 -1.074888332490261e-16 -2.5123019751774218e-17 0.8683868437238625 0.49588737597072496
12616660000.0 0.8735595671713194 0.48671725118725917 -1.0772840355337378e-16 -2.397577541914602e-17 -1.0772840355337378e-16 -2.397577541914602e-17 0.8735592416998407 0.48671783534263713
12617277333.333334 0.8786351387437815 0.47749376222577017 -1.0795573738285297e-16 -2.2826277599830604e-17 -1.0795573738285297e-16 -2.2826277599830604e-17 0.8786348194557362 0.477494349746475
12617894666.666666 0.8836133275139172 0.4682173506392156 -1.081708139065144e-16 -2.167465672062191e-17 -1.081708139065144e-16 -2.167465672062191e-17 0.8836130144440872 0.46821794145980394
12618512000.0 0.8884935817284331 0.45888904457091195 -1.0837361368269302e-16 -2.0521043396460965e-17 -1.0837361368269302e-16 -2.0521043396460965e-17 0.8884932749109065 0.4588896386255808
12619129333.333334 0.8932753604883951 0.44950987791610664 -1.0856411866064295e-16 -1.9365568415708917e-17 -1.0856411866064295e-16 -1.9365568415708917e-17 0.8932750599565636 0.4495104751387008
12619746666.666666 0.8979581338093701 0.44008089020703617 -1.0874231218203456e-16 -1.820836272530159e-17 -1.0874231218203456e-16 -1.820836272530159e-17 0.8979578395959281 0.4400814905310572
12620364000.0 0.9025413826801512 0.43060312649773635 -1.0890817898228517e-16 -1.7049557415941275e-17 -1.0890817898228517e-16 -1.7049557415941275e-17 0.9025410948170866 0.43060372985634693
12620981333.333334 0.9070245991201525 0.4210776372484665 -1.0906170519173101e-16 -1.5889283707287472e-17 -1.0906170519173101e-16 -1.5889283707287472e-17 0.9070243176387482 0.4210782435745007
12621598666.666666 0.9114072862358887 0.4115054782089273 -1.0920287833664576e-16 -1.4727672933110988e-17 -1.0920287833664576e-16 -1.4727672933110988e-17 0.911407011166716 0.41150608743489614
12622216000.0 0.9156889582759093 0.4018877103015276 -1.0933168734009915e-16 -1.3564856526456527e-17 -1.0933168734009915e-16 -1.3564856526456527e-17 0.9156886896488275 0.4018883223596281
12622833333.333334 0.9198691406847116 0.3922253995036451 -1.0944812252265896e-16 -1.2400966004793677e-17 -1.0944812252265896e-16 -1.2400966004793677e-17 0.9198688785288627 0.3922260143257668
12623450666.666666 0.92394737015528 0.3825196167296094 -1.0955217560293306e-16 -1.1236132955182862e-17 -1.0955217560293306e-16 -1.1236132955182862e-17 0.9239471144990841 0.3825202342473414
12624068000.0 0.927923194680478 0.37277143771190197 -1.0964383969795839e-16 -1.007048901939568e-17 -1.0964383969795839e-16 -1.007048901939568e-17 0.9279229455516351 0.37277205785654266
12624685333.333334 0.9317961736032074 0.3629819428818004 -1.0972310932342744e-16 -8.904165879078455e-18 -1.0972310932342744e-16 -8.904165879078455e-18 0.9317959310286875 0.36298256558436204
12625302666.666666 0.9355658776650643 0.3531522172500453 -1.0978998039375771e-16 -7.73729524092343e-18 -1.0978998039375771e-16 -7.73729524092343e-18 0.935565641671112 0.35315284244126494
12625920000.0 0.9392318890541269 0.3432833502860875 -1.0984445022200885e-16 -6.5700088217649126e-18 -1.0984445022200885e-16 -6.5700088217649126e-18 0.9392316596662541 0.34328397789643267
12626537333.333334 0.9427938014511048 0.33337643579773263 -1.0988651751963426e-16 -5.402438333798667e-18 -1.0988651751963426e-16 -5.402438333798667e-18 0.9427935786940873 0.33337706575740933
12627154666.666666 0.9462512200744247 0.3234325718097783 -1.0991618239608141e-16 -4.2347154697140156e-18 -1.0991618239608141e-16 -4.2347154697140156e-18 0.9462510039723028 0.32343320404873926
12627772000.0 0.9496037617240799 0.31345286044204634 -1.0993344635823298e-16 -3.0669718878495007e-18 -1.0993344635823298e-16 -3.0669718878495007e-18 0.9496035523001531 0.3134534948899986
12628389333.333334 0.952851054823916 0.3034384077877683 -1.0993831230968959e-16 -1.8993391974207433e-18 -1.0993831230968959e-16 -1.8993391974207433e-18 0.9528508521007413 0.3034390443741805
12629006666.666666 0.9559927394629854 0.2933903237904796 -1.0993078454989745e-16 -7.319489436533545e-19 -1.0993078454989745e-16 -7.319489436533545e-19 0.9559925434623753 0.29339096244459073
12629624000.0 0.9590284674353244 0.283309722121352 -1.099108687731174e-16 4.35067406958634e-19 -1.099108687731174e-16 4.35067406958634e-19 0.9590282781783448 0.28331036277217886
12630241333.333334 0.9619579022786322 0.2731977200554898 -1.0987857206723834e-16 1.6015784814640669e-18 -1.0987857206723834e-16 1.6015784814640669e-18 0.961957719785599 0.27319836263183467
12630858666.666666 0.9647807193114624 0.26305543834842354 -1.0983390291243463e-16 2.7674530151934232e-18 -1.0983390291243463e-16 2.7674530151934232e-18 0.9647805436019395 0.2630560827788822
12631476000.0 0.9674966056693285 0.25288400111148257 -1.0977687117966439e-16 3.9325598665514e-18 -1.0977687117966439e-16 3.9325598665514e-18 0.9674964367621268 0.2528846473244523
12632093333.333334 0.9701052603392701 0.2426845356875882 -1.0970748812901601e-16 5.096768031683747e-18 -1.0970748812901601e-16 5.096768031683747e-18 0.9701050982524446 0.2426851836112758
12632710666.666666 0.9726063941932613 0.23245817252616993 -1.0962576640789597e-16 6.259946659213377e-18 -1.0962576640789597e-16 6.259946659213377e-18 0.9726062389441089 0.23245882208859966
12633328000.0 0.974999730020308 0.22220604505762298 -1.0953172004906e-16 7.421965064931603e-18 -1.0953172004906e-16 7.421965064931603e-18 0.974999581625367 0.22220669618664457
12633945333.333334 0.9772850025570757 0.21192928956810037 -1.0942536446849245e-16 8.582692746439963e-18 -1.0942536446849245e-16 8.582692746439963e-18 0.9772848610321229 0.21192994219139688
12634562666.666666 0.9794619585173504 0.20162904507332507 -1.0930671646312862e-16 9.741999397778255e-18 -1.0930671646312862e-16 9.741999397778255e-18 0.979461823877398 0.2016296991184208
12635180000.0 0.981530356620088 0.1913064531924305 -1.0917579420842233e-16 1.0899754924037223e-17 -1.0917579420842233e-16 1.0899754924037223e-17 0.9815302288793865 0.19130710858669972
12635797333.333334 0.9834899676161892 0.18096265802129155 -1.0903261725575966e-16 1.2055829455929275e-17 -1.0903261725575966e-16 1.2055829455929275e-17 0.9834898467882224 0.18096331469196605
12636414666.666666 0.9853405743138524 0.17059880600599855 -1.0887720652971875e-16 1.3210093364331228e-17 -1.0887720652971875e-16 1.3210093364331228e-17 0.9853404604113348 0.17059946388017538
12637032000.0 0.9870819716026963 0.16021604581551196 -1.0870958432517539e-16 1.4362417274794278e-17 -1.0870958432517539e-16 1.4362417274794278e-17 0.9870818646375757 0.1602167048201623
12637649333.333334 0.9887139664764719 0.14981552821449123 -1.0852977430425641e-16 1.551267208201968e-17 -1.0852977430425641e-16 1.551267208201968e-17 0.9887138664599248 0.14981618827646784
12638266666.666666 0.9902363780544505 0.1393984059357502 -1.0833780149313981e-16 1.666072896429533e-17 -1.0833780149313981e-16 1.666072896429533e-17 0.9902362849968833 0.13939906698179605
12638884000.0 0.9916490376014907 0.12896583355238275 -1.0813369227870036e-16 1.7806459397910098e-17 -1.0813369227870036e-16 1.7806459397910098e-17 0.991648951512538 0.12896649550913888
12639501333.333334 0.9929517885467195 0.11851896734993722 -1.0791747440500787e-16 1.894973517150142e-17 -1.0791747440500787e-16 1.894973517150142e-17 0.9929517094352404 0.1185196301439507
12640118666.666666 0.9941444865008772 0.1080589651983169 -1.0768917696967342e-16 2.0090428400368234e-17 -1.0768917696967342e-16 2.0090428400368234e-17 0.9941444143749585 0.10805962875604937
12640736000.0 0.9952269992723758 0.09758698642302545 -1.074488304200308e-16 2.1228411540808727e-17 -1.074488304200308e-16 2.1228411540808727e-17 0.9952269341393278 0.09758765067086093
12641353333.333334 0.9961992068818634 0.08710419167737946 -1.0719646654919748e-16 2.2363557404264446e-17 -1.0719646654919748e-16 2.2363557404264446e-17 0.996199148748224 0.08710485654163298
12641970666.666666 0.9970610015756082 0.07661174281316284 -1.069321184919518e-16 2.3495739171586782e-17 -1.069321184919518e-16 2.3495739171586782e-17 0.9970609504471344 0.0766124082200879
12642588000.0 0.9978122878373822 0.06611080275230519 -1.0665582072048245e-16 2.4624830407146335e-17 -1.0665582072048245e-16 2.4624830407146335e-17 0.9978122437190575 0.06611146862810269
12643205333.333334 0.9984529823990727 0.05560253535784985 -1.0636760903998326e-16 2.5750705072927376e-17 -1.0636760903998326e-16 2.5750705072927376e-17 0.9984529452951025 0.05560320162867583
12643822666.666666 0.9989830142499116 0.045088105304901066 -1.0606752058409249e-16 2.6873237542595893e-17 -1.0606752058409249e-16 2.6873237542595893e-17 0.9989829841637224 0.04508877189687493
12644440000.0 0.9994023246443375 0.03456867795156613 -1.0575559381019855e-16 2.7992302615458475e-17 -1.0575559381019855e-16 2.7992302615458475e-17 0.9994023015785788 0.03456934479077898
12645057333.333334 0.9997108671085068 0.024045419209936317 -1.0543186849458722e-16 2.9107775530416237e-17 -1.0543186849458722e-16 2.9107775530416237e-17 0.9997108510650501 0.024046086222459063
12645674666.666666 0.9999086074454506 0.013519495416750297 -1.0509638572744724e-16 3.021953197984264e-17 -1.0509638572744724e-16 3.021953197984264e-17 0.9999085984253875 0.013520162528641822
12646292000.0 0.9999955237388651 0.0029920732039536084 -1.0474918790771793e-16 3.132744812344344e-17 -1.0474918790771793e-16 3.132744812344344e-17 0.9999955217425097 0.00299274034126903
12646909333.333334 0.9999716063555324 -0.007535680630234622 -1.0439031873781875e-16 3.243140060196937e-17 -1.0439031873781875e-16 3.243140060196937e-17 0.9999716113824207 -0.007535013541435785
12647526666.666666 0.9998368579463986 -0.018062599250898516 -1.040198232182039e-16 3.35312665509674e-17 -1.040198232182039e-16 3.35312665509674e-17 0.9998368699952872 -0.018061932284544144
12648144000.0 0.9995912934462693 -0.028587515915835852 -1.0363774764178884e-16 3.462692361442041e-17 -1.0363774764178884e-16 3.462692361442041e-17 0.9995913125151389 -0.028586849145833086
12648761333.333334 0.9992349400721651 -0.03910926410458893 -1.0324413958823034e-16 3.571824995833324e-17 -1.0324413958823034e-16 3.571824995833324e-17 0.999234966158215 -0.039108597604815845
12649378666.666666 0.9987678373202962 -0.049626677647848345 -1.0283904791806949e-16 3.680512428423672e-17 -1.0283904791806949e-16 3.680512428423672e-17 0.9987678704199519 -0.04962601149214593
12649996000.0 0.998190036961692 -0.06013859085678991 -1.024225227667185e-16 3.788742584267059e-17 -1.024225227667185e-16 3.788742584267059e-17 0.9981900770706006 -0.06013792511895384
12650613333.333334 0.9975016030364529 -0.07064383865230095 -1.0199461553831844e-16 3.8965034446560773e-17 -1.0199461553831844e-16 3.8965034446560773e-17 0.997501650149484 -0.07064317340607326
12651230666.666666 0.9967026118466689 -0.08114125669382707 -1.0155537889945889e-16 4.003783048452565e-17 -1.0155537889945889e-16 4.003783048452565e-17 0.9967026659579187 -0.08114059201288829
12651848000.0 0.9957931519479428 -0.0916296815088183 -1.0110486677273575e-16 4.1105694934167015e-17 -1.0110486677273575e-16 4.1105694934167015e-17 0.9957932130507302 -0.09162901746677893
12652465333.333334 0.9947733241395862 -0.10210795062139737 -1.0064313433020305e-16 4.2168509375205726e-17 -1.0064313433020305e-16 4.2168509375205726e-17 0.9947733922264588 -0.1021072872917902
12653082666.666666 0.9936432414534652 -0.1125749026811749 -1.001702379866671e-16 4.322615600259682e-17 -1.001702379866671e-16 4.322615600259682e-17 0.9936433165161936 -0.11257424013744624
12653700000.0 0.9924030291414174 -0.12302937759236107 -9.968623539282927e-17 4.427851763959791e-17 -9.968623539282927e-17 4.427851763959791e-17 0.9924031111710029 -0.12302871590786323
12654317333.333334 0.9910528246614421 -0.13347021664177988 -9.919118542833398e-17 4.532547775066834e-17 -9.919118542833398e-17 4.532547775066834e-17 0.9910529136481129 -0.1334695558897626
12654934666.666666 0.9895927776624127 -0.14389626262768865 -9.868514819463818e-17 4.636692045438736e-17 -9.868514819463818e-17 4.636692045438736e-17 0.9895928735956291 -0.1438956028812915
12655552000.0 0.9880230499674979 -0.15430635998800796 -9.81681850077642e-17 4.740273053625079e-17 -9.81681850077642e-17 4.740273053625079e-17 0.9880231528359494 -0.15430570132025156
12656169333.333334 0.9863438155562628 -0.16469935492811527 -9.764035839093237e-17 4.843279346136327e-17 -9.764035839093237e-17 4.843279346136327e-17 0.9863439253478731 -0.1646986974118939
12656786666.666666 0.9845552605453298 -0.175074095549119 -9.710173206702654e-17 4.945699538711504e-17 -9.710173206702654e-17 4.945699538711504e-17 0.9845553772472542 -0.1750734392571919
12657404000.0 0.9826575831677954 -0.18542943197521877 -9.655237095096233e-17 5.047522317570687e-17 -9.655237095096233e-17 5.047522317570687e-17 0.9826577067664258 -0.1854287769802025
12658021333.333334 0.9806509937512329 -0.19576421648131925 -9.599234114190042e-17 5.148736440663754e-17 -9.599234114190042e-17 5.148736440663754e-17 0.9806511242321987 -0.19576356285567967
12658638666.666666 0.9785357146944192 -0.20607730362004245 -9.542170991534838e-17 5.249330738907021e-17 -9.542170991534838e-17 5.249330738907021e-17 0.9785358520425884 -0.20607665143608658
12659256000.0 0.9763119804426079 -0.21636755034907226 -9.484054571510134e-17 5.349294117416857e-17 -9.484054571510134e-17 5.349294117416857e-17 0.9763121246420882 -0.2163668996789401
12659873333.333334 0.9739800374616253 -0.22663381615742434 -9.424891814509817e-17 5.448615556726621e-17 -9.424891814509817e-17 5.448615556726621e-17 0.9739801884957671 -0.22663316707308126
12660490666.666666 0.9715401442105365 -0.23687496319196605 -9.364689796112178e-17 5.5472841139997893e-17 -9.364689796112178e-17 5.5472841139997893e-17 0.9715403020619346 -0.23687431576519474
12661108000.0 0.9689925711129411 -0.2470898563837786 -9.303455706236557e-17 5.645288924234984e-17 -9.303455706236557e-17 5.645288924234984e-17 0.9689927357634368 -0.247089210686171
12661725333.333334 0.9663376005270984 -0.2572773635735466 -9.241196848290344e-17 5.742619201457004e-17 -9.241196848290344e-17 5.742619201457004e-17 0.9663377719577801 -0.25727671967649574
12662342666.666666 0.9635755267145291 -0.2674363556374531 -9.177920638301143e-17 5.839264239902477e-17 -9.177920638301143e-17 5.839264239902477e-17 0.9635757049057366 -0.26743571361214613
12662960000.0 0.9607066558074807 -0.27756570661202395 -9.113634604037468e-17 5.935213415194376e-17 -9.113634604037468e-17 5.935213415194376e-17 0.9607068407388055 -0.27756506652943275
12663577333.333334 0.9577313057749589 -0.28766429381905795 -9.048346384117346e-17 6.030456185507003e-17 -9.048346384117346e-17 6.030456185507003e-17 0.9577314974252485 -0.2876636557499329
12664194666.666666 0.9546498063874963 -0.2977309979900331 -8.9820637271038e-17 6.124982092722422e-17 -8.9820637271038e-17 6.124982092722422e-17 0.9546500047348554 -0.2977303620048944
12664812000.0 0.9514624991806084 -0.3077647033901309 -8.914794490590068e-17 6.218780763574487e-17 -8.914794490590068e-17 6.218780763574487e-17 0.9514627042024018 -0.3077640695592608
12665429333.333334 0.9481697374168988 -0.3177642979420344 -8.846546640271016e-17 6.311841910785687e-17 -8.846546640271016e-17 6.311841910785687e-17 0.9481699490897532 -0.31776366633546954
12666046666.666666 0.9447718860469996 -0.3277286733488859 -8.777328249004824e-17 6.404155334190802e-17 -8.777328249004824e-17 6.404155334190802e-17 0.9447721043468069 -0.32772804403640954
12666664000.0 0.9412693216689892 -0.3376567252175294 -8.707147495858998e-17 6.495710921855819e-17 -8.707147495858998e-17 6.495710921855819e-17 0.9412695465709103 -0.3376560982686641
12667281333.333334 0.9376624324867909 -0.34754735318051155 -8.636012665151179e-17 6.58649865117777e-17 -8.636012665151179e-17 6.58649865117777e-17 0.9376626639652565 -0.34754672866451086
12667898666.666666 0.9339516182670634 -0.3573994610182823 -8.563932145472254e-17 6.676508589982527e-17 -8.563932145472254e-17 6.676508589982527e-17 0.9339518562957781 -0.35739883900412345
12668516000.0 0.9301372902948482 -0.36721195678079765 -8.490914428700982e-17 6.76573089760795e-17 -8.490914428700982e-17 6.76573089760795e-17 0.9301375348467931 -0.36721133733717387
12669133333.333334 0.9262198713281382 -0.37698375290814773 -8.416968109008033e-17 6.854155825975702e-17 -8.416968109008033e-17 6.854155825975702e-17 0.9262201223755745 -0.37698313610346074
12669750666.666666 0.9221997955508818 -0.38671376635146726 -8.342101881847125e-17 6.94177372065429e-17 -8.342101881847125e-17 6.94177372065429e-17 0.9222000530653525 -0.38671315225381936
12670368000.0 0.918077508524905 -0.3964009186928401 -8.266324542935913e-17 7.028575021910234e-17 -8.266324542935913e-17 7.028575021910234e-17 0.918077772477241 -0.3964003073700276
