! Parameters = {f0=12700.012000; bw=77.238000; Q=6100.000000; N=10; m_0_1=1.286181; m_1_1=0.527972; m_1_2=1.120993; m_2_2=0.527323; m_2_3=0.757956; m_2_8=0.001373; m_2_9=0.038077; m_3_3=0.525386; m_3_4=0.646485; m_3_7=0.001973; m_3_8=-0.095115; m_3_9=0.001373; m_4_4=0.522461; m_4_5=0.482820; m_4_6=0.005490; m_4_7=-0.115664; m_4_8=0.001973; m_5_5=0.522843; m_5_6=0.890175; m_5_7=0.005490; m_6_6=0.522842; m_6_7=0.483162; m_7_7=0.522475; m_7_8=0.646603; m_8_8=0.525384; m_8_9=0.758269; m_9_9=0.527318; m_9_10=1.122071; m_10_10=0.527962; m_10_11=1.286976}
!
! Created with skrf (http://scikit-rf.org).
# Hz S RI R 50.0 
!freq ReS11 ImS11 ReS21 ImS21 ReS12 ImS12 ReS22 ImS22
12607400000.0 -0.9150526359768383 -0.40333444359694653 1.1833601055775177e-16 1.5127900794726232e-17 1.1833601055775177e-16 1.5127900794726232e-17 -0.9150523626744537 -0.4033350636427724
12608017333.333334 -0.9194343785841195 -0.3932434659056055 1.1847329430427798e-16 1.3811946666648941e-17 1.1847329430427798e-16 1.3811946666648941e-17 -0.9194341121324947 -0.3932440888900298
12608634666.666666 -0.9237048443470193 -0.38310489494349687 1.1859595309890316e-16 1.2494809111917289e-17 1.1859595309890316e-16 1.2494809111917289e-17 -0.9237045847777308 -0.3831055207908376
12609252000.0 -0.9278635164218381 -0.3729199577565147 1.1870397758529256e-16 1.1176650565272817e-17 1.1870397758529256e-16 1.1176650565272817e-17 -0.927863263765625 -0.37292058639075043
12609869333.333334 -0.9319098914949646 -0.36268988700219185 1.187973602101081e-16 9.857633523376781e-18 1.187973602101081e-16 9.857633523376781e-18 -0.9319096457817272 -0.36269051834697147
12610486666.666666 -0.9358434798438049 -0.3524159208004896 1.1887609522322903e-16 8.537920524836617e-18 1.1887609522322903e-16 8.537920524836617e-18 -0.9358432411026001 -0.3524165547791414
12611104000.0 -0.9396638053961316 -0.3420993025837383 1.1894017867775674e-16 7.217674130150568e-18 1.1894017867775674e-16 7.217674130150568e-18 -0.9396635736551695 -0.3420999391192793
12611721333.333334 -0.94337040578753 -0.3317412809465989 1.1898960842979025e-16 5.897056901772393e-18 1.1898960842979025e-16 5.897056901772393e-18 -0.9433701810741714 -0.3317419199617444
12612338666.666666 -0.9469628324175184 -0.32134310949452416 1.1902438413798517e-16 4.57623138410248e-18 1.1902438413798517e-16 4.57623138410248e-18 -0.9469626147582703 -0.32134375091169665
12612956000.0 -0.9504406505038067 -0.3109060466921156 1.1904450726289088e-16 3.2553600834924403e-18 1.1904450726289088e-16 3.2553600834924403e-18 -0.95044043992432 -0.3109066904334548
12613573333.333334 -0.9538034391348078 -0.30043135571113844 1.1904998106606393e-16 1.9346054483230422e-18 1.1904998106606393e-16 1.9346054483230422e-18 -0.9538032356598739 -0.30043200169851003
12614190666.666666 -0.9570507913207341 -0.28992030427718474 1.190408106089629e-16 6.141298490328128e-19 1.190408106089629e-16 6.141298490328128e-19 -0.9570505949742834 -0.28992095243219074
12614808000.0 -0.9601823140427412 -0.27937416451659564 1.190170027516217e-16 -7.059044418156523e-19 1.190170027516217e-16 -7.059044418156523e-19 -0.9601821248478376 -0.27937481476058307
12615425333.333334 -0.9631976283005588 -0.2687942128022811 1.1897856615110144e-16 -2.0253352694394132e-18 1.1897856615110144e-16 -2.0253352694394132e-18 -0.9631974462793995 -0.2687948650563521
12616042666.666666 -0.9660963691583363 -0.2581817295993259 1.1892551125972378e-16 -3.3440006167132546e-18 1.1892551125972378e-16 -3.3440006167132546e-18 -0.9660961943322472 -0.25818238378434677
12616660000.0 -0.9688781857887873 -0.2475379993100997 1.1885785032308246e-16 -4.66173862405349e-18 1.1885785032308246e-16 -4.66173862405349e-18 -0.9688780181782228 -0.24753865534671118
12617277333.333334 -0.9715427415157111 -0.2368643101185907 1.187755973778363e-16 -5.9783876092475615e-18 1.187755973778363e-16 -5.9783876092475615e-18 -0.9715425811402489 -0.2368649679272168
12617894666.666666 -0.9740897138546428 -0.22616195383485618 1.1867876824928416e-16 -7.293786087233867e-18 1.1867876824928416e-16 -7.293786087233867e-18 -0.9740895607329846 -0.2261626133357147
12618512000.0 -0.976518794552011 -0.2154322257381829 1.1856738054871567e-16 -8.607772789933916e-18 1.1856738054871567e-16 -8.607772789933916e-18 -0.9765186487019777 -0.21543288685129433
12619129333.333334 -0.9788296896223267 -0.20467642442079115 1.1844145367055181e-16 -9.920186685935446e-18 1.1844145367055181e-16 -9.920186685935446e-18 -0.9788295510608581 -0.20467708706598886
12619746666.666666 -0.9810221193838146 -0.19389585163047693 1.183010087892608e-16 -1.1230867000219625e-17 1.183010087892608e-16 -1.1230867000219625e-17 -0.9810219881269668 -0.1938965157274167
12620364000.0 -0.9830958184922951 -0.18309181211289716 1.1814606885605665e-16 -1.2539653233845583e-17 1.1814606885605665e-16 -1.2539653233845583e-17 -0.9830956945552377 -0.18309247758106678
12620981333.333334 -0.9850505359732252 -0.17226561345399302 1.1797665859538647e-16 -1.384638518353283e-17 1.1797665859538647e-16 -1.384638518353283e-17 -0.9850504193702427 -0.17226628021272256
12621598666.666666 -0.9868860352521217 -0.16141856592154255 1.1779280450119497e-16 -1.5150902961263548e-17 1.1779280450119497e-16 -1.5150902961263548e-17 -0.9868859259966067 -0.16141923389001336
12622216000.0 -0.9886020941831889 -0.15055198230655276 1.1759453483297458e-16 -1.6453047013818196e-17 1.1759453483297458e-16 -1.6453047013818196e-17 -0.9886019922876458 -0.15055265140380802
12622833333.333334 -0.9901985050762021 -0.1396671777644041 1.1738187961160086e-16 -1.7752658142255708e-17 1.1738187961160086e-16 -1.7752658142255708e-17 -0.9901984105522429 -0.1396678479093583
12623450666.666666 -0.9916750747216148 -0.12876546965587757 1.1715487061495687e-16 -1.9049577521322533e-17 1.1715487061495687e-16 -1.9049577521322533e-17 -0.9916749875799575 -0.12876614076732612
12624068000.0 -0.9930316244139888 -0.11784817738740827 1.169135413733332e-16 -2.0343646718868102e-17 1.169135413733332e-16 -2.0343646718868102e-17 -0.9930315446644573 -0.11784884938403768
12624685333.333334 -0.994267989973608 -0.10691662225145676 1.1665792716462134e-16 -2.1634707715161044e-17 1.1665792716462134e-16 -2.1634707715161044e-17 -0.9942679176251312 -0.10691729505185443
12625302666.666666 -0.9953840217663091 -0.09597212726696351 1.163880650093017e-16 -2.2922602922110794e-17 1.163880650093017e-16 -2.2922602922110794e-17 -0.9953839568269193 -0.09597280078962747
12625920000.0 -0.9963795847216623 -0.08501601701860603 1.161039936651971e-16 -2.4207175202541245e-17 1.161039936651971e-16 -2.4207175202541245e-17 -0.996379527198493 -0.08501669118195479
12626537333.333334 -0.9972545583492468 -0.07404961749710895 1.1580575362204008e-16 -2.548826788927559e-17 1.1580575362204008e-16 -2.548826788927559e-17 -0.9972545082485353 -0.07405029221949164
12627154666.666666 -0.9980088367532813 -0.06307425593839593 1.1549338709581662e-16 -2.6765724804222375e-17 1.1549338709581662e-16 -2.6765724804222375e-17 -0.9980087940803644 -0.06307493113810185
12627772000.0 -0.9986423286454326 -0.0520912606628716 1.1516693802289168e-16 -2.80393902774231e-17 1.1516693802289168e-16 -2.80393902774231e-17 -0.9986422934047495 -0.052091936258140424
12628389333.333334 -0.9991549573558394 -0.041101960915140734 1.1482645205394933e-16 -2.930910916593163e-17 1.1482645205394933e-16 -2.930910916593163e-17 -0.9991549295509282 -0.04110263682417217
12629006666.666666 -0.9995466608424249 -0.030107686702537304 1.1447197654769658e-16 -3.0574726872736076e-17 1.1447197654769658e-16 -3.0574726872736076e-17 -0.9995466404759228 -0.030108362843501053
12629624000.0 -0.9998173916983811 -0.01910976863455411 1.1410356056438636e-16 -3.183608936550168e-17 1.1410356056438636e-16 -3.183608936550168e-17 -0.9998173787720263 -0.01911044492559989
12630241333.333334 -0.9999671171579149 -0.00810953776171757 1.1372125485910944e-16 -3.3093043195328015e-17 1.1372125485910944e-16 -3.3093043195328015e-17 -0.9999671116725449 -0.008110214120984893
12630858666.666666 -0.999995819100216 0.002891674585506058 1.1332511187490563e-16 -3.4345435515339825e-17 1.1332511187490563e-16 -3.4345435515339825e-17 -0.9999958210557668 0.002890998239877929
12631476000.0 -0.9999034940516451 0.013892536958065652 1.1291518573563897e-16 -3.5593114099299575e-17 1.1291518573563897e-16 -3.5593114099299575e-17 -0.9999035034471535 0.013891860707927809
12632093333.333334 -0.9996901531861598 0.024891717949012477 1.124915322387033e-16 -3.6835927360027305e-17 1.124915322387033e-16 -3.6835927360027305e-17 -0.9996901700197603 0.024891041876196427
12632710666.666666 -0.9993558223239561 0.035887886355006414 1.1205420884750567e-16 -3.807372436779568e-17 1.1205420884750567e-16 -3.807372436779568e-17 -0.9993558465928855 0.03588721054131424
12633328000.0 -0.9989005419283479 0.04687971133734301 1.1160327468373906e-16 -3.93063548686625e-17 1.1160327468373906e-16 -3.93063548686625e-17 -0.998900573628943 0.04687903586453747
12633945333.333334 -0.9983243671008685 0.05786586258296469 1.1113879051948023e-16 -4.053366930263641e-17 1.1113879051948023e-16 -4.053366930263641e-17 -0.998324406228566 0.05786518753275922
12634562666.666666 -0.9976273675745979 0.06884501046552184 1.1066081876906594e-16 -4.175551882181391e-17 1.1066081876906594e-16 -4.175551882181391e-17 -0.9976274141239372 0.06884433591957081
12635180000.0 -0.996809627705734 0.07981582620618098 1.1016942348078415e-16 -4.2971755308383813e-17 1.1016942348078415e-16 -4.2971755308383813e-17 -0.9968096816703562 0.07981515224606976
12635797333.333334 -0.9958712464633654 0.09077698203467012 1.0966467032835211e-16 -4.418223139257571e-17 1.0966467032835211e-16 -4.418223139257571e-17 -0.9958713078360146 0.09077630874190513
12636414666.666666 -0.9948123374175196 0.10172715134963559 1.0914662660222244e-16 -4.538680047044688e-17 1.0914662660222244e-16 -4.538680047044688e-17 -0.9948124061900446 0.10172647880563458
12637032000.0 -0.9936330287253881 0.11266500887956536 1.0861536120066297e-16 -4.6585316721646316e-17 1.0861536120066297e-16 -4.6585316721646316e-17 -0.9936331048887438 0.1126643371656476
12637649333.333334 -0.9923334631158314 0.12358923084298516 1.0807094462066685e-16 -4.777763512701273e-17 1.0807094462066685e-16 -4.777763512701273e-17 -0.9923335466600786 0.12358856004036146
12638266666.666666 -0.9909137978721153 0.13449849510861628 1.0751344894866455e-16 -4.8963611486083354e-17 1.0751344894866455e-16 -4.8963611486083354e-17 -0.9909138887864204 0.13449782529837895
12638884000.0 -0.9893742048128492 0.14539148135555838 1.0694294785103289e-16 -5.0143102434519684e-17 1.0694294785103289e-16 -5.0143102434519684e-17 -0.9893743030854915 0.14539081261867226
12639501333.333334 -0.9877148702712037 0.156266871233029 1.0635951656442412e-16 -5.13159654613989e-17 1.0635951656442412e-16 -5.13159654613989e-17 -0.9877149758895711 0.15626620365032076
12640118666.666666 -0.9859359950723956 0.16712334851966698 1.0576323188591647e-16 -5.2482058926372723e-17 1.0576323188591647e-16 -5.2482058926372723e-17 -0.9859361080229881 0.16712268217181583
12640736000.0 -0.984037794509284 0.17795959928344915 1.0515417216293127e-16 -5.364124207680608e-17 1.0515417216293127e-16 -5.364124207680608e-17 -0.9840379147777164 0.17795893425097695
12641353333.333334 -0.9820204983164363 0.1887743120399544 1.0453241728303579e-16 -5.479337506465241e-17 1.0453241728303579e-16 -5.479337506465241e-17 -0.9820206258874397 0.18877364840321612
12641970666.666666 -0.9798843506422463 0.199566177911595 1.0389804866349407e-16 -5.593831896334655e-17 1.0389804866349407e-16 -5.593831896334655e-17 -0.9798844854996683 0.19956551575076867
12642588000.0 -0.9776296100193914 0.21033389078594172 1.0325114924066617e-16 -5.707593578451145e-17 1.0325114924066617e-16 -5.707593578451145e-17 -0.9776297521461988 0.21033323018101877
12643205333.333334 -0.9752565493335843 0.22107614747360413 1.0259180345922397e-16 -5.820608849454643e-17 1.0259180345922397e-16 -5.820608849454643e-17 -0.9752566987118668 0.22107548850438008
12643822666.666666 -0.9727654557904826 0.23179164786625864 1.0192009726117094e-16 -5.932864103111778e-17 1.0192009726117094e-16 -5.932864103111778e-17 -0.972765612401455 0.2317909906123234
12644440000.0 -0.9701566308809746 0.24247909509377452 1.0123611807470725e-16 -6.044345831948007e-17 1.0123611807470725e-16 -6.044345831948007e-17 -0.9701567947049776 0.24247843963450266
12645057333.333334 -0.9674303903447108 0.25313719568111737 1.0053995480288846e-16 -6.155040628871905e-17 1.0053995480288846e-16 -6.155040628871905e-17 -0.9674305613612133 0.2531365420956581
12645674666.666666 -0.9645870641318464 0.2637646597050594 9.983169781213367e-17 -6.264935188781848e-17 9.983169781213367e-17 -6.264935188781848e-17 -0.9645872423194494 0.2637640080723279
12646292000.0 -0.9616269963630766 0.2743602009504055 9.911143892052048e-17 -6.374016310165826e-17 9.911143892052048e-17 -6.374016310165826e-17 -0.9616271816995167 0.27435955134907297
12646909333.333334 -0.9585505452881119 0.28492253706522247 9.837927138595905e-17 -6.482270896679361e-17 9.837927138595905e-17 -6.482270896679361e-17 -0.9585507377502603 0.28492188957370607
12647526666.666666 -0.9553580832421956 0.2954503897164763 9.763528989415309e-17 -6.589685958716449e-17 9.763528989415309e-17 -6.589685958716449e-17 -0.9553582828060653 0.2954497444129307
12648144000.0 -0.9520499966010707 0.30594248474463603 9.687959054639253e-17 -6.696248614966095e-17 9.687959054639253e-17 -6.696248614966095e-17 -0.9520502032418159 0.30594184170694305
12648761333.333334 -0.9486266857342742 0.3163975523176912 9.611227084719991e-17 -6.801946093951662e-17 9.611227084719991e-17 -6.801946093951662e-17 -0.9486268994261975 0.31639691162345157
12649378666.666666 -0.9450885649566387 0.3268143270850017 9.533342969180224e-17 -6.906765735557243e-17 9.533342969180224e-17 -6.906765735557243e-17 -0.9450887856731897 0.3268136888115241
12649996000.0 -0.9414360624781197 0.33719154833049036 9.454316735340873e-17 -7.010694992543536e-17 9.454316735340873e-17 -7.010694992543536e-17 -0.9414362901919023 0.3371909125547839
12650613333.333334 -0.9376696203520354 0.34752796012506604 9.374158547035764e-17 -7.11372143204462e-17 9.374158547035764e-17 -7.11372143204462e-17 -0.9376698550348076 0.3475273269238292
12651230666.666666 -0.9337896944215318 0.35782231147870425 9.292878703310298e-17 -7.215832737049892e-17 9.292878703310298e-17 -7.215832737049892e-17 -0.9337899360442119 0.3578216809283168
12651848000.0 -0.9297967542643949 0.3680733564919049 9.21048763709931e-17 -7.317016707877275e-17 9.21048763709931e-17 -7.317016707877275e-17 -0.9297970027970643 0.3680727286684185
12652465333.333334 -0.9256912831362388 0.3782798545064272 9.126995913894656e-17 -7.417261263623963e-17 9.126995913894656e-17 -7.417261263623963e-17 -0.9256915385481459 0.37827922948555603
12653082666.666666 -0.9214737779120507 0.38844057025536455 9.042414230395382e-17 -7.516554443604553e-17 9.042414230395382e-17 -7.516554443604553e-17 -0.9214740401716136 0.3884399481124762
12653700000.0 -0.9171447490259794 0.39855427401282967 8.95675341313802e-17 -7.614884408778535e-17 8.95675341313802e-17 -7.614884408778535e-17 -0.9171450181007906 0.3985536548229358
12654317333.333334 -0.9127047204096475 0.40861974174257565 8.870024417118669e-17 -7.712239443153938e-17 8.870024417118669e-17 -7.712239443153938e-17 -0.9127049962664783 0.40861912558032365
12654934666.666666 -0.9081542294286602 0.41863575524632035 8.782238324394608e-17 -7.808607955181388e-17 8.782238324394608e-17 -7.808607955181388e-17 -0.9081545120334654 0.41863514218598413
12655552000.0 -0.9034938268176079 0.428601102311105 8.693406342670998e-17 -7.903978479132028e-17 8.693406342670998e-17 -7.903978479132028e-17 -0.9034941161355273 0.4286004924265752
12656169333.333334 -0.8987240766134442 0.4385145768559264 8.603539803876772e-17 -7.998339676455006e-17 8.603539803876772e-17 -7.998339676455006e-17 -0.898724372608809 0.4385139702207024
12656786666.666666 -0.8938455560871383 0.44837497907788676 8.512650162721466e-17 -8.091680337123443e-17 8.512650162721466e-17 -8.091680337123443e-17 -0.8938458587234752 0.4483743757650675
12657404000.0 -0.8888588556739075 0.4581811155971973 8.420748995238943e-17 -8.183989380962659e-17 8.420748995238943e-17 -8.183989380962659e-17 -0.8888591649139432 0.45818051567947266
12658021333.333334 -0.8837645789016458 0.4679317996018401 8.327847997317168e-17 -8.275255858961365e-17 8.327847997317168e-17 -8.275255858961365e-17 -0.8837648947073121 0.4679312031514822
12658638666.666666 -0.8785633423180497 0.47762585099087634 8.233958983215534e-17 -8.365468954564642e-17 8.233958983215534e-17 -8.365468954564642e-17 -0.878563664650486 0.4776252580797298
12659256000.0 -0.8732557754157709 0.48726209651769686 8.139093884062525e-17 -8.454617984955743e-17 8.139093884062525e-17 -8.454617984955743e-17 -0.8732561042353327 0.48726150721717226
12659873333.333334 -0.8678425205563932 0.4968393699317178 8.043264746346198e-17 -8.542692402314379e-17 8.043264746346198e-17 -8.542692402314379e-17 -0.8678428558226531 0.49683878431278083
12660490666.666666 -0.8623242328927326 0.5063565121194554 7.946483730389092e-17 -8.629681795060159e-17 7.946483730389092e-17 -8.629681795060159e-17 -0.8623245745644876 0.5063559302526197
12661108000.0 -0.8567015802893209 0.5158123712452061 7.848763108804908e-17 -8.71557588908293e-17 7.848763108804908e-17 -8.71557588908293e-17 -0.8567019283245957 0.5158117932005237
12661725333.333334 -0.8509752432418118 0.5252058028900284 7.750115264950217e-17 -8.80036454894842e-17 7.750115264950217e-17 -8.80036454894842e-17 -0.8509755975978678 0.5252052287370834
12662342666.666666 -0.8451459147945196 0.5345356701904527 7.650552691356965e-17 -8.88403777909195e-17 7.650552691356965e-17 -8.88403777909195e-17 -0.8451462754278547 0.5345350999983498
12662960000.0 -0.8392143004565127 0.5438008439760885 7.55008798815385e-17 -8.966585724992855e-17 7.55008798815385e-17 -8.966585724992855e-17 -0.8392146673228712 0.5438002778134478
12663577333.333334 -0.8331811181162682 0.5530002029062434 7.448733861476184e-17 -9.047998674330355e-17 7.448733861476184e-17 -9.047998674330355e-17 -0.8331814911706429 0.5529996408411895
12664194666.666666 -0.8270470979548252 0.5621326336055594 7.346503121861954e-17 -9.12826705812242e-17 7.346503121861954e-17 -9.12826705812242e-17 -0.8270474771514662 0.5621320757057151
12664812000.0 -0.8208129823573114 0.5711970307989324 7.243408682637373e-17 -9.20738145184548e-17 7.243408682637373e-17 -9.20738145184548e-17 -0.8208133676497281 0.5711964771314094
12665429333.333334 -0.8144795258231993 0.5801922974451127 7.139463558287179e-17 -9.285332576538311e-17 7.139463558287179e-17 -9.285332576538311e-17 -0.8144799171641689 0.5801917480765041
12666046666.666666 -0.8080474948749619 0.5891173448695258 7.034680862818705e-17 -9.36211129988334e-17 7.034680862818705e-17 -9.36211129988334e-17 -0.8080478922165342 0.5891167998658982
12666664000.0 -0.8015176679651702 0.5979710928962172 6.929073808106161e-17 -9.437708637275794e-17 6.929073808106161e-17 -9.437708637275794e-17 -0.8015180712586738 0.5979705523231023
12667281333.333334 -0.7948908353825617 0.6067524699781907 6.822655702232815e-17 -9.512115752867227e-17 6.822655702232815e-17 -9.512115752867227e-17 -0.7948912445786088 0.6067519339005776
12667898666.666666 -0.7881677991561243 0.6154604133274627 6.71543994781557e-17 -9.585323960595128e-17 6.71543994781557e-17 -9.585323960595128e-17 -0.7881682142046191 0.615459881809791
12668516000.0 -0.7813493729580803 0.6240938690436195 6.607440040318894e-17 -9.657324725193541e-17 6.607440040318894e-17 -9.657324725193541e-17 -0.7813497938082221 0.6240933421497695
12669133333.333334 -0.7744363820056156 0.6326517922410977 6.498669566363088e-17 -9.728109663181069e-17 6.498669566363088e-17 -9.728109663181069e-17 -0.7744368086059067 0.632651270034384
12669750666.666666 -0.7674296629607271 0.6411331471760022 6.389142202015188e-17 -9.797670543834546e-17 6.389142202015188e-17 -9.797670543834546e-17 -0.7674300952589794 0.6411326297191664
