! Parameters = {f0=12700.012000; bw=77.238000; Q=6100.000000; N=10; m_0_1=1.338433; m_1_1=1.311756; m_1_2=1.173245; m_2_2=1.311107; m_2_3=0.810208; m_2_8=0.003985; m_2_9=0.040689; m_3_3=1.309170; m_3_4=0.698737; m_3_7=0.004585; m_3_8=-0.092503; m_3_9=0.003985; m_4_4=1.306245; m_4_5=0.535072; m_4_6=0.008102; m_4_7=-0.113052; m_4_8=0.004585; m_5_5=1.306627; m_5_6=0.942427; m_5_7=0.008102; m_6_6=1.306626; m_6_7=0.535414; m_7_7=1.306259; m_7_8=0.698855; m_8_8=1.309168; m_8_9=0.810521; m_9_9=1.311102; m_9_10=1.174323; m_10_10=1.311746; m_10_11=1.339228}
!
! Created with skrf (http://scikit-rf.org).
# Hz S RI R 50.0 
!freq ReS11 ImS11 ReS21 ImS21 ReS12 ImS12 ReS22 ImS22
12607400000.0 -0.9654647910367383 -0.2605335626520899 1.5108709997744426e-16 -3.692432553293754e-18 1.5108709997744426e-16 -3.692432553293754e-18 -0.9654646073511605 -0.26053424333870784
12608017333.333334 -0.9686573821069374 -0.24840063625026912 1.509988183604119e-16 -5.599931671156296e-18 1.509988183604119e-16 -5.599931671156296e-18 -0.9686572069840722 -0.2484013191543473
12608634666.666666 -0.9716975059806581 -0.23622861145672705 1.5088646718677594e-16 -7.505789994723008e-18 1.5088646718677594e-16 -7.505789994723008e-18 -0.9716973394472302 -0.23622929647056426
12609252000.0 -0.9745846841408622 -0.2240194041547736 1.5075007381363992e-16 -9.4097039685064e-18 1.5075007381363992e-16 -9.4097039685064e-18 -0.9745845262222425 -0.22402009117034705
12609869333.333334 -0.9773184621442634 -0.21177493608020811 1.505896694243591e-16 -1.1311370466188957e-17 1.505896694243591e-16 -1.1311370466188957e-17 -0.9773183128644636 -0.2117756249891905
12610486666.666666 -0.9798984096928056 -0.19949713451905868 1.504052890220677e-16 -1.3210486838808998e-17 1.504052890220677e-16 -1.3210486838808998e-17 -0.9798982690744753 -0.19949782521283527
12611104000.0 -0.9823241207014777 -0.1871879320038377 1.5019697142259417e-16 -1.5106750962902736e-17 1.5019697142259417e-16 -1.5106750962902736e-17 -0.9823239887659018 -0.18718862437352365
12611721333.333334 -0.9845952133621391 -0.1748492660098056 1.4996475924677984e-16 -1.6999861288458278e-17 1.4996475924677984e-16 -1.6999861288458278e-17 -0.984595090129234 -0.17484995994626287
12612338666.666666 -0.9867113302036863 -0.16248307864967698 1.4970869891218564e-16 -1.8889516886836255e-17 1.4970869891218564e-16 -1.8889516886836255e-17 -0.9867112156919952 -0.16248377404353145
12612956000.0 -0.9886721381483162 -0.150091316367873 1.4942884062419524e-16 -2.0775417498572314e-17 1.4942884062419524e-16 -2.0775417498572314e-17 -0.9886720323750097 -0.15009201310953216
12613573333.333334 -0.9904773285638789 -0.13767592963465616 1.4912523836652795e-16 -2.2657263580977766e-17 1.4912523836652795e-16 -2.2657263580977766e-17 -0.9904772315447488 -0.13767662761432584
12614190666.666666 -0.9921266173125415 -0.12523887263856348 1.4879794989114052e-16 -2.4534756355692085e-17 1.4879794989114052e-16 -2.4534756355692085e-17 -0.9921265290620023 -0.12523957174626563
12614808000.0 -0.9936197447954777 -0.11278210297904064 1.4844703670753964e-16 -2.6407597856044107e-17 1.4844703670753964e-16 -2.6407597856044107e-17 -0.9936196653265607 -0.11278280310463025
12615425333.333334 -0.994956475993707 -0.10030758135848417 1.4807256407148933e-16 -2.8275490974315626e-17 1.4807256407148933e-16 -2.8275490974315626e-17 -0.994956405318061 -0.10030828239166693
12616042666.666666 -0.9961366005051304 -0.08781727127328741 1.476746009731431e-16 -3.0138139508756886e-17 1.476746009731431e-16 -3.0138139508756886e-17 -0.9961365386330194 -0.087817973103637
12616660000.0 -0.9971599325776207 -0.07531313870501094 1.4725322012456029e-16 -3.199524821056539e-17 1.4725322012456029e-16 -3.199524821056539e-17 -0.9971598795179201 -0.07531384122198613
12617277333.333334 -0.998026311138265 -0.0627971518108223 1.468084979466581e-16 -3.3846522830568053e-17 1.468084979466581e-16 -3.3846522830568053e-17 -0.998026266898466 -0.06279785490378491
12617894666.666666 -0.998735599818708 -0.05027128061399131 1.4634051455556181e-16 -3.569167016580993e-17 1.4634051455556181e-16 -3.569167016580993e-17 -0.9987355644049091 -0.05027198417222312
12618512000.0 -0.999287686976647 -0.03773749669318285 1.4584935374836463e-16 -3.75303981059653e-17 1.4584935374836463e-16 -3.75303981059653e-17 -0.9992876603935592 -0.03773820060590332
12619129333.333334 -0.9996824857133638 -0.025197772872923886 1.4533510298833927e-16 -3.936241567943211e-17 1.4533510298833927e-16 -3.936241567943211e-17 -0.9996824679643072 -0.025198477029307526
12619746666.666666 -0.9999199338874333 -0.012654082912455462 1.4479785338951958e-16 -4.1187433099425774e-17 1.4479785338951958e-16 -4.1187433099425774e-17 -0.9999199249743381 -0.012654787201649281
12620364000.0 -0.9999999941244927 -0.00010840119528896208 1.4423769970074374e-16 -4.300516180970781e-17 1.4423769970074374e-16 -4.300516180970781e-17 -0.9999999940478964 -0.00010910550642986622
12620981333.333334 -0.9999226538231225 0.012437297581392405 1.4365474028912951e-16 -4.481531453010174e-17 1.4365474028912951e-16 -4.481531453010174e-17 -0.9999226625821735 0.012436593359160092
12621598666.666666 -0.9996879251568357 0.02498103871789299 1.4304907712292944e-16 -4.66176053019427e-17 1.4304907712292944e-16 -4.66176053019427e-17 -0.9996879427492914 0.024980334695400116
12622216000.0 -0.9992958450721582 0.03752084782259617 1.4242081575387799e-16 -4.841174953310195e-17 1.4242081575387799e-16 -4.841174953310195e-17 -0.9992958714943847 0.03752014411063126
12622833333.333334 -0.9987464752828088 0.05005475112284817 1.4177006529893383e-16 -5.019746404290661e-17 1.4177006529893383e-16 -5.019746404290661e-17 -0.9987465105297851 0.05005404783214014
12623450666.666666 -0.9980399022600016 0.06258077577540404 1.4109693842147676e-16 -5.197446710676794e-17 1.4109693842147676e-16 -5.197446710676794e-17 -0.9980399463253169 0.06258007301660459
12624068000.0 -0.9971762372188139 0.07509695017729462 1.404015513119439e-16 -5.374247850055926e-17 1.404015513119439e-16 -5.374247850055926e-17 -0.9971762900946708 0.07509624806096103
12624685333.333334 -0.9961556161006917 0.08760130427598786 1.3968402366789866e-16 -5.550121954477792e-17 1.3968402366789866e-16 -5.550121954477792e-17 -0.9961556777779061 0.08760060291256533
12625302666.666666 -0.9949781995520703 0.10009186987924931 1.3894447867357935e-16 -5.725041314835522e-17 1.3894447867357935e-16 -5.725041314835522e-17 -0.9949782700200733 0.10009116937905377
12625920000.0 -0.9936441728990326 0.1125666809655596 1.3818304297885331e-16 -5.898978385231505e-17 1.3818304297885331e-16 -5.898978385231505e-17 -0.9936442521458742 0.1125659814387604
12626537333.333334 -0.9921537461182081 0.12502377399283138 1.3739984667767488e-16 -6.071905787303667e-17 1.3739984667767488e-16 -6.071905787303667e-17 -0.9921538341305572 0.12502307554943387
12627154666.666666 -0.9905071538036968 0.13746118820781228 1.3659502328596968e-16 -6.243796314531208e-17 1.3659502328596968e-16 -6.243796314531208e-17 -0.9905072505668442 0.1374604909576406
12627772000.0 -0.9887046551300923 0.14987696595504585 1.357687097189756e-16 -6.414622936511925e-17 1.357687097189756e-16 -6.414622936511925e-17 -0.9887047606279523 0.14987627000772544
12628389333.333334 -0.9867465338117932 0.16226915298421887 1.3492104626810607e-16 -6.584358803198215e-17 1.3492104626810607e-16 -6.584358803198215e-17 -0.9867466480269079 0.16226845844915966
12629006666.666666 -0.9846330980582199 0.17463579875866195 1.3405217657719565e-16 -6.752977249121149e-17 1.3405217657719565e-16 -6.752977249121149e-17 -0.9846332209717603 0.17463510574504065
12629624000.0 -0.9823646805254304 0.18697495676152215 1.3316224761829319e-16 -6.920451797568026e-17 1.3316224761829319e-16 -6.920451797568026e-17 -0.9823648121172004 0.18697426537826542
12630241333.333334 -0.9799416382636498 0.1992846848028188 1.3225140966691184e-16 -7.086756164732824e-17 1.3225140966691184e-16 -7.086756164732824e-17 -0.9799417785120896 0.19928399515858608
12630858666.666666 -0.9773643526611718 0.2115630453245863 1.3131981627675058e-16 -7.251864263836547e-17 1.3131981627675058e-16 -7.251864263836547e-17 -0.9773645015433616 0.2115623575277527
12631476000.0 -0.9746332293841954 0.22380810570651533 1.3036762425389244e-16 -7.415750209215929e-17 1.3036762425389244e-16 -7.415750209215929e-17 -0.9746333868758588 0.2238074198651547
12632093333.333334 -0.9717486983131198 0.23601793856942463 1.2939499363055303e-16 -7.578388320368075e-17 1.2939499363055303e-16 -7.578388320368075e-17 -0.9717488643886275 0.2360172547912925
12632710666.666666 -0.9687112134748209 0.24819062207896733 1.2840208763824543e-16 -7.739753125974919e-17 1.2840208763824543e-16 -7.739753125974919e-17 -0.9687113881071939 0.24818994047148357
12633328000.0 -0.965521252971107 0.2603242402484019 1.2738907268048495e-16 -7.899819367885194e-17 1.2738907268048495e-16 -7.899819367885194e-17 -0.9655214361320241 0.2603235609186348
12633945333.333334 -0.9621793189035797 0.27241688323972907 1.2635611830502346e-16 -8.058562005057362e-17 1.2635611830502346e-16 -8.058562005057362e-17 -0.9621795105633791 0.2724162062943776
12634562666.666666 -0.95868593729459 0.28446664766435714 1.2530339717552885e-16 -8.215956217476417e-17 1.2530339717552885e-16 -8.215956217476417e-17 -0.9586861374222757 0.2844659732097347
12635180000.0 -0.9550416580043707 0.2964716368829712 1.2423108504285147e-16 -8.371977410022414e-17 1.2423108504285147e-16 -8.371977410022414e-17 -0.9550418665676161 0.2964709650249887
12635797333.333334 -0.9512470546445235 0.3084299613038982 1.2313936071573067e-16 -8.526601216313732e-17 1.2313936071573067e-16 -8.526601216313732e-17 -0.9512472716096791 0.3084292921480479
12636414666.666666 -0.9473027244877938 0.32033973868036963 1.220284060311239e-16 -8.679803502497468e-17 1.220284060311239e-16 -8.679803502497468e-17 -0.9473029498198902 0.3203390723317079
12637032000.0 -0.9432092883739536 0.33219909440711304 1.2089840582393955e-16 -8.831560371019553e-17 1.2089840582393955e-16 -8.831560371019553e-17 -0.9432095220367065 0.33219843097024365
12637649333.333334 -0.9389673906121456 0.3440061618151973 1.1974954789642438e-16 -8.981848164338149e-17 1.1974954789642438e-16 -8.981848164338149e-17 -0.9389676325679658 0.34400550139425656
12638266666.666666 -0.9345776988794581 0.3557590824659038 1.1858202298701654e-16 -9.130643468607824e-17 1.1858202298701654e-16 -9.130643468607824e-17 -0.9345779490894531 0.3557584251645427
12638884000.0 -0.9300409041158075 0.36745600644329773 1.1739602473874603e-16 -9.277923117322613e-17 1.1739602473874603e-16 -9.277923117322613e-17 -0.9300411625397899 0.36745535236466603
12639501333.333334 -0.9253577204152658 0.37909509264519303 1.1619174966723032e-16 -9.423664194912073e-17 1.1619174966723032e-16 -9.423664194912073e-17 -0.9253579870117595 0.37909444189192343
12640118666.666666 -0.9205288849135649 0.39067450907321066 1.1496939712817927e-16 -9.567844040302125e-17 1.1496939712817927e-16 -9.567844040302125e-17 -0.9205291596398107 0.39067386174740193
12640736000.0 -0.9155551576720137 0.40219243312123487 1.1372916928445e-16 -9.710440250434209e-17 1.1372916928445e-16 -9.710440250434209e-17 -0.9155554404839787 0.40219178932443717
12641353333.333334 -0.9104373215581609 0.4136470518616165 1.1247127107275299e-16 -9.85143068373247e-17 1.1247127107275299e-16 -9.85143068373247e-17 -0.9104376124105426 0.41364641169481403
12641970666.666666 -0.905176182122211 0.42503656233136305 1.1119591016978696e-16 -9.990793463543775e-17 1.1119591016978696e-16 -9.990793463543775e-17 -0.9051764809684459 0.42503592589495914
12642588000.0 -0.8997725674704325 0.4363591718154566 1.0990329695809126e-16 -1.0128506981518169e-16 1.0990329695809126e-16 -1.0128506981518169e-16 -0.8997728742627036 0.4363585392092572
12643205333.333334 -0.8942273281347678 0.44761309812913197 1.0859364449139537e-16 -1.0264549900954834e-16 1.0859364449139537e-16 -1.0264549900954834e-16 -0.8942276428240127 0.4476124694523311
12643822666.666666 -0.8885413369389593 0.45879656989839374 1.0726716845956574e-16 -1.0398901160101954e-16 1.0726716845956574e-16 -1.0398901160101954e-16 -0.8885416594748778 0.45879594524955725
12644440000.0 -0.8827154888611415 0.4699078268388823 1.0592408715316968e-16 -1.0531539975409037e-16 1.0592408715316968e-16 -1.0531539975409037e-16 -0.882715819192202 0.4699072063159319
12645057333.333334 -0.8767507008930742 0.4809451200327416 1.045646214276323e-16 -1.0662445844734195e-16 1.045646214276323e-16 -1.0662445844734195e-16 -0.8767510389665246 0.48094450373294073
12645674666.666666 -0.8706479118956509 0.49190671220420196 1.0318899466700487e-16 -1.0791598550504723e-16 1.0318899466700487e-16 -1.0791598550504723e-16 -0.8706482576575247 0.4919061002241393
12646292000.0 -0.8644080824511988 0.5027908779928766 1.0179743274727655e-16 -1.0918978162837533e-16 1.0179743274727655e-16 -1.0918978162837533e-16 -0.864408435846325 0.5027902704284516
12646909333.333334 -0.8580321947123658 0.5135959042251852 1.0039016399941806e-16 -1.104456504260116e-16 1.0039016399941806e-16 -1.104456504260116e-16 -0.8580325556843782 0.5135953011715939
12647526666.666666 -0.8515212522473966 0.5243200901842602 9.896741917196422e-17 -1.116833984443863e-16 9.896741917196422e-17 -1.116833984443863e-16 -0.8515216207387403 0.524319491735978
12648144000.0 -0.8448762798821269 0.5349617478776807 9.752943139323506e-17 -1.12902835197408e-16 9.752943139323506e-17 -1.12902835197408e-16 -0.8448766558340705 0.5349611541284498
12648761333.333334 -0.838098323538949 0.5455192023027311 9.607643613321202e-17 -1.1410377319569636e-16 9.607643613321202e-17 -1.1410377319569636e-16 -0.8380987068915923 0.5455186133455449
12649378666.666666 -0.8311884500718535 0.5559907917105782 9.460867116509466e-17 -1.1528602797529276e-16 9.460867116509466e-17 -1.1528602797529276e-16 -0.8311888407641371 0.5559902076376665
12649996000.0 -0.8241477470987782 0.5663748678673993 9.312637652637473e-17 -1.1644941812598583e-16 9.312637652637473e-17 -1.1644941812598583e-16 -0.824148145068494 0.5663742887702146
12650613333.333334 -0.8169773228301688 0.5766697963141956 9.162979447972032e-17 -1.1759376531900817e-16 9.162979447972032e-17 -1.1759376531900817e-16 -0.8169777280139688 0.5766692222833979
12651230666.666666 -0.8096783058948326 0.5868739566236338 9.011916947342301e-17 -1.1871889433431286e-16 9.011916947342301e-17 -1.1871889433431286e-16 -0.8096787182282404 0.5868733877490776
12651848000.0 -0.8022518451619347 0.5969857426556152 8.859474810151621e-17 -1.198246330873348e-16 8.859474810151621e-17 -1.198246330873348e-16 -0.8022522645793541 0.5969851790263339
12652465333.333334 -0.7946991095604561 0.6070035628096617 8.705677906362894e-17 -1.2091081265519769e-16 8.705677906362894e-17 -1.2091081265519769e-16 -0.7946995359951827 0.6070030045138548
12653082666.666666 -0.7870212878951799 0.6169258402754888 8.550551312445802e-17 -1.2197726730245127e-16 8.550551312445802e-17 -1.2197726730245127e-16 -0.7870217212794111 0.6169252874005074
12653700000.0 -0.7792195886593973 0.6267510132814182 8.394120307292534e-17 -1.2302383450628854e-16 8.394120307292534e-17 -1.2302383450628854e-16 -0.779220028924244 0.6267504659137527
12654317333.333334 -0.7712952398447938 0.6364775353400679 8.236410368109174e-17 -1.240503549811983e-16 8.236410368109174e-17 -1.240503549811983e-16 -0.7712956869202896 0.636476993565332
12654934666.666666 -0.763249488748306 0.6461038754915923 8.077447166270721e-17 -1.2505667270313406e-16 8.077447166270721e-17 -1.2505667270313406e-16 -0.7632499425634205 0.6461033393945126
12655552000.0 -0.7550836017753992 0.6556285185451401 7.917256563146709e-17 -1.2604263493315288e-16 7.917256563146709e-17 -1.2604263493315288e-16 -0.7550840622580479 0.6556279882095406
12656169333.333334 -0.7467988642412454 0.6650499653167349 7.755864605904562e-17 -1.270080922404794e-16 7.755864605904562e-17 -1.270080922404794e-16 -0.7467993313183015 0.6650494408255248
12656786666.666666 -0.7383965801680098 0.6743667328657256 7.593297523277804e-17 -1.2795289852507868e-16 7.593297523277804e-17 -1.2795289852507868e-16 -0.738397053765315 0.6743662143008857
12657404000.0 -0.7298780720797807 0.6835773547279849 7.42958172131126e-17 -1.2887691103966217e-16 7.42958172131126e-17 -1.2887691103966217e-16 -0.7298785521221577 0.6835768421705551
12658021333.333334 -0.7212446807943262 0.692680381146814 7.264743779074509e-17 -1.297799904111798e-16 7.264743779074509e-17 -1.297799904111798e-16 -0.7212451672055927 0.6926798746768827
12658638666.666666 -0.7124977652122106 0.7016743793009762 7.098810444361143e-17 -1.3066200066169776e-16 7.098810444361143e-17 -1.3066200066169776e-16 -0.7124982579151874 0.7016738789976641
12659256000.0 -0.7036387021026623 0.7105579335304657 6.931808629345137e-17 -1.3152280922882726e-16 6.931808629345137e-17 -1.3152280922882726e-16 -0.7036392010191876 0.7105574394719152
12659873333.333334 -0.6946688858869876 0.7193296455592091 6.763765406226655e-17 -1.3236228698552052e-16 6.763765406226655e-17 -1.3236228698552052e-16 -0.6946693909379296 0.7193291578225725
12660490666.666666 -0.6855897284192518 0.7279881347149978 6.594708002854157e-17 -1.3318030825931372e-16 6.594708002854157e-17 -1.3318030825931372e-16 -0.6855902395245215 0.7279876533764258
12661108000.0 -0.6764026587636051 0.7365320381472434 6.424663798309037e-17 -1.339767508510834e-16 6.424663798309037e-17 -1.339767508510834e-16 -0.676403175842167 0.7365315632818703
12661725333.333334 -0.6671091229699184 0.7449600110409369 6.253660318486004e-17 -1.3475149605315085e-16 6.253660318486004e-17 -1.3475149605315085e-16 -0.6671096459398064 0.7449595427228727
12662342666.666666 -0.6577105838457242 0.7532707268287566 6.081725231640358e-17 -1.3550442866687795e-16 6.081725231640358e-17 -1.3550442866687795e-16 -0.6577111126240524 0.7532702651310732
12662960000.0 -0.6482085207261742 0.7614628773996738 5.908886343915047e-17 -1.3623543701969208e-16 5.908886343915047e-17 -1.3623543701969208e-16 -0.6482090552291501 0.7614624223943937
12663577333.333334 -0.638604429241108 0.7695351733049274 5.73517159485516e-17 -1.3694441298150742e-16 5.73517159485516e-17 -1.3694441298150742e-16 -0.6386049693840469 0.7695347250630127
12664194666.666666 -0.6288998210798123 0.7774863439608353 5.56060905289129e-17 -1.3763125198062512e-16 5.56060905289129e-17 -1.3763125198062512e-16 -0.6289003667771494 0.7774859025521764
12664812000.0 -0.6190962237528203 0.7853151378490056 5.3852269108157433e-17 -1.3829585301901048e-16 5.3852269108157433e-17 -1.3829585301901048e-16 -0.619096774918126 0.7853147033424122
12665429333.333334 -0.6091951803516111 0.7930203227132164 5.2090534812321e-17 -1.3893811868702902e-16 5.2090534812321e-17 -1.3893811868702902e-16 -0.6091957368976023 0.7930198951764026
12666046666.666666 -0.5991982493059039 0.800600685753232 5.032117191992124e-17 -1.3955795517758584e-16 5.032117191992124e-17 -1.3955795517758584e-16 -0.5991988111444603 0.8006002652528107
12666664000.0 -0.5891070041378687 0.808055033816084 4.8544465816113214e-17 -1.4015527229970213e-16 4.8544465816113214e-17 -1.4015527229970213e-16 -0.5891075711800443 0.8080546204175523
12667281333.333334 -0.5789230332150814 0.8153821935833868 4.676070294676549e-17 -1.4072998349148017e-16 4.676070294676549e-17 -1.4072998349148017e-16 -0.578923605371122 0.8153817873511201
12667898666.666666 -0.5686479395000211 0.8225810117564019 4.497017077231382e-17 -1.4128200583251145e-16 4.497017077231382e-17 -1.4128200583251145e-16 -0.5686485166793748 0.8225806127536394
12668516000.0 -0.5582833402979374 0.829650355237423 4.3173157721470085e-17 -1.4181126005569597e-16 4.3173157721470085e-17 -1.4181126005569597e-16 -0.5582839224092705 0.8296499635262604
12669133333.333334 -0.5478308670024314 0.8365891113080363 4.136995314486759e-17 -1.4231767055845284e-16 4.136995314486759e-17 -1.4231767055845284e-16 -0.5478314539536431 0.8365887269494153
12669750666.666666 -0.5372921648383902 0.8433961878044515 3.956084726849663e-17 -1.4280116541336623e-16 3.956084726849663e-17 -1.4280116541336623e-16 -0.5372927565366271 0.8433958108581513
