! Parameters = {f0=12700.012000; bw=77.238000; Q=6100.000000; N=10; m_0_1=1.209304; m_1_1=-0.625181; m_1_2=1.044116; m_2_2=-0.625830; m_2_3=0.681079; m_2_8=-0.002471; m_2_9=0.034233; m_3_3=-0.627767; m_3_4=0.569608; m_3_7=-0.001871; m_3_8=-0.098959; m_3_9=-0.002471; m_4_4=-0.630692; m_4_5=0.405943; m_4_6=0.001646; m_4_7=-0.119508; m_4_8=-0.001871; m_5_5=-0.630310; m_5_6=0.813298; m_5_7=0.001646; m_6_6=-0.630311; m_6_7=0.406285; m_7_7=-0.630678; m_7_8=0.569726; m_8_8=-0.627769; m_8_9=0.681392; m_9_9=-0.625835; m_9_10=1.045194; m_10_10=-0.625191; m_10_11=1.210099}
!
! Created with skrf (http://scikit-rf.org).
# Hz S RI R 50.0 
!freq ReS11 ImS11 ReS21 ImS21 ReS12 ImS12 ReS22 ImS22
12607400000.0 0.965203336643419 -0.26150051421029785 -7.007879642561104e-17 4.321537526581309e-17 -7.007879642561104e-17 4.321537526581309e-17 0.9652035032816741 -0.2614998991445752
12608017333.333334 0.9628840576825676 -0.26991534128425054 -6.968138333142593e-17 4.382300898803239e-17 -6.968138333142593e-17 4.382300898803239e-17 0.9628842296746608 -0.26991472772650893
12608634666.666666 0.9604914181559026 -0.27830960394622095 -6.927870760846389e-17 4.4426997126168185e-17 -6.927870760846389e-17 4.4426997126168185e-17 0.9604915954882062 -0.27830899194305625
12609252000.0 0.9580256003548031 -0.2866826626509858 -6.88708026216444e-17 4.502729415486744e-17 -6.88708026216444e-17 4.502729415486744e-17 0.9580257830132841 -0.28668205224887106
12609869333.333334 0.9554867921459487 -0.2950338794689266 -6.845770212923671e-17 4.5623854853477436e-17 -6.845770212923671e-17 4.5623854853477436e-17 0.9554869801161691 -0.2950332707142082
12610486666.666666 0.9528751869570711 -0.30336261813441445 -6.803944028008195e-17 4.621663430944215e-17 -6.803944028008195e-17 4.621663430944215e-17 0.9528753802241913 -0.30336201107330907
12611104000.0 0.950190983762153 -0.3116682440945041 -6.761605161077591e-17 4.680558792168669e-17 -6.761605161077591e-17 4.680558792168669e-17 0.9501911823109302 -0.31166763877309456
12611721333.333334 0.9474343870663254 -0.3199501245570889 -6.718757104285618e-17 4.7390671403928013e-17 -6.718757104285618e-17 4.7390671403928013e-17 0.9474345908811159 -0.31994952102132096
12612338666.666666 0.9446056068902704 -0.3282076285391668 -6.675403387991684e-17 4.7971840788023635e-17 -6.675403387991684e-17 4.7971840788023635e-17 0.9446058159550312 -0.3282070268348459
12612956000.0 0.9417048587541491 -0.3364401269151296 -6.631547580471945e-17 4.8549052427257305e-17 -6.631547580471945e-17 4.8549052427257305e-17 0.9417050730524387 -0.33643952708791713
12613573333.333334 0.9387323636613345 -0.34464699246423725 -6.587193287628864e-17 4.9122262999582077e-17 -6.587193287628864e-17 4.9122262999582077e-17 0.9387325831763146 -0.344646394559647
12614190666.666666 0.9356883480814198 -0.35282759991886214 -6.542344152693938e-17 4.969142951089115e-17 -6.542344152693938e-17 4.969142951089115e-17 0.9356885727958552 -0.35282700398225697
12614808000.0 0.9325730439330334 -0.36098132601191135 -6.497003855931831e-17 5.0256509298206014e-17 -6.497003855931831e-17 5.0256509298206014e-17 0.9325732738292958 -0.3609807320884997
12615425333.333334 0.9293866885661947 -0.36910754952426 -6.451176114338771e-17 5.0817460032876376e-17 -6.451176114338771e-17 5.0817460032876376e-17 0.9293869236262627 -0.369106957659093
12616042666.666666 0.9261295247441583 -0.3772056513322675 -6.404864681339786e-17 5.137423972373281e-17 -6.404864681339786e-17 5.137423972373281e-17 0.9261297649496186 -0.37720506157023476
12616660000.0 0.9228018006250004 -0.3852750144547346 -6.358073346483234e-17 5.192680672021175e-17 -6.358073346483234e-17 5.192680672021175e-17 0.92280204595705 -0.38527442684056123
12617277333.333334 0.9194037697426303 -0.39331502410012276 -6.310805935131198e-17 5.2475119715471364e-17 -6.310805935131198e-17 5.2475119715471364e-17 0.9194040201820757 -0.39331443867836535
12617894666.666666 0.9159356909875553 -0.4013250677131816 -6.263066308149422e-17 5.3019137749452096e-17 -6.263066308149422e-17 5.3019137749452096e-17 0.9159359465148171 -0.4013244845282256
12618512000.0 0.9123978285870723 -0.4093045350218298 -6.214858361592183e-17 5.355882021193754e-17 -6.214858361592183e-17 5.355882021193754e-17 0.9123980891821858 -0.40930395411788634
12619129333.333334 0.908790452085213 -0.41725281808346704 -6.166186026386911e-17 5.4094126845560904e-17 -6.166186026386911e-17 5.4094126845560904e-17 0.9087907177278286 -0.41725223950456874
12619746666.666666 0.9051138363221883 -0.4251693113313458 -6.117053268014765e-17 5.462501774879837e-17 -6.117053268014765e-17 5.462501774879837e-17 0.9051141069915749 -0.4251687351213442
12620364000.0 0.9013682614133635 -0.4330534116208877 -6.067464086187903e-17 5.51514533789422e-17 -6.067464086187903e-17 5.51514533789422e-17 0.9013685370884083 -0.4330528378234494
12620981333.333334 0.8975540127280595 -0.44090451827532745 -6.017422514527202e-17 5.567339455501227e-17 -6.017422514527202e-17 5.567339455501227e-17 0.8975542933872702 -0.4409039469339308
12621598666.666666 0.893671380867728 -0.4487220331316573 -5.966932620234435e-17 5.619080246067065e-17 -5.966932620234435e-17 5.619080246067065e-17 0.8936716664892351 -0.4487214642895895
12622216000.0 0.8897206616437863 -0.4565053605862516 -5.915998503763003e-17 5.670363864709711e-17 -5.915998503763003e-17 5.670363864709711e-17 0.8897209522053444 -0.45650479428660506
12622833333.333334 0.8857021560551526 -0.4642539076400907 -5.86462429848641e-17 5.721186503583048e-17 -5.86462429848641e-17 5.721186503583048e-17 0.8857024515341425 -0.46425334392576034
12623450666.666666 0.88161617026528 -0.4719670839440193 -5.8128141703654e-17 5.771544392157132e-17 -5.8128141703654e-17 5.771544392157132e-17 0.8816164706387092 -0.4719665228576983
12624068000.0 0.8774630155787999 -0.4796443018437719 -5.760572317609544e-17 5.821433797498537e-17 -5.760572317609544e-17 5.821433797498537e-17 0.8774633208233056 -0.4796437434279492
12624685333.333334 0.8732430084178311 -0.4872849764246954 -5.707902970339537e-17 5.870851024544519e-17 -5.707902970339537e-17 5.870851024544519e-17 0.8732433185096827 -0.4872844207216532
12625302666.666666 0.8689564702979149 -0.49488852555623997 -5.654810390246581e-17 5.919792416374867e-17 -5.654810390246581e-17 5.919792416374867e-17 0.8689567852130139 -0.49488797260804857
12625920000.0 0.8646037278034213 -0.5024543699364816 -5.601298870246833e-17 5.968254354483006e-17 -5.601298870246833e-17 5.968254354483006e-17 0.8646040475173045 -0.5024538197849979
12626537333.333334 0.8601851125627668 -0.5099819331360882 -5.5473727341385376e-17 6.016233259039458e-17 -5.5473727341385376e-17 6.016233259039458e-17 0.8601854370506062 -0.5099813858229513
12627154666.666666 0.8557009612231008 -0.5174706416423067 -5.493036336251954e-17 6.063725589156771e-17 -5.493036336251954e-17 6.063725589156771e-17 0.8557012904597104 -0.5174700972089366
12627772000.0 0.8511516154246224 -0.5249199249027369 -5.438294061098518e-17 6.110727843149843e-17 -5.438294061098518e-17 6.110727843149843e-17 0.8511519493844546 -0.5249193833903291
12628389333.333334 0.8465374217746454 -0.5323292153686249 -5.383150323021334e-17 6.157236558790069e-17 -5.383150323021334e-17 6.157236558790069e-17 0.8465377604317949 -0.5323286768181485
12629006666.666666 0.8418587318210907 -0.5396979485382769 -5.327609565836842e-17 6.203248313562145e-17 -5.327609565836842e-17 6.203248313562145e-17 0.8418590751492981 -0.5396974129904719
12629624000.0 0.837115902025763 -0.5470255629999702 -5.2716762624804593e-17 6.248759724912333e-17 -5.2716762624804593e-17 6.248759724912333e-17 0.8371162499984153 -0.5470250304953431
12630241333.333334 0.8323092937371428 -0.5543115004747959 -5.215354914647096e-17 6.293767450496097e-17 -5.215354914647096e-17 6.293767450496097e-17 0.8323096463272758 -0.5543109710536183
12630858666.666666 0.827439273163001 -0.5615552058589831 -5.158650052429996e-17 6.338268188422282e-17 -5.158650052429996e-17 6.338268188422282e-17 0.8274396303433019 -0.5615546795612875
12631476000.0 0.8225062113422135 -0.5687561272666157 -5.101566233957044e-17 6.382258677494231e-17 -5.101566233957044e-17 6.382258677494231e-17 0.8225065730850213 -0.5687556041321922
12632093333.333334 0.8175104841168221 -0.5759137160711828 -5.044108045026757e-17 6.425735697446436e-17 -5.044108045026757e-17 6.425735697446436e-17 0.8175108503941321 -0.5759131961395774
12632710666.666666 0.8124524721031989 -0.5830274269476877 -4.986280098740601e-17 6.468696069179198e-17 -4.986280098740601e-17 6.468696069179198e-17 0.8124528428866624 -0.5830269102581974
12633328000.0 0.8073325606630072 -0.5900967179142361 -4.928087035133476e-17 6.511136654989775e-17 -4.928087035133476e-17 6.511136654989775e-17 0.807332935923936 -0.590096204505908
12633945333.333334 0.8021511398740411 -0.5971210503730525 -4.8695335208032374e-17 6.553054358799631e-17 -4.8695335208032374e-17 6.553054358799631e-17 0.8021515195834085 -0.5971205402846802
12634562666.666666 0.7969086045003093 -0.6040998891517942 -4.810624248537327e-17 6.594446126378982e-17 -4.810624248537327e-17 6.594446126378982e-17 0.7969089886287529 -0.6040993824219141
12635180000.0 0.7916053539621078 -0.6110327025441163 -4.751363936938661e-17 6.635308945567218e-17 -4.751363936938661e-17 6.635308945567218e-17 0.7916057424799308 -0.6110321992110049
12635797333.333334 0.786241792305452 -0.617918962350364 -4.691757330047568e-17 6.675639846491432e-17 -4.691757330047568e-17 6.675639846491432e-17 0.7862421851826268 -0.6179184624520361
12636414666.666666 0.7808183281714154 -0.6247581439176582 -4.63180919696458e-17 6.715435901779749e-17 -4.63180919696458e-17 6.715435901779749e-17 0.780818725377584 -0.6247576474918621
12637032000.0 0.7753353747649414 -0.631549726179933 -4.5715243314694744e-17 6.754694226772535e-17 -4.5715243314694744e-17 6.754694226772535e-17 0.7753357762694202 -0.6315492332641498
12637649333.333334 0.7697933498233123 -0.6382931916977056 -4.5109075516386106e-17 6.793411979730263e-17 -4.5109075516386106e-17 6.793411979730263e-17 0.7697937555950928 -0.6382927023291447
12638266666.666666 0.764192675584444 -0.6449880266973399 -4.449963699462371e-17 6.83158636203661e-17 -4.449963699462371e-17 6.83158636203661e-17 0.7641930855921961 -0.6449875409129379
12638884000.0 0.7585337787545932 -0.6516337211103479 -4.388697640458277e-17 6.869214618399992e-17 -4.388697640458277e-17 6.869214618399992e-17 0.7585341929666658 -0.6516332389467628
12639501333.333334 0.7528170904758789 -0.6582297686122024 -4.327114263284098e-17 6.906294037050417e-17 -4.327114263284098e-17 6.906294037050417e-17 0.7528175088603053 -0.6582292901058144
12640118666.666666 0.747043046293607 -0.664775666660724 -4.2652184793507413e-17 6.942821949932126e-17 -4.2652184793507413e-17 6.942821949932126e-17 0.7470434688181049 -0.6647751918476307
12640736000.0 0.7412120861226518 -0.671270916534857 -4.203015222427391e-17 6.978795732896452e-17 -4.203015222427391e-17 6.978795732896452e-17 0.7412125127546279 -0.6712704454508717
12641353333.333334 0.7353246542145467 -0.67771502337199 -4.1405094482547724e-17 7.014212805885354e-17 -4.1405094482547724e-17 7.014212805885354e-17 0.7353250849210964 -0.6777145560526378
12641970666.666666 0.7293811991231048 -0.6841074962062483 -4.0777061341479274e-17 7.049070633116793e-17 -4.0777061341479274e-17 7.049070633116793e-17 0.7293816338710163 -0.6841070326867629
12642588000.0 0.7233821736704896 -0.6904478480056246 -4.0146102786016265e-17 7.083366723264095e-17 -4.0146102786016265e-17 7.083366723264095e-17 0.7233826124262474 -0.6904473883209485
12643205333.333334 0.7173280349127586 -0.6967355957090471 -3.951226900895134e-17 7.117098629631377e-17 -3.951226900895134e-17 7.117098629631377e-17 0.7173284776425448 -0.6967351398938265
12643822666.666666 0.7112192441048234 -0.7029702602634084 -3.887561040691853e-17 7.150263950327459e-17 -3.887561040691853e-17 7.150263950327459e-17 0.7112196907745205 -0.7029698083519919
12644440000.0 0.7050562666655643 -0.709151366659798 -3.823617757641397e-17 7.182860328434074e-17 -3.823617757641397e-17 7.182860328434074e-17 0.7050567172407578 -0.7091509186862323
12645057333.333334 0.6988395721422103 -0.7152784439698534 -3.7594021309790653e-17 7.214885452171259e-17 -3.7594021309790653e-17 7.214885452171259e-17 0.6988400265881927 -0.7152779999678834
12645674666.666666 0.6925696341746294 -0.7213510253815827 -3.694919259122305e-17 7.246337055059986e-17 -3.694919259122305e-17 7.246337055059986e-17 0.6925700924564012 -0.7213505853846471
12646292000.0 0.6862469304591592 -0.7273686482350081 -3.6301742592662357e-17 7.277212916080985e-17 -3.6301742592662357e-17 7.277212916080985e-17 0.6862473925414311 -0.7273682122762362
12646909333.333334 0.6798719427123323 -0.7333308540572941 -3.5651722669820135e-17 7.307510859827901e-17 -3.5651722669820135e-17 7.307510859827901e-17 0.67987240855953 -0.7333304221695054
12647526666.666666 0.6734451566341378 -0.7392371885977211 -3.499918435807096e-17 7.337228756660264e-17 -3.499918435807096e-17 7.337228756660264e-17 0.6734456262104032 -0.7392367608134207
12648144000.0 0.6669670618708899 -0.7450872018624076 -3.434417936839663e-17 7.366364522850168e-17 -3.434417936839663e-17 7.366364522850168e-17 0.666967535140085 -0.7450867782137865
12648761333.333334 0.660438151978069 -0.7508804481484607 -3.368675958329334e-17 7.394916120726558e-17 -3.368675958329334e-17 7.394916120726558e-17 0.6604386289037769 -0.7508800286673902
12649378666.666666 0.6538589243827814 -0.7566164860778756 -3.3026977052679726e-17 7.422881558815284e-17 -3.3026977052679726e-17 7.422881558815284e-17 0.6538594049283106 -0.7566160707959069
12649996000.0 0.6472298803456088 -0.7622948786313926 -3.236488398978292e-17 7.450258891975981e-17 -3.236488398978292e-17 7.450258891975981e-17 0.6472303644739957 -0.7622944675797535
12650613333.333334 0.6405515249226497 -0.7679151931815833 -3.170053276701149e-17 7.477046221535408e-17 -3.170053276701149e-17 7.477046221535408e-17 0.6405520125966618 -0.7679147863911773
12651230666.666666 0.6338243669269797 -0.7734770015258724 -3.1033975911838824e-17 7.503241695416207e-17 -3.1033975911838824e-17 7.503241695416207e-17 0.6338248581091175 -0.7734765990272741
12651848000.0 0.6270489188897296 -0.778979879919284 -3.0365266102646055e-17 7.528843508263204e-17 -3.0365266102646055e-17 7.528843508263204e-17 0.6270494135422301 -0.7789794817427391
12652465333.333334 0.6202256970213005 -0.7844234091065118 -2.9694456164576626e-17 7.553849901565219e-17 -2.9694456164576626e-17 7.553849901565219e-17 0.6202261951061404 -0.7844230152819339
12653082666.666666 0.6133552211718826 -0.7898071743539891 -2.9021599065380855e-17 7.578259163773173e-17 -2.9021599065380855e-17 7.578259163773173e-17 0.6133557226507799 -0.789806784910956
12653700000.0 0.6064380147917995 -0.7951307654815163 -2.834674791122939e-17 7.602069630415267e-17 -2.834674791122939e-17 7.602069630415267e-17 0.6064385196262186 -0.7951303804492706
12654317333.333334 0.5994746048917895 -0.8003937768933955 -2.766995594254815e-17 7.625279684207442e-17 -2.766995594254815e-17 7.625279684207442e-17 0.5994751130429418 -0.8003933963008398
12654934666.666666 0.5924655220026912 -0.8055958076094485 -2.6991276529824648e-17 7.64788775516075e-17 -2.6991276529824648e-17 7.64788775516075e-17 0.5924660334315404 -0.8055954314851458
12655552000.0 0.5854113001350937 -0.8107364612955182 -2.6310763169395074e-17 7.669892320685406e-17 -2.6310763169395074e-17 7.669892320685406e-17 0.5854118148023569 -0.8107360896676874
12656169333.333334 0.5783124767386961 -0.81581534629363 -2.5628469479264712e-17 7.691291905689742e-17 -2.5628469479264712e-17 7.691291905689742e-17 0.5783129946048472 -0.8158149791901442
12656786666.666666 0.5711695926613145 -0.8208320756518654 -2.4944449194878873e-17 7.712085082676733e-17 -2.4944449194878873e-17 7.712085082676733e-17 0.5711701136865879 -0.8208317131002504
12657404000.0 0.5639831921076287 -0.8257862671538748 -2.4258756164899782e-17 7.732270471836495e-17 -2.4258756164899782e-17 7.732270471836495e-17 0.5639837162520225 -0.8257859091813082
12658021333.333334 0.5567538225977443 -0.8306775433479836 -2.3571444346980273e-17 7.751846741134731e-17 -2.3571444346980273e-17 7.751846741134731e-17 0.5567543498210219 -0.8306771899812899
12658638666.666666 0.5494820349256648 -0.8355055315758195 -2.288256780354658e-17 7.770812606397133e-17 -2.288256780354658e-17 7.770812606397133e-17 0.5494825651873597 -0.835505182841471
12659256000.0 0.5421683831169273 -0.8402698640009758 -2.2192180697519073e-17 7.789166831391546e-17 -2.2192180697519073e-17 7.789166831391546e-17 0.5421689163763458 -0.8402695199250894
12659873333.333334 0.5348134243867941 -0.8449701776367681 -2.1500337288102145e-17 7.806908227904244e-17 -2.1500337288102145e-17 7.806908227904244e-17 0.5348139606030177 -0.8449698382451026
12660490666.666666 0.5274177190976115 -0.8496061143740165 -2.0807091926515368e-17 7.824035655814006e-17 -2.0807091926515368e-17 7.824035655814006e-17 0.5274182582294998 -0.8496057796919707
12661108000.0 0.5199818307160644 -0.8541773210083553 -2.011249905171859e-17 7.84054802316228e-17 -2.011249905171859e-17 7.84054802316228e-17 0.5199823727222598 -0.8541769910609684
12661725333.333334 0.5125063257704193 -0.8586834492670425 -1.9416613186185854e-17 7.85644428621831e-17 -1.9416613186185854e-17 7.85644428621831e-17 0.5125068706093491 -0.8586831240789896
12662342666.666666 0.5049917738071662 -0.8631241558356099 -1.8719488931598398e-17 7.871723449542386e-17 -1.8719488931598398e-17 7.871723449542386e-17 0.5049923214370451 -0.8631238354312001
12662960000.0 0.4974387473478183 -0.8674991023839009 -1.8021180964588964e-17 7.886384566043856e-17 -1.8021180964588964e-17 7.886384566043856e-17 0.497439297726654 -0.8674987867870793
12663577333.333334 0.4898478218451021 -0.8718079555919698 -1.7321744032468747e-17 7.900426737035831e-17 -1.7321744032468747e-17 7.900426737035831e-17 0.4898483749306956 -0.8718076448263102
12664194666.666666 0.4822195756393059 -0.876050387175355 -1.6621232948930122e-17 7.913849112286428e-17 -1.6621232948930122e-17 7.913849112286428e-17 0.48222013138925657 -0.8760500812640616
12664812000.0 0.4745545899140471 -0.880226073910193 -1.5919702589779726e-17 7.926650890065583e-17 -1.5919702589779726e-17 7.926650890065583e-17 0.4745551482857558 -0.8802257728760989
12665429333.333334 0.4668534486520404 -0.884334697657814 -1.521720788863228e-17 7.938831317188775e-17 -1.521720788863228e-17 7.938831317188775e-17 0.46685400960271245 -0.8843344015233783
12666046666.666666 0.45911673859080776 -0.8883759453888767 -1.451380383263778e-17 7.950389689056305e-17 -1.451380383263778e-17 7.950389689056305e-17 0.45911730207745566 -0.8883756541761823
12666664000.0 0.45134504917752166 -0.8923495092074527 -1.380954545816992e-17 7.961325349689391e-17 -1.380954545816992e-17 7.961325349689391e-17 0.45134561515696886 -0.8923492229382051
12667281333.333334 0.4435389725246507 -0.8962550863741962 -1.310448784654868e-17 7.971637691761883e-17 -1.310448784654868e-17 7.971637691761883e-17 0.44353954095353565 -0.8962548050697235
12667898666.666666 0.4356991033644197 -0.9000923793296343 -1.239868611972707e-17 7.981326156628754e-17 -1.239868611972707e-17 7.981326156628754e-17 0.43569967419919775 -0.9000921030108832
12668516000.0 0.42782603900357047 -0.9038610957167906 -1.169219543599904e-17 7.990390234350384e-17 -1.169219543599904e-17 7.990390234350384e-17 0.4278266122005184 -0.9038608244043264
12669133333.333334 0.4199203792781626 -0.9075609484033155 -1.098507098570633e-17 7.998829463713137e-17 -1.098507098570633e-17 7.998829463713137e-17 0.4199209547933815 -0.9075606821173203
12669750666.666666 0.4119827265074381 -0.9111916555035712 -1.0277367986921728e-17 8.006643432246414e-17 -1.0277367986921728e-17 8.006643432246414e-17 0.41198330429685653 -0.9111913942638423
12670368000.0 0.404013685448238 -0.9147529403999606 -9.569141681163619e-18 8.013831776235447e-17 -9.569141681163619e-18 8.013831776235447e-17 0.40401426546761565 -0.9147526842259083
