! Parameters = {f0=12700.012000; bw=77.238000; Q=6100.000000; N=10; m_0_1=1.240535; m_1_1=-0.156713; m_1_2=1.075347; m_2_2=-0.157362; m_2_3=0.712310; m_2_8=-0.000910; m_2_9=0.035794; m_3_3=-0.159299; m_3_4=0.600839; m_3_7=-0.000310; m_3_8=-0.097398; m_3_9=-0.000910; m_4_4=-0.162224; m_4_5=0.437174; m_4_6=0.003207; m_4_7=-0.117947; m_4_8=-0.000310; m_5_5=-0.161842; m_5_6=0.844529; m_5_7=0.003207; m_6_6=-0.161843; m_6_7=0.437516; m_7_7=-0.162210; m_7_8=0.600957; m_8_8=-0.159301; m_8_9=0.712623; m_9_9=-0.157367; m_9_10=1.076425; m_10_10=-0.156723; m_10_11=1.241330}
!
! Created with skrf (http://scikit-rf.org).
# Hz S RI R 50.0 
!freq ReS11 ImS11 ReS21 ImS21 ReS12 ImS12 ReS22 ImS22
12607400000.0 0.9602334503868588 -0.2791983537880904 -8.082044364091764e-17 5.1913833899392194e-17 -8.082044364091764e-17 5.1913833899392194e-17 0.9602336328820259 -0.2791977261404864
12608017333.333334 0.9574939707128689 -0.28845328226306377 -8.029521781403355e-17 5.2688276558806456e-17 -8.029521781403355e-17 5.2688276558806456e-17 0.9574941592482016 -0.2884526564367379
12608634666.666666 0.9546652923854482 -0.2976813388750416 -7.97625785965099e-17 5.345741640266556e-17 -7.97625785965099e-17 5.345741640266556e-17 0.954665486942792 -0.2976807149281138
12609252000.0 0.9517476789199522 -0.3068816639525955 -7.922257942301806e-17 5.4221182540117434e-17 -7.922257942301806e-17 5.4221182540117434e-17 0.9517478794805939 -0.30688104194300475
12609869333.333334 0.9487414021167879 -0.31605340040775165 -7.867527440539666e-17 5.49795046177676e-17 -7.867527440539666e-17 5.49795046177676e-17 0.9487416086614557 -0.31605278039325047
12610486666.666666 0.945646742036135 -0.3251956938157009 -7.812071832725412e-17 5.573231282614309e-17 -7.812071832725412e-17 5.573231282614309e-17 0.9456469545450034 -0.3251950758538512
12611104000.0 0.9424639869717596 -0.3343076924946929 -7.755896663849832e-17 5.64795379061144e-17 -7.755896663849832e-17 5.64795379061144e-17 0.9424642054244484 -0.3343070766428591
12611721333.333334 0.9391934334242842 -0.34338854758499976 -7.699007544983873e-17 5.72211111552196e-17 -7.699007544983873e-17 5.72211111552196e-17 0.939193657799862 -0.34338793390034433
12612338666.666666 0.9358353860734743 -0.3524374131282644 -7.641410152719056e-17 5.79569644339835e-17 -7.641410152719056e-17 5.79569644339835e-17 0.9358356163504591 -0.352436801667742
12612956000.0 0.9323901577498503 -0.3614534461463062 -7.583110228603446e-17 5.86870301721586e-17 -7.583110228603446e-17 5.86870301721586e-17 0.932390393906214 -0.3614528369666593
12613573333.333334 0.9288580694056267 -0.37043580671944 -7.524113578573272e-17 5.941124137489062e-17 -7.524113578573272e-17 5.941124137489062e-17 0.928858311418795 -0.3704351998771929
12614190666.666666 0.9252394500847552 -0.37938365806488217 -7.464426072375455e-17 6.012953162886803e-17 -7.464426072375455e-17 6.012953162886803e-17 0.9252396979316093 -0.37938305361633545
12614808000.0 0.9215346368922547 -0.3882961666147278 -7.404053642986833e-17 6.084183510838162e-17 -7.404053642986833e-17 6.084183510838162e-17 0.9215348905491363 -0.38829556461595405
12615425333.333334 0.9177439749628428 -0.3971725020935273 -7.343002286026612e-17 6.154808658133891e-17 -7.343002286026612e-17 6.154808658133891e-17 0.9177442344055544 -0.3971719026003654
12616042666.666666 0.9138678174287724 -0.40601183759565934 -7.281278059163244e-17 6.224822141521755e-17 -7.281278059163244e-17 6.224822141521755e-17 0.9138680826325793 -0.406011240663709
12616660000.0 0.9099065253869327 -0.4148133496623638 -7.218887081515745e-17 6.294217558296049e-17 -7.218887081515745e-17 6.294217558296049e-17 0.9099067963265669 -0.41481275534698114
12617277333.333334 0.9058604678652011 -0.42357621835848047 -7.155835533049095e-17 6.362988566881178e-17 -7.155835533049095e-17 6.362988566881178e-17 0.9058607445148613 -0.423575626714772
12617894666.666666 0.9017300217881206 -0.4322996273487029 -7.09212965396537e-17 6.431128887408192e-17 -7.09212965396537e-17 6.431128887408192e-17 0.9017303041214779 -0.43229903843152134
12618512000.0 0.8975155719416582 -0.44098276397391134 -7.027775744086301e-17 6.498632302288292e-17 -7.027775744086301e-17 6.498632302288292e-17 0.8975158599318561 -0.44098217783784993
12619129333.333334 0.8932175109375243 -0.4496248193265175 -6.962780162235161e-17 6.565492656775336e-17 -6.962780162235161e-17 6.565492656775336e-17 0.8932178045571825 -0.4496242360259052
12619746666.666666 0.8888362391764831 -0.4582249883260812 -6.897149325608798e-17 6.631703859526873e-17 -6.897149325608798e-17 6.631703859526873e-17 0.8888365383976972 -0.4582244079149765
12620364000.0 0.8843721648110381 -0.4667824697943037 -6.830889709146195e-17 6.697259883156948e-17 -6.830889709146195e-17 6.697259883156948e-17 0.8843724696053871 -0.4667818923264917
12620981333.333334 0.8798257037075352 -0.4752964665294414 -6.764007844893607e-17 6.762154764780947e-17 -6.764007844893607e-17 6.762154764780947e-17 0.8798260140460815 -0.4752958920584277
12621598666.666666 0.8751972794072753 -0.4837661853808477 -6.696510321360838e-17 6.826382606557735e-17 -6.696510321360838e-17 6.826382606557735e-17 0.8751975952605666 -0.48376561395985324
12622216000.0 0.8704873230871749 -0.4921908373226354 -6.628403782875322e-17 6.889937576222548e-17 -6.628403782875322e-17 6.889937576222548e-17 0.8704876444252494 -0.49219026900459195
12622833333.333334 0.8656962735194934 -0.5005696375273819 -6.559694928929792e-17 6.952813907614786e-17 -6.559694928929792e-17 6.952813907614786e-17 0.8656966003118807 -0.5005690723649271
12623450666.666666 0.8608245770310667 -0.5089018054390434 -6.490390513525991e-17 7.015005901198419e-17 -6.490390513525991e-17 7.015005901198419e-17 0.8608249092467909 -0.5089012434845155
12624068000.0 0.8558726874616427 -0.5171865648458179 -6.420497344512862e-17 7.076507924576418e-17 -6.420497344512862e-17 7.076507924576418e-17 0.8558730250692269 -0.5171860061512518
12624685333.333334 0.850841066121589 -0.5254231439524809 -6.350022282917443e-17 7.137314413000783e-17 -6.350022282917443e-17 7.137314413000783e-17 0.8508414090890564 -0.5254225885696022
12625302666.666666 0.8457301817490633 -0.5336107754520399 -6.278972242278308e-17 7.197419869869458e-17 -6.278972242278308e-17 7.197419869869458e-17 0.8457305300439406 -0.5336102234322608
12625920000.0 0.8405405104661248 -0.5417486965975811 -6.207354187964106e-17 7.256818867225592e-17 -6.207354187964106e-17 7.256818867225592e-17 0.8405408640554457 -0.5417481479919952
12626537333.333334 0.8352725357345872 -0.5498361492729851 -6.135175136496643e-17 7.315506046242039e-17 -6.135175136496643e-17 7.315506046242039e-17 0.8352728945848961 -0.5498356041323634
12627154666.666666 0.8299267483108945 -0.5578723800636998 -6.062442154864084e-17 7.373476117703786e-17 -6.062442154864084e-17 7.373476117703786e-17 0.8299271123882486 -0.5578718384384855
12627772000.0 0.8245036462003039 -0.5658566403270662 -5.989162359829724e-17 7.43072386248325e-17 -5.989162359829724e-17 7.43072386248325e-17 0.8245040154702774 -0.5658561022673705
12628389333.333334 0.8190037346107176 -0.5737881862617333 -5.915342917240643e-17 7.487244132005508e-17 -5.915342917240643e-17 7.487244132005508e-17 0.8190041090384026 -0.5737876518173292
12629006666.666666 0.8134275259053735 -0.5816662789772981 -5.840991041325742e-17 7.543031848711419e-17 -5.840991041325742e-17 7.543031848711419e-17 0.8134279054553868 -0.5816657481976177
12629624000.0 0.8077755395552952 -0.5894901845628844 -5.766113993995047e-17 7.598082006509535e-17 -5.766113993995047e-17 7.598082006509535e-17 0.8077759241917803 -0.5894896574970143
12630241333.333334 0.8020483020907849 -0.5972591741556756 -5.690719084131134e-17 7.65238967122391e-17 -5.690719084131134e-17 7.65238967122391e-17 0.8020486917774142 -0.5972586508523512
12630858666.666666 0.7962463470525396 -0.6049725240085856 -5.614813666878957e-17 7.705949981032909e-17 -5.614813666878957e-17 7.705949981032909e-17 0.7962467417525176 -0.6049720045161859
12631476000.0 0.7903702149416568 -0.6126295155580666 -5.538405142927822e-17 7.758758146903692e-17 -5.538405142927822e-17 7.758758146903692e-17 0.7903706146177258 -0.6126289999246122
12632093333.333334 0.7844204531695751 -0.6202294354906659 -5.461500957794665e-17 7.810809453015892e-17 -5.461500957794665e-17 7.810809453015892e-17 0.7844208577840177 -0.620228923763813
12632710666.666666 0.7783976160069589 -0.6277715758096364 -5.384108601099132e-17 7.862099257181144e-17 -5.384108601099132e-17 7.862099257181144e-17 0.7783980255216012 -0.6277710680366725
12633328000.0 0.772302264531974 -0.6352552339010024 -5.306235605834942e-17 7.912622991255255e-17 -5.306235605834942e-17 7.912622991255255e-17 0.7723026789081884 -0.6352547301288418
12633945333.333334 0.766134966578175 -0.6426797125988121 -5.227889547640609e-17 7.962376161541101e-17 -5.227889547640609e-17 7.962376161541101e-17 0.766135385776886 -0.6426792128739923
12634562666.666666 0.7598962966815211 -0.6500443202501979 -5.149078044063233e-17 8.011354349186435e-17 -5.149078044063233e-17 8.011354349186435e-17 0.7598967206632078 -0.6500438246188749
12635180000.0 0.7535868360268715 -0.657348370779788 -5.0698087538199716e-17 8.059553210573528e-17 -5.0698087538199716e-17 8.059553210573528e-17 0.7535872647515707 -0.6573478792877318
12635797333.333334 0.7472071723938213 -0.6645911837536386 -4.990089376055417e-17 8.106968477701783e-17 -4.990089376055417e-17 8.106968477701783e-17 0.7472076058211322 -0.6645906964462289
12636414666.666666 0.7407579001020228 -0.6717720844425396 -4.909927649596629e-17 8.153595958562406e-17 -4.909927649596629e-17 8.153595958562406e-17 0.7407583381911104 -0.671771601364762
12637032000.0 0.7342396199557056 -0.6788904038849972 -4.8293313522023247e-17 8.199431537507048e-17 -4.8293313522023247e-17 8.199431537507048e-17 0.7342400626653046 -0.6788899250814392
12637649333.333334 0.7276529391877808 -0.6859454789494692 -4.748308299811037e-17 8.244471175607688e-17 -4.748308299811037e-17 8.244471175607688e-17 0.7276533864761998 -0.6859450044643157
12638266666.666666 0.7209984714032368 -0.6929366523961834 -4.6668663457847646e-17 8.28871091100984e-17 -4.6668663457847646e-17 8.28871091100984e-17 0.720998923228362 -0.6929361822732126
12638884000.0 0.7142768365220514 -0.6998632729382812 -4.5850133801493625e-17 8.332146859278251e-17 -4.5850133801493625e-17 8.332146859278251e-17 0.7142772928413504 -0.699862807220861
12639501333.333334 0.7074886607213071 -0.7067246953026363 -4.502757328832709e-17 8.374775213734612e-17 -4.502757328832709e-17 8.374775213734612e-17 0.7074891214918326 -0.7067242340337193
12640118666.666666 0.700634576377053 -0.7135202802897622 -4.4201061528990725e-17 8.416592245788232e-17 -4.4201061528990725e-17 8.416592245788232e-17 0.7006350415554475 -0.7135198235118829
12640736000.0 0.6937152220050525 -0.7202493948337012 -4.3370678477775205e-17 8.457594305260534e-17 -4.3370678477775205e-17 8.457594305260534e-17 0.6937156915475533 -0.7202489425889722
12641353333.333334 0.6867312422017887 -0.7269114120605218 -4.2536504424958275e-17 8.497777820697787e-17 -4.2536504424958275e-17 8.497777820697787e-17 0.6867317160642283 -0.7269109643906275
12641970666.666666 0.6796832875839832 -0.7335057113471319 -4.169861998900883e-17 8.537139299681586e-17 -4.169861998900883e-17 8.537139299681586e-17 0.6796837657217982 -0.7335052682933283
12642588000.0 0.672572014728193 -0.7400316783789004 -4.085710610883767e-17 8.575675329127947e-17 -4.085710610883767e-17 8.575675329127947e-17 0.6725724970964261 -0.7400312399820095
12643205333.333334 0.6653980861096249 -0.7464887052069047 -4.001204403599442e-17 8.613382575580123e-17 -4.001204403599442e-17 8.613382575580123e-17 0.665398572662928 -0.7464882715073096
12643822666.666666 0.6581621700403343 -0.7528761903046417 -3.916351532683043e-17 8.650257785494056e-17 -3.916351532683043e-17 8.650257785494056e-17 0.658162660732974 -0.7528757613422842
12644440000.0 0.6508649406070719 -0.7591935386239701 -3.831160183465785e-17 8.686297785515136e-17 -3.831160183465785e-17 8.686297785515136e-17 0.6508654353929346 -0.7591931144383476
12645057333.333334 0.6435070776084674 -0.7654401616505644 -3.745638570186905e-17 8.721499482747937e-17 -3.745638570186905e-17 8.721499482747937e-17 0.6435075764410623 -0.7654397422807252
12645674666.666666 0.6360892664917013 -0.7716154774587418 -3.659794935203414e-17 8.755859865018135e-17 -3.659794935203414e-17 8.755859865018135e-17 0.6360897693241647 -0.7716150629432807
12646292000.0 0.6286121982884733 -0.7777189107658153 -3.5736375481957166e-17 8.789376001127287e-17 -3.5736375481957166e-17 8.789376001127287e-17 0.6286127050735737 -0.7777185011428727
12646909333.333334 0.6210765695509992 -0.783749892985381 -3.487174705375985e-17 8.822045041097904e-17 -3.487174705375985e-17 8.822045041097904e-17 0.6210770802411419 -0.7837494882926371
12647526666.666666 0.6134830822867718 -0.7897078622805753 -3.400414728688546e-17 8.853864216412989e-17 -3.400414728688546e-17 8.853864216412989e-17 0.6134835968340028 -0.7897074625552473
12648144000.0 0.6058324438932693 -0.7955922636163211 -3.3133659650108944e-17 8.884830840246635e-17 -3.3133659650108944e-17 8.884830840246635e-17 0.6058329622492801 -0.7955918688951604
12648761333.333334 0.5981253670921249 -0.8014025488109853 -3.226036785353435e-17 8.914942307686596e-17 -3.226036785353435e-17 8.914942307686596e-17 0.5981258892082569 -0.8014021591302735
12649378666.666666 0.590362569862731 -0.8071381765874458 -3.138435584056231e-17 8.944196095949304e-17 -3.138435584056231e-17 8.944196095949304e-17 0.5903630956899794 -0.80713779198299
12649996000.0 0.5825447753752373 -0.8127986126235989 -3.050570777982565e-17 8.972589764587504e-17 -3.050570777982565e-17 8.972589764587504e-17 0.582545304864258 -0.8127982331307326
12650613333.333334 0.574672711923255 -0.818383329602091 -2.96245080571274e-17 9.000120955689254e-17 -2.96245080571274e-17 9.000120955689254e-17 0.5746732450243661 -0.8183829552556656
12651230666.666666 0.5667471128560969 -0.8238918072593704 -2.8740841267363854e-17 9.026787394069009e-17 -2.8740841267363854e-17 9.026787394069009e-17 0.5667476495192856 -0.823891438093756
12651848000.0 0.558768716510231 -0.8293235324343219 -2.7854792206395023e-17 9.052586887451894e-17 -2.7854792206395023e-17 9.052586887451894e-17 0.5587692566851578 -0.8293231684834024
12652465333.333334 0.5507382661407065 -0.8346779991159238 -2.696644586294531e-17 9.07751732664853e-17 -2.696644586294531e-17 9.07751732664853e-17 0.5507388097767083 -0.8346776404130924
12653082666.666666 0.5426565098519143 -0.8399547084903878 -2.6075887410481902e-17 9.101576685722367e-17 -2.6075887410481902e-17 9.101576685722367e-17 0.5426570568980124 -0.8399543550685483
12653700000.0 0.5345242005276589 -0.8451531689877881 -2.5183202199010953e-17 9.124763022150773e-17 -2.5183202199010953e-17 9.124763022150773e-17 0.5345247509325606 -0.845152820879347
12654317333.333334 0.5263420957613517 -0.8502728963276323 -2.4288475746987515e-17 9.147074476974698e-17 -2.4288475746987515e-17 9.147074476974698e-17 0.5263426494734572 -0.8502725535644995
12654934666.666666 0.5181109577851751 -0.8553134135641516 -2.339179373308552e-17 9.168509274943861e-17 -2.339179373308552e-17 9.168509274943861e-17 0.5181115147525811 -0.8553130761777348
12655552000.0 0.5098315533991662 -0.8602742511306644 -2.2493241988023034e-17 9.189065724652001e-17 -2.2493241988023034e-17 9.189065724652001e-17 0.5098321135696714 -0.8602739191518679
12656169333.333334 0.5015046538998594 -0.8651549468832826 -2.1592906486384584e-17 9.208742218664128e-17 -2.1592906486384584e-17 9.208742218664128e-17 0.5015052172209691 -0.8651546203425039
12656786666.666666 0.49313103500828454 -0.8699550461440472 -2.069087333838565e-17 9.227537233636756e-17 -2.069087333838565e-17 9.227537233636756e-17 0.49313160142721596 -0.8699547250711742
12657404000.0 0.48471147679780197 -0.8746741017432305 -1.978722878166703e-17 9.245449330429296e-17 -1.978722878166703e-17 9.245449330429296e-17 0.4847120462614888 -0.8746737861676392
12658021333.333334 0.4762467636213812 -0.87931167406102 -1.8882059173061685e-17 9.262477154207736e-17 -1.8882059173061685e-17 9.262477154207736e-17 0.4762473360764786 -0.8793113640115714
12658638666.666666 0.46773768403865706 -0.8838673310684054 -1.7975450980372267e-17 9.278619434540039e-17 -1.7975450980372267e-17 9.278619434540039e-17 0.4677382594315472 -0.8838670265734431
12659256000.0 0.45918503074221956 -0.888340648367562 -1.7067490774101442e-17 9.29387498548413e-17 -1.7067490774101442e-17 9.29387498548413e-17 0.45918560901901545 -0.8883403494549086
12659873333.333334 0.45058960048399077 -0.8927312092312621 -1.615826521922607e-17 9.308242705666985e-17 -1.615826521922607e-17 9.308242705666985e-17 0.4505901815905425 -0.8927309159282182
12660490666.666666 0.44195219400100394 -0.8970386046417019 -1.524786106694181e-17 9.3217215783561e-17 -1.524786106694181e-17 9.3217215783561e-17 0.4419527778829034 -0.8970383169750432
12661108000.0 0.433273615940554 -0.9012624333287339 -1.433636514637628e-17 9.334310671523326e-17 -1.433636514637628e-17 9.334310671523326e-17 0.4332742025431394 -0.9012621513247077
12661725333.333334 0.4245546747855922 -0.9054023018070657 -1.3423864356361628e-17 9.346009137899608e-17 -1.3423864356361628e-17 9.346009137899608e-17 0.42455526405395405 -0.9054020254913895
12662342666.666666 0.41579618277913066 -0.9094578244130601 -1.2510445657137468e-17 9.35681621502275e-17 -1.2510445657137468e-17 9.35681621502275e-17 0.4157967746581163 -0.9094575538109193
12662960000.0 0.40699895584867574 -0.9134286233406095 -1.1596196062093629e-17 9.366731225276419e-17 -1.1596196062093629e-17 9.366731225276419e-17 0.40699955028289475 -0.9134283584766542
12663577333.333334 0.3981638135302955 -0.9173143286762971 -1.06812026294952e-17 9.375753575921372e-17 -1.06812026294952e-17 9.375753575921372e-17 0.39816441046412476 -0.9173140695746409
12664194666.666666 0.38929157889211824 -0.9211145784339292 -9.765552454209144e-18 9.383882759118538e-17 -9.765552454209144e-18 9.383882759118538e-17 0.3892921782697075 -0.9211143251181472
12664812000.0 0.38038307845776004 -0.92482901858821 -8.849332659430769e-18 9.391118351944114e-17 -8.849332659430769e-18 9.391118351944114e-17 0.3803836802230365 -0.9248287710813347
12665429333.333334 0.3714391421292743 -0.9284573031077427 -7.932630388407929e-18 9.397460016396524e-17 -7.932630388407929e-18 9.397460016396524e-17 0.3714397462259488 -0.9284570614322649
12666046666.666666 0.3624606031099722 -0.9319990939872145 -7.015532796182746e-18 9.402907499395324e-17 -7.015532796182746e-18 9.402907499395324e-17 0.36246120948154326 -0.9319988581650785
12666664000.0 0.35344829782651166 -0.9354540612789999 -6.098127041292497e-18 9.407460632772226e-17 -6.098127041292497e-18 9.407460632772226e-17 0.35344890641627175 -0.935453831331603
12667281333.333334 0.3444030658513475 -0.9388218831237505 -5.180500277540391e-18 9.411119333253757e-17 -5.180500277540391e-18 9.411119333253757e-17 0.3444036766023879 -0.9388216590719408
12667898666.666666 0.3353257498242537 -0.9421022457804858 -4.262739645705734e-18 9.413883602436189e-17 -4.262739645705734e-18 9.413883602436189e-17 0.3353263626794697 -0.9421020276445591
12668516000.0 0.3262171953738231 -0.9452948436558144 -3.3449322652826507e-18 9.415753526752296e-17 -3.3449322652826507e-18 9.415753526752296e-17 0.32621781027591973 -0.9452946314555146
12669133333.333334 0.31707825103893034 -0.9483993793323177 -2.4271652262615215e-18 9.416729277429951e-17 -2.4271652262615215e-18 9.416729277429951e-17 0.31707886793042794 -0.9483991730868342
12669750666.666666 0.3079097681894178 -0.9514155635963568 -1.5095255808388194e-18 9.416811110443037e-17 -1.5095255808388194e-18 9.416811110443037e-17 0.30791038701265616 -0.9514153633243204
12670368000.0 0.2987126009468867 -0.9543431154649669 -5.92100335197952e-19 9.415999366453965e-17 -5.92100335197952e-19 9.415999366453965e-17 0.29871322164403236 -0.9543429211844536
12670985333.333334 0.2894876061051861 -0.9571817622120267 3.250235587183415e-19 9.41429447074847e-17 3.250235587183415e-19 9.41429447074847e-17 0.2894882286182359 -0.9571815739405501
