! Parameters = {f0=12700.012000; bw=77.238000; Q=6100.000000; N=10; m_0_1=1.250545; m_1_1=-0.006563; m_1_2=1.085357; m_2_2=-0.007212; m_2_3=0.722320; m_2_8=-0.000409; m_2_9=0.036295; m_3_3=-0.009149; m_3_4=0.610849; m_3_7=0.000191; m_3_8=-0.096897; m_3_9=-0.000409; m_4_4=-0.012074; m_4_5=0.447184; m_4_6=0.003708; m_4_7=-0.117446; m_4_8=0.000191; m_5_5=-0.011692; m_5_6=0.854539; m_5_7=0.003708; m_6_6=-0.011693; m_6_7=0.447526; m_7_7=-0.012060; m_7_8=0.610967; m_8_8=-0.009151; m_8_9=0.722633; m_9_9=-0.007217; m_9_10=1.086435; m_10_10=-0.006573; m_10_11=1.251340}
!
! Created with skrf (http://scikit-rf.org).
# Hz S RI R 50.0 
!freq ReS11 ImS11 ReS21 ImS21 ReS12 ImS12 ReS22 ImS22
12607400000.0 0.9988867615346045 -0.04717242447383905 -9.520699761602631e-17 3.3164810426435546e-17 -9.520699761602631e-17 3.3164810426435546e-17 0.9988867926161464 -0.047171766310539855
12608017333.333334 0.9983680822893735 -0.05710667444062757 -9.485076988895349e-17 3.4111988203479575e-17 -9.485076988895349e-17 3.4111988203479575e-17 0.9983681199147191 -0.057106016651291704
12608634666.666666 0.9977506061856337 -0.06703527322260068 -9.448512643184723e-17 3.5055358602454544e-17 -9.448512643184723e-17 3.5055358602454544e-17 0.9977506503504191 -0.06703461587228207
12609252000.0 0.9970343943278732 -0.07695723830206176 -9.411010776020806e-17 3.59948280977265e-17 -9.411010776020806e-17 3.59948280977265e-17 0.9970344450270868 -0.07695658145576448
12609869333.333334 0.996219517591308 -0.08687158781771878 -9.372575531776061e-17 3.693030359313072e-17 -9.372575531776061e-17 3.693030359313072e-17 0.9962195748192934 -0.08687093154039073
12610486666.666666 0.995306056614879 -0.09677734066179138 -9.333211147192984e-17 3.786169243114472e-17 -9.333211147192984e-17 3.786169243114472e-17 0.9953061203653348 -0.09677668501831788
12611104000.0 0.994294101793237 -0.10667351657749605 -9.292921950919847e-17 3.878890240208244e-17 -9.292921950919847e-17 3.878890240208244e-17 0.9942941720592156 -0.10667286163269321
12611721333.333334 0.9931837532678492 -0.11655913625545625 -9.251712363040156e-17 3.971184175317397e-17 -9.251712363040156e-17 3.971184175317397e-17 0.9931838300417597 -0.11655848207406472
12612338666.666666 0.9919751209170408 -0.1264332214311224 -9.209586894591425e-17 4.063041919763212e-17 -9.209586894591425e-17 4.063041919763212e-17 0.9919752041906494 -0.126432568077801
12612956000.0 0.9906683243451463 -0.13629479498135325 -9.166550147074488e-17 4.1544543923682e-17 -9.166550147074488e-17 4.1544543923682e-17 0.9906684141095763 -0.13629414252067257
12613573333.333334 0.989263492870674 -0.146142881021082 -9.122606811956769e-17 4.245412560347371e-17 -9.122606811956769e-17 4.245412560347371e-17 0.9892635891164081 -0.14614222951751799
12614190666.666666 0.9877607655135082 -0.15597650499994525 -9.077761670162606e-17 4.3359074402034304e-17 -9.077761670162606e-17 4.3359074402034304e-17 0.9877608682303872 -0.1559758545178727
12614808000.0 0.9861602909811313 -0.1657946937988064 -9.032019591558385e-17 4.425930098608565e-17 -9.032019591558385e-17 4.425930098608565e-17 0.9861604001583582 -0.1657940444024928
12615425333.333334 0.9844622276539399 -0.1755964758258859 -8.985385534426354e-17 4.515471653286572e-17 -8.985385534426354e-17 4.515471653286572e-17 0.9844623432800793 -0.1755958275794851
12616042666.666666 0.982666743569558 -0.18538088111299272 -8.937864544931785e-17 4.604523273885102e-17 -8.937864544931785e-17 4.604523273885102e-17 0.9826668656325365 -0.18538023408053841
12616660000.0 0.9807740164061899 -0.19514694141159444 -8.889461756579491e-17 4.693076182846434e-17 -8.889461756579491e-17 4.693076182846434e-17 0.9807741448932991 -0.19514629565699387
12617277333.333334 0.978784233465069 -0.20489369028846532 -8.840182389663689e-17 4.7811216562687715e-17 -8.840182389663689e-17 4.7811216562687715e-17 0.9787843683629668 -0.2048930458754933
12617894666.666666 0.9766975916519115 -0.21462016322140792 -8.790031750708087e-17 4.8686510247643716e-17 -8.790031750708087e-17 4.8686510247643716e-17 0.9766977329466214 -0.21461952021370007
12618512000.0 0.9745142974574085 -0.22432539769478343 -8.739015231897385e-17 4.9556556743117675e-17 -8.739015231897385e-17 4.9556556743117675e-17 0.9745144451343224 -0.2243247561558299
12619129333.333334 0.9722345669368265 -0.23400843329459298 -8.687138310501742e-17 5.0421270470999216e-17 -8.687138310501742e-17 5.0421270470999216e-17 0.9722347209807077 -0.2340077932877328
12619746666.666666 0.9698586256886227 -0.24366831180357623 -8.634406548291705e-17 5.12805664236833e-17 -8.634406548291705e-17 5.12805664236833e-17 0.9698587860836044 -0.24366767339199033
12620364000.0 0.9673867088320585 -0.2533040772962541 -8.580825590944018e-17 5.213436017242535e-17 -8.580825590944018e-17 5.213436017242535e-17 0.9673868755616487 -0.25330344054295967
12620981333.333334 0.9648190609840454 -0.262914776233085 -8.526401167442862e-17 5.298256787557369e-17 -8.526401167442862e-17 5.298256787557369e-17 0.9648192340311256 -0.26291414120092876
12621598666.666666 0.9621559362348491 -0.27249945755518423 -8.471139089467778e-17 5.3825106286824986e-17 -8.471139089467778e-17 5.3825106286824986e-17 0.962156115581677 -0.2724988243068362
12622216000.0 0.9593975981229548 -0.2820571727783825 -8.415045250777987e-17 5.4661892763343694e-17 -8.415045250777987e-17 5.4661892763343694e-17 0.9593977837511675 -0.28205654137633046
12622833333.333334 0.9565443196090279 -0.29158697608695067 -8.358125626586106e-17 5.549284527385866e-17 -8.358125626586106e-17 5.549284527385866e-17 0.956544511499642 -0.2915863465934934
12623450666.666666 0.9535963830488696 -0.30108792442730437 -8.30038627292485e-17 5.631788240668049e-17 -8.30038627292485e-17 5.631788240668049e-17 0.9535965811822855 -0.3010872969045461
12624068000.0 0.9505540801655065 -0.3105590776012479 -8.241833326006016e-17 5.713692337765144e-17 -8.241833326006016e-17 5.713692337765144e-17 0.9505542845215063 -0.31055845211109107
12624685333.333334 0.9474177120202341 -0.3199994983592548 -8.182473001569788e-17 5.794988803805405e-17 -8.182473001569788e-17 5.794988803805405e-17 0.9474179225779884 -0.3199988749633953
12625302666.666666 0.9441875889829912 -0.32940825249273287 -8.122311594230838e-17 5.875669688239066e-17 -8.122311594230838e-17 5.875669688239066e-17 0.9441878057210576 -0.32940763125265304
12625920000.0 0.940864030701435 -0.3387844089270906 -8.061355476809843e-17 5.955727105618957e-17 -8.061355476809843e-17 5.955727105618957e-17 0.9408642535977629 -0.3387837899040537
12626537333.333334 0.937447366069504 -0.3481270398133106 -7.999611099664993e-17 6.035153236363917e-17 -7.999611099664993e-17 6.035153236363917e-17 0.9374475951014345 -0.34812642306835423
12627154666.666666 0.9339379331947889 -0.3574352206200103 -7.93708499000987e-17 6.113940327523549e-17 -7.93708499000987e-17 6.113940327523549e-17 0.9339381683390581 -0.35743460621394063
12627772000.0 0.9303360793649814 -0.3667080302251702 -7.873783751226475e-17 6.192080693532221e-17 -7.873783751226475e-17 6.192080693532221e-17 0.9303363205977234 -0.3667074182185562
12628389333.333334 0.9266421610137204 -0.3759445510067296 -7.809714062171765e-17 6.269566716955267e-17 -7.809714062171765e-17 6.269566716955267e-17 0.9266424083104695 -0.375943941459897
12629006666.666666 0.9228565436850832 -0.38514386893400193 -7.744882676474327e-17 6.346390849230733e-17 -7.744882676474327e-17 6.346390849230733e-17 0.9228567970207753 -0.38514326190702697
12629624000.0 0.9189796019976099 -0.3943050736576236 -7.67929642182581e-17 6.42254561140188e-17 -7.67929642182581e-17 6.42254561140188e-17 0.9189798613465864 -0.39430446921032747
12630241333.333334 0.9150117196070826 -0.40342725860000916 -7.612962199264826e-17 6.498023594842466e-17 -7.612962199264826e-17 6.498023594842466e-17 0.9150119849430924 -0.40342665679195194
12630858666.666666 0.9109532891687048 -0.41250952104472527 -7.545886982453168e-17 6.572817461975654e-17 -7.545886982453168e-17 6.572817461975654e-17 0.9109535604649056 -0.41250892193519956
12631476000.0 0.9068047122980821 -0.42155096222618527 -7.478077816944638e-17 6.646919946985585e-17 -7.478077816944638e-17 6.646919946985585e-17 0.9068049895270468 -0.4215503658742118
12632093333.333334 0.9025663995315981 -0.4305506874183314 -7.409541819448607e-17 6.720323856519836e-17 -7.409541819448607e-17 6.720323856519836e-17 0.9025666826653138 -0.43055009388265153
12632710666.666666 0.8982387702858008 -0.4395078060231493 -7.340286177086004e-17 6.793022070384907e-17 -7.340286177086004e-17 6.793022070384907e-17 0.8982390592956732 -0.4395072153622203
12633328000.0 0.893822252815738 -0.4484214316591344 -7.270318146635682e-17 6.865007542237209e-17 -7.270318146635682e-17 6.865007542237209e-17 0.893822547672595 -0.44842084393112347
12633945333.333334 0.8893172841727894 -0.45729068224857095 -7.199645053779665e-17 6.936273300260316e-17 -7.199645053779665e-17 6.936273300260316e-17 0.8893175848468815 -0.457290097511349
12634562666.666666 0.8847243101612507 -0.4661146801051524 -7.128274292337078e-17 7.00681244783942e-17 -7.128274292337078e-17 7.00681244783942e-17 0.8847246166222569 -0.4661140984162888
12635180000.0 0.8800437852943364 -0.474892552020608 -7.056213323492713e-17 7.076618164226737e-17 -7.056213323492713e-17 7.076618164226737e-17 0.8800440975113655 -0.47489197343736517
12635797333.333334 0.8752761727490809 -0.4836234293513407 -6.983469675020636e-17 7.145683705197318e-17 -6.983469675020636e-17 7.145683705197318e-17 0.8752764906906759 -0.48362285393066806
12636414666.666666 0.8704219443206518 -0.4923064481041106 -6.91005094049951e-17 7.214002403699024e-17 -6.91005094049951e-17 7.214002403699024e-17 0.8704222679547925 -0.4923058759026394
12637032000.0 0.8654815803755428 -0.5009407490217609 -6.835964778522699e-17 7.281567670493197e-17 -6.835964778522699e-17 7.281567670493197e-17 0.8654819096696473 -0.5009401800957974
12637649333.333334 0.8604555698040437 -0.50952547766822 -6.761218911900966e-17 7.348372994788458e-17 -6.761218911900966e-17 7.348372994788458e-17 0.860455904724975 -0.5095249120737418
12638266666.666666 0.855344409971952 -0.5180597845129107 -6.685821126861275e-17 7.414411944864202e-17 -6.685821126861275e-17 7.414411944864202e-17 0.8553447504860179 -0.5180592223055595
12638884000.0 0.8501486066712345 -0.526542825015011 -6.609779272236414e-17 7.479678168688829e-17 -6.609779272236414e-17 7.479678168688829e-17 0.8501489527441941 -0.5265422662500885
12639501333.333334 0.8448686740700803 -0.5349737597068606 -6.533101258651744e-17 7.544165394526775e-17 -6.533101258651744e-17 7.544165394526775e-17 0.8448690256671457 -0.5349732044393225
12640118666.666666 0.8395051346619907 -0.5433517542770817 -6.455795057704218e-17 7.607867431539024e-17 -6.455795057704218e-17 7.607867431539024e-17 0.8395054917478305 -0.543351202561532
12640736000.0 0.8340585192139344 -0.5516759796533551 -6.377868701134174e-17 7.670778170376218e-17 -6.377868701134174e-17 7.670778170376218e-17 0.834058881752677 -0.5516754315440408
12641353333.333334 0.8285293667141473 -0.5599456120839635 -6.29933027999671e-17 7.732891583759063e-17 -6.29933027999671e-17 7.732891583759063e-17 0.8285297346693857 -0.5599450676347696
12641970666.666666 0.8229182243184244 -0.5681598332198795 -6.220187943821022e-17 7.794201727055428e-17 -6.220187943821022e-17 7.794201727055428e-17 0.8229185976532195 -0.568159292484324
12642588000.0 0.81722564729624 -0.5763178301953458 -6.14044989976749e-17 7.85470273884624e-17 -6.14044989976749e-17 7.85470273884624e-17 0.8172260259731239 -0.5763172932265739
12643205333.333334 0.8114521989756551 -0.5844187957085265 -6.060124411780398e-17 7.914388841481859e-17 -6.060124411780398e-17 7.914388841481859e-17 0.8114525829566341 -0.5844182625593047
12643822666.666666 0.8055984506876356 -0.5924619281013017 -5.979219799731043e-17 7.973254341633176e-17 -5.979219799731043e-17 7.973254341633176e-17 0.8055988399341953 -0.5924613988240143
12644440000.0 0.7996649817094651 -0.6004464314386685 -5.897744438560907e-17 8.031293630829804e-17 -5.897744438560907e-17 8.031293630829804e-17 0.7996653761825748 -0.6004459060853115
12645057333.333334 0.7936523792075385 -0.6083715155873448 -5.815706757416072e-17 8.088501185992336e-17 -5.815706757416072e-17 8.088501185992336e-17 0.7936527788676537 -0.6083709942095208
12645674666.666666 0.7875612381791245 -0.6162363962941447 -5.73311523877669e-17 8.144871569955576e-17 -5.73311523877669e-17 8.144871569955576e-17 0.7875616429861899 -0.616235878943057
12646292000.0 0.7813921613934783 -0.6240402952635815 -5.649978417582081e-17 8.200399431982343e-17 -5.649978417582081e-17 8.200399431982343e-17 0.7813925713069351 -0.6240397819900314
12646909333.333334 0.7751457593323727 -0.631782440234666 -5.566304880352134e-17 8.255079508267714e-17 -5.566304880352134e-17 8.255079508267714e-17 0.7751461743111594 -0.6317819310890451
12647526666.666666 0.7688226501294549 -0.6394620650576172 -5.4821032643021544e-17 8.308906622435323e-17 -5.4821032643021544e-17 8.308906622435323e-17 0.7688230701320137 -0.6394615600899044
12648144000.0 0.7624234595092186 -0.6470784097695005 -5.3973822564518315e-17 8.361875686025526e-17 -5.3973822564518315e-17 8.361875686025526e-17 0.7624238844934978 -0.6470779090292561
12648761333.333334 0.7559488207250108 -0.6546307206695208 -5.312150592733961e-17 8.413981698971464e-17 -5.312150592733961e-17 8.413981698971464e-17 0.7559492506484713 -0.6546302242058827
12649378666.666666 0.7493993744965144 -0.6621182503934349 -5.226417057093947e-17 8.465219750069303e-17 -5.226417057093947e-17 8.465219750069303e-17 0.7493998093161315 -0.6621177582551124
12649996000.0 0.7427757689461031 -0.6695402579877892 -5.140190480587344e-17 8.515585017437472e-17 -5.140190480587344e-17 8.515585017437472e-17 0.7427762086183718 -0.6695397702230588
12650613333.333334 0.7360786595348889 -0.6768960089830279 -5.0534797404711486e-17 8.565072768968052e-17 -5.0534797404711486e-17 8.565072768968052e-17 0.7360791040158284 -0.6768955256397289
12651230666.666666 0.7293087089978805 -0.6841847754661561 -4.966293759294874e-17 8.613678362766413e-17 -4.966293759294874e-17 8.613678362766413e-17 0.7293091582430391 -0.6841842965916854
12651848000.0 0.7224665872781512 -0.6914058361530454 -4.8786415039801544e-17 8.661397247585944e-17 -4.8786415039801544e-17 8.661397247585944e-17 0.7224670412426085 -0.6914053617943529
12652465333.333334 0.7155529714608475 -0.6985584764594743 -4.790531984904752e-17 8.708224963248463e-17 -4.790531984904752e-17 8.708224963248463e-17 0.7155534300992226 -0.6985580066630591
12653082666.666666 0.7085685457060354 -0.7056419885720128 -4.7019742549764724e-17 8.754157141058913e-17 -4.7019742549764724e-17 8.754157141058913e-17 0.7085690089724878 -0.7056415233839177
12653700000.0 0.7015140011809543 -0.7126556715181032 -4.612977408704582e-17 8.799189504209723e-17 -4.612977408704582e-17 8.799189504209723e-17 0.701514469029191 -0.7126552109839109
12654317333.333334 0.6943900359917401 -0.7195988312353077 -4.523550581269402e-17 8.84331786817476e-17 -4.523550581269402e-17 8.84331786817476e-17 0.6943905083750184 -0.719598375400135
12654934666.666666 0.6871973551143029 -0.7264707806400316 -4.4337029475862074e-17 8.88653814109492e-17 -4.4337029475862074e-17 8.88653814109492e-17 0.6871978319854368 -0.7264703295485273
12655552000.0 0.6799366703243993 -0.7332708396956743 -4.343443721363919e-17 8.928846324154892e-17 -4.343443721363919e-17 8.928846324154892e-17 0.6799371516357627 -0.7332703933920123
12656169333.333334 0.6726087001275248 -0.7399983354796087 -4.2527821541663874e-17 8.970238511947535e-17 -4.2527821541663874e-17 8.970238511947535e-17 0.6726091858310569 -0.739997894007485
12656786666.666666 0.6652141696875448 -0.746652602250029 -4.161727534462825e-17 9.01071089283218e-17 -4.161727534462825e-17 9.01071089283218e-17 0.6652146597347554 -0.7466521656526581
12657404000.0 0.657753810754973 -0.7532329815117911 -4.070289186678747e-17 9.050259749281607e-17 -4.070289186678747e-17 9.050259749281607e-17 0.6577543050969459 -0.7532325498318991
12658021333.333334 0.6502283615946626 -0.7597388220814768 -3.9784764702443985e-17 9.088881458218982e-17 -3.9784764702443985e-17 9.088881458218982e-17 0.6502288601820629 -0.759738395361302
12658638666.666666 0.6426385669126907 -0.7661694801518999 -3.886298778638026e-17 9.1265724913462e-17 -3.886298778638026e-17 9.1265724913462e-17 0.6426390696957665 -0.766169058433183
12659256000.0 0.634985177782615 -0.7725243193558452 -3.793765538426274e-17 9.163329415462285e-17 -3.793765538426274e-17 9.163329415462285e-17 0.6349856847112048 -0.7725239026798282
12659873333.333334 0.62726895157117 -0.7788027108290236 -3.7008862083024825e-17 9.199148892771908e-17 -3.7008862083024825e-17 9.199148892771908e-17 0.6272694625947076 -0.7788022992364473
12660490666.666666 0.6194906518634995 -0.7850040332721654 -3.607670278123909e-17 9.234027681183374e-17 -3.607670278123909e-17 9.234027681183374e-17 0.6194911669310182 -0.7850036268032625
12661108000.0 0.6116510483871923 -0.7911276730128196 -3.5141272679393794e-17 9.267962634599538e-17 -3.5141272679393794e-17 9.267962634599538e-17 0.6116515674473296 -0.7911272717073119
12661725333.333334 0.6037509169365782 -0.7971730240657117 -3.4202667270248144e-17 9.300950703194946e-17 -3.4202667270248144e-17 9.300950703194946e-17 0.603751439937582 -0.7971726279628061
12662342666.666666 0.5957910392956455 -0.8031394881929573 -3.3260982329053625e-17 9.332988933687201e-17 -3.3260982329053625e-17 9.332988933687201e-17 0.5957915661853788 -0.8031390973313425
12662960000.0 0.5877722031607204 -0.8090264749632265 -3.2316313903835314e-17 9.364074469595388e-17 -3.2316313903835314e-17 9.364074469595388e-17 0.5877727338866664 -0.8090260893810686
12663577333.333334 0.5796952020626535 -0.81483340181007 -3.13687583055913e-17 9.3942045514908e-17 -3.13687583055913e-17 9.3942045514908e-17 0.5796957365719209 -0.8148330215450088
12664194666.666666 0.5715608352881113 -0.8205596940897032 -3.041841209851454e-17 9.423376517236138e-17 -3.041841209851454e-17 9.423376517236138e-17 0.5715613735274402 -0.8205593191788492
12664812000.0 0.5633699078006658 -0.826204785137741 -2.9465372090150524e-17 9.451587802216368e-17 -2.9465372090150524e-17 9.451587802216368e-17 0.563370449716431 -0.8262044156176703
12665429333.333334 0.555123230160923 -0.8317681163254176 -2.8509735321574216e-17 9.478835939558252e-17 -2.8509735321574216e-17 9.478835939558252e-17 0.5551237756991427 -0.8317677522321711
12666046666.666666 0.546821618446622 -0.8372491371146631 -2.7551599057520658e-17 9.505118560340906e-17 -2.7551599057520658e-17 9.505118560340906e-17 0.5468221675529594 -0.8372487784837392
12666664000.0 0.538465894171424 -0.8426473051128803 -2.659106077649406e-17 9.530433393796383e-17 -2.659106077649406e-17 9.530433393796383e-17 0.5384664467911955 -0.842646951979235
12667281333.333334 0.5300568842041166 -0.8479620861262936 -2.5628218160899877e-17 9.554778267499237e-17 -2.5628218160899877e-17 9.554778267499237e-17 0.5300574402822956 -0.8479617385243338
12667898666.666666 0.521595420686479 -0.8531929542130117 -2.4663169087097903e-17 9.578151107547802e-17 -2.4663169087097903e-17 9.578151107547802e-17 0.5215959801677035 -0.853192612176596
12668516000.0 0.5130823409508619 -0.858339391735119 -2.3696011615477463e-17 9.600549938734357e-17 -2.3696011615477463e-17 9.600549938734357e-17 0.5130829037794373 -0.8583390552975505
12669133333.333334 0.504518487437712 -0.8634008894096613 -2.2726843980542858e-17 9.621972884704863e-17 -2.2726843980542858e-17 9.621972884704863e-17 0.5045190535576177 -0.8634005586036851
12669750666.666666 0.4959047076117694 -0.8683769463593078 -2.1755764580922217e-17 9.642418168110121e-17 -2.1755764580922217e-17 9.642418168110121e-17 0.49590527696666553 -0.8683766212171106
12670368000.0 0.48724185387849595 -0.8732670701617443 -2.0782871969399095e-17 9.661884110746014e-17 -2.0782871969399095e-17 9.661884110746014e-17 0.4872424264117275 -0.8732667507149477
12670985333.333334 0.47853078349960115 -0.8780707768984733 -1.980826484295745e-17 9.680369133683297e-17 -1.980826484295745e-17 9.680369133683297e-17 0.4785313591542043 -0.8780704631781328
