! Parameters = {f0=12700.012000; bw=77.238000; Q=6100.000000; N=10; m_0_1=1.197492; m_1_1=-0.802358; m_1_2=1.032304; m_2_2=-0.803007; m_2_3=0.669267; m_2_8=-0.003062; m_2_9=0.033642; m_3_3=-0.804944; m_3_4=0.557796; m_3_7=-0.002462; m_3_8=-0.099550; m_3_9=-0.003062; m_4_4=-0.807869; m_4_5=0.394131; m_4_6=0.001055; m_4_7=-0.120099; m_4_8=-0.002462; m_5_5=-0.807487; m_5_6=0.801486; m_5_7=0.001055; m_6_6=-0.807488; m_6_7=0.394473; m_7_7=-0.807855; m_7_8=0.557914; m_8_8=-0.804946; m_8_9=0.669580; m_9_9=-0.803012; m_9_10=1.033382; m_10_10=-0.802368; m_10_11=1.198287}
!
! Created with skrf (http://scikit-rf.org).
# Hz S RI R 50.0 
!freq ReS11 ImS11 ReS21 ImS21 ReS12 ImS12 ReS22 ImS22
12607400000.0 0.8319466021328966 0.5548557030430257 -7.409643881210374e-17 -2.2935363736082256e-17 -7.409643881210374e-17 -2.2935363736082256e-17 0.8319462519988992 0.5548562280310338
12608017333.333334 0.8365667173458599 0.5478650631579046 -7.427344871897957e-17 -2.2302721983221667e-17 -7.427344871897957e-17 -2.2302721983221667e-17 0.8365663716401358 0.5478655910355209
12608634666.666666 0.8411280934349611 0.5408359551974241 -7.444506214985263e-17 -2.1668728400419486e-17 -7.444506214985263e-17 -2.1668728400419486e-17 0.8411277521813494 0.5408364859273028
12609252000.0 0.8456304101254594 0.5337688727069902 -7.461126891320213e-17 -2.103342897722836e-17 -7.461126891320213e-17 -2.103342897722836e-17 0.845630073347483 0.5337694062515885
12609869333.333334 0.8500733512894544 0.5266643118983466 -7.477205920907715e-17 -2.039686977879296e-17 -7.477205920907715e-17 -2.039686977879296e-17 0.8500730190103216 0.5266648482199285
12610486666.666666 0.8544566049680273 0.5195227716148314 -7.492742362964316e-17 -1.9759096942529836e-17 -7.492742362964316e-17 -1.9759096942529836e-17 0.8544562772106263 0.519523310675469
12611104000.0 0.8587798633932443 0.51234475329618 -7.507735315970819e-17 -1.9120156674768995e-17 -7.507735315970819e-17 -1.9120156674768995e-17 0.8587795401801457 0.5123452950577575
12611721333.333334 0.8630428230096532 0.5051307609435128 -7.522183917720801e-17 -1.8480095247445552e-17 -7.522183917720801e-17 -1.8480095247445552e-17 0.8630425043631041 0.5051313053677277
12612338666.666666 0.8672451844956802 0.4978813010837991 -7.536087345367532e-17 -1.7838958994736485e-17 -7.536087345367532e-17 -1.7838958994736485e-17 0.8672448704376069 0.49788184813216624
12612956000.0 0.8713866527846651 0.490596882734268 -7.549444815467483e-17 -1.7196794309715605e-17 -7.549444815467483e-17 -1.7196794309715605e-17 0.8713863433366678 0.4905974323681214
12613573333.333334 0.8754669370854463 0.4832780173668881 -7.562255584020655e-17 -1.6553647641025097e-17 -7.562255584020655e-17 -1.6553647641025097e-17 0.8754666322688012 0.4832785695473846
12614190666.666666 0.8794857509029254 0.47592521887221007 -7.574518946508903e-17 -1.5909565489503455e-17 -7.574518946508903e-17 -1.5909565489503455e-17 0.8794854507385803 0.47592577356033106
12614808000.0 0.8834428120581077 0.46853900352340533 -7.586234237930728e-17 -1.5264594404843254e-17 -7.586234237930728e-17 -1.5264594404843254e-17 0.8834425165666823 0.4685395606799602
12615425333.333334 0.8873378427079343 0.4611198899399939 -7.597400832833581e-17 -1.4618780982231758e-17 -7.597400832833581e-17 -1.4618780982231758e-17 0.8873375519097176 0.4611204495256223
12616042666.666666 0.8911705693647866 0.45366839905142786 -7.608018145342992e-17 -1.3972171859002353e-17 -7.608018145342992e-17 -1.3972171859002353e-17 0.8911702832797362 0.4536689610266028
12616660000.0 0.8949407229157034 0.44618505406048936 -7.618085629189352e-17 -1.332481371126287e-17 -7.618085629189352e-17 -1.332481371126287e-17 0.8949404415634449 0.4461856183855204
12617277333.333334 0.898648038641238 0.4386703804066312 -7.627602777731395e-17 -1.2676753250541754e-17 -7.627602777731395e-17 -1.2676753250541754e-17 0.8986477620410627 0.43867094704166654
12617894666.666666 0.9022922562340616 0.43112490572905865 -7.636569123976884e-17 -1.2028037220435267e-17 -7.636569123976884e-17 -1.2028037220435267e-17 0.9022919844049238 0.43112547463408785
12618512000.0 0.9058731198173213 0.4235491598295003 -7.644984240600909e-17 -1.1378712393221122e-17 -7.644984240600909e-17 -1.1378712393221122e-17 0.9058728527778404 0.4235497309643581
12619129333.333334 0.9093903779624515 0.4159436746353435 -7.652847739960555e-17 -1.0728825566525737e-17 -7.652847739960555e-17 -1.0728825566525737e-17 0.9093901157309073 0.4159442479597114
12619746666.666666 0.9128437837069471 0.40830898416202704 -7.660159274107447e-17 -1.0078423559938723e-17 -7.660159274107447e-17 -1.0078423559938723e-17 0.9128435263012812 0.4083095596354374
12620364000.0 0.9162330945717047 0.40064562447554664 -7.666918534797127e-17 -9.427553211648935e-18 -7.666918534797127e-17 -9.427553211648935e-18 0.916232842009517 0.40064620205738427
12620981333.333334 0.9195580725779398 0.3929541336550463 -7.673125253495407e-17 -8.776261375100116e-18 -7.673125253495407e-17 -8.776261375100116e-18 0.9195578248764893 0.3929547133045523
12621598666.666666 0.9228184842640158 0.3852350517547799 -7.678779201382286e-17 -8.124594915605308e-18 -7.678779201382286e-17 -8.124594915605308e-18 0.9228182414402183 0.3852356334310542
12622216000.0 0.9260141007017778 0.377488920766321 -7.683880189352715e-17 -7.472600706994484e-18 -7.683880189352715e-17 -7.472600706994484e-18 0.9260138627722051 0.37748950442832524
12622833333.333334 0.9291446975126479 0.36971628458045414 -7.688428068014635e-17 -6.820325628247572e-18 -7.688428068014635e-17 -6.820325628247572e-18 0.9291444644935265 0.36971687018701443
12623450666.666666 0.9322100548833461 0.3619176889490642 -7.69242272768407e-17 -6.167816560141581e-18 -7.69242272768407e-17 -6.167816560141581e-18 0.9322098267905576 0.3619182764588749
12624068000.0 0.935209957581344 0.35409368144679443 -7.69586409837756e-17 -5.515120381879202e-18 -7.69586409837756e-17 -5.515120381879202e-18 0.9352097344304194 0.35409427081841904
12624685333.333334 0.9381441949700365 0.3462448114324076 -7.698752149801614e-17 -4.86228396772758e-18 -7.698752149801614e-17 -4.86228396772758e-18 0.9381439767761615 0.34624540262428394
12625302666.666666 0.941012561023401 0.33837163001058945 -7.701086891339284e-17 -4.2093541836806776e-18 -7.701086891339284e-17 -4.2093541836806776e-18 0.9410123478014087 0.3383722229810308
12625920000.0 0.9438148543406123 0.3304746899928236 -7.702868372034035e-17 -3.5563778840797016e-18 -7.702868372034035e-17 -3.5563778840797016e-18 0.9438146461049876 0.330475284700023
12626537333.333334 0.9465508781600536 0.32255454585895155 -7.704096680570693e-17 -2.9034019082773527e-18 -7.704096680570693e-17 -2.9034019082773527e-18 0.9465506749249297 0.32255514226098453
12627154666.666666 0.9492204403731921 0.3146117537180813 -7.704771945253601e-17 -2.2504730772825098e-18 -7.704771945253601e-17 -2.2504730772825098e-18 0.949220242152349 0.31461235177290786
12627772000.0 0.9518233535381165 0.30664687126937623 -7.704894333981915e-17 -1.5976381903965917e-18 -7.704894333981915e-17 -1.5976381903965917e-18 0.9518231603449813 0.30664747093484457
12628389333.333334 0.9543594348925744 0.29866045776327477 -7.704464054222065e-17 -9.449440218988047e-19 -7.704464054222065e-17 -9.449440218988047e-19 0.95435924674022 0.2986610589971244
12629006666.666666 0.9568285063669402 0.29065307396181894 -7.703481352977439e-17 -2.924373176709513e-19 -7.703481352977439e-17 -2.924373176709513e-19 0.9568283232680829 0.29065367672168285
12629624000.0 0.9592303945966154 0.2826252820995758 -7.70194651675521e-17 3.5983520811746203e-19 -7.70194651675521e-17 3.5983520811746203e-19 0.9592302165636181 0.28262588634298486
12630241333.333334 0.9615649309342686 0.27457764584397326 -7.699859871530333e-17 1.011826876357776e-18 -7.699859871530333e-17 1.011826876357776e-18 0.9615647579791358 0.27457825152835774
12630858666.666666 0.9638319514615922 0.2665107302559933 -7.697221782706812e-17 1.6634910463206443e-18 -7.697221782706812e-17 1.6634910463206443e-18 0.9638317835959698 0.2665113373386863
12631476000.0 0.9660312970009454 0.2584251017500328 -7.694032655075982e-17 2.314781119007637e-18 -7.694032655075982e-17 2.314781119007637e-18 0.9660311342361231 0.2584257101882741
12632093333.333334 0.9681628131264006 0.2503213280545978 -7.690292932772218e-17 2.9656505404460544e-18 -7.690292932772218e-17 2.9656505404460544e-18 0.9681626554733072 0.25032193780553547
12632710666.666666 0.9702263501746415 0.24219997817224947 -7.686003099225687e-17 3.6160528050207924e-18 -7.686003099225687e-17 3.6160528050207924e-18 0.9702261976438459 0.24220058919294396
12633328000.0 0.9722217632555025 0.23406162233951364 -7.681163677112246e-17 4.265941458799202e-18 -7.681163677112246e-17 4.265941458799202e-18 0.9722216158572138 0.2340622345869406
12633945333.333334 0.9741489122620837 0.22590683198709052 -7.675775228300775e-17 4.915270102820415e-18 -7.675775228300775e-17 4.915270102820415e-18 0.9741487700061486 0.2259074454181432
12634562666.666666 0.9760076618806173 0.21773617969959289 -7.66983835379751e-17 5.563992396409987e-18 -7.66983835379751e-17 5.563992396409987e-18 0.9760075247765225 0.21773679427108633
12635180000.0 0.9777978815999698 0.20955023917537174 -7.663353693687681e-17 6.212062060475975e-18 -7.663353693687681e-17 6.212062060475975e-18 0.977797749656837 0.2095508548440445
12635797333.333334 0.979519445720802 0.20134958518620452 -7.656321927074365e-17 6.859432880803691e-18 -7.656321927074365e-17 6.859432880803691e-18 0.9795193189473907 0.20135020190872263
12636414666.666666 0.981172233364379 0.19313479353705051 -7.648743772014623e-17 7.506058711333613e-18 -7.648743772014623e-17 7.506058711333613e-18 0.9811721117690859 0.1931354112700104
12637032000.0 0.9827561284810966 0.184906441025426 -7.64061998545269e-17 8.151893477457099e-18 -7.64061998545269e-17 8.151893477457099e-18 0.9827560120719521 0.18490705972535706
12637649333.333334 0.9842710198585817 0.1766651054011269 -7.63195136315067e-17 8.796891179273005e-18 -7.63195136315067e-17 8.796891179273005e-18 0.9842709086432522 0.17666572502449507
12638266666.666666 0.9857168011295414 0.16841136532546752 -7.622738739616209e-17 9.441005894870372e-18 -7.622738739616209e-17 9.441005894870372e-18 0.9857166951153281 0.1684119858286782
12638884000.0 0.98709337077921 0.16014580033076192 -7.612982988027628e-17 1.0084191783580278e-17 -7.612982988027628e-17 1.0084191783580278e-17 0.9870932699730489 0.16014642167016305
12639501333.333334 0.9884006321524877 0.1518689907795763 -7.602685020156171e-17 1.0726403089233635e-17 -7.602685020156171e-17 1.0726403089233635e-17 0.9884005365609467 0.15186961291146106
12640118666.666666 0.9896384934606967 0.14358151782414705 -7.591845786285799e-17 1.1367594143394403e-17 -7.591845786285799e-17 1.1367594143394403e-17 0.9896384030899789 0.14358214070475767
12640736000.0 0.9908068677881007 0.13528396336512682 -7.58046627512945e-17 1.2007719368632627e-17 -7.58046627512945e-17 1.2007719368632627e-17 0.99080678264404 0.1352845869506569
12641353333.333334 0.9919056730979008 0.12697691001140052 -7.568547513744065e-17 1.2646733281703617e-17 -7.568547513744065e-17 1.2646733281703617e-17 0.9919055931859657 0.1269775342579987
12641970666.666666 0.9929348322380881 0.1186609410385877 -7.5560905674412e-17 1.3284590496815871e-17 -7.5560905674412e-17 1.3284590496815871e-17 0.9929347575633776 0.11866156590236025
12642588000.0 0.9938942729468152 0.11033664034836899 -7.543096539696131e-17 1.3921245728824163e-17 -7.543096539696131e-17 1.3921245728824163e-17 0.9938942035140609 0.11033726578538335
12643205333.333334 0.9947839278574803 0.1020045924274317 -7.529566572053805e-17 1.455665379643776e-17 -7.529566572053805e-17 1.455665379643776e-17 0.9947838636710455 0.1020052183937193
12643822666.666666 0.9956037345034585 0.09366538230643054 -7.515501844032001e-17 1.5190769625426375e-17 -7.515501844032001e-17 1.5190769625426375e-17 0.9956036755673375 0.0936660087579899
12644440000.0 0.9963536353224891 0.08531959551888135 -7.500903573022167e-17 1.5823548251797933e-17 -7.500903573022167e-17 1.5823548251797933e-17 0.9963535816403053 0.08532022241168108
12645057333.333334 0.997033577660705 0.0769678180601329 -7.485773014187356e-17 1.645494482498007e-17 -7.485773014187356e-17 1.645494482498007e-17 0.9970335292357174 0.07696844535011538
12645674666.666666 0.9976435137763459 0.06861063634619424 -7.470111460357538e-17 1.708491461099014e-17 -7.470111460357538e-17 1.708491461099014e-17 0.9976434706114389 0.06861126398927776
12646292000.0 0.9981834008431101 0.06024863717236013 -7.453920241921835e-17 1.771341299561034e-17 -7.453920241921835e-17 1.771341299561034e-17 0.9981833629408016 0.06024926512444279
12646909333.333334 0.998653200953144 0.05188240767237879 -7.437200726719204e-17 1.8340395487510742e-17 -7.437200726719204e-17 1.8340395487510742e-17 0.9986531683155812 0.05188303588934122
12647526666.666666 0.9990528811197218 0.04351253527694288 -7.419954319925223e-17 1.8965817721413175e-17 -7.419954319925223e-17 1.8965817721413175e-17 0.9990528537486819 0.04351316371465143
12648144000.0 0.9993824132795558 0.03513960767247151 -7.402182463937025e-17 1.9589635461210772e-17 -7.402182463937025e-17 1.9589635461210772e-17 0.9993823911764468 0.03514023628678134
12648761333.333334 0.9996417742947638 0.02676421275995979 -7.38388663825533e-17 2.0211804603092097e-17 -7.38388663825533e-17 2.0211804603092097e-17 0.9996417574606236 0.026764841506717967
12649378666.666666 0.999830945954495 0.018386938613699683 -7.365068359364133e-17 2.0832281178641775e-17 -7.365068359364133e-17 2.0832281178641775e-17 0.9998309343899902 0.01838756744874828
12649996000.0 0.9999499149762114 0.010008373439846611 -7.345729180607228e-17 2.1451021357951242e-17 -7.345729180607228e-17 2.1451021357951242e-17 0.9999499086816407 0.010009002319025838
12650613333.333334 0.9999986730066186 0.001629105535204076 -7.325870692062682e-17 2.206798145269951e-17 -7.325870692062682e-17 2.206798145269951e-17 0.9999986719819092 0.0016297344143553242
12651230666.666666 0.9999772166222534 -0.006750276753998077 -7.305494520414798e-17 2.268311791922059e-17 -7.305494520414798e-17 2.268311791922059e-17 0.9999772208669617 -0.006749647919029084
12651848000.0 0.9998855473297199 -0.015129185073584588 -7.284602328822569e-17 2.3296387361588248e-17 -7.284602328822569e-17 2.3296387361588248e-17 0.9998855568430352 -0.015128556326944726
12652465333.333334 0.9997236715655891 -0.02350703110266052 -7.263195816786859e-17 2.3907746534649788e-17 -7.263195816786859e-17 2.3907746534649788e-17 0.9997236863463287 -0.023506402488486153
12653082666.666666 0.9994916006959478 -0.03188322659480631 -7.241276720014454e-17 2.4517152347066504e-17 -7.241276720014454e-17 2.4517152347066504e-17 0.9994916207425595 -0.03188259815722018
12653700000.0 0.9991893510155905 -0.04025718341969367 -7.218846810278778e-17 2.512456186436223e-17 -7.218846810278778e-17 2.512456186436223e-17 0.9991893763261532 -0.04025655520280184
12654317333.333334 0.998816943746889 -0.04862831360398316 -7.195907895279882e-17 2.572993231191042e-17 -7.195907895279882e-17 2.572993231191042e-17 0.9988169743191123 -0.04862768565187189
12654934666.666666 0.9983744050382941 -0.05699602937289259 -7.17246181850013e-17 2.633322107795773e-17 -7.17246181850013e-17 2.633322107795773e-17 0.9983744408695177 -0.05699540172962522
12655552000.0 0.997861765962496 -0.0653597431914672 -7.148510459058102e-17 2.693438571661418e-17 -7.148510459058102e-17 2.693438571661418e-17 0.9978618070496901 -0.06535911590108105
12656169333.333334 0.997279062514253 -0.07371886780557747 -7.124055731560719e-17 2.7533383950812113e-17 -7.124055731560719e-17 2.7533383950812113e-17 0.9972791088540218 -0.07371824091208098
12656786666.666666 0.9966263356078592 -0.08207281628343734 -7.099099585951411e-17 2.813017367529044e-17 -7.099099585951411e-17 2.813017367529044e-17 0.9966263871964355 -0.08207218983080655
12657404000.0 0.9959036310742653 -0.09042100205670095 -7.07364400735696e-17 2.8724712959534955e-17 -7.07364400735696e-17 2.8724712959534955e-17 0.9959036879075152 -0.0904203760888768
12658021333.333334 0.995110999657873 -0.09876283896159226 -7.047691015931333e-17 2.931696005071912e-17 -7.047691015931333e-17 2.931696005071912e-17 0.9951110617312942 -0.09876221352247733
12658638666.666666 0.9942484970129691 -0.10709774128009039 -7.021242666697621e-17 2.9906873376619177e-17 -7.021242666697621e-17 2.9906873376619177e-17 0.994248564321693 -0.1070971164135459
12659256000.0 0.9933161836997999 -0.11542512378122521 -6.994301049386577e-17 3.0494411548534713e-17 -6.994301049386577e-17 3.0494411548534713e-17 0.9933162562385894 -0.11542449953106781
12659873333.333334 0.9923141251803399 -0.12374440176194262 -6.966868288273625e-17 3.107953336417742e-17 -6.966868288273625e-17 3.107953336417742e-17 0.9923142029435925 -0.12374377817194157
12660490666.666666 0.9912423918137024 -0.13205499108815993 -6.938946542013488e-17 3.166219781054329e-17 -6.938946542013488e-17 3.166219781054329e-17 0.9912424747954488 -0.1320543682020338
12661108000.0 0.9901010588511596 -0.14035630823606218 -6.910538003471067e-17 3.224236406679959e-17 -6.910538003471067e-17 3.224236406679959e-17 0.9901011470450641 -0.14035568609747567
12661725333.333334 0.9888902064309097 -0.14864777033267904 -6.881644899552215e-17 3.281999150710784e-17 -6.881644899552215e-17 3.281999150710784e-17 0.9888902998302714 -0.1486471489852403
12662342666.666666 0.987609919572411 -0.1569287951971214 -6.852269491029882e-17 3.3395039703480976e-17 -6.852269491029882e-17 3.3395039703480976e-17 0.9876100181701648 -0.15692817468437883
12662960000.0 0.9862602881704301 -0.16519880138131793 -6.82241407236932e-17 3.396746842859353e-17 -6.82241407236932e-17 3.396746842859353e-17 0.9862603919591466 -0.16519818174675696
12663577333.333334 0.9848414069887271 -0.1734572082108693 -6.792080971550417e-17 3.4537237658588326e-17 -6.792080971550417e-17 3.4537237658588326e-17 0.9848415159606129 -0.17345658949790949
12664194666.666666 0.9833533756533946 -0.18170343582584766 -6.761272549887796e-17 3.510430757586548e-17 -6.761272549887796e-17 3.510430757586548e-17 0.9833534898002934 -0.18170281807783972
12664812000.0 0.9817962986458852 -0.1899369052213998 -6.729991201848573e-17 3.56686385718555e-17 -6.729991201848573e-17 3.56686385718555e-17 0.9817964179592784 -0.18993628848162247
12665429333.333334 0.9801702852956398 -0.19815703828859732 -6.698239354867737e-17 3.6230191249778276e-17 -6.698239354867737e-17 3.6230191249778276e-17 0.9801704097666456 -0.19815642260025404
12666046666.666666 0.9784754497724554 -0.2063632578547765 -6.666019469161849e-17 3.6788926427374504e-17 -6.666019469161849e-17 3.6788926427374504e-17 0.9784755793918316 -0.20636264326099288
12666664000.0 0.9767119110784038 -0.21455498772439882 -6.633334037538768e-17 3.734480513965066e-17 -6.633334037538768e-17 3.734480513965066e-17 0.976712045836549 -0.21455437426821974
12667281333.333334 0.97487979303956 -0.22273165271911943 -6.600185585207806e-17 3.7897788641560605e-17 -6.600185585207806e-17 3.7897788641560605e-17 0.9748799329265105 -0.22273104044350514
12667898666.666666 0.9729792242972423 -0.23089267871844962 -6.566576669584927e-17 3.8447838410717065e-17 -6.566576669584927e-17 3.8447838410717065e-17 0.9729793693026781 -0.23089206766627388
12668516000.0 0.9710103382989846 -0.2390374927000694 -6.532509880097437e-17 3.899491615005616e-17 -6.532509880097437e-17 3.899491615005616e-17 0.971010488412225 -0.2390368829141155
12669133333.333334 0.968973273289221 -0.24716552277981232 -6.497987837985747e-17 3.953898379049808e-17 -6.497987837985747e-17 3.953898379049808e-17 0.968973428499228 -0.2471649143027703
12669750666.666666 0.9668681722995129 -0.25527619825209585 -6.46301319610352e-17 4.008000349357877e-17 -6.46301319610352e-17 4.008000349357877e-17 0.9668683325948935 -0.25527559112656045
12670368000.0 0.9646951831385372 -0.2633689496298846 -6.427588638714477e-17 4.0617937654085e-17 -6.427588638714477e-17 4.0617937654085e-17 0.9646953485075401 -0.2633683438983507
