! Parameters = {f0=12700.012000; bw=77.238000; Q=6100.000000; N=10; m_0_1=1.153048; m_1_1=-1.469025; m_1_2=0.987860; m_2_2=-1.469674; m_2_3=0.624823; m_2_8=-0.005284; m_2_9=0.031420; m_3_3=-1.471611; m_3_4=0.513352; m_3_7=-0.004684; m_3_8=-0.101772; m_3_9=-0.005284; m_4_4=-1.474536; m_4_5=0.349687; m_4_6=-0.001167; m_4_7=-0.122321; m_4_8=-0.004684; m_5_5=-1.474154; m_5_6=0.757042; m_5_7=-0.001167; m_6_6=-1.474155; m_6_7=0.350029; m_7_7=-1.474522; m_7_8=0.513470; m_8_8=-1.471613; m_8_9=0.625136; m_9_9=-1.469679; m_9_10=0.988938; m_10_10=-1.469035; m_10_11=1.153843}
!
! Created with skrf (http://scikit-rf.org).
# Hz S RI R 50.0 
!freq ReS11 ImS11 ReS21 ImS21 ReS12 ImS12 ReS22 ImS22
12607400000.0 -0.6707217235344821 0.7417090868924202 2.6609966259959812e-17 -5.5486868802772446e-17 2.6609966259959812e-17 -5.5486868802772446e-17 -0.6707221742635933 0.7417086793013631
12608017333.333334 -0.665464450267374 0.7464295448534953 2.6207188259778885e-17 -5.566491465695416e-17 2.6207188259778885e-17 -5.566491465695416e-17 -0.6654649038428461 0.7464291404770356
12608634666.666666 -0.6601739559214509 0.7511127398219778 2.5803226192587554e-17 -5.584004063758237e-17 2.5803226192587554e-17 -5.584004063758237e-17 -0.6601744123203628 0.7511123386799861
12609252000.0 -0.6548505046069034 0.7557584380051198 2.5398101198000468e-17 -5.601223892523788e-17 2.5398101198000468e-17 -5.601223892523788e-17 -0.6548509638061963 0.7557580401173049
12609869333.333334 -0.6494943620792116 0.7603664074820592 2.499183446684745e-17 -5.618150185335569e-17 2.499183446684745e-17 -5.618150185335569e-17 -0.6494948240556878 0.7603660128679642
12610486666.666666 -0.6441057957258524 0.7649364182154105 2.458444724007782e-17 -5.634782190855393e-17 2.458444724007782e-17 -5.634782190855393e-17 -0.6441062604561786 0.764936026894414
12611104000.0 -0.6386850745529313 0.7694682420627713 2.41759608076365e-17 -5.651119173096531e-17 2.41759608076365e-17 -5.651119173096531e-17 -0.6386855420136391 0.7694678540540849
12611721333.333334 -0.633232469171841 0.7739616527880359 2.3766396507378798e-17 -5.667160411454443e-17 2.3766396507378798e-17 -5.667160411454443e-17 -0.6332329393393273 0.7739612681107044
12612338666.666666 -0.6277482517856424 0.7784164260727833 2.3355775723943978e-17 -5.682905200738231e-17 2.3355775723943978e-17 -5.682905200738231e-17 -0.627748724636172 0.7784160447456835
12612956000.0 -0.6222326961754521 0.7828323395274891 2.2944119887643328e-17 -5.69835285120068e-17 2.2944119887643328e-17 -5.69835285120068e-17 -0.6222331716851582 0.7828319615693284
12613573333.333334 -0.6166860776869757 0.7872091727024705 2.2531450473360834e-17 -5.713502688566916e-17 2.2531450473360834e-17 -5.713502688566916e-17 -0.6166865558318606 0.7872087981317863
12614190666.666666 -0.6111086732165388 0.7915467070990666 2.2117788999421135e-17 -5.728354054063449e-17 2.2117788999421135e-17 -5.728354054063449e-17 -0.6111091539724762 0.7915463359342259
12614808000.0 -0.6055007611973772 0.7958447261804603 2.170315702648015e-17 -5.742906304445496e-17 2.170315702648015e-17 -5.742906304445496e-17 -0.605501244540112 0.7958443584396574
12615425333.333334 -0.5998626215857107 0.8001030153825024 2.1287576156404182e-17 -5.757158812023866e-17 2.1287576156404182e-17 -5.757158812023866e-17 -0.5998631074908622 0.8001026510837599
12616042666.666666 -0.5941945358467726 0.8043213621244272 2.0871068031148903e-17 -5.771110964690939e-17 2.0871068031148903e-17 -5.771110964690939e-17 -0.5941950242898334 0.8043210012855928
12616660000.0 -0.5884967869407532 0.8084995558194601 2.045365433163687e-17 -5.784762165945904e-17 2.045365433163687e-17 -5.784762165945904e-17 -0.5884972778970926 0.8084991984582088
12617277333.333334 -0.5827696593086561 0.8126373878853523 2.003535677663175e-17 -5.798111834919197e-17 2.003535677663175e-17 -5.798111834919197e-17 -0.5827701527535196 0.8126370340191825
12617894666.666666 -0.5770134388582085 0.8167346517547054 1.9616197121620986e-17 -5.811159406395817e-17 1.9616197121620986e-17 -5.811159406395817e-17 -0.5770139347667205 0.8167343014009399
12618512000.0 -0.5712284129493382 0.8207911428854696 1.9196197157670513e-17 -5.823904330838687e-17 1.9196197157670513e-17 -5.823904330838687e-17 -0.5712289112965022 0.8207907960612543
12619129333.333334 -0.5654148703801511 0.824806658770923 1.8775378710319634e-17 -5.836346074409912e-17 1.8775378710319634e-17 -5.836346074409912e-17 -0.5654153711408507 0.8248063154932245
12619746666.666666 -0.5595731013722793 0.8287809989499417 1.8353763638434587e-17 -5.848484118992412e-17 1.8353763638434587e-17 -5.848484118992412e-17 -0.5595736045212818 0.8287806592355508
12620364000.0 -0.5537033975563976 0.8327139650170141 1.793137383307761e-17 -5.8603179622103e-17 1.793137383307761e-17 -5.8603179622103e-17 -0.5537039030683519 0.8327136288825394
12620981333.333334 -0.5478060519578707 0.8366053606319929 1.7508231216389713e-17 -5.871847117447955e-17 1.7508231216389713e-17 -5.871847117447955e-17 -0.5478065598073104 0.8366050280938633
12621598666.666666 -0.5418813589818913 0.8404549915300599 1.7084357740440625e-17 -5.883071113869213e-17 1.7084357740440625e-17 -5.883071113869213e-17 -0.5418818691432372 0.8404546626045247
12622216000.0 -0.5359296143989035 0.8442626655313479 1.6659775386102747e-17 -5.893989496435061e-17 1.6659775386102747e-17 -5.893989496435061e-17 -0.5359301268464624 0.8442623402344728
12622833333.333334 -0.5299511153297867 0.8480281925505598 1.623450616191233e-17 -5.904601825920804e-17 1.623450616191233e-17 -5.904601825920804e-17 -0.5299516300377535 0.8480278708982282
12623450666.666666 -0.5239461602311193 0.8517513846064009 1.5808572102939744e-17 -5.91490767893215e-17 1.5808572102939744e-17 -5.91490767893215e-17 -0.5239466771735791 0.8517510666143127
12624068000.0 -0.5179150488801604 0.8554320558310374 1.5381995269643783e-17 -5.924906647920925e-17 1.5381995269643783e-17 -5.924906647920925e-17 -0.5179155680310895 0.8554317415147091
12624685333.333334 -0.511858082359859 0.8590700224793917 1.4954797746731665e-17 -5.934598341199699e-17 1.4954797746731665e-17 -5.934598341199699e-17 -0.5118586036931253 0.8590697118541533
12625302666.666666 -0.5057755630440661 0.8626651029381642 1.4527001642037042e-17 -5.943982382955257e-17 1.4527001642037042e-17 -5.943982382955257e-17 -0.505776086533432 0.862664796019161
12625920000.0 -0.4996677945820741 0.8662171177351212 1.4098629085354842e-17 -5.953058413262178e-17 1.4098629085354842e-17 -5.953058413262178e-17 -0.4996683202011965 0.8662168145373124
12626537333.333334 -0.49353508188380146 0.8697258895478522 1.3669702227326285e-17 -5.961826088094447e-17 1.3669702227326285e-17 -5.961826088094447e-17 -0.49353560960623377 0.8697255900860094
12627154666.666666 -0.48737773110442484 0.8731912432127106 1.3240243238279218e-17 -5.97028507933726e-17 1.3240243238279218e-17 -5.97028507933726e-17 -0.48737826090361697 0.8731909475014156
12627772000.0 -0.48119604962894236 0.8766130057336331 1.2810274307094965e-17 -5.978435074797364e-17 1.2810274307094965e-17 -5.978435074797364e-17 -0.4811965814782452 0.8766127137872829
12628389333.333334 -0.4749903460571823 0.8799910062905945 1.2379817640064643e-17 -5.986275778212888e-17 1.2379817640064643e-17 -5.986275778212888e-17 -0.47499087992984523 0.8799907181233935
12629006666.666666 -0.46876093018801807 0.8833250762483305 1.1948895459746486e-17 -5.993806909262181e-17 1.1948895459746486e-17 -5.993806909262181e-17 -0.468761466057193 0.8833247918742945
12629624000.0 -0.4625081130041806 0.8866150491646116 1.151753000382308e-17 -6.001028203571996e-17 1.151753000382308e-17 -6.001028203571996e-17 -0.4625086508429218 0.8866147685975654
12630241333.333334 -0.4562322066565816 0.8898607607986324 1.108574352395803e-17 -6.007939412724724e-17 1.108574352395803e-17 -6.007939412724724e-17 -0.4562327464378484 0.8898604840522096
12630858666.666666 -0.44993352444888285 0.8930620491191313 1.0653558284652477e-17 -6.014540304264875e-17 1.0653558284652477e-17 -6.014540304264875e-17 -0.4499340661455397 0.8930617762067732
12631476000.0 -0.4436123808215762 0.8962187543126213 1.0220996562099641e-17 -6.020830661704731e-17 1.0220996562099641e-17 -6.020830661704731e-17 -0.44361292440639505 0.8962184852475771
12632093333.333334 -0.43726909133661757 0.8993307187912043 9.788080643047882e-18 -6.026810284529107e-17 9.788080643047882e-18 -6.026810284529107e-17 -0.43726963678227776 0.899330453586528
12632710666.666666 -0.4309039726615184 0.9023977872005097 9.354832823646363e-18 -6.032478988199481e-17 9.354832823646363e-18 -6.032478988199481e-17 -0.4309045199406104 0.9023975258690637
12633328000.0 -0.4245173425534126 0.9054198064275176 8.921275408307958e-18 -6.037836604157084e-17 8.921275408307958e-18 -6.037836604157084e-17 -0.4245178916384371 0.9054195489819683
12633945333.333334 -0.4181095198434211 0.9083966256080868 8.487430708563583e-18 -6.042882979825324e-17 8.487430708563583e-18 -6.042882979825324e-17 -0.41811007070679207 0.9083963720609064
12634562666.666666 -0.4116808244206092 0.9113280961345502 8.053321041918277e-18 -6.047617978611314e-17 8.053321041918277e-18 -6.047617978611314e-17 -0.4116813770346534 0.9113278464980133
12635180000.0 -0.40523157721604 0.9142140716631179 7.618968730707475e-18 -6.052041479906615e-17 7.618968730707475e-18 -6.052041479906615e-17 -0.40523213155300114 0.9142138259493053
12635797333.333334 -0.39876210018673075 0.9170544081211992 7.18439610095345e-18 -6.056153379087156e-17 7.18439610095345e-18 -6.056153379087156e-17 -0.3987626562187681 0.9170541663419932
12636414666.666666 -0.3922727162996815 0.9198489637145456 6.7496254812220665e-18 -6.05995358751235e-17 6.7496254812220665e-18 -6.05995358751235e-17 -0.3922732739988729 0.9198487258816312
12637032000.0 -0.38576374951559783 0.9225975989344017 6.314679201479747e-18 -6.063442032523349e-17 6.314679201479747e-18 -6.063442032523349e-17 -0.38576430885393986 0.9225973650592643
12637649333.333334 -0.37923552477281913 0.9253001765644158 5.8795795919509405e-18 -6.06661865744054e-17 5.8795795919509405e-18 -6.06661865744054e-17 -0.3792360857222306 0.9252999466583453
12638266666.666666 -0.37268836797107585 0.9279565616875134 5.4443489819759246e-18 -6.069483421560179e-17 5.4443489819759246e-18 -6.069483421560179e-17 -0.3726889305033964 0.927956335761597
12638884000.0 -0.3661226059552152 0.9305666216926206 5.009009698869152e-18 -6.072036300150243e-17 5.009009698869152e-18 -6.072036300150243e-17 -0.3661231700422096 0.9305663997577489
12639501333.333334 -0.35953856649886207 0.9331302262813049 4.573584066776397e-18 -6.074277284445453e-17 4.573584066776397e-18 -6.074277284445453e-17 -0.3595391321122192 0.9331300083481653
12640118666.666666 -0.3529365782881852 0.9356472474742192 4.138094405542901e-18 -6.076206381641441e-17 4.138094405542901e-18 -6.076206381641441e-17 -0.3529371453995216 0.9356470335533011
12640736000.0 -0.3463169709052 0.9381175596176111 3.702563029554479e-18 -6.077823614888219e-17 3.702563029554479e-18 -6.077823614888219e-17 -0.346317539486059 0.9381173497192007
12641353333.333334 -0.33968007481168405 0.9405410393894486 3.2670122466226432e-18 -6.079129023282684e-17 3.2670122466226432e-18 -6.079129023282684e-17 -0.3396806448335392 0.9405408335236307
12641970666.666666 -0.3330262213323898 0.942917565805689 2.8314643568272203e-18 -6.080122661860441e-17 2.8314643568272203e-18 -6.080122661860441e-17 -0.33302679276664526 0.9429173639823466
12642588000.0 -0.3263557426386359 0.9452470202262686 2.395941651387503e-18 -6.080804601586739e-17 2.395941651387503e-18 -6.080804601586739e-17 -0.32635631545662824 0.945246822455082
12643205333.333334 -0.319668971731699 0.9475292863610362 1.9604664115256432e-18 -6.081174929346611e-17 1.9604664115256432e-18 -6.081174929346611e-17 -0.3196695459046981 0.947529092651481
12643822666.666666 -0.31296624242618853 0.9497642502755552 1.525060907324097e-18 -6.081233747934217e-17 1.525060907324097e-18 -6.081233747934217e-17 -0.31296681792540026 0.949764060636906
12644440000.0 -0.30624788933335667 0.9519518003968054 1.0897473965996318e-18 -6.080981176041376e-17 1.0897473965996318e-18 -6.080981176041376e-17 -0.306248466129923 0.9519516148381308
12645057333.333334 -0.2995142478445012 0.9540918275187134 6.54548123768034e-19 -6.080417348245278e-17 6.54548123768034e-19 -6.080417348245278e-17 -0.29951482590950185 0.9540916460488772
12645674666.666666 -0.2927656541140597 0.9561842248076581 2.1948531871166955e-19 -6.079542414995394e-17 2.1948531871166955e-19 -6.079542414995394e-17 -0.29276623341851443 0.9561840474353204
12646292000.0 -0.28600244504293737 0.9582288878077707 -2.1541880436385862e-19 -6.078356542599573e-17 -2.1541880436385862e-19 -6.078356542599573e-17 -0.28600302555780666 0.9582287145413851
12646909333.333334 -0.2792249582616329 0.9602257144461634 -6.501420480372544e-19 -6.076859913209386e-17 -6.501420480372544e-19 -6.076859913209386e-17 -0.27922553995781974 0.9602255452939787
12647526666.666666 -0.2724335321135209 0.9621746050379877 -1.0846622328175175e-18 -6.075052724804555e-17 -1.0846622328175175e-18 -6.075052724804555e-17 -0.2724341149618721 0.9621744400080458
12648144000.0 -0.26562850563768714 0.9640754622914872 -1.5189571982695593e-18 -6.072935191176687e-17 -1.5189571982695593e-18 -6.072935191176687e-17 -0.2656290896089951 0.9640753013916245
12648761333.333334 -0.2588102185522503 0.965928191312787 -1.953004804133232e-18 -6.070507541912151e-17 -1.953004804133232e-18 -6.070507541912151e-17 -0.25881080361725384 0.9659280345506319
12649378666.666666 -0.25197901123737415 0.9677326996106369 -2.3867829314477983e-18 -6.067770022374186e-17 -2.3867829314477983e-18 -6.067770022374186e-17 -0.25197959736676034 0.9677325469936103
12649996000.0 -0.24513522471813898 0.9694888971010666 -2.8202694836834967e-18 -6.064722893684166e-17 -2.8202694836834967e-18 -6.064722893684166e-17 -0.24513581188254516 0.9694887486363835
12650613333.333334 -0.23827920064759947 0.9711966961118623 -3.253442387857702e-18 -6.061366432702081e-17 -3.253442387857702e-18 -6.061366432702081e-17 -0.23827978881761347 0.9711965518065272
12651230666.666666 -0.23141128128983793 0.9728560113869117 -3.6862795956477695e-18 -6.057700932006316e-17 -3.6862795956477695e-18 -6.057700932006316e-17 -0.23141187043600078 0.9728558712477232
12651848000.0 -0.2245318095026036 0.9744667600905331 -4.118759084526246e-18 -6.053726699872399e-17 -4.118759084526246e-18 -6.053726699872399e-17 -0.22453239959541044 0.9744666241240808
12652465333.333334 -0.21764112872044414 0.9760288618115487 -4.5508588588616315e-18 -6.049444060251229e-17 -4.5508588588616315e-18 -6.049444060251229e-17 -0.21764171973034524 0.9760287300242106
12653082666.666666 -0.21073958293756068 0.977542238567295 -4.982556951032853e-18 -6.044853352746403e-17 -4.982556951032853e-18 -6.044853352746403e-17 -0.210740174834964 0.9775421109652431
12653700000.0 -0.2038275166903593 0.979006814807587 -5.413831422559004e-18 -6.039954932590571e-17 -5.413831422559004e-18 -6.039954932590571e-17 -0.2038281094456311 0.9790066913967824
12654317333.333334 -0.19690527504063812 0.9804225174183966 -5.8446603651859626e-18 -6.034749170621386e-17 -5.8446603651859626e-18 -6.034749170621386e-17 -0.19690586862410492 0.9804223982045911
12654934666.666666 -0.18997320355808484 0.9817892757255678 -6.2750219020122376e-18 -6.0292364532563e-17 -6.2750219020122376e-18 -6.0292364532563e-17 -0.18997379794003447 0.9817891607143026
12655552000.0 -0.1830316483030236 0.9831070214983384 -6.704894188595587e-18 -6.023417182466691e-17 -6.704894188595587e-18 -6.023417182466691e-17 -0.18303224345370717 0.9831069106949446
12656169333.333334 -0.1760809558093915 0.9843756889527017 -7.134255414042164e-18 -6.017291775751422e-17 -7.134255414042164e-18 -6.017291775751422e-17 -0.1760815516990246 0.9843755823623007
12656786666.666666 -0.16912147306715955 0.985595214754744 -7.563083802126037e-18 -6.010860666109221e-17 -7.563083802126037e-18 -6.010860666109221e-17 -0.1691220696659236 0.9855951123822448
12657404000.0 -0.16215354750514926 0.9867655380237756 -7.991357612380826e-18 -6.004124302010593e-17 -7.991357612380826e-18 -6.004124302010593e-17 -0.16215414478319334 0.9867654398738772
12658021333.333334 -0.15517752697363318 0.9878866003353837 -8.419055141201061e-18 -5.997083147368791e-17 -8.419055141201061e-18 -5.997083147368791e-17 -0.15517812490107555 0.9878865064125745
12658638666.666666 -0.14819375972711032 0.9889583457243278 -8.846154722929312e-18 -5.989737681510211e-17 -8.846154722929312e-18 -5.989737681510211e-17 -0.14819435827403935 0.9889582560328828
12659256000.0 -0.1412025944066388 0.9899807206873729 -9.272634730966442e-18 -5.982088399143572e-17 -9.272634730966442e-18 -5.982088399143572e-17 -0.1412031935431151 0.9899806352313569
12659873333.333334 -0.13420438002268462 0.9909536741859237 -9.698473578847143e-18 -5.974135810328866e-17 -9.698473578847143e-18 -5.974135810328866e-17 -0.13420497971874237 0.9909535929691902
12660490666.666666 -0.12719946593769882 0.991877157648577 -1.0123649721328352e-17 -5.965880440445304e-17 -1.0123649721328352e-17 -5.965880440445304e-17 -0.12720006616334698 0.9918770806747655
12661108000.0 -0.12018820184839461 0.9927511249735785 -1.0548141655491947e-17 -5.957322830158137e-17 -1.0548141655491947e-17 -5.957322830158137e-17 -0.12018880257361875 0.9927510522461184
12661725333.333334 -0.11317093776868462 0.9935755325310762 -1.0971927921804341e-17 -5.948463535385486e-17 -1.0971927921804341e-17 -5.948463535385486e-17 -0.11317153896344834 0.993575464053184
12662342666.666666 -0.10614802401189775 0.9943503391653391 -1.1394987105215695e-17 -5.939303127263626e-17 -1.1394987105215695e-17 -5.939303127263626e-17 -0.10614862564614407 0.9943502749400186
12662960000.0 -0.09911981117343156 0.9950755061967903 -1.1817297836229326e-17 -5.929842192111974e-17 -1.1817297836229326e-17 -5.929842192111974e-17 -0.0991204132170845 0.9950754462268324
12663577333.333334 -0.09208665011322202 0.9957509974239441 -1.2238838791978591e-17 -5.920081331397161e-17 -1.2238838791978591e-17 -5.920081331397161e-17 -0.0920872525361881 0.9957509417119281
12664194666.666666 -0.08504889193822797 0.9963767791252135 -1.2659588697299213e-17 -5.910021161696357e-17 -1.2659588697299213e-17 -5.910021161696357e-17 -0.08504949471039772 0.9963767276735047
12664812000.0 -0.07800688798490321 0.9969528200605915 -1.3079526325798799e-17 -5.899662314659852e-17 -1.3079526325798799e-17 -5.899662314659852e-17 -0.07800749107615265 0.9969527728713429
12665429333.333334 -0.07096098980162889 0.9974790914732143 -1.349863050092505e-17 -5.889005436972803e-17 -1.349863050092505e-17 -5.889005436972803e-17 -0.07096159318182108 0.9974790485483659
12666046666.666666 -0.06391154913130538 0.9979555670907864 -1.3916880097021116e-17 -5.878051190316545e-17 -1.3916880097021116e-17 -5.878051190316545e-17 -0.06391215277029193 0.9979555284320651
12666664000.0 -0.056858917893480916 0.9983822231269135 -1.4334254040404467e-17 -5.866800251328403e-17 -1.4334254040404467e-17 -5.866800251328403e-17 -0.056859521761103364 0.9983821887358336
12667281333.333334 -0.049803448167180034 0.9987590382822649 -1.475073131040112e-17 -5.855253311561865e-17 -1.475073131040112e-17 -5.855253311561865e-17 -0.049804052233271535 0.9987590081601272
12667898666.666666 -0.04274549217304372 0.9990859937456531 -1.516629094041672e-17 -5.84341107744496e-17 -1.516629094041672e-17 -5.84341107744496e-17 -0.04274609640743042 0.999085967893545
12668516000.0 -0.035685402255745846 0.9993630731949735 -1.5580912018987747e-17 -5.831274270238333e-17 -1.5580912018987747e-17 -5.831274270238333e-17 -0.03568600662824839 0.9993630516137687
12669133333.333334 -0.02862353086665894 0.9995902627980036 -1.599457369081457e-17 -5.818843625992964e-17 -1.599457369081457e-17 -5.818843625992964e-17 -0.028624135347094116 0.9995902454883637
12669750666.666666 -0.02156023054597555 0.9997675512131108 -1.6407255157822775e-17 -5.806119895506306e-17 -1.6407255157822775e-17 -5.806119895506306e-17 -0.02156083510415764 0.9997675381754838
