! Parameters = {f0=12700.012000; bw=77.238000; Q=6100.000000; N=10; m_0_1=1.167863; m_1_1=-1.246803; m_1_2=1.002675; m_2_2=-1.247452; m_2_3=0.639638; m_2_8=-0.004543; m_2_9=0.032161; m_3_3=-1.249389; m_3_4=0.528167; m_3_7=-0.003943; m_3_8=-0.101031; m_3_9=-0.004543; m_4_4=-1.252314; m_4_5=0.364502; m_4_6=-0.000426; m_4_7=-0.121580; m_4_8=-0.003943; m_5_5=-1.251932; m_5_6=0.771857; m_5_7=-0.000426; m_6_6=-1.251933; m_6_7=0.364844; m_7_7=-1.252300; m_7_8=0.528285; m_8_8=-1.249391; m_8_9=0.639951; m_9_9=-1.247457; m_9_10=1.003753; m_10_10=-1.246813; m_10_11=1.168658}
!
! Created with skrf (http://scikit-rf.org).
# Hz S RI R 50.0 
!freq ReS11 ImS11 ReS21 ImS21 ReS12 ImS12 ReS22 ImS22
12607400000.0 0.935539284048771 -0.35322266065665 -5.302532368457233e-17 4.022837275537891e-17 -5.302532368457233e-17 4.022837275537891e-17 0.9355395014474472 -0.35322208485783113
12608017333.333334 0.9328625645102762 -0.3602324745704653 -5.270805028206223e-17 4.062182931368049e-17 -5.270805028206223e-17 4.062182931368049e-17 0.9328627862124429 -0.360231900447211
12608634666.666666 0.9301333226472653 -0.36722200655871307 -5.238786208842175e-17 4.1012789551195266e-17 -5.238786208842175e-17 4.1012789551195266e-17 0.9301335486400195 -0.367221434143182
12609252000.0 0.9273517121224192 -0.3741908630945816 -5.2064778701000575e-17 4.1401231911147565e-17 -5.2064778701000575e-17 4.1401231911147565e-17 0.9273519423926168 -0.37419029241883306
12609869333.333334 0.924517889546914 -0.3811386518152817 -5.173881987629249e-17 4.178713499028747e-17 -5.173881987629249e-17 4.178713499028747e-17 0.9245181240811724 -0.38113808291127427
12610486666.666666 0.9216320144715873 -0.38806498154419283 -5.141000552873894e-17 4.2170477540059346e-17 -5.141000552873894e-17 4.2170477540059346e-17 0.9216322532562842 -0.3880644144437819
12611104000.0 0.9186942493779193 -0.3949694623129641 -5.1078355729511346e-17 4.255123846777521e-17 -5.1078355729511346e-17 4.255123846777521e-17 0.9186944923991957 -0.3949688970479008
12611721333.333334 0.9157047596689631 -0.4018517053832878 -5.074389070530236e-17 4.292939683775864e-17 -5.074389070530236e-17 4.292939683775864e-17 0.9157050069127222 -0.40185114198521654
12612338666.666666 0.9126637136599544 -0.4087113232689694 -5.0406630837097295e-17 4.3304931872492034e-17 -5.0406630837097295e-17 4.3304931872492034e-17 0.912663965111862 -0.4087107617694262
12612956000.0 0.9095712825688645 -0.41554792975766425 -5.006659665893102e-17 4.367782295376139e-17 -5.006659665893102e-17 4.367782295376139e-17 0.9095715382143534 -0.4155473701880758
12613573333.333334 0.9064276405068034 -0.4223611399325469 -4.972380885666036e-17 4.404804962376468e-17 -4.972380885666036e-17 4.404804962376468e-17 0.9064279003310691 -0.42236058232422735
12614190666.666666 0.9032329644681253 -0.429150570194161 -4.937828826670406e-17 4.4415591586237054e-17 -4.937828826670406e-17 4.4415591586237054e-17 0.9032332284561311 -0.4291500145783116
12614808000.0 0.8999874343205658 -0.43591583828181274 -4.9030055874782693e-17 4.478042870755835e-17 -4.9030055874782693e-17 4.478042870755835e-17 0.8999877024570426 -0.4359152846895198
12615425333.333334 0.8966912327950165 -0.4426565632952984 -4.867913281465366e-17 4.514254101784612e-17 -4.867913281465366e-17 4.514254101784612e-17 0.8966915050644609 -0.44265601175753017
12616042666.666666 0.8933445454753325 -0.44937236571614375 -4.832554036683984e-17 4.55019087120377e-17 -4.832554036683984e-17 4.55019087120377e-17 0.8933448218620115 -0.4493718162637506
12616660000.0 0.8899475607877978 -0.4560628674291512 -4.7969299957338694e-17 4.585851215097483e-17 -4.7969299957338694e-17 4.585851215097483e-17 0.8899478412757489 -0.45606232009286335
12617277333.333334 0.8865004699905441 -0.4627276917436382 -4.761043315633354e-17 4.6212331862467005e-17 -4.761043315633354e-17 4.6212331862467005e-17 0.8865007545635738 -0.46272714655406305
12617894666.666666 0.8830034671628811 -0.4693664634144422 -4.724896167690538e-17 4.6563348542337137e-17 -4.724896167690538e-17 4.6563348542337137e-17 0.8830037558045689 -0.4693659204020639
12618512000.0 0.8794567491941526 -0.47597880866347825 -4.6884907373703573e-17 4.6911543055490354e-17 -4.6884907373703573e-17 4.6911543055490354e-17 0.8794570418878491 -0.47597826785865466
12619129333.333334 0.8758605157728697 -0.4825643552003537 -4.651829224165425e-17 4.7256896436927384e-17 -4.651829224165425e-17 4.7256896436927384e-17 0.8758608125017002 -0.48256381663331593
12619746666.666666 0.8722149693753809 -0.48912273224350716 -4.614913841462932e-17 4.759938989277982e-17 -4.614913841462932e-17 4.759938989277982e-17 0.872215270122245 -0.4891221959443575
12620364000.0 0.8685203152543864 -0.4956535705412327 -4.577746816410858e-17 4.793900480133325e-17 -4.577746816410858e-17 4.793900480133325e-17 0.8685206200019581 -0.49565303653994214
12620981333.333334 0.8647767614275453 -0.5021565023921696 -4.540330389785976e-17 4.827572271401715e-17 -4.540330389785976e-17 4.827572271401715e-17 0.864777070158277 -0.5021559707185779
12621598666.666666 0.860984518665673 -0.5086311616661823 -4.5026668158584604e-17 4.8609525356408634e-17 -4.5026668158584604e-17 4.8609525356408634e-17 0.8609848313617934 -0.5086306323499945
12622216000.0 0.8571438004808399 -0.5150771838250198 -4.464758362256638e-17 4.8940394629218405e-17 -4.464758362256638e-17 4.8940394629218405e-17 0.8571441171243558 -0.5150766568958054
12622833333.333334 0.8532548231144375 -0.521494205942694 -4.4266073098312645e-17 4.926831260926324e-17 -4.4266073098312645e-17 4.926831260926324e-17 0.8532551436871364 -0.5214936814298857
12623450666.666666 0.8493178055249622 -0.527881866725988 -4.3882159525199545e-17 4.9593261550420765e-17 -4.3882159525199545e-17 4.9593261550420765e-17 0.849318130008411 -0.5278813446588788
12624068000.0 0.8453329693756558 -0.5342398065348446 -4.349586597208258e-17 4.9915223884597546e-17 -4.349586597208258e-17 4.9915223884597546e-17 0.8453332977512042 -0.5342392869425876
12624685333.333334 0.8413005390220556 -0.5405676674025662 -4.310721563592661e-17 5.023418222266223e-17 -4.310721563592661e-17 5.023418222266223e-17 0.8413008712708349 -0.5405671503141719
12625302666.666666 0.8372207414994066 -0.546865093055898 -4.2716231840424425e-17 5.055011935537405e-17 -4.2716231840424425e-17 5.055011935537405e-17 0.8372210776023332 -0.5468645785002338
12625920000.0 0.8330938065097753 -0.5531317289352546 -4.232293803458731e-17 5.086301825431654e-17 -4.232293803458731e-17 5.086301825431654e-17 0.8330941464475502 -0.5531312169410423
12626537333.333334 0.8289199664092233 -0.5593672222145162 -4.1927357791363094e-17 5.1172862072793564e-17 -4.1927357791363094e-17 5.1172862072793564e-17 0.828920310162332 -0.5593667128103297
12627154666.666666 0.8246994561946768 -0.5655712218209625 -4.15295148062268e-17 5.147963414673097e-17 -4.15295148062268e-17 5.147963414673097e-17 0.8246998037433934 -0.5655707150352278
12627772000.0 0.82043251349065 -0.5717433784551122 -4.1129432895750136e-17 5.178331799557894e-17 -4.1129432895750136e-17 5.178331799557894e-17 0.8204328648150369 -0.5717428743161054
12628389333.333334 0.816119378535996 -0.577883344610201 -4.072713599620751e-17 5.208389732316993e-17 -4.072713599620751e-17 5.208389732316993e-17 0.8161197336159038 -0.5778828431460455
12629006666.666666 0.8117602941701814 -0.583990774592025 -4.0322648162132495e-17 5.238135601859887e-17 -4.0322648162132495e-17 5.238135601859887e-17 0.8117606529852524 -0.5839902758306919
12629624000.0 0.8073555058198466 -0.5900653245380816 -3.9915993564892023e-17 5.267567815707422e-17 -3.9915993564892023e-17 5.267567815707422e-17 0.8073558683495149 -0.5900648285073867
12630241333.333334 0.8029052614847898 -0.596106652437206 -3.950719649125138e-17 5.296684800076018e-17 -3.950719649125138e-17 5.296684800076018e-17 0.8029056277082818 -0.5961061591648088
12630858666.666666 0.7984098117241536 -0.602114418148621 -3.909628134192878e-17 5.3254849999611373e-17 -3.909628134192878e-17 5.3254849999611373e-17 0.7984101816204895 -0.6021139276620225
12631476000.0 0.7938694096421813 -0.6080882834212693 -3.8683272630132846e-17 5.3539668792203665e-17 -3.8683272630132846e-17 5.3539668792203665e-17 0.7938697831901769 -0.6080877957478111
12632093333.333334 0.7892843108740872 -0.6140279119126991 -3.8268194980131233e-17 5.382128920652787e-17 -3.8268194980131233e-17 5.382128920652787e-17 0.7892846880523551 -0.6140274270795623
12632710666.666666 0.7846547735716124 -0.6199329692080695 -3.7851073125770476e-17 5.4099696260802735e-17 -3.7851073125770476e-17 5.4099696260802735e-17 0.7846551543585631 -0.6199324872422726
12633328000.0 0.7799810583884562 -0.625803122839024 -3.7431931909005214e-17 5.437487516426549e-17 -3.7431931909005214e-17 5.437487516426549e-17 0.7799814427622987 -0.625802643767421
12633945333.333334 0.7752634284656335 -0.6316380423023631 -3.7010796278443533e-17 5.464681131793625e-17 -3.7010796278443533e-17 5.464681131793625e-17 0.7752638164043771 -0.6316375661516425
12634562666.666666 0.7705021494167145 -0.637437399078587 -3.658769128785132e-17 5.4915490315395994e-17 -3.658769128785132e-17 5.4915490315395994e-17 0.7705025408981698 -0.6374369258752703
12635180000.0 0.7656974893127428 -0.6432008666505452 -3.616264209467403e-17 5.51808979435364e-17 -3.616264209467403e-17 5.51808979435364e-17 0.7656978843145233 -0.6432003964209857
12635797333.333334 0.7608497186672715 -0.6489281205216685 -3.5735673958550256e-17 5.544302018330113e-17 -3.5735673958550256e-17 5.544302018330113e-17 0.7608501171667945 -0.6489276532920488
12636414666.666666 0.7559591104210751 -0.6546188382343022 -3.5306812239813806e-17 5.570184321041976e-17 -3.5306812239813806e-17 5.570184321041976e-17 0.755959512395564 -0.6546183740306347
12637032000.0 0.7510259399267302 -0.6602726993879289 -3.4876082397988596e-17 5.595735339613053e-17 -3.4876082397988596e-17 5.595735339613053e-17 0.751026345353214 -0.6602722382360519
12637649333.333334 0.7460504849332398 -0.6658893856570545 -3.444350999029456e-17 5.620953730788225e-17 -3.444350999029456e-17 5.620953730788225e-17 0.7460508937885556 -0.665888927582632
12638266666.666666 0.7410330255702645 -0.6714685808092806 -3.400912067012626e-17 5.645838171003815e-17 -3.400912067012626e-17 5.645838171003815e-17 0.7410334378310602 -0.6714681258378028
12638884000.0 0.735973844332411 -0.6770099707230486 -3.357294018554235e-17 5.670387356455846e-17 -3.357294018554235e-17 5.670387356455846e-17 0.7359742599751427 -0.6770095188798257
12639501333.333334 0.7308732260633576 -0.6825132434052775 -3.3134994377748535e-17 5.694600003167188e-17 -3.3134994377748535e-17 5.694600003167188e-17 0.7308736450642941 -0.6825127947154426
12640118666.666666 0.7257314579398051 -0.6879780890089564 -3.269530917957152e-17 5.718474847053947e-17 -3.269530917957152e-17 5.718474847053947e-17 0.7257318802750293 -0.6879776434974629
12640736000.0 0.7205488294551503 -0.6934041998507536 -3.225391061391585e-17 5.742010643991148e-17 -3.225391061391585e-17 5.742010643991148e-17 0.7205492551005589 -0.6934037575423728
12641353333.333334 0.7153256324035164 -0.6987912704279874 -3.1810824792257985e-17 5.765206169875113e-17 -3.1810824792257985e-17 5.765206169875113e-17 0.7153260613348222 -0.6987908313473078
12641970666.666666 0.7100621608629742 -0.7041389974361987 -3.1366077913079534e-17 5.788060220687653e-17 -3.1366077913079534e-17 5.788060220687653e-17 0.710062593055708 -0.7041385616076253
12642588000.0 0.7047587111792402 -0.7094470797859607 -3.091969626033742e-17 5.810571612556866e-17 -3.091969626033742e-17 5.810571612556866e-17 0.7047591466087509 -0.7094466472337132
12643205333.333334 0.6994155819488331 -0.714715218619995 -3.047170620192147e-17 5.832739181817193e-17 -3.047170620192147e-17 5.832739181817193e-17 0.6994160205902896 -0.714714789368105
12643822666.666666 0.6940330740023403 -0.7199431173299139 -3.002213418808447e-17 5.8545617850695e-17 -3.002213418808447e-17 5.8545617850695e-17 0.6940335158307342 -0.7199426914022267
12644440000.0 0.6886114903874416 -0.7251304815729632 -2.9571006749908116e-17 5.87603829923791e-17 -2.9571006749908116e-17 5.87603829923791e-17 0.6886119353775872 -0.7251300589931335
12645057333.333334 0.683151136351909 -0.7302770192885345 -2.91183504977299e-17 5.897167621627249e-17 -2.91183504977299e-17 5.897167621627249e-17 0.6831515844784443 -0.730276600080026
12645674666.666666 0.6776523193263778 -0.7353824407146473 -2.8664192119586056e-17 5.917948669978254e-17 -2.8664192119586056e-17 5.917948669978254e-17 0.6776527705637675 -0.7353820249007326
12646292000.0 0.6721153489069767 -0.740446458404323 -2.820855837962871e-17 5.938380382522652e-17 -2.820855837962871e-17 5.938380382522652e-17 0.6721158032295119 -0.7404460460080801
12646909333.333334 0.6665405368380407 -0.7454687872416308 -2.7751476116583222e-17 5.958461718034962e-17 -2.7751476116583222e-17 5.958461718034962e-17 0.6665409942198426 -0.7454683782859441
12647526666.666666 0.6609281969944157 -0.7504491444578791 -2.729297224214443e-17 5.978191655885801e-17 -2.729297224214443e-17 5.978191655885801e-17 0.6609286574094345 -0.7504487389654363
12648144000.0 0.6552786453638669 -0.7553872496474553 -2.6833073739413213e-17 5.99756919609192e-17 -2.6833073739413213e-17 5.99756919609192e-17 0.6552791087858864 -0.7553868476407479
12648761333.333334 0.6495922000292277 -0.760282824783672 -2.6371807661309164e-17 6.016593359365946e-17 -2.6371807661309164e-17 6.016593359365946e-17 0.6495926664318628 -0.7602824262849921
12649378666.666666 0.6438691811506596 -0.7651355942342711 -2.5909201128992026e-17 6.035263187164456e-17 -2.5909201128992026e-17 6.035263187164456e-17 0.6438696505073611 -0.7651351992657113
12649996000.0 0.6381099109473702 -0.7699452847771656 -2.544528133026074e-17 6.053577741735574e-17 -2.544528133026074e-17 6.053577741735574e-17 0.638110383231426 -0.7699448933606187
12650613333.333334 0.6323147136796002 -0.7747116256157105 -2.4980075517973352e-17 6.07153610616435e-17 -2.4980075517973352e-17 6.07153610616435e-17 0.6323151888641345 -0.7747112377728655
12651230666.666666 0.6264839156305196 -0.7794343483938234 -2.4513611008446797e-17 6.089137384417693e-17 -2.4513611008446797e-17 6.089137384417693e-17 0.6264843936884966 -0.7794339641461672
12651848000.0 0.6206178450874839 -0.7841131872113991 -2.4045915179855103e-17 6.10638070138794e-17 -2.4045915179855103e-17 6.10638070138794e-17 0.6206183259917092 -0.7841128065802143
12652465333.333334 0.6147168323239274 -0.7887478786389783 -2.3577015470631622e-17 6.123265202934944e-17 -2.3577015470631622e-17 6.123265202934944e-17 0.6147173160470476 -0.78874750164534
12653082666.666666 0.6087812095806103 -0.7933381617327 -2.3106939377870447e-17 6.13979005592694e-17 -2.3106939377870447e-17 6.13979005592694e-17 0.6087816960951178 -0.7933377883974789
12653700000.0 0.6028113110467593 -0.7978837780491207 -2.263571445570716e-17 6.15595444828072e-17 -2.263571445570716e-17 6.15595444828072e-17 0.6028118003249905 -0.7978834083929779
12654317333.333334 0.59680747284163 -0.802384471659464 -2.2163368313723647e-17 6.17175758899974e-17 -2.2163368313723647e-17 6.17175758899974e-17 0.5968079648557696 -0.8023841057028525
12654934666.666666 0.5907700329952043 -0.8068399891643304 -2.1689928615323726e-17 6.18719870821187e-17 -2.1689928615323726e-17 6.18719870821187e-17 0.5907705277172842 -0.8068396269274912
12655552000.0 0.5846993314293331 -0.8112500797078193 -2.1215423076123877e-17 6.202277057205284e-17 -2.1215423076123877e-17 6.202277057205284e-17 0.5846998288312368 -0.8112497212107835
12656169333.333334 0.5785957099386491 -0.8156144949916241 -2.0739879462341865e-17 6.21699190846319e-17 -2.0739879462341865e-17 6.21699190846319e-17 0.5785962099921121 -0.8156141402542109
12656786666.666666 0.5724595121711606 -0.8199329892891293 -2.0263325589165137e-17 6.231342555697845e-17 -2.0263325589165137e-17 6.231342555697845e-17 0.5724600148477711 -0.819932638330943
12657404000.0 0.5662910836090883 -0.8242053194591119 -1.9785789319143742e-17 6.245328313882513e-17 -1.9785789319143742e-17 6.245328313882513e-17 0.5662915888802894 -0.8242049722995418
12658021333.333334 0.5600907715492258 -0.8284312449595596 -1.930729856055267e-17 6.258948519283048e-17 -1.930729856055267e-17 6.258948519283048e-17 0.5600912793863181 -0.8284309016177803
12658638666.666666 0.5538589250835757 -0.8326105278610872 -1.8827881265780776e-17 6.272202529487415e-17 -1.8827881265780776e-17 6.272202529487415e-17 0.5538594354577182 -0.8326101883560573
12659256000.0 0.5475958950795301 -0.8367429328604457 -1.8347565429690892e-17 6.285089723434715e-17 -1.8347565429690892e-17 6.285089723434715e-17 0.5475964079617417 -0.8367425972109043
12659873333.333334 0.5413020341601854 -0.8408282272937188 -1.7866379087996123e-17 6.297609501442479e-17 -1.7866379087996123e-17 6.297609501442479e-17 0.5413025495213459 -0.8408278955181867
12660490666.666666 0.5349776966845606 -0.8448661811493785 -1.7384350315634395e-17 6.309761285232735e-17 -1.7384350315634395e-17 6.309761285232735e-17 0.5349782144954136 -0.8448658532661566
12661108000.0 0.5286232387274795 -0.8488565670813429 -1.690150722512342e-17 6.321544517957287e-17 -1.690150722512342e-17 6.321544517957287e-17 0.5286237589586337 -0.8488562431085112
12661725333.333334 0.5222390180596905 -0.8527991604216687 -1.6417877964941106e-17 6.33295866422107e-17 -1.6417877964941106e-17 6.33295866422107e-17 0.5222395406816209 -0.8527988403770853
12662342666.666666 0.5158253941276504 -0.8566937391932465 -1.5933490717875723e-17 6.344003210104967e-17 -1.5933490717875723e-17 6.344003210104967e-17 0.5158259191107005 -0.8566934230945471
12662960000.0 0.50938272803324 -0.86054008412233 -1.544837369940355e-17 6.354677663186679e-17 -1.544837369940355e-17 6.354677663186679e-17 0.5093832553476233 -0.8605397719869256
12663577333.333334 0.5029113825134798 -0.864337978650848 -1.496255515603832e-17 6.364981552561036e-17 -1.496255515603832e-17 6.364981552561036e-17 0.5029119121292809 -0.8643376704959247
12664194666.666666 0.49641172192018057 -0.8680872089485563 -1.447606336369742e-17 6.374914428858567e-17 -1.447606336369742e-17 6.374914428858567e-17 0.49641225380735865 -0.868086904791076
12664812000.0 0.4898841121992593 -0.8717875639251772 -1.3988926626067123e-17 6.384475864262862e-17 -1.3988926626067123e-17 6.384475864262862e-17 0.48988464632764794 -0.8717872637818742
12665429333.333334 0.48332892087030804 -0.8754388352421864 -1.3501173272948805e-17 6.393665452527121e-17 -1.3501173272948805e-17 6.393665452527121e-17 0.4833294572096169 -0.8754385391295662
12666046666.666666 0.47674651700584947 -0.8790408173245673 -1.3012831658631401e-17 6.402482808988804e-17 -1.3012831658631401e-17 6.402482808988804e-17 0.4767470555256675 -0.8790405252589083
12666664000.0 0.4701372712103617 -0.8825933073724989 -1.2523930160234038e-17 6.410927570583668e-17 -1.2523930160234038e-17 6.410927570583668e-17 0.470137811880158 -0.88259301936985
12667281333.333334 0.4635015555998345 -0.886096105372541 -1.2034497176077201e-17 6.418999395857985e-17 -1.2034497176077201e-17 6.418999395857985e-17 0.46350209838896006 -0.8860958214487205
12667898666.666666 0.45683974378039344 -0.8895490141091243 -1.1544561124025881e-17 6.426697964980023e-17 -1.1544561124025881e-17 6.426697964980023e-17 0.4568402886580828 -0.8895487342797195
12668516000.0 0.45015221082746626 -0.892951839175549 -1.1054150439850502e-17 6.434022979749912e-17 -1.1054150439850502e-17 6.434022979749912e-17 0.4501527577628393 -0.8929515634559145
12669133333.333334 0.4434393332647147 -0.8963043889849013 -1.0563293575587553e-17 6.44097416360833e-17 -1.0563293575587553e-17 6.44097416360833e-17 0.4434398822267784 -0.8963041173901592
12669750666.666666 0.4367014890426585 -0.8996064747809326 -1.0072018997881497e-17 6.447551261644184e-17 -1.0072018997881497e-17 6.447551261644184e-17 0.43670204000030927 -0.899606207325972
12670368000.0 0.4299390575175742 -0.9028579106485974 -9.580355186352187e-18 6.453754040600638e-17 -9.580355186352187e-18 6.453754040600638e-17 0.4299396104395992 -0.902857647348073
