! Parameters = {f0=12700.012000; bw=77.238000; Q=6100.000000; N=10; m_0_1=1.173869; m_1_1=-1.156713; m_1_2=1.008681; m_2_2=-1.157362; m_2_3=0.645644; m_2_8=-0.004243; m_2_9=0.032461; m_3_3=-1.159299; m_3_4=0.534173; m_3_7=-0.003643; m_3_8=-0.100731; m_3_9=-0.004243; m_4_4=-1.162224; m_4_5=0.370508; m_4_6=-0.000126; m_4_7=-0.121280; m_4_8=-0.003643; m_5_5=-1.161842; m_5_6=0.777863; m_5_7=-0.000126; m_6_6=-1.161843; m_6_7=0.370850; m_7_7=-1.162210; m_7_8=0.534291; m_8_8=-1.159301; m_8_9=0.645957; m_9_9=-1.157367; m_9_10=1.009759; m_10_10=-1.156723; m_10_11=1.174664}
!
! Created with skrf (http://scikit-rf.org).
# Hz S RI R 50.0 
!freq ReS11 ImS11 ReS21 ImS21 ReS12 ImS12 ReS22 ImS22
12607400000.0 -0.6615812201065308 0.7498735154692439 2.893859088748323e-17 -6.228912562608293e-17 2.893859088748323e-17 -6.228912562608293e-17 -0.661581683998751 0.7498731061967925
12608017333.333334 -0.6558019386584806 0.7549329885835083 2.8448178107678476e-17 -6.249984391514991e-17 2.8448178107678476e-17 -6.249984391514991e-17 -0.655802405657759 0.754932582906146
12608634666.666666 -0.6499839659717315 0.7599479218864327 2.795623956714924e-17 -6.270670557342266e-17 2.795623956714924e-17 -6.270670557342266e-17 -0.6499844360502136 0.759947519827741
12609252000.0 -0.64412764529722 0.7649180195051678 2.7462805560178563e-17 -6.290969962422792e-17 2.7462805560178563e-17 -6.290969962422792e-17 -0.6441281184268713 0.7649176210885114
12609869333.333334 -0.6382333221482414 0.7698429882121871 2.6967906459434233e-17 -6.310881532858975e-17 2.6967906459434233e-17 -6.310881532858975e-17 -0.6382337983008505 0.769842593460714
12610486666.666666 -0.6323013442803478 0.7747225374423509 2.6471572714100408e-17 -6.330404218578667e-17 2.6471572714100408e-17 -6.330404218578667e-17 -0.6323018234275284 0.7747221463789916
12611104000.0 -0.626332061670441 0.7795563793103774 2.597383484800521e-17 -6.349536993389377e-17 2.597383484800521e-17 -6.349536993389377e-17 -0.6263325437836321 0.7795559919578415
12611721333.333334 -0.6203258264964921 0.784344228627516 2.5474723457762858e-17 -6.368278855030351e-17 2.5474723457762858e-17 -6.368278855030351e-17 -0.620326311546961 0.7843438450082924
12612338666.666666 -0.614282993116593 0.7890858029185226 2.4974269210886463e-17 -6.386628825224145e-17 2.4974269210886463e-17 -6.386628825224145e-17 -0.6142834810754357 0.7890854230548767
12612956000.0 -0.6082039180480002 0.7937808224383543 2.4472502843915664e-17 -6.404585949726021e-17 2.4472502843915664e-17 -6.404585949726021e-17 -0.6082044088861455 0.7937804463523298
12613573333.333334 -0.6020889599462615 0.7984290101885566 2.3969455160539003e-17 -6.422149298371999e-17 2.3969455160539003e-17 -6.422149298371999e-17 -0.6020894536344696 0.7984286379019702
12614190666.666666 -0.5959384795838729 0.8030300919337401 2.346515702970559e-17 -6.439317965125655e-17 2.346515702970559e-17 -6.439317965125655e-17 -0.5959389760927394 0.803029723468183
12614808000.0 -0.5897528398291765 0.8075837962176259 2.2959639383731878e-17 -6.456091068123552e-17 2.2959639383731878e-17 -6.456091068123552e-17 -0.5897533391291333 0.8075834315944617
12615425333.333334 -0.5835324056247679 0.812089854379194 2.2452933216423487e-17 -6.472467749718492e-17 2.2452933216423487e-17 -6.472467749718492e-17 -0.583532907686086 0.8120894936195584
12616042666.666666 -0.5772775439661516 0.8165480005684033 2.1945069581168562e-17 -6.488447176522243e-17 2.1945069581168562e-17 -6.488447176522243e-17 -0.5772780487589412 0.8165476436932012
12616660000.0 -0.5709886238799009 0.8209579717620057 2.1436079589046486e-17 -6.504028539446111e-17 2.1436079589046486e-17 -6.504028539446111e-17 -0.5709891313741139 0.8209576187919109
12617277333.333334 -0.5646660164020502 0.8253195077789505 2.0925994406932164e-17 -6.519211053740121e-17 2.0925994406932164e-17 -6.519211053740121e-17 -0.5646665265674822 0.8253191587344036
12617894666.666666 -0.5583100945561345 0.8296323512957832 2.041484525559036e-17 -6.533993959030992e-17 2.041484525559036e-17 -6.533993959030992e-17 -0.558310607362427 0.829632006196993
12618512000.0 -0.5519212333311108 0.8338962478618759 1.990266340776525e-17 -6.548376519358551e-17 1.990266340776525e-17 -6.548376519358551e-17 -0.551921748747752 0.8338959067288152
12619129333.333334 -0.5454998096593755 0.8381109459143432 1.9389480186284903e-17 -6.562358023210323e-17 1.9389480186284903e-17 -6.562358023210323e-17 -0.5455003276557026 0.8381106087667489
12619746666.666666 -0.5390462023944796 0.8422761967929157 1.8875326962148168e-17 -6.575937783554955e-17 1.8875326962148168e-17 -6.575937783554955e-17 -0.5390467229396809 0.8422758636502885
12620364000.0 -0.5325607922885865 0.8463917547547368 1.836023515260017e-17 -6.589115137874458e-17 1.836023515260017e-17 -6.589115137874458e-17 -0.5325613153517024 0.8463914256363383
12620981333.333334 -0.5260439619704124 0.8504573769885947 1.7844236219241376e-17 -6.601889448193951e-17 1.7844236219241376e-17 -6.601889448193951e-17 -0.5260444875203386 0.8504570519134481
12621598666.666666 -0.5194960959222229 0.8544728236295277 1.7327361666099057e-17 -6.614260101110912e-17 1.7327361666099057e-17 -6.614260101110912e-17 -0.5194966239277109 0.8544725026164152
12622216000.0 -0.5129175804574607 0.8584378577727763 1.6809643037706392e-17 -6.626226507822659e-17 1.6809643037706392e-17 -6.626226507822659e-17 -0.5129181108871202 0.8584375408402385
12622833333.333334 -0.5063088036977366 0.8623522454878961 1.629111191719483e-17 -6.637788104151955e-17 1.629111191719483e-17 -6.637788104151955e-17 -0.5063093365200376 0.8623519326542317
12623450666.666666 -0.4996701555500997 0.8662157558324539 1.5771799924366144e-17 -6.648944350571594e-17 1.5771799924366144e-17 -6.648944350571594e-17 -0.49967069073337383 0.8662154471157175
12624068000.0 -0.4930020276839869 0.870028160865685 1.525173871377614e-17 -6.659694732227173e-17 1.525173871377614e-17 -6.659694732227173e-17 -0.4930025651964301 0.8700278562836873
12624685333.333334 -0.4863048135079177 0.8737892356620555 1.4730959972796317e-17 -6.670038758958849e-17 1.4730959972796317e-17 -6.670038758958849e-17 -0.486305353317591 0.87378893523236
12625302666.666666 -0.4795789081467265 0.8774987583242744 1.4209495419713958e-17 -6.679975965320679e-17 1.4209495419713958e-17 -6.679975965320679e-17 -0.4795794502215592 0.8774984620641997
12625920000.0 -0.47282470841768287 0.8811565099967107 1.368737680178377e-17 -6.689505910599534e-17 1.368737680178377e-17 -6.689505910599534e-17 -0.4728252527254733 0.8811562179233268
12626537333.333334 -0.4660426128076257 0.8847622748779987 1.316463589331465e-17 -6.698628178831743e-17 1.316463589331465e-17 -6.698628178831743e-17 -0.4660431593160439 0.8847619870081272
12627154666.666666 -0.4592330214491056 0.8883158402339656 1.2641304493745976e-17 -6.707342378818418e-17 1.2641304493745976e-17 -6.707342378818418e-17 -0.45923357012569443 0.8883155565841777
12627772000.0 -0.4523963360968256 0.8918169964101489 1.2117414425692714e-17 -6.715648144139879e-17 1.2117414425692714e-17 -6.715648144139879e-17 -0.4523968869090041 0.891816716996767
12628389333.333334 -0.4455329601040902 0.8952655368440904 1.1592997533058522e-17 -6.723545133167299e-17 1.1592997533058522e-17 -6.723545133167299e-17 -0.4455335130191543 0.8952652616831847
12629006666.666666 -0.43864329839883265 0.8986612580776155 1.1068085679062413e-17 -6.731033029074386e-17 1.1068085679062413e-17 -6.731033029074386e-17 -0.4386438533839567 0.8986609871850025
12629624000.0 -0.4317277574597981 0.9020039597687939 1.0542710744345252e-17 -6.738111539846176e-17 1.0542710744345252e-17 -6.738111539846176e-17 -0.4317283144820383 0.9020036931600381
12630241333.333334 -0.424786745292615 0.9052934447037371 1.0016904625014805e-17 -6.74478039828736e-17 1.0016904625014805e-17 -6.74478039828736e-17 -0.42478730431891015 0.9052931823941478
12630858666.666666 -0.41782067140567175 0.9085295188082575 9.490699230732683e-18 -6.75103936202844e-17 9.490699230732683e-18 -6.75103936202844e-17 -0.41782123240284613 0.90852926081289
12631476000.0 -0.41082994678588014 0.9117119911593577 8.964126482768611e-18 -6.756888213530826e-17 8.964126482768611e-18 -6.756888213530826e-17 -0.4108305097206447 0.9117117374930108
12632093333.333334 -0.4038149838745811 0.9148406739964191 8.437218312081704e-18 -6.762326760090124e-17 8.437218312081704e-18 -6.762326760090124e-17 -0.40381554871353575 0.9148404246736344
12632710666.666666 -0.39677619654313423 0.9179153827323163 7.910006657394184e-18 -6.767354833838023e-17 7.910006657394184e-18 -6.767354833838023e-17 -0.39677676325277006 0.9179151377673784
12633328000.0 -0.38971400006844914 0.9209359359643321 7.382523463236494e-18 -6.77197229174295e-17 7.382523463236494e-18 -6.77197229174295e-17 -0.38971456861514975 0.9209356953712663
12633945333.333334 -0.3826288111085347 0.9239021554848322 6.854800678050628e-18 -6.776179015608665e-17 6.854800678050628e-18 -6.776179015608665e-17 -0.3826293814585793 0.9239019192774064
12634562666.666666 -0.37552104767799765 0.9268138662917532 6.326870252236151e-18 -6.779974912071918e-17 6.326870252236151e-18 -6.779974912071918e-17 -0.37552161979756166 0.9268136344834732
12635180000.0 -0.3683911291231959 0.9296708965989989 5.798764136239299e-18 -6.783359912598241e-17 5.798764136239299e-18 -6.783359912598241e-17 -0.36839170297835366 0.9296706692031099
12635797333.333334 -0.3612394760976805 0.9324730778464987 5.270514278609983e-18 -6.786333973476468e-17 5.270514278609983e-18 -6.786333973476468e-17 -0.36124005165440787 0.9324728548759855
12636414666.666666 -0.35406651053727506 0.9352202447102006 4.7421526240886695e-18 -6.788897075811596e-17 4.7421526240886695e-18 -6.788897075811596e-17 -0.3540670877614502 0.9352200261777842
12637032000.0 -0.34687265563523323 0.9379122351117992 4.213711111674887e-18 -6.79104922551624e-17 4.213711111674887e-18 -6.79104922551624e-17 -0.3468732344926397 0.9379120210299386
12637649333.333334 -0.33965833581716504 0.940548890228341 3.685221672696872e-18 -6.792790453300633e-17 3.685221672696872e-18 -6.792790453300633e-17 -0.3396589162734932 0.9405486806092311
12638266666.666666 -0.3324239767161833 0.9431300545015243 3.156716228901719e-18 -6.794120814661004e-17 3.156716228901719e-18 -6.794120814661004e-17 -0.33242455873703275 0.9431298493570962
12638884000.0 -0.3251700051475778 0.945655575646955 2.6282266905198204e-18 -6.795040389866589e-17 2.6282266905198204e-18 -6.795040389866589e-17 -0.3251705886984592 0.9456553749888739
12639501333.333334 -0.3178968490838222 0.9481253046630642 2.0997849543481493e-18 -6.795549283945108e-17 2.0997849543481493e-18 -6.795549283945108e-17 -0.31789743413015875 0.9481251085027286
12640118666.666666 -0.31060493762926944 0.9505390958399176 1.5714229018466842e-18 -6.79564762666671e-17 1.5714229018466842e-18 -6.79564762666671e-17 -0.3106055241364002 0.9505389041884617
12640736000.0 -0.30329470099462097 0.952896806767886 1.0431723971862775e-18 -6.795335572526528e-17 1.0431723971862775e-18 -6.795335572526528e-17 -0.30329528892780205 0.9528966196361758
12641353333.333334 -0.29596657047200314 0.9551982983458941 5.150652853756065e-19 -6.794613300725676e-17 5.150652853756065e-19 -6.794613300725676e-17 -0.2959671597964098 0.9551981157445278
12641970666.666666 -0.2886209784090352 0.957443434789785 -1.2866609689199405e-20 -6.793481015150766e-17 -1.2866609689199405e-20 -6.793481015150766e-17 -0.2886215690897641 0.9574432567290934
12642588000.0 -0.28125835818367395 0.9596320836402216 -5.40591487111077e-19 -6.791938944351995e-17 -5.40591487111077e-19 -6.791938944351995e-17 -0.2812589501857452 0.9596319101302658
12643205333.333334 -0.2738791441784276 0.961764115770568 -1.0680775709169848e-18 -6.789987341519699e-17 -1.0680775709169848e-18 -6.789987341519699e-17 -0.27387973746678634 0.9617639468211385
12643822666.666666 -0.2664837717548365 0.9638394053944707 -1.5952931119574281e-18 -6.787626484459448e-17 -1.5952931119574281e-18 -6.787626484459448e-17 -0.26648436629435596 0.9638392410150902
12644440000.0 -0.2590726772277057 0.9658578300733078 -2.1222063898152083e-18 -6.78485667556567e-17 -2.1222063898152083e-18 -6.78485667556567e-17 -0.25907327298318866 0.9658576702732282
12645057333.333334 -0.2516462978395553 0.9678192707233594 -2.6487857147039855e-18 -6.781678241793834e-17 -2.6487857147039855e-18 -6.781678241793834e-17 -0.25164689477573604 0.9678191155115605
12645674666.666666 -0.24420507173460457 0.969723611622893 -3.174999429362317e-18 -6.778091534631131e-17 -3.174999429362317e-18 -6.778091534631131e-17 -0.2442056698161511 0.9697234610080827
12646292000.0 -0.23674943793294828 0.9715707404189795 -3.70081591097775e-18 -6.774096930065573e-17 -3.70081591097775e-18 -6.774096930065573e-17 -0.23675003712446482 0.9715705944095953
12646909333.333334 -0.22927983630479415 0.9733605481340908 -4.22620357304067e-18 -6.769694828553937e-17 -4.22620357304067e-18 -6.769694828553937e-17 -0.22928043657082264 0.9733604067382968
12647526666.666666 -0.22179670754445582 0.9750929291725425 -4.751130867270352e-18 -6.764885654987889e-17 -4.751130867270352e-18 -6.764885654987889e-17 -0.22179730884947851 0.9750927923982303
12648144000.0 -0.21430049314415914 0.9767677813267701 -5.275566285485928e-18 -6.759669858658855e-17 -5.275566285485928e-18 -6.759669858658855e-17 -0.21430109545260015 0.9767676491815569
12648761333.333334 -0.20679163536832604 0.9783850057832775 -5.7994783614973416e-18 -6.75404791322138e-17 -5.7994783614973416e-18 -6.75404791322138e-17 -0.206792238644554 0.9783848782745077
12649378666.666666 -0.1992705772272893 0.9799445071285176 -6.322835672981525e-18 -6.748020316655113e-17 -6.322835672981525e-18 -6.748020316655113e-17 -0.1992711814356192 0.9799443842632611
12649996000.0 -0.19173776245109897 0.9814461933545294 -6.845606843364704e-18 -6.741587591225173e-17 -6.845606843364704e-18 -6.741587591225173e-17 -0.19173836755579424 0.9814460751395814
12650613333.333334 -0.18419363546350997 0.9828899758643311 -7.367760543705128e-18 -6.734750283441128e-17 -7.367760543705128e-18 -6.734750283441128e-17 -0.18419424142878468 0.9828898623062119
12651230666.666666 -0.17663864135567908 0.9842757694771678 -7.889265494541536e-18 -6.7275089640148e-17 -7.889265494541536e-18 -6.7275089640148e-17 -0.17663924814569987 0.9842756605821213
12651848000.0 -0.16907322585984813 0.9856034924335414 -8.41009046779524e-18 -6.719864227815958e-17 -8.41009046779524e-18 -6.719864227815958e-17 -0.16907383343873691 0.9856033882075386
12652465333.333334 -0.16149783532307585 0.9868730664000367 -8.930204288601564e-18 -6.711816693827425e-17 -8.930204288601564e-18 -6.711816693827425e-17 -0.16149844365491087 0.9868729668487688
12653082666.666666 -0.15391291668112675 0.9880844164738951 -9.449575837185066e-18 -6.703367005098123e-17 -9.449575837185066e-18 -6.703367005098123e-17 -0.153913525729946 0.9880843216027804
12653700000.0 -0.1463189174315995 0.9892374711875277 -9.968174050719215e-18 -6.694515828694806e-17 -9.968174050719215e-18 -6.694515828694806e-17 -0.14631952716140173 0.9892373810017056
12654317333.333334 -0.1387162856081415 0.9903321625126249 -1.0485967925164842e-17 -6.685263855652681e-17 -1.0485967925164842e-17 -6.685263855652681e-17 -0.13871689598288886 0.990332077016958
12654934666.666666 -0.13110546975351042 0.9913684258642503 -1.1002926517130885e-17 -6.675611800924104e-17 -1.1002926517130885e-17 -6.675611800924104e-17 -0.1311060807371308 0.9913683450633264
12655552000.0 -0.12348691889333627 0.9923462001046217 -1.1519018945711782e-17 -6.66556040332624e-17 -1.1519018945711782e-17 -6.66556040332624e-17 -0.12348753044972485 0.9923461240027487
12656169333.333334 -0.11586108250965683 0.9932654275467064 -1.2034214394322318e-17 -6.655110425487231e-17 -1.2034214394322318e-17 -6.655110425487231e-17 -0.11586169460267873 0.9932653561479156
12656786666.666666 -0.10822841051434359 0.9941260539576401 -1.25484821125354e-17 -6.644262653790834e-17 -1.25484821125354e-17 -6.644262653790834e-17 -0.10822902310783579 0.9941259872656854
12657404000.0 -0.10058935322247266 0.9949280285619336 -1.3061791417917023e-17 -6.633017898319598e-17 -1.3061791417917023e-17 -6.633017898319598e-17 -0.10058996628024591 0.9949279665802889
12658021333.333334 -0.09294436132592589 0.9956713040444459 -1.3574111697839407e-17 -6.621376992796943e-17 -1.3574111697839407e-17 -6.621376992796943e-17 -0.09294497481176739 0.9956712467763094
12658638666.666666 -0.08529388586671671 0.9963558365531896 -1.408541241130443e-17 -6.609340794527613e-17 -1.408541241130443e-17 -6.609340794527613e-17 -0.08529449974439178 0.9963557840014797
12659256000.0 -0.07763837821032266 0.9969815857019237 -1.4595663090771203e-17 -6.596910184336432e-17 -1.4595663090771203e-17 -6.596910184336432e-17 -0.07763899244357704 0.9969815378692807
12659873333.333334 -0.06997829001911164 0.9975485145725252 -1.510483334394298e-17 -6.584086066506474e-17 -1.510483334394298e-17 -6.584086066506474e-17 -0.06997890457167372 0.9975484714613111
12660490666.666666 -0.06231407322578031 0.998056589717168 -1.56128928555845e-17 -6.570869368715117e-17 -1.56128928555845e-17 -6.570869368715117e-17 -0.06231468806136306 0.9980565513294647
12661108000.0 -0.05464618000649177 0.9985057811603041 -1.6119811389324432e-17 -6.557261041968793e-17 -1.6119811389324432e-17 -6.557261041968793e-17 -0.05464679508879511 0.9985057474979167
12661725333.333334 -0.046975062754396814 0.9988960624004237 -1.662555878943756e-17 -6.54326206053683e-17 -1.662555878943756e-17 -6.54326206053683e-17 -0.04697567804710958 0.9988960334648767
12662342666.666666 -0.039301174052858254 0.9992274104116228 -1.7130104982638173e-17 -6.528873421883444e-17 -1.7130104982638173e-17 -6.528873421883444e-17 -0.03930178951966045 0.9992273862041622
12662960000.0 -0.03162496664866405 0.9994998056449647 -1.7633419979865863e-17 -6.514096146598432e-17 -1.7633419979865863e-17 -6.514096146598432e-17 -0.03162558225322892 0.9994997861665577
12663577333.333334 -0.023946893425514742 0.9997132320296246 -1.8135473878058156e-17 -6.498931278326661e-17 -1.8135473878058156e-17 -6.498931278326661e-17 -0.023947509131510968 0.999713217280959
12664194666.666666 -0.01626740737707689 0.9998676769738483 -1.8636236861915416e-17 -6.483379883696266e-17 -1.8636236861915416e-17 -6.483379883696266e-17 -0.016268023148170704 0.9998676669553329
12664812000.0 -0.008586961580484425 0.9999631313656847 -1.9135679205678242e-17 -6.467443052244995e-17 -1.9135679205678242e-17 -6.467443052244995e-17 -0.008587577380341778 0.9999631260774504
12665429333.333334 -0.0009060091693521409 0.9999995895735334 -1.9633771274872982e-17 -6.451121896345896e-17 -1.9633771274872982e-17 -6.451121896345896e-17 -0.0009066249616408082 0.9999995890154304
12666046666.666666 0.006774996692589041 0.9999770494464697 -2.013048352806947e-17 -6.434417551131166e-17 -2.013048352806947e-17 -6.434417551131166e-17 0.006774380944197283 0.9999770536180687
12666664000.0 0.014455602838739515 0.9998955123143715 -2.0625786518632246e-17 -6.417331174414561e-17 -2.0625786518632246e-17 -6.417331174414561e-17 0.014454987170566763 0.9998955212149663
12667281333.333334 0.02213535612588395 0.999754982987847 -2.111965089644757e-17 -6.399863946613212e-17 -2.111965089644757e-17 -6.399863946613212e-17 0.022134740574244038 0.999754996616452
12667898666.666666 0.029813803461153376 0.9995554697579471 -2.161204740966891e-17 -6.382017070667086e-17 -2.161204740966891e-17 -6.382017070667086e-17 0.0298131880623497 0.9995554881132962
12668516000.0 0.03749049182881372 0.999296984395673 -2.2102946906437953e-17 -6.363791771957846e-17 -2.2102946906437953e-17 -6.363791771957846e-17 0.037489876619137094 0.9992970074762219
12669133333.333334 0.045164968316793994 0.9989795421512858 -2.25923203366008e-17 -6.345189298226327e-17 -2.25923203366008e-17 -6.345189298226327e-17 0.045164353332520675 0.9989795699552149
12669750666.666666 0.05283678014363498 0.9986031617534084 -2.3080138753424334e-17 -6.326210919488376e-17 -2.3080138753424334e-17 -6.326210919488376e-17 0.0528361654210242 0.9986031942786149
