! Parameters = {f0=12700.012000; bw=77.238000; Q=6100.000000; N=10; m_0_1=1.298193; m_1_1=0.708152; m_1_2=1.133005; m_2_2=0.707503; m_2_3=0.769968; m_2_8=0.001973; m_2_9=0.038677; m_3_3=0.705566; m_3_4=0.658497; m_3_7=0.002573; m_3_8=-0.094515; m_3_9=0.001973; m_4_4=0.702641; m_4_5=0.494832; m_4_6=0.006090; m_4_7=-0.115064; m_4_8=0.002573; m_5_5=0.703023; m_5_6=0.902187; m_5_7=0.006090; m_6_6=0.703022; m_6_7=0.495174; m_7_7=0.702655; m_7_8=0.658615; m_8_8=0.705564; m_8_9=0.770281; m_9_9=0.707498; m_9_10=1.134083; m_10_10=0.708142; m_10_11=1.298988}
!
! Created with skrf (http://scikit-rf.org).
# Hz S RI R 50.0 
!freq ReS11 ImS11 ReS21 ImS21 ReS12 ImS12 ReS22 ImS22
12607400000.0 -0.8480214201203834 0.5299619524237789 8.35470007416059e-17 -9.444794274133445e-17 8.35470007416059e-17 -9.444794274133445e-17 -0.8480217825679688 0.5299613724509177
12608017333.333334 -0.8419483999135895 0.539558052375054 8.244443922039035e-17 -9.537925935019432e-17 8.244443922039035e-17 -9.537925935019432e-17 -0.8419487689060061 0.5395574765837977
12608634666.666666 -0.8357667963942114 0.5490845672979453 8.133150988444294e-17 -9.629771735078432e-17 8.133150988444294e-17 -9.629771735078432e-17 -0.8357671718832335 0.5490839957621391
12609252000.0 -0.8294774067834165 0.5585402685891808 8.020836255726461e-17 -9.720320148546398e-17 8.020836255726461e-17 -9.720320148546398e-17 -0.8294777887199842 0.5585397013821134
12609869333.333334 -0.8230810422031093 0.5679239367782086 7.907514834177752e-17 -9.809559824069544e-17 7.907514834177752e-17 -9.809559824069544e-17 -0.8230814305373375 0.5679233739726037
12610486666.666666 -0.8165785275715324 0.5772343616841633 7.793201960003169e-17 -9.897479586123043e-17 7.793201960003169e-17 -9.897479586123043e-17 -0.8165789222527141 0.5772338033521693
12611104000.0 -0.809970701496571 0.5864703425723828 7.677912993275367e-17 -9.984068436406075e-17 7.677912993275367e-17 -9.984068436406075e-17 -0.8099711024731874 0.5864697887855648
12611721333.333334 -0.8032584161679602 0.5956306883087507 7.561663415876689e-17 -1.0069315555211178e-16 7.561663415876689e-17 -1.0069315555211178e-16 -0.8032588233876843 0.5956301391380797
12612338666.666666 -0.796442537247084 0.6047142175137296 7.444468829423829e-17 -1.0153210302771465e-16 7.444468829423829e-17 -1.0153210302771465e-16 -0.7964429506567903 0.6047136730295759
12612956000.0 -0.7895239437554494 0.6137197587145593 7.326344953175821e-17 -1.023574222058495e-16 7.326344953175821e-17 -1.023574222058495e-16 -0.789524363301218 0.6137192189866808
12613573333.333334 -0.782503527961426 0.6226461504962011 7.207307621934744e-17 -1.0316901032709419e-16 7.207307621934744e-17 -1.0316901032709419e-16 -0.7825039535885515 0.6226456155937354
12614190666.666666 -0.7753821952649463 0.6314922416514142 7.087372783921909e-17 -1.0396676647040169e-16 7.087372783921909e-17 -1.0396676647040169e-16 -0.7753826269179449 0.6314917116428707
12614808000.0 -0.7681608640809531 0.6402568913289562 6.966556498649108e-17 -1.0475059156556779e-16 6.966556498649108e-17 -1.0475059156556779e-16 -0.7681613017035684 0.640256366282206
12615425333.333334 -0.7608404657207901 0.6489389691809135 6.844874934769649e-17 -1.0552038840549672e-16 6.844874934769649e-17 -1.0552038840549672e-16 -0.7608409092560026 0.6489384491631813
12616042666.666666 -0.7534219442722412 0.6575373555083024 6.722344367920972e-17 -1.062760616581835e-16 6.722344367920972e-17 -1.062760616581835e-16 -0.7534223936622731 0.6575368405861577
12616660000.0 -0.7459062564776265 0.6660509414056479 6.598981178549351e-17 -1.0701751787847805e-16 6.598981178549351e-17 -1.0701751787847805e-16 -0.7459067116639517 0.6660504316449964
12617277333.333334 -0.7382943716105441 0.6744786289038426 6.474801849726215e-17 -1.077446655195686e-16 6.474801849726215e-17 -1.077446655195686e-16 -0.738294832533895 0.674478124369919
12617894666.666666 -0.730587271350813 0.6828193311118174 6.349822964948878e-17 -1.0845741494423117e-16 6.349822964948878e-17 -1.0845741494423117e-16 -0.7305877379511869 0.6828188318691746
12618512000.0 -0.7227859496578071 0.691071972356771 6.224061205928955e-17 -1.0915567843582396e-16 6.224061205928955e-17 -1.0915567843582396e-16 -0.7227864218744758 0.6910714784692741
12619129333.333334 -0.7148914126423863 0.6992354883227749 6.097533350371572e-17 -1.0983937020901054e-16 6.097533350371572e-17 -1.0983937020901054e-16 -0.7148918904139029 0.6992349998535917
12619746666.666666 -0.7069046784371026 0.7073088261880754 5.970256269740427e-17 -1.1050840642024002e-16 5.970256269740427e-17 -1.1050840642024002e-16 -0.7069051617013101 0.7073083431996692
12620364000.0 -0.6988267770647344 0.7152909447610338 5.842246927009494e-17 -1.1116270517797853e-16 5.842246927009494e-17 -1.1116270517797853e-16 -0.6988272657587737 0.7152904673151548
12620981333.333334 -0.6906587503057692 0.7231808146140836 5.713522374411575e-17 -1.118021865526397e-16 5.713522374411575e-17 -1.118021865526397e-16 -0.690659244366087 0.7231803427717612
12621598666.666666 -0.6824016515637881 0.7309774182167539 5.584099751164936e-17 -1.1242677258631235e-16 5.584099751164936e-17 -1.1242677258631235e-16 -0.6824021509261449 0.7309769520382888
12622216000.0 -0.6740565457296485 0.7386797500668547 5.4539962811993115e-17 -1.1303638730217547e-16 5.4539962811993115e-17 -1.1303638730217547e-16 -0.6740570503291282 0.738679289611812
12622833333.333334 -0.665624509044254 0.7462868168200557 5.3232292708643237e-17 -1.1363095671368653e-16 5.3232292708643237e-17 -1.1363095671368653e-16 -0.6656250188152715 0.7462863621472563
12623450666.666666 -0.6571066289596723 0.7537976374180747 5.191816106634833e-17 -1.1421040883347426e-16 5.191816106634833e-17 -1.1421040883347426e-16 -0.6571071438359811 0.7537971885855875
12624068000.0 -0.6485040039989531 0.7612112432151414 5.059774252800485e-17 -1.1477467368199387e-16 5.059774252800485e-17 -1.1477467368199387e-16 -0.6485045239136551 0.7612108002802769
12624685333.333334 -0.6398177436142617 0.7685266781030907 4.9271212491472963e-17 -1.1532368329591e-16 4.9271212491472963e-17 -1.1532368329591e-16 -0.6398182684998155 0.7685262411223928
12625302666.666666 -0.6310489680441842 0.775742998634333 4.793874708637118e-17 -1.158573717361831e-16 4.793874708637118e-17 -1.158573717361831e-16 -0.631049497832415 0.7757425676635732
12625920000.0 -0.6221988081687563 0.7828592741439512 4.660052315065324e-17 -1.163756750959429e-16 4.660052315065324e-17 -1.163756750959429e-16 -0.6221993427908631 0.7828588492381204
12626537333.333334 -0.6132684053640763 0.789874586869345 4.525671820724946e-17 -1.1687853150803234e-16 4.525671820724946e-17 -1.1687853150803234e-16 -0.613268944750641 0.7898741680826458
12627154666.666666 -0.604258911354908 0.7967880320687535 4.390751044050859e-17 -1.173658811523281e-16 4.390751044050859e-17 -1.173658811523281e-16 -0.6042594554359052 0.7967876194545943
12627772000.0 -0.5951714880659443 0.8035987181380935 4.255307867261524e-17 -1.1783766626277038e-16 4.255307867261524e-17 -1.1783766626277038e-16 -0.5951720367707497 0.8035983117490814
12628389333.333334 -0.586007307472429 0.8103057667255806 4.119360233994668e-17 -1.1829383113411603e-16 4.119360233994668e-17 -1.1829383113411603e-16 -0.58600786072983 0.8103053666135157
12629006666.666666 -0.5767675514484925 0.8169083128454055 3.982926146931464e-17 -1.1873432212843472e-16 3.982926146931464e-17 -1.1873432212843472e-16 -0.5767681091866962 0.8169079190612732
12629624000.0 -0.5674534116151613 0.8234055049889641 3.846023665417276e-17 -1.1915908768131994e-16 3.846023665417276e-17 -1.1915908768131994e-16 -0.5674539737618027 0.8234051175829279
12630241333.333334 -0.5580660891863551 0.8297965052349059 3.7086709030755944e-17 -1.1956807830782787e-16 3.7086709030755944e-17 -1.1956807830782787e-16 -0.5580666556685097 0.8297961242563029
12630858666.666666 -0.5486067948142995 0.8360804893569738 3.570886025414802e-17 -1.199612466081456e-16 3.570886025414802e-17 -1.199612466081456e-16 -0.548607365558489 0.8360801148543068
12631476000.0 -0.5390767484329432 0.8422566469306026 3.4326872474266276e-17 -1.2033854727298902e-16 3.4326872474266276e-17 -1.2033854727298902e-16 -0.5390773233651476 0.842256278951534
12632093333.333334 -0.5294771791010989 0.8483241814371191 3.294092831186979e-17 -1.206999370887042e-16 3.294092831186979e-17 -1.206999370887042e-16 -0.5294777581467659 0.8483238200284673
12632710666.666666 -0.5198093248437271 0.8542823103666164 3.155121083443664e-17 -1.2104537494211423e-16 3.155121083443664e-17 -1.2104537494211423e-16 -0.5198099079277804 0.8542819555743457
12633328000.0 -0.5100744324920989 0.8601302653189677 3.0157903531991887e-17 -1.2137482182508833e-16 3.0157903531991887e-17 -1.2137482182508833e-16 -0.5100750195389492 0.8601299171881862
12633945333.333334 -0.5002737575232629 0.8658672921027631 2.8761190292972185e-17 -1.2168824083881215e-16 2.8761190292972185e-17 -1.2168824083881215e-16 -0.500274348456817 0.8658669506777145
12634562666.666666 -0.49040856389805687 0.8714926508326171 2.7361255379948012e-17 -1.2198559719780629e-16 2.7361255379948012e-17 -1.2198559719780629e-16 -0.49040915864172785 0.8714923161566764
12635180000.0 -0.48048012389807715 0.8770056160246095 2.5958283405382112e-17 -1.2226685823364738e-16 2.5958283405382112e-17 -1.2226685823364738e-16 -0.48048072237479467 0.8770052881402776
12635797333.333334 -0.4704897179614959 0.8824054766898992 2.4552459307289465e-17 -1.2253199339842526e-16 2.4552459307289465e-17 -1.2253199339842526e-16 -0.47049032009371533 0.8824051556387965
12636414666.666666 -0.4604386345182009 0.8876915364262697 2.3143968324936968e-17 -1.2278097426790535e-16 2.3143968324936968e-17 -1.2278097426790535e-16 -0.460439240227914 0.8876912222491318
12637032000.0 -0.450328169823281 0.8928631135081292 2.1732995974422706e-17 -1.2301377454443032e-16 2.1732995974422706e-17 -1.2301377454443032e-16 -0.4503287790320258 0.892862806244801
12637649333.333334 -0.44015962779015483 0.8979195409742734 2.0319728024319124e-17 -1.2323037005952416e-16 2.0319728024319124e-17 -1.2323037005952416e-16 -0.4401602404190252 0.8979192406637035
12638266666.666666 -0.4299343198221794 0.902860166714014 1.8904350471219454e-17 -1.234307387762307e-16 1.8904350471219454e-17 -1.234307387762307e-16 -0.4299349357918368 0.902859873394252
12638884000.0 -0.4196535646437291 0.9076843535511829 1.74870495153232e-17 -1.2361486079116168e-16 1.74870495153232e-17 -1.2361486079116168e-16 -0.41965418387441167 0.9076840672593729
12639501333.333334 -0.4093186881298917 0.9123914793264133 1.6068011535944932e-17 -1.2378271833627346e-16 1.6068011535944932e-17 -1.2378271833627346e-16 -0.4093193105414247 0.9123912000987894
12640118666.666666 -0.39893102313583734 0.9169809369772145 1.4647423067090078e-17 -1.2393429578035338e-16 1.4647423067090078e-17 -1.2393429578035338e-16 -0.39893164864764336 0.9169806648490955
12640736000.0 -0.38849190932430067 0.9214521346165389 1.3225470772886173e-17 -1.2406957963024143e-16 1.3225470772886173e-17 -1.2406957963024143e-16 -0.38849253785541066 0.921451869622325
12641353333.333334 -0.3780026929936156 0.9258044956087602 1.180234142320047e-17 -1.2418855853174962e-16 1.180234142320047e-17 -1.2418855853174962e-16 -0.3780033244626792 0.9258042377819289
12641970666.666666 -0.3674647269034639 0.9300374586443172 1.0378221869059395e-17 -1.2429122327032242e-16 1.0378221869059395e-17 -1.2429122327032242e-16 -0.3674653612287595 0.9300372080174174
12642588000.0 -0.3568793701005937 0.9341504778120174 8.95329901817623e-18 -1.2437756677140467e-16 8.95329901817623e-18 -1.2437756677140467e-16 -0.35688000720004 0.9341502344166681
12643205333.333334 -0.34624798774370885 0.9381430226693844 7.527759810477454e-18 -1.2444758410053046e-16 7.527759810477454e-18 -1.2444758410053046e-16 -0.3462486275348741 0.9381427865362671
12643822666.666666 -0.3355719509270893 0.9420145783111872 6.10179119357437e-18 -1.2450127246313615e-16 6.10179119357437e-18 -1.2450127246313615e-16 -0.3355725933272029 0.9420143494700449
12644440000.0 -0.32485263650411134 0.9457646454357155 4.67558009831047e-18 -1.245386312040888e-16 4.67558009831047e-18 -1.245386312040888e-16 -0.32485328143007436 0.9457644239153473
12645057333.333334 -0.31409142690943975 0.9493927404092622 3.249313414295772e-18 -1.2455966180693642e-16 3.249313414295772e-18 -1.2455966180693642e-16 -0.3140920742778358 0.9493925262375211
12645674666.666666 -0.3032897099809552 0.9528983953284231 1.823177965445537e-18 -1.245643678928795e-16 1.823177965445537e-18 -1.245643678928795e-16 -0.30329035970806106 0.9528981885322118
12646292000.0 -0.2924488787803643 0.9562811580805748 3.9736048550875775e-19 -1.2455275521946189e-16 3.9736048550875775e-19 -1.2455275521946189e-16 -0.2924495307821602 0.9562809586858405
12646909333.333334 -0.28157033141408 0.9595405924020007 -1.0279524062757564e-18 -1.245248316789828e-16 -1.0279524062757564e-18 -1.245248316789828e-16 -0.28157098560626187 0.9595404004337361
12647526666.666666 -0.27065547085256364 0.9626762779342771 -2.4525742296297916e-18 -1.244806072966296e-16 -2.4525742296297916e-18 -1.244806072966296e-16 -0.27065612715055287 0.9626760934165141
12648144000.0 -0.2597057047493586 0.9656878102784855 -3.876318667584043e-18 -1.244200942283324e-16 -3.876318667584043e-18 -1.244200942283324e-16 -0.2597063630683129 0.9656876332342911
12648761333.333334 -0.2487224452597127 0.968574801047315 -5.298999590788512e-18 -1.2434330675834134e-16 -5.298999590788512e-18 -1.2434330675834134e-16 -0.24872310551453788 0.9685746314987921
12649378666.666666 -0.23770710885851462 0.9713368779151463 -6.720431081817156e-18 -1.242502612965255e-16 -6.720431081817156e-18 -1.242502612965255e-16 -0.2377077709638748 0.9713367158834277
12649996000.0 -0.22666111615742218 0.9739736846661153 -8.140427459456449e-18 -1.241409763753929e-16 -8.140427459456449e-18 -1.241409763753929e-16 -0.22666178002775153 0.9739735301713635
12650613333.333334 -0.21558589172165066 0.9764848812400518 -9.558803302889987e-18 -1.2401547264683713e-16 -9.558803302889987e-18 -1.2401547264683713e-16 -0.21558655727116408 0.9764847343014555
12651230666.666666 -0.20448286388655576 0.9788701437762668 -1.097537347588905e-17 -1.238737728786061e-16 -1.097537347588905e-17 -1.238737728786061e-16 -0.20448353102925979 0.9788700044120378
12651848000.0 -0.19335346457292701 0.9811291646554307 -1.2389953150949253e-17 -1.2371590195049334e-16 -1.2389953150949253e-17 -1.2371590195049334e-16 -0.19335413322263106 0.9811290328828017
12652465333.333334 -0.18219912910276082 0.9832616525391459 -1.3802357833366908e-17 -1.2354188685025695e-16 -1.3802357833366908e-17 -1.2354188685025695e-16 -0.18219979917308865 0.9832615283743704
12653082666.666666 -0.17102129601407076 0.9852673324075475 -1.521240338523788e-17 -1.2335175666926673e-16 -1.521240338523788e-17 -1.2335175666926673e-16 -0.1710219674184712 0.9852672158658953
12653700000.0 -0.15982140687499902 0.9871459455948313 -1.661990604949143e-17 -1.231455425978658e-16 -1.661990604949143e-17 -1.231455425978658e-16 -0.15982207952675717 0.9871458366905875
12654317333.333334 -0.1486009060984901 0.9888972498225106 -1.8024682473724818e-17 -1.229232779204784e-16 -1.8024682473724818e-17 -1.229232779204784e-16 -0.148601579910739 0.9888971485689749
12654934666.666666 -0.1373612407555341 0.9905210192307463 -1.942654973411557e-17 -1.2268499801042576e-16 -1.942654973411557e-17 -1.2268499801042576e-16 -0.13736191564126538 0.9905209256402302
12655552000.0 -0.12610386038862562 0.9920170444074553 -2.0825325359177308e-17 -1.2243074032448306e-16 -2.0825325359177308e-17 -1.2243074032448306e-16 -0.126104536260701 0.9920169584912805
12656169333.333334 -0.11483021682513073 0.9933851324152734 -2.2220827353471712e-17 -1.221605443971632e-16 -2.2220827353471712e-17 -1.221605443971632e-16 -0.11483089359629328 0.993385054183771
12656786666.666666 -0.10354176398971252 0.9946251068164909 -2.3612874221259317e-17 -1.218744518347287e-16 -2.3612874221259317e-17 -1.218744518347287e-16 -0.1035424415725978 0.9946250362789999
12657404000.0 -0.0922399577168786 0.9957368076957915 -2.5001284990079035e-17 -1.215725063089335e-16 -2.5001284990079035e-17 -1.215725063089335e-16 -0.09224063602402613 0.9957367448606587
12658021333.333334 -0.08092625556334017 0.9967200916808668 -2.6385879234218803e-17 -1.2125475355050297e-16 -2.6385879234218803e-17 -1.2125475355050297e-16 -0.08092693450720445 0.996720036555443
12658638666.666666 -0.06960211662009246 0.9975748319609007 -2.7766477098136745e-17 -1.2092124134234134e-16 -2.7766477098136745e-17 -1.2092124134234134e-16 -0.0696027961130547 0.9975747845515451
12659256000.0 -0.058269001323901205 0.9983009183029592 -2.914289931979499e-17 -1.2057201951247285e-16 -2.914289931979499e-17 -1.2057201951247285e-16 -0.058269681278280014 0.9983008786150319
12659873333.333334 -0.04692837126926556 0.9988982570661699 -3.0514967253896266e-17 -1.2020713992672067e-16 -3.0514967253896266e-17 -1.2020713992672067e-16 -0.04692905159732873 0.9988982251040353
12660490666.666666 -0.03558168902000698 0.9993667712138025 -3.188250289500703e-17 -1.1982665648112792e-16 -3.188250289500703e-17 -1.1982665648112792e-16 -0.03558236963398276 0.9993667469808306
12661108000.0 -0.024230417920164678 0.9997064003232303 -3.324532890067629e-17 -1.1943062509409287e-16 -3.324532890067629e-17 -1.1943062509409287e-16 -0.02423109873225289 0.9997063838217922
12661725333.333334 -0.012876021905868996 0.9999171005936928 -3.460326861432262e-17 -1.1901910369827927e-16 -3.460326861432262e-17 -1.1901910369827927e-16 -0.012876702828252514 0.9999170918251622
12662342666.666666 -0.001519965316144877 0.9999988448519603 -3.595614608816157e-17 -1.1859215223222676e-16 -3.595614608816157e-17 -1.1859215223222676e-16 -0.0015206462610009176 0.9999988438167148
12662960000.0 0.009836287295882318 0.9999516225558363 -3.730378610592298e-17 -1.181498326317339e-16 -3.730378610592298e-17 -1.181498326317339e-16 0.009835606416370879 0.999951629253255
12663577333.333334 0.02119127135169492 0.9997754397955151 -3.8646014205538034e-17 -1.176922088209601e-16 -3.8646014205538034e-17 -1.176922088209601e-16 0.02119059062532823 0.9997754542239807
12664194666.666666 0.03254352243649218 0.9994703192927961 -3.998265670166143e-17 -1.1721934670328954e-16 -3.998265670166143e-17 -1.1721934670328954e-16 0.03254284195104202 0.999470341449693
12664812000.0 0.043891576487823575 0.9990363003981545 -4.1313540708136815e-17 -1.1673131415192112e-16 -4.1313540708136815e-17 -1.1673131415192112e-16 0.04389089633102219 0.9990363302798735
12665429333.333334 0.0552339699846599 0.998473439085663 -4.2638494160301867e-17 -1.1622818100022036e-16 -4.2638494160301867e-17 -1.1622818100022036e-16 0.05523329024418857 0.9984734766875976
12666046666.666666 0.06656924013576968 0.9977818079457873 -4.395734583719106e-17 -1.1571001903181472e-16 -4.395734583719106e-17 -1.1571001903181472e-16 0.06656856089924741 0.9977818532623355
12666664000.0 0.07789592506890958 0.9969614961759944 -4.526992538367114e-17 -1.1517690197041578e-16 -4.526992538367114e-17 -1.1517690197041578e-16 0.07789524642388185 0.9969615492005593
12667281333.333334 0.0892125640187615 0.9960126095692846 -4.657606333234065e-17 -1.1462890546943796e-16 -4.657606333234065e-17 -1.1462890546943796e-16 0.0892118860526891 0.9960126702942784
12667898666.666666 0.10051769751569181 0.9949352705005295 -4.787559112542837e-17 -1.1406610710131777e-16 -4.787559112542837e-17 -1.1406610710131777e-16 0.10051702031593931 0.9949353389173702
12668516000.0 0.11180986757405839 0.9937296179106717 -4.9168341136498936e-17 -1.1348858634661269e-16 -4.9168341136498936e-17 -1.1348858634661269e-16 0.11180919122788309 0.9937296940097865
12669133333.333334 0.12308761787978997 0.9923958072888543 -5.045414669200255e-17 -1.1289642458286596e-16 -5.045414669200255e-17 -1.1289642458286596e-16 0.12308694247433058 0.9923958910596808
12669750666.666666 0.13434949397871107 0.990934010652315 -5.173284209276572e-17 -1.1228970507319557e-16 -5.173284209276572e-17 -1.1228970507319557e-16 0.1343488196009765 0.9909341020833028
