! Parameters = {f0=12700.012000; bw=77.238000; Q=6100.000000; N=10; m_0_1=1.306401; m_1_1=0.831275; m_1_2=1.141213; m_2_2=0.830626; m_2_3=0.778176; m_2_8=0.002384; m_2_9=0.039088; m_3_3=0.828689; m_3_4=0.666705; m_3_7=0.002984; m_3_8=-0.094104; m_3_9=0.002384; m_4_4=0.825764; m_4_5=0.503040; m_4_6=0.006501; m_4_7=-0.114653; m_4_8=0.002984; m_5_5=0.826146; m_5_6=0.910395; m_5_7=0.006501; m_6_6=0.826145; m_6_7=0.503382; m_7_7=0.825778; m_7_8=0.666823; m_8_8=0.828687; m_8_9=0.778489; m_9_9=0.830621; m_9_10=1.142291; m_10_10=0.831265; m_10_11=1.307196}
!
! Created with skrf (http://scikit-rf.org).
# Hz S RI R 50.0 
!freq ReS11 ImS11 ReS21 ImS21 ReS12 ImS12 ReS22 ImS22
12607400000.0 -0.7208636330321083 -0.6930769239929746 1.162582450935322e-16 6.019169059260998e-17 1.162582450935322e-16 6.019169059260998e-17 -0.7208631560413393 -0.6930774201068253
12608017333.333334 -0.7288540079787843 -0.684669142763916 1.1693089334572956e-16 5.881729296772557e-17 1.1693089334572956e-16 5.881729296772557e-17 -0.7288535367975002 -0.6846696443523612
12608634666.666666 -0.7367463251816173 -0.6761692482886188 1.1758730496572433e-16 5.743539884158359e-17 1.1758730496572433e-16 5.743539884158359e-17 -0.7367458598726371 -0.6761697552836434
12609252000.0 -0.7445395228329682 -0.6675783841164035 1.1822739665565153e-16 5.604619989563723e-17 1.1822739665565153e-16 5.604619989563723e-17 -0.7445390634583153 -0.6675788964492724
12609869333.333334 -0.7522325524604728 -0.6588977060353266 1.18851087379005e-16 5.4649888733874986e-17 1.18851087379005e-16 5.4649888733874986e-17 -0.7522320990813656 -0.6588982236365919
12610486666.666666 -0.7598243790679271 -0.6501283819168727 1.1945829837081888e-16 5.3246658856156685e-17 1.1945829837081888e-16 5.3246658856156685e-17 -0.7598239317447726 -0.6501289047163871
12611104000.0 -0.7673139812748572 -0.6412715915584759 1.200489531475438e-16 5.1836704631417225e-17 1.200489531475438e-16 5.1836704631417225e-17 -0.7673135400672404 -0.6412721194853968
12611721333.333334 -0.7747003514535908 -0.6323285265251727 1.2062297751657794e-16 5.0420221270830043e-17 1.2062297751657794e-16 5.0420221270830043e-17 -0.7746999164202688 -0.6323290595079762
12612338666.666666 -0.781982495865028 -0.6233003899890603 1.2118029958551522e-16 4.899740480078784e-17 1.2118029958551522e-16 4.899740480078784e-17 -0.7819820670639223 -0.6233009279555499
12612956000.0 -0.789159434792332 -0.6141883965674215 1.217208497710627e-16 4.7568452035813095e-17 1.217208497710627e-16 4.7568452035813095e-17 -0.7891590122805187 -0.614188939444736
12613573333.333334 -0.7962302026725954 -0.604993772159492 1.2224456080762044e-16 4.6133560551420186e-17 1.2224456080762044e-16 4.6133560551420186e-17 -0.7962297865062997 -0.6049943198741174
12614190666.666666 -0.803193848226851 -0.5957177537813992 1.2275136775558073e-16 4.4692928656783926e-17 1.2275136775558073e-16 4.4692928656783926e-17 -0.8031934384614393 -0.5957183062591782
12614808000.0 -0.8100494345880714 -0.5863615893997144 1.232412080092727e-16 4.3246755367404915e-17 1.232412080092727e-16 4.3246755367404915e-17 -0.8100490312780428 -0.5863621465658556
12615425333.333334 -0.8167960394271586 -0.5769265377636231 1.2371402130459998e-16 4.1795240377651396e-17 1.2371402130459998e-16 4.1795240377651396e-17 -0.8167956426261387 -0.576927099542712
12616042666.666666 -0.8234327550770488 -0.5674138682355537 1.2416974972635335e-16 4.0338584033225916e-17 1.2416974972635335e-16 4.0338584033225916e-17 -0.8234323648377827 -0.5674144345515628
12616660000.0 -0.8299586886548438 -0.5578248606203786 1.2460833771520031e-16 3.8876987303550317e-17 1.2460833771520031e-16 3.8876987303550317e-17 -0.8299583050291888 -0.5578254313966775
12617277333.333334 -0.8363729621818891 -0.5481608049933037 1.2502973207434646e-16 3.741065175409055e-17 1.2502973207434646e-16 3.741065175409055e-17 -0.8363725852208065 -0.5481613801526687
12617894666.666666 -0.8426747127019085 -0.5384230015262815 1.2543388197587605e-16 3.593977951859693e-17 1.2543388197587605e-16 3.593977951859693e-17 -0.8426743424554596 -0.538423580990908
12618512000.0 -0.8488630923972148 -0.5286127603129249 1.2582073896677215e-16 3.446457327125592e-17 1.2582073896677215e-16 3.446457327125592e-17 -0.8488627289145527 -0.5286133440044363
12619129333.333334 -0.8549372687025875 -0.518731401192537 1.2619025697459104e-16 3.298523619885081e-17 1.2619025697459104e-16 3.298523619885081e-17 -0.8549369120319487 -0.5187319890319949
12619746666.666666 -0.8608964244173584 -0.5087802535724246 1.2654239231283089e-16 3.150197197278073e-17 1.2654239231283089e-16 3.150197197278073e-17 -0.8608960746060599 -0.5087808454803413
12620364000.0 -0.866739757815518 -0.49876065624877636 1.2687710368596403e-16 3.001498472105667e-17 1.2687710368596403e-16 3.001498472105667e-17 -0.8667394149099492 -0.49876125214512446
12620981333.333334 -0.8724664827532425 -0.4886739572271062 1.2719435219413004e-16 2.8524479000297024e-17 1.2719435219413004e-16 2.8524479000297024e-17 -0.8724661467988589 -0.4886745570313293
12621598666.666666 -0.878075828774961 -0.4785215135403831 1.2749410133752267e-16 2.7030659767570285e-17 1.2749410133752267e-16 2.7030659767570285e-17 -0.8780754998162787 -0.4785221171714071
12622216000.0 -0.8835670412168682 -0.46830469106670547 1.277763170204278e-16 2.5533732352284904e-17 1.277763170204278e-16 2.5533732352284904e-17 -0.8835667192974582 -0.4683052984429496
12622833333.333334 -0.8889393813085091 -0.4580248643454411 1.2804096755494165e-16 2.4033902427991993e-17 1.2804096755494165e-16 2.4033902427991993e-17 -0.8889390664709902 -0.4580254753848282
12623450666.666666 -0.8941921262720625 -0.4476834163925003 1.2828802366435034e-16 2.2531375984195834e-17 1.2828802366435034e-16 2.2531375984195834e-17 -0.8941918185580987 -0.4476840310124696
12624068000.0 -0.8993245694197346 -0.437281738513997 1.2851745848619183e-16 2.1026359298063045e-17 1.2851745848619183e-16 2.1026359298063045e-17 -0.8993242688700245 -0.43728235663151244
12624685333.333334 -0.9043360202487801 -0.4268212301191343 1.287292475749772e-16 1.951905890615446e-17 1.287292475749772e-16 1.951905890615446e-17 -0.904335726903058 -0.42682185165069925
12625302666.666666 -0.9092258045343026 -0.41630329853216985 1.2892336890457852e-16 1.800968157615476e-17 1.2892336890457852e-16 1.800968157615476e-17 -0.9092255184313259 -0.41630392339383476
12625920000.0 -0.9139932644201457 -0.40572935880266225 1.290998028702982e-16 1.6498434278493726e-17 1.290998028702982e-16 1.6498434278493726e-17 -0.9139929855976975 -0.40572998691003936
12626537333.333334 -0.9186377585071935 -0.3951008335155627 1.29258532290592e-16 1.498552415805338e-17 1.29258532290592e-16 1.498552415805338e-17 -0.9186374870020717 -0.3951014647838351
12627154666.666666 -0.9231586619398012 -0.3844191525995143 1.293995424084698e-16 1.3471158505807662e-17 1.293995424084698e-16 1.3471158505807662e-17 -0.9231583977878158 -0.3844197869434482
12627772000.0 -0.9275553664898902 -0.37368575313439284 1.2952282089256645e-16 1.1955544730416169e-17 1.2952282089256645e-16 1.1955544730416169e-17 -0.9275551097258589 -0.373686390468349
12628389333.333334 -0.9318272806385821 -0.3629020791584397 1.2962835783787055e-16 1.0438890329923412e-17 1.2962835783787055e-16 1.0438890329923412e-17 -0.931827031296325 -0.3629027193963851
12629006666.666666 -0.9359738296560591 -0.3520695814733013 1.2971614576613352e-16 8.921402863331764e-18 1.2971614576613352e-16 8.921402863331764e-18 -0.9359735877683938 -0.35207022452882025
12629624000.0 -0.9399944556786188 -0.3411897174495012 1.297861796259391e-16 7.403289922276707e-18 1.297861796259391e-16 7.403289922276707e-18 -0.93999422127736 -0.34119036323580865
12630241333.333334 -0.9438886177839121 -0.3302639508299232 1.2983845679244537e-16 5.884759102642239e-18 1.2983845679244537e-16 5.884759102642239e-18 -0.9438883908998605 -0.3302645992598739
12630858666.666666 -0.9476557920635984 -0.31929375153317324 1.2987297706679325e-16 4.366017976253317e-18 1.2987297706679325e-16 4.366017976253317e-18 -0.9476555727265429 -0.31929440251927543
12631476000.0 -0.9512954716939589 -0.3082805954554748 1.2988974267518806e-16 2.847274062460794e-18 1.2988974267518806e-16 2.847274062460794e-18 -0.9512952599326691 -0.3082812489099014
12632093333.333334 -0.9548071670039244 -0.2972259642725631 1.2988875826764437e-16 1.3287347999254963e-18 1.2988875826764437e-16 1.3287347999254963e-18 -0.954806962846148 -0.29722662010716316
12632710666.666666 -0.9581904055410637 -0.2861313452400214 1.2987003091640586e-16 -1.8939248173805415e-19 1.2987003091640586e-16 -1.8939248173805415e-19 -0.9581902090135246 -0.2861320033663334
12633328000.0 -0.961444732135157 -0.27499823099316445 1.2983357011403182e-16 -1.7069005902292063e-18 1.2983357011403182e-16 -1.7069005902292063e-18 -0.9614445432635469 -0.27499889132242594
12633945333.333334 -0.9645697089593559 -0.2638281193464381 1.2977938777115535e-16 -3.2235824987694113e-18 1.2977938777115535e-16 -3.2235824987694113e-18 -0.9645695277683353 -0.26382878178959945
12634562666.666666 -0.9675649155891353 -0.25262251309177397 1.2970749821391172e-16 -4.739231374328511e-18 1.2970749821391172e-16 -4.739231374328511e-18 -0.9675647421023305 -0.2526231775595103
12635180000.0 -0.9704299490588563 -0.2413829197964089 1.2961791818103886e-16 -6.253640605772963e-18 1.2961791818103886e-16 -6.253640605772963e-18 -0.9704297832988534 -0.24138358619913117
12635797333.333334 -0.9731644239159545 -0.23011085160014233 1.2951066682064762e-16 -7.766603832016997e-18 1.2951066682064762e-16 -7.766603832016997e-18 -0.9731642659042987 -0.23011151984801026
12636414666.666666 -0.9757679722728143 -0.21880782501184415 1.2938576568666764e-16 -9.277914970073404e-18 1.2938576568666764e-16 -9.277914970073404e-18 -0.9757678220300062 -0.21880849501477787
12637032000.0 -0.9782402438562777 -0.2074753607053727 1.2924323873496218e-16 -1.0787368243110576e-17 1.2924323873496218e-16 -1.0787368243110576e-17 -0.9782401014017699 -0.207476032373065
12637649333.333334 -0.9805809060547498 -0.19611498331504246 1.2908311231911898e-16 -1.2294758208419981e-17 1.2908311231911898e-16 -1.2294758208419981e-17 -0.9805807714069467 -0.19611565655697116
12638266666.666666 -0.982789643962937 -0.18472822123058913 1.2890541518591664e-16 -1.3799879785327199e-17 1.2890541518591664e-16 -1.3799879785327199e-17 -0.9827895171391893 -0.1847288959560288
12638884000.0 -0.9848661604242432 -0.17331660639137703 1.287101784704619e-16 -1.5302528283075582e-17 1.287101784704619e-16 -1.5302528283075582e-17 -0.9848660414408487 -0.17331728250941186
12639501333.333334 -0.9868101760707315 -0.1618816740803805 1.2849743569100615e-16 -1.6802499428612753e-17 1.2849743569100615e-16 -1.6802499428612753e-17 -0.9868100649429312 -0.16188235149991614
12640118666.666666 -0.988621429360689 -0.15042496271777234 1.2826722274344045e-16 -1.8299589394302067e-17 1.2826722274344045e-16 -1.8299589394302067e-17 -0.9886213261026657 -0.15042564134754818
12640736000.0 -0.9902996766138873 -0.13894801365347192 1.2801957789545596e-16 -1.9793594825642518e-17 1.2801957789545596e-16 -1.9793594825642518e-17 -0.9902995812387639 -0.13894869340207353
12641353333.333334 -0.9918446920442459 -0.1274523709605635 1.277545417804078e-16 -2.1284312868749447e-17 1.277545417804078e-16 -2.1284312868749447e-17 -0.9918446045640836 -0.1274530517364348
12641970666.666666 -0.9932562677903264 -0.11593958122680294 1.2747215739082772e-16 -2.2771541197956314e-17 1.2747215739082772e-16 -2.2771541197956314e-17 -0.9932561882161226 -0.11594026293825865
12642588000.0 -0.9945342139432318 -0.10441119334693759 1.271724700716395e-16 -2.4255078043184287e-17 1.271724700716395e-16 -2.4255078043184287e-17 -0.9945341422849209 -0.1044118759021756
12643205333.333334 -0.9956783585721751 -0.09286875831426747 1.2685552751304832e-16 -2.5734722217283768e-17 1.2685552751304832e-16 -2.5734722217283768e-17 -0.9956782948386226 -0.09286944162138085
12643822666.666666 -0.996688547747612 -0.08131382901186555 1.265213797431089e-16 -2.7210273143292408e-17 1.265213797431089e-16 -2.7210273143292408e-17 -0.9966884919466189 -0.08131451297885546
12644440000.0 -0.9975646455619432 -0.06974796000377136 1.2617007911998597e-16 -2.868153088156713e-17 1.2617007911998597e-16 -2.868153088156713e-17 -0.997564597700243 -0.06974864453855914
12645057333.333334 -0.9983065341477969 -0.05817270732592991 1.258016803238933e-16 -3.014829615684353e-17 1.258016803238933e-16 -3.014829615684353e-17 -0.9983064942310521 -0.058173392336369374
12645674666.666666 -0.9989141136938934 -0.04658962827667726 1.2541624034872389e-16 -3.161037038517255e-17 1.2541624034872389e-16 -3.161037038517255e-17 -0.9989140817266979 -0.04659031367056729
12646292000.0 -0.9993873024584796 -0.03500028120711288 1.2501381849335294e-16 -3.3067555700813e-17 1.2501381849335294e-16 -3.3067555700813e-17 -0.9993872784443599 -0.035000966892209884
12646909333.333334 -0.9997260367803089 -0.023406225311898326 1.2459447635265617e-16 -3.451965498290843e-17 1.2459447635265617e-16 -3.451965498290843e-17 -0.9997260207217178 -0.02340691119592839
12647526666.666666 -0.9999302710872185 -0.011809020419033518 1.2415827780819254e-16 -3.5966471882151735e-17 1.2415827780819254e-16 -3.5966471882151735e-17 -0.9999302629855398 -0.011809706409705049
12648144000.0 -0.9999999779022574 -0.0002102267801444764 1.2370528901858912e-16 -3.740781084729106e-17 1.2370528901858912e-16 -3.740781084729106e-17 -0.9999999777578056 -0.00021091278516053924
12648761333.333334 -0.9999351478473827 0.011388595139342832 1.2323557840962206e-16 -3.884347715150977e-17 1.2323557840962206e-16 -3.884347715150977e-17 -0.9999351556593995 0.01138790921227211
12649378666.666666 -0.9997357896447192 0.022985884870171048 1.2274921666399244e-16 -4.0273276918679845e-17 1.2274921666399244e-16 -4.0273276918679845e-17 -0.9997358054113773 0.022985199113316035
12649996000.0 -0.9994019301153909 0.034580082149220495 1.2224627671078186e-16 -4.169701714954161e-17 1.2224627671078186e-16 -4.169701714954161e-17 -0.9994019538337929 0.034579396654819655
12650613333.333334 -0.9989336141759055 0.04616962712950729 1.2172683371462465e-16 -4.311450574769023e-17 1.2172683371462465e-16 -4.311450574769023e-17 -0.9989336458420854 0.04616894198975481
12651230666.666666 -0.9983309048321237 0.057752960589813176 1.2119096506457628e-16 -4.4525551545443384e-17 1.2119096506457628e-16 -4.4525551545443384e-17 -0.998330944441045 0.05775227589684649
12651848000.0 -0.9975938831707634 0.06932852414477039 1.2063875036266488e-16 -4.5929964329616433e-17 1.2063875036266488e-16 -4.5929964329616433e-17 -0.9975939307163233 0.06932783999065789
12652465333.333334 -0.9967226483485047 0.08089476045429497 1.200702714121685e-16 -4.7327554867095426e-17 1.200702714121685e-16 -4.7327554867095426e-17 -0.9967227038235318 0.0808940769310235
12653082666.666666 -0.9957173175786597 0.09245011343299314 1.1948561220559205e-16 -4.8718134930280414e-17 1.1948561220559205e-16 -4.8718134930280414e-17 -0.9957173809749177 0.0924494306324558
12653700000.0 -0.9945780261153669 0.10399302845996551 1.1888485891232145e-16 -5.010151732244908e-17 1.1888485891232145e-16 -5.010151732244908e-17 -0.9945780974235541 0.10399234647394912
12654317333.333334 -0.9933049272354368 0.1155219525874511 1.1826809986603376e-16 -5.1477515902854897e-17 1.1826809986603376e-16 -5.1477515902854897e-17 -0.9933050064451885 0.11552127150762402
12654934666.666666 -0.9918981922177059 0.12703533475006773 1.176354255517752e-16 -5.2845945611769035e-17 1.176354255517752e-16 -5.2845945611769035e-17 -0.9918982793175942 0.12703465466796737
12655552000.0 -0.9903580103199799 0.13853162597351473 1.169869285927641e-16 -5.4206622495331e-17 1.169869285927641e-16 -5.4206622495331e-17 -0.9903581052975182 0.13853094698053545
12656169333.333334 -0.9886845887536243 0.15000927958260107 1.163227037369297e-16 -5.555936373019242e-17 1.163227037369297e-16 -5.555936373019242e-17 -0.9886846915952675 0.15000860176998185
12656786666.666666 -0.9868781526556288 0.16146675140978148 1.1564284784312091e-16 -5.690398764809319e-17 1.1564284784312091e-16 -5.690398764809319e-17 -0.9868782633467736 0.16146607486859346
12657404000.0 -0.9849389450583468 0.1729025000026496 1.149474598670708e-16 -5.824031376018697e-17 1.149474598670708e-16 -5.824031376018697e-17 -0.9849390635833367 0.17290182482378405
12658021333.333334 -0.9828672268567833 0.18431498683143263 1.1423664084706163e-16 -5.956816278123624e-17 1.1423664084706163e-16 -5.956816278123624e-17 -0.982867353198909 0.18431431310558877
12658638666.666666 -0.9806632767735486 0.19570267649570136 1.1351049388932514e-16 -6.088735665360777e-17 1.1351049388932514e-16 -6.088735665360777e-17 -0.9806634109150512 0.19570200431337406
12659256000.0 -0.9783273913212466 0.20706403693152417 1.127691241531391e-16 -6.219771857113873e-17 1.127691241531391e-16 -6.219771857113873e-17 -0.9783275332433188 0.20706336638299166
12659873333.333334 -0.9758598847627051 0.21839753961694375 1.120126388356816e-16 -6.349907300276553e-17 1.120126388356816e-16 -6.349907300276553e-17 -0.9758600344454964 0.21839687079225606
12660490666.666666 -0.9732610890686428 0.2297016597779282 1.1124114715660626e-16 -6.479124571598199e-17 1.1124114715660626e-16 -6.479124571598199e-17 -0.9732612464912583 0.22970099276689412
12661108000.0 -0.9705313538729659 0.24097487659364558 1.1045476034231043e-16 -6.607406380017448e-17 1.1045476034231043e-16 -6.607406380017448e-17 -0.9705315190134739 0.2409742114858218
12661725333.333334 -0.9676710464258119 0.25221567340073975 1.0965359160999826e-16 -6.734735568965999e-17 1.0965359160999826e-16 -6.734735568965999e-17 -0.9676712192612433 0.25221501028541776
12662342666.666666 -0.9646805515440943 0.26342253789757036 1.0883775615142274e-16 -6.861095118662633e-17 1.0883775615142274e-16 -6.861095118662633e-17 -0.964680732050447 0.263421876863765
12662960000.0 -0.9615602715597209 0.27459396234770067 1.0800737111639348e-16 -6.986468148382575e-17 1.0800737111639348e-16 -6.986468148382575e-17 -0.9615604597119632 0.27459330348413796
12663577333.333334 -0.9583106262654888 0.2857284437826613 1.0716255559602343e-16 -7.110837918707405e-17 1.0716255559602343e-16 -7.110837918707405e-17 -0.9583108220375637 0.285727787177767
12664194666.666666 -0.9549320528585984 0.2968244842041823 1.0630343060569812e-16 -7.234187833757495e-17 1.0630343060569812e-16 -7.234187833757495e-17 -0.9549322562234254 0.29682382994606926
12664812000.0 -0.9514250058818329 0.30788059078572855 1.0543011906780918e-16 -7.356501443400944e-17 1.0543011906780918e-16 -7.356501443400944e-17 -0.9514252168113135 0.3078799389621858
12665429333.333334 -0.9477899571623912 0.3188952760733952 1.0454274579422222e-16 -7.477762445443582e-17 1.0454274579422222e-16 -7.477762445443582e-17 -0.9477901756274123 0.3188946267718755
12666046666.666666 -0.9440273957484884 0.32986705818578144 1.0364143746850801e-16 -7.597954687795813e-17 1.0364143746850801e-16 -7.597954687795813e-17 -0.9440276217189247 0.3298664114933897
12666664000.0 -0.9401378278434057 0.3407944610138161 1.0272632262788854e-16 -7.717062170623158e-17 1.0272632262788854e-16 -7.717062170623158e-17 -0.9401380612881259 0.3407938170172977
12667281333.333334 -0.9361217767375546 0.3516760144188653 1.0179753164500283e-16 -7.835069048466373e-17 1.0179753164500283e-16 -7.835069048466373e-17 -0.9361220176244249 0.35167537320459463
12667898666.666666 -0.9319797827379738 0.3625102544308154 1.0085519670935407e-16 -7.951959632349596e-17 1.0085519670935407e-16 -7.951959632349596e-17 -0.9319800310338617 0.36250961608478377
12668516000.0 -0.9277124030956191 0.37329572344505535 9.989945180855961e-17 -8.067718391860401e-17 9.989945180855961e-17 -8.067718391860401e-17 -0.9277126587663997 0.3732950880528603
12669133333.333334 -0.923320211930533 0.38403097041823564 9.893043270937358e-17 -8.18232995720643e-17 9.893043270937358e-17 -8.18232995720643e-17 -0.9233204749410923 0.3840303380650688
12669750666.666666 -0.9188038001544362 0.39471455106390935 9.794827693843149e-17 -8.295779121254281e-17 9.794827693843149e-17 -8.295779121254281e-17 -0.9188040704686761 0.39471392183454546
