! Parameters = {f0=12700.012000; bw=77.238000; Q=6100.000000; N=10; m_0_1=1.181877; m_1_1=-1.036593; m_1_2=1.016689; m_2_2=-1.037242; m_2_3=0.653652; m_2_8=-0.003842; m_2_9=0.032862; m_3_3=-1.039179; m_3_4=0.542181; m_3_7=-0.003242; m_3_8=-0.100330; m_3_9=-0.003842; m_4_4=-1.042104; m_4_5=0.378516; m_4_6=0.000275; m_4_7=-0.120879; m_4_8=-0.003242; m_5_5=-1.041722; m_5_6=0.785871; m_5_7=0.000275; m_6_6=-1.041723; m_6_7=0.378858; m_7_7=-1.042090; m_7_8=0.542299; m_8_8=-1.039181; m_8_9=0.653965; m_9_9=-1.037247; m_9_10=1.017767; m_10_10=-1.036603; m_10_11=1.182672}
!
! Created with skrf (http://scikit-rf.org).
# Hz S RI R 50.0 
!freq ReS11 ImS11 ReS21 ImS21 ReS12 ImS12 ReS22 ImS22
12607400000.0 -0.826811462065032 -0.5624791606786257 6.819983414514301e-17 2.1799077446297802e-17 6.819983414514301e-17 2.1799077446297802e-17 -0.8268111117338103 -0.5624796756446834
12608017333.333334 -0.8312390937735961 -0.5559150735339861 6.835878793323058e-17 2.1248180933963778e-17 6.835878793323058e-17 2.1248180933963778e-17 -0.8312387475476658 -0.55591559123237
12608634666.666666 -0.8356146141357632 -0.5493161354289406 6.851329631695007e-17 2.069613778272232e-17 6.851329631695007e-17 2.069613778272232e-17 -0.8356142720364257 -0.5493166558269296
12609252000.0 -0.8399377488451338 -0.5426827600585961 6.86633511336671e-17 2.0142983827987656e-17 6.86633511336671e-17 2.0142983827987656e-17 -0.8399374108934309 -0.5426832831233028
12609869333.333334 -0.8442082268793961 -0.5360153632770174 6.880894450933501e-17 1.9588754962317406e-17 6.880894450933501e-17 1.9588754962317406e-17 -0.8442078930961073 -0.5360158889753911
12610486666.666666 -0.8484257805173323 -0.5293143630711363 6.895006885888516e-17 1.903348713309691e-17 6.895006885888516e-17 1.903348713309691e-17 -0.8484254509229735 -0.5293148913699639
12611104000.0 -0.8525901453557068 -0.5225801795343767 6.908671688660294e-17 1.8477216340200993e-17 6.908671688660294e-17 1.8477216340200993e-17 -0.8525898199705294 -0.5225807104002854
12611721333.333334 -0.8567010603256631 -0.5158132348406083 6.921888158647813e-17 1.7919978633683027e-17 6.921888158647813e-17 1.7919978633683027e-17 -0.8567007391696524 -0.5158137682400676
12612338666.666666 -0.8607582677091783 -0.5090139532175351 6.934655624254303e-17 1.736181011143399e-17 6.934655624254303e-17 1.736181011143399e-17 -0.8607579508020532 -0.5090144891168594
12612956000.0 -0.864761513155309 -0.5021827609199541 6.946973442918932e-17 1.680274691684914e-17 6.946973442918932e-17 1.680274691684914e-17 -0.8647612005165204 -0.5021832992853044
12613573333.333334 -0.868710545695948 -0.4953200862033504 6.95884100114627e-17 1.6242825236510742e-17 6.95884100114627e-17 1.6242825236510742e-17 -0.8687102373446768 -0.49532062700073637
12614190666.666666 -0.8726051177617306 -0.48842635929675554 6.970257714534455e-17 1.568208129784098e-17 6.970257714534455e-17 1.568208129784098e-17 -0.872604813716886 -0.48842690249203696
12614808000.0 -0.8764449851974241 -0.4815020123759959 6.9812230278013e-17 1.5120551366763243e-17 6.9812230278013e-17 1.5120551366763243e-17 -0.8764446854776453 -0.4815025579348864
12615425333.333334 -0.8802299072773373 -0.4745474795364282 6.99173641480831e-17 1.4558271745369682e-17 6.99173641480831e-17 1.4558271745369682e-17 -0.8802296119009895 -0.4745480274244963
12616042666.666666 -0.883959646720353 -0.46756319676582364 7.001797378583086e-17 1.3995278769577524e-17 7.001797378583086e-17 1.3995278769577524e-17 -0.8839593557055273 -0.46756374694849506
12616660000.0 -0.8876339697048294 -0.46054960191698435 7.01140545133955e-17 1.3431608806795961e-17 7.01140545133955e-17 1.3431608806795961e-17 -0.8876336830693428 -0.460550154359545
12617277333.333334 -0.8912526458832234 -0.45350713468037157 7.020560194496792e-17 1.28672982535702e-17 7.020560194496792e-17 1.28672982535702e-17 -0.8912523636446154 -0.45350768934796853
12617894666.666666 -0.8948154483965415 -0.44643623655651493 7.029261198695398e-17 1.2302383533256326e-17 7.029261198695398e-17 1.2302383533256326e-17 -0.8948151705720746 -0.4464367934141593
12618512000.0 -0.898322153888651 -0.43933735082815556 7.03750808381261e-17 1.1736901093653418e-17 7.03750808381261e-17 1.1736901093653418e-17 -0.8983218804953104 -0.43933790984072496
12619129333.333334 -0.9017725425201328 -0.43221092253276266 7.045300498974854e-17 1.1170887404685154e-17 7.045300498974854e-17 1.1170887404685154e-17 -0.9017722735746229 -0.4322114836650026
12619746666.666666 -0.9051663979821384 -0.4250573984344814 7.052638122568932e-17 1.0604378956042729e-17 7.052638122568932e-17 1.0604378956042729e-17 -0.9051661335008828 -0.4250579616510078
12620364000.0 -0.9085035075100191 -0.4178772269959675 7.059520662251351e-17 1.0037412254827498e-17 7.059520662251351e-17 1.0037412254827498e-17 -0.908503247509162 -0.41787779226127
12620981333.333334 -0.9117836618965155 -0.41067085835061123 7.06594785495525e-17 9.470023823231551e-18 7.06594785495525e-17 9.470023823231551e-18 -0.9117834063919174 -0.4106714256290538
12621598666.666666 -0.9150066555050088 -0.40343874427400506 7.071919466896071e-17 8.902250196167954e-18 7.071919466896071e-17 8.902250196167954e-18 -0.9150064045122458 -0.40343931352982876
12622216000.0 -0.9181722862823095 -0.3961813381558557 7.077435293574897e-17 8.334127918943418e-18 7.077435293574897e-17 8.334127918943418e-18 -0.9181720398166753 -0.39618190935318187
12622833333.333334 -0.9212803557714175 -0.3888990949713528 7.082495159780258e-17 7.765693544896935e-18 7.082495159780258e-17 7.765693544896935e-18 -0.9212801138479202 -0.38889966807418436
12623450666.666666 -0.9243306691238732 -0.3815924712528548 7.087098919587719e-17 7.196983633071056e-18 7.087098919587719e-17 7.196983633071056e-18 -0.9243304317572328 -0.38159304622507817
12624068000.0 -0.9273230351120475 -0.37426192506108413 7.091246456357915e-17 6.6280347458535114e-18 7.091246456357915e-17 6.6280347458535114e-18 -0.9273228023166992 -0.374262501866473
12624685333.333334 -0.9302572661410995 -0.36690791595649047 7.094937682732498e-17 6.058883446639667e-18 7.094937682732498e-17 6.058883446639667e-18 -0.9302570379311896 -0.36690849455870655
12625302666.666666 -0.9331331782606962 -0.3595309049705462 7.098172540628234e-17 5.489566297497893e-18 7.098172540628234e-17 5.489566297497893e-18 -0.9331329546500821 -0.3595314853331421
12625920000.0 -0.9359505911766552 -0.3521313545765515 7.100951001229405e-17 4.920119856805612e-18 7.100951001229405e-17 4.920119856805612e-18 -0.935950372178905 -0.35213193666297343
12626537333.333334 -0.9387093282621272 -0.3447097286609606 7.103273064978047e-17 4.350580676934994e-18 7.103273064978047e-17 4.350580676934994e-18 -0.9387091138905184 -0.3447103124345501
12627154666.666666 -0.94140921656869 -0.3372664924942474 7.105138761562578e-17 3.780985301899543e-18 7.105138761562578e-17 3.780985301899543e-18 -0.9414090068362088 -0.3372670779182438
12627772000.0 -0.9440500868373086 -0.32980211270141685 7.106548149904425e-17 3.2113702650122187e-18 7.106548149904425e-17 3.2113702650122187e-18 -0.9440498817566483 -0.3298026997389594
12628389333.333334 -0.9466317735087778 -0.32231705723320464 7.107501318142805e-17 2.6417720865654113e-18 7.107501318142805e-17 2.6417720865654113e-18 -0.9466315730923403 -0.3223176458473355
12629006666.666666 -0.9491541147342227 -0.3148117953364222 7.107998383617692e-17 2.0722272714742115e-18 7.107998383617692e-17 2.0722272714742115e-18 -0.9491539189941152 -0.3148123854900879
12629624000.0 -0.9516169523851918 -0.3072867975246705 7.108039492850814e-17 1.5027723069620306e-18 7.108039492850814e-17 1.5027723069620306e-18 -0.9516167613332277 -0.30728738918072507
12630241333.333334 -0.95402013206359 -0.29974253554879027 7.107624821524901e-17 9.334436602260343e-19 7.107624821524901e-17 9.334436602260343e-19 -0.954019945711288 -0.29974312866999714
12630858666.666666 -0.9563635031113263 -0.2921794823673963 7.106754574461026e-17 3.6427777610879576e-19 7.106754574461026e-17 3.6427777610879576e-19 -0.956363321469909 -0.29218007691643044
12631476000.0 -0.9586469186198155 -0.2845981121170364 7.105428985594036e-17 -2.0468892524183773e-19 7.105428985594036e-17 -2.0468892524183773e-19 -0.9586467417002082 -0.2845987080564869
12632093333.333334 -0.9608702354391288 -0.276998900082657 7.103648317946261e-17 -7.73420050672003e-19 7.103648317946261e-17 -7.73420050672003e-19 -0.9608700632519614 -0.2769994973750299
12632710666.666666 -0.9630333141869883 -0.2693823226677544 7.101412863599241e-17 -1.3418792363568366e-18 7.101412863599241e-17 -1.3418792363568366e-18 -0.9630331467425921 -0.26938292127547414
12633328000.0 -0.9651360192575571 -0.26174885736431536 7.098722943663632e-17 -1.9100301501205637e-18 7.098722943663632e-17 -1.9100301501205637e-18 -0.9651358565659657 -0.26174945724972803
12633945333.333334 -0.9671782188298403 -0.25409898272323933 7.095578908247353e-17 -2.4778364937455994e-18 7.095578908247353e-17 -2.4778364937455994e-18 -0.9671780609007878 -0.25409958384861425
12634562666.666666 -0.9691597848760344 -0.24643317832403583 7.091981136421749e-17 -3.0452620052866253e-18 7.091981136421749e-17 -3.0452620052866253e-18 -0.9691596317189557 -0.24643378065156843
12635180000.0 -0.9710805931695142 -0.23875192474489612 7.087930036186017e-17 -3.612270461381452e-18 7.087930036186017e-17 -3.612270461381452e-18 -0.9710804447935436 -0.23875252823671
12635797333.333334 -0.9729405232926412 -0.23105570353248234 7.083426044429766e-17 -4.17882567955043e-18 7.083426044429766e-17 -4.17882567955043e-18 -0.9729403797066127 -0.23105630815063197
12636414666.666666 -0.9747394586442601 -0.22334499717195996 7.078469626893752e-17 -4.74489152050246e-18 7.078469626893752e-17 -4.74489152050246e-18 -0.9747393198567076 -0.22334560287843314
12637032000.0 -0.9764772864470909 -0.21562028905641945 7.073061278128694e-17 -5.310431890437262e-18 7.073061278128694e-17 -5.310431890437262e-18 -0.9764771524662453 -0.2156208958131391
12637649333.333334 -0.9781538977547424 -0.20788206345679158 7.067201521452401e-17 -5.875410743333836e-18 7.067201521452401e-17 -5.875410743333836e-18 -0.978153768588533 -0.2078826712256186
12638266666.666666 -0.9797691874585609 -0.20013080549140533 7.06089090890494e-17 -6.439792083244967e-18 7.06089090890494e-17 -6.439792083244967e-18 -0.9797690631146148 -0.20013141423414108
12638884000.0 -0.9813230542942013 -0.19236700109568705 7.054130021202157e-17 -7.003539966575646e-18 7.054130021202157e-17 -7.003539966575646e-18 -0.9813229347798417 -0.1923676107740753
12639501333.333334 -0.9828154008480084 -0.1845911369915007 7.046919467687105e-17 -7.566618504379245e-18 7.046919467687105e-17 -7.566618504379245e-18 -0.9828152861702569 -0.1845917475672307
12640118666.666666 -0.9842461335630825 -0.17680370065688697 7.039259886280055e-17 -8.12899186461529e-18 7.039259886280055e-17 -8.12899186461529e-18 -0.984246023728654 -0.176804312091595
12640736000.0 -0.9856151627452041 -0.16900518029513814 7.03115194342603e-17 -8.690624274456659e-18 7.03115194342603e-17 -8.690624274456659e-18 -0.9856150577605114 -0.1690057925504107
12641353333.333334 -0.9869224025683719 -0.16119606480469637 7.022596334041575e-17 -9.25148002251223e-18 7.022596334041575e-17 -9.25148002251223e-18 -0.9869223024395222 -0.16119667784207212
12641970666.666666 -0.9881677710802658 -0.15337684374802824 7.013593781458631e-17 -9.811523461124513e-18 7.013593781458631e-17 -9.811523461124513e-18 -0.9881676758130614 -0.15337745752900056
12642588000.0 -0.9893511902073403 -0.14554800732118509 7.004145037367267e-17 -1.0370719008620521e-17 7.004145037367267e-17 -1.0370719008620521e-17 -0.9893510998072784 -0.1455486218072046
12643205333.333334 -0.9904725857597269 -0.1377100463230162 6.994250881756464e-17 -1.0929031151559376e-17 6.994250881756464e-17 -1.0929031151559376e-17 -0.9904725002320005 -0.1377106614754933
12643822666.666666 -0.991531887435892 -0.12986345212440087 6.983912122852929e-17 -1.1486424446992677e-17 6.983912122852929e-17 -1.1486424446992677e-17 -0.9915318067853851 -0.12986406790470748
12644440000.0 -0.9925290288270366 -0.12200871663741378 6.973129597058574e-17 -1.2042863524689634e-17 6.973129597058574e-17 -1.2042863524689634e-17 -0.992528953058329 -0.12200933300688654
12645057333.333334 -0.993463947421258 -0.11414633228457276 6.961904168885725e-17 -1.2598313089388512e-17 6.961904168885725e-17 -1.2598313089388512e-17 -0.9934638765386239 -0.11414694920451526
12645674666.666666 -0.9943365846074744 -0.10627679196791134 6.950236730890868e-17 -1.3152737923020465e-17 6.950236730890868e-17 -1.3152737923020465e-17 -0.9943365186148798 -0.1062774093995962
12646292000.0 -0.9951468856791058 -0.0984005890379931 6.938128203606211e-17 -1.370610288695132e-17 6.938128203606211e-17 -1.370610288695132e-17 -0.9951468245802099 -0.09840120694266472
12646909333.333334 -0.9958947998374847 -0.09051821726318106 6.925579535470278e-17 -1.4258372924178e-17 6.925579535470278e-17 -1.4258372924178e-17 -0.9958947436356392 -0.09051883560205792
12647526666.666666 -0.9965802801950558 -0.0826301707985129 6.912591702755996e-17 -1.480951306155426e-17 6.912591702755996e-17 -1.480951306155426e-17 -0.9965802288933068 -0.08263078953279022
12648144000.0 -0.9972032837783213 -0.0747369441546938 6.899165709497058e-17 -1.535948841200822e-17 6.899165709497058e-17 -1.535948841200822e-17 -0.9972032373794051 -0.07473756324554558
12648761333.333334 -0.9977637715305084 -0.06683903216732087 6.885302587413124e-17 -1.5908264176727978e-17 6.885302587413124e-17 -1.5908264176727978e-17 -0.997763730036856 -0.06683965157590277
12649378666.666666 -0.9982617083140408 -0.05893692996569227 6.871003395832825e-17 -1.645580564736041e-17 6.871003395832825e-17 -1.645580564736041e-17 -0.9982616717277749 -0.058937549653143725
12649996000.0 -0.998697062912739 -0.05103113294173802 6.856269221615068e-17 -1.7002078208201287e-17 6.856269221615068e-17 -1.7002078208201287e-17 -0.9986970312356728 -0.05103175286918472
12650613333.333334 -0.9990698080337711 -0.04312213671899165 6.841101179068528e-17 -1.754704733838246e-17 6.841101179068528e-17 -1.754704733838246e-17 -0.9990697812674125 -0.043122756847548155
12651230666.666666 -0.9993799203093606 -0.03521043712174637 6.825500409869917e-17 -1.8090678614030828e-17 6.825500409869917e-17 -1.8090678614030828e-17 -0.9993798984549073 -0.035211057412518315
12651848000.0 -0.9996273802982653 -0.027296530143516698 6.809468082979622e-17 -1.863293771045704e-17 6.809468082979622e-17 -1.863293771045704e-17 -0.9996273633566081 -0.027297150557603424
12652465333.333334 -0.999812172486983 -0.01938091191631338 6.793005394556557e-17 -1.917379040430016e-17 6.793005394556557e-17 -1.917379040430016e-17 -0.9998121604587044 -0.019381532414810266
12653082666.666666 -0.9999342852907281 -0.011464078679483493 6.776113567871174e-17 -1.971320257567293e-17 6.776113567871174e-17 -1.971320257567293e-17 -0.9999342781761028 -0.011464699223484434
12653700000.0 -0.9999937110541602 -0.003546526748430116 6.758793853215587e-17 -2.0251140210337913e-17 6.758793853215587e-17 -2.0251140210337913e-17 -0.9999937088531543 -0.0035471472990299406
12654317333.333334 -0.999990446051861 0.004371247516274906 6.741047527813979e-17 -2.0787569401810718e-17 6.741047527813979e-17 -2.0787569401810718e-17 -0.9999904487641335 0.004370626997977978
12654934666.666666 -0.9999244904885697 0.012288747740207318 6.72287589572956e-17 -2.1322456353513094e-17 6.72287589572956e-17 -2.1322456353513094e-17 -0.9999244981134707 0.012288127293109248
12655552000.0 -0.999795848499169 0.020205477566123505 6.704280287770763e-17 -2.1855767380887387e-17 6.704280287770763e-17 -2.1855767380887387e-17 -0.9997958610357416 0.020204857229112003
12656169333.333334 -0.9996045281484272 0.0281209406849924 6.685262061395771e-17 -2.2387468913505106e-17 6.685262061395771e-17 -2.2387468913505106e-17 -0.9996045455954056 0.028120320496944462
12656786666.666666 -0.9993505414304904 0.03603464086728024 6.665822600614772e-17 -2.291752749718439e-17 6.665822600614772e-17 -2.291752749718439e-17 -0.9993505637863024 0.03603402086705974
12657404000.0 -0.9990339042681334 0.04394608199394605 6.645963315891168e-17 -2.3445909796080122e-17 6.645963315891168e-17 -2.3445909796080122e-17 -0.9990339315308983 0.04394546222040132
12658021333.333334 -0.9986546365117553 0.051854768087629136 6.625685644040703e-17 -2.3972582594779038e-17 6.625685644040703e-17 -2.3972582594779038e-17 -0.9986546686792854 0.05185414857959048
12658638666.666666 -0.9982127619381519 0.05976020334348703 6.604991048129772e-17 -2.4497512800363703e-17 6.604991048129772e-17 -2.4497512800363703e-17 -0.9982127990079521 0.05975958413976432
12659256000.0 -0.9977083082489978 0.06766189216073215 6.58388101737031e-17 -2.5020667444514686e-17 6.58388101737031e-17 -2.5020667444514686e-17 -0.9977083502182669 0.06766127330011244
12659873333.333334 -0.997141307069132 0.07555933917333267 6.562357067015098e-17 -2.5542013685549586e-17 6.562357067015098e-17 -2.5542013685549586e-17 -0.9971413539347604 0.07555872069457768
12660490666.666666 -0.9965117939445719 0.08345204928112443 6.54042073825045e-17 -2.6061518810481487e-17 6.54042073825045e-17 -2.6061518810481487e-17 -0.9965118457031441 0.08345143122296816
12661108000.0 -0.9958198083402727 0.09133952768101937 6.518073598086823e-17 -2.657915023707527e-17 6.518073598086823e-17 -2.657915023707527e-17 -0.9958198649880662 0.09133891008216564
12661725333.333334 -0.9950653936376703 0.09922127989779853 6.495317239249057e-17 -2.7094875515869356e-17 6.495317239249057e-17 -2.7094875515869356e-17 -0.9950654551706579 0.0992206627969187
12662342666.666666 -0.9942485971319466 0.10709681181530978 6.472153280063711e-17 -2.760866233221548e-17 6.472153280063711e-17 -2.760866233221548e-17 -0.994248663545795 0.10709619525104024
12662960000.0 -0.9933694700290722 0.1149656297073595 6.448583364345731e-17 -2.8120478508288916e-17 6.448583364345731e-17 -2.8120478508288916e-17 -0.9933695413191405 0.114965013718299
12663577333.333334 -0.9924280674425998 0.12282724026857972 6.424609161283042e-17 -2.8630292005100154e-17 6.424609161283042e-17 -2.8630292005100154e-17 -0.9924281436039449 0.12282662489328748
12664194666.666666 -0.9914244483901992 0.13068115064552405 6.40023236532005e-17 -2.9138070924485976e-17 6.40023236532005e-17 -2.9138070924485976e-17 -0.9914245294175711 0.13068053592251688
12664812000.0 -0.9903586757899595 0.13852686846748014 6.375454696038725e-17 -2.9643783511108854e-17 6.375454696038725e-17 -2.9643783511108854e-17 -0.9903587616778043 0.13852625443523026
12665429333.333334 -0.9892308164564556 0.14636390187728057 6.350277898038907e-17 -3.014739815443016e-17 6.350277898038907e-17 -3.014739815443016e-17 -0.9892309071989156 0.14636328857421324
12666046666.666666 -0.9880409410965575 0.15419175956216685 6.324703740817056e-17 -3.064888339067342e-17 6.324703740817056e-17 -3.064888339067342e-17 -0.9880410366874707 0.1541911470266577
12666664000.0 -0.9867891243049651 0.16200995078478633 6.29873401864252e-17 -3.114820790479509e-17 6.29873401864252e-17 -3.114820790479509e-17 -0.9867892247378658 0.1620093390551591
12667281333.333334 -0.9854754445595888 0.16981798541359205 6.272370550433716e-17 -3.164534053241865e-17 6.272370550433716e-17 -3.164534053241865e-17 -0.9854755498277088 0.16981737452811635
12667898666.666666 -0.9840999842165798 0.17761537395387855 6.245615179631388e-17 -3.214025026178274e-17 6.245615179631388e-17 -3.214025026178274e-17 -0.9841000943128505 0.17761476395076764
12668516000.0 -0.982662829505189 0.18540162757835713 6.218469774070889e-17 -3.2632906235670256e-17 6.218469774070889e-17 -3.2632906235670256e-17 -0.9826629444222371 0.18540101849576476
12669133333.333334 -0.9811640705223725 0.19317625815771616 6.190936225853736e-17 -3.312327775331067e-17 6.190936225853736e-17 -3.312327775331067e-17 -0.9811641902525243 0.1931756500337349
12669750666.666666 -0.9796038012271088 0.2009387782914189 6.163016451216399e-17 -3.361133427229644e-17 6.163016451216399e-17 -3.361133427229644e-17 -0.9796039257623886 0.20093817116407728
