! Parameters = {f0=12700.012000; bw=77.238000; Q=6100.000000; N=10; m_0_1=1.198894; m_1_1=-0.781337; m_1_2=1.033706; m_2_2=-0.781986; m_2_3=0.670669; m_2_8=-0.002992; m_2_9=0.033712; m_3_3=-0.783923; m_3_4=0.559198; m_3_7=-0.002392; m_3_8=-0.099480; m_3_9=-0.002992; m_4_4=-0.786848; m_4_5=0.395533; m_4_6=0.001125; m_4_7=-0.120029; m_4_8=-0.002392; m_5_5=-0.786466; m_5_6=0.802888; m_5_7=0.001125; m_6_6=-0.786467; m_6_7=0.395875; m_7_7=-0.786834; m_7_8=0.559316; m_8_8=-0.783925; m_8_9=0.670982; m_9_9=-0.781991; m_9_10=1.034784; m_10_10=-0.781347; m_10_11=1.199689}
!
! Created with skrf (http://scikit-rf.org).
# Hz S RI R 50.0 
!freq ReS11 ImS11 ReS21 ImS21 ReS12 ImS12 ReS22 ImS22
12607400000.0 0.9667876027461765 -0.25558116357850813 -6.674245301674053e-17 4.0595572359973083e-17 -6.674245301674053e-17 4.0595572359973083e-17 0.9667877642149756 -0.2555805527892365
12608017333.333334 0.9646011363715823 -0.263713192143463 -6.638158614805483e-17 4.1153981780432894e-17 -6.638158614805483e-17 4.1153981780432894e-17 0.9646013029698098 -0.26371258276538034
12608634666.666666 0.9623462696257741 -0.2718265206656625 -6.60160528317361e-17 4.1709191836885823e-17 -6.60160528317361e-17 4.1709191836885823e-17 0.962346441341115 -0.27182591274183987
12609252000.0 0.9600231624026048 -0.2799205738246929 -6.56458813630344e-17 4.2261163581225066e-17 -6.56458813630344e-17 4.2261163581225066e-17 0.9600233392223819 -0.2799199673980938
12609869333.333334 0.957631979434863 -0.28799477766707626 -6.527110036186244e-17 4.280985831501816e-17 -6.527110036186244e-17 4.280985831501816e-17 0.9576321613460396 -0.2879941727805544
12610486666.666666 0.9551728902826663 -0.2960485596467254 -6.489173877060257e-17 4.335523759220247e-17 -6.489173877060257e-17 4.335523759220247e-17 0.955173077271844 -0.29604795634302045
12611104000.0 0.9526460693213341 -0.3040813486658684 -6.450782585187674e-17 4.3897263221781285e-17 -6.450782585187674e-17 4.3897263221781285e-17 0.9526462613747579 -0.304080746987604
12611721333.333334 0.9500516957291467 -0.31209257511516664 -6.411939118631391e-17 4.443589727047343e-17 -6.411939118631391e-17 4.443589727047343e-17 0.9500518928327011 -0.3120919751048465
12612338666.666666 0.9473899534745381 -0.32008167091440315 -6.37264646702768e-17 4.497110206536826e-17 -6.37264646702768e-17 4.497110206536826e-17 0.9473901556137534 -0.32008107261440905
12612956000.0 0.94466103130309 -0.32804806955265753 -6.33290765135735e-17 4.5502840196551794e-17 -6.33290765135735e-17 4.5502840196551794e-17 0.9446612384631408 -0.32804747300524595
12613573333.333334 0.9418651227241763 -0.33599120612839767 -6.292725723716018e-17 4.603107451969509e-17 -6.292725723716018e-17 4.603107451969509e-17 0.9418653348898816 -0.33599061137569647
12614190666.666666 0.9390024259971819 -0.3439105173896973 -6.252103767079732e-17 4.655576815865599e-17 -6.252103767079732e-17 4.655576815865599e-17 0.9390026431530075 -0.34390992447370283
12614808000.0 0.9360731441174854 -0.3518054417740703 -6.211044895070304e-17 4.707688450803587e-17 -6.211044895070304e-17 4.707688450803587e-17 0.936073366247545 -0.3518048507366447
12615425333.333334 0.9330774848020401 -0.35967541944834286 -6.169552251718359e-17 4.759438723571725e-17 -6.169552251718359e-17 4.759438723571725e-17 0.9330777118900961 -0.35967483033121095
12616042666.666666 0.9300156604746909 -0.36751989234824756 -6.127629011223139e-17 4.8108240285397e-17 -6.127629011223139e-17 4.8108240285397e-17 0.9300158925041562 -0.36751930519299403
12616660000.0 0.9268878882510462 -0.3753383042181541 -6.085278377711458e-17 4.8618407879080235e-17 -6.085278377711458e-17 4.8618407879080235e-17 0.9268881252049841 -0.37533771906622015
12617277333.333334 0.9236943899231129 -0.3831301006504334 -6.042503584993877e-17 4.912485451956446e-17 -6.042503584993877e-17 4.912485451956446e-17 0.9236946317842402 -0.38312951754311453
12617894666.666666 0.920435391943615 -0.39089472912466733 -5.999307896319745e-17 4.96275449928899e-17 -5.999307896319745e-17 4.96275449928899e-17 0.9204356386943016 -0.39089414810310985
12618512000.0 0.9171111254098131 -0.39863163904711607 -5.955694604127947e-17 5.0126444370795507e-17 -5.955694604127947e-17 5.0126444370795507e-17 0.9171113770320838 -0.39863106015231425
12619129333.333334 0.9137218260472593 -0.4063402817894192 -5.911667029799072e-17 5.062151801311318e-17 -5.911667029799072e-17 5.062151801311318e-17 0.9137220825227965 -0.40633970506221323
12619746666.666666 0.9102677341930229 -0.41402011072766076 -5.867228523402873e-17 5.111273157017186e-17 -5.867228523402873e-17 5.111273157017186e-17 0.9102679955031647 -0.4140195362087317
12620364000.0 0.906749094778567 -0.4216705812812799 -5.822382463443689e-17 5.160005098517957e-17 -5.822382463443689e-17 5.160005098517957e-17 0.9067493609043128 -0.4216700090111498
12620981333.333334 0.9031661573125418 -0.4292911509513556 -5.777132256606755e-17 5.2083442496552145e-17 -5.777132256606755e-17 5.2083442496552145e-17 0.9031664282345497 -0.4292905809703823
12621598666.666666 0.8995191758629568 -0.43688127935935794 -5.73148133749899e-17 5.256287264025887e-17 -5.73148133749899e-17 5.256287264025887e-17 0.8995194515615476 -0.4368807117077331
12622216000.0 0.8958084090392131 -0.4444404282853629 -5.685433168390272e-17 5.3038308252119867e-17 -5.685433168390272e-17 5.3038308252119867e-17 0.8958086894943699 -0.44443986300310906
12622833333.333334 0.8920341199737896 -0.4519680617061672 -5.638991238951713e-17 5.350971647009169e-17 -5.638991238951713e-17 5.350971647009169e-17 0.8920344051651609 -0.4519674988331351
12623450666.666666 0.8881965763035621 -0.45946364583335014 -5.592159065992901e-17 5.397706473652294e-17 -5.592159065992901e-17 5.397706473652294e-17 0.8881968662104627 -0.45946308540921565
12624068000.0 0.8842960501508099 -0.46692664915114884 -5.54494019319659e-17 5.444032080039266e-17 -5.54494019319659e-17 5.444032080039266e-17 0.884296344752222 -0.46692609121541057
12624685333.333334 0.8803328181038921 -0.4743565424541985 -5.497338190850645e-17 5.489945271953538e-17 -5.497338190850645e-17 5.489945271953538e-17 0.8803331173784683 -0.4743559870461751
12625302666.666666 0.8763071611977571 -0.4817527988848339 -5.449356655581462e-17 5.5354428862810197e-17 -5.449356655581462e-17 5.5354428862810197e-17 0.8763074651238181 -0.4817522460436598
12625920000.0 0.8722193648938623 -0.4891148939707225 -5.400999210080835e-17 5.580521791229278e-17 -5.400999210080835e-17 5.580521791229278e-17 0.872219673449403 -0.4891143437353471
12626537333.333334 0.8680697190600434 -0.49644230566185676 -5.352269502835813e-17 5.625178886539784e-17 -5.352269502835813e-17 5.625178886539784e-17 0.8680700322227332 -0.49644175807104124
12627154666.666666 0.863858517949935 -0.5037345143676243 -5.303171207853483e-17 5.669411103701028e-17 -5.303171207853483e-17 5.669411103701028e-17 0.8638588356971164 -0.5037339694599373
12627772000.0 0.8595860601819996 -0.5109910029938213 -5.253708024384733e-17 5.713215406158435e-17 -5.253708024384733e-17 5.713215406158435e-17 0.8595863824906949 -0.510990460807639
12628389333.333334 0.8552526487185583 -0.5182112569789796 -5.203883676648015e-17 5.756588789520468e-17 -5.203883676648015e-17 5.756588789520468e-17 0.8552529755654676 -0.5182107175524805
12629006666.666666 0.8508585908440726 -0.5253947643312433 -5.153701913548219e-17 5.799528281765045e-17 -5.153701913548219e-17 5.799528281765045e-17 0.8508589222055761 -0.5253942277024067
12629624000.0 0.846404198143575 -0.5325410156643102 -5.103166508397389e-17 5.84203094344055e-17 -5.103166508397389e-17 5.84203094344055e-17 0.8464045339957356 -0.5325404818709135
12630241333.333334 0.841889786480398 -0.539649504233844 -5.052281258631077e-17 5.884093867866634e-17 -5.052281258631077e-17 5.884093867866634e-17 0.8418901267989619 -0.5396489733134592
12630858666.666666 0.8373156759739249 -0.5467197259731654 -5.001049985525151e-17 5.925714181330966e-17 -5.001049985525151e-17 5.925714181330966e-17 0.8373160207343248 -0.546719197963158
12631476000.0 0.8326821909767074 -0.5537511795292848 -4.9494765339078434e-17 5.966889043285934e-17 -4.9494765339078434e-17 5.966889043285934e-17 0.832682540154063 -0.5537506544668098
12632093333.333334 0.8279896600516655 -0.5607433662981418 -4.897564771875225e-17 6.007615646538914e-17 -4.897564771875225e-17 6.007615646538914e-17 0.8279900136207855 -0.5607428442201415
12632710666.666666 0.8232384159486804 -0.567695790460129 -4.845318590500113e-17 6.047891217444033e-17 -4.845318590500113e-17 6.047891217444033e-17 0.8232387738840661 -0.5676952714033313
12633328000.0 0.8184287955809857 -0.574607959015275 -4.792741903541321e-17 6.087713016089923e-17 -4.792741903541321e-17 6.087713016089923e-17 0.8184291578568297 -0.5746074430161892
12633945333.333334 0.8135611400013201 -0.581479381818131 -4.739838647152929e-17 6.127078336483703e-17 -4.739838647152929e-17 6.127078336483703e-17 0.81356150659151 -0.581478868913046
12634562666.666666 0.8086357943777283 -0.5883095716125509 -4.6866127795898125e-17 6.165984506734245e-17 -4.6866127795898125e-17 6.165984506734245e-17 0.8086361652558489 -0.5883090618375333
12635180000.0 0.8036531079690872 -0.5950980440662446 -4.633068280912714e-17 6.204428889232066e-17 -4.633068280912714e-17 6.204428889232066e-17 0.8036534831084212 -0.5950975374571345
12635797333.333334 0.79861343410032 -0.6018443178051421 -4.579209152691342e-17 6.242408880827075e-17 -4.579209152691342e-17 6.242408880827075e-17 0.798613813473851 -0.6018438143975525
12636414666.666666 0.7935171301373947 -0.608547914447463 -4.52503941770778e-17 6.279921913002443e-17 -4.52503941770778e-17 6.279921913002443e-17 0.7935175137178085 -0.6085474142767762
12637032000.0 0.7883645574619474 -0.6152083586376816 -4.4705631196549424e-17 6.316965452048507e-17 -4.4705631196549424e-17 6.316965452048507e-17 0.788364945221635 -0.6152078617390472
12637649333.333334 0.7831560814456258 -0.6218251780802827 -4.4157843228371956e-17 6.3535369992315e-17 -4.4157843228371956e-17 6.3535369992315e-17 0.783156473356684 -0.6218246844886147
12638266666.666666 0.7778920714242266 -0.6283979035731811 -4.3607071118677874e-17 6.389634090960946e-17 -4.3607071118677874e-17 6.389634090960946e-17 0.77789246745846 -0.6283974133231552
12638884000.0 0.772572900671492 -0.6349260690410177 -4.305335591365342e-17 6.425254298954245e-17 -4.305335591365342e-17 6.425254298954245e-17 0.7725733008004165 -0.6349255821670698
12639501333.333334 0.7671989463726228 -0.641409211568231 -4.249673885648795e-17 6.460395230398718e-17 -4.249673885648795e-17 6.460395230398718e-17 0.7671993505674662 -0.6414087281045542
12640118666.666666 0.7617705895976208 -0.6478468714317727 -4.193726138432137e-17 6.495054528110298e-17 -4.193726138432137e-17 6.495054528110298e-17 0.7617709978293256 -0.6478463914123143
12640736000.0 0.7562882152740494 -0.6542385921339681 -4.1374965125147415e-17 6.529229870691628e-17 -4.1374965125147415e-17 6.529229870691628e-17 0.7562886275132743 -0.6542381155924283
12641353333.333334 0.7507522121600673 -0.6605839204344963 -4.080989189476009e-17 6.562918972683984e-17 -4.080989189476009e-17 6.562918972683984e-17 0.7507526283771906 -0.6605834474043261
12641970666.666666 0.7451629728165498 -0.6668824063828986 -4.0242083693622153e-17 6.596119584720576e-17 -4.0242083693622153e-17 6.596119584720576e-17 0.7451633929816701 -0.6668819368972959
12642588000.0 0.7395208935794167 -0.6731336033502885 -3.967158270377046e-17 6.628829493674208e-17 -3.967158270377046e-17 6.628829493674208e-17 0.7395213176623562 -0.6731331374421973
12643205333.333334 0.7338263745314935 -0.6793370680610675 -3.9098431285690374e-17 6.661046522803408e-17 -3.9098431285690374e-17 6.661046522803408e-17 0.7338268025017983 -0.6793366057631741
12643822666.666666 0.728079819474137 -0.6854923606243557 -3.852267197517096e-17 6.692768531896261e-17 -3.852267197517096e-17 6.692768531896261e-17 0.7280802513010817 -0.6854919019690876
12644440000.0 0.7222816358985858 -0.6915990445652067 -3.794434748017536e-17 6.723993417410073e-17 -3.794434748017536e-17 6.723993417410073e-17 0.7222820715511741 -0.6915985895847304
12645057333.333334 0.7164322349571214 -0.6976566868554963 -3.7363500677669515e-17 6.754719112610031e-17 -3.7363500677669515e-17 6.754719112610031e-17 0.7164326744040892 -0.6976562355817144
12645674666.666666 0.7105320314338959 -0.7036648579446502 -3.678017461046086e-17 6.784943587703975e-17 -3.678017461046086e-17 6.784943587703975e-17 0.7105324746437126 -0.703664410409199
12646292000.0 0.7045814437153797 -0.7096231317902454 -3.619441248400293e-17 6.814664849975671e-17 -3.619441248400293e-17 6.814664849975671e-17 0.7045818906562507 -0.7096226880244928
12646909333.333334 0.6985808937609291 -0.7155310858879759 -3.5606257663230534e-17 6.843880943913235e-17 -3.5606257663230534e-17 6.843880943913235e-17 0.6985813444007994 -0.7155306459230207
12647526666.666666 0.692530807072751 -0.7213883013017377 -3.5015753669339515e-17 6.87258995133711e-17 -3.5015753669339515e-17 6.87258995133711e-17 0.6925312613793067 -0.7213878651684061
12648144000.0 0.6864316126656265 -0.7271943626934347 -3.442294417657625e-17 6.900789991524323e-17 -3.442294417657625e-17 6.900789991524323e-17 0.6864320706062946 -0.7271939304222764
12648761333.333334 0.6802837430366484 -0.7329488583522673 -3.3827873009032776e-17 6.928479221329148e-17 -3.3827873009032776e-17 6.928479221329148e-17 0.6802842045786031 -0.7329484299735561
12649378666.666666 0.6740876341345364 -0.7386513802239509 -3.323058413740514e-17 6.955655835302448e-17 -3.323058413740514e-17 6.955655835302448e-17 0.6740880992447003 -0.7386509557676828
12649996000.0 0.6678437253285993 -0.7443015239397687 -3.2631121675751923e-17 6.98231806580768e-17 -3.2631121675751923e-17 6.98231806580768e-17 0.667844193973644 -0.7443011034356574
12650613333.333334 0.6615524593777242 -0.7498988888451089 -3.2029529878249714e-17 7.008464183133868e-17 -3.2029529878249714e-17 7.008464183133868e-17 0.6615529315240744 -0.7498984723225849
12651230666.666666 0.6552142823989386 -0.7554430780279136 -3.142585313594378e-17 7.034092495605605e-17 -3.142585313594378e-17 7.034092495605605e-17 0.6552147580127743 -0.7554426655161235
12651848000.0 0.6488296438356483 -0.760933698346939 -3.082013597346209e-17 7.05920134969155e-17 -3.082013597346209e-17 7.05920134969155e-17 0.6488301228829065 -0.7609332898747408
12652465333.333334 0.6423989964259369 -0.7663703604594795 -3.021242304575885e-17 7.08378913010835e-17 -3.021242304575885e-17 7.08378913010835e-17 0.6423994788723152 -0.7663699560554431
12653082666.666666 0.6359227961704658 -0.771752678848982 -2.9602759134830286e-17 7.10785425992278e-17 -2.9602759134830286e-17 7.10785425992278e-17 0.6359232819814231 -0.7717522785413852
12653700000.0 0.6294015022998947 -0.7770802718525792 -2.8991189146411694e-17 7.131395200651312e-17 -2.8991189146411694e-17 7.131395200651312e-17 0.6294019914406553 -0.7770798756694067
12654317333.333334 0.6228355772427161 -0.7823527616878313 -2.8377758106695914e-17 7.15441045235586e-17 -2.8377758106695914e-17 7.15441045235586e-17 0.6228360696782715 -0.7823523696567726
12654934666.666666 0.6162254865921092 -0.7875697744797991 -2.776251115901545e-17 7.176898553737732e-17 -2.776251115901545e-17 7.176898553737732e-17 0.6162259822872207 -0.787569386628247
12655552000.0 0.6095716990730138 -0.7927309402874874 -2.7145493560527624e-17 7.198858082228372e-17 -2.7145493560527624e-17 7.198858082228372e-17 0.6095721979922151 -0.7927305566425353
12656169333.333334 0.602874686509069 -0.7978358931299311 -2.6526750678913428e-17 7.220287654076506e-17 -2.6526750678913428e-17 7.220287654076506e-17 0.602875188616669 -0.7978355137183727
12656786666.666666 0.5961349237889143 -0.802884271012348 -2.5906327989028628e-17 7.241185924433991e-17 -2.5906327989028628e-17 7.241185924433991e-17 0.5961354290489985 -0.802883895860672
12657404000.0 0.5893528888327123 -0.8078757159516432 -2.5284271069589415e-17 7.261551587437263e-17 -2.5284271069589415e-17 7.261551587437263e-17 0.5893533972091469 -0.8078753450860356
12658021333.333334 0.5825290625580818 -0.812809874001938 -2.466062559981688e-17 7.281383376287221e-17 -2.466062559981688e-17 7.281383376287221e-17 0.582529574014515 -0.8128095074482773
12658638666.666666 0.5756639288461992 -0.8176863952795119 -2.4035437356110668e-17 7.30068006332503e-17 -2.4035437356110668e-17 7.30068006332503e-17 0.5756644433460649 -0.8176860330633688
12659256000.0 0.5687579745072336 -0.8225049339877987 -2.3408752208675403e-17 7.319440460106443e-17 -2.3408752208675403e-17 7.319440460106443e-17 0.5687584920137535 -0.8225045761344342
12659873333.333334 0.5618116892460349 -0.8272651484417564 -2.278061611818317e-17 7.337663417471888e-17 -2.278061611818317e-17 7.337663417471888e-17 0.5618122097222202 -0.8272647949761186
12660490666.666666 0.5548255656273855 -0.8319667010921149 -2.2151075132412174e-17 7.355347825614349e-17 -2.2151075132412174e-17 7.355347825614349e-17 0.5548260890360416 -0.8319663520388394
12661108000.0 0.5478000990409321 -0.8366092585494074 -2.1520175382857233e-17 7.372492614144981e-17 -2.1520175382857233e-17 7.372492614144981e-17 0.5478006253446598 -0.8366089139328147
12661725333.333334 0.540735787666246 -0.8411924916074851 -2.088796308139633e-17 7.389096752154101e-17 -2.088796308139633e-17 7.389096752154101e-17 0.5407363168274442 -0.8411921514515778
12662342666.666666 0.5336331324373302 -0.8457160752669696 -2.025448451687935e-17 7.405159248271455e-17 -2.025448451687935e-17 7.405159248271455e-17 0.5336336644181989 -0.8457157395954323
12662960000.0 0.5264926370071942 -0.850179688758238 -1.961978605176692e-17 7.420679150721935e-17 -1.961978605176692e-17 7.420679150721935e-17 0.526493171769737 -0.8501793575944347
12663577333.333334 0.5193148077120898 -0.8545830155641979 -1.898391411874239e-17 7.435655547379199e-17 -1.898391411874239e-17 7.435655547379199e-17 0.5193153452181175 -0.8545826889311713
12664194666.666666 0.5121001535357057 -0.8589257434426735 -1.8346915217324098e-17 7.450087565816181e-17 -1.8346915217324098e-17 7.450087565816181e-17 0.5121006937468378 -0.8589254213631424
12664812000.0 0.5048491860729288 -0.8632075644486357 -1.7708835910474124e-17 7.463974373352741e-17 -1.7708835910474124e-17 7.463974373352741e-17 0.5048497289505959 -0.8632072469449926
12665429333.333334 0.4975624194936371 -0.8674281749559911 -1.7069722821199604e-17 7.477315177100535e-17 -1.7069722821199604e-17 7.477315177100535e-17 0.49756296499908603 -0.8674278620503043
12666046666.666666 0.49024037050634267 -0.871587275679061 -1.6429622629174408e-17 7.490109224004457e-17 -1.6429622629174408e-17 7.490109224004457e-17 0.49024091860063707 -0.8715869673930694
12666664000.0 0.4828835583212767 -0.8756845716939553 -1.578858206730259e-17 7.502355800882374e-17 -1.578858206730259e-17 7.502355800882374e-17 0.4828841089653004 -0.8756842680490678
12667281333.333334 0.47549250461389503 -0.8797197724593037 -1.5146647918354055e-17 7.514054234460397e-17 -1.5146647918354055e-17 7.514054234460397e-17 0.4754930577683547 -0.8797194734765986
12667898666.666666 0.46806773348773695 -0.8836925918369443 -1.4503867011535927e-17 7.525203891406514e-17 -1.4503867011535927e-17 7.525203891406514e-17 0.4680682891131658 -0.8836922975371676
12668516000.0 0.4606097714371114 -0.8876027481122933 -1.3860286219085442e-17 7.535804178360832e-17 -1.3860286219085442e-17 7.535804178360832e-17 0.46061032949387043 -0.8876024585158562
12669133333.333334 0.45311914731008723 -0.8914499640141469 -1.3215952452880376e-17 7.545854541962614e-17 -1.3215952452880376e-17 7.545854541962614e-17 0.45311970775836913 -0.8914496791411246
12669750666.666666 0.4455963922707167 -0.8952339667344872 -1.2570912661004975e-17 7.555354468875113e-17 -1.2570912661004975e-17 7.555354468875113e-17 0.44559695507054903 -0.89523368660462
12670368000.0 0.4380420397614712 -0.8989544879477787 -1.1925213824355417e-17 7.564303485806846e-17 -1.1925213824355417e-17 7.564303485806846e-17 0.4380426048727181 -0.898954212580467
12670985333.333334 0.43045662546546476 -0.9026112638299649 -1.127890295322063e-17 7.572701159530354e-17 -1.127890295322063e-17 7.572701159530354e-17 0.4304571928478311 -0.9026109932442711
