! Parameters = {f0=12700.012000; bw=77.238000; Q=6100.000000; N=10; m_0_1=1.246742; m_1_1=-0.063620; m_1_2=1.081554; m_2_2=-0.064269; m_2_3=0.718517; m_2_8=-0.000599; m_2_9=0.036105; m_3_3=-0.066206; m_3_4=0.607046; m_3_7=0.000001; m_3_8=-0.097087; m_3_9=-0.000599; m_4_4=-0.069131; m_4_5=0.443381; m_4_6=0.003518; m_4_7=-0.117636; m_4_8=0.000001; m_5_5=-0.068749; m_5_6=0.850736; m_5_7=0.003518; m_6_6=-0.068750; m_6_7=0.443723; m_7_7=-0.069117; m_7_8=0.607164; m_8_8=-0.066208; m_8_9=0.718830; m_9_9=-0.064274; m_9_10=1.082632; m_10_10=-0.063630; m_10_11=1.247537}
!
! Created with skrf (http://scikit-rf.org).
# Hz S RI R 50.0 
!freq ReS11 ImS11 ReS21 ImS21 ReS12 ImS12 ReS22 ImS22
12607400000.0 -0.628817781166782 0.7775526979493514 3.7819016465325515e-17 -9.147812177168404e-17 3.7819016465325515e-17 -9.147812177168404e-17 -0.6288182919405966 0.7775522848791199
12608017333.333334 -0.6211399706629916 0.7836996470872033 3.690210631314348e-17 -9.183094123154577e-17 3.690210631314348e-17 -9.183094123154577e-17 -0.6211404854495285 0.7836992390804992
12608634666.666666 -0.6134020749576253 0.789770786011682 3.5981920560348634e-17 -9.217457756829644e-17 3.5981920560348634e-17 -9.217457756829644e-17 -0.6134025937066959 0.7897703831074746
12609252000.0 -0.6056048425665009 0.7957655274387271 3.5058551106486164e-17 -9.250900053847084e-17 3.5058551106486164e-17 -9.250900053847084e-17 -0.6056053652275394 0.7957651296754895
12609869333.333334 -0.5977490277452053 0.8016832914745647 3.4132090128564155e-17 -9.28341808175728e-17 3.4132090128564155e-17 -9.28341808175728e-17 -0.5977495542672727 0.8016828988902693
12610486666.666666 -0.5898353904163395 0.8075235056716519 3.32026300718845e-17 -9.315009000259762e-17 3.32026300718845e-17 -9.315009000259762e-17 -0.5898359207481276 0.807523118303766
12611104000.0 -0.5818646960957298 0.8132856050842497 3.2270263640808296e-17 -9.345670061447656e-17 3.2270263640808296e-17 -9.345670061447656e-17 -0.5818652301855669 0.8132852229697318
12611721333.333334 -0.5738377158186997 0.8189690323228395 3.1335083789566174e-17 -9.37539861004079e-17 3.1335083789566174e-17 -9.37539861004079e-17 -0.5738382536145559 0.8189686554981369
12612338666.666666 -0.5657552260652552 0.8245732376082084 3.039718371298353e-17 -9.404192083611689e-17 3.039718371298353e-17 -9.404192083611689e-17 -0.5657557675147473 0.8245728661092534
12612956000.0 -0.5576180086849708 0.8300976788246295 2.945665683721219e-17 -9.432048012801394e-17 2.945665683721219e-17 -9.432048012801394e-17 -0.5576185537353676 0.8300973126868357
12613573333.333334 -0.5494268508215702 0.8355418215721593 2.851359681046757e-17 -9.458964021525435e-17 2.851359681046757e-17 -9.458964021525435e-17 -0.5494273994197968 0.8355414608304178
12614190666.666666 -0.5411825448365474 0.8409051392184903 2.756809749369612e-17 -9.484937827171963e-17 2.756809749369612e-17 -9.484937827171963e-17 -0.5411830969291911 0.840904783907167
12614808000.0 -0.5328858882326362 0.846187112949816 2.6620252951266028e-17 -9.509967240789477e-17 2.6620252951266028e-17 -9.509967240789477e-17 -0.5328864437659517 0.8461867631027487
12615425333.333334 -0.5245376835766419 0.851387231821033 2.5670157441625386e-17 -9.534050167265706e-17 2.5670157441625386e-17 -9.534050167265706e-17 -0.5245382424965562 0.851386887471527
12616042666.666666 -0.5161387384218049 0.8565049928051659 2.4717905407947593e-17 -9.557184605497118e-17 2.4717905407947593e-17 -9.557184605497118e-17 -0.5161393006739229 0.856504653985992
12616660000.0 -0.5076898652296847 0.8615399008420295 2.3763591468762272e-17 -9.579368648549109e-17 2.3763591468762272e-17 -9.579368648549109e-17 -0.5076904307592943 0.8615395675854202
12617277333.333334 -0.49919188129154113 0.8664914688861289 2.28073104085697e-17 -9.600600483806895e-17 2.28073104085697e-17 -9.600600483806895e-17 -0.4991924500436181 0.866491141223775
12617894666.666666 -0.4906456086493985 0.8713592179537046 2.1849157168459256e-17 -9.620878393116746e-17 2.1849157168459256e-17 -9.620878393116746e-17 -0.4906461805686126 0.8713588959167529
12618512000.0 -0.4820518740162547 0.8761426771692193 2.088922683667209e-17 -9.640200752918803e-17 2.088922683667209e-17 -9.640200752918803e-17 -0.48205244904697525 0.8761423607882703
12619129333.333334 -0.4734115086964576 0.8808413838107149 1.9927614639221653e-17 -9.658566034369048e-17 1.9927614639221653e-17 -9.658566034369048e-17 -0.4734120867827575 0.8808410731158176
12619746666.666666 -0.46472534850504016 0.8854548833547079 1.896441593043847e-17 -9.675972803453317e-17 1.896441593043847e-17 -9.675972803453317e-17 -0.4647259295907032 0.8854545783753602
12620364000.0 -0.4559942336868697 0.8899827295201604 1.7999726183533313e-17 -9.69241972109132e-17 1.7999726183533313e-17 -9.69241972109132e-17 -0.4559948177153944 0.8899824302853031
12620981333.333334 -0.4472190088355923 0.8944244843115264 1.7033640981177383e-17 -9.707905543230862e-17 1.7033640981177383e-17 -9.707905543230862e-17 -0.4472195957501987 0.8944241908495428
12621598666.666666 -0.4384005228116828 0.8987797180612574 1.6066256006022856e-17 -9.722429120933634e-17 1.6066256006022856e-17 -9.722429120933634e-17 -0.43840111255531633 0.8987794303999683
12622216000.0 -0.42953962866045464 0.9030480094712956 1.5097667031258772e-17 -9.735989400450836e-17 1.5097667031258772e-17 -9.735989400450836e-17 -0.4295402211757934 0.9030477276379587
12622833333.333334 -0.42063718352949236 0.9072289456538558 1.412796991114227e-17 -9.748585423289736e-17 1.412796991114227e-17 -9.748585423289736e-17 -0.42063777875895186 0.9072286696751629
12623450666.666666 -0.41169404858583886 0.9113221221713156 1.3157260571542338e-17 -9.76021632627063e-17 1.3157260571542338e-17 -9.76021632627063e-17 -0.4116946464715778 0.9113218520733896
12624068000.0 -0.402711088932564 0.9153271430754026 1.218563500045512e-17 -9.770881341574723e-17 1.218563500045512e-17 -9.770881341574723e-17 -0.4027116894164894 0.9153268788837938
12624685333.333334 -0.3936891735250511 0.9192436209454992 1.1213189238527906e-17 -9.780579796782378e-17 1.1213189238527906e-17 -9.780579796782378e-17 -0.3936897765488247 0.9192433626851853
12625302666.666666 -0.3846291750872012 0.9230711769260095 1.0240019369612321e-17 -9.78931111490172e-17 1.0240019369612321e-17 -9.78931111490172e-17 -0.384629780592245 0.9230709246213924
12625920000.0 -0.37553197002659433 0.9268094407631894 9.266221511247334e-18 -9.797074814388522e-17 9.266221511247334e-18 -9.797074814388522e-17 -0.3755325779540952 0.9268091944380905
12626537333.333334 -0.3663984383501806 0.9304580508407568 8.291891805223435e-18 -9.803870509155904e-17 8.291891805223435e-18 -9.803870509155904e-17 -0.3663990486410977 0.9304578105184186
12627154666.666666 -0.3572294635788413 0.9340166542150113 7.317126408092456e-18 -9.809697908575204e-17 7.317126408092456e-18 -9.809697908575204e-17 -0.357230076173911 0.9340164199180937
12627772000.0 -0.3480259326618681 0.9374849066489904 6.3420214816795014e-18 -9.814556817467273e-17 6.3420214816795014e-18 -9.814556817467273e-17 -0.34802654750160916 0.9374846783995676
12628389333.333334 -0.33878873589150954 0.9408624726456379 5.3666731836540165e-18 -9.818447136084203e-17 5.3666731836540165e-18 -9.818447136084203e-17 -0.33878935291622947 0.9408622504651959
12629006666.666666 -0.32951876681645037 0.9441490254804037 4.391177658023916e-18 -9.821368860081986e-17 4.391177658023916e-18 -9.821368860081986e-17 -0.32951938596625163 0.9441488093898415
12629624000.0 -0.32021692215567005 0.9473442472327473 3.4156310257074196e-18 -9.823322080483552e-17 3.4156310257074196e-18 -9.823322080483552e-17 -0.3202175433704548 0.9473440372523708
12630241333.333334 -0.31088410171153724 0.9504478288169429 2.4401293750633207e-18 -9.824306983632502e-17 2.4401293750633207e-18 -9.824306983632502e-17 -0.31088472493101443 0.950447624966467
12630858666.666666 -0.30152120828293244 0.9534594700119302 1.4647687524617436e-18 -9.824323851137556e-17 1.4647687524617436e-18 -9.824323851137556e-17 -0.30152183344662264 0.9534592723104733
12631476000.0 -0.2921291475776178 0.9563788794904474 4.896451528151801e-19 -9.823373059807544e-17 4.896451528151801e-19 -9.823373059807544e-17 -0.29212977462485956 0.9563786879565328
12632093333.333334 -0.28270882812497766 0.9592057748471038 -4.851454898146485e-19 -9.8214550815771e-17 -4.851454898146485e-19 -9.8214550815771e-17 -0.2827094569949328 0.959205589498654
12632710666.666666 -0.2732611611879692 0.9619398826257458 -1.4595073116533439e-18 -9.818570483423044e-17 -1.4595073116533439e-18 -9.818570483423044e-17 -0.2732617918196299 0.9619397034800856
12633328000.0 -0.26378706067483826 0.9645809383459537 -2.4333445286369623e-18 -9.814719927271352e-17 -2.4333445286369623e-18 -9.814719927271352e-17 -0.26378769300703186 0.9645807654198054
12633945333.333334 -0.2542874430509567 0.967128686528549 -3.4065614457845516e-18 -9.809904169894926e-17 -3.4065614457845516e-18 -9.809904169894926e-17 -0.25428807702235245 0.9671285198380328
12634562666.666666 -0.24476322725003505 0.9695828807203533 -4.379062466597343e-18 -9.804124062802052e-17 -4.379062466597343e-18 -9.804124062802052e-17 -0.24476386279914886 0.9695827202809821
12635180000.0 -0.23521533458525534 0.9719432835180128 -5.350752102427795e-18 -9.79738055211547e-17 -5.350752102427795e-18 -9.79738055211547e-17 -0.23521597165045746 0.9719431293446966
12635797333.333334 -0.2256446886601239 0.974209666590979 -6.321534981839975e-18 -9.789674678442302e-17 -6.321534981839975e-18 -9.789674678442302e-17 -0.2256453271796431 0.9742095186980169
12636414666.666666 -0.21605221527923685 0.976381810703562 -7.29131585994083e-18 -9.781007576734764e-17 -7.29131585994083e-18 -9.781007576734764e-17 -0.21605285519116765 0.976381669104646
12637032000.0 -0.20643884235855736 0.9784595057361802 -8.259999627723129e-18 -9.771380476141407e-17 -8.259999627723129e-18 -9.771380476141407e-17 -0.20643948360086586 0.9784593704443929
12637649333.333334 -0.19680549983576706 0.9804425507056627 -9.227491321363633e-18 -9.760794699849445e-17 -9.227491321363633e-18 -9.760794699849445e-17 -0.19680614234629643 0.9804424217334738
12638266666.666666 -0.1871531195802803 0.9823307537846918 -1.0193696131517199e-17 -9.749251664917699e-17 -1.0193696131517199e-17 -9.749251664917699e-17 -0.18715376329675737 0.9823306311439602
12638884000.0 -0.177482635303102 0.9841239323203641 -1.115851941258929e-17 -9.73675288210044e-17 -1.115851941258929e-17 -9.73675288210044e-17 -0.17748328016314288 0.9841238160223345
12639501333.333334 -0.16779498246647784 0.9858219128518623 -1.2121866691991491e-17 -9.723299955662007e-17 -1.2121866691991491e-17 -9.723299955662007e-17 -0.16779562840759404 0.9858218029071638
12640118666.666666 -0.15809109819357162 0.9874245311272053 -1.3083643679357124e-17 -9.70889458318262e-17 -1.3083643679357124e-17 -9.70889458318262e-17 -0.15809174515317628 0.9874244275458518
12640736000.0 -0.1483719211773653 0.9889316321192118 -1.4043756275795863e-17 -9.693538555354123e-17 -1.4043756275795863e-17 -9.693538555354123e-17 -0.1483725690927792 0.9889315349106018
12641353333.333334 -0.1386383915905289 0.9903430700403886 -1.500211058301581e-17 -9.677233755768353e-17 -1.500211058301581e-17 -9.677233755768353e-17 -0.13863904039898645 0.9903429792133017
12641970666.666666 -0.12889145099388494 0.9916587083571252 -1.5958612912546136e-17 -9.659982160694558e-17 -1.5958612912546136e-17 -9.659982160694558e-17 -0.12889210063254025 0.9916586239197245
12642588000.0 -0.11913204224560789 0.9928784198028587 -1.691316979485008e-17 -9.641785838849048e-17 -1.691316979485008e-17 -9.641785838849048e-17 -0.11913269265154101 0.9928783417626875
12643205333.333334 -0.1093611094099908 0.9940020863903894 -1.786568798844322e-17 -9.622646951155425e-17 -1.786568798844322e-17 -9.622646951155425e-17 -0.10936176052021362 0.9940020147543712
12643822666.666666 -0.09957959766600877 0.9950295994233063 -1.8816074488993847e-17 -9.602567750495641e-17 -1.8816074488993847e-17 -9.602567750495641e-17 -0.0995802494174714 0.9950295341977465
12644440000.0 -0.08978845321600172 0.9959608595064914 -1.9764236538371855e-17 -9.581550581452564e-17 -1.9764236538371855e-17 -9.581550581452564e-17 -0.08978910554559806 0.9959608006970714
12645057333.333334 -0.07998862319422893 0.9967957765557206 -2.0710081633686277e-17 -9.559597880043316e-17 -2.0710081633686277e-17 -9.559597880043316e-17 -0.07998927603880344 0.9967957241675037
12645674666.666666 -0.0701810555750805 0.9975342698064055 -2.1653517536291542e-17 -9.536712173443817e-17 -2.1653517536291542e-17 -9.536712173443817e-17 -0.07018170887143382 0.9975342238438316
12646292000.0 -0.060366699081290116 0.9981762678214001 -2.2594452280782846e-17 -9.512896079703891e-17 -2.2594452280782846e-17 -9.512896079703891e-17 -0.06036735276618546 0.9981762282882882
12646909333.333334 -0.050546503092502255 0.9987217084978934 -2.3532794183907403e-17 -9.488152307454966e-17 -2.3532794183907403e-17 -9.488152307454966e-17 -0.05054715710267132 0.9987216753974392
12647526666.666666 -0.04072141755315129 0.9991705390734325 -2.446845185350637e-17 -9.46248365560739e-17 -2.446845185350637e-17 -9.46248365560739e-17 -0.04072207182530059 0.9991705124082101
12648144000.0 -0.03089239288059827 0.9995227161310251 -2.5401334197394864e-17 -9.435893013039706e-17 -2.5401334197394864e-17 -9.435893013039706e-17 -0.030893047351415154 0.9995226959029867
12648761333.333334 -0.021060379873306962 0.9997782056033339 -2.63313504322011e-17 -9.408383358279426e-17 -2.63313504322011e-17 -9.408383358279426e-17 -0.02106103447946567 0.999778191813807
12649378666.666666 -0.011226329618869641 0.9999369827759748 -2.7258410092182542e-17 -9.37995775917489e-17 -2.7258410092182542e-17 -9.37995775917489e-17 -0.011226984297037532 0.9999369754256643
12649996000.0 -0.0013911934018626783 0.9999990322899069 -2.818242303802032e-17 -9.35061937255794e-17 -2.818242303802032e-17 -9.35061937255794e-17 -0.0013918480887063446 0.9999990313788956
12650613333.333334 0.00844407738808946 0.9999643481429201 -2.910329946555711e-17 -9.320371443898717e-17 -2.910329946555711e-17 -9.320371443898717e-17 0.008443422755898088 0.9999643536706677
12651230666.666666 0.018278531348232072 0.9998329336902154 -3.00209499144959e-17 -9.289217306951911e-17 -3.00209499144959e-17 -9.289217306951911e-17 0.01827787683400961 0.999832945655559
12651848000.0 0.028111217154997203 0.9996048016440782 -3.0935285277098346e-17 -9.257160383393239e-17 -3.0935285277098346e-17 -9.257160383393239e-17 0.028110562822042644 0.9996048200452313
12652465333.333334 0.03794118365577284 0.9992799740726473 -3.184621680679518e-17 -9.224204182449105e-17 -3.184621680679518e-17 -9.224204182449105e-17 0.03794052956736152 0.999279998907203
12653082666.666666 0.04776747996091175 0.9988584823977897 -3.275365612678134e-17 -9.190352300517019e-17 -3.275365612678134e-17 -9.190352300517019e-17 0.04776682618028913 0.9988585136627176
12653700000.0 0.05758915553599834 0.9983403673920437 -3.365751523859736e-17 -9.15560842077657e-17 -3.365751523859736e-17 -9.15560842077657e-17 0.05758850212637399 0.9983404050836927
12654317333.333334 0.06740526029340017 0.997725679174697 -3.455770653060781e-17 -9.119976312794383e-17 -3.455770653060781e-17 -9.119976312794383e-17 0.06740460731794151 0.997725723288793
12654934666.666666 0.0772148446844572 0.9970144772069196 -3.545414278650048e-17 -9.083459832118299e-17 -3.545414278650048e-17 -9.083459832118299e-17 0.07721419220628357 0.9970145277385691
12655552000.0 0.087016959791335 0.9962068302860126 -3.6346737193717596e-17 -9.046062919864326e-17 -3.6346737193717596e-17 -9.046062919864326e-17 0.08701630787351153 0.9962068872297026
12656169333.333334 0.09681065741856228 0.9953028165387738 -3.7235403351820804e-17 -9.007789602296197e-17 -3.7235403351820804e-17 -9.007789602296197e-17 0.0968100061240937 0.9953028798883707
12656786666.666666 0.10659499018503672 0.9943025234139168 -3.812005528086111e-17 -8.968643990394765e-17 -3.812005528086111e-17 -8.968643990394765e-17 0.10659433957686125 0.994302593162667
12657404000.0 0.11636901161552686 0.9932060476736213 -3.900060742966584e-17 -8.928630279420826e-17 -3.900060742966584e-17 -8.928630279420826e-17 0.11636836175651027 0.9932061238141543
12658021333.333334 0.12613177623228503 0.9920134953841713 -3.987697468409769e-17 -8.887752748468969e-17 -3.987697468409769e-17 -8.887752748468969e-17 0.12613112718521435 0.9920135779084975
12658638666.666666 0.13588233964636537 0.9907249819057059 -4.074907237525044e-17 -8.846015760014299e-17 -4.074907237525044e-17 -8.846015760014299e-17 0.13588169147394327 0.9907250708052214
12659256000.0 0.14561975864926097 0.9893406318810332 -4.161681628763484e-17 -8.80342375944926e-17 -4.161681628763484e-17 -8.80342375944926e-17 0.14561911141409922 0.989340727146517
12659873333.333334 0.15534309130388957 0.9878605792235984 -4.248012266726928e-17 -8.759981274614766e-17 -4.248012266726928e-17 -8.759981274614766e-17 0.15534244506850317 0.9878606808452144
12660490666.666666 0.16505139703571092 0.9862849671045342 -4.3338908229744425e-17 -8.715692915322324e-17 -4.3338908229744425e-17 -8.715692915322324e-17 0.16505075186251203 0.9862850750718326
12661108000.0 0.1747437367240213 0.9846139479387624 -4.419309016826314e-17 -8.67056337286705e-17 -4.419309016826314e-17 -8.67056337286705e-17 0.17474309267531354 0.9846140622406822
12661725333.333334 0.18441917279229345 0.9828476833703367 -4.5042586161571093e-17 -8.624597419535838e-17 -4.5042586161571093e-17 -8.624597419535838e-17 0.1844185299302651 0.982847803995202
12662342666.666666 0.19407676929934756 0.9809863442567182 -4.5887314381898017e-17 -8.577799908104602e-17 -4.5887314381898017e-17 -8.577799908104602e-17 0.19407612768606633 0.9809864711922446
12662960000.0 0.20371559202963657 0.979030110652296 -4.6727193502807825e-17 -8.5301757713298e-17 -4.6727193502807825e-17 -8.5301757713298e-17 0.20371495172704351 0.9790302438855907
12663577333.333334 0.21333470858367304 0.9769791717909607 -4.756214270701137e-17 -8.481730021431573e-17 -4.756214270701137e-17 -8.481730021431573e-17 0.21333406965357615 0.9769793113085221
12664194666.666666 0.22293318846822266 0.9748337260677971 -4.8392081694123294e-17 -8.432467749569337e-17 -4.8392081694123294e-17 -8.432467749569337e-17 0.22293255097229125 0.974833871855517
12664812000.0 0.23251010318631465 0.9725939810198916 -4.9216930688365165e-17 -8.382394125309847e-17 -4.9216930688365165e-17 -8.382394125309847e-17 0.23250946718607332 0.9725941330630571
12665429333.333334 0.24206452632708692 0.9702601533062536 -5.0036610446216215e-17 -8.331514396087587e-17 -5.0036610446216215e-17 -8.331514396087587e-17 0.24206389188390956 0.9702603115895478
12666046666.666666 0.2515955336552625 0.9678324686868874 -5.0851042263994764e-17 -8.279833886658601e-17 -5.0851042263994764e-17 -8.279833886658601e-17 0.25159490083036645 0.9678326331943916
12666664000.0 0.26110220320085803 0.9653111620008794 -5.16601479854208e-17 -8.227357998544543e-17 -5.16601479854208e-17 -8.227357998544543e-17 0.26110157205529805 0.9653113327160742
12667281333.333334 0.27058361534798414 0.9626964771437808 -5.24638500090637e-17 -8.174092209473133e-17 -5.24638500090637e-17 -8.174092209473133e-17 0.27058298594264635 0.9626966540495466
12667898666.666666 0.280038852924077 0.9599886670439385 -5.326207129578793e-17 -8.12004207280772e-17 -5.326207129578793e-17 -8.12004207280772e-17 0.28003822531967393 0.9599888501225617
12668516000.0 0.2894670012886217 0.9571879936380344 -5.4054735376117443e-17 -8.065213216971117e-17 -5.4054735376117443e-17 -8.065213216971117e-17 0.289466375545685 0.9571881828712029
12669133333.333334 0.2988671484213799 0.9542947278458074 -5.484176635752058e-17 -8.009611344863689e-17 -5.484176635752058e-17 -8.009611344863689e-17 0.2988665246002563 0.9542949232146191
12669750666.666666 0.30823838501088996 0.9513091495437801 -5.56230889316787e-17 -7.953242233271364e-17 -5.56230889316787e-17 -7.953242233271364e-17 0.30823776317173324 0.9513093510287374
12670368000.0 0.31757980454231466 0.9482315475382036 -5.639862838166257e-17 -7.896111732268828e-17 -5.639862838166257e-17 -7.896111732268828e-17 0.31757918474508195 0.9482317551192223
