! Parameters = {f0=12700.012000; bw=77.238000; Q=6100.000000; N=10; m_0_1=1.267763; m_1_1=0.251696; m_1_2=1.102575; m_2_2=0.251047; m_2_3=0.739538; m_2_8=0.000452; m_2_9=0.037156; m_3_3=0.249110; m_3_4=0.628067; m_3_7=0.001052; m_3_8=-0.096036; m_3_9=0.000452; m_4_4=0.246185; m_4_5=0.464402; m_4_6=0.004569; m_4_7=-0.116585; m_4_8=0.001052; m_5_5=0.246567; m_5_6=0.871757; m_5_7=0.004569; m_6_6=0.246566; m_6_7=0.464744; m_7_7=0.246199; m_7_8=0.628185; m_8_8=0.249108; m_8_9=0.739851; m_9_9=0.251042; m_9_10=1.103653; m_10_10=0.251686; m_10_11=1.268558}
!
! Created with skrf (http://scikit-rf.org).
# Hz S RI R 50.0 
!freq ReS11 ImS11 ReS21 ImS21 ReS12 ImS12 ReS22 ImS22
12607400000.0 -0.5199811176463709 0.8541777550902713 2.801023704810495e-17 -1.0579554209520681e-16 2.801023704810495e-17 -1.0579554209520681e-16 -0.5199816881830892 0.8541774077755093
12608017333.333334 -0.5110208788919441 0.8595682994016993 2.6887767272172092e-17 -1.0606426110086519e-16 2.6887767272172092e-17 -1.0606426110086519e-16 -0.5110214530010971 0.8595679580885222
12608634666.666666 -0.502004763151205 0.8648648552076378 2.5762746791437804e-17 -1.0632107910020205e-16 2.5762746791437804e-17 -1.0632107910020205e-16 -0.5020053407696702 0.8648645199327759
12609252000.0 -0.49293375628094355 0.8700668433623844 2.4635301700677668e-17 -1.0656597219733529e-16 2.4635301700677668e-17 -1.0656597219733529e-16 -0.49293433734522235 0.8700665141619062
12609869333.333334 -0.4838088501399323 0.8751736950606438 2.3505558314847004e-17 -1.067989178314923e-16 2.3505558314847004e-17 -1.067989178314923e-16 -0.48380943458615433 0.8751733719699485
12610486666.666666 -0.47463104248066956 0.8801848518996098 2.2373643154951043e-17 -1.0701989477899562e-16 2.2373643154951043e-17 -1.0701989477899562e-16 -0.4746316302446008 0.8801845349534247
12611104000.0 -0.46540133683985785 0.8850997659402567 2.1239682933876144e-17 -1.0722888315510295e-16 2.1239682933876144e-17 -1.0722888315510295e-16 -0.4654019278569089 0.8850994551726358
12611721333.333334 -0.45612074242909967 0.8899178997670244 2.010380454228173e-17 -1.0742586441568338e-16 2.010380454228173e-17 -1.0742586441568338e-16 -0.45612133663433074 0.8899175952113406
12612338666.666666 -0.4467902740243694 0.8946387265466729 1.8966135034377128e-17 -1.076108213587628e-16 1.8966135034377128e-17 -1.076108213587628e-16 -0.4467908713524991 0.8946384282356187
12612956000.0 -0.437410951854904 0.8992617300859702 1.782680161374387e-17 -1.0778373812590877e-16 1.782680161374387e-17 -1.0778373812590877e-16 -0.4374115522403153 0.8992614380515501
12613573333.333334 -0.4279838014919476 0.9037864048879722 1.6685931619174506e-17 -1.07944600203461e-16 1.6685931619174506e-17 -1.07944600203461e-16 -0.4279844048686964 0.9037861191615035
12614190666.666666 -0.4185098537364388 0.9082122562073961 1.5543652510416225e-17 -1.0809339442362642e-16 1.5543652510416225e-17 -1.0809339442362642e-16 -0.4185104600382599 0.908211976819502
12614808000.0 -0.40899014450626925 0.9125388001047217 1.4400091853980067e-17 -1.082301089654118e-16 1.4400091853980067e-17 -1.082301089654118e-16 -0.4089907536665844 0.9125385270853297
12615425333.333334 -0.3994257147230655 0.9167655634990839 1.3255377308925528e-17 -1.0835473335540976e-16 1.3255377308925528e-17 -1.0835473335540976e-16 -0.39942632667499006 0.9167652968774224
12616042666.666666 -0.3898176101984469 0.9208920842199674 1.2109636612615828e-17 -1.0846725846843815e-16 1.2109636612615828e-17 -1.0846725846843815e-16 -0.38981822487479806 0.9208918240245624
12616660000.0 -0.38016688151951905 0.9249179110578128 1.0962997566497695e-17 -1.0856767652802506e-16 1.0962997566497695e-17 -1.0856767652802506e-16 -0.380167498852822 0.9249176573164842
12617277333.333334 -0.37047458393404764 0.9288426038133266 9.815588021876564e-18 -1.0865598110674495e-16 9.815588021876564e-18 -1.0865598110674495e-16 -0.37047520385654403 0.9288423565531863
12617894666.666666 -0.36074177723528517 0.9326657333455287 8.66753586568257e-18 -1.0873216712640553e-16 8.66753586568257e-18 -1.0873216712640553e-16 -0.36074239967894073 0.9326654925929786
12618512000.0 -0.35096952564561584 0.9363868816188718 7.518969006216465e-18 -1.0879623085808606e-16 7.518969006216465e-18 -1.0879623085808606e-16 -0.35097015054212694 0.9363866473995991
12619129333.333334 -0.34115889770076974 0.9400056417487185 6.37001535897604e-18 -1.0884816992201984e-16 6.37001535897604e-18 -1.0884816992201984e-16 -0.34115952498157076 0.940005414087692
12619746666.666666 -0.33131096613253413 0.9435216180460049 5.2208028323852585e-18 -1.0888798328733445e-16 5.2208028323852585e-18 -1.0888798328733445e-16 -0.331311595728806 0.9435213969674754
12620364000.0 -0.32142680775153626 0.9469344260604747 4.071459313591592e-18 -1.0891567127163698e-16 4.071459313591592e-18 -1.0891567127163698e-16 -0.3214274395942133 0.9469342115879711
12620981333.333334 -0.3115075033298223 0.9502436926226053 2.9221126542806165e-18 -1.0893123554045092e-16 2.9221126542806165e-18 -1.0893123554045092e-16 -0.3115081373496001 0.9502434847789312
12621598666.666666 -0.30155413748225285 0.9534490558845604 1.772890656459804e-18 -1.0893467910650389e-16 1.772890656459804e-18 -1.0893467910650389e-16 -0.30155477360959543 0.953448854691792
12622216000.0 -0.2915677985481201 0.9565501653596781 6.239210582689212e-19 -1.0892600632886582e-16 6.239210582689212e-19 -1.0892600632886582e-16 -0.2915684367132684 0.9565499708391637
12622833333.333334 -0.2815495784721741 0.9595466819607921 -5.246684801907522e-19 -1.0890522291193743e-16 -5.246684801907522e-19 -1.0890522291193743e-16 -0.2815502186051526 0.9595464941331475
12623450666.666666 -0.2715005726851701 0.9624382780373238 -1.6727503909944193e-18 -1.0887233590429032e-16 -1.6727503909944193e-18 -1.0887233590429032e-16 -0.2715012147157953 0.9624380969224313
12624068000.0 -0.26142187998403565 0.9652246374111247 -2.820197212571695e-18 -1.0882735369735704e-16 -2.820197212571695e-18 -1.0882735369735704e-16 -0.2614225238419233 0.9652244630281308
12624685333.333334 -0.2513146024117778 0.9679054554110306 -3.966881603826911e-18 -1.0877028602397269e-16 -3.966881603826911e-18 -1.0877028602397269e-16 -0.25131524802635063 0.9679052877783433
12625302666.666666 -0.24117984513709215 0.9704804389061495 -5.112676358206553e-18 -1.0870114395677049e-16 -5.112676358206553e-18 -1.0870114395677049e-16 -0.24118049243758807 0.9704802780414381
12625920000.0 -0.23101871633318907 0.9729493063379979 -6.257454417851301e-18 -1.0861993990642373e-16 -6.257454417851301e-18 -1.0861993990642373e-16 -0.23101936524866798 0.9729491522581879
12626537333.333334 -0.22083232705708947 0.9753117877511663 -7.40108888760859e-18 -1.085266876197454e-16 -7.40108888760859e-18 -1.085266876197454e-16 -0.22083297751644226 0.9753116404724421
12627154666.666666 -0.2106217911278085 0.9775676248229271 -8.543453049083458e-18 -1.0842140217763787e-16 -8.543453049083458e-18 -1.0842140217763787e-16 -0.210622443059764 0.9775674843607273
12627772000.0 -0.20038822500448047 0.9797165708914891 -9.684420374691874e-18 -1.083040999928913e-16 -9.684420374691874e-18 -1.083040999928913e-16 -0.20038887833761354 0.9797164372605053
12628389333.333334 -0.19013274766475466 0.981758390982871 -1.0823864541598103e-17 -1.0817479880784334e-16 -1.0823864541598103e-17 -1.0817479880784334e-16 -0.1901334023274936 0.9817582641970454
12629006666.666666 -0.17985648048185668 0.9836928618367138 -1.1961659445713061e-17 -1.0803351769188299e-16 -1.1961659445713061e-17 -1.0803351769188299e-16 -0.17985713640249185 0.9836927419092406
12629624000.0 -0.16956054710236385 0.985519771930615 -1.3097679215610714e-17 -1.0788027703881435e-16 -1.3097679215610714e-17 -1.0788027703881435e-16 -0.1695612042090548 0.9855196588739362
12630241333.333334 -0.15924607332325758 0.9872389215032746 -1.4231798226437573e-17 -1.0771509856406986e-16 -1.4231798226437573e-17 -1.0771509856406986e-16 -0.1592467315440412 0.9872388153290791
12630858666.666666 -0.1489141869688247 0.9888501225763385 -1.536389111375285e-17 -1.0753800530178454e-16 -1.536389111375285e-17 -1.0753800530178454e-16 -0.14891484623162338 0.9888500232955636
12631476000.0 -0.13856601776711192 0.9903531989749873 -1.6493832787413512e-17 -1.0734902160171177e-16 -1.6493832787413512e-17 -1.0734902160171177e-16 -0.13856667799974098 0.9903531065978141
12632093333.333334 -0.12820269722684655 0.9917479863471295 -1.7621498445322738e-17 -1.0714817312600989e-16 -1.7621498445322738e-17 -1.0714817312600989e-16 -0.12820335835702248 0.9917479008829846
12632710666.666666 -0.11782535851334819 0.9930343321814334 -1.8746763587199083e-17 -1.0693548684587575e-16 -1.8746763587199083e-17 -1.0693548684587575e-16 -0.11782602046869613 0.9930342536389846
12633328000.0 -0.10743513632470736 0.9942120958239831 -1.986950402833079e-17 -1.0671099103802855e-16 -1.986950402833079e-17 -1.0671099103802855e-16 -0.10743579903276947 0.9942120242111415
12633945333.333334 -0.09703316676777005 0.9952811484936517 -2.0989595913216922e-17 -1.0647471528106396e-16 -2.0989595913216922e-17 -1.0647471528106396e-16 -0.09703383015601331 0.9952810838175711
12634562666.666666 -0.08662058723385531 0.9962413732961943 -2.2106915729227157e-17 -1.0622669045165311e-16 -2.2106915729227157e-17 -1.0622669045165311e-16 -0.08662125122967933 0.9962413155632676
12635180000.0 -0.07619853627450102 0.9970926652370123 -2.3221340320181817e-17 -1.0596694872060619e-16 -2.3221340320181817e-17 -1.0596694872060619e-16 -0.07619920080524613 0.9970926144528737
12635797333.333334 -0.06576815347677267 0.9978349312326569 -2.4332746899926314e-17 -1.0569552354878577e-16 -2.4332746899926314e-17 -1.0569552354878577e-16 -0.06576881846972782 0.9978348874021798
12636414666.666666 -0.055330579338854574 0.9984680901209875 -2.5441013065798833e-17 -1.054124496828912e-16 -2.5441013065798833e-17 -1.054124496828912e-16 -0.055331244721265264 0.998468053248285
12637032000.0 -0.04488695514525846 0.9989920726700547 -2.6546016812125318e-17 -1.0511776315108484e-16 -2.6546016812125318e-17 -1.0511776315108484e-16 -0.04488762084433477 0.99899204275848
12637649333.333334 -0.03443842284197437 0.9994068215856758 -2.7647636543601987e-17 -1.0481150125849205e-16 -2.7647636543601987e-17 -1.0481150125849205e-16 -0.03443908878489876 0.9994067986378172
12638266666.666666 -0.02398612491166234 0.9997122915176881 -2.874575108866004e-17 -1.0449370258255346e-16 -2.874575108866004e-17 -1.0449370258255346e-16 -0.023986791025597823 0.9997122755353759
12638884000.0 -0.013531204248814486 0.9999084490649144 -2.984023971275711e-17 -1.0416440696824273e-16 -2.984023971275711e-17 -1.0416440696824273e-16 -0.013531870460912433 0.9999084400492145
12639501333.333334 -0.0030748040345590895 0.9999952727788138 -3.093098213165073e-17 -1.0382365552313602e-16 -3.093098213165073e-17 -1.0382365552313602e-16 -0.0030754702719672958 0.9999952707300327
12640118666.666666 0.007381932387941326 0.9999727531658277 -3.201785852455127e-17 -1.034714906123612e-16 -3.201785852455127e-17 -1.034714906123612e-16 0.0073812661980707395 0.9999727580835079
12640736000.0 0.01783786163916122 0.999840892688416 -3.310074954732737e-17 -1.0310795585337659e-16 -3.310074954732737e-17 -1.0310795585337659e-16 0.017837195569663802 0.9998409045713396
12641353333.333334 0.028291840427466144 0.999599705764789 -3.417953634550353e-17 -1.0273309611065974e-16 -3.417953634550353e-17 -1.0273309611065974e-16 0.02829117455115721 0.9995997246109771
12641970666.666666 0.03874272567463631 0.9992492187673331 -3.525410056734737e-17 -1.0234695749021101e-16 -3.525410056734737e-17 -1.0234695749021101e-16 0.03874206006430289 0.9992492445740448
12642588000.0 0.04918937464074138 0.9987894700197224 -3.632432437678806e-17 -1.019495873339577e-16 -3.632432437678806e-17 -1.019495873339577e-16 0.049188709369134345 0.9987895027834562
12643205333.333334 0.059630645049035216 0.9982205097927317 -3.739009046633346e-17 -1.0154103421400184e-16 -3.739009046633346e-17 -1.0154103421400184e-16 0.059629980188861315 0.998220549509226
12643822666.666666 0.07006539521088527 0.9975424002987378 -3.8451282069905804e-17 -1.0112134792673918e-16 -3.8451282069905804e-17 -1.0112134792673918e-16 0.07006473083479912 0.997542446962971
12644440000.0 0.08049248415063757 0.9967552156849171 -3.9507782975586643e-17 -1.0069057948685475e-16 -3.9507782975586643e-17 -1.0069057948685475e-16 0.08049182033123375 0.9967552692911081
12645057333.333334 0.09091077173031839 0.9958590420251369 -4.0559477538338075e-17 -1.0024878112116862e-16 -4.0559477538338075e-17 -1.0024878112116862e-16 0.09091010854012364 0.9958591025667476
12645674666.666666 0.101319118774217 0.9948539773105604 -4.160625069262768e-17 -9.979600626236111e-17 -4.160625069262768e-17 -9.979600626236111e-17 0.10131845628568212 0.9948540447802942
12646292000.0 0.11171638719381505 0.993740131438892 -4.2647987965003526e-17 -9.933230954255713e-17 -4.2647987965003526e-17 -9.933230954255713e-17 0.11171572547930704 0.9937402058286952
12646909333.333334 0.12210144011177682 0.992517626202404 -4.368457548656778e-17 -9.885774678679394e-17 -4.368457548656778e-17 -9.885774678679394e-17 0.12210077924357093 0.9925177075034669
12647526666.666666 0.13247314198645813 0.9911865952746036 -4.4715900005417596e-17 -9.837237500634149e-17 -4.4715900005417596e-17 -9.837237500634149e-17 0.1324724820367301 0.9911866834773623
12648144000.0 0.14283035873621147 0.9897471841955957 -4.5741848898981434e-17 -9.787625239190658e-17 -4.5741848898981434e-17 -9.787625239190658e-17 0.14282969977702964 0.989747279289733
12648761333.333334 0.15317195786319335 0.9881995503561928 -4.676231018629791e-17 -9.736943830670228e-17 -4.676231018629791e-17 -9.736943830670228e-17 0.15317129996651055 0.9881996523306383
12649378666.666666 0.16349680857711202 0.9865438629807215 -4.7777172540204106e-17 -9.685199327939497e-17 -4.7777172540204106e-17 -9.685199327939497e-17 0.16349615181475805 0.9865439718236539
12649996000.0 0.17380378191920975 0.9847803031084671 -4.8786325299460785e-17 -9.632397899691896e-17 -4.8786325299460785e-17 -9.632397899691896e-17 0.17380312636288334 0.984780418807316
12650613333.333334 0.18409175088539834 0.9829090635739263 -4.978965848080122e-17 -9.578545829716312e-17 -4.978965848080122e-17 -9.578545829716312e-17 0.18409109660665934 0.9829091861153718
12651230666.666666 0.19435959054957477 0.9809303489857097 -5.0787062790870045e-17 -9.523649516154804e-17 -5.0787062790870045e-17 -9.523649516154804e-17 0.19435893761983633 0.9809304783556853
12651848000.0 0.20460617818682 0.9788443757041302 -5.1778429638135235e-17 -9.467715470745061e-17 -5.1778429638135235e-17 -9.467715470745061e-17 0.20460552667734078 0.9788445118878243
12652465333.333334 0.2148303933958271 0.9766513718176103 -5.2763651144649366e-17 -9.410750318054096e-17 -5.2763651144649366e-17 -9.410750318054096e-17 0.2148297433777036 0.9766515147994679
12653082666.666666 0.225031118221578 0.9743515771177113 -5.374262015777912e-17 -9.352760794697045e-17 -5.374262015777912e-17 -9.352760794697045e-17 0.22503046976573682 0.9743517268814362
12653700000.0 0.23520723727777942 0.9719452430728702 -5.471523026185102e-17 -9.293753748543478e-17 -5.471523026185102e-17 -9.293753748543478e-17 0.2352065904549692 0.971945399601425
12654317333.333334 0.2453576378683508 0.969432632801005 -5.568137578964772e-17 -9.233736137915453e-17 -5.568137578964772e-17 -9.233736137915453e-17 0.245356992749135 0.9694327960766163
12654934666.666666 0.2554812101095361 0.9668140210406508 -5.66409518339039e-17 -9.172715030768479e-17 -5.66409518339039e-17 -9.172715030768479e-17 0.25548056676428477 0.966814191044807
12655552000.0 0.2655768470511769 0.9640896941209264 -5.759385425866242e-17 -9.110697603863482e-17 -5.759385425866242e-17 -9.110697603863482e-17 0.26557620555005934 0.9640898708343831
12656169333.333334 0.27564344479742175 0.9612599499303175 -5.853997971051783e-17 -9.047691141928606e-17 -5.853997971051783e-17 -9.047691141928606e-17 0.27564280521039897 0.961260133333099
12656786666.666666 0.28567990262787024 0.9583250978839881 -5.947922562984089e-17 -8.983703036804727e-17 -5.947922562984089e-17 -8.983703036804727e-17 0.2856792650246871 0.9583252879553894
12657404000.0 0.2956851231177101 0.9552854588900066 -6.041149026184821e-17 -8.918740786583309e-17 -6.041149026184821e-17 -8.918740786583309e-17 0.2956844875678874 0.9552856556085938
12658021333.333334 0.3056580122576856 0.9521413653142611 -6.133667266759631e-17 -8.852811994731664e-17 -6.133667266759631e-17 -8.852811994731664e-17 0.30565737883051347 0.9521415686578782
12658638666.666666 0.3155974795737511 0.9488931609441187 -6.225467273488635e-17 -8.785924369206551e-17 -6.225467273488635e-17 -8.785924369206551e-17 0.31559684833828017 0.9488933708898853
12659256000.0 0.325502438246494 0.9455412009507641 -6.316539118908681e-17 -8.71808572155534e-17 -6.316539118908681e-17 -8.71808572155534e-17 0.32550180927152894 0.9455414174750814
12659873333.333334 0.3353718052296485 0.9420858518504733 -6.40687296038117e-17 -8.649303966009419e-17 -6.40687296038117e-17 -8.649303966009419e-17 0.3353711785837401 0.9420860749290256
12660490666.666666 0.3452045013686837 0.9385274914644887 -6.49645904115461e-17 -8.579587118563448e-17 -6.49645904115461e-17 -8.579587118563448e-17 0.34520387712012107 0.9385277210722448
12661108000.0 0.35499945151898626 0.9348665088776283 -6.585287691417247e-17 -8.50894329604322e-17 -6.585287691417247e-17 -8.50894329604322e-17 0.3549988297357906 0.934866744988848
12661725333.333334 0.3647555846629708 0.9311033043959193 -6.673349329333963e-17 -8.437380715167362e-17 -6.673349329333963e-17 -8.437380715167362e-17 0.3647549654128863 0.9311035469841521
12662342666.666666 0.37447183402766554 0.9272382895026403 -6.760634462081115e-17 -8.364907691591789e-17 -6.760634462081115e-17 -8.364907691591789e-17 0.3744712173781531 0.92723853854073
12662960000.0 0.3841471372010133 0.923271886813463 -6.847133686865089e-17 -8.291532638948305e-17 -6.847133686865089e-17 -8.291532638948305e-17 0.38414652321924303 0.9232721422735518
12663577333.333334 0.39378043624825143 0.9192045300301576 -6.932837691931895e-17 -8.217264067871563e-17 -6.932837691931895e-17 -8.217264067871563e-17 0.39377982500109504 0.9192047918836873
12664194666.666666 0.4033706778275106 0.9150366638932019 -7.01773725756817e-17 -8.142110585014072e-17 -7.01773725756817e-17 -8.142110585014072e-17 0.40337006938153436 0.9150369321109189
12664812000.0 0.41291681330491337 0.9107687441331855 -7.101823257089365e-17 -8.066080892052628e-17 -7.101823257089365e-17 -8.066080892052628e-17 0.412916207726371 0.9107690186851433
12665429333.333334 0.4224177988694194 0.9064012374209017 -7.18508665781753e-17 -7.989183784684441e-17 -7.18508665781753e-17 -7.989183784684441e-17 0.42241719622424345 0.9064015182764615
12666046666.666666 0.43187259564674824 0.9019346213164045 -7.267518522048947e-17 -7.911428151612607e-17 -7.267518522048947e-17 -7.911428151612607e-17 0.43187199600054643 0.9019349084442461
12666664000.0 0.44128016981318646 0.8973693842167073 -7.349110008012347e-17 -7.832822973520101e-17 -7.349110008012347e-17 -7.832822973520101e-17 0.44127957323122985 0.8973696775848233
12667281333.333334 0.4506394927084183 0.8927060253024651 -7.429852370810547e-17 -7.75337732203924e-17 -7.429852370810547e-17 -7.75337732203924e-17 0.4506388992556382 0.8927063248781721
12667898666.666666 0.4599495409481871 0.8879450544833154 -7.509736963358302e-17 -7.673100358704497e-17 -7.509736963358302e-17 -7.673100358704497e-17 0.45994895068916575 0.8879453602332532
12668516000.0 0.4692092965361161 0.8830869923421522 -7.588755237304425e-17 -7.592001333899912e-17 -7.588755237304425e-17 -7.592001333899912e-17 0.4692087095350803 0.8830873042322888
12669133333.333334 0.47841774697494666 0.8781323700782485 -7.666898743942032e-17 -7.510089585797751e-17 -7.666898743942032e-17 -7.510089585797751e-17 0.47841716329576045 0.8781326880738831
12669750666.666666 0.4875738853774229 0.8730817294490753 -7.744159135110082e-17 -7.42737453928497e-17 -7.744159135110082e-17 -7.42737453928497e-17 0.4875733050835817 0.8730820535148449
