! Parameters = {f0=12700.012000; bw=77.238000; Q=6100.000000; N=10; m_0_1=1.239534; m_1_1=-0.171728; m_1_2=1.074346; m_2_2=-0.172377; m_2_3=0.711309; m_2_8=-0.000960; m_2_9=0.035744; m_3_3=-0.174314; m_3_4=0.599838; m_3_7=-0.000360; m_3_8=-0.097448; m_3_9=-0.000960; m_4_4=-0.177239; m_4_5=0.436173; m_4_6=0.003157; m_4_7=-0.117997; m_4_8=-0.000360; m_5_5=-0.176857; m_5_6=0.843528; m_5_7=0.003157; m_6_6=-0.176858; m_6_7=0.436515; m_7_7=-0.177225; m_7_8=0.599956; m_8_8=-0.174316; m_8_9=0.711622; m_9_9=-0.172382; m_9_10=1.075424; m_10_10=-0.171738; m_10_11=1.240329}
!
! Created with skrf (http://scikit-rf.org).
# Hz S RI R 50.0 
!freq ReS11 ImS11 ReS21 ImS21 ReS12 ImS12 ReS22 ImS22
12607400000.0 0.948673211563701 0.3162580238685581 -9.553656848973332e-17 -3.227820001687892e-18 -9.553656848973332e-17 -3.227820001687892e-18 0.9486730050106587 0.3162586434611362
12608017333.333334 0.9516723787182164 0.30711509826878286 -9.554469298030394e-17 -2.299476765719596e-18 -9.554469298030394e-17 -2.299476765719596e-18 0.9516721781463761 0.3071157197897295
12608634666.666666 0.9545834323421128 0.29794373747032 -9.554380318322696e-17 -1.37128023904292e-18 -9.554380318322696e-17 -1.37128023904292e-18 0.954583237769459 0.29794436086190385
12609252000.0 0.957406102906549 0.28874479063201625 -9.553390271298138e-17 -4.433178874003425e-19 -9.553390271298138e-17 -4.433178874003425e-19 0.957405914350508 0.28874541583633817
12609869333.333334 0.9601401290659342 0.27951910946674646 -9.551499603210846e-17 4.843228798051654e-19 -9.551499603210846e-17 4.843228798051654e-19 0.9601399465433743 0.2795197364257455
12610486666.666666 0.9627852576820388 0.27026754816285625 -9.548708845045949e-17 1.4115547177078839e-18 -9.548708845045949e-17 1.4115547177078839e-18 0.9627850812092679 0.2702681768183143
12611104000.0 0.9653412438475425 0.2609909633046913 -9.545018612436243e-17 2.3382903542275113e-18 -9.545018612436243e-17 2.3382903542275113e-18 0.9653410734403067 0.26099159359823926
12611721333.333334 0.9678078509086239 0.25169021379358875 -9.540429605571141e-17 3.264442598212261e-18 -9.540429605571141e-17 3.264442598212261e-18 0.967807686582106 0.25169084566671135
12612338666.666666 0.970184850486902 0.24236616076824388 -9.534942609097519e-17 4.189924347660703e-18 -9.534942609097519e-17 4.189924347660703e-18 0.9701846922557211 0.24236679416228546
12612956000.0 0.972472022500612 0.2330196675248689 -9.528558492012543e-17 5.1146485979047765e-18 -9.528558492012543e-17 5.1146485979047765e-18 0.9724718703788203 0.23302030238103855
12613573333.333334 0.9746691551849027 0.22365159943756469 -9.521278207549037e-17 6.038528449731756e-18 -9.521278207549037e-17 6.038528449731756e-18 0.9746690091859858 0.22365223569694195
12614190666.666666 0.9767760451115383 0.21426282387781084 -9.513102793052384e-17 6.96147711756886e-18 -9.513102793052384e-17 6.96147711756886e-18 0.9767759052484153 0.21426346148135156
12614808000.0 0.9787924972076654 0.20485421013446298 -9.504033369849906e-17 7.883407937613387e-18 -9.504033369849906e-17 7.883407937613387e-18 0.9787923634926841 0.20485484902300374
12615425333.333334 0.9807183247738994 0.1954266293331263 -9.494071143112343e-17 8.804234375940025e-18 -9.494071143112343e-17 8.804234375940025e-18 0.9807181972188386 0.19542726944739094
12616042666.666666 0.9825533495016082 0.1859809543555577 -9.483217401707419e-17 9.723870036614472e-18 -9.483217401707419e-17 9.723870036614472e-18 0.9825532281176728 0.18598159563616193
12616660000.0 0.9842974014894298 0.17651805975873305 -9.471473518045484e-17 1.0642228669790748e-17 -9.471473518045484e-17 1.0642228669790748e-17 0.9842972862872562 0.17651870214619106
12617277333.333334 0.9859503192589917 0.16703882169401604 -9.458840947917601e-17 1.1559224179770071e-17 -9.458840947917601e-17 1.1559224179770071e-17 0.9859502102486389 0.16703946512874465
12617894666.666666 0.9875119497698404 0.15754411782609073 -9.445321230325782e-17 1.2474770633050178e-17 -9.445321230325782e-17 1.2474770633050178e-17 0.9875118469607956 0.1575447622484161
12618512000.0 0.9889821484336846 0.14803482725130943 -9.430915987304855e-17 1.3388782266399114e-17 -9.430915987304855e-17 1.3388782266399114e-17 0.9889820518348607 0.14803547260147218
12619129333.333334 0.9903607791276889 0.1385118304168594 -9.415626923737825e-17 1.4301173494818616e-17 -9.415626923737825e-17 1.4301173494818616e-17 0.9903606887474206 0.13851247663501975
12619746666.666666 0.9916477142071386 0.1289760090388507 -9.399455827162213e-17 1.5211858919578717e-17 -9.399455827162213e-17 1.5211858919578717e-17 0.9916476300531849 0.1289766560650945
12620364000.0 0.9928428345172479 0.11942824602073586 -9.382404567569283e-17 1.6120753336188782e-17 -9.382404567569283e-17 1.6120753336188782e-17 0.9928427565967913 0.11942889379508016
12620981333.333334 0.9939460294041744 0.10986942537170455 -9.364475097195789e-17 1.7027771742339215e-17 -9.364475097195789e-17 1.7027771742339215e-17 0.9939459577238197 0.10987007383410292
12621598666.666666 0.9949571967252798 0.10030043212472221 -9.345669450307526e-17 1.7932829345844818e-17 -9.345669450307526e-17 1.7932829345844818e-17 0.994957131291052 0.10030108121507028
12622216000.0 0.9958762428585807 0.0907221522546143 -9.325989742975677e-17 1.8835841572549544e-17 -9.325989742975677e-17 1.8835841572549544e-17 0.9958761836759283 0.09072280191275568
12622833333.333334 0.9967030827114212 0.08113547259603617 -9.305438172845017e-17 1.973672407422591e-17 -9.305438172845017e-17 1.973672407422591e-17 0.9967030297852112 0.0811361227617676
12623450666.666666 0.9974376397283468 0.07154128076136218 -9.28401701889543e-17 2.0635392736410448e-17 -9.28401701889543e-17 2.0635392736410448e-17 0.9974375930628679 0.07154193137443939
12624068000.0 0.9980798458981948 0.061940465058532235 -9.261728641194869e-17 2.1531763686261732e-17 -9.261728641194869e-17 2.1531763686261732e-17 0.9980798054971547 0.06194111605867534
12624685333.333334 0.9986296417603963 0.05233391440869114 -9.23857548064487e-17 2.2425753300381728e-17 -9.23857548064487e-17 2.2425753300381728e-17 0.9986296076269215 0.05233456573559031
12625302666.666666 0.9990869764104661 0.04272251826408376 -9.214560058719905e-17 2.3317278212558204e-17 -9.214560058719905e-17 2.3317278212558204e-17 0.9990869485471061 0.04272316985740499
12625920000.0 0.9994518075047385 0.0331071665254473 -9.189684977196949e-17 2.4206255321571662e-17 -9.189684977196949e-17 2.4206255321571662e-17 0.9994517859134587 0.03310781832483764
12626537333.333334 0.9997241012642649 0.023488749459900444 -9.163952917879943e-17 2.5092601798882603e-17 -9.163952917879943e-17 2.5092601798882603e-17 0.9997240859464512 0.023489401404993865
12627154666.666666 0.9999038324779553 0.013868157618402141 -9.137366642315015e-17 2.597623509635809e-17 -9.137366642315015e-17 2.597623509635809e-17 0.9999038234344128 0.013868809648824983
12627772000.0 0.999990984504914 0.00424628175301277 -9.109928991498953e-17 2.6857072953942453e-17 -9.109928991498953e-17 2.6857072953942453e-17 0.9999909817358649 0.004246933808389382
12628389333.333334 0.9999855492759679 -0.005375987265010522 -9.08164288558125e-17 2.7735033407269882e-17 -9.08164288558125e-17 2.7735033407269882e-17 0.9999855527810567 -0.005375335245052182
12629006666.666666 0.9998875272944264 -0.01499775852820937 -9.052511323556466e-17 2.861003479532071e-17 -9.052511323556466e-17 2.861003479532071e-17 0.9998875370727147 -0.014997106604032171
12629624000.0 0.9996969276360267 -0.024618141175184294 -9.022537382952068e-17 2.948199576795598e-17 -9.022537382952068e-17 2.948199576795598e-17 0.999696943685996 -0.024617489407136334
12630241333.333334 0.9994137679480968 -0.03423624447307781 -8.991724219506952e-17 3.035083529348681e-17 -8.991724219506952e-17 3.035083529348681e-17 0.9994137902676479 -0.03423559292148685
12630858666.666666 0.9990380744479244 -0.04385117789998898 -8.960075066843661e-17 3.121647266617991e-17 -8.960075066843661e-17 3.121647266617991e-17 0.999038103034378 -0.043850526625156795
12631476000.0 0.9985698819203203 -0.05346205122768064 -8.927593236132687e-17 3.2078827513749713e-17 -8.927593236132687e-17 3.2078827513749713e-17 0.9985699167704172 -0.05346140028987756
12632093333.333334 0.9980092337144053 -0.06306797460374841 -8.894282115750933e-17 3.2937819804778123e-17 -8.894282115750933e-17 3.2937819804778123e-17 0.9980092748243067 -0.0630673240632076
12632710666.666666 0.9973561817396014 -0.07266805863401048 -8.860145170931425e-17 3.379336985614778e-17 -8.860145170931425e-17 3.379336985614778e-17 0.9973562291048896 -0.0726674085509225
12633328000.0 0.9966107864608086 -0.08226141446511025 -8.825185943406626e-17 3.464539834041351e-17 -8.825185943406626e-17 3.464539834041351e-17 0.9966108400764878 -0.08226076489961748
12633945333.333334 0.9957731168928273 -0.0918471538665017 -8.789408051045228e-17 3.549382629312796e-17 -8.789408051045228e-17 3.549382629312796e-17 0.9957731767533207 -0.09184650487869248
12634562666.666666 0.9948432505939466 -0.10142438931294367 -8.752815187481123e-17 3.633857512015013e-17 -8.752815187481123e-17 3.633857512015013e-17 0.9948433166931029 -0.10142374096284722
12635180000.0 0.9938212736587829 -0.11099223406647625 -8.715411121735297e-17 3.717956660491598e-17 -8.715411121735297e-17 3.717956660491598e-17 0.9938213459898734 -0.11099158641405689
12635797333.333334 0.992707280710296 -0.12054980225866357 -8.677199697831637e-17 3.80167229156507e-17 -8.677199697831637e-17 3.80167229156507e-17 0.992707359266014 -0.12054915536381501
12636414666.666666 0.9915013748910436 -0.130096208972445 -8.638184834405417e-17 3.884996661255208e-17 -8.638184834405417e-17 3.884996661255208e-17 0.9915014596635089 -0.13009556289498514
12637032000.0 0.9902036678536031 -0.1396305703243506 -8.598370524303818e-17 3.9679220654958586e-17 -8.598370524303818e-17 3.9679220654958586e-17 0.9902037588343595 -0.13962992512401567
12637649333.333334 0.9888142797502626 -0.14915200354605543 -8.557760834181639e-17 4.050440840843025e-17 -8.557760834181639e-17 4.050440840843025e-17 0.9888143769302792 -0.14915135928249462
12638266666.666666 0.9873333392218855 -0.15865962706622677 -8.516359904088751e-17 4.132545365182308e-17 -8.516359904088751e-17 4.132545365182308e-17 0.9873334425915603 -0.15865898379899687
12638884000.0 0.9857609833859868 -0.16815256059223108 -8.474171947050808e-17 4.2142280584318956e-17 -8.474171947050808e-17 4.2142280584318956e-17 0.9857610929351456 -0.16815191838079085
12639501333.333334 0.9840973578240597 -0.17762992519149845 -8.431201248644222e-17 4.2954813832394003e-17 -8.431201248644222e-17 4.2954813832394003e-17 0.9840974735419545 -0.17762928409520276
12640118666.666666 0.982342616568104 -0.187090843372845 -8.387452166564288e-17 4.3762978456749046e-17 -8.387452166564288e-17 4.3762978456749046e-17 0.9823427384434202 -0.18709020345094007
12640736000.0 0.9804969220863008 -0.19653443916811064 -8.342929130183862e-17 4.456669995924843e-17 -8.342929130183862e-17 4.456669995924843e-17 0.9804970501071518 -0.1965338004797277
12641353333.333334 0.9785604452680633 -0.20595983821270267 -8.297636640111647e-17 4.5365904289698365e-17 -8.297636640111647e-17 4.5365904289698365e-17 0.9785605794219973 -0.20595920081685357
12641970666.666666 0.9765333654081447 -0.21536616782697215 -8.25157926773701e-17 4.6160517852710884e-17 -8.25157926773701e-17 4.6160517852710884e-17 0.9765335056821428 -0.21536553178254314
12642588000.0 0.9744158701900656 -0.22475255709684544 -8.204761654772955e-17 4.6950467514434546e-17 -8.204761654772955e-17 4.6950467514434546e-17 0.9744160165705421 -0.22475192246259162
12643205333.333334 0.9722081556687431 -0.23411813695443284 -8.15718851279052e-17 4.773568060927914e-17 -8.15718851279052e-17 4.773568060927914e-17 0.9722083081415491 -0.23411750378897314
12643822666.666666 0.9699104262522888 -0.24346204025871546 -8.108864622747617e-17 4.85160849465772e-17 -8.108864622747617e-17 4.85160849465772e-17 0.9699105848027135 -0.24346140862052723
12644440000.0 0.967522894683154 -0.2527834018755279 -8.059794834511615e-17 4.929160881719831e-17 -8.059794834511615e-17 4.929160881719831e-17 0.9675230592959237 -0.25278277182294123
12645057333.333334 0.9650457820184046 -0.2620813587577698 -8.009984066374742e-17 5.006218100012934e-17 -8.009984066374742e-17 5.006218100012934e-17 0.9650459526776884 -0.2620807303489627
12645674666.666666 0.9624793176092389 -0.2713550500253975 -7.959437304564623e-17 5.082773076898301e-17 -7.959437304564623e-17 5.082773076898301e-17 0.9624794942986459 -0.27135442331838966
12646292000.0 0.9598237390797372 -0.280603617045157 -7.908159602746311e-17 5.1588187898493613e-17 -7.908159602746311e-17 5.1588187898493613e-17 0.9598239217823197 -0.280602992097805
12646909333.333334 0.9570792923049309 -0.28982620350983707 -7.856156081521113e-17 5.234348267091821e-17 -7.856156081521113e-17 5.234348267091821e-17 0.9570794810031863 -0.28982558037982886
12647526666.666666 0.9542462313879787 -0.2990219555177728 -7.803431927917191e-17 5.3093545882418465e-17 -7.803431927917191e-17 5.3093545882418465e-17 0.9542464260638517 -0.2990213342626226
12648144000.0 0.951324818636611 -0.3081900216519871 -7.749992394874397e-17 5.383830884938726e-17 -7.749992394874397e-17 5.383830884938726e-17 0.9513250192714939 -0.30818940232902997
12648761333.333334 0.9483153245389249 -0.31732955305874966 -7.695842800723619e-17 5.457770341471738e-17 -7.695842800723619e-17 5.457770341471738e-17 0.9483155311136612 -0.31732893572513626
12649378666.666666 0.9452180277383226 -0.3264397035262545 -7.640988528660837e-17 5.5311661954006727e-17 -7.640988528660837e-17 5.5311661954006727e-17 0.9452182402332063 -0.32643908823894524
12649996000.0 0.9420332150076335 -0.3355196295631822 -7.585435026213033e-17 5.604011738174412e-17 -7.585435026213033e-17 5.604011738174412e-17 0.9420334334024132 -0.335519016378943
12650613333.333334 0.938761181222648 -0.3445684904765567 -7.529187804700401e-17 5.676300315741124e-17 -7.529187804700401e-17 5.676300315741124e-17 0.9387614054965283 -0.34456787945195305
12651230666.666666 0.9354022293348143 -0.3535854484495826 -7.472252438691976e-17 5.748025329154184e-17 -7.472252438691976e-17 5.748025329154184e-17 0.9354024594664581 -0.3535848396409748
12651848000.0 0.9319566703431162 -0.36256966861943246 -7.414634565454826e-17 5.819180235173465e-17 -7.414634565454826e-17 5.819180235173465e-17 0.9319569063106452 -0.3625690620829699
12652465333.333334 0.928424823265319 -0.3715203191544091 -7.356339884399238e-17 5.889758546859086e-17 -7.356339884399238e-17 5.889758546859086e-17 0.9284250650463166 -0.3715197149460252
12653082666.666666 0.9248070151085004 -0.3804365713308064 -7.297374156516799e-17 5.959753834161522e-17 -7.297374156516799e-17 5.959753834161522e-17 0.924807262680014 -0.38043596950621367
12653700000.0 0.9211035808386239 -0.38931759961000834 -7.237743203812599e-17 6.029159724506243e-17 -7.237743203812599e-17 6.029159724506243e-17 0.9211038341771673 -0.3893170002246932
12654317333.333334 0.9173148633496983 -0.39816258171450325 -7.177452908734616e-17 6.097969903369716e-17 -7.177452908734616e-17 6.097969903369716e-17 0.9173151224312546 -0.39816198482372117
12654934666.666666 0.9134412134318769 -0.40697069870438457 -7.116509213593394e-17 6.166178114854573e-17 -7.116509213593394e-17 6.166178114854573e-17 0.9134414782318988 -0.40697010436315434
12655552000.0 0.9094829897390404 -0.4157411350530157 -7.05491811997961e-17 6.233778162255146e-17 -7.05491811997961e-17 6.233778162255146e-17 0.9094832602324543 -0.41574054331611504
12656169333.333334 0.9054405587556665 -0.4244730787223854 -6.992685688176357e-17 6.300763908617265e-17 -6.992685688176357e-17 6.300763908617265e-17 0.905440834916873 -0.424472489644345
12656786666.666666 0.9013142947627386 -0.4331657212386268 -6.929818036562699e-17 6.367129277295982e-17 -6.929818036562699e-17 6.367129277295982e-17 0.9013145765656176 -0.43316513487372665
12657404000.0 0.8971045798032289 -0.44181825776659095 -6.866321341016252e-17 6.432868252502587e-17 -6.866321341016252e-17 6.432868252502587e-17 0.8971048672211389 -0.4418176741688537
12658021333.333334 0.8928118036466461 -0.4504298871845164 -6.802201834307594e-17 6.49797487984909e-17 -6.802201834307594e-17 6.49797487984909e-17 0.8928120966524298 -0.4504293064077039
12658638666.666666 0.8884363637530429 -0.4589998121580277 -6.737465805491872e-17 6.562443266884159e-17 -6.737465805491872e-17 6.562443266884159e-17 0.8884366623190274 -0.45899923425563527
12659256000.0 0.8839786652360314 -0.4675272392143132 -6.672119599291434e-17 6.626267583626998e-17 -6.672119599291434e-17 6.626267583626998e-17 0.8839789693340323 -0.4675266642395647
12659873333.333334 0.8794391208254703 -0.4760113788152114 -6.606169615478921e-17 6.689442063089651e-17 -6.606169615478921e-17 6.689442063089651e-17 0.879439430426793 -0.4760108068210542
12660490666.666666 0.874818150829198 -0.48445144543041363 -6.539622308252015e-17 6.751961001796591e-17 -6.539622308252015e-17 6.751961001796591e-17 0.8748184659046424 -0.48445087646951457
12661108000.0 0.870116183094013 -0.49284665761039675 -6.472484185601358e-17 6.813818760299909e-17 -6.472484185601358e-17 6.813818760299909e-17 0.8701165036138746 -0.49284609173513677
12661725333.333334 0.8653336529661929 -0.5011962380585255 -6.404761808680026e-17 6.875009763682236e-17 -6.404761808680026e-17 6.875009763682236e-17 0.8653339789002656 -0.5011956753209941
12662342666.666666 0.8604710032511182 -0.5094994137031448 -6.336461791161647e-17 6.935528502059583e-17 -6.336461791161647e-17 6.935528502059583e-17 0.8604713345686981 -0.5094988541551361
12662960000.0 0.8555286841723031 -0.5177554157691072 -6.267590798596917e-17 6.995369531074957e-17 -6.267590798596917e-17 6.995369531074957e-17 0.855529020842191 -0.5177548594621157
12663577333.333334 0.8505071533296518 -0.5259634798490525 -6.198155547766089e-17 7.054527472385058e-17 -6.198155547766089e-17 7.054527472385058e-17 0.8505074953201555 -0.5259629268342669
12664194666.666666 0.845406875657178 -0.5341228459740343 -6.128162806025328e-17 7.112997014142035e-17 -6.128162806025328e-17 7.112997014142035e-17 0.8454072229361157 -0.5341222963023337
12664812000.0 0.8402283233798973 -0.5422327586839811 -6.057619390648498e-17 7.17077291146874e-17 -6.057619390648498e-17 7.17077291146874e-17 0.8402286759146009 -0.54223221240593
12665429333.333334 0.8349719759701207 -0.5502924670976205 -5.986532168166126e-17 7.22784998692607e-17 -5.986532168166126e-17 7.22784998692607e-17 0.8349723337274394 -0.5502919242634643
12666046666.666666 0.829638320103078 -0.5583012249819767 -5.914908053699245e-17 7.284223130974575e-17 -5.914908053699245e-17 7.284223130974575e-17 0.8296386830493804 -0.5583006856416375
12666664000.0 0.8242278496117773 -0.5662582908215815 -5.84275401028675e-17 7.339887302431052e-17 -5.84275401028675e-17 7.339887302431052e-17 0.8242282177129543 -0.5662577550246527
12667281333.333334 0.8187410654414394 -0.5741629278868938 -5.770077048212518e-17 7.394837528915419e-17 -5.770077048212518e-17 7.394837528915419e-17 0.8187414386629085 -0.5741623956826359
12667898666.666666 0.8131784756029917 -0.5820144043027006 -5.69688422432537e-17 7.449068907293192e-17 -5.69688422432537e-17 7.449068907293192e-17 0.8131788539097002 -0.5820138757400373
12668516000.0 0.807540595125965 -0.5898119931159731 -5.623182641355145e-17 7.50257660411115e-17 -5.623182641355145e-17 7.50257660411115e-17 0.8075409784823911 -0.5898114682434847
12669133333.333334 0.8018279460110505 -0.597554972362822 -5.5489794472266177e-17 7.555355856024794e-17 -5.5489794472266177e-17 7.555355856024794e-17 0.8018283343812107 -0.5975544512287444
12669750666.666666 0.7960410571815622 -0.6052426251356502 -5.474281834367292e-17 7.6074019702206e-17 -5.474281834367292e-17 7.6074019702206e-17 0.7960414505290113 -0.6052421077878676
12670368000.0 0.7901804644344734 -0.6128742396495005 -5.399097039012324e-17 7.658710324830703e-17 -5.399097039012324e-17 7.658710324830703e-17 0.790180862722308 -0.6128737261355409
