! Parameters = {f0=12700.012000; bw=77.238000; Q=6100.000000; N=10; m_0_1=1.191486; m_1_1=-0.892448; m_1_2=1.026298; m_2_2=-0.893097; m_2_3=0.663261; m_2_8=-0.003362; m_2_9=0.033342; m_3_3=-0.895034; m_3_4=0.551790; m_3_7=-0.002762; m_3_8=-0.099850; m_3_9=-0.003362; m_4_4=-0.897959; m_4_5=0.388125; m_4_6=0.000755; m_4_7=-0.120399; m_4_8=-0.002762; m_5_5=-0.897577; m_5_6=0.795480; m_5_7=0.000755; m_6_6=-0.897578; m_6_7=0.388467; m_7_7=-0.897945; m_7_8=0.551908; m_8_8=-0.895036; m_8_9=0.663574; m_9_9=-0.893102; m_9_10=1.027376; m_10_10=-0.892458; m_10_11=1.192281}
!
! Created with skrf (http://scikit-rf.org).
# Hz S RI R 50.0 
!freq ReS11 ImS11 ReS21 ImS21 ReS12 ImS12 ReS22 ImS22
12607400000.0 -0.4756911584860525 -0.8796123701597435 5.3105350836789845e-17 5.327976527369003e-17 5.3105350836789845e-17 5.327976527369003e-17 -0.47569060619379955 -0.8796126688371534
12608017333.333334 -0.48288955369354314 -0.8756812656060963 5.353475239298739e-17 5.282731639782207e-17 5.353475239298739e-17 5.282731639782207e-17 -0.4828890038964815 -0.8756815687883974
12608634666.666666 -0.4900554646886577 -0.8716912535574899 5.396030532479791e-17 5.2371412946514796e-17 5.396030532479791e-17 5.2371412946514796e-17 -0.49005491742352586 -0.8716915612238462
12609252000.0 -0.4971884094171755 -0.8676426024239838 5.438198189187218e-17 5.191208760692533e-17 5.438198189187218e-17 5.191208760692533e-17 -0.49718786472053855 -0.8676429145532604
12609869333.333334 -0.5042879080425581 -0.863535584560303 5.4799754631073185e-17 5.144937328852477e-17 5.4799754631073185e-17 5.144937328852477e-17 -0.5042873659508047 -0.8635359011310668
12610486666.666666 -0.511353482978105 -0.8593704762475873 5.521359635825246e-17 5.09833031207519e-17 5.521359635825246e-17 5.09833031207519e-17 -0.5113529435274451 -0.8593707972381083
12611104000.0 -0.5183846589193507 -0.8551475576746471 5.562348017001516e-17 5.051391045064331e-17 5.562348017001516e-17 5.051391045064331e-17 -0.5183841221458128 -0.8551478830629005
12611721333.333334 -0.5253809628756944 -0.850867112919316 5.602937944544404e-17 5.0041228840473646e-17 5.602937944544404e-17 5.0041228840473646e-17 -0.5253804288151241 -0.8508674426829841
12612338666.666666 -0.5323419242024673 -0.846529429929202 5.643126784783021e-17 4.9565292065351533e-17 5.643126784783021e-17 4.9565292065351533e-17 -0.5323413928905233 -0.8465297640456727
12612956000.0 -0.5392670746325857 -0.842134800502305 5.682911932637075e-17 4.908613411081593e-17 5.682911932637075e-17 4.908613411081593e-17 -0.5392665461047393 -0.8421351389486784
12613573333.333334 -0.5461559483078411 -0.8376835202675336 5.722290811783374e-17 4.8603789170433945e-17 5.722290811783374e-17 4.8603789170433945e-17 -0.5461554225993718 -0.8376838630206187
12614190666.666666 -0.5530080818104742 -0.8331758886646592 5.761260874822923e-17 4.811829164335437e-17 5.761260874822923e-17 4.811829164335437e-17 -0.5530075589564689 -0.8331762357009783
12614808000.0 -0.5598230141942321 -0.8286122089242528 5.799819603443889e-17 4.762967613187234e-17 5.799819603443889e-17 4.762967613187234e-17 -0.5598224942295825 -0.8286125602200426
12615425333.333334 -0.5666002870153994 -0.8239927880472689 5.83796450858334e-17 4.713797743897137e-17 5.83796450858334e-17 4.713797743897137e-17 -0.5665997699747992 -0.8239931435784821
12616042666.666666 -0.5733394443636379 -0.8193179367843957 5.875693130586751e-17 4.6643230565853954e-17 5.875693130586751e-17 4.6643230565853954e-17 -0.5733389302815811 -0.8193182965267022
12616660000.0 -0.5800400328926569 -0.8145879696151487 5.913003039365482e-17 4.6145470709459994e-17 5.913003039365482e-17 4.6145470709459994e-17 -0.5800395218034341 -0.8145883335439369
12617277333.333334 -0.5867016018507301 -0.8098032047266983 5.949891834552203e-17 4.564473325997041e-17 5.949891834552203e-17 4.564473325997041e-17 -0.5867010937884288 -0.809803572817079
12617894666.666666 -0.5933237031109077 -0.804963963992553 5.986357145653559e-17 4.514105379830932e-17 5.986357145653559e-17 4.514105379830932e-17 -0.5933231981094067 -0.8049643362193574
12618512000.0 -0.599905891201409 -0.8000705729507157 6.02239663220267e-17 4.463446809360632e-17 6.02239663220267e-17 4.463446809360632e-17 -0.5999053892943796 -0.8000709492885012
12619129333.333334 -0.6064477233352749 -0.7951233607820275 6.058007983906391e-17 4.4125012100689876e-17 6.058007983906391e-17 4.4125012100689876e-17 -0.6064472245561753 -0.795123741205076
12619746666.666666 -0.6129487594403773 -0.790122660287849 6.093188920793456e-17 4.361272195752763e-17 6.093188920793456e-17 4.361272195752763e-17 -0.612948263822453 -0.7901230447701706
12620364000.0 -0.619408562189025 -0.7850688078676732 6.1279371933592e-17 4.309763398267231e-17 6.1279371933592e-17 4.309763398267231e-17 -0.6194080697653062 -0.7850691963830082
12620981333.333334 -0.6258266970271807 -0.7799621434966533 6.162250582707074e-17 4.2579784672711984e-17 6.162250582707074e-17 4.2579784672711984e-17 -0.6258262078304786 -0.7799625360184728
12621598666.666666 -0.6322027322039173 -0.7748030107025567 6.196126900690295e-17 4.205921069967603e-17 6.196126900690295e-17 4.205921069967603e-17 -0.6322022462668229 -0.7748034072040649
12622216000.0 -0.6385362388003502 -0.7695917565427447 6.229563990049514e-17 4.153594890845607e-17 6.229563990049514e-17 4.153594890845607e-17 -0.6385357561552321 -0.7695921569968801
12622833333.333334 -0.6448267907585344 -0.7643287315807868 6.262559724549136e-17 4.101003631420387e-17 6.262559724549136e-17 4.101003631420387e-17 -0.6448263114375369 -0.764329135960226
12623450666.666666 -0.6510739649100394 -0.7590142898629547 6.295112009110796e-17 4.0481510099729354e-17 6.295112009110796e-17 4.0481510099729354e-17 -0.6510734889450799 -0.759014698140112
12624068000.0 -0.6572773410045258 -0.753648788894314 6.327218779945655e-17 3.9950407612872e-17 6.327218779945655e-17 3.9950407612872e-17 -0.6572768684272927 -0.7536492010413441
12624685333.333334 -0.663436501738033 -0.7482325896146507 6.35887800468398e-17 3.9416766363868606e-17 6.35887800468398e-17 3.9416766363868606e-17 -0.6634360325799841 -0.7482330056034517
12625302666.666666 -0.669551032780841 -0.7427660563743831 6.390087682501414e-17 3.8880624022731705e-17 6.390087682501414e-17 3.8880624022731705e-17 -0.669550567073201 -0.7427664761765971
12625920000.0 -0.6756205228056616 -0.7372495569097683 6.420845844245683e-17 3.834201841657192e-17 6.420845844245683e-17 3.834201841657192e-17 -0.6756200605794195 -0.7372499804967827
12626537333.333334 -0.6816445635150086 -0.7316834623184254 6.451150552557832e-17 3.780098752696556e-17 6.451150552557832e-17 3.780098752696556e-17 -0.6816441048009166 -0.731683889661377
12627154666.666666 -0.6876227496687961 -0.7260681470342643 6.480999901994086e-17 3.7257569487265126e-17 6.480999901994086e-17 3.7257569487265126e-17 -0.687622294497367 -0.726068578104039
12627772000.0 -0.6935546791117196 -0.7204039888021748 6.510392019143677e-17 3.671180257992957e-17 6.510392019143677e-17 3.671180257992957e-17 -0.6935542275132259 -0.7204044235694126
12628389333.333334 -0.6994399528000225 -0.7146913686528934 6.539325062745155e-17 3.6163725233834704e-17 6.539325062745155e-17 3.6163725233834704e-17 -0.6994395048044921 -0.7146918070879864
12629006666.666666 -0.7052781748286469 -0.7089306708770738 6.567797223800131e-17 3.561337602157774e-17 6.567797223800131e-17 3.561337602157774e-17 -0.7052777304658621 -0.7089311129501703
12629624000.0 -0.7110689524576389 -0.7031222829996508 6.595806725685383e-17 3.506079365676438e-17 6.595806725685383e-17 3.506079365676438e-17 -0.7110685117571367 -0.7031227286806593
12630241333.333334 -0.7168118961386954 -0.6972665957536575 6.623351824261676e-17 3.450601699130337e-17 6.623351824261676e-17 3.450601699130337e-17 -0.7168114591297615 -0.6972670450122442
12630858666.666666 -0.7225066195412451 -0.6913640030540554 6.650430807980821e-17 3.3949085012685925e-17 6.650430807980821e-17 3.3949085012685925e-17 -0.7225061862529155 -0.6913644558596514
12631476000.0 -0.7281527395786574 -0.6854149019710181 6.67704199799143e-17 3.339003684123541e-17 6.67704199799143e-17 3.339003684123541e-17 -0.728152310039715 -0.6854153582928177
12632093333.333334 -0.7337498764337568 -0.6794196927034811 6.703183748240227e-17 3.2828911727393e-17 6.703183748240227e-17 3.2828911727393e-17 -0.7337494506727278 -0.6794201525104444
12632710666.666666 -0.7392976535844876 -0.6733787785520988 6.728854445572861e-17 3.226574904895924e-17 6.728854445572861e-17 3.226574904895924e-17 -0.7392972316296432 -0.6733792418129556
12633328000.0 -0.7447956978293452 -0.667292565892011 6.754052509832309e-17 3.170058830832971e-17 6.754052509832309e-17 3.170058830832971e-17 -0.7447952797086972 -0.6672930325752615
12633945333.333334 -0.7502436393123032 -0.6611614641456927 6.778776393953686e-17 3.1133469129750076e-17 6.778776393953686e-17 3.1133469129750076e-17 -0.7502432250536022 -0.6611619342196097
12634562666.666666 -0.7556411115477918 -0.6549858857553071 6.803024584058039e-17 3.0564431256537156e-17 6.803024584058039e-17 3.0564431256537156e-17 -0.7556407011785258 -0.6549863591879383
12635180000.0 -0.7609877514453303 -0.648766246154981 6.826795599543267e-17 2.999351454830409e-17 6.826795599543267e-17 2.999351454830409e-17 -0.7609873449927247 -0.6487667229141525
12635797333.333334 -0.766283199333975 -0.6425029637428393 6.85008799317291e-17 2.942075897817512e-17 6.85008799317291e-17 2.942075897817512e-17 -0.766282796824988 -0.6425034437961555
12636414666.666666 -0.7715270989864371 -0.6361964598529429 6.872900351162183e-17 2.884620463000311e-17 6.872900351162183e-17 2.884620463000311e-17 -0.7715267004477585 -0.6361969431677902
12637032000.0 -0.7767190976431572 -0.6298471587268165 6.895231293262495e-17 2.826989169556115e-17 6.895231293262495e-17 2.826989169556115e-17 -0.7767187031012079 -0.6298476452703647
12637649333.333334 -0.7818588460359638 -0.6234554874849968 6.917079472842861e-17 2.769186047174751e-17 6.917079472842861e-17 2.769186047174751e-17 -0.7818584555168928 -0.623455977224202
12638266666.666666 -0.7869459984115853 -0.6170218760982771 6.938443576969285e-17 2.7112151357774284e-17 6.938443576969285e-17 2.7112151357774284e-17 -0.7869456119412683 -0.6170223689998834
12638884000.0 -0.7919802125549095 -0.6105467573587839 6.959322326481848e-17 2.653080485235266e-17 6.959322326481848e-17 2.653080485235266e-17 -0.7919798301589474 -0.6105472533893261
12639501333.333334 -0.7969611498120217 -0.6040305668508393 6.97971447606939e-17 2.5947861550869896e-17 6.97971447606939e-17 2.5947861550869896e-17 -0.7969607715157394 -0.6040310659766454
12640118666.666666 -0.8018884751128834 -0.5974737429217959 6.999618814341426e-17 2.5363362142575083e-17 6.999618814341426e-17 2.5363362142575083e-17 -0.8018881009413279 -0.5974742451089889
12640736000.0 -0.8067618569941467 -0.5908767266521853 7.019034163899217e-17 2.4777347407715504e-17 7.019034163899217e-17 2.4777347407715504e-17 -0.8067614869720845 -0.5908772318666856
12641353333.333334 -0.8115809676210423 -0.5842399618265927 7.037959381401719e-17 2.418985821474785e-17 7.037959381401719e-17 2.418985821474785e-17 -0.8115806017729578 -0.5842404700341196
12641970666.666666 -0.8163454828097897 -0.5775638949033237 7.056393357632205e-17 2.3600935517454317e-17 7.056393357632205e-17 2.3600935517454317e-17 -0.8163451211598849 -0.5775644060693996
12642588000.0 -0.8210550820492358 -0.5708489749846001 7.074335017560519e-17 2.301062035211632e-17 7.074335017560519e-17 2.301062035211632e-17 -0.8210547246214281 -0.5708494890745511
12643205333.333334 -0.8257094485224349 -0.5640956537863262 7.091783320403576e-17 2.2418953834661313e-17 7.091783320403576e-17 2.2418953834661313e-17 -0.825709095340355 -0.5640961707652855
12643822666.666666 -0.8303082691280229 -0.5573043856076068 7.108737259683733e-17 2.1825977157799244e-17 7.108737259683733e-17 2.1825977157799244e-17 -0.830307920215014 -0.5573049054405168
12644440000.0 -0.8348512345012019 -0.5504756273003053 7.12519586328424e-17 2.123173158817326e-17 7.12519586328424e-17 2.123173158817326e-17 -0.8348508898803171 -0.550476149951919
12645057333.333334 -0.8393380390345664 -0.5436098382382863 7.141158193502579e-17 2.0636258463496073e-17 7.141158193502579e-17 2.0636258463496073e-17 -0.8393376987285676 -0.5436103636731712
12645674666.666666 -0.843768380898661 -0.5367074802865139 7.156623347101748e-17 2.003959918967258e-17 7.156623347101748e-17 2.003959918967258e-17 -0.8437680449300194 -0.5367080084690541
12646292000.0 -0.8481419620623964 -0.529769017769816 7.171590455358557e-17 1.944179523793702e-17 7.171590455358557e-17 1.944179523793702e-17 -0.8481416304532876 -0.5297695486642133
12646909333.333334 -0.8524584883128931 -0.5227949174419569 7.186058684109951e-17 1.8842888141976874e-17 7.186058684109951e-17 1.8842888141976874e-17 -0.8524581610851986 -0.5227954510122356
12647526666.666666 -0.8567176692754325 -0.5157856484540038 7.200027233796714e-17 1.824291949505744e-17 7.200027233796714e-17 1.824291949505744e-17 -0.8567173464507352 -0.51578618466401
12648144000.0 -0.8609192184329666 -0.5087416823227839 7.213495339505079e-17 1.764193094713325e-17 7.213495339505079e-17 1.764193094713325e-17 -0.8609189000325524 -0.5087422211361909
12648761333.333334 -0.8650628531453382 -0.5016634928992668 7.226462271005514e-17 1.7039964201975285e-17 7.226462271005514e-17 1.7039964201975285e-17 -0.8650625391901937 -0.5016640342795762
12649378666.666666 -0.8691482946682958 -0.4945515563366881 7.238927332789329e-17 1.6437061014285222e-17 7.238927332789329e-17 1.6437061014285222e-17 -0.8691479851791047 -0.49455210024723156
12649996000.0 -0.8731752681723117 -0.48740635105839414 7.250889864103127e-17 1.5833263186797124e-17 7.250889864103127e-17 1.5833263186797124e-17 -0.8731749631694575 -0.48740689746233784
12650613333.333334 -0.8771435027610311 -0.480228357725733 7.262349238980479e-17 1.5228612567393346e-17 7.262349238980479e-17 1.5228612567393346e-17 -0.877143202264593 -0.48022890658607875
12651230666.666666 -0.8810527314894412 -0.47301805920582096 7.273304866271203e-17 1.4623151046220666e-17 7.273304866271203e-17 1.4623151046220666e-17 -0.8810524355191913 -0.4730186104854079
12651848000.0 -0.8849026913819592 -0.4657759405388068 7.283756189668724e-17 1.4016920552775495e-17 7.283756189668724e-17 1.4016920552775495e-17 -0.8849023999573666 -0.46577649420031664
12652465333.333334 -0.8886931234500093 -0.4585024889054723 7.293702687734395e-17 1.3409963053027105e-17 7.293702687734395e-17 1.3409963053027105e-17 -0.8886928365902326 -0.45850304491142874
12653082666.666666 -0.8924237727094375 -0.45119819359445573 7.303143873919651e-17 1.2802320546520573e-17 7.303143873919651e-17 1.2802320546520573e-17 -0.8924234904333278 -0.45119875190722925
12653700000.0 -0.896094388197802 -0.443863545969088 7.312079296586222e-17 1.2194035063458036e-17 7.312079296586222e-17 1.2194035063458036e-17 -0.8960941105238996 -0.44386410655089714
12654317333.333334 -0.8997047229910705 -0.43649903943469087 7.320508539023007e-17 1.1585148661828635e-17 7.320508539023007e-17 1.1585148661828635e-17 -0.8997044499376045 -0.43649960224760537
12654934666.666666 -0.9032545342203601 -0.429105169405132 7.328431219461409e-17 1.0975703424487878e-17 7.328431219461409e-17 1.0975703424487878e-17 -0.9032542658052474 -0.4291057344110755
12655552000.0 -0.9067435830882739 -0.4216824332694981 7.335846991087914e-17 1.0365741456257214e-17 7.335846991087914e-17 1.0365741456257214e-17 -0.9067433193291179 -0.4216830004302504
12656169333.333334 -0.9101716348848555 -0.4142313303588656 7.342755542054015e-17 9.755304881041986e-18 7.342755542054015e-17 9.755304881041986e-18 -0.9101713757989437 -0.4142318996360649
12656786666.666666 -0.9135384590034983 -0.40675236191245373 7.349156595484263e-17 9.144435838909597e-18 7.349156595484263e-17 9.144435838909597e-18 -0.9135382046078032 -0.40675293326760004
12657404000.0 -0.9168438289563992 -0.3992460310440346 7.355049909481501e-17 8.533176483198971e-18 7.355049909481501e-17 8.533176483198971e-18 -0.9168435792675759 -0.39924660443849186
12658021333.333334 -0.9200875223898184 -0.3917128427080371 7.360435277129883e-17 7.921568977615638e-18 7.360435277129883e-17 7.921568977615638e-18 -0.9200872774242029 -0.39171341810303534
12658638666.666666 -0.9232693210989784 -0.38415330366570766 7.365312526495343e-17 7.309655493341901e-18 7.365312526495343e-17 7.309655493341901e-18 -0.9232690808725884 -0.38415388102234677
12659256000.0 -0.9263890110428584 -0.3765679224507603 7.369681520623919e-17 6.6974782061161364e-18 7.369681520623919e-17 6.6974782061161364e-18 -0.9263887755713901 -0.37656850173001144
12659873333.333334 -0.9294463823584873 -0.3689572093354011 7.37354215753737e-17 6.0850792933528184e-18 7.37354215753737e-17 6.0850792933528184e-18 -0.9294461516573176 -0.36895779049811056
12660490666.666666 -0.9324412293750696 -0.36132167629600453 7.376894370226561e-17 5.472500931244646e-18 7.376894370226561e-17 5.472500931244646e-18 -0.932441003459252 -0.3613222593028955
12661108000.0 -0.9353733506279216 -0.3536618369784073 7.37973812664251e-17 4.859785291844878e-18 7.37973812664251e-17 4.859785291844878e-18 -0.9353731295121854 -0.3536624217900826
12661725333.333334 -0.9382425488718784 -0.3459782066637251 7.382073429684818e-17 4.2469745402015095e-18 7.382073429684818e-17 4.2469745402015095e-18 -0.9382423325706292 -0.3459787932406699
12662342666.666666 -0.9410486310946777 -0.33827130223339874 7.383900317187953e-17 3.634110831440539e-18 7.383900317187953e-17 3.634110831440539e-18 -0.9410484196219964 -0.3382718905359837
12662960000.0 -0.9437914085298922 -0.33054164213455595 7.385218861904949e-17 3.0212363078846397e-18 7.385218861904949e-17 3.0212363078846397e-18 -0.9437912018995325 -0.33054223212303907
12663577333.333334 -0.9464706966696368 -0.3227897463451078 7.386029171488836e-17 2.4083930961612613e-18 7.386029171488836e-17 2.4083930961612613e-18 -0.9464704948950264 -0.3227903379796381
12664194666.666666 -0.9490863152769822 -0.3150161363387703 7.38633138847159e-17 1.7956233043150117e-18 7.38633138847159e-17 1.7956233043150117e-18 -0.9490861183712207 -0.3150167295793896
12664812000.0 -0.9516380883980796 -0.30722133504998483 7.386125690240788e-17 1.1829690189224615e-18 7.386125690240788e-17 1.1829690189224615e-18 -0.9516378963739374 -0.3072219298566308
12665429333.333334 -0.9541258443740042 -0.29940586683871184 7.385412289013756e-17 5.704723022095252e-19 7.385412289013756e-17 5.704723022095252e-19 -0.9541256572439216 -0.2994064631712209
12666046666.666666 -0.9565494158522604 -0.29157025745529347 7.384191431809512e-17 -4.182481082833142e-20 7.384191431809512e-17 -4.182481082833142e-20 -0.9565492336283489 -0.2915708552734033
12666664000.0 -0.9589086397981343 -0.2837150340047873 7.382463400418107e-17 -6.5388031530292e-19 7.382463400418107e-17 -6.5388031530292e-19 -0.9589084624921734 -0.28371563326813964
12667281333.333334 -0.9612033575055432 -0.2758407249118884 7.380228511367822e-17 -1.2656522393069515e-18 7.380228511367822e-17 -1.2656522393069515e-18 -0.9612031851289804 -0.27584132558003144
12667898666.666666 -0.9634334146077953 -0.2679478598851094 7.377487115889808e-17 -1.877098646782183e-18 7.377487115889808e-17 -1.877098646782183e-18 -0.9634332471717447 -0.267948461917501
12668516000.0 -0.9655986610879689 -0.26003696988114644 7.374239599880407e-17 -2.4881776403965522e-18 7.374239599880407e-17 -2.4881776403965522e-18 -0.9655984986032117 -0.26003757323715637
12669133333.333334 -0.9676989512889391 -0.2521085870694078 7.370486383861258e-17 -3.0988473643861175e-18 7.370486383861258e-17 -3.0988473643861175e-18 -0.9676987937659234 -0.25210919170832125
12669750666.666666 -0.9697341439232523 -0.24416324479594156 7.366227922936757e-17 -3.709066007434913e-18 7.366227922936757e-17 -3.709066007434913e-18 -0.9697339913720903 -0.24416385067696106
12670368000.0 -0.971704102082597 -0.2362014775476653 7.361464706749382e-17 -4.318791805521315e-18 7.361464706749382e-17 -4.318791805521315e-18 -0.9717039545130655 -0.2362020846299137
