! Parameters = {f0=12700.012000; bw=77.238000; Q=6100.000000; N=10; m_0_1=1.338634; m_1_1=1.314759; m_1_2=1.173446; m_2_2=1.314110; m_2_3=0.810409; m_2_8=0.003995; m_2_9=0.040699; m_3_3=1.312173; m_3_4=0.698938; m_3_7=0.004595; m_3_8=-0.092493; m_3_9=0.003995; m_4_4=1.309248; m_4_5=0.535273; m_4_6=0.008112; m_4_7=-0.113042; m_4_8=0.004595; m_5_5=1.309630; m_5_6=0.942628; m_5_7=0.008112; m_6_6=1.309629; m_6_7=0.535615; m_7_7=1.309262; m_7_8=0.699056; m_8_8=1.312171; m_8_9=0.810722; m_9_9=1.314105; m_9_10=1.174524; m_10_10=1.314749; m_10_11=1.339429}
!
! Created with skrf (http://scikit-rf.org).
# Hz S RI R 50.0 
!freq ReS11 ImS11 ReS21 ImS21 ReS12 ImS12 ReS22 ImS22
12607400000.0 -0.9898460710222324 -0.1421434334805987 1.4967011158807362e-16 -2.1914031879277576e-17 1.4967011158807362e-16 -2.1914031879277576e-17 -0.9898459707909233 -0.1421441314609161
12608017333.333334 -0.9915522250621109 -0.12970807597902392 1.4935190627802076e-16 -2.3799493856600933e-17 1.4935190627802076e-16 -2.3799493856600933e-17 -0.9915521336039507 -0.1297087751281953
12608634666.666666 -0.9931021609630077 -0.11725228309252024 1.4900996199849582e-16 -2.568041489114327e-17 1.4900996199849582e-16 -2.568041489114327e-17 -0.9931020782915451 -0.1172529833002862
12609252000.0 -0.994495634534056 -0.10477801721978193 1.4864434267411587e-16 -2.7556496261988877e-17 1.4864434267411587e-16 -2.7556496261988877e-17 -0.9944955606614561 -0.10477871837572723
12609869333.333334 -0.9957324262348924 -0.09228724366984666 1.4825511598638224e-16 -2.942744013826033e-17 1.4825511598638224e-16 -2.942744013826033e-17 -0.9957323611719316 -0.09228794566341739
12610486666.666666 -0.9968123412102169 -0.07978193035274553 1.4784235336139526e-16 -3.129294962636599e-17 1.4784235336139526e-16 -3.129294962636599e-17 -0.9968122849662822 -0.0797826330732666
12611104000.0 -0.9977352093205462 -0.06726404746883785 1.4740612995697313e-16 -3.3152728817078817e-17 1.4740612995697313e-16 -3.3152728817078817e-17 -0.9977351619036354 -0.06726475080553058
12611721333.333334 -0.9985008851689545 -0.054735567199201 1.4694652464919855e-16 -3.5006482832364497e-17 1.4694652464919855e-16 -3.5006482832364497e-17 -0.9985008465856742 -0.05473627104120052
12612338666.666666 -0.9991092481240297 -0.04219846339429177 1.4646362001835875e-16 -3.685391787210162e-17 1.4646362001835875e-16 -3.685391787210162e-17 -0.9991092183795939 -0.04219916763066436
12612956000.0 -0.9995602023388598 -0.029654711263194643 1.45957502334299e-16 -3.869474126061147e-17 1.45957502334299e-16 -3.869474126061147e-17 -0.9995601814370877 -0.029655415782955292
12613573333.333334 -0.9998536767661234 -0.01710628706259979 1.4542826154121429e-16 -4.0528661492906786e-17 1.4542826154121429e-16 -4.0528661492906786e-17 -0.9998536647094453 -0.017106991754729833
12614190666.666666 -0.9999896251693088 -0.0045551677851051854 1.4487599124182743e-16 -4.2355388280860066e-17 1.4487599124182743e-16 -4.2355388280860066e-17 -0.999989621958756 -0.00455587253856955
12614808000.0 -0.9999680261299746 0.007996669152029907 1.4430078868102183e-16 -4.417463259903504e-17 1.4430078868102183e-16 -4.417463259903504e-17 -0.999968031765189 0.007995964448265032
12615425333.333334 -0.9997888830511373 0.02054724621848178 1.437027547288775e-16 -4.5986106730381484e-17 1.437027547288775e-16 -4.5986106730381484e-17 -0.9997888975303653 0.020546541675431535
12616042666.666666 -0.9994522241567317 0.03309458608242047 1.4308199386313334e-16 -4.7789524311702856e-17 1.4308199386313334e-16 -4.7789524311702856e-17 -0.9994522474768261 0.03309388181106379
12616660000.0 -0.998958102487161 0.04563671192203646 1.424386141511052e-16 -4.9584600378807956e-17 1.424386141511052e-16 -4.9584600378807956e-17 -0.9989581346435839 0.04563600803329866
12617277333.333334 -0.9983065958909425 0.05817164773704398 1.4177272723099682e-16 -5.13710514115523e-17 1.4177272723099682e-16 -5.13710514115523e-17 -0.9983066368777627 0.05817094434177922
12617894666.666666 -0.997497807012455 0.07069741865971425 1.4108444829270466e-16 -5.3148595378460683e-17 1.4108444829270466e-16 -5.3148595378460683e-17 -0.9974978568223521 0.07069671586868811
12618512000.0 -0.9965318632757324 0.08321205126663817 1.403738960579892e-16 -5.4916951781304446e-17 1.403738960579892e-16 -5.4916951781304446e-17 -0.9965319218999955 0.08321134919051017
12619129333.333334 -0.9954089168644359 0.09571357388884316 1.3964119276016627e-16 -5.667584169920746e-17 1.3964119276016627e-16 -5.667584169920746e-17 -0.9954089842929678 0.09571287263814945
12619746666.666666 -0.9941291446978383 0.10820001692305176 1.3888646412318497e-16 -5.842498783264308e-17 1.3888646412318497e-16 -5.842498783264308e-17 -0.9941292209191549 0.10819931660818762
12620364000.0 -0.9926927484029687 0.12066941314170711 1.3810983934018653e-16 -6.016411454707471e-17 1.3810983934018653e-16 -6.016411454707471e-17 -0.9926928334042021 0.12066871387290956
12620981333.333334 -0.9910999542828436 0.1331197980029648 1.3731145105153617e-16 -6.189294791627497e-17 1.3731145105153617e-16 -6.189294791627497e-17 -0.9911000480497428 0.1331190998902952
12621598666.666666 -0.9893510132808011 0.1455492099602603 1.364914353222448e-16 -6.361121576551197e-17 1.364914353222448e-16 -6.361121576551197e-17 -0.9893511157977375 0.1455485131135873
12622216000.0 -0.9874462009410044 0.15795569077112462 1.3564993161893756e-16 -6.531864771424267e-17 1.3564993161893756e-16 -6.531864771424267e-17 -0.9874463121909707 0.15795499530010648
12622833333.333334 -0.9853858173649732 0.1703372858060403 1.347870827862116e-16 -6.701497521867497e-17 1.347870827862116e-16 -6.701497521867497e-17 -0.9853859373295898 0.17033659182010805
12623450666.666666 -0.9831701871643425 0.182692044356167 1.3390303502254398e-16 -6.869993161384962e-17 1.3390303502254398e-16 -6.869993161384962e-17 -0.9831703158238585 0.18269135196450706
12624068000.0 -0.980799659409709 0.19501801994073029 1.3299793785557966e-16 -7.037325215559786e-17 1.3299793785557966e-16 -7.037325215559786e-17 -0.9807997967430037 0.19501732925226684
12624685333.333334 -0.9782746075756219 0.2073132706137425 1.3207194411697192e-16 -7.203467406202177e-17 1.3207194411697192e-16 -7.203467406202177e-17 -0.9782747535602121 0.20731258173712117
12625302666.666666 -0.9755954294818048 0.21957585926967776 1.311252099166894e-16 -7.368393655468534e-17 1.311252099166894e-16 -7.368393655468534e-17 -0.975595584093846 0.2195751723132479
12625920000.0 -0.9727625472303454 0.23180385394927155 1.3015789461676949e-16 -7.532078089953494e-17 1.3015789461676949e-16 -7.532078089953494e-17 -0.9727627104446356 0.2318031690210694
12626537333.333334 -0.9697764071393515 0.24399532814317726 1.2917016080461883e-16 -7.694495044738169e-17 1.2917016080461883e-16 -7.694495044738169e-17 -0.969776578929337 0.24399464535090903
12627154666.666666 -0.966637479672566 0.2561483610958203 1.2816217426578778e-16 -7.855619067407192e-17 1.2816217426578778e-16 -7.855619067407192e-17 -0.9666376600103453 0.25614768054684556
12627772000.0 -0.9633462593651563 0.2682610381083407 1.271341039561998e-16 -8.015424922037513e-17 1.271341039561998e-16 -8.015424922037513e-17 -0.9633464482214832 0.2682603599096547
12628389333.333334 -0.9599032647460031 0.2803314508394823 1.2608612197397554e-16 -8.173887593136575e-17 1.2608612197397554e-16 -8.173887593136575e-17 -0.9599034620902913 0.2803307750976995
12629006666.666666 -0.956309038255781 0.2923576976070728 1.2501840353067939e-16 -8.330982289557425e-17 1.2501840353067939e-16 -8.330982289557425e-17 -0.9563092440561112 0.2923570244284103
12629624000.0 -0.952564146161666 0.30433788368702935 1.2393112692213059e-16 -8.486684448368583e-17 1.2393112692213059e-16 -8.486684448368583e-17 -0.9525643603847904 0.30433721317729034
12630241333.333334 -0.9486691784680308 0.31627012161219986 1.2282447349872944e-16 -8.640969738686708e-17 1.2282447349872944e-16 -8.640969738686708e-17 -0.9486694010793765 0.31626945387675637
12630858666.666666 -0.9446247488235687 0.3281525314694589 1.2169862763528803e-16 -8.793814065473528e-17 1.2169862763528803e-16 -8.793814065473528e-17 -0.9446249797872452 0.3281518666132357
12631476000.0 -0.9404314944245129 0.33998324119621126 1.2055377670038358e-16 -8.945193573294239e-17 1.2055377670038358e-16 -8.945193573294239e-17 -0.9404317337033186 0.3399825793236696
12632093333.333334 -0.9360900759142974 0.3517603868751717 1.1939011102528627e-16 -9.095084650030669e-17 1.1939011102528627e-16 -9.095084650030669e-17 -0.9360903234697219 0.3517597280902919
12632710666.666666 -0.9316011772795296 0.36348211302786165 1.182078238724119e-16 -9.243463930556293e-17 1.182078238724119e-16 -9.243463930556293e-17 -0.9316014330717652 0.36348145743412824
12633328000.0 -0.9269655057421179 0.3751465729072613 1.170071114032401e-16 -9.390308300380419e-17 1.170071114032401e-16 -9.390308300380419e-17 -0.9269657697300623 0.3751459206076458
12633945333.333334 -0.9221837916479245 0.38675192878854775 1.157881726459328e-16 -9.535594899231363e-17 1.157881726459328e-16 -9.535594899231363e-17 -0.9221840637891868 0.3867512798854921
12634562666.666666 -0.9172567883516782 0.3982963522586798 1.1455120946238334e-16 -9.679301124613847e-17 1.1455120946238334e-16 -9.679301124613847e-17 -0.917257068602588 0.39829570685408106
12635180000.0 -0.9121852720982861 0.4097780245044629 1.1329642651485545e-16 -9.821404635319668e-17 1.1329642651485545e-16 -9.821404635319668e-17 -0.9121855604139011 0.4097773826996576
12635797333.333334 -0.9069700419005164 0.4211951365991548 1.120240312322327e-16 -9.961883354890125e-17 1.120240312322327e-16 -9.961883354890125e-17 -0.9069703382346265 0.4211944984949019
12636414666.666666 -0.9016119194132027 0.432545889787251 1.1073423377578413e-16 -1.0100715475041291e-16 1.1073423377578413e-16 -1.0100715475041291e-16 -0.9016122237183406 0.43254525548371725
12637032000.0 -0.8961117488036583 0.44382849576818967 1.094272470045404e-16 -1.0237879459041258e-16 1.094272470045404e-16 -1.0237879459041258e-16 -0.8961120610311035 0.4438278653649323
12637649333.333334 -0.8904703966187667 0.4550411769778879 1.0810328644021777e-16 -1.037335404504644e-16 1.0810328644021777e-16 -1.037335404504644e-16 -0.8904707167185572 0.4550405505738407
12638266666.666666 -0.8846887516484371 0.4661821668688474 1.0676257023179502e-16 -1.0507118249385876e-16 1.0676257023179502e-16 -1.0507118249385876e-16 -0.8846890795693753 0.4661815445623046
12638884000.0 -0.8787677247855783 0.4772497101884742 1.0540531911959655e-16 -1.0639151369809067e-16 1.0540531911959655e-16 -1.0639151369809067e-16 -0.8787680604752387 0.47724909207707433
12639501333.333334 -0.8727082488825559 0.48824206325566355 1.0403175639906387e-16 -1.0769432988678372e-16 1.0403175639906387e-16 -1.0769432988678372e-16 -0.872708592287295 0.48824144943637515
12640118666.666666 -0.8665112786043647 0.4991574942352699 1.0264210788408122e-16 -1.0897942976120341e-16 1.0264210788408122e-16 -1.0897942976120341e-16 -0.8665116296693286 0.49915688480437564
12640736000.0 -0.8601777902779145 0.5099942834114994 1.0123660186987361e-16 -1.1024661493133093e-16 1.0123660186987361e-16 -1.1024661493133093e-16 -0.8601781489470479 0.5099936784645815
12641353333.333334 -0.8537087817386032 0.5207507234581588 9.981546909567318e-17 -1.1149568994632193e-16 9.981546909567318e-17 -1.1149568994632193e-16 -0.853709147954658 0.5207501230900832
12641970666.666666 -0.8471052721727974 0.5314251197081827 9.837894270682937e-17 -1.1272646232465223e-16 9.837894270682937e-17 -1.1272646232465223e-16 -0.8471056458773428 0.5314245240130856
12642588000.0 -0.840368301957404 0.5420157904203846 9.692725821664283e-17 -1.1393874258369002e-16 9.692725821664283e-17 -1.1393874258369002e-16 -0.8403686830908349 0.5420151994916561
12643205333.333334 -0.8334989324959309 0.5525210670444605 9.546065346786149e-17 -1.1513234426875578e-16 9.546065346786149e-17 -1.1513234426875578e-16 -0.8334993209974777 0.5525204809747308
12643822666.666666 -0.8264982460512621 0.5629392944838667 9.397936859373066e-17 -1.1630708398176545e-16 9.397936859373066e-17 -1.1630708398176545e-16 -0.8264986418590003 0.5629387133649919
12644440000.0 -0.8193673455751167 0.5732688313566265 9.24836459787889e-17 -1.1746278140929129e-16 9.24836459787889e-17 -1.1746278140929129e-16 -0.8193677486259774 0.5732682552796738
12645057333.333334 -0.8121073545344122 0.5835080502537432 9.097373021924901e-17 -1.1859925935018035e-16 9.097373021924901e-17 -1.1859925935018035e-16 -0.8121077647641906 0.5835074793089758
12645674666.666666 -0.8047194167340634 0.5936553379958736 8.944986808307939e-17 -1.1971634374263112e-16 8.944986808307939e-17 -1.1971634374263112e-16 -0.8047198340774309 0.5936547722727383
12646292000.0 -0.7972046961368777 0.6037090958873438 8.791230846971451e-17 -1.2081386369079015e-16 8.791230846971451e-17 -1.2081386369079015e-16 -0.7972051205273911 0.603708535474456
12646909333.333334 -0.7895643766802751 0.6136677399678873 8.636130236950865e-17 -1.218916514907819e-16 8.636130236950865e-17 -1.218916514907819e-16 -0.7895648080503873 0.6136671849530165
12647526666.666666 -0.7817996620895907 0.6235297012624235 8.479710282281009e-17 -1.2294954265626412e-16 8.479710282281009e-17 -1.2294954265626412e-16 -0.781800100370662 0.6235291517324808
12648144000.0 -0.7739117756884256 0.6332934260282452 8.321996487873042e-17 -1.2398737594345373e-16 8.321996487873042e-17 -1.2398737594345373e-16 -0.7739122208107346 0.6332928820692697
12648761333.333334 -0.7659019602060524 0.6429573759996308 8.163014555362952e-17 -1.2500499337561e-16 8.163014555362952e-17 -1.2500499337561e-16 -0.7659024120988059 0.6429568376967743
12649378666.666666 -0.7577714775816304 0.6525200286302006 8.00279037893463e-17 -1.2600224026695994e-16 8.00279037893463e-17 -1.2600224026695994e-16 -0.7577719361729756 0.6525194960677156
12649996000.0 -0.7495216087652045 0.6619798773330092 7.841350041099551e-17 -1.26978965246181e-16 7.841350041099551e-17 -1.26978965246181e-16 -0.7495220739822402 0.6619793505942364
12650613333.333334 -0.7411536535159993 0.6713354317177744 7.678719808465085e-17 -1.279350202792337e-16 7.678719808465085e-17 -1.279350202792337e-16 -0.7411541252847892 0.6713349108851294
12651230666.666666 -0.7326689301978018 0.6805852178255231 7.514926127464503e-17 -1.2887026069172372e-16 7.514926127464503e-17 -1.2887026069172372e-16 -0.7326694084433821 0.680584702980481
12651848000.0 -0.724068775570826 0.6897277783612676 7.349995620061086e-17 -1.297845451907053e-16 7.349995620061086e-17 -1.297845451907053e-16 -0.7240692602172224 0.6897272695843548
12652465333.333334 -0.7153545445816532 0.6987616729230223 7.18395507942826e-17 -1.3067773588592585e-16 7.18395507942826e-17 -1.3067773588592585e-16 -0.7153550355518893 0.6987611702937999
12653082666.666666 -0.7065276101493321 0.7076854782291913 7.016831465608467e-17 -1.3154969831049366e-16 7.016831465608467e-17 -1.3154969831049366e-16 -0.7065281073654424 0.707684981826244
12653700000.0 -0.6975893629492712 0.7164977883425991 6.848651901132255e-17 -1.3240030144107304e-16 6.848651901132255e-17 -1.3240030144107304e-16 -0.6975898663323143 0.7164972982435238
12654317333.333334 -0.68854121119406 0.7251972148920752 6.679443666631688e-17 -1.3322941771741934e-16 6.679443666631688e-17 -1.3322941771741934e-16 -0.688541720664131 0.7251967311734681
12654934666.666666 -0.6793845804118119 0.7337823872909949 6.509234196415346e-17 -1.3403692306143444e-16 6.509234196415346e-17 -1.3403692306143444e-16 -0.6793850958880545 0.7337819100284394
12655552000.0 -0.6701209132211194 0.7422519529536435 6.338051074027873e-17 -1.3482269689561673e-16 6.338051074027873e-17 -1.3482269689561673e-16 -0.6701214346217388 0.7422514822216985
12656169333.333334 -0.660751669104351 0.7506045775077705 6.165922027791485e-17 -1.3558662216093148e-16 6.165922027791485e-17 -1.3558662216093148e-16 -0.6607521963466271 0.7506041133799585
12656786666.666666 -0.6512783241772543 0.758838945005245 5.992874926310587e-17 -1.363285853341807e-16 5.992874926310587e-17 -1.363285853341807e-16 -0.6512788571775543 0.7588384875540408
12657404000.0 -0.6417023709566008 0.7669537581291864 5.818937773975013e-17 -1.3704847644471385e-16 5.818937773975013e-17 -1.3704847644471385e-16 -0.6417029096303944 0.7669533074260073
12658021333.333334 -0.6320253181249601 0.7749477383984347 5.644138706426373e-17 -1.3774618909064142e-16 5.644138706426373e-17 -1.3774618909064142e-16 -0.6320258623868302 0.7749472945136261
12658638666.666666 -0.6222486902932253 0.7828196263687901 5.468505986023078e-17 -1.3842162045439546e-16 5.468505986023078e-17 -1.3842162045439546e-16 -0.6222492400568831 0.7828191893716178
12659256000.0 -0.6123740277599712 0.7905681818317978 5.29206799726264e-17 -1.3907467131781118e-16 5.29206799726264e-17 -1.3907467131781118e-16 -0.6123745829382706 0.7905677517904363
12659873333.333334 -0.6024028862691805 0.7981921840098196 5.114853242213704e-17 -1.3970524607651699e-16 5.114853242213704e-17 -1.3970524607651699e-16 -0.6024034467741289 0.7981917609913386
12660490666.666666 -0.5923368367650936 0.8056904317484026 4.936890335911493e-17 -1.4031325275382153e-16 4.936890335911493e-17 -1.4031325275382153e-16 -0.5923374025078697 0.8056900158187612
12661108000.0 -0.5821774651444848 0.8130617437056966 4.7582080017415956e-17 -1.4089860301399348e-16 4.7582080017415956e-17 -1.4089860301399348e-16 -0.5821780360354492 0.8130613349297289
12661725333.333334 -0.5719263720069832 0.8203049585384304 4.578835066814746e-17 -1.414612121749356e-16 4.578835066814746e-17 -1.414612121749356e-16 -0.5719269479556953 0.8203045569798383
12662342666.666666 -0.5615851724028562 0.8274189350849184 4.3988004573187827e-17 -1.4200099922029617e-16 4.3988004573187827e-17 -1.4200099922029617e-16 -0.5615857533180875 0.8274185408062605
12662960000.0 -0.5511554955785125 0.8344025525448787 4.218133193861449e-17 -1.4251788681097514e-16 4.218133193861449e-17 -1.4251788681097514e-16 -0.551156081368261 0.8344021656075614
12663577333.333334 -0.5406389847200054 0.841254710655891 4.036862386795055e-17 -1.430118012960527e-16 4.036862386795055e-17 -1.430118012960527e-16 -0.5406395752915092 0.8412543311201566
12664194666.666666 -0.5300372966938649 0.8479743298669279 3.855017231537537e-17 -1.4348267272309808e-16 3.855017231537537e-17 -1.4348267272309808e-16 -0.5300378919536184 0.8479739577918471
12664812000.0 -0.5193521017862507 0.8545603515083123 3.6726270038696334e-17 -1.4393043484792034e-16 3.6726270038696334e-17 -1.4393043484792034e-16 -0.5193527016400189 0.8545599869517755
12665429333.333334 -0.5085850834397024 0.8610117379585698 3.4897210552331786e-17 -1.4435502514368645e-16 3.4897210552331786e-17 -1.4435502514368645e-16 -0.5085856877925363 0.8610113809772777
12666046666.666666 -0.4977379379881616 0.8673274728077618 3.306328808011089e-17 -1.4475638480946743e-16 3.306328808011089e-17 -1.4475638480946743e-16 -0.4977385467444116 0.8673271234572147
12666664000.0 -0.48681237438917485 0.8735065610179356 3.1224797507977576e-17 -1.4513445877818224e-16 3.1224797507977576e-17 -1.4513445877818224e-16 -0.4868129874525076 0.8735062193524269
12667281333.333334 -0.4758101139553372 0.8795480290794899 2.9382034336681716e-17 -1.4548919572392734e-16 2.9382034336681716e-17 -1.4548919572392734e-16 -0.4758107312287504 0.879547695152098
12667898666.666666 -0.4647328900826106 0.8854509251648394 2.7535294634316396e-17 -1.4582054806872204e-16 2.7535294634316396e-17 -1.4582054806872204e-16 -0.46473351146844766 0.885450599027417
12668516000.0 -0.45358244797722297 0.8912143192783633 2.5684874988782675e-17 -1.4612847198865146e-16 2.5684874988782675e-17 -1.4612847198865146e-16 -0.4535830733771891 0.8912140009815311
12669133333.333334 -0.44236054438116607 0.8968373034026869 2.3831072460264782e-17 -1.4641292741939413e-16 2.3831072460264782e-17 -1.4641292741939413e-16 -0.4423611736963445 0.8968369929958276
12669750666.666666 -0.4310689472949215 0.9023189916420098 2.197418453357365e-17 -1.4667387806116105e-16 2.197418453357365e-17 -1.4667387806116105e-16 -0.4310695804257869 0.9023186891732552
