! Parameters = {f0=12700.012000; bw=77.238000; Q=6100.000000; N=10; m_0_1=1.263959; m_1_1=0.194639; m_1_2=1.098771; m_2_2=0.193990; m_2_3=0.735734; m_2_8=0.000262; m_2_9=0.036966; m_3_3=0.192053; m_3_4=0.624263; m_3_7=0.000862; m_3_8=-0.096226; m_3_9=0.000262; m_4_4=0.189128; m_4_5=0.460598; m_4_6=0.004379; m_4_7=-0.116775; m_4_8=0.000862; m_5_5=0.189510; m_5_6=0.867953; m_5_7=0.004379; m_6_6=0.189509; m_6_7=0.460940; m_7_7=0.189142; m_7_8=0.624381; m_8_8=0.192051; m_8_9=0.736047; m_9_9=0.193985; m_9_10=1.099849; m_10_10=0.194629; m_10_11=1.264754}
!
! Created with skrf (http://scikit-rf.org).
# Hz S RI R 50.0 
!freq ReS11 ImS11 ReS21 ImS21 ReS12 ImS12 ReS22 ImS22
12607400000.0 -0.2924097424653312 -0.9562931258307692 5.933251375103004e-17 8.962811232456612e-17 5.933251375103004e-17 8.962811232456612e-17 -0.29240910563168226 -0.9562933205578215
12608017333.333334 -0.30228615986691204 -0.9532172247461432 6.025256011248225e-17 8.898679682174898e-17 6.025256011248225e-17 8.898679682174898e-17 -0.30228552511270623 -0.9532174260404394
12608634666.666666 -0.31213023119957867 -0.9500393248550938 6.116568737948883e-17 8.8336045821193e-17 6.116568737948883e-17 8.8336045821193e-17 -0.3121295985925305 -0.950039532694451
12609252000.0 -0.321940903100588 -0.9467597662081987 6.20717988809404e-17 8.767593384314081e-17 6.20717988809404e-17 8.767593384314081e-17 -0.3219402727081758 -0.9467599805697378
12609869333.333334 -0.33171712578112467 -0.9433788997340016 6.297079874701375e-17 8.700653639728296e-17 6.297079874701375e-17 8.700653639728296e-17 -0.3317164976705834 -0.9433791205941473
12610486666.666666 -0.3414578531384717 -0.9398970872015137 6.386259191928641e-17 8.632792997415749e-17 6.386259191928641e-17 8.632792997415749e-17 -0.3414572273767859 -0.9398973145359989
12611104000.0 -0.351162042868352 -0.9363147011813665 6.474708416078531e-17 8.564019203642552e-17 6.474708416078531e-17 8.564019203642552e-17 -0.3511614195222474 -0.9363149349652311
12611721333.333334 -0.3608286565759214 -0.9326321250061252 6.562418206588359e-17 8.494340101008833e-17 6.562418206588359e-17 8.494340101008833e-17 -0.36082803571185956 -0.9326323652137243
12612338666.666666 -0.3704566598872599 -0.9288497527291483 6.649379307015975e-17 8.423763627556169e-17 6.649379307015975e-17 8.423763627556169e-17 -0.3704560415714301 -0.9288499993341508
12612956000.0 -0.38004502256002476 -0.9249679890824207 6.735582546014777e-17 8.352297815865701e-17 6.735582546014777e-17 8.352297815865701e-17 -0.3800444068583365 -0.9249682420578125
12613573333.333334 -0.389592718593453 -0.9209872494333393 6.821018838294705e-17 8.279950792150152e-17 6.821018838294705e-17 8.279950792150152e-17 -0.389592105571531 -0.9209875087514304
12614190666.666666 -0.39909872633838933 -0.9169079597401807 6.905679185580289e-17 8.20673077533031e-17 6.905679185580289e-17 8.20673077533031e-17 -0.3990981160615641 -0.9169082253726026
12614808000.0 -0.40856202860657687 -0.9127305565065209 6.989554677553948e-17 8.132646076105939e-17 6.989554677553948e-17 8.132646076105939e-17 -0.408561421139879 -0.9127308284242331
12615425333.333334 -0.41798161277937224 -0.9084554867345886 7.072636492792126e-17 8.057705096014654e-17 7.072636492792126e-17 8.057705096014654e-17 -0.4179810081875257 -0.9084557649078815
12616042666.666666 -0.4273564709162061 -0.9040832078773897 7.154915899688859e-17 7.981916326483505e-17 7.154915899688859e-17 7.981916326483505e-17 -0.42735586926361996 -0.9040834922758855
12616660000.0 -0.43668559986240796 -0.8996141877897624 7.236384257371509e-17 7.905288347869123e-17 7.236384257371509e-17 7.905288347869123e-17 -0.4366850012131716 -0.8996144783824221
12617277333.333334 -0.4459680013565785 -0.8950489046783111 7.317033016605352e-17 7.827829828489407e-17 7.317033016605352e-17 7.827829828489407e-17 -0.44596740577445293 -0.8950492014334347
12617894666.666666 -0.4552026821372523 -0.8903878470503046 7.396853720686546e-17 7.749549523647273e-17 7.396853720686546e-17 7.749549523647273e-17 -0.4552020896856648 -0.8903881499355373
12618512000.0 -0.46438865404956486 -0.8856315136612177 7.475838006329246e-17 7.670456274640875e-17 7.475838006329246e-17 7.670456274640875e-17 -0.46438806479160066 -0.8856318226435502
12619129333.333334 -0.47352493415048025 -0.8807804134616126 7.553977604534576e-17 7.590559007772266e-17 7.553977604534576e-17 7.590559007772266e-17 -0.47352434814887767 -0.8807807285073881
12619746666.666666 -0.48261054481432797 -0.8758350655425046 7.631264341456466e-17 7.509866733340034e-17 7.631264341456466e-17 7.509866733340034e-17 -0.4826099621314703 -0.8758353866174199
12620364000.0 -0.4916445138373854 -0.8707959990798232 7.707690139253431e-17 7.4283885446263e-17 7.707690139253431e-17 7.4283885446263e-17 -0.4916439345352946 -0.8707963261489335
12620981333.333334 -0.5006258745416836 -0.8656637532779113 7.783247016927763e-17 7.346133616877122e-17 7.783247016927763e-17 7.346133616877122e-17 -0.5006252986820142 -0.8656640863056344
12621598666.666666 -0.5095536658786731 -0.8604388773117077 7.857927091158918e-17 7.263111206269123e-17 7.857927091158918e-17 7.263111206269123e-17 -0.5095530935227051 -0.8604392162618266
12622216000.0 -0.5184269325320319 -0.8551219302679901 7.93172257712062e-17 7.179330648873158e-17 7.93172257712062e-17 7.179330648873158e-17 -0.5184263637406645 -0.8551222751036585
12622833333.333334 -0.5272447250197929 -0.8497134810856124 8.004625789290614e-17 7.094801359606044e-17 8.004625789290614e-17 7.094801359606044e-17 -0.5272441598535377 -0.8497138317693567
12623450666.666666 -0.536006099795942 -0.8442141084946215 8.076629142246906e-17 7.009532831176465e-17 8.076629142246906e-17 7.009532831176465e-17 -0.5360055383149172 -0.8442144649883472
12624068000.0 -0.5447101193514812 -0.8386244009542767 8.14772515145474e-17 6.92353463302091e-17 8.14772515145474e-17 6.92353463302091e-17 -0.5447095616154045 -0.838624763219271
12624685333.333334 -0.5533558523147688 -0.8329449565900625 8.217906434042374e-17 6.83681641023132e-17 8.217906434042374e-17 6.83681641023132e-17 -0.5533552983829514 -0.8329453245869985
12625302666.666666 -0.5619423735509164 -0.8271763831298543 8.287165709561417e-17 6.749387882479858e-17 8.287165709561417e-17 6.749387882479858e-17 -0.5619418234822569 -0.8271767568187962
12625920000.0 -0.5704687642612369 -0.8213192978385954 8.355495800742562e-17 6.661258842927826e-17 8.355495800742562e-17 6.661258842927826e-17 -0.5704682181142143 -0.8213196771790015
12626537333.333334 -0.5789341120810846 -0.8153743274525586 8.422889634233208e-17 6.572439157134982e-17 8.422889634233208e-17 6.572439157134982e-17 -0.578933569913753 -0.8153747124032872
12627154666.666666 -0.5873375111777218 -0.8093421081121288 8.489340241327399e-17 6.482938761956729e-17 8.489340241327399e-17 6.482938761956729e-17 -0.587336973047704 -0.8093424986314423
12627772000.0 -0.5956780623473611 -0.8032232852936473 8.554840758684823e-17 6.392767664432662e-17 8.554840758684823e-17 6.392767664432662e-17 -0.5956775283118417 -0.8032236813392152
12628389333.333334 -0.6039548731110363 -0.7970185137405891 8.619384429032726e-17 6.30193594067525e-17 8.619384429032726e-17 6.30193594067525e-17 -0.6039543432267571 -0.7970189152694951
12629006666.666666 -0.6121670578105415 -0.7907284573931876 8.682964601863034e-17 6.210453734741951e-17 8.682964601863034e-17 6.210453734741951e-17 -0.6121665321337938 -0.790728864361932
12629624000.0 -0.6203137377028093 -0.7843537893176753 8.745574734111837e-17 6.118331257508162e-17 8.745574734111837e-17 6.118331257508162e-17 -0.6203132162894286 -0.7843542016821804
12630241333.333334 -0.6283940410541686 -0.7778951916340895 8.807208390830993e-17 6.025578785527713e-17 8.807208390830993e-17 6.025578785527713e-17 -0.6283935239595295 -0.7778956093497056
12630858666.666666 -0.63640710323347 -0.7713533554434117 8.867859245843925e-17 5.932206659892126e-17 8.867859245843925e-17 5.932206659892126e-17 -0.6364065905124788 -0.7713537784649193
12631476000.0 -0.6443520668048445 -0.7647289807534112 8.92752108239386e-17 5.838225285076494e-17 8.92752108239386e-17 5.838225285076494e-17 -0.6443515585119354 -0.7647294090350301
12632093333.333334 -0.652228081619171 -0.7580227764039826 8.986187793775143e-17 5.743645127786318e-17 8.986187793775143e-17 5.743645127786318e-17 -0.6522275778082977 -0.7580232098993716
12632710666.666666 -0.6600343049051552 -0.7512354599912031 9.043853383955573e-17 5.648476715792864e-17 9.043853383955573e-17 5.648476715792864e-17 -0.6600338056297878 -0.7512358986534694
12633328000.0 -0.6677699013597037 -0.7443677577903794 9.100511968186122e-17 5.552730636762875e-17 9.100511968186122e-17 5.552730636762875e-17 -0.6677694066728209 -0.7443682015720816
12633945333.333334 -0.6754340432369825 -0.7374204046786119 9.156157773596893e-17 5.456417537084531e-17 9.156157773596893e-17 5.456417537084531e-17 -0.6754335531910669 -0.7374208535317647
12634562666.666666 -0.6830259104371826 -0.7303941440559903 9.210785139781308e-17 5.359548120686463e-17 9.210785139781308e-17 5.359548120686463e-17 -0.6830254250842159 -0.7303945979320715
12635180000.0 -0.6905446905942336 -0.7232897277660865 9.26438851936846e-17 5.262133147849919e-17 9.26438851936846e-17 5.262133147849919e-17 -0.6905442099856893 -0.7232901866160403
12635797333.333334 -0.6979895791627287 -0.7161079160155007 9.316962478582462e-17 5.164183434016042e-17 9.316962478582462e-17 5.164183434016042e-17 -0.697989103349568 -0.7161083797897442
12636414666.666666 -0.7053597795040153 -0.7088494772925165 9.368501697788518e-17 5.065709848588953e-17 9.368501697788518e-17 5.065709848588953e-17 -0.7053593085366815 -0.708849945940945
12637032000.0 -0.7126545029714396 -0.7015151882848697 9.419000972028521e-17 4.9667233137294354e-17 9.419000972028521e-17 4.9667233137294354e-17 -0.7126540368998533 -0.7015156617568626
12637649333.333334 -0.7198729689947365 -0.6941058337966396 9.468455211541059e-17 4.867234803148664e-17 9.468455211541059e-17 4.867234803148664e-17 -0.7198725078682886 -0.694106312041064
12638266666.666666 -0.7270144051635534 -0.68662220666427 9.516859442270939e-17 4.7672553408928465e-17 9.516859442270939e-17 4.7672553408928465e-17 -0.7270139490311003 -0.686622689629487
12638884000.0 -0.734078047310099 -0.6790651076717295 9.564208806364786e-17 4.666796000124667e-17 9.564208806364786e-17 4.666796000124667e-17 -0.7340775962199599 -0.6790655953056018
12639501333.333334 -0.7410631395909192 -0.6714353454648302 9.610498562654889e-17 4.565867901898034e-17 9.610498562654889e-17 4.565867901898034e-17 -0.7410626935908674 -0.6714358377147249
12640118666.666666 -0.7479689345677322 -0.6637337364647347 9.655724087127838e-17 4.4644822139326844e-17 9.655724087127838e-17 4.4644822139326844e-17 -0.7479684937049924 -0.6637342332775301
12640736000.0 -0.7547946932875994 -0.6559611047803859 9.699880873384387e-17 4.362650149375443e-17 9.699880873384387e-17 4.362650149375443e-17 -0.7547942576088423 -0.6559616061024781
12641353333.333334 -0.7615396853616203 -0.6481182821207485 9.7429645330807e-17 4.260382965569413e-17 9.7429645330807e-17 4.260382965569413e-17 -0.7615392549129567 -0.6481187878980555
12641970666.666666 -0.7682031890434626 -0.6402061077053858 9.784970796362219e-17 4.1576919628061274e-17 9.784970796362219e-17 4.1576919628061274e-17 -0.7682027638704397 -0.6402066178833546
12642588000.0 -0.7747844913064057 -0.632225428174872 9.825895512280629e-17 4.054588483082378e-17 9.825895512280629e-17 4.054588483082378e-17 -0.7747840714540014 -0.632225942698484
12643205333.333334 -0.7812828879196387 -0.6241770975002001 9.865734649199604e-17 3.951083908848558e-17 9.865734649199604e-17 3.951083908848558e-17 -0.7812824734322581 -0.6241776163139777
12643822666.666666 -0.7876976835237611 -0.6160619768912262 9.904484295186582e-17 3.847189661755016e-17 9.904484295186582e-17 3.847189661755016e-17 -0.7876972744452297 -0.616062499939237
12644440000.0 -0.7940281917049904 -0.6078809347047567 9.942140658391531e-17 3.7429172013943976e-17 9.942140658391531e-17 3.7429172013943976e-17 -0.7940277880785513 -0.6078814619306213
12645057333.333334 -0.8002737350687029 -0.599634846351522 9.978700067412608e-17 3.6382780240400465e-17 9.978700067412608e-17 3.6382780240400465e-17 -0.8002733369370115 -0.5996353776984196
12645674666.666666 -0.8064336453119026 -0.5913245942025267 1.0014158971648477e-16 3.533283661381209e-17 1.0014158971648477e-16 3.533283661381209e-17 -0.8064332527170226 -0.591325129613201
12646292000.0 -0.8125072632948488 -0.5829510674944696 1.0048513941638488e-16 3.427945679251434e-17 1.0048513941638488e-16 3.427945679251434e-17 -0.8125068762782469 -0.5829516069112354
12646909333.333334 -0.8184939391113522 -0.574515162234913 1.0081761669386652e-16 3.3222756763623364e-17 1.0081761669386652e-16 3.3222756763623364e-17 -0.8184935577138948 -0.5745157055996619
12647526666.666666 -0.8243930321585522 -0.5660177811060836 1.0113898968675469e-16 3.216285283024841e-17 1.0113898968675469e-16 3.216285283024841e-17 -0.8243926564205 -0.5660183283602903
12648144000.0 -0.8302039112053468 -0.557459833368441 1.0144922775364712e-16 3.1099861598723503e-17 1.0144922775364712e-16 3.1099861598723503e-17 -0.8302035411663514 -0.5574603844531701
12648761333.333334 -0.8359259544599384 -0.5488422347633845 1.0174830147677167e-16 3.003389996580262e-17 1.0174830147677167e-16 3.003389996580262e-17 -0.8359255901590374 -0.548842789619296
12649378666.666666 -0.8415585496363546 -0.5401659074152875 1.020361826647038e-16 2.8965085105845476e-17 1.020361826647038e-16 2.8965085105845476e-17 -0.8415581911119677 -0.5401664659826441
12649996000.0 -0.8471010940200272 -0.5314317797327324 1.0231284435496278e-16 2.789353445793489e-17 1.0231284435496278e-16 2.789353445793489e-17 -0.8471007413099523 -0.5314323419514051
12650613333.333334 -0.8525529945322993 -0.5226407863091399 1.0257826081646178e-16 2.6819365713007872e-17 1.0257826081646178e-16 2.6819365713007872e-17 -0.852552647673709 -0.5226413521186154
12651230666.666666 -0.8579136677937377 -0.5137938678230047 1.028324075518233e-16 2.5742696800967458e-17 1.028324075518233e-16 2.5742696800967458e-17 -0.857913326823175 -0.5137944371623914
12651848000.0 -0.8631825401867664 -0.5048919709369004 1.0307526129957297e-16 2.466364587771802e-17 1.0307526129957297e-16 2.466364587771802e-17 -0.8631822051401401 -0.5048925437449345
12652465333.333334 -0.868359047916897 -0.49593604819642356 1.0330680003617682e-16 2.3582331312265788e-17 1.0330680003617682e-16 2.3582331312265788e-17 -0.8683587188294799 -0.49593662441147696
12653082666.666666 -0.8734426370730628 -0.48692705792826957 1.0352700297795795e-16 2.2498871673745845e-17 1.0352700297795795e-16 2.2498871673745845e-17 -0.8734423139794844 -0.4869276374883543
12653700000.0 -0.8784327636870244 -0.4778659641374376 1.0373585058287868e-16 2.1413385718417352e-17 1.0373585058287868e-16 2.1413385718417352e-17 -0.8784324466212708 -0.4778665469802148
12654317333.333334 -0.8833288937913745 -0.4687537364044516 1.039333245521737e-16 2.0325992376714444e-17 1.039333245521737e-16 2.0325992376714444e-17 -0.8833285827867834 -0.4687543224672371
12654934666.666666 -0.8881305034768627 -0.4595913497812607 1.0411940783186359e-16 1.923681074019752e-17 1.0411940783186359e-16 1.923681074019752e-17 -0.8881301985661212 -0.4595919390010321
12655552000.0 -0.8928370789483766 -0.45037978468705353 1.0429408461412073e-16 1.814596004855115e-17 1.0429408461412073e-16 1.814596004855115e-17 -0.8928367801635151 -0.45038037700045663
12656169333.333334 -0.8974481165798542 -0.44112002680347584 1.0445734033850105e-16 1.7053559676568238e-17 1.0445734033850105e-16 1.7053559676568238e-17 -0.8974478239522444 -0.44112062214683123
12656786666.666666 -0.9019631229682912 -0.43181306696892957 1.0460916169304556e-16 1.5959729121082815e-17 1.0460916169304556e-16 1.5959729121082815e-17 -0.9019628365286442 -0.4318136652782405
12657404000.0 -0.9063816149864631 -0.42245990107270154 1.0474953661523878e-16 1.4864587987939278e-17 1.0474953661523878e-16 1.4864587987939278e-17 -0.9063813347648244 -0.42246050228366006
12658021333.333334 -0.9107031198346927 -0.41306152994824397 1.0487845429283608e-16 1.3768255978919178e-17 1.0487845429283608e-16 1.3768255978919178e-17 -0.9107028458604385 -0.4130621339962373
12658638666.666666 -0.9149271750913094 -0.4036189592663635 1.0499590516454819e-16 1.2670852878713302e-17 1.0499590516454819e-16 1.2670852878713302e-17 -0.9149269073931461 -0.40361956608648225
12659256000.0 -0.9190533287623013 -0.39413319942724956 1.0510188092059846e-16 1.1572498541815263e-17 1.0510188092059846e-16 1.1572498541815263e-17 -0.9190530673682601 -0.39413380895429384
12659873333.333334 -0.9230811393295562 -0.3846052654526134 1.05196374503135e-16 1.0473312879484195e-17 1.05196374503135e-16 1.0473312879484195e-17 -0.9230808842669912 -0.3846058776211
12660490666.666666 -0.9270101757981145 -0.37503617687707863 1.0527938010651064e-16 9.373415846679623e-18 1.0527938010651064e-16 9.373415846679623e-18 -0.9270099270937001 -0.3750367916212482
12661108000.0 -0.9308400177423833 -0.36542695763884925 1.0535089317742942e-16 8.272927428951628e-18 1.0535089317742942e-16 8.272927428951628e-18 -0.9308397754221112 -0.3654275748926735
12661725333.333334 -0.9345702553510167 -0.3557786359704065 1.054109104149488e-16 7.171967629434689e-18 1.054109104149488e-16 7.171967629434689e-18 -0.9345700194401911 -0.35577925566759433
12662342666.666666 -0.9382004894708171 -0.3460922442883498 1.0545942977035356e-16 6.070656455739784e-18 1.0545942977035356e-16 6.070656455739784e-18 -0.9382002599940565 -0.34609286636235603
12662960000.0 -0.9417303316494411 -0.3363688190829518 1.0549645044688931e-16 4.969113906914125e-18 1.0549645044688931e-16 4.969113906914125e-18 -0.9417301086306727 -0.33636944346698333
12663577333.333334 -0.9451594041769655 -0.3266094008072488 1.0552197289936107e-16 3.8674599603888356e-18 1.0552197289936107e-16 3.8674599603888356e-18 -0.9451591876394216 -0.3266100274342711
12664194666.666666 -0.9484873401262991 -0.316815033765705 1.0553599883359575e-16 2.7658145589221247e-18 1.0553599883359575e-16 2.7658145589221247e-18 -0.9484871300925178 -0.31681566256845084
12664812000.0 -0.9517137833924408 -0.3069867660024961 1.0553853120576847e-16 1.6642975975813049e-18 1.0553853120576847e-16 1.6642975975813049e-18 -0.9517135798842619 -0.30698739691347177
12665429333.333334 -0.9548383887306299 -0.29712564918922835 1.0552957422159386e-16 5.630289107020874e-19 1.0552957422159386e-16 5.630289107020874e-19 -0.9548381917691917 -0.297126282140721
12666046666.666666 -0.9578608217931873 -0.2872327385127007 1.05509133335381e-16 -5.378717411044609e-19 1.05509133335381e-16 -5.378717411044609e-19 -0.957860631398927 -0.287233373436786
12666664000.0 -0.9607807591654274 -0.2773090925615902 1.0547721524895304e-16 -1.6382846839978291e-18 1.0547721524895304e-16 -1.6382846839978291e-18 -0.9607805753580756 -0.27730972939013876
12667281333.333334 -0.9635978884001324 -0.267355773213583 1.0543382791043221e-16 -2.7380903438345115e-18 1.0543382791043221e-16 -2.7380903438345115e-18 -0.9635977111987158 -0.2673564118782694
12667898666.666666 -0.9663119080510696 -0.2573738455215068 1.053789805128889e-16 -3.8371692591805135e-18 1.053789805128889e-16 -3.8371692591805135e-18 -0.9663117374739046 -0.2573744859538151
12668516000.0 -0.9689225277052655 -0.24736437759925198 1.0531268349285562e-16 -4.9354020942615324e-18 1.0531268349285562e-16 -4.9354020942615324e-18 -0.9689223637699587 -0.24736501973048403
12669133333.333334 -0.9714294680139772 -0.2373284405078913 1.0523494852870839e-16 -6.0326696518705036e-18 1.0523494852870839e-16 -6.0326696518705036e-18 -0.9714293107374219 -0.23732908426917365
12669750666.666666 -0.9738324607226831 -0.22726710814068646 1.0514578853891055e-16 -7.128852886308914e-18 1.0514578853891055e-16 -7.128852886308914e-18 -0.9738323101210589 -0.2272677534629781
12670368000.0 -0.9761312486997514 -0.21718145710831357 1.0504521768012379e-16 -8.223832916279622e-18 1.0504521768012379e-16 -8.223832916279622e-18 -0.9761311047885224 -0.21718210392241324
