! Parameters = {f0=12700.012000; bw=77.238000; Q=6100.000000; N=10; m_0_1=1.242738; m_1_1=-0.123680; m_1_2=1.077550; m_2_2=-0.124329; m_2_3=0.714513; m_2_8=-0.000799; m_2_9=0.035905; m_3_3=-0.126266; m_3_4=0.603042; m_3_7=-0.000199; m_3_8=-0.097287; m_3_9=-0.000799; m_4_4=-0.129191; m_4_5=0.439377; m_4_6=0.003318; m_4_7=-0.117836; m_4_8=-0.000199; m_5_5=-0.128809; m_5_6=0.846732; m_5_7=0.003318; m_6_6=-0.128810; m_6_7=0.439719; m_7_7=-0.129177; m_7_8=0.603160; m_8_8=-0.126268; m_8_9=0.714826; m_9_9=-0.124334; m_9_10=1.078628; m_10_10=-0.123690; m_10_11=1.243533}
!
! Created with skrf (http://scikit-rf.org).
# Hz S RI R 50.0 
!freq ReS11 ImS11 ReS21 ImS21 ReS12 ImS12 ReS22 ImS22
12607400000.0 -0.042581500914106306 -0.9990929965622479 3.1516451888392223e-17 9.183135276217445e-17 3.1516451888392223e-17 9.183135276217445e-17 -0.042580846711034036 -0.9990930244442717
12608017333.333334 -0.05228752739262816 -0.9986320716254794 3.240904376614496e-17 9.149997906580937e-17 3.240904376614496e-17 9.149997906580937e-17 -0.05228687352338408 -0.9986321058613032
12608634666.666666 -0.061988616911671963 -0.99807685644604 3.3298169591306014e-17 9.115993644367278e-17 3.3298169591306014e-17 9.115993644367278e-17 -0.06198796343795832 -0.9980768970318099
12609252000.0 -0.07168385350014504 -0.9974274034470881 3.4183745239446284e-17 9.081126098327164e-17 3.4183745239446284e-17 9.081126098327164e-17 -0.07168320048362067 -0.9974274503783502
12609869333.333334 -0.08137232173961458 -0.9966837739496598 3.506568696033115e-17 9.045398958778935e-17 3.506568696033115e-17 9.045398958778935e-17 -0.0813716692418891 -0.9966838272213613
12610486666.666666 -0.09105310685068375 -0.9958460381668788 3.59439113858178e-17 9.008815997222285e-17 3.59439113858178e-17 9.008815997222285e-17 -0.09105245493331188 -0.9958460977733702
12611104000.0 -0.10072529477950684 -0.9949142751973213 3.6818335537753097e-17 8.971381065942489e-17 3.6818335537753097e-17 8.971381065942489e-17 -0.10072464350398239 -0.9949143411323546
12611721333.333334 -0.11038797228378189 -0.9938885730175719 3.768887683574449e-17 8.933098097610707e-17 3.768887683574449e-17 8.933098097610707e-17 -0.11038732171153195 -0.9938886452743012
12612338666.666666 -0.12004022701934648 -0.992769028473882 3.8555453104973506e-17 8.893971104873156e-17 3.8555453104973506e-17 8.893971104873156e-17 -0.12003957721172584 -0.9927691070448664
12612956000.0 -0.12968114762612223 -0.991555747273043 3.941798258394164e-17 8.854004179933812e-17 3.941798258394164e-17 8.854004179933812e-17 -0.1296804986444076 -0.9915558321502471
12613573333.333334 -0.13930982381413765 -0.9902488439724157 4.0276383932125996e-17 8.813201494131817e-17 4.0276383932125996e-17 8.813201494131817e-17 -0.13930917571952148 -0.9902489351472077
12614190666.666666 -0.14892534644956062 -0.988848441969096 4.113057623767653e-17 8.77156729750753e-17 4.113057623767653e-17 8.77156729750753e-17 -0.14892469930314606 -0.9888485394322526
12614808000.0 -0.1585268076404835 -0.9873546734882794 4.1980479024994145e-17 8.729105918364673e-17 4.1980479024994145e-17 8.729105918364673e-17 -0.15852616150327778 -0.9873547772299822
12615425333.333334 -0.16811330082275674 -0.9857676795707542 4.282601226230397e-17 8.685821762823274e-17 4.282601226230397e-17 8.685821762823274e-17 -0.1681126557556658 -0.9857677895805929
12616042666.666666 -0.17768392084541776 -0.9840876100596073 4.36670963691802e-17 8.64171931436538e-17 4.36670963691802e-17 8.64171931436538e-17 -0.17768327690924102 -0.9840877263265836
12616660000.0 -0.1872377640562402 -0.9823146235860744 4.4503652224000167e-17 8.596803133374759e-17 4.4503652224000167e-17 8.596803133374759e-17 -0.18723712131166398 -0.9823147460985977
12617277333.333334 -0.19677392838716662 -0.9804488875545292 4.533560117139055e-17 8.551077856667398e-17 4.533560117139055e-17 8.551077856667398e-17 -0.19677328689475887 -0.9804490163004217
12617894666.666666 -0.20629151343917448 -0.9784905781267417 4.616286502957488e-17 8.504548197017529e-17 4.616286502957488e-17 8.504548197017529e-17 -0.2062908732593792 -0.9784907130932384
12618512000.0 -0.2157896205676826 -0.9764398802051698 4.6985366097735476e-17 8.45721894267314e-17 4.6985366097735476e-17 8.45721894267314e-17 -0.2157889817608136 -0.9764400213789185
12619129333.333334 -0.22526735296709274 -0.9742969874155575 4.7803027163266056e-17 8.409094956867751e-17 4.7803027163266056e-17 8.409094956867751e-17 -0.22526671559332848 -0.9742971347826216
12619746666.666666 -0.23472381575555015 -0.9720621020886404 4.861577150900819e-17 8.360181177323262e-17 4.861577150900819e-17 8.360181177323262e-17 -0.2347231798749279 -0.9720622556345007
12620364000.0 -0.24415811605965876 -0.9697354352409885 4.9423522920449364e-17 8.310482615745204e-17 4.9423522920449364e-17 8.310482615745204e-17 -0.2441574817320692 -0.9697355949505443
12620981333.333334 -0.2535693630983435 -0.9673172065551885 5.0226205692812595e-17 8.260004357314336e-17 5.0226205692812595e-17 8.260004357314336e-17 -0.2535687303835243 -0.9673173724127564
12621598666.666666 -0.26295666826731595 -0.9648076443590111 5.1023744638163405e-17 8.208751560167408e-17 5.1023744638163405e-17 8.208751560167408e-17 -0.26295603722484734 -0.9648078163483319
12622216000.0 -0.2723191452229216 -0.9622069856038713 5.181606509242853e-17 8.156729454873152e-17 5.181606509242853e-17 8.156729454873152e-17 -0.27231851591221945 -0.9622071637081058
12622833333.333334 -0.28165590996571643 -0.9595154758424778 5.2603092922354734e-17 8.103943343901992e-17 5.2603092922354734e-17 8.103943343901992e-17 -0.28165528244602756 -0.9595156600442121
12623450666.666666 -0.290966080923907 -0.9567333692056601 5.338475453243488e-17 8.050398601087747e-17 5.338475453243488e-17 8.050398601087747e-17 -0.2909654552543036 -0.9567335594869072
12624068000.0 -0.3002487790368081 -0.9538609283783138 5.4160976871765946e-17 7.9961006710836e-17 5.4160976871765946e-17 7.9961006710836e-17 -0.30024815527618137 -0.9538611247205128
12624685333.333334 -0.30950312783770306 -0.9508984245746286 5.493168744086507e-17 7.941055068810464e-17 5.493168744086507e-17 7.941055068810464e-17 -0.30950250604475893 -0.95089862695865
12625302666.666666 -0.31872825353641315 -0.94784613751255 5.56968142984059e-17 7.885267378900646e-17 5.56968142984059e-17 7.885267378900646e-17 -0.31872763376966534 -0.9478463459186945
12625920000.0 -0.32792328510228524 -0.9447043553872065 5.645628606793387e-17 7.828743255132402e-17 5.645628606793387e-17 7.828743255132402e-17 -0.3279226674200507 -0.9447045697952086
12626537333.333334 -0.3370873543458944 -0.941473374843876 5.721003194448059e-17 7.771488419861353e-17 5.721003194448059e-17 7.771488419861353e-17 -0.3370867388062877 -0.9414735952329054
12627154666.666666 -0.34621959600126134 -0.9381535009499005 5.795798170116475e-17 7.713508663442251e-17 5.795798170116475e-17 7.713508663442251e-17 -0.3462189826621892 -0.9381537272985649
12627772000.0 -0.3553191478077906 -0.934745047165791 5.870006569571273e-17 7.654809843646056e-17 5.870006569571273e-17 7.654809843646056e-17 -0.35531853672694613 -0.9347452794521368
12628389333.333334 -0.36438515059112325 -0.931248335315836 5.943621487690981e-17 7.59539788507164e-17 5.943621487690981e-17 7.59539788507164e-17 -0.3643845418259806 -0.9312485735173512
12629006666.666666 -0.37341674834487304 -0.9276636955574868 6.016636079102245e-17 7.535278778548915e-17 6.016636079102245e-17 7.535278778548915e-17 -0.373416141952682 -0.9276639396511032
12629624000.0 -0.38241308831097026 -0.9239914663503647 6.089043558812589e-17 7.474458580538561e-17 6.089043558812589e-17 7.474458580538561e-17 -0.38241248434875164 -0.9239917163124605
12630241333.333334 -0.3913733210604196 -0.9202319944242154 6.160837202840818e-17 7.412943412522788e-17 6.160837202840818e-17 7.412943412522788e-17 -0.3913727195849586 -0.9202322502306167
12630858666.666666 -0.4002966005734219 -0.9163856347461995 6.232010348836578e-17 7.350739460393851e-17 6.232010348836578e-17 7.350739460393851e-17 -0.4002960016412634 -0.9163858963721826
12631476000.0 -0.40918208431938546 -0.91245275048732 6.302556396700531e-17 7.287852973831051e-17 6.302556396700531e-17 7.287852973831051e-17 -0.40918148798682935 -0.9124530179076157
12632093333.333334 -0.41802893333621727 -0.9084337129882484 6.372468809190135e-17 7.224290265678721e-17 6.372468809190135e-17 7.224290265678721e-17 -0.4180283396593122 -0.9084339861770421
12632710666.666666 -0.42683631230977265 -0.9043289017241604 6.441741112525231e-17 7.160057711313295e-17 6.441741112525231e-17 7.160057711313295e-17 -0.42683572134431025 -0.9043291806550936
12633328000.0 -0.43560338965269546 -0.9001387042689111 6.510366896986944e-17 7.095161748004625e-17 6.510366896986944e-17 7.095161748004625e-17 -0.43560280145420693 -0.9001389889150885
12633945333.333334 -0.4443293375827839 -0.8958635162585177 6.578339817505422e-17 7.029608874276102e-17 6.578339817505422e-17 7.029608874276102e-17 -0.4443287522065338 -0.8958638065925063
12634562666.666666 -0.45301333220135526 -0.8915037413537064 6.645653594246998e-17 6.963405649253839e-17 6.645653594246998e-17 6.963405649253839e-17 -0.4530127497023356 -0.8915040373475379
12635180000.0 -0.4616545535708309 -0.8870597912018944 6.712302013190546e-17 6.896558692014021e-17 6.712302013190546e-17 6.896558692014021e-17 -0.46165397400375713 -0.8870600928270699
12635797333.333334 -0.470252185792385 -0.8825320853982113 6.77827892669977e-17 6.829074680922675e-17 6.77827892669977e-17 6.829074680922675e-17 -0.4702516092116903 -0.8825323926257022
12636414666.666666 -0.4788054170827025 -0.8779210514460232 6.843578254087897e-17 6.760960352970878e-17 6.843578254087897e-17 6.760960352970878e-17 -0.4788048435425329 -0.8779213642462758
12637032000.0 -0.4873134398508548 -0.8732271247164505 6.90819398217564e-17 6.692222503104544e-17 6.90819398217564e-17 6.692222503104544e-17 -0.4873128694050636 -0.8732274430593866
12637649333.333334 -0.4957754507745243 -0.8684507484072704 6.972120165843503e-17 6.622867983548008e-17 6.972120165843503e-17 6.622867983548008e-17 -0.4957748834766682 -0.8684510722622932
12638266666.666666 -0.5041906508757321 -0.8635923735011428 7.035350928575375e-17 6.552903703124292e-17 7.035350928575375e-17 6.552903703124292e-17 -0.5041900867790645 -0.8635927028371362
12638884000.0 -0.5125582455963488 -0.8586524587229827 7.097880462997056e-17 6.482336626568445e-17 7.097880462997056e-17 6.482336626568445e-17 -0.5125576847538165 -0.8586527935083181
12639501333.333334 -0.5208774448732165 -0.8536314704965953 7.159703031408074e-17 6.411173773835536e-17 7.159703031408074e-17 6.411173773835536e-17 -0.520876887337453 -0.8536318106991311
12640118666.666666 -0.5291474632124517 -0.8485298829008076 7.220812966303514e-17 6.339422219407099e-17 7.220812966303514e-17 6.339422219407099e-17 -0.5291469090357737 -0.8485302284878944
12640736000.0 -0.5373675197640728 -0.8433481776244265 7.281204670895565e-17 6.267089091585001e-17 7.281204670895565e-17 6.267089091585001e-17 -0.5373669689984746 -0.8433485285629095
12641353333.333334 -0.5455368383952194 -0.8380868439210702 7.340872619618242e-17 6.194181571791788e-17 7.340872619618242e-17 6.194181571791788e-17 -0.5455362910923683 -0.8380872001772935
12641970666.666666 -0.5536546477637972 -0.8327463785627517 7.399811358634851e-17 6.120706893854778e-17 7.399811358634851e-17 6.120706893854778e-17 -0.5536541039750285 -0.8327467401025597
12642588000.0 -0.5617201813911387 -0.8273272857930757 7.458015506332846e-17 6.04667234329186e-17 7.458015506332846e-17 6.04667234329186e-17 -0.5617196411674512 -0.8273276525818184
12643205333.333334 -0.5697326777344691 -0.8218300772795697 7.515479753811778e-17 5.97208525659239e-17 7.515479753811778e-17 5.97208525659239e-17 -0.5697321411265193 -0.8218304492821034
12643822666.666666 -0.5776913802587383 -0.8162552720654156 7.572198865367152e-17 5.896953020489688e-17 7.572198865367152e-17 5.896953020489688e-17 -0.5776908473168371 -0.8162556492461089
12644440000.0 -0.5855955375081243 -0.8106033965203966 7.628167678962943e-17 5.821283071234057e-17 7.628167678962943e-17 5.821283071234057e-17 -0.5855950082822311 -0.8106037788431324
12645057333.333334 -0.5934444031768442 -0.804874984291294 7.68338110669965e-17 5.74508289385798e-17 7.68338110669965e-17 5.74508289385798e-17 -0.593443877716563 -0.8048753717194733
12645674666.666666 -0.601237236179694 -0.799070576251457 7.737834135274772e-17 5.668360021437075e-17 7.737834135274772e-17 5.668360021437075e-17 -0.6012367145342683 -0.7990709687480023
12646292000.0 -0.6089733007222441 -0.793190720449557 7.79152182643559e-17 5.591122034347106e-17 7.79152182643559e-17 5.591122034347106e-17 -0.6089727829405527 -0.7931911179769163
12646909333.333334 -0.6166518663698833 -0.7872359720581691 7.844439317422895e-17 5.513376559519264e-17 7.844439317422895e-17 5.513376559519264e-17 -0.6166513525004356 -0.787236374578319
12647526666.666666 -0.6242722081170821 -0.7812068933211311 7.896581821410891e-17 5.435131269686139e-17 7.896581821410891e-17 5.435131269686139e-17 -0.6242716982080126 -0.7812073007955801
12648144000.0 -0.6318336064558875 -0.7751040535004173 7.947944627936257e-17 5.35639388262818e-17 7.947944627936257e-17 5.35639388262818e-17 -0.6318331005549525 -0.7751044658902099
12648761333.333334 -0.6393353474436367 -0.7689280288225655 7.998523103321716e-17 5.277172160413567e-17 7.998523103321716e-17 5.277172160413567e-17 -0.6393348455982092 -0.7689284460882859
12649378666.666666 -0.6467767227704364 -0.762679402424221 8.048312691090273e-17 5.197473908636513e-17 8.048312691090273e-17 5.197473908636513e-17 -0.6467762250275021 -0.762679824525997
12649996000.0 -0.6541570298262138 -0.7563587642969287 8.09730891237417e-17 5.1173069756483147e-17 8.09730891237417e-17 5.1173069756483147e-17 -0.6541565362323675 -0.756359191194437
12650613333.333334 -0.6614755717668628 -0.7499667112315946 8.145507366315012e-17 5.036679251786395e-17 8.145507366315012e-17 5.036679251786395e-17 -0.6614750823683013 -0.7499671428840604
12651230666.666666 -0.668731657580016 -0.743503846762151 8.192903730454687e-17 4.9555986686021825e-17 8.192903730454687e-17 4.9555986686021825e-17 -0.6687311724225368 -0.7435042831283567
12651848000.0 -0.6759246021505696 -0.7369707811083328 8.239493761122684e-17 4.874073198078563e-17 8.239493761122684e-17 4.874073198078563e-17 -0.6759241212795647 -0.7369712221466186
12652465333.333334 -0.6830537263250295 -0.7303681311183585 8.285273293810949e-17 4.79211085185172e-17 8.285273293810949e-17 4.79211085185172e-17 -0.6830532497854818 -0.7303685767866279
12653082666.666666 -0.6901183569758077 -0.7236965202105391 8.330238243543645e-17 4.709719680425008e-17 8.330238243543645e-17 4.709719680425008e-17 -0.6901178848122871 -0.7236969704662628
12653700000.0 -0.6971178270648397 -0.7169565783143551 8.374384605240418e-17 4.6269077723770205e-17 8.374384605240418e-17 4.6269077723770205e-17 -0.6971173593214983 -0.7169570331145745
12654317333.333334 -0.7040514757063389 -0.7101489418111946 8.417708454067477e-17 4.543683253574148e-17 8.417708454067477e-17 4.543683253574148e-17 -0.704051012426907 -0.7101494011125262
12654934666.666666 -0.7109186482294629 -0.7032742534740098 8.460205945785155e-17 4.460054286371989e-17 8.460205945785155e-17 4.460054286371989e-17 -0.7109181894572457 -0.7032747172326499
12655552000.0 -0.7177186962400048 -0.6963331624067454 8.50187331708629e-17 4.376029068815969e-17 8.50187331708629e-17 4.376029068815969e-17 -0.717718242017878 -0.6963336305784739
12656169333.333334 -0.7244509776814971 -0.6893263239831746 8.542706885924306e-17 4.2916158338434075e-17 8.542706885924306e-17 4.2916158338434075e-17 -0.7244505280519009 -0.6893267965233575
12656786666.666666 -0.7311148568960862 -0.6822543997847489 8.582703051837546e-17 4.2068228484743127e-17 8.582703051837546e-17 4.2068228484743127e-17 -0.7311144119010254 -0.6822548766483463
12657404000.0 -0.737709704684341 -0.675118057538364 8.621858296262052e-17 4.121658413006541e-17 8.621858296262052e-17 4.121658413006541e-17 -0.7377092643653773 -0.675118538679931
12658021333.333334 -0.7442348983647562 -0.6679179710532073 8.660169182838332e-17 4.0361308602038903e-17 8.660169182838332e-17 4.0361308602038903e-17 -0.744234462763006 -0.6679184564268994
12658638666.666666 -0.7506898218325061 -0.6606548201571776 8.697632357709296e-17 3.9502485544831114e-17 8.697632357709296e-17 3.9502485544831114e-17 -0.7506893909886363 -0.6606553097167555
12659256000.0 -0.7570738656176758 -0.6533292906326353 8.734244549810728e-17 3.8640198910969754e-17 8.734244549810728e-17 3.8640198910969754e-17 -0.7570734395719005 -0.6533297843314694
12659873333.333334 -0.7633864269427849 -0.64594207415167 8.770002571153224e-17 3.7774532953156733e-17 8.770002571153224e-17 3.7774532953156733e-17 -0.7633860057348612 -0.645942571942744
12660490666.666666 -0.7696269097795744 -0.638493868210945 8.804903317095436e-17 3.690557221607159e-17 8.804903317095436e-17 3.690557221607159e-17 -0.7696264934487991 -0.6384943700468612
12661108000.0 -0.7757947249055228 -0.6309853760655603 8.838943766611274e-17 3.603340152809998e-17 8.838943766611274e-17 3.603340152809998e-17 -0.7757943134907278 -0.6309858818985431
12661725333.333334 -0.7818892899592773 -0.6234173066628882 8.872120982546505e-17 3.51581059930984e-17 8.872120982546505e-17 3.51581059930984e-17 -0.7818888834988271 -0.62341781644479
12662342666.666666 -0.7879100294957313 -0.6157903745755271 8.904432111868699e-17 3.427977098209782e-17 8.904432111868699e-17 3.427977098209782e-17 -0.7879096280275184 -0.6157908882578319
12662960000.0 -0.7938563750403227 -0.6081052999338765 8.93587438590892e-17 3.339848212498747e-17 8.93587438590892e-17 3.339848212498747e-17 -0.7938559786017653 -0.608105817467705
12663577333.333334 -0.7997277651427793 -0.6003628083580531 8.966445120594297e-17 3.251432530219973e-17 8.966445120594297e-17 3.251432530219973e-17 -0.7997273737708156 -0.6003633296941661
12664194666.666666 -0.8055236454300221 -0.5925636308895106 8.996141716673287e-17 3.1627386636351406e-17 8.996141716673287e-17 3.1627386636351406e-17 -0.8055232591611104 -0.5925641559783164
12664812000.0 -0.8112434686585677 -0.5847085039219521 9.024961659932672e-17 3.073775248386498e-17 9.024961659932672e-17 3.073775248386498e-17 -0.8112430875286801 -0.5847090327135084
12665429333.333334 -0.8168866947662609 -0.5767981691317047 9.052902521405458e-17 2.984550942659352e-17 9.052902521405458e-17 2.984550942659352e-17 -0.8168863188108798 -0.5767987015757244
12666046666.666666 -0.822452790923084 -0.5688333734079456 9.07996195757139e-17 2.895074426340449e-17 9.07996195757139e-17 2.895074426340449e-17 -0.822452420177201 -0.5688339094538021
12666664000.0 -0.8279412315816993 -0.5608148687818569 9.106137710549105e-17 2.8053544001742806e-17 9.106137710549105e-17 2.8053544001742806e-17 -0.8279408660798115 -0.5608154083785893
12667281333.333334 -0.8333514985268909 -0.5527434123558768 9.131427608278915e-17 2.715399584921653e-17 9.131427608278915e-17 2.715399584921653e-17 -0.8333511383029949 -0.5527439554521923
12667898666.666666 -0.8386830809245414 -0.5446197662321414 9.155829564699094e-17 2.6252187205104065e-17 9.155829564699094e-17 2.6252187205104065e-17 -0.8386827260121335 -0.5446203127764226
12668516000.0 -0.8439354753699924 -0.5364446974403408 9.179341579912329e-17 2.5348205651895545e-17 9.179341579912329e-17 2.5348205651895545e-17 -0.8439351258020638 -0.5364452473806501
12669133333.333334 -0.8491081859353231 -0.528218977865675 9.20196174034394e-17 2.4442138946820198e-17 9.20196174034394e-17 2.4442138946820198e-17 -0.8491078417443575 -0.5282195311497586
12669750666.666666 -0.8542007242163815 -0.5199433841756642 9.223688218893045e-17 2.3534075013310472e-17 9.223688218893045e-17 2.3534075013310472e-17 -0.8542003854343523 -0.5199439407509588
12670368000.0 -0.8592126093788789 -0.5116186977468399 9.24451927507367e-17 2.262410193251622e-17 9.24451927507367e-17 2.262410193251622e-17 -0.8592122760372437 -0.511619257560475
12670985333.333334 -0.8641433682036546 -0.5032457045911826 9.264453255148594e-17 2.1712307934765262e-17 9.264453255148594e-17 2.1712307934765262e-17 -0.8641430403333571 -0.5032462675899886
