! Parameters = {f0=12700.012000; bw=77.238000; Q=6100.000000; N=10; m_0_1=1.209905; m_1_1=-0.616172; m_1_2=1.044717; m_2_2=-0.616821; m_2_3=0.681680; m_2_8=-0.002441; m_2_9=0.034263; m_3_3=-0.618758; m_3_4=0.570209; m_3_7=-0.001841; m_3_8=-0.098929; m_3_9=-0.002441; m_4_4=-0.621683; m_4_5=0.406544; m_4_6=0.001676; m_4_7=-0.119478; m_4_8=-0.001841; m_5_5=-0.621301; m_5_6=0.813899; m_5_7=0.001676; m_6_6=-0.621302; m_6_7=0.406886; m_7_7=-0.621669; m_7_8=0.570327; m_8_8=-0.618760; m_8_9=0.681993; m_9_9=-0.616826; m_9_10=1.045795; m_10_10=-0.616182; m_10_11=1.210700}
!
! Created with skrf (http://scikit-rf.org).
# Hz S RI R 50.0 
!freq ReS11 ImS11 ReS21 ImS21 ReS12 ImS12 ReS22 ImS22
12607400000.0 0.8095439508916097 -0.5870592743281061 -5.032876543597516e-17 6.547206983045092e-17 -5.032876543597516e-17 6.547206983045092e-17 0.809544325173966 -0.5870587581992686
12608017333.333334 0.8043784095418202 -0.5941173068197997 -4.973861489614445e-17 6.590125670346522e-17 -4.973861489614445e-17 6.590125670346522e-17 0.804378788305512 -0.5941167940093892
12608634666.666666 0.7991513343389637 -0.601129890143631 -4.914481234129463e-17 6.632513047451576e-17 -4.914481234129463e-17 6.632513047451576e-17 0.799151717554579 -0.6011293806905508
12609252000.0 0.7938631251472681 -0.6080964878465049 -4.8547405549514596e-17 6.674366014046941e-17 -4.8547405549514596e-17 6.674366014046941e-17 0.7938635127850564 -0.6080959817893962
12609869333.333334 0.7885141865075748 -0.6150165669932305 -4.7946442561425956e-17 6.715681512735508e-17 -4.7946442561425956e-17 6.715681512735508e-17 0.7885145785374517 -0.615016064370472
12610486666.666666 0.7831049276064632 -0.6218895982072022 -4.7341971676342e-17 6.756456529257416e-17 -4.7341971676342e-17 6.756456529257416e-17 0.7831053239980104 -0.621889099056906
12611104000.0 0.7776357622449135 -0.628715055710941 -4.673404144837714e-17 6.796688092709764e-17 -4.673404144837714e-17 6.796688092709764e-17 0.7776361629673818 -0.6287145600709493
12611721333.333334 0.7721071088067193 -0.6354924173662251 -4.6122700682586296e-17 6.83637327575956e-17 -4.6122700682586296e-17 6.83637327575956e-17 0.7721075138290312 -0.6354919252741079
12612338666.666666 0.7665193902263967 -0.6422211647141451 -4.5507998431039835e-17 6.875509194856349e-17 -4.5507998431039835e-17 6.875509194856349e-17 0.7665197995171488 -0.6422206762071976
12612956000.0 0.7608730339568082 -0.6489007830147858 -4.488998398889981e-17 6.914093010439985e-17 -4.488998398889981e-17 6.914093010439985e-17 0.7608734474842739 -0.6489002981300251
12613573333.333334 0.755168471936629 -0.6555307612864073 -4.4268706890497026e-17 6.952121927143823e-17 -4.4268706890497026e-17 6.952121927143823e-17 0.7551688896687617 -0.6555302800605706
12614190666.666666 0.7494061405571218 -0.662110592344752 -4.3644216905353276e-17 6.98959319399675e-17 -4.3644216905353276e-17 6.98959319399675e-17 0.749406562461555 -0.6621101148142923
12614808000.0 0.7435864806288451 -0.6686397728417364 -4.301656403421616e-17 7.026504104619749e-17 -4.301656403421616e-17 7.026504104619749e-17 0.7435869066728965 -0.6686392990428198
12615425333.333334 0.7377099373479106 -0.6751178033039733 -4.2385798505066166e-17 7.062851997419758e-17 -4.2385798505066166e-17 7.062851997419758e-17 0.7377103674985851 -0.6751173332724786
12616042666.666666 0.7317769602619302 -0.6815441881709874 -4.175197076910909e-17 7.098634255779739e-17 -4.175197076910909e-17 7.098634255779739e-17 0.7317773944859214 -0.6815437219425006
12616660000.0 0.7257880032356234 -0.6879184358331201 -4.1115131496752583e-17 7.133848308245197e-17 -4.1115131496752583e-17 7.133848308245197e-17 0.7257884414993172 -0.6879179734429334
12617277333.333334 0.7197435244160802 -0.6942400586691597 -4.047533157356563e-17 7.16849162870726e-17 -4.047533157356563e-17 7.16849162870726e-17 0.7197439666855562 -0.6942396001522679
12617894666.666666 0.7136439861978101 -0.7005085730835423 -3.983262209623455e-17 7.202561736581407e-17 -3.983262209623455e-17 7.202561736581407e-17 0.7136444324388441 -0.7005081184746398
12618512000.0 0.7074898551871508 -0.7067234995435663 -3.9187054368471525e-17 7.236056196984396e-17 -3.9187054368471525e-17 7.236056196984396e-17 0.7074903053652197 -0.7067230488770465
12619129333.333334 0.7012816021668549 -0.7128843626157966 -3.853867989696014e-17 7.2689726209048e-17 -3.853867989696014e-17 7.2689726209048e-17 0.7012820562471368 -0.7128839159257472
12619746666.666666 0.6950197020598734 -0.7189906910026338 -3.788755038723693e-17 7.301308665372515e-17 -3.788755038723693e-17 7.301308665372515e-17 0.6950201600072524 -0.718990248322836
12620364000.0 0.688704633893026 -0.7250420175783696 -3.723371773957979e-17 7.333062033623506e-17 -3.723371773957979e-17 7.333062033623506e-17 0.6887050956720926 -0.725041578942293
12620981333.333334 0.6823368807605379 -0.7310378794247399 -3.657723404490166e-17 7.364230475259984e-17 -3.657723404490166e-17 7.364230475259984e-17 0.6823373463355932 -0.7310374448655423
12621598666.666666 0.6759169297868786 -0.7369778178665358 -3.591815158059108e-17 7.394811786408834e-17 -3.591815158059108e-17 7.394811786408834e-17 0.6759173991219375 -0.7369773874170602
12622216000.0 0.6694452720896029 -0.7428613785065948 -3.5256522806371484e-17 7.424803809874852e-17 -3.5256522806371484e-17 7.424803809874852e-17 0.6694457451483958 -0.7428609521993663
12622833333.333334 0.6629224027417372 -0.748688111260599 -3.459240036013285e-17 7.454204435290943e-17 -3.459240036013285e-17 7.454204435290943e-17 0.6629228794877131 -0.7486876891278225
12623450666.666666 0.656348820733992 -0.7544575703914294 -3.3925837053764246e-17 7.483011599264089e-17 -3.3925837053764246e-17 7.483011599264089e-17 0.6563493011303217 -0.7544571524649878
12624068000.0 0.6497250289364854 -0.760169314543361 -3.3256885868954856e-17 7.511223285518396e-17 -3.3256885868954856e-17 7.511223285518396e-17 0.6497255129460643 -0.7601689008548124
12624685333.333334 0.6430515340602501 -0.7658229067758413 -3.258559995299426e-17 7.538837525033944e-17 -3.258559995299426e-17 7.538837525033944e-17 0.6430520216457002 -0.7658224973564163
12625302666.666666 0.6363288466186868 -0.771417914596733 -3.191203261457222e-17 7.565852396181477e-17 -3.191203261457222e-17 7.565852396181477e-17 0.6363293377423604 -0.7714175094773318
12625920000.0 0.6295574808881861 -0.7769539099956713 -3.1236237319547954e-17 7.592266024854112e-17 -3.1236237319547954e-17 7.592266024854112e-17 0.629557975512169 -0.7769535092068633
12626537333.333334 0.6227379548690919 -0.7824304694765544 -3.055826768671777e-17 7.618076584594977e-17 -3.055826768671777e-17 7.618076584594977e-17 0.6227384529552052 -0.7824300730485744
12627154666.666666 0.6158707902459452 -0.7878471740900491 -2.9878177483582966e-17 7.643282296720632e-17 -2.9878177483582966e-17 7.643282296720632e-17 0.6158712917557495 -0.7878467820527952
12627772000.0 0.6089565123474394 -0.7932036094657431 -2.919602062207311e-17 7.667881430442049e-17 -2.919602062207311e-17 7.667881430442049e-17 0.6089570172422374 -0.7932032218487755
12628389333.333334 0.6019956501065495 -0.7984993658436003 -2.851185115431647e-17 7.691872302979695e-17 -2.851185115431647e-17 7.691872302979695e-17 0.6019961583473884 -0.7984989826761374
12629006666.666666 0.5949887360197313 -0.8037340381055684 -2.782572326833544e-17 7.71525327967722e-17 -2.782572326833544e-17 7.71525327967722e-17 0.5949892475674049 -0.8037336594164844
12629624000.0 0.5879363061064309 -0.808907225806375 -2.7137691283790165e-17 7.738022774109312e-17 -2.7137691283790165e-17 7.738022774109312e-17 0.5879368209214859 -0.8089068516242004
12630241333.333334 0.5808388998679491 -0.8140185332042694 -2.644780964767614e-17 7.760179248187039e-17 -2.644780964767614e-17 7.760179248187039e-17 0.5808394179106857 -0.8140181635571874
12630858666.666666 0.573697060246306 -0.819067569291195 -2.5756132930040162e-17 7.781721212258542e-17 -2.5756132930040162e-17 7.781721212258542e-17 0.5736975814767805 -0.8190672042070376
12631476000.0 0.5665113335824512 -0.8240539478228793 -2.506271581965043e-17 7.802647225207046e-17 -2.506271581965043e-17 7.802647225207046e-17 0.5665118579604806 -0.8240535873291276
12632093333.333334 0.5592822695747722 -0.8289772873481712 -2.436761311971259e-17 7.822955894543409e-17 -2.436761311971259e-17 7.822955894543409e-17 0.5592827970599367 -0.8289769314719521
12632710666.666666 0.5520104212369041 -0.8338372112383178 -2.367087974353632e-17 7.842645876496194e-17 -2.367087974353632e-17 7.842645876496194e-17 0.5520109517885504 -0.8338368600064039
12633328000.0 0.5446963448553074 -0.8386333477158585 -2.2972570710196974e-17 7.861715876097742e-17 -2.2972570710196974e-17 7.861715876097742e-17 0.5446968784325504 -0.8386330011546619
12633945333.333334 0.537340599946923 -0.8433653298829169 -2.227274114022217e-17 7.88016464726555e-17 -2.227274114022217e-17 7.88016464726555e-17 0.5373411365086516 -0.8433649880184918
12634562666.666666 0.5299437492162528 -0.8480327957493521 -2.1571446251240743e-17 7.897990992880683e-17 -2.1571446251240743e-17 7.897990992880683e-17 0.5299442887211309 -0.8480324586073901
12635180000.0 0.5225063585123375 -0.8526353882604308 -2.0868741353639257e-17 7.915193764861963e-17 -2.0868741353639257e-17 7.915193764861963e-17 0.5225069009188087 -0.8526350558662609
12635797333.333334 0.5150289967854473 -0.8571727553241622 -2.0164681846208585e-17 7.931771864236441e-17 -2.0164681846208585e-17 7.931771864236441e-17 0.515029542051736 -0.8571724277027459
12636414666.666666 0.5075122360436505 -0.861644549838165 -1.9459323211796395e-17 7.947724241205684e-17 -1.9459323211796395e-17 7.947724241205684e-17 0.5075127841277675 -0.8616442270140979
12637032000.0 0.4999566513089148 -0.866050429716317 -1.875272101293241e-17 7.963049895208811e-17 -1.875272101293241e-17 7.963049895208811e-17 0.4999572021686588 -0.8660501117138242
12637649333.333334 0.4923628205732129 -0.8703900579148587 -1.8044930887471605e-17 7.977747874981088e-17 -1.8044930887471605e-17 7.977747874981088e-17 0.492363374166175 -0.8703897447577951
12638266666.666666 0.48473132475428427 -0.874663102458196 -1.7336008544221925e-17 7.991817278608887e-17 -1.7336008544221925e-17 7.991817278608887e-17 0.48473188103785037 -0.8746627941700431
12638884000.0 0.4770627476511954 -0.8788692364642946 -1.6626009758570604e-17 8.005257253580823e-17 -1.6626009758570604e-17 8.005257253580823e-17 0.4770633065825498 -0.8788689330681593
12639501333.333334 0.46935767589965377 -0.8830081381696971 -1.5914990368104498e-17 8.018066996834956e-17 -1.5914990368104498e-17 8.018066996834956e-17 0.4693582374357826 -0.8830078396883099
12640118666.666666 0.46161669892728396 -0.8870794909540624 -1.5203006268243444e-17 8.030245754801883e-17 -1.5203006268243444e-17 8.030245754801883e-17 0.4616172630249775 -0.8870791974097744
12640736000.0 0.45384040890813165 -0.8910829833645911 -1.4490113407820378e-17 8.041792823444821e-17 -1.4490113407820378e-17 8.041792823444821e-17 0.45384097552398955 -0.8910826947793755
12641353333.333334 0.44602940071797087 -0.895018309139544 -1.3776367784750679e-17 8.052707548294258e-17 -1.3776367784750679e-17 8.052707548294258e-17 0.4460299698084037 -0.8950180255349913
12641970666.666666 0.4381842718882653 -0.8988851672319398 -1.3061825441596242e-17 8.062989324480439e-17 -1.3061825441596242e-17 8.062989324480439e-17 0.4381848434094988 -0.8988848886292578
12642588000.0 0.4303056225607101 -0.9026832618324546 -1.2346542461198824e-17 8.072637596760797e-17 -1.2346542461198824e-17 8.072637596760797e-17 0.43030619646878887 -0.9026829882524675
12643205333.333334 0.4223940554412991 -0.9064123023920697 -1.1630574962286816e-17 8.081651859543931e-17 -1.1630574962286816e-17 8.081651859543931e-17 0.4223946316920887 -0.9064120338552136
12643822666.666666 0.41445017575411386 -0.9100720036443409 -1.0913979095073923e-17 8.090031656909759e-17 -1.0913979095073923e-17 8.090031656909759e-17 0.4144507543033049 -0.9100717401706645
12644440000.0 0.4064745911951528 -0.9136620856271611 -1.0196811036877912e-17 8.097776582625557e-17 -1.0196811036877912e-17 8.097776582625557e-17 0.4064751719982654 -0.9136618272363254
12645057333.333334 0.39846791188582037 -0.9171822737041938 -9.47912698772508e-18 8.104886280158247e-17 -9.47912698772508e-18 8.104886280158247e-17 0.3984684948982057 -0.9171820204154676
12645674666.666666 0.39043075032625213 -0.9206322985858797 -8.760983165957023e-18 8.111360442682844e-17 -8.760983165957023e-18 8.111360442682844e-17 0.3904313355030969 -0.9206320504181401
12646292000.0 0.3823637213482769 -0.9240118963501163 -8.042435803821496e-18 8.1171988130871e-17 -8.042435803821496e-18 8.1171988130871e-17 0.38236430864460685 -0.924011653321847
12646909333.333334 0.3742674420687222 -0.9273208084623015 -7.323541143110056e-18 8.122401183971866e-17 -7.323541143110056e-18 8.122401183971866e-17 0.37426803143940507 -0.9273205705915907
12647526666.666666 0.3661425318419451 -0.9305587817952243 -6.604355430743661e-18 8.126967397648105e-17 -6.604355430743661e-18 8.126967397648105e-17 0.3661431232416945 -0.9305585490997643
12648144000.0 0.35798961221247666 -0.9337255686484126 -5.8849349143848536e-18 8.130897346129685e-17 -5.8849349143848536e-18 8.130897346129685e-17 0.3579902055958556 -0.9337253411454989
12648761333.333334 0.3498093068675816 -0.9368209267670443 -5.1653358380586405e-18 8.134190971122379e-17 -5.1653358380586405e-18 8.134190971122379e-17 0.3498099021890054 -0.9368207044735718
12649378666.666666 0.34160224158954594 -0.9398446193604754 -4.445614437766111e-18 8.13684826400902e-17 -4.445614437766111e-18 8.13684826400902e-17 0.3416028388032869 -0.9398444022929419
12649996000.0 0.3333690442076756 -0.942796415120413 -3.725826937088775e-18 8.138869265830819e-17 -3.725826937088775e-18 8.138869265830819e-17 0.3333696432678644 -0.9427962032949102
12650613333.333334 0.3251103445503433 -0.9456760882385671 -3.006029542814131e-18 8.140254067264724e-17 -3.006029542814131e-18 8.140254067264724e-17 0.3251109454109751 -0.9456758816707883
12651230666.666666 0.31682677439691925 -0.9484834184238984 -2.2862784405665646e-18 8.14100280859698e-17 -2.2862784405665646e-18 8.14100280859698e-17 0.31682737701185565 -0.9484832171291322
12651848000.0 0.30851896742917057 -0.9512181909195597 -1.5666297904091953e-18 8.141115679692839e-17 -1.5666297904091953e-18 8.141115679692839e-17 0.308519571752143 -0.9512179949126883
12652465333.333334 0.30018755918302614 -0.9538801965192365 -8.471397224957251e-19 8.140592919962356e-17 -8.471397224957251e-19 8.140592919962356e-17 0.3001881651676408 -0.953880005814739
12653082666.666666 0.29183318699996275 -0.9564692315831625 -1.278643326916024e-19 8.139434818322427e-17 -1.278643326916024e-19 8.139434818322427e-17 0.2918337945997024 -0.9564690461951082
12653700000.0 0.283456489977975 -0.9589850980537739 5.911403217865521e-19 8.137641713154842e-17 5.911403217865521e-19 8.137641713154842e-17 0.2834570991462038 -0.9589849179958256
12654317333.333334 0.27505810892306726 -0.9614276034707486 1.3098182267291072e-18 8.135213992260671e-17 1.3098182267291072e-18 8.135213992260671e-17 0.2750587196130338 -0.9614274287561593
12654934666.666666 0.26663868629996024 -0.9637965609858092 2.0281134152842224e-18 8.132152092810653e-17 2.0281134152842224e-18 8.132152092810653e-17 0.2666392984648014 -0.9637963916274223
12655552000.0 0.2581988661829429 -0.9660917893770151 2.7459699723171197e-18 8.128456501291827e-17 2.7459699723171197e-18 8.128456501291827e-17 0.2581994797756875 -0.9660916253872639
12656169333.333334 0.2497392942068488 -0.968313113062561 3.4633320387289725e-18 8.124127753450413e-17 3.4633320387289725e-18 8.124127753450413e-17 0.24973990918042027 -0.9683129544534642
12656786666.666666 0.24126061751738953 -0.9704603621142742 4.180143815815917e-18 8.119166434230666e-17 4.180143815815917e-18 8.119166434230666e-17 0.2412612338246115 -0.9704602088974421
12657404000.0 0.23276348472179026 -0.9725333722705924 4.896349569587047e-18 8.113573177710154e-17 4.896349569587047e-18 8.113573177710154e-17 0.23276410231538786 -0.9725332244572178
12658021333.333334 0.22424854583911252 -0.9745319849491266 5.611893635091782e-18 8.107348667031026e-17 5.611893635091782e-18 8.107348667031026e-17 0.22424916467171763 -0.9745318425499896
12658638666.666666 0.21571645225067027 -0.9764560472587724 6.326720420724101e-18 8.100493634327721e-17 6.326720420724101e-18 8.100493634327721e-17 0.21571707227482442 -0.9764559102842377
12659256000.0 0.20716785664992143 -0.9783054120114627 7.040774412553833e-18 8.093008860650492e-17 7.040774412553833e-18 8.093008860650492e-17 0.20716847781807987 -0.9783052804714796
12659873333.333334 0.19860341299278825 -0.980079937733376 7.754000178606543e-18 8.084895175885612e-17 7.754000178606543e-18 8.084895175885612e-17 0.1986040352573229 -0.9800798116374755
12660490666.666666 0.1900237764476292 -0.9817794886757522 8.466342373156042e-18 8.076153458671562e-17 8.466342373156042e-18 8.076153458671562e-17 0.1900243997608334 -0.9817793680330503
12661108000.0 0.18142960334484357 -0.983403934825346 9.177745741031418e-18 8.066784636311223e-17 9.177745741031418e-18 8.066784636311223e-17 0.1814302276589345 -0.9834038196445385
12661725333.333334 0.17282155112705075 -0.9849531519142835 9.888155121860324e-18 8.056789684680927e-17 9.888155121860324e-18 8.056789684680927e-17 0.172822176394174 -0.9849530422036483
12662342666.666666 0.16420027829849135 -0.9864270214296335 1.0597515454360442e-17 8.046169628135052e-17 1.0597515454360442e-17 8.046169628135052e-17 0.16420090447072438 -0.9864269171970306
12662960000.0 0.15556644437476388 -0.9878254306224528 1.1305771780584994e-17 8.034925539407362e-17 1.1305771780584994e-17 8.034925539407362e-17 0.15556707140411927 -0.9878253318753202
12663577333.333334 0.14692070983245653 -0.9891482725163951 1.2012869250172197e-17 8.023058539508416e-17 1.2012869250172197e-17 8.023058539508416e-17 0.1469213376708862 -0.9891481792617517
12664194666.666666 0.13826373605845352 -0.9903954459159224 1.271875312458239e-17 8.01056979761927e-17 1.271875312458239e-17 8.01056979761927e-17 0.13826436465785222 -0.9903953581603668
12664812000.0 0.1295961852994526 -0.9915668554140319 1.3423368781324844e-17 7.997460530981498e-17 1.3423368781324844e-17 7.997460530981498e-17 0.12959681461166137 -0.9915667731637401
12665429333.333334 0.12091872061124666 -0.9926624113995558 1.412666171817604e-17 7.983732004783422e-17 1.412666171817604e-17 7.983732004783422e-17 0.12091935058805686 -0.992662334660283
12666046666.666666 0.11223200580814319 -0.9936820300640047 1.4828577557373468e-17 7.969385532042956e-17 1.4828577557373468e-17 7.969385532042956e-17 0.1122326364013001 -0.9936819588410843
12666664000.0 0.10353670541187232 -0.9946256334080155 1.5529062049834145e-17 7.954422473486015e-17 1.5529062049834145e-17 7.954422473486015e-17 0.1035373365730786 -0.9946255677063576
12667281333.333334 0.09483348460114695 -0.9954931492472685 1.6228061079305003e-17 7.938844237422382e-17 1.6228061079305003e-17 7.938844237422382e-17 0.09483411628206669 -0.9954930890713611
12667898666.666666 0.0861230091604956 -0.9962845112180473 1.6925520666555612e-17 7.922652279616869e-17 1.6925520666555612e-17 7.922652279616869e-17 0.0861236413127576 -0.9962844565719534
12668516000.0 0.07740594542932981 -0.996999658782305 1.7621386973535688e-17 7.905848103157165e-17 1.7621386973535688e-17 7.905848103157165e-17 0.07740657800453186 -0.9969996096696676
12669133333.333334 0.06868296025122579 -0.9976385372322829 1.8315606307500136e-17 7.888433258318645e-17 1.8315606307500136e-17 7.888433258318645e-17 0.06868359320093785 -0.997638493656319
12669750666.666666 0.05995472092262806 -0.9982010976947139 1.9008125125163557e-17 7.870409342424485e-17 1.9008125125163557e-17 7.870409342424485e-17 0.05995535419839614 -0.9982010596582161
12670368000.0 0.05122189514191546 -0.9986872971345497 1.9698890036810168e-17 7.851777999702913e-17 1.9698890036810168e-17 7.851777999702913e-17 0.05122252869526547 -0.998687264639889
12670985333.333334 0.04248515095840849 -0.9990970983582537 2.0387847810392373e-17 7.832540921140831e-17 2.0387847810392373e-17 7.832540921140831e-17 0.04248578474084978 -0.999097071407376
