! Parameters = {f0=12700.012000; bw=77.238000; Q=6100.000000; N=10; m_0_1=1.229324; m_1_1=-0.324881; m_1_2=1.064136; m_2_2=-0.325530; m_2_3=0.701099; m_2_8=-0.001470; m_2_9=0.035234; m_3_3=-0.327467; m_3_4=0.589628; m_3_7=-0.000870; m_3_8=-0.097958; m_3_9=-0.001470; m_4_4=-0.330392; m_4_5=0.425963; m_4_6=0.002647; m_4_7=-0.118507; m_4_8=-0.000870; m_5_5=-0.330010; m_5_6=0.833318; m_5_7=0.002647; m_6_6=-0.330011; m_6_7=0.426305; m_7_7=-0.330378; m_7_8=0.589746; m_8_8=-0.327469; m_8_9=0.701412; m_9_9=-0.325535; m_9_10=1.065214; m_10_10=-0.324891; m_10_11=1.230119}
!
! Created with skrf (http://scikit-rf.org).
# Hz S RI R 50.0 
!freq ReS11 ImS11 ReS21 ImS21 ReS12 ImS12 ReS22 ImS22
12607400000.0 0.9786597797090053 0.2054873124544551 -9.063907923641168e-17 7.362193650693848e-18 -9.063907923641168e-17 7.362193650693848e-18 0.9786596466037172 0.20548794638450812
12608017333.333334 0.9805324813903078 0.19635695286493005 -9.054805864119085e-17 8.213083453223719e-18 -9.054805864119085e-17 8.213083453223719e-18 0.9805323542054672 0.19635758797693298
12608634666.666666 0.9823200037459828 0.1872095356554443 -9.044905630042992e-17 9.06291279053394e-18 -9.044905630042992e-17 9.06291279053394e-18 0.9823198824920588 0.18721017189411174
12609252000.0 0.9840221914931807 0.17804585546648585 -9.034208410445666e-17 9.911606847860446e-18 -9.034208410445666e-17 9.911606847860446e-18 0.9840220761801252 0.1780464927764398
12609869333.333334 0.9856388967620993 0.16886670835137035 -9.022715464431037e-17 1.0759090940222569e-17 -9.022715464431037e-17 1.0759090940222569e-17 0.9856387873993474 0.16886734667714526
12610486666.666666 0.9871699791088407 0.15967289170703178 -9.010428121035571e-17 1.1605290518960246e-17 -9.010428121035571e-17 1.1605290518960246e-17 0.98716987570531 0.15967353099307915
12611104000.0 0.988615305527626 0.1504652042046679 -8.997347779082769e-17 1.245013117832067e-17 -8.997347779082769e-17 1.245013117832067e-17 0.9886152080917153 0.15046584439536145
12611721333.333334 0.9899747504623172 0.14124444572055606 -8.983475907032597e-17 1.3293538661942633e-17 -8.983475907032597e-17 1.3293538661942633e-17 0.989974659001906 0.14124508676019615
12612338666.666666 0.9912481958173535 0.13201141726637028 -8.968814042824062e-17 1.4135438869386513e-17 -8.968814042824062e-17 1.4135438869386513e-17 0.9912481103398014 0.13201205909918917
12612956000.0 0.9924355309679996 0.12276692091968204 -8.953363793711671e-17 1.4975757862645372e-17 -8.953363793711671e-17 1.4975757862645372e-17 0.9924354514801459 0.12276756348984842
12613573333.333334 0.993536652769942 0.11351175975436725 -8.937126836096563e-17 1.581442187259318e-17 -8.937126836096563e-17 1.581442187259318e-17 0.993536579278106 0.11351240300599141
12614190666.666666 0.9945514655682797 0.1042467377706463 -8.920104915350797e-17 1.665135730546402e-17 -8.920104915350797e-17 1.665135730546402e-17 0.9945513980782572 0.10424738164778459
12614808000.0 0.995479881205798 0.09497265982546498 -8.902299845635861e-17 1.7486490749297927e-17 -8.902299845635861e-17 1.7486490749297927e-17 0.9954798197228658 0.09497330427212511
12615425333.333334 0.9963218190306603 0.08569033156237954 -8.883713509715325e-17 1.8319748980360576e-17 -8.883713509715325e-17 1.8319748980360576e-17 0.9963217635595694 0.08569097652252496
12616042666.666666 0.997077205903393 0.07640055934165367 -8.864347858761497e-17 1.9151058969541153e-17 -8.864347858761497e-17 1.9151058969541153e-17 0.9970771564483744 0.07640120475920897
12616660000.0 0.99774597620324 0.06710415017029542 -8.844204912155735e-17 1.998034788875346e-17 -8.844204912155735e-17 1.998034788875346e-17 0.9977459327680014 0.06710479598915088
12617277333.333334 0.9983280718338803 0.05780191163172518 -8.823286757283112e-17 2.0807543117296257e-17 -8.823286757283112e-17 2.0807543117296257e-17 0.9983280344216043 0.05780255779574158
12617894666.666666 0.9988234422284457 0.04849465181598893 -8.801595549321603e-17 2.1632572248178027e-17 -8.801595549321603e-17 2.1632572248178027e-17 0.998823410841794 0.04849529826900274
12618512000.0 0.9992320443539486 0.0391831792490488 -8.77913351102379e-17 2.2455363094482764e-17 -8.77913351102379e-17 2.2455363094482764e-17 0.9992320189950578 0.0391838259348768
12619129333.333334 0.9995538427149915 0.029868302823028166 -8.755902932494833e-17 2.3275843695628935e-17 -8.755902932494833e-17 2.3275843695628935e-17 0.999553823385475 0.029868949685472424
12619746666.666666 0.9997888093568637 0.020550831725744314 -8.73190617096298e-17 2.4093942323665783e-17 -8.73190617096298e-17 2.4093942323665783e-17 0.9997887960578096 0.020551478708597016
12620364000.0 0.9999369238679691 0.011231575370243295 -8.707145650544323e-17 2.4909587489544032e-17 -8.707145650544323e-17 2.4909587489544032e-17 0.999936916599944 0.01123222241729173
12620981333.333334 0.9999981733815958 0.0019113433248268835 -8.681623862002978e-17 2.57227079493185e-17 -8.681623862002978e-17 2.57227079493185e-17 0.9999981721446405 0.0019119903798582233
12621598666.666666 0.9999725525770368 -0.00740905475747397 -8.655343362504069e-17 2.6533232710373442e-17 -8.655343362504069e-17 2.6533232710373442e-17 0.9999725573706681 -0.007408407750667737
12622216000.0 0.99986006368005 -0.01672880920929091 -8.628306775361448e-17 2.7341091037608586e-17 -8.628306775361448e-17 2.7341091037608586e-17 0.9998600745032616 -0.0167281623069081
12622833333.333334 0.9996607164626659 -0.026047110419083842 -8.600516789779715e-17 2.8146212459594874e-17 -8.600516789779715e-17 2.8146212459594874e-17 0.9996607333139287 -0.026046463677308226
12623450666.666666 0.9993745282423406 -0.03536314890155755 -8.571976160591052e-17 2.894852677468985e-17 -8.571976160591052e-17 2.894852677468985e-17 0.9993745511196006 -0.035362502376553424
12624068000.0 0.9990015238804483 -0.04467611536803891 -8.542687707984936e-17 2.9747964057170936e-17 -8.542687707984936e-17 2.9747964057170936e-17 0.9990015527811281 -0.044675469115946234
12624685333.333334 0.9985417357801187 -0.0539852007967232 -8.512654317233095e-17 3.054445466330978e-17 -8.512654317233095e-17 3.054445466330978e-17 0.9985417707011203 -0.053984554873652814
12625302666.666666 0.997995203883437 -0.06328959650284097 -8.481878938409946e-17 3.133792923739312e-17 -8.481878938409946e-17 3.133792923739312e-17 0.997995244821137 -0.06328895096486957
12625920000.0 0.9973619756679465 -0.07258849420924908 -8.450364586104323e-17 3.212831871779771e-17 -8.450364586104323e-17 3.212831871779771e-17 0.9973620226182004 -0.07258784911241441
12626537333.333334 0.9966421061425568 -0.08188108611616397 -8.418114339129e-17 3.291555434294526e-17 -8.418114339129e-17 3.291555434294526e-17 0.9966421591006994 -0.08188044151646015
12627154666.666666 0.9958356578427459 -0.09116656497170467 -8.385131340222944e-17 3.3699567657276945e-17 -8.385131340222944e-17 3.3699567657276945e-17 0.9958357168035886 -0.09116592092507693
12627772000.0 0.9949427008251226 -0.1004441241419617 -8.351418795747001e-17 3.4480290517219375e-17 -8.351418795747001e-17 3.4480290517219375e-17 0.9949427657829566 -0.10044348070430188
12628389333.333334 0.9939633126613625 -0.10971295768087201 -8.316979975377004e-17 3.5257655097052074e-17 -8.316979975377004e-17 3.5257655097052074e-17 0.9939633836099597 -0.10971231490801366
12629006666.666666 0.9928975784314369 -0.1189722604005714 -8.281818211788451e-17 3.603159389481306e-17 -8.281818211788451e-17 3.603159389481306e-17 0.9928976553640483 -0.11897161834828475
12629624000.0 0.9917455907162641 -0.12822122794094587 -8.245936900337538e-17 3.680203973813349e-17 -8.245936900337538e-17 3.680203973813349e-17 0.9917456736256202 -0.1282205866649329
12630241333.333334 0.9905074495896213 -0.13745905683984488 -8.209339498735848e-17 3.7568925790059557e-17 -8.209339498735848e-17 3.7568925790059557e-17 0.9905075384679366 -0.13745841639573508
12630858666.666666 0.9891832626094921 -0.14668494460262574 -8.172029526720991e-17 3.833218555481437e-17 -8.172029526720991e-17 3.833218555481437e-17 0.9891833574484639 -0.14668430504597088
12631476000.0 0.9877731448086899 -0.15589808977209177 -8.134010565719075e-17 3.9091752883588166e-17 -8.134010565719075e-17 3.9091752883588166e-17 0.9877732455994953 -0.15589745115836076
12632093333.333334 0.9862772186848819 -0.1650976919979454 -8.095286258505409e-17 3.9847561980218586e-17 -8.095286258505409e-17 3.9847561980218586e-17 0.9862773254181857 -0.16509705438252034
12632710666.666666 0.9846956141899701 -0.1742829521062609 -8.055860308857886e-17 4.0599547406881914e-17 -8.055860308857886e-17 4.0599547406881914e-17 0.9846957268559186 -0.1742823155444312
12633328000.0 0.9830284687187356 -0.18345307216924384 -8.015736481204143e-17 4.134764408976853e-17 -8.015736481204143e-17 4.134764408976853e-17 0.9830285873069626 -0.1834524367162023
12633945333.333334 0.9812759270969634 -0.1926072555742113 -7.97491860026611e-17 4.20917873246711e-17 -7.97491860026611e-17 4.20917873246711e-17 0.9812760515965894 -0.19260662128504913
12634562666.666666 0.9794381415688569 -0.20174470709285164 -7.93341055069781e-17 4.28319127825702e-17 -7.93341055069781e-17 4.28319127825702e-17 0.9794382719684875 -0.201744074022553
12635180000.0 0.9775152717837766 -0.21086463295044375 -7.89121627671746e-17 4.35679565151934e-17 -7.89121627671746e-17 4.35679565151934e-17 0.9775154080715099 -0.2108640011538824
12635797333.333334 0.9755074847823904 -0.2199662408947584 -7.848339781736027e-17 4.429985496050906e-17 -7.848339781736027e-17 4.429985496050906e-17 0.9755076269458111 -0.21996561042669147
12636414666.666666 0.9734149549821989 -0.22904874026468647 -7.804785127979513e-17 4.502754494820663e-17 -7.804785127979513e-17 4.502754494820663e-17 0.9734151030083843 -0.22904811117975052
12637032000.0 0.9712378641623083 -0.23811134205928494 -7.760556436106111e-17 4.575096370513979e-17 -7.760556436106111e-17 4.575096370513979e-17 0.9712380180378266 -0.23811071441199114
12637649333.333334 0.9689764014477112 -0.24715325900598528 -7.715657884819636e-17 4.647004886071013e-17 -7.715657884819636e-17 4.647004886071013e-17 0.968976561158625 -0.2471526328507145
12638266666.666666 0.9666307632928078 -0.2561737056292055 -7.670093710476216e-17 4.7184738452244353e-17 -7.670093710476216e-17 4.7184738452244353e-17 0.9666309288246732 -0.25617308102020375
12638884000.0 0.9642011534643576 -0.2651718983185015 -7.623868206687252e-17 4.789497093031094e-17 -7.623868206687252e-17 4.789497093031094e-17 0.9642013248022273 -0.2651712753098753
12639501333.333334 0.9616877830237925 -0.2741470553965849 -7.576985723917418e-17 4.8600685164000543e-17 -7.576985723917418e-17 4.8600685164000543e-17 0.9616879601522154 -0.2741464340422962
12640118666.666666 0.9590908703088867 -0.2830983971872291 -7.529450669077527e-17 4.9301820446172e-17 -7.529450669077527e-17 4.9301820446172e-17 0.9590910532119101 -0.28309777754109083
12640736000.0 0.9564106409146815 -0.29202514608335295 -7.481267505110634e-17 4.999831649868579e-17 -7.481267505110634e-17 4.999831649868579e-17 0.9564108295758538 -0.29202452819902475
12641353333.333334 0.9536473276741082 -0.30092652661383745 -7.432440750579124e-17 5.069011347751305e-17 -7.432440750579124e-17 5.069011347751305e-17 0.9536475220764781 -0.3009259105448204
12641970666.666666 0.9508011706375395 -0.3098017655116254 -7.382974979239283e-17 5.137715197791855e-17 -7.382974979239283e-17 5.137715197791855e-17 0.9508013707636598 -0.30980115131125785
12642588000.0 0.9478724170520457 -0.3186500917805429 -7.332874819616875e-17 5.205937303951783e-17 -7.332874819616875e-17 5.205937303951783e-17 0.947872622883973 -0.3186494795019956
12643205333.333334 0.9448613213399333 -0.32747073676222144 -7.282144954576498e-17 5.273671815131679e-17 -7.282144954576498e-17 5.273671815131679e-17 0.9448615328592301 -0.32747012645849294
12643822666.666666 0.9417681450765426 -0.3362629342031682 -7.230790120884518e-17 5.340912925673435e-17 -7.230790120884518e-17 5.340912925673435e-17 0.9417683622642807 -0.3362623259270808
12644440000.0 0.9385931569676479 -0.3450259203209822 -7.17881510877004e-17 5.4076548758545337e-17 -7.17881510877004e-17 5.4076548758545337e-17 0.9385933798044067 -0.3450253141251762
12645057333.333334 0.9353366328260367 -0.35375893387091795 -7.126224761480521e-17 5.473891952379382e-17 -7.126224761480521e-17 5.473891952379382e-17 0.9353368612919079 -0.35375832980784827
12645674666.666666 0.9319988555475804 -0.3624612162119358 -7.073023974831564e-17 5.5396184888679506e-17 -7.073023974831564e-17 5.5396184888679506e-17 0.9319990896221685 -0.36246061433386695
12646292000.0 0.9285801150866204 -0.37113201137271207 -7.019217696752525e-17 5.60482886633961e-17 -7.019217696752525e-17 5.60482886633961e-17 0.9285803547490442 -0.3711314117317135
12646909333.333334 0.9250807084308457 -0.3797705661171234 -6.964810926830882e-17 5.669517513688636e-17 -6.964810926830882e-17 5.669517513688636e-17 0.9250809536597415 -0.3797699687650654
12647526666.666666 0.9215009395754266 -0.3883761300098676 -6.90980871584715e-17 5.733678908161685e-17 -6.90980871584715e-17 5.733678908161685e-17 0.921501190348949 -0.3883755349984165
12648144000.0 0.9178411194966449 -0.3969479554815478 -6.854216165308541e-17 5.797307575826747e-17 -6.854216165308541e-17 5.797307575826747e-17 0.9178413757924683 -0.39694736286216126
12648761333.333334 0.9141015661248468 -0.40548529789369264 -6.798038426978949e-17 5.860398092037125e-17 -6.798038426978949e-17 5.860398092037125e-17 0.9141018279201695 -0.405484707717616
12649378666.666666 0.9102826043169172 -0.4139874156032359 -6.741280702402474e-17 5.922945081893354e-17 -6.741280702402474e-17 5.922945081893354e-17 0.9102828715884602 -0.41398682792149677
12649996000.0 0.9063845658279183 -0.42245357002725403 -6.683948242423355e-17 5.98494322069974e-17 -6.683948242423355e-17 5.98494322069974e-17 0.9063848385519301 -0.42245298489065863
12650613333.333334 0.9024077892823402 -0.4308830257069723 -6.626046346703146e-17 6.046387234414801e-17 -6.626046346703146e-17 6.046387234414801e-17 0.9024080674345989 -0.4308824431661009
12651230666.666666 0.898352620144771 -0.4392750503714743 -6.567580363232369e-17 6.107271900098546e-17 -6.567580363232369e-17 6.107271900098546e-17 0.8983529037005843 -0.4392744704766767
12651848000.0 0.8942194106896885 -0.44762891500172514 -6.508555687837199e-17 6.167592046355967e-17 -6.508555687837199e-17 6.167592046355967e-17 0.894219699623898 -0.4476283378031166
12652465333.333334 0.890008519971007 -0.45594389389359463 -6.448977763685424e-17 6.227342553772298e-17 -6.448977763685424e-17 6.227342553772298e-17 0.8900088142579891 -0.4559433194410509
12653082666.666666 0.8857203137909248 -0.46421926472082314 -6.388852080785318e-17 6.286518355346842e-17 -6.388852080785318e-17 6.286518355346842e-17 0.8857206134045932 -0.46421869306397673
12653700000.0 0.8813551646679283 -0.4724543085982024 -6.328184175480266e-17 6.345114436922129e-17 -6.328184175480266e-17 6.345114436922129e-17 0.8813554695817372 -0.47245373978643823
12654317333.333334 0.8769134518047176 -0.48064831014346815 -6.266979629943869e-17 6.403125837603885e-17 -6.266979629943869e-17 6.403125837603885e-17 0.8769137619916628 -0.4806477442259191
12654934666.666666 0.8723955610550426 -0.488800557539876 -6.205244071665236e-17 6.460547650182122e-17 -6.205244071665236e-17 6.460547650182122e-17 0.8723958764876655 -0.48879999456541906
12655552000.0 0.8678018848902181 -0.4969103425979584 -6.14298317293385e-17 6.517375021543818e-17 -6.14298317293385e-17 6.517375021543818e-17 0.867802205540606 -0.49690978261520974
12656169333.333334 0.8631328223651996 -0.5049769608167496 -6.080202650322422e-17 6.573603153079178e-17 -6.080202650322422e-17 6.573603153079178e-17 0.8631331482049899 -0.5049764038740608
12656786666.666666 0.8583887790836917 -0.5129997114453809 -6.01690826416078e-17 6.629227301087724e-17 -6.01690826416078e-17 6.629227301087724e-17 0.858389110084074 -0.5129991575908354
12657404000.0 0.8535701671630287 -0.5209778975437592 -5.953105818010594e-17 6.684242777175262e-17 -5.953105818010594e-17 6.684242777175262e-17 0.853570503294746 -0.5209773468251665
12658021333.333334 0.8486774051983819 -0.5289108260430837 -5.888801158135147e-17 6.738644948646954e-17 -5.888801158135147e-17 6.738644948646954e-17 0.8486777464317358 -0.528910278507977
12658638666.666666 0.8437109182263769 -0.5367978078061058 -5.82400017296522e-17 6.792429238895755e-17 -5.82400017296522e-17 6.792429238895755e-17 0.8437112645312276 -0.5367972635017365
12659256000.0 0.8386711376881314 -0.5446381576870385 -5.758708792560197e-17 6.845591127786573e-17 -5.758708792560197e-17 6.845591127786573e-17 0.8386714890339025 -0.5446376166603735
12659873333.333334 0.8335585013918111 -0.5524311945910308 -5.692932988069433e-17 6.898126152032256e-17 -5.692932988069433e-17 6.898126152032256e-17 0.8335588577474913 -0.5524306568887478
12660490666.666666 0.8283734534746419 -0.5601762415332622 -5.626678771186752e-17 6.950029905567395e-17 -5.626678771186752e-17 6.950029905567395e-17 0.828373814808786 -0.5601757072017441
12661108000.0 0.8231164443642163 -0.5678726256979165 -5.559952193601216e-17 7.001298039916899e-17 -5.559952193601216e-17 7.001298039916899e-17 0.8231168106449523 -0.567872094783251
12661725333.333334 0.817787930739495 -0.575519678496445 -5.492759346449459e-17 7.051926264555669e-17 -5.492759346449459e-17 7.051926264555669e-17 0.8177883019345223 -0.5755191510444166
12662342666.666666 0.8123883754910033 -0.5831167356258308 -5.425106359757934e-17 7.101910347268326e-17 -5.425106359757934e-17 7.101910347268326e-17 0.8123887515675989 -0.5831162116819201
12662960000.0 0.8069182476807514 -0.5906631371261135 -5.35699940188689e-17 7.151246114499656e-17 -5.35699940188689e-17 7.151246114499656e-17 0.8069186286057706 -0.5906626167354914
12663577333.333334 0.8013780225013715 -0.5981582274378812 -5.28844467897005e-17 7.199929451700777e-17 -5.28844467897005e-17 7.199929451700777e-17 0.8013784082412524 -0.5981577106454056
12664194666.666666 0.7957681812348856 -0.6056013554591493 -5.219448434349498e-17 7.247956303671114e-17 -5.219448434349498e-17 7.247956303671114e-17 0.7957685717556505 -0.6056008423093611
12664812000.0 0.7900892112109495 -0.612991874601855 -5.150016948009322e-17 7.2953226748936e-17 -5.150016948009322e-17 7.2953226748936e-17 0.7900896064782096 -0.6129913651389747
12665429333.333334 0.7843416057643793 -0.6203291428482075 -5.080156536006049e-17 7.342024629864661e-17 -5.080156536006049e-17 7.342024629864661e-17 0.7843420057433363 -0.6203286371161305
12666046666.666666 0.7785258641925228 -0.6276125228061679 -5.009873549895521e-17 7.388058293419244e-17 -5.009873549895521e-17 7.388058293419244e-17 0.7785262688479728 -0.6276120208484619
12666664000.0 0.7726424917115674 -0.6348413817652222 -4.939174376155313e-17 7.433419851051261e-17 -4.939174376155313e-17 7.433419851051261e-17 0.7726429010079039 -0.6348408836251223
12667281333.333334 0.766691999412954 -0.6420150917509667 -4.868065435609615e-17 7.478105549225116e-17 -4.868065435609615e-17 7.478105549225116e-17 0.7666924133141705 -0.6420145974713725
12667898666.666666 0.7606749042188544 -0.6491330295798179 -4.796553182844302e-17 7.522111695686302e-17 -4.796553182844302e-17 7.522111695686302e-17 0.7606753226885479 -0.6491325392032888
12668516000.0 0.7545917288371538 -0.6561945769132749 -4.724644105623229e-17 7.565434659763733e-17 -4.724644105623229e-17 7.565434659763733e-17 0.7545921518385277 -0.6561940904820278
12669133333.333334 0.7484430017162635 -0.6631991203113774 -4.6523447243038505e-17 7.608070872665487e-17 -4.6523447243038505e-17 7.608070872665487e-17 0.7484434292121325 -0.6631986378672828
12669750666.666666 0.7422292569990894 -0.670146051286148 -4.5796615912438517e-17 7.650016827772648e-17 -4.5796615912438517e-17 7.650016827772648e-17 0.7422296889518794 -0.6701455728707246
12670368000.0 0.7359510344765667 -0.6770347663545105 -4.506601290211498e-17 7.691269080923818e-17 -4.506601290211498e-17 7.691269080923818e-17 0.7359514708483226 -0.677034292008925
