! Parameters = {f0=12700.012000; bw=77.238000; Q=6100.000000; N=10; m_0_1=1.351046; m_1_1=1.500945; m_1_2=1.185858; m_2_2=1.500296; m_2_3=0.822821; m_2_8=0.004616; m_2_9=0.041320; m_3_3=1.498359; m_3_4=0.711350; m_3_7=0.005216; m_3_8=-0.091872; m_3_9=0.004616; m_4_4=1.495434; m_4_5=0.547685; m_4_6=0.008733; m_4_7=-0.112421; m_4_8=0.005216; m_5_5=1.495816; m_5_6=0.955040; m_5_7=0.008733; m_6_6=1.495815; m_6_7=0.548027; m_7_7=1.495448; m_7_8=0.711468; m_8_8=1.498357; m_8_9=0.823134; m_9_9=1.500291; m_9_10=1.186936; m_10_10=1.500935; m_10_11=1.351841}
!
! Created with skrf (http://scikit-rf.org).
# Hz S RI R 50.0 
!freq ReS11 ImS11 ReS21 ImS21 ReS12 ImS12 ReS22 ImS22
12607400000.0 -0.47750512491595853 0.8786289636011296 3.326831637881559e-17 -1.562351149044663e-16 3.326831637881559e-17 -1.562351149044663e-16 -0.4775057501963574 0.8786286237820928
12608017333.333334 -0.4661146904913899 0.8847243046892727 3.1227205026326675e-17 -1.5662395421564608e-16 3.1227205026326675e-17 -1.5662395421564608e-16 -0.46611532007874945 0.8847239729925291
12608634666.666666 -0.4546464637745287 0.8906719895545816 2.91816094996863e-17 -1.569861420616916e-16 2.91816094996863e-17 -1.569861420616916e-16 -0.45464709756335775 0.8906716660346925
12609252000.0 -0.44310235875718107 0.8964710255572256 2.7131877609922184e-17 -1.5732162760604047e-16 2.7131877609922184e-17 -1.5732162760604047e-16 -0.44310299664129665 0.8964707102673811
12609869333.333334 -0.43148430209482047 0.9021204448661752 2.5078357731581618e-17 -1.5763036454877133e-16 2.5078357731581618e-17 -1.5763036454877133e-16 -0.43148494396736775 0.9021201378581885
12610486666.666666 -0.4197942327852982 0.9076193046206118 2.302139874356268e-17 -1.579123111326644e-16 2.302139874356268e-17 -1.579123111326644e-16 -0.4197948785387665 0.9076190059449077
12611104000.0 -0.4080341018446662 0.9129666870875501 2.096134996988275e-17 -1.5816743014848757e-16 2.096134996988275e-17 -1.5816743014848757e-16 -0.40803475137090756 0.9129663967931577
12611721333.333334 -0.3962058719822839 0.9181616998146674 1.889856112047631e-17 -1.5839568893950318e-16 1.889856112047631e-17 -1.5839568893950318e-16 -0.3962065251725314 0.9181614179492127
12612338666.666666 -0.3843115172727351 0.9232034757794881 1.683338223186947e-17 -1.5859705940521233e-16 1.683338223186947e-17 -1.5859705940521233e-16 -0.3843121740176217 0.9232032023891864
12612956000.0 -0.37235302282636284 0.9280911735340818 1.476616360782246e-17 -1.5877151800432687e-16 1.476616360782246e-17 -1.5877151800432687e-16 -0.37235368301593835 0.928090908663729
12613573333.333334 -0.3603323844584353 0.9328239773452968 1.2697255760040407e-17 -1.5891904575696048e-16 1.2697255760040407e-17 -1.5891904575696048e-16 -0.3603330479821851 0.9328237210382614
12614190666.666666 -0.3482516083555284 0.9374010973311201 1.0627009348736705e-17 -1.59039628246059e-16 1.0627009348736705e-17 -1.59039628246059e-16 -0.3482522751023929 0.9374008496293392
12614808000.0 -0.336112710740967 0.9418217695923997 8.555775123330098e-18 -1.5913325561804892e-16 8.555775123330098e-18 -1.5913325561804892e-16 -0.33611338059935963 0.9418215305363697
12615425333.333334 -0.323917717538274 0.946085256340355 6.483903863059447e-18 -1.591999225827197e-16 6.483903863059447e-18 -1.591999225827197e-16 -0.32391839039609954 0.9460850259691251
12616042666.666666 -0.31166866403305254 0.9501908460197097 4.411746317616705e-18 -1.5923962841233365e-16 4.411746317616705e-18 -1.5923962841233365e-16 -0.3116693397777264 0.9501906243708765
12616660000.0 -0.2993675945333082 0.9541378534274496 2.339653147898589e-18 -1.5925237693996123e-16 2.339653147898589e-18 -1.5925237693996123e-16 -0.29936827305177466 0.9541376405371492
12617277333.333334 -0.2870165620282076 0.9579256198271915 2.6797486666072173e-19 -1.5923817655705e-16 2.6797486666072173e-19 -1.5923817655705e-16 -0.2870172432069595 0.9579254157300959
12617894666.666666 -0.27461762784571797 0.9615535130590455 -1.8029382206351563e-18 -1.591970402102209e-16 -1.8029382206351563e-18 -1.591970402102209e-16 -0.27461831157081523 0.9615533177883558
12618512000.0 -0.26217286130798156 0.9650209276452957 -3.8727360750605715e-18 -1.5912898539729579e-16 -3.8727360750605715e-18 -1.5912898539729579e-16 -0.26217354746507027 0.9650207412327367
12619129333.333334 -0.2496843393867195 0.9683272848912278 -5.941068983255714e-18 -1.5903403416255853e-16 -5.941068983255714e-18 -1.5903403416255853e-16 -0.24968502786105115 0.9683271073670435
12619746666.666666 -0.23715414635605017 0.9714720329818728 -8.007587616477189e-18 -1.5891221309124745e-16 -8.007587616477189e-18 -1.5891221309124745e-16 -0.23715483703250054 0.9714718643748198
12620364000.0 -0.22458437344462998 0.9744546470740865 -1.0071943089557508e-17 -1.587635533032805e-16 -1.0071943089557508e-17 -1.587635533032805e-16 -0.22458506620771887 0.974454487411431
12620981333.333334 -0.21197711848713605 0.9772746293840293 -1.2133787019685302e-17 -1.5858809044622142e-16 -1.2133787019685302e-17 -1.5858809044622142e-16 -0.21197781322104586 0.9772744786915409
12621598666.666666 -0.1993344855735944 0.979931509270373 -1.41927715851588e-17 -1.5838586468747744e-16 -1.41927715851588e-17 -1.5838586468747744e-16 -0.19933518216219065 0.9799313675723245
12622216000.0 -0.18665858469849478 0.9824248433127877 -1.6248549584021416e-17 -1.5815692070573595e-16 -1.6248549584021416e-17 -1.5815692070573595e-16 -0.1866592830253445 0.9824247106319473
12622833333.333334 -0.17395153140853079 0.9847542153859655 -1.830077449248844e-17 -1.5790130768164718e-16 -1.830077449248844e-17 -1.5790130768164718e-16 -0.17395223135692217 0.984754091743593
12623450666.666666 -0.16121544644974883 0.9869192367290284 -2.0349100523317468e-17 -1.5761907928774425e-16 -2.0349100523317468e-17 -1.5761907928774425e-16 -0.16121614790271122 0.9869191221448756
12624068000.0 -0.14845245541332786 0.9889195460104699 -2.2393182684022063e-17 -1.5731029367760535e-16 -2.2393182684022063e-17 -1.5731029367760535e-16 -0.14845315825365055 0.9889194405027728
12624685333.333334 -0.1356646883807693 0.9907548093884528 -2.4432676834901398e-17 -1.5697501347426622e-16 -2.4432676834901398e-17 -1.5697501347426622e-16 -0.1356653924910218 0.9907547129739319
12625302666.666666 -0.12285427956890409 0.9924247205664555 -2.6467239746840807e-17 -1.5661330575789246e-16 -2.6467239746840807e-17 -1.5661330575789246e-16 -0.12285498483145524 0.9924246332603115
12625920000.0 -0.11002336697313941 0.9939290008444743 -2.849652915916734e-17 -1.5622524205266508e-16 -2.849652915916734e-17 -1.5622524205266508e-16 -0.11002407327017757 0.9939289226603881
12626537333.333334 -0.09717409201086274 0.995267399165504 -3.0520203836971596e-17 -1.5581089831297705e-16 -3.0520203836971596e-17 -1.5581089831297705e-16 -0.09717479922441483 0.9952673301156304
12627154666.666666 -0.08430859916427542 0.9964396921574119 -3.253792362854534e-17 -1.5537035490883392e-16 -3.253792362854534e-17 -1.5537035490883392e-16 -0.08430930717622728 0.9964396322523835
12627772000.0 -0.07142903562186749 0.9974456841702869 -3.4549349522470596e-17 -1.5490369661053536e-16 -3.4549349522470596e-17 -1.5490369661053536e-16 -0.07142974431398288 0.9974456334192054
12628389333.333334 -0.05853755092085361 0.9982852073090083 -3.6554143704459026e-17 -1.544110125726297e-16 -3.6554143704459026e-17 -1.544110125726297e-16 -0.058538260174794625 0.9982851657194497
12629006666.666666 -0.045636296587803736 0.9989581214613311 -3.855196961408092e-17 -1.5389239631710693e-16 -3.855196961408092e-17 -1.5389239631710693e-16 -0.045637006285150154 0.99895808903934
12629624000.0 -0.032727425779846386 0.9994643143212402 -4.0542492001172055e-17 -1.5334794571587963e-16 -4.0542492001172055e-17 -1.5334794571587963e-16 -0.0327281358021156 0.9994642910713314
12630241333.333334 -0.0198130929252606 0.9998037014076995 -4.252537698200576e-17 -1.5277776297253365e-16 -4.252537698200576e-17 -1.5277776297253365e-16 -0.019813803153927383 0.9998036873328577
12630858666.666666 -0.0068954533639123215 0.9999762260787544 -4.45002920952472e-17 -1.5218195460334534e-16 -4.45002920952472e-17 -1.5218195460334534e-16 -0.006896163680428529 0.9999762211804307
12631476000.0 0.006023337012461567 0.9999818595409793 -4.646690635765316e-17 -1.515606314175719e-16 -4.646690635765316e-17 -1.515606314175719e-16 0.006022626726647127 0.9999818638190956
12632093333.333334 0.018941122120117924 0.9998206008542891 -4.842489031942272e-17 -1.509139084970476e-16 -4.842489031942272e-17 -1.509139084970476e-16 0.018940411983539733 0.999820614307234
12632710666.666666 0.03185574604292 0.9994924769320928 -5.0373916119344724e-17 -1.5024190517504267e-16 -5.0373916119344724e-17 -1.5024190517504267e-16 0.03185503617407606 0.9994924995567248
12633328000.0 0.04476505339249044 0.9989975425368008 -5.2313657539654307e-17 -1.495447450144088e-16 -5.2313657539654307e-17 -1.495447450144088e-16 0.04476434390982252 0.9989975743284487
12633945333.333334 0.057666889667708006 0.9983358802706902 -5.424379006050543e-17 -1.4882255578504938e-16 -5.424379006050543e-17 -1.4882255578504938e-16 0.05766618068958176 0.9983359212231512
12634562666.666666 0.0705591016143399 0.99750760056211 -5.616399091426193e-17 -1.480754694406402e-16 -5.616399091426193e-17 -1.480754694406402e-16 0.07055839325902535 0.9975076506676558
12635180000.0 0.08343953758440995 0.9965128416470608 -5.807393913933607e-17 -1.4730362209470258e-16 -5.807393913933607e-17 -1.4730362209470258e-16 0.08343882997006152 0.9965129008964351
12635797333.333334 0.09630604789535453 0.9953517695461127 -5.997331563384345e-17 -1.4650715399592747e-16 -5.997331563384345e-17 -1.4650715399592747e-16 0.0963053411399915 0.995351837928534
12636414666.666666 0.10915648518856798 0.9940245780367196 -6.18618032087468e-17 -1.4568620950287894e-16 -6.18618032087468e-17 -1.4568620950287894e-16 0.10915577941005478 0.9940246555398838
12637032000.0 0.12198870478812605 0.9925314886208482 -6.373908664087215e-17 -1.4484093705792534e-16 -6.373908664087215e-17 -1.4484093705792534e-16 0.12198800010415241 0.9925315752309294
12637649333.333334 0.13480056505849525 0.9908727504880288 -6.560485272535598e-17 -1.4397148916057869e-16 -6.560485272535598e-17 -1.4397148916057869e-16 0.13479986158655696 0.9908728461896844
12638266666.666666 0.14758992776201849 0.9890486404737654 -6.745879032790411e-17 -1.4307802234008528e-16 -6.745879032790411e-17 -1.4307802234008528e-16 0.1475892256193975 0.9890487452501355
12638884000.0 0.16035465841577623 0.9870594630133285 -6.930059043654027e-17 -1.4216069712740625e-16 -6.930059043654027e-17 -1.4216069712740625e-16 0.1603539577195213 0.9870595768460418
12639501333.333334 0.17309262664787783 0.984905550090941 -7.112994621311435e-17 -1.4121967802646934e-16 -7.112994621311435e-17 -1.4121967802646934e-16 0.17309192751478475 0.9849056729601154
12640118666.666666 0.18580170655267408 0.9825872611844277 -7.29465530442451e-17 -1.4025513348484578e-16 -7.29465530442451e-17 -1.4025513348484578e-16 0.18580100909926647 0.9825873930686752
12640736000.0 0.19847977704645564 0.9801049832050593 -7.47501085921231e-17 -1.3926723586364196e-16 -7.47501085921231e-17 -1.3926723586364196e-16 0.19847908138896547 0.9801051240814905
12641353333.333334 0.21112472222011044 0.9774591304332282 -7.654031284458228e-17 -1.3825616140691102e-16 -7.654031284458228e-17 -1.3825616140691102e-16 0.21112402847445833 0.9774592802774533
12641970666.666666 0.2237344316934314 0.9746501444490832 -7.831686816508406e-17 -1.372220902102471e-16 -7.831686816508406e-17 -1.372220902102471e-16 0.22373373997520798 0.9746503032352206
12642588000.0 0.23630680096677073 0.9716784940589419 -8.007947934202725e-17 -1.3616520618887726e-16 -8.007947934202725e-17 -1.3616520618887726e-16 0.2363061113912168 0.9716786617596187
12643205333.333334 0.2488397317723268 0.9685446752170381 -8.182785363779375e-17 -1.350856970450284e-16 -8.182785363779375e-17 -1.350856970450284e-16 0.24883904445431437 0.9685448518033971
12643822666.666666 0.2613311324245561 0.9652492109426976 -8.35617008372704e-17 -1.3398375423471521e-16 -8.35617008372704e-17 -1.3398375423471521e-16 0.26133044747856926 0.9652493963844017
12644440000.0 0.2737789181689884 0.9617926512331125 -8.528073329593363e-17 -1.32859572933902e-16 -8.528073329593363e-17 -1.32859572933902e-16 0.27377823570910437 0.9617928454983493
12645057333.333334 0.28618101153021924 0.9581755729715419 -8.698466598751941e-17 -1.317133520040267e-16 -8.698466598751941e-17 -1.317133520040267e-16 0.2861803316700888 0.958175776027029
12645674666.666666 0.29853534265863074 0.9543985798310339 -8.86732165511928e-17 -1.3054529395693651e-16 -8.86732165511928e-17 -1.3054529395693651e-16 0.29853466551146013 0.954398791642027
12646292000.0 0.31083984967622047 0.9504623021735612 -9.034610533829338e-17 -1.2935560491919145e-16 -9.034610533829338e-17 -1.2935560491919145e-16 0.31083917535475186 0.9504625227038567
12646909333.333334 0.3230924790200108 0.9463673969450265 -9.200305545853013e-17 -1.2814449459582103e-16 -9.200305545853013e-17 -1.2814449459582103e-16 0.32309180763650397 0.9463676261569696
12647526666.666666 0.3352911857853237 0.9421145475654606 -9.364379282575079e-17 -1.2691217623344933e-16 -9.364379282575079e-17 -1.2691217623344933e-16 0.33529051745153704 0.942114785419952
12648144000.0 0.34743393406700823 0.9377044638149719 -9.526804620325483e-17 -1.256588665828085e-16 -9.526804620325483e-17 -1.256588665828085e-16 0.34743326889418025 0.9377047102714724
12648761333.333334 0.35951869729900826 0.9331378817153585 -9.687554724846902e-17 -1.2438478586077417e-16 -9.687554724846902e-17 -1.2438478586077417e-16 0.3595180353978392 0.9331381367318985
12649378666.666666 0.37154345859258936 0.9284155634072814 -9.846603055726207e-17 -1.230901577117254e-16 -9.846603055726207e-17 -1.230901577117254e-16 0.3715428000732227 0.9284158269404665
12649996000.0 0.383506211073213 0.9235382970229606 -1.0003923370766414e-16 -1.217752091683966e-16 -1.0003923370766414e-16 -1.217752091683966e-16 0.3835055560452176 0.923538569027981
12650613333.333334 0.3954049582153134 0.9185068965547007 -1.01594897303122e-16 -1.2044017061212826e-16 -1.01594897303122e-16 -1.2044017061212826e-16 0.395404306787664 0.9185071769853347
12651230666.666666 0.40723771417530064 0.9133222017191293 -1.031327650151085e-16 -1.1908527573266425e-16 -1.031327650151085e-16 -1.1908527573266425e-16 0.40723706645636054 0.9133224905277543
12651848000.0 0.41900250412350953 0.9079850778168275 -1.0465258362540165e-16 -1.1771076148723148e-16 -1.0465258362540165e-16 -1.1771076148723148e-16 0.41900186022101293 0.9079853749544277
12652465333.333334 0.4306973645733188 0.9024964155881167 -1.0615410306758265e-16 -1.1631686805928659e-16 -1.0615410306758265e-16 -1.1631686805928659e-16 0.4306967245943525 0.9024967210042917
12653082666.666666 0.44232034370885304 0.8968571310644093 -1.0763707646815557e-16 -1.1490383881658815e-16 -1.0763707646815557e-16 -1.1490383881658815e-16 0.4423197077598382 0.8968574447073809
12653700000.0 0.4538695017112408 0.8910681654150765 -1.0910126018706786e-16 -1.134719202687793e-16 -1.0910126018706786e-16 -1.134719202687793e-16 0.45386886989791614 0.8910684872316996
12654317333.333334 0.46534291108164716 0.8851304847907224 -1.1054641385761798e-16 -1.120213620245065e-16 -1.1054641385761798e-16 -1.120213620245065e-16 0.4653422835090506 0.8851308147264924
12654934666.666666 0.4767386569635235 0.879045080161659 -1.1197230042585113e-16 -1.1055241674797433e-16 -1.1197230042585113e-16 -1.1055241674797433e-16 0.4767380337359751 0.8790454181607218
12655552000.0 0.488054837461934 0.8728129671526468 -1.133786861893797e-16 -1.0906534011500108e-16 -1.133786861893797e-16 -1.0906534011500108e-16 0.48805421868301857 0.8728133131578083
12656169333.333334 0.49928956396102325 0.8664351858733649 -1.1476534083555875e-16 -1.0756039076864505e-16 -1.1476534083555875e-16 -1.0756039076864505e-16 0.49928894973357335 0.8664355398261013
12656786666.666666 0.5104409614392182 0.8599128007448246 -1.1613203747916634e-16 -1.0603783027425045e-16 -1.1613203747916634e-16 -1.0603783027425045e-16 0.5104403518652961 0.8599131625852895
12657404000.0 0.5215071687821576 0.8532469003217175 -1.1747855269939182e-16 -1.044979230741204e-16 -1.1747855269939182e-16 -1.044979230741204e-16 0.52150656396304 0.8532472699887562
12658021333.333334 0.5324863390933551 0.846438597110717 -1.1880466657632651e-16 -1.0294093644160954e-16 -1.1880466657632651e-16 -1.0294093644160954e-16 0.5324857391295142 0.8464389745418728
12658638666.666666 0.5433766400022392 0.8394890273849197 -1.201101627267225e-16 -1.0136714043489502e-16 -1.201101627267225e-16 -1.0136714043489502e-16 0.543376044993328 0.8394894125164477
12659256000.0 0.5541762539702626 0.8323993509940341 -1.213948283392877e-16 -9.977680785012759e-17 -1.213948283392877e-16 -9.977680785012759e-17 0.5541756640150972 0.8323997437609096
12659873333.333334 0.5648833785940426 0.8251707511709214 -1.2265845420924436e-16 -9.817021417427147e-17 -1.2265845420924436e-16 -9.817021417427147e-17 0.5648827937905858 0.825171151506852
12660490666.666666 0.5754962269062235 0.8178044343340913 -1.239008347722962e-16 -9.654763753747615e-17 -1.239008347722962e-16 -9.654763753747615e-17 0.5754956473515697 0.8178048421715289
12661108000.0 0.5860130276737601 0.8103016298863257 -1.2512176813801428e-16 -9.490935866495481e-17 -1.2512176813801428e-16 -9.490935866495481e-17 0.5860124534641172 0.8103020451564756
12661725333.333334 0.5964320256933408 0.8026635900096257 -1.2632105612251338e-16 -9.325566082854262e-17 -1.2632105612251338e-16 -9.325566082854262e-17 0.5964314569240167 0.8026640126424609
12662342666.666666 0.6067514820846026 0.794891589456034 -1.27498504280542e-16 -9.158682979777169e-17 -1.27498504280542e-16 -9.158682979777169e-17 0.6067509188499871 0.7948920193803046
12662960000.0 0.6169696745801551 0.7869869253350148 -1.2865392193692747e-16 -8.990315379054233e-17 -1.2865392193692747e-16 -8.990315379054233e-17 0.6169691169737043 0.7869873624782606
12663577333.333334 0.6270848978130641 0.7789509168969386 -1.297871222173244e-16 -8.820492342346484e-17 -1.297871222173244e-16 -8.820492342346484e-17 0.6270843459272872 0.7789513611855028
12664194666.666666 0.637095463601471 0.7707849053129081 -1.3089792207835498e-16 -8.649243166174991e-17 -1.3089792207835498e-16 -8.649243166174991e-17 0.6370949175279135 0.7707853566719487
12664812000.0 0.6469997012303418 0.7624902534509224 -1.319861423370893e-16 -8.476597376872061e-17 -1.319861423370893e-16 -8.476597376872061e-17 0.6469991610595689 0.7624907118044232
12665429333.333334 0.6567959577303417 0.7540683456483804 -1.3305160769981597e-16 -8.302584725502197e-17 -1.3305160769981597e-16 -8.302584725502197e-17 0.6567954235519265 0.7540688109191679
12666046666.666666 0.6664825981534976 0.7455205874812347 -1.340941467901899e-16 -8.127235182740462e-17 -1.340941467901899e-16 -8.127235182740462e-17 0.6664820700560032 0.745521059590986
12666664000.0 0.676058005846531 0.73684840552899 -1.3511359217670349e-16 -7.950578933715481e-17 -1.3511359217670349e-16 -7.950578933715481e-17 0.676057483917497 0.7368488843982496
12667281333.333334 0.6855205827200713 0.728053247137142 -1.3610978039943553e-16 -7.772646372825924e-17 -1.3610978039943553e-16 -7.772646372825924e-17 0.6855200670460002 0.7280537326853347
12667898666.666666 0.6948687495157995 0.7191365801752485 -1.3708255199618196e-16 -7.593468098512905e-17 -1.3708255199618196e-16 -7.593468098512905e-17 0.6948682401821412 0.7191370723206915
12668516000.0 0.7041009460700084 0.7100998927919382 -1.3803175152785767e-16 -7.413074908006708e-17 -1.3803175152785767e-16 -7.413074908006708e-17 0.7041004431611463 0.7101003914518561
12669133333.333334 0.7132156315736202 0.7009446931669042 -1.3895722760319013e-16 -7.231497792046045e-17 -1.3895722760319013e-16 -7.231497792046045e-17 0.7132151351728572 0.7009451982574425
12669750666.666666 0.7222112848297492 0.6916725092588009 -1.3985883290280128e-16 -7.048767929550851e-17 -1.3985883290280128e-16 -7.048767929550851e-17 0.7222107950192941 0.6916730206950398
