! Parameters = {f0=12700.012000; bw=77.238000; Q=6100.000000; N=10; m_0_1=1.257553; m_1_1=0.098543; m_1_2=1.092365; m_2_2=0.097894; m_2_3=0.729328; m_2_8=-0.000059; m_2_9=0.036645; m_3_3=0.095957; m_3_4=0.617857; m_3_7=0.000541; m_3_8=-0.096547; m_3_9=-0.000059; m_4_4=0.093032; m_4_5=0.454192; m_4_6=0.004058; m_4_7=-0.117096; m_4_8=0.000541; m_5_5=0.093414; m_5_6=0.861547; m_5_7=0.004058; m_6_6=0.093413; m_6_7=0.454534; m_7_7=0.093046; m_7_8=0.617975; m_8_8=0.095955; m_8_9=0.729641; m_9_9=0.097889; m_9_10=1.093443; m_10_10=0.098533; m_10_11=1.258348}
!
! Created with skrf (http://scikit-rf.org).
# Hz S RI R 50.0 
!freq ReS11 ImS11 ReS21 ImS21 ReS12 ImS12 ReS22 ImS22
12607400000.0 -0.4186950056046255 0.9081269141929279 1.4961474349381705e-17 -1.0318088338258799e-16 1.4961474349381705e-17 -1.0318088338258799e-16 -0.41869560730763106 0.9081266367754668
12608017333.333334 -0.40945157612772387 0.9123318512506016 1.3901035573753118e-17 -1.0330849187332896e-16 1.3901035573753118e-17 -1.0330849187332896e-16 -0.40945218058722443 0.9123315799708974
12608634666.666666 -0.40016592298945336 0.9164427063803969 1.2839553321576387e-17 -1.0342520921934786e-16 1.2839553321576387e-17 -1.0342520921934786e-16 -0.4001665301428485 0.9164424412658222
12609252000.0 -0.39083900374946234 0.9204590556607908 1.1777139372887998e-17 -1.0353102744003394e-16 1.1777139372887998e-17 -1.0353102744003394e-16 -0.39083961353388025 0.9204587967380798
12609869333.333334 -0.3814717802228353 0.9243804849159502 1.0713905561679901e-17 -1.0362593970123645e-16 1.0713905561679901e-17 -1.0362593970123645e-16 -0.3814723925751393 0.9243802322111969
12610486666.666666 -0.3720652183810389 0.9282065897583887 9.64996376416372e-18 -1.0370994031553074e-16 9.64996376416372e-18 -1.0370994031553074e-16 -0.37206583323783265 0.9282063432970409
12611104000.0 -0.36262028825201786 0.9319369756307827 8.58542588698792e-18 -1.0378302474236841e-16 8.58542588698792e-18 -1.0378302474236841e-16 -0.36262090554965437 0.931936735437645
12611721333.333334 -0.3531379638205353 0.935571257846517 7.520403855530233e-18 -1.0384518958810172e-16 7.520403855530233e-18 -1.0384518958810172e-16 -0.3531385834951211 0.935571023945743
12612338666.666666 -0.343619222927466 0.9391090616294534 6.455009602121751e-18 -1.0389643260589184e-16 6.455009602121751e-18 -1.0389643260589184e-16 -0.3436198449148693 0.9391088340445471
12612956000.0 -0.3340650471689596 0.9425500221525797 5.3893550543045264e-18 -1.0393675269549584e-16 5.3893550543045264e-18 -1.0393675269549584e-16 -0.3340656714048162 0.9425498009063903
12613573333.333334 -0.32447642179545605 0.945893784575543 4.323552123120809e-18 -1.0396614990293173e-16 4.323552123120809e-18 -1.0396614990293173e-16 -0.32447704821517664 0.9458935696902655
12614190666.666666 -0.31485433560981785 0.9491400040813407 3.2577126913524676e-18 -1.039846254200261e-16 3.2577126913524676e-18 -1.039846254200261e-16 -0.3148549641485934 0.9491397955785097
12614808000.0 -0.30519978086549365 0.9522883459118258 2.1919486018123183e-18 -1.0399218158384011e-16 2.1919486018123183e-18 -1.0399218158384011e-16 -0.3052004114583036 0.9522881438123174
12615425333.333334 -0.29551375316417045 0.9553384854022435 1.1263716456264757e-18 -1.0398882187597611e-16 1.1263716456264757e-18 -1.0398882187597611e-16 -0.2955143857457886 0.9553382897262707
12616042666.666666 -0.2857972513531031 0.9582901080147074 6.109355052967906e-20 -1.0397455092176413e-16 6.109355052967906e-20 -1.0397455092176413e-16 -0.28579788585810445 0.9582899187818186
12616660000.0 -0.2760512774221104 0.961142909370635 -1.003774030828152e-18 -1.0394937448932968e-16 -1.003774030828152e-18 -1.0394937448932968e-16 -0.2760519137848786 0.9611427265997139
12617277333.333334 -0.2662768364002219 0.9638965952821479 -2.068119532565871e-18 -1.039132994885408e-16 -2.068119532565871e-18 -1.039132994885408e-16 -0.26627747455495493 0.963896418991409
12617894666.666666 -0.25647493625217205 0.9665508817823669 -3.1318314872236675e-18 -1.0386633396983731e-16 -3.1318314872236675e-18 -1.0386633396983731e-16 -0.2564755761328896 0.9665507119893548
12618512000.0 -0.24664658777415538 0.9691054951547813 -4.19479853744798e-18 -1.0380848712293877e-16 -4.19479853744798e-18 -1.0380848712293877e-16 -0.24664722931470573 0.9691053318763682
12619129333.333334 -0.2367928044899747 0.9715601719613669 -5.256909447586511e-18 -1.0373976927543636e-16 -5.256909447586511e-18 -1.0373976927543636e-16 -0.23679344762404148 0.9715600152137527
12619746666.666666 -0.22691460254624976 0.9739146590698309 -6.318053115336757e-18 -1.0366019189126339e-16 -6.318053115336757e-18 -1.0366019189126339e-16 -0.22691524720735884 0.9739145088685405
12620364000.0 -0.21701300060762904 0.9761687136797108 -7.378118583346463e-18 -1.035697675690476e-16 -7.378118583346463e-18 -1.035697675690476e-16 -0.217013646729155 0.9761685700395911
12620981333.333334 -0.20708901975199076 0.978322103347352 -8.436995050767895e-18 -1.0346851004034817e-16 -8.436995050767895e-18 -1.0346851004034817e-16 -0.20708966726716446 0.9783219662825738
12621598666.666666 -0.1971436833648711 0.9803746060099469 -9.494571884847077e-18 -1.0335643416776977e-16 -9.494571884847077e-18 -1.0335643416776977e-16 -0.19714433220678618 0.9803744755340007
12622216000.0 -0.18717801703406806 0.9823260100083993 -1.0550738632443776e-17 -1.0323355594296248e-16 -1.0550738632443776e-17 -1.0323355594296248e-16 -0.18717866713568762 0.9823258861340946
12622833333.333334 -0.17719304844382425 0.9841761141091625 -1.1605385031566389e-17 -1.0309989248450123e-16 -1.1605385031566389e-17 -1.0309989248450123e-16 -0.1771936997379885 0.9841759968486279
12623450666.666666 -0.16718980726896238 0.9859247275249736 -1.2658401022817695e-17 -1.0295546203565375e-16 -1.2658401022817695e-17 -1.0295546203565375e-16 -0.1671904596883948 0.9859246168896533
12624068000.0 -0.15716932506856218 0.9875716699345518 -1.3709676760914606e-17 -1.0280028396202152e-16 -1.3709676760914606e-17 -1.0280028396202152e-16 -0.15716997854587686 0.9875715659352061
12624685333.333334 -0.147132635179555 0.9891167715011948 -1.4759102626095832e-17 -1.02634378749072e-16 -1.4759102626095832e-17 -1.02634378749072e-16 -0.14713328964726358 0.9891166741478992
12625302666.666666 -0.1370807726104447 0.9905598728902512 -1.58065692355164e-17 -1.0245776799955524e-16 -1.58065692355164e-17 -1.0245776799955524e-16 -0.13708142800096335 0.9905597821923947
12625920000.0 -0.12701477393415345 0.9919008252856151 -1.6851967454668018e-17 -1.0227047443079422e-16 -1.6851967454668018e-17 -1.0227047443079422e-16 -0.12701543017980954 0.9919007412518983
12626537333.333334 -0.11693567718152105 0.9931394904050117 -1.7895188408687585e-17 -1.0207252187187339e-16 -1.7895188408687585e-17 -1.0207252187187339e-16 -0.11693633421456084 0.99313941304345
12627154666.666666 -0.10684452173409295 0.9942757405142902 -1.8936123493692064e-17 -1.0186393526070137e-16 -1.8936123493692064e-17 -1.0186393526070137e-16 -0.10684517948668776 0.9942756698322074
12627772000.0 -0.09674234821676615 0.9953094584406068 -1.9974664388080546e-17 -1.0164474064095861e-16 -1.9974664388080546e-17 -1.0164474064095861e-16 -0.09674300662101985 0.9953093944446387
12628389333.333334 -0.08663019839087299 0.996240537584466 -2.1010703063744366e-17 -1.0141496515894109e-16 -2.1010703063744366e-17 -1.0141496515894109e-16 -0.08663085737882896 0.9962404802805581
12629006666.666666 -0.07650911504632849 0.9970688819307594 -2.2044131797325885e-17 -1.0117463706027334e-16 -2.2044131797325885e-17 -1.0117463706027334e-16 -0.07650977454997648 0.9970688313241665
12629624000.0 -0.0663801418944061 0.9977944060586357 -2.3074843181365916e-17 -1.0092378568652281e-16 -2.3074843181365916e-17 -1.0092378568652281e-16 -0.0663808018456894 0.9977943621539215
12630241333.333334 -0.056244323459937864 0.9984170351503232 -2.4102730135462586e-17 -1.0066244147168993e-16 -2.4102730135462586e-17 -1.0066244147168993e-16 -0.056244983790760164 0.9984169979513593
12630858666.666666 -0.046102704973770434 0.9989367049988348 -2.5127685917357215e-17 -1.0039063593859356e-16 -2.5127685917357215e-17 -1.0039063593859356e-16 -0.04610336561600307 0.9989366745088022
12631476000.0 -0.035956332264666414 0.9993533620146083 -2.6149604134028715e-17 -1.0010840169513049e-16 -2.6149604134028715e-17 -1.0010840169513049e-16 -0.03595699315015518 0.9993533382359953
12632093333.333334 -0.025806251651824604 0.9996669632310108 -2.716837875267897e-17 -9.981577243044153e-17 -2.716837875267897e-17 -9.981577243044153e-17 -0.025806912712396907 0.9996669461656128
12632710666.666666 -0.015653509836810835 0.9998774763087808 -2.818390411172996e-17 -9.95127829109506e-17 -2.818390411172996e-17 -9.95127829109506e-17 -0.0156541710042827 0.9998774659577023
12633328000.0 -0.005499153795477377 0.9999848795393664 -2.919607493177483e-17 -9.91994689762932e-17 -2.919607493177483e-17 -9.91994689762932e-17 -0.005499815001660453 0.9999848759030185
12633945333.333334 0.004655769329748142 0.9999891618471553 -3.020478632644504e-17 -9.887586753514514e-17 -3.020478632644504e-17 -9.887586753514514e-17 0.004655108153039533 0.9999891649252561
12634562666.666666 0.014810212337988689 0.999890322790621 -3.1209933813271543e-17 -9.85420165609298e-17 -3.1209933813271543e-17 -9.85420165609298e-17 0.014809551258930511 0.999890332582197
12635180000.0 0.024963128077879357 0.9996883725623678 -3.221141332448251e-17 -9.819795508741968e-17 -3.221141332448251e-17 -9.819795508741968e-17 0.024962467164630867 0.9996883890657542
12635797333.333334 0.035113469555580666 0.9993833319880803 -3.320912121775889e-17 -9.784372320422727e-17 -3.320912121775889e-17 -9.784372320422727e-17 0.03511280887627734 0.9993833552009189
12636414666.666666 0.04526019004263347 0.9989752325243769 -3.420295428692729e-17 -9.747936205219157e-17 -3.420295428692729e-17 -9.747936205219157e-17 0.04525952966538001 0.9989752624436185
12637032000.0 0.05540224318407066 0.9984641162555615 -3.519280977263071e-17 -9.710491381864651e-17 -3.519280977263071e-17 -9.710491381864651e-17 0.055401583176934006 0.9984641528774666
12637649333.333334 0.06553858310620644 0.9978500358892909 -3.6178585372920464e-17 -9.672042173259116e-17 -3.6178585372920464e-17 -9.672042173259116e-17 0.06553792353720861 0.9978500792094266
12638266666.666666 0.07566816452451733 0.997133054751129 -3.716017925380985e-17 -9.63259300597475e-17 -3.716017925380985e-17 -9.63259300597475e-17 0.07566750546162865 0.997133104764375
12638884000.0 0.08578994285143511 0.9963132467780277 -3.813749005977201e-17 -9.592148409751308e-17 -3.813749005977201e-17 -9.592148409751308e-17 0.085789284362567 0.9963133034785728
12639501333.333334 0.09590287430409516 0.9953906965106925 -3.911041692418597e-17 -9.550713016980556e-17 -3.911041692418597e-17 -9.550713016980556e-17 0.0959022164570932 0.9953907598920358
12640118666.666666 0.10600591601180426 0.9943654990848815 -4.0078859479705956e-17 -9.50829156218112e-17 -4.0078859479705956e-17 -9.50829156218112e-17 0.10600525887444136 0.9943655691398362
12640736000.0 0.11609802612403677 0.9932377602215546 -4.104271786864965e-17 -9.464888881459587e-17 -4.104271786864965e-17 -9.464888881459587e-17 0.1160973697640058 0.9932378369422437
12641353333.333334 0.12617816391719391 0.9920075962160343 -4.200189275318093e-17 -9.420509911967562e-17 -4.200189275318093e-17 -9.420509911967562e-17 0.12617750840210118 0.9920076795938959
12641970666.666666 0.1362452899025195 0.990675133925954 -4.295628532560618e-17 -9.375159691340847e-17 -4.295628532560618e-17 -9.375159691340847e-17 0.13624463529987754 0.9906752239517402
12642588000.0 0.14629836593301215 0.9892405107582071 -4.390579731850096e-17 -9.328843357133144e-17 -4.390579731850096e-17 -9.328843357133144e-17 0.1462977123102329 0.9892406074219863
12643205333.333334 0.1563363553105099 0.9877038746547743 -4.4850331014794705e-17 -9.28156614623866e-17 -4.4850331014794705e-17 -9.28156614623866e-17 0.15633570273489747 0.9877039779459298
12643822666.666666 0.16635822289270932 0.9860653840774496 -4.578978925782577e-17 -9.233333394303024e-17 -4.578978925782577e-17 -9.233333394303024e-17 0.16635757143145335 0.9860654939846827
12644440000.0 0.17636293519977142 0.9843252079915207 -4.672407546129691e-17 -9.184150535125916e-17 -4.672407546129691e-17 -9.184150535125916e-17 0.17636228491994013 0.9843253245028523
12645057333.333334 0.186349460520925 0.9824835258483413 -4.7653093619185334e-17 -9.13402310005269e-17 -4.7653093619185334e-17 -9.13402310005269e-17 0.1863488114894584 0.9824836489511131
12645674666.666666 0.19631676902085982 0.9805405275668303 -4.8576748315585453e-17 -9.082956717356123e-17 -4.8576748315585453e-17 -9.082956717356123e-17 0.1963161213045624 0.9805406572477042
12646292000.0 0.20626383284612054 0.9784964135138444 -4.949494473450387e-17 -9.030957111607291e-17 -4.949494473450387e-17 -9.030957111607291e-17 0.20626318651165465 0.9784965497588053
12646909333.333334 0.2161896262307384 0.9763513944835852 -5.040758866953624e-17 -8.97803010303937e-17 -5.040758866953624e-17 -8.97803010303937e-17 0.21618898134461775 0.9763515372779441
12647526666.666666 0.22609312560229103 0.9741056916758132 -5.131458653353568e-17 -8.924181606898466e-17 -5.131458653353568e-17 -8.924181606898466e-17 0.22609248223087308 0.9741058410042054
12648144000.0 0.23597330968742608 0.971759536673034 -5.221584536818364e-17 -8.869417632786185e-17 -5.221584536818364e-17 -8.869417632786185e-17 0.23597266789690569 0.9717596925194232
12648761333.333334 0.24582915961706706 0.9693131714166453 -5.3111272853484184e-17 -8.813744283993102e-17 -5.3111272853484184e-17 -8.813744283993102e-17 0.24582851947346987 0.969313333764325
12649378666.666666 0.25565965903148197 0.9667668481819871 -5.400077731719767e-17 -8.757167756822093e-17 -5.400077731719767e-17 -8.757167756822093e-17 0.2556590206006572 0.9667670170135823
12649996000.0 0.2654637941852319 0.9641208295522973 -5.488426774421501e-17 -8.699694339901351e-17 -5.488426774421501e-17 -8.699694339901351e-17 0.26546315753284555 0.9641210048497644
12650613333.333334 0.2752405540516252 0.9613753883916432 -5.576165378583953e-17 -8.641330413489218e-17 -5.576165378583953e-17 -8.641330413489218e-17 0.27523991924315383 0.9613755701362761
12651230666.666666 0.28498893042687096 0.9585308078168255 -5.663284576899319e-17 -8.582082448769919e-17 -5.663284576899319e-17 -8.582082448769919e-17 0.2849882975275945 0.958530995989254
12651848000.0 0.29470791803431906 0.9555873811680986 -5.749775470538223e-17 -8.521957007137714e-17 -5.749775470538223e-17 -8.521957007137714e-17 0.2947072871093141 0.9555875757482911
12652465333.333334 0.30439651462788103 0.9525454119789912 -5.835629230054142e-17 -8.460960739474979e-17 -5.835629230054142e-17 -8.460960739474979e-17 0.30439588574201437 0.9525456129462578
12653082666.666666 0.3140537210953857 0.9494052139450104 -5.920837096282385e-17 -8.399100385419742e-17 -5.920837096282385e-17 -8.399100385419742e-17 0.314053094313307 0.949405421278004
12653700000.0 0.32367854156187914 0.9461671108912016 -6.005390381233724e-17 -8.336382772622461e-17 -6.005390381233724e-17 -8.336382772622461e-17 0.32367791694801595 0.9461673245679231
12654317333.333334 0.33326998349194537 0.9428314367388833 -6.089280468974536e-17 -8.272814815997986e-17 -6.089280468974536e-17 -8.272814815997986e-17 0.33326936111049443 0.9428316567366787
12654934666.666666 0.34282705779232786 0.9393985354711194 -6.172498816504687e-17 -8.208403516964526e-17 -6.172498816504687e-17 -8.208403516964526e-17 0.34282643770724996 0.9393987617666871
12655552000.0 0.3523487789139264 0.9358687610972451 -6.25503695462506e-17 -8.143155962675526e-17 -6.25503695462506e-17 -8.143155962675526e-17 0.352348161188939 0.9358689936666357
12656169333.333334 0.36183416495318954 0.9322424776164496 -6.336886488794984e-17 -8.077079325244536e-17 -6.336886488794984e-17 -8.077079325244536e-17 0.36183354965176034 0.932242716435068
12656786666.666666 0.371282237753637 0.928520058980139 -6.418039099985815e-17 -8.010180860958016e-17 -6.418039099985815e-17 -8.010180860958016e-17 0.371281624938978 0.9285203040227497
12657404000.0 0.38069202300659705 0.9247018890534254 -6.498486545522851e-17 -7.942467909482329e-17 -6.498486545522851e-17 -7.942467909482329e-17 0.38069141274165774 0.9247021402941535
12658021333.333334 0.39006255035173193 0.9207883615755197 -6.578220659920534e-17 -7.873947893061076e-17 -6.578220659920534e-17 -7.873947893061076e-17 0.3900619426991931 0.9207886189878546
12658638666.666666 0.39939285347697434 0.9167798801191859 -6.657233355707373e-17 -7.804628315705494e-17 -6.657233355707373e-17 -7.804628315705494e-17 0.3993922484992399 0.9167801436759798
12659256000.0 0.4086819702184346 0.9126768580490068 -6.735516624246894e-17 -7.734516762372926e-17 -6.735516624246894e-17 -7.734516762372926e-17 0.4086813679776278 0.912677127722484
12659873333.333334 0.41792894265938896 0.9084797184788629 -6.813062536543503e-17 -7.663620898142503e-17 -6.813062536543503e-17 -7.663620898142503e-17 0.41792834321734423 0.9084799942406183
12660490666.666666 0.42713281722906177 0.904188894228299 -6.889863244043947e-17 -7.591948467379263e-17 -6.889863244043947e-17 -7.591948467379263e-17 0.42713222064731915 0.9041891760493034
12661108000.0 0.43629264480121815 0.8998048277777722 -6.965910979431031e-17 -7.519507292889165e-17 -6.965910979431031e-17 -7.519507292889165e-17 0.4362920511410171 0.8998051156283747
12661725333.333334 0.44540748079168074 0.895327971223192 -7.041198057403607e-17 -7.446305275070803e-17 -7.041198057403607e-17 -7.446305275070803e-17 0.4454068901139528 0.8953282650731216
12662342666.666666 0.4544763852560191 0.8907587862291629 -7.115716875452979e-17 -7.372350391054349e-17 -7.115716875452979e-17 -7.372350391054349e-17 0.4544757976213825 0.8907590860475334
12662960000.0 0.46349842298635047 0.8860977439814383 -7.189459914626917e-17 -7.297650693835944e-17 -7.189459914626917e-17 -7.297650693835944e-17 0.46349783845510417 0.8860980497367517
12663577333.333334 0.4724726636078084 0.8813453251383203 -7.262419740285888e-17 -7.222214311403299e-17 -7.262419740285888e-17 -7.222214311403299e-17 0.47247208223992493 0.8813456367984687
12664194666.666666 0.48139818167448273 0.8765020197810902 -7.334589002849952e-17 -7.146049445853973e-17 -7.334589002849952e-17 -7.146049445853973e-17 0.48139760352960315 0.8765023373133605
12664812000.0 0.49027405676485547 0.8715683273634713 -7.405960438536434e-17 -7.069164372506217e-17 -7.405960438536434e-17 -7.069164372506217e-17 0.4902734819022824 0.8715686507345484
12665429333.333334 0.499099373576742 0.866544756660112 -7.476526870088497e-17 -6.991567439002261e-17 -7.476526870088497e-17 -6.991567439002261e-17 0.4990988020554336 0.8665450858360805
12666046666.666666 0.5078732220215539 0.8614318257141855 -7.546281207493221e-17 -6.913267064405683e-17 -7.546281207493221e-17 -6.913267064405683e-17 0.5078726539001183 0.861432160660536
12666664000.0 0.5165946973184222 0.8562300617838151 -7.615216448693317e-17 -6.834271738288156e-17 -7.615216448693317e-17 -6.834271738288156e-17 0.5165941326551116 0.8562304024654472
12667281333.333334 0.525262900087157 0.8509400012879043 -7.683325680284553e-17 -6.754590019814611e-17 -7.683325680284553e-17 -6.754590019814611e-17 0.5252623389398604 0.8509403476691276
12667898666.666666 0.5338769364412371 0.8455621897506701 -7.750602078208188e-17 -6.674230536816196e-17 -7.750602078208188e-17 -6.674230536816196e-17 0.5338763788674763 0.8455625417952118
12668516000.0 0.5424359180799905 0.8400971817453906 -7.817038908431871e-17 -6.593201984858609e-17 -7.817038908431871e-17 -6.593201984858609e-17 0.5424353641369124 0.8400975394163965
12669133333.333334 0.550938962379979 0.8345455408373473 -7.88262952761912e-17 -6.511513126305649e-17 -7.88262952761912e-17 -6.511513126305649e-17 0.5509384121243518 0.8345459040973879
12669750666.666666 0.5593851924862608 0.8289078395255639 -7.947367383792655e-17 -6.429172789371985e-17 -7.947367383792655e-17 -6.429172789371985e-17 0.5593846459744655 0.8289082083366351
