! Parameters = {f0=12700.012000; bw=77.238000; Q=6100.000000; N=10; m_0_1=1.221316; m_1_1=-0.445001; m_1_2=1.056128; m_2_2=-0.445650; m_2_3=0.693091; m_2_8=-0.001870; m_2_9=0.034834; m_3_3=-0.447587; m_3_4=0.581620; m_3_7=-0.001270; m_3_8=-0.098358; m_3_9=-0.001870; m_4_4=-0.450512; m_4_5=0.417955; m_4_6=0.002247; m_4_7=-0.118907; m_4_8=-0.001270; m_5_5=-0.450130; m_5_6=0.825310; m_5_7=0.002247; m_6_6=-0.450131; m_6_7=0.418297; m_7_7=-0.450498; m_7_8=0.581738; m_8_8=-0.447589; m_8_9=0.693404; m_9_9=-0.445655; m_9_10=1.057206; m_10_10=-0.445011; m_10_11=1.222111}
!
! Created with skrf (http://scikit-rf.org).
# Hz S RI R 50.0 
!freq ReS11 ImS11 ReS21 ImS21 ReS12 ImS12 ReS22 ImS22
12607400000.0 0.3264124231116066 -0.9452274488387677 -3.888353855261034e-18 8.732786137724934e-17 -3.888353855261034e-18 8.732786137724934e-17 0.32641303141067207 -0.9452272387765456
12608017333.333334 0.3178128841836936 -0.9481534531111931 -3.0865893077534876e-18 8.734274306516753e-17 -3.0865893077534876e-18 8.734274306516753e-17 0.31781349433590556 -0.9481532485931999
12608634666.666666 0.30918712138209425 -0.9510012218558346 -2.2848790601454825e-18 8.735026947492523e-17 -2.2848790601454825e-18 8.735026947492523e-17 0.3091877333369282 -0.9510010228984032
12609252000.0 0.30053584644934517 -0.9537705200931782 -1.483290535662885e-18 8.735044285432044e-17 -1.483290535662885e-18 8.735044285432044e-17 0.30053646015613245 -0.9537703267121798
12609869333.333334 0.29185977323305123 -0.9564611193185993 -6.81891120874998e-19 8.734326606870896e-17 -6.81891120874998e-19 8.734326606870896e-17 0.2918603886409836 -0.9564609315294436
12610486666.666666 0.2831596176270389 -0.9590727975212026 1.1925183992764377e-19 8.732874260052172e-17 1.1925183992764377e-19 8.732874260052172e-17 0.2831602346851727 -0.959072615338836
12611104000.0 0.27443609751217557 -0.9616053392021718 9.200710504266868e-19 8.730687654872988e-17 9.200710504266868e-19 8.730687654872988e-17 0.2744367161694361 -0.9616051626410776
12611721333.333334 0.2656899326972988 -0.9640585353925052 1.7204992678613449e-18 8.727767262825959e-17 1.7204992678613449e-18 8.727767262825959e-17 0.26569055290248417 -0.9640583644667001
12612338666.666666 0.25692184485976766 -0.9664321836702724 2.5204693087063624e-18 8.72411361693534e-17 2.5204693087063624e-18 8.72411361693534e-17 0.2569224665615536 -0.9664320183933082
12612956000.0 0.24813255748569504 -0.9687260881773779 3.3199140542782487e-18 8.719727311688133e-17 3.3199140542782487e-18 8.719727311688133e-17 0.24813318063263895 -0.9687259285623394
12613573333.333334 0.23932279581068994 -0.9709400596356054 4.118766456351264e-18 8.714609002960084e-17 4.118766456351264e-18 8.714609002960084e-17 0.2393234203512344 -0.9709399056951067
12614190666.666666 0.23049328675965736 -0.9730739153623262 4.916959542772698e-18 8.70875940793645e-17 4.916959542772698e-18 8.70875940793645e-17 0.23049391264213587 -0.9730737671085151
12614808000.0 0.22164475888687354 -0.9751274792855636 5.714426423072016e-18 8.702179305027646e-17 5.714426423072016e-18 8.702179305027646e-17 0.22164538605951314 -0.9751273367301146
12615425333.333334 0.2127779423160345 -0.9771005819584754 6.5111002940386895e-18 8.694869533779913e-17 6.5111002940386895e-18 8.694869533779913e-17 0.21277857072696138 -0.9771004451125935
12616042666.666666 0.20389356867979064 -0.9789930605733914 7.306914445312768e-18 8.686830994780752e-17 7.306914445312768e-18 8.686830994780752e-17 0.20389419827703367 -0.9789929294478089
12616660000.0 0.19499237105957073 -0.980804758975202 8.101802264965445e-18 8.678064649559233e-17 8.101802264965445e-18 8.678064649559233e-17 0.1949930017910659 -0.9808046335801773
12617277333.333334 0.18607508392498157 -0.9825355276742659 8.89569724504692e-18 8.668571520481386e-17 8.89569724504692e-18 8.668571520481386e-17 0.1860757157385767 -0.9825354080195856
12617894666.666666 0.17714244307326046 -0.9841852238587375 9.688532987145622e-18 8.658352690640411e-17 9.688532987145622e-18 8.658352690640411e-17 0.17714307591671893 -0.9841851099537121
12618512000.0 0.1681951855684499 -0.9857537114063689 1.0480243207935946e-17 8.647409303741687e-17 1.0480243207935946e-17 8.647409303741687e-17 0.1681958193894553 -0.985753603259834
12619129333.333334 0.1592340496807475 -0.9872408608957121 1.1270761744692099e-17 8.635742563983104e-17 1.1270761744692099e-17 8.635742563983104e-17 0.1592346844269079 -0.9872407585160269
12619746666.666666 0.15025977482550476 -0.9886465496168112 1.206002256080922e-17 8.623353735930027e-17 1.206002256080922e-17 8.623353735930027e-17 0.15026041044435698 -0.988646453011859
12620364000.0 0.14127310150213127 -0.9899706615813448 1.2847959751326524e-17 8.610244144385092e-17 1.2847959751326524e-17 8.610244144385092e-17 0.14127373794114545 -0.9899705707585319
12620981333.333334 0.13227477123316175 -0.991213087532167 1.3634507548378346e-17 8.596415174253787e-17 1.3634507548378346e-17 8.596415174253787e-17 0.13227540843974525 -0.9912130024984211
12621598666.666666 0.12326552650298632 -0.9923737249523384 1.4419600326702605e-17 8.581868270404018e-17 1.4419600326702605e-17 8.581868270404018e-17 0.12326616442448846 -0.992373645714109
12622216000.0 0.11424611069650047 -0.9934524780735914 1.5203172609098293e-17 8.56660493752119e-17 1.5203172609098293e-17 8.56660493752119e-17 0.11424674928021678 -0.9934524046368505
12622833333.333334 0.10521726803793541 -0.994449257884217 1.5985159071861226e-17 8.550626739958508e-17 1.5985159071861226e-17 8.550626739958508e-17 0.10521790723111175 -0.9944491902544551
12623450666.666666 0.0961797435293362 -0.9953639821364181 1.6765494550226632e-17 8.533935301581935e-17 1.6765494550226632e-17 8.533935301581935e-17 0.09618038327917351 -0.9953639203186481
12624068000.0 0.08713428288914586 -0.9961965753530938 1.754411404377919e-17 8.516532305610452e-17 1.754411404377919e-17 8.516532305610452e-17 0.08713492314280413 -0.9961965193518468
12624685333.333334 0.07808163249055977 -0.9969469688340732 1.832095272187624e-17 8.498419494450882e-17 1.832095272187624e-17 8.498419494450882e-17 0.07808227319516281 -0.9969469186534019
12625302666.666666 0.06902253930013853 -0.9976151006617722 1.909594592898935e-17 8.479598669529154e-17 1.909594592898935e-17 8.479598669529154e-17 0.069023180402778 -0.997615056305248
12625920000.0 0.05995775081594609 -0.9982009157063172 1.9869029190127993e-17 8.460071691114491e-17 1.9869029190127993e-17 8.460071691114491e-17 0.059958392263685927 -0.9982008771770298
12626537333.333334 0.05088801500604103 -0.9987043656300812 2.0640138216137465e-17 8.439840478141187e-17 2.0640138216137465e-17 8.439840478141187e-17 0.05088865674592191 -0.9987043329306394
12627154666.666666 0.04181408024678768 -0.9991254088916731 2.1409208909065885e-17 8.418907008023535e-17 2.1409208909065885e-17 8.418907008023535e-17 0.0418147222258314 -0.9991253820242053
12627772000.0 0.03273669526084939 -0.9994640107493791 2.2176177367476608e-17 8.397273316466663e-17 2.2176177367476608e-17 8.397273316466663e-17 0.0327373374260632 -0.9994639897155323
12628389333.333334 0.0236566090557211 -0.9997201432640148 2.2940979891718686e-17 8.37494149727334e-17 2.2940979891718686e-17 8.37494149727334e-17 0.023657251354102012 -0.9997201280649535
12629006666.666666 0.01457457086169868 -0.9998937853012363 2.3703552989246924e-17 8.351913702143934e-17 2.3703552989246924e-17 8.351913702143934e-17 0.014575213240237937 -0.999893775937644
12629624000.0 0.0054913300701426495 -0.9999849225332836 2.446383337983715e-17 8.328192140474085e-17 2.446383337983715e-17 8.328192140474085e-17 0.005491972475830062 -0.9999849190053629
12630241333.333334 -0.003592363828299997 -0.9999935474401631 2.5221758000857472e-17 8.303779079145408e-17 2.5221758000857472e-17 8.303779079145408e-17 -0.003591721448471683 -0.9999935497476344
12630858666.666666 -0.012675761305595794 -0.9999196593102678 2.59772640124529e-17 8.278676842313378e-17 2.59772640124529e-17 8.278676842313378e-17 -0.012675119004626496 -0.9999196674523687
12631476000.0 -0.02175811285828465 -0.999763264240432 2.6730288802786922e-17 8.252887811188093e-17 2.6730288802786922e-17 8.252887811188093e-17 -0.02175747068916263 -0.9997632782159224
12632093333.333334 -0.030838669069039943 -0.9995243751354382 2.748076999316799e-17 8.226414423813336e-17 2.748076999316799e-17 8.226414423813336e-17 -0.030838027084737374 -0.9995243949425936
12632710666.666666 -0.03991668066876135 -0.9992030117069434 2.822864544323655e-17 8.199259174838298e-17 2.822864544323655e-17 8.199259174838298e-17 -0.03991603892223 -0.9992030373435602
12633328000.0 -0.048991398598342846 -0.9987992004718547 2.8973853256092124e-17 8.171424615285759e-17 2.8973853256092124e-17 8.171424615285759e-17 -0.04899075714250971 -0.9987992319352479
12633945333.333334 -0.058062074070451865 -0.9983129747501409 2.971633178338918e-17 8.142913352316083e-17 2.971633178338918e-17 8.142913352316083e-17 -0.05806143295821473 -0.9983130120371448
12634562666.666666 -0.06712795863125753 -0.9977443746620861 3.0456019630442234e-17 8.113728048985359e-17 3.0456019630442234e-17 8.113728048985359e-17 -0.06712731791548072 -0.9977444177690555
12635180000.0 -0.07618830422224529 -0.99709344712498 3.119285566127084e-17 8.083871424000317e-17 3.119285566127084e-17 8.083871424000317e-17 -0.07618766395575519 -0.9970934960477887
12635797333.333334 -0.08524236324205503 -0.9963602458492342 3.1926779003659897e-17 8.05334625146716e-17 3.1926779003659897e-17 8.05334625146716e-17 -0.08524172347763588 -0.9963603005832778
12636414666.666666 -0.09428938860785671 -0.9955448313339753 3.2657729054147614e-17 8.022155360637728e-17 3.2657729054147614e-17 8.022155360637728e-17 -0.0942887493982461 -0.9955448918741698
12637032000.0 -0.10332863381739146 -0.9946472708620221 3.338564548304854e-17 7.990301635648766e-17 3.338564548304854e-17 7.990301635648766e-17 -0.103327995215276 -0.9946473372028045
12637649333.333334 -0.11235935301022812 -0.9936676384943605 3.4110468239392125e-17 7.95778801525905e-17 3.4110468239392125e-17 7.95778801525905e-17 -0.1123587150682393 -0.9936677106296911
12638266666.666666 -0.12138080102956204 -0.992606015064013 3.483213755588381e-17 7.924617492580104e-17 3.483213755588381e-17 7.924617492580104e-17 -0.12138016380027153 -0.9926060929873726
12638884000.0 -0.13039223348350182 -0.9914624881693814 3.555059395380401e-17 7.89079311480392e-17 3.555059395380401e-17 7.89079311480392e-17 -0.1303915970194177 -0.9914625718737765
12639501333.333334 -0.1393929068066058 -0.9902371521670157 3.6265778247905704e-17 7.8563179829252e-17 3.6265778247905704e-17 7.8563179829252e-17 -0.13939227116016753 -0.9902372416449744
12640118666.666666 -0.1483820783211512 -0.9889301081638342 3.697763155127012e-17 7.821195251459964e-17 3.697763155127012e-17 7.821195251459964e-17 -0.14838144354472585 -0.9889302034074098
12640736000.0 -0.15735900629866809 -0.9875414640087437 3.7686095280161297e-17 7.785428128158296e-17 3.7686095280161297e-17 7.785428128158296e-17 -0.15735837244454573 -0.9875415650095143
12641353333.333334 -0.16632295002069264 -0.9860713342838089 3.839111115879883e-17 7.749019873715639e-17 3.839111115879883e-17 7.749019873715639e-17 -0.16632231714108223 -0.986071441032879
12641970666.666666 -0.17527316984027966 -0.9845198402947387 3.9092621224166316e-17 7.711973801476474e-17 3.9092621224166316e-17 7.711973801476474e-17 -0.17527253798730463 -0.9845199527827388
12642588000.0 -0.184208927242837 -0.9828871100609065 3.979056783075871e-17 7.674293277135348e-17 3.979056783075871e-17 7.674293277135348e-17 -0.1842082964685309 -0.9828872282779946
12643205333.333334 -0.1931294849071752 -0.9811732783047684 4.048489365529036e-17 7.635981718434221e-17 4.048489365529036e-17 7.635981718434221e-17 -0.19312885526347767 -0.9811734022406313
12643822666.666666 -0.2020341067662623 -0.9793784864407612 4.117554170141529e-17 7.597042594853353e-17 4.117554170141529e-17 7.597042594853353e-17 -0.20203347830501447 -0.9793786160846142
12644440000.0 -0.21092205806804282 -0.977502882563616 4.1862455304364045e-17 7.557479427300851e-17 4.1862455304364045e-17 7.557479427300851e-17 -0.21092143084098344 -0.9775030179042052
12645057333.333334 -0.219792605435871 -0.9755466214361826 4.254557813559856e-17 7.517295787795511e-17 4.254557813559856e-17 7.517295787795511e-17 -0.2197919794946315 -0.9755467624617844
12645674666.666666 -0.228645016929245 -0.9735098644766069 4.322485420740217e-17 7.47649529914728e-17 4.322485420740217e-17 7.47649529914728e-17 -0.2286443923253464 -0.9735100111750318
12646292000.0 -0.2374785621042043 -0.9713927797450199 4.390022787747575e-17 7.435081634631578e-17 4.390022787747575e-17 7.435081634631578e-17 -0.23747793888905142 -0.9713929321036082
12646909333.333334 -0.24629251207332173 -0.9691955419297237 4.4571643853460534e-17 7.39305851766198e-17 4.4571643853460534e-17 7.39305851766198e-17 -0.2462918902982001 -0.9691956999353517
12647526666.666666 -0.2550861395662073 -0.9669183323326981 4.5239047197457016e-17 7.350429721457123e-17 4.5239047197457016e-17 7.350429721457123e-17 -0.25508551928227907 -0.966918495971779
12648144000.0 -0.2638587189892977 -0.9645613388546967 4.5902383330520964e-17 7.307199068703111e-17 4.5902383330520964e-17 7.307199068703111e-17 -0.2638581002475963 -0.9645615081131774
12648761333.333334 -0.27260952648583503 -0.9621247559797041 4.656159803708739e-17 7.263370431214281e-17 4.656159803708739e-17 7.263370431214281e-17 -0.27260890933726234 -0.9621249308430717
12649378666.666666 -0.28133783999540646 -0.9596087847589544 4.7216637469404456e-17 7.218947729587438e-17 4.7216637469404456e-17 7.218947729587438e-17 -0.28133722449072723 -0.9596089652122325
12649996000.0 -0.29004293931374 -0.9570136327942687 4.786744815191141e-17 7.173934932853513e-17 4.786744815191141e-17 7.173934932853513e-17 -0.2900423255035791 -0.9570138188220239
12650613333.333334 -0.29872410615213313 -0.9543395142209335 4.8513976985600176e-17 7.128336058124234e-17 4.8513976985600176e-17 7.128336058124234e-17 -0.29872349408697013 -0.9543397058072716
12651230666.666666 -0.30738062419642015 -0.9515866496901146 4.915617125231092e-17 7.082155170237065e-17 4.915617125231092e-17 7.082155170237065e-17 -0.3073800139265861 -0.951586846818686
12651848000.0 -0.3160117791665683 -0.9487552663505056 4.979397861904269e-17 7.035396381392986e-17 4.979397861904269e-17 7.035396381392986e-17 -0.3160111707422409 -0.9487554690045037
12652465333.333334 -0.3246168588751528 -0.9458455978297233 5.042734714219129e-17 6.988063850793026e-17 5.042734714219129e-17 6.988063850793026e-17 -0.32461625234635305 -0.9458458059918892
12653082666.666666 -0.33319515328634114 -0.9428578842149695 5.105622527175167e-17 6.94016178427124e-17 5.105622527175167e-17 6.94016178427124e-17 -0.33319454870292825 -0.9428580978675896
12653700000.0 -0.3417459545745586 -0.9397923720331851 5.168056185553404e-17 6.89169443392017e-17 5.168056185553404e-17 6.89169443392017e-17 -0.34174535198622674 -0.9397925911580953
12654317333.333334 -0.3502685571826002 -0.936649314230816 5.2300306143267034e-17 6.84266609771852e-17 5.2300306143267034e-17 6.84266609771852e-17 -0.35026795663887383 -0.936649538809402
12654934666.666666 -0.3587622578801955 -0.9334289701528141 5.2915407790743395e-17 6.793081119149164e-17 5.2915407790743395e-17 6.793081119149164e-17 -0.3587616594304256 -0.9334292001660138
12655552000.0 -0.36722635582184776 -0.9301316055213071 5.3525816863878983e-17 6.742943886817306e-17 5.3525816863878983e-17 6.742943886817306e-17 -0.3672257595152082 -0.9301318409496129
12656169333.333334 -0.37566015260463725 -0.9267574924136835 5.413148384275014e-17 6.692258834064061e-17 5.413148384275014e-17 6.692258834064061e-17 -0.37565955849012 -0.9267577332371421
12656786666.666666 -0.3840629523259288 -0.9233069092401126 5.4732359625601503e-17 6.641030438575705e-17 5.4732359625601503e-17 6.641030438575705e-17 -0.3840623604523399 -0.9233071554383269
12657404000.0 -0.39243406164073963 -0.9197801407205917 5.5328395532807906e-17 6.589263221990175e-17 5.5328395532807906e-17 6.589263221990175e-17 -0.3924334720566953 -0.9197803922727229
12658021333.333334 -0.40077278981908027 -0.9161774778613958 5.591954331081258e-17 6.536961749498928e-17 5.591954331081258e-17 6.536961749498928e-17 -0.40077220257300433 -0.916177734746168
12658638666.666666 -0.4090784488026385 -0.9124992179312075 5.650575513599596e-17 6.484130629447968e-17 5.650575513599596e-17 6.484130629447968e-17 -0.4090778639427558 -0.912499480126904
12659256000.0 -0.4173503532620183 -0.9087456644363737 5.708698361856254e-17 6.430774512930611e-17 5.708698361856254e-17 6.430774512930611e-17 -0.4173497708363527 -0.908745931920843
12659873333.333334 -0.42558782065285033 -0.9049171270960654 5.766318180632546e-17 6.376898093382471e-17 5.766318180632546e-17 6.376898093382471e-17 -0.42558724070922 -0.9049173998467213
12660490666.666666 -0.43379017127231634 -0.9010139218166235 5.823430318849837e-17 6.322506106168969e-17 5.823430318849837e-17 6.322506106168969e-17 -0.4337895938583303 -0.9010141998104484
12661108000.0 -0.4419567283153133 -0.8970363706654616 5.880030169943783e-17 6.267603328170456e-17 5.880030169943783e-17 6.267603328170456e-17 -0.4419561534783667 -0.8970366538790067
12661725333.333334 -0.45008681793001387 -0.8929848018446186 5.936113172233256e-17 6.212194577365352e-17 5.936113172233256e-17 6.212194577365352e-17 -0.45008624571728517 -0.8929850902540072
12662342666.666666 -0.45817976927382925 -0.8888595496635106 5.991674809286939e-17 6.15628471240847e-17 5.991674809286939e-17 6.15628471240847e-17 -0.45817919973227567 -0.8888598432444395
12662960000.0 -0.4662349145684549 -0.8846609545114918 6.046710610285995e-17 6.099878632206094e-17 6.046710610285995e-17 6.099878632206094e-17 -0.46623434774480843 -0.8846612532392336
12663577333.333334 -0.47425158915519994 -0.8803893628296541 6.101216150381153e-17 6.042981275489353e-17 6.101216150381153e-17 6.042981275489353e-17 -0.4742510250959643 -0.8803896666790596
12664194666.666666 -0.4822291315496553 -0.8760451270823343 6.155187051047397e-17 5.985597620382914e-17 6.155187051047397e-17 5.985597620382914e-17 -0.48222857030110056 -0.8760454360278324
12664812000.0 -0.490166883496348 -0.8716286057279874 6.208618980434569e-17 5.927732683970465e-17 6.208618980434569e-17 5.927732683970465e-17 -0.49016632510450886 -0.871628919743591
12665429333.333334 -0.4980641900231585 -0.8671401631895579 6.261507653712413e-17 5.869391521858715e-17 6.261507653712413e-17 5.869391521858715e-17 -0.4980636345338289 -0.867140482248863
12666046666.666666 -0.5059203994950648 -0.8625801698245741 6.313848833413071e-17 5.810579227736753e-17 6.313848833413071e-17 5.810579227736753e-17 -0.5059198469537955 -0.8625804939007644
12666664000.0 -0.5137348636683828 -0.857949001894323 6.365638329769387e-17 5.751300932932282e-17 6.365638329769387e-17 5.751300932932282e-17 -0.513734314120476 -0.8579493309601695
12667281333.333334 -0.5215069377437122 -0.8532470415331156 6.416872001047661e-17 5.691561805966603e-17 6.416872001047661e-17 5.691561805966603e-17 -0.5215063912342183 -0.8532473755609802
12667898666.666666 -0.5292359804195814 -0.8484746767164958 6.467545753877522e-17 5.631367052105123e-17 6.467545753877522e-17 5.631367052105123e-17 -0.5292354369932976 -0.8484750156783354
12668516000.0 -0.536921353945196 -0.8436323012293311 6.517655543578524e-17 5.570721912903846e-17 6.517655543578524e-17 5.570721912903846e-17 -0.5369208136466589 -0.8436326450966962
12669133333.333334 -0.5445624241729121 -0.8387203146334057 6.567197374478746e-17 5.509631665757438e-17 6.567197374478746e-17 5.509631665757438e-17 -0.5445618870463975 -0.8387206633774472
12669750666.666666 -0.552158560610881 -0.8337391222342619 6.616167300233744e-17 5.44810162343909e-17 6.616167300233744e-17 5.44810162343909e-17 -0.5521580267003973 -0.8337394758257294
12670368000.0 -0.5597091364748045 -0.8286891350479179 6.664561424138974e-17 5.3861371336401576e-17 6.664561424138974e-17 5.3861371336401576e-17 -0.5597086058240909 -0.8286894934571639
