! Parameters = {f0=12700.012000; bw=77.238000; Q=6100.000000; N=10; m_0_1=1.266361; m_1_1=0.230675; m_1_2=1.101173; m_2_2=0.230026; m_2_3=0.738136; m_2_8=0.000382; m_2_9=0.037086; m_3_3=0.228089; m_3_4=0.626665; m_3_7=0.000982; m_3_8=-0.096106; m_3_9=0.000382; m_4_4=0.225164; m_4_5=0.463000; m_4_6=0.004499; m_4_7=-0.116655; m_4_8=0.000982; m_5_5=0.225546; m_5_6=0.870355; m_5_7=0.004499; m_6_6=0.225545; m_6_7=0.463342; m_7_7=0.225178; m_7_8=0.626783; m_8_8=0.228087; m_8_9=0.738449; m_9_9=0.230021; m_9_10=1.102251; m_10_10=0.230665; m_10_11=1.267156}
!
! Created with skrf (http://scikit-rf.org).
# Hz S RI R 50.0 
!freq ReS11 ImS11 ReS21 ImS21 ReS12 ImS12 ReS22 ImS22
12607400000.0 -0.9843183265215995 0.1764013380718581 9.715785775439527e-17 -4.878443446591825e-17 9.715785775439527e-17 -4.878443446591825e-17 -0.9843184442165468 0.17640068133354994
12608017333.333334 -0.9824276838831085 0.18664363353700447 9.662114703469623e-17 -4.979252416572617e-17 9.662114703469623e-17 -4.979252416572617e-17 -0.9824278084056297 0.1866429780922261
12608634666.666666 -0.9804304683289765 0.19686568205771257 9.607398517116138e-17 -5.0794724895558503e-17 9.607398517116138e-17 -5.0794724895558503e-17 -0.9804305996648957 0.19686502797743605
12609252000.0 -0.9783268965155305 0.2070663747548492 9.551643662101654e-17 -5.179092839653956e-17 9.551643662101654e-17 -5.179092839653956e-17 -0.978327034649934 0.20706572210989146
12609869333.333334 -0.9761171966365099 0.2172446050660553 9.494856696192602e-17 -5.2781027113710436e-17 9.494856696192602e-17 -5.2781027113710436e-17 -0.9761173415537483 0.2172439539270707
12610486666.666666 -0.9738016083983665 0.22739926886553471 9.437044288433542e-17 -5.376491420759081e-17 9.437044288433542e-17 -5.376491420759081e-17 -0.9738017600820561 0.2273986193030074
12611104000.0 -0.9713803829941797 0.23752926458418938 9.378213218365495e-17 -5.4742483565727035e-17 9.378213218365495e-17 -5.4742483565727035e-17 -0.9713805414272043 0.2375286166684256
12611721333.333334 -0.9688537830765227 0.24763349332861812 9.318370375237757e-17 -5.571362981406172e-17 9.318370375237757e-17 -5.571362981406172e-17 -0.9688539482410358 0.24763284712973851
12612338666.666666 -0.9662220827288682 0.25771085900076685 9.25752275720351e-17 -5.66782483282953e-17 9.25752275720351e-17 -5.66782483282953e-17 -0.9662222546062946 0.257710214588699
12612956000.0 -0.963485567435876 0.2677602684167203 9.19567747050512e-17 -5.763623524513285e-17 9.19567747050512e-17 -5.763623524513285e-17 -0.9634857460069138 0.267759625861191
12613573333.333334 -0.9606445340524754 0.2777806314250973 9.132841728650329e-17 -5.858748747340711e-17 9.132841728650329e-17 -5.858748747340711e-17 -0.9606447192971009 0.27777999079562576
12614190666.666666 -0.9576992907716287 0.2877708610254767 9.069022851572068e-17 -5.95319027051871e-17 9.069022851572068e-17 -5.95319027051871e-17 -0.9576994826690928 0.28777022239136546
12614808000.0 -0.9546501570908759 0.2977298734863382 9.004228264780997e-17 -6.046937942673097e-17 9.004228264780997e-17 -6.046937942673097e-17 -0.9546503556197122 0.29772923691666736
12615425333.333334 -0.9514974637777097 0.30765658846254507 8.938465498504743e-17 -6.139981692937807e-17 8.938465498504743e-17 -6.139981692937807e-17 -0.9514976689157337 0.3076559540261635
12616042666.666666 -0.9482415528336716 0.3175499291125914 8.87174218681718e-17 -6.232311532033046e-17 8.87174218681718e-17 -6.232311532033046e-17 -0.9482417645579854 0.31754929687811034
12616660000.0 -0.944882777457293 0.32740882221531115 8.804066066754786e-17 -6.323917553336522e-17 8.804066066754786e-17 -6.323917553336522e-17 -0.9448829957442851 0.3274081922510959
12617277333.333334 -0.9414215020057106 0.3372321982864867 8.735444977423598e-17 -6.414789933942871e-17 8.735444977423598e-17 -6.414789933942871e-17 -0.9414217268310605 0.33723157066065
12617894666.666666 -0.9378581019552218 0.34701899169465267 8.665886859095304e-17 -6.504918935713477e-17 8.665886859095304e-17 -6.504918935713477e-17 -0.937858333293902 0.3470183664750465
12618512000.0 -0.9341929638604719 0.35676814077690716 8.595399752290642e-17 -6.594294906318959e-17 8.595399752290642e-17 -6.594294906318959e-17 -0.934193201686751 0.3567675180311161
12619129333.333334 -0.930426485312603 0.3664785879538677 8.523991796854946e-17 -6.682908280268154e-17 8.523991796854946e-17 -6.682908280268154e-17 -0.9304267296000478 0.3664779677492012
12619746666.666666 -0.9265590748960626 0.37614927984455626 8.451671231020464e-17 -6.770749579930514e-17 8.451671231020464e-17 -6.770749579930514e-17 -0.9265593256175417 0.3761486622480415
12620364000.0 -0.9225911521442547 0.38577916738071943 8.378446390458866e-17 -6.857809416547409e-17 8.378446390458866e-17 -6.857809416547409e-17 -0.9225914092719432 0.3857785524590948
12620981333.333334 -0.9185231474941756 0.3953672059202917 8.304325707326395e-17 -6.944078491229705e-17 8.304325707326395e-17 -6.944078491229705e-17 -0.9185234109995544 0.39536659373999805
12621598666.666666 -0.9143555022395414 0.4049123553611346 8.229317709293049e-17 -7.029547595951916e-17 8.229317709293049e-17 -7.029547595951916e-17 -0.9143557720934031 0.40491174598830937
12622216000.0 -0.9100886684830171 0.41441358025363145 8.153431018566505e-17 -7.114207614530015e-17 8.153431018566505e-17 -7.114207614530015e-17 -0.9100889446554701 0.41441297375410163
12622833333.333334 -0.9057231090871297 0.4238698499131171 8.076674350903429e-17 -7.198049523591813e-17 8.076674350903429e-17 -7.198049523591813e-17 -0.905723391547597 0.42386924635239026
12623450666.666666 -0.9012592976241465 0.4332801385314762 7.99905651461333e-17 -7.281064393533948e-17 7.99905651461333e-17 -7.281064393533948e-17 -0.9012595863413742 0.43327953797473584
12624068000.0 -0.8966977183245778 0.4426434252887093 7.920586409548676e-17 -7.363243389472524e-17 7.920586409548676e-17 -7.363243389472524e-17 -0.8966980132666353 0.44264282780080627
12624685333.333334 -0.8920388660246646 0.45195869446361514 7.841273026088143e-17 -7.44457777217968e-17 7.841273026088143e-17 -7.44457777217968e-17 -0.8920391671589499 0.45195810010906096
12625302666.666666 -0.8872832461128661 0.46122493554364563 7.761125444111649e-17 -7.525058899007996e-17 7.761125444111649e-17 -7.525058899007996e-17 -0.8872835534061085 0.46122434438660603
12625920000.0 -0.882431374474768 0.4704411433350589 7.680152831960563e-17 -7.604678224809395e-17 7.680152831960563e-17 -7.604678224809395e-17 -0.8824316878930315 0.47044055543934604
12626537333.333334 -0.8774837774373488 0.4796063180715048 7.598364445395837e-17 -7.683427302835441e-17 7.598364445395837e-17 -7.683427302835441e-17 -0.877484096946038 0.4796057335005715
12627154666.666666 -0.8724409917117876 0.4887194655226835 7.515769626540512e-17 -7.761297785633075e-17 7.515769626540512e-17 -7.761297785633075e-17 -0.8724413172756474 0.488718884339615
12627772000.0 -0.8673035643352047 0.4977795971022452 7.432377802815127e-17 -7.838281425926702e-17 7.432377802815127e-17 -7.838281425926702e-17 -0.8673038959183289 0.4977790193697538
12628389333.333334 -0.8620720526114383 0.5067857299748348 7.348198485867389e-17 -7.91437007748609e-17 7.348198485867389e-17 -7.91437007748609e-17 -0.8620723901772696 0.5067851557552516
12629006666.666666 -0.8567470240504284 0.5157368871629795 7.263241270487749e-17 -7.989555695987499e-17 7.263241270487749e-17 -7.989555695987499e-17 -0.856747367561765 0.5157363165182488
12629624000.0 -0.8513290563067833 0.5246320976528481 7.177515833519909e-17 -8.063830339860031e-17 7.177515833519909e-17 -8.063830339860031e-17 -0.8513294057257819 0.5246315306445206
12630241333.333334 -0.8458187371170879 0.5334703964996365 7.091031932761033e-17 -8.137186171121618e-17 7.091031932761033e-17 -8.137186171121618e-17 -0.8458190924052686 0.5334698331888625
12630858666.666666 -0.8402166642361504 0.5422508249322459 7.003799405855183e-17 -8.209615456201998e-17 7.003799405855183e-17 -8.209615456201998e-17 -0.8402170253543997 0.5422502653797684
12631476000.0 -0.8345234453720461 0.5509724304574538 6.915828169174295e-17 -8.281110566757092e-17 6.915828169174295e-17 -8.281110566757092e-17 -0.8345238122806227 0.5509718747236023
12632093333.333334 -0.8287396981203656 0.5596342669629788 6.827128216697823e-17 -8.351663980465859e-17 6.827128216697823e-17 -8.351663980465859e-17 -0.8287400707789029 0.5596337151076622
12632710666.666666 -0.8228660498971877 0.5682353948201612 6.737709618877383e-17 -8.421268281820774e-17 6.737709618877383e-17 -8.421268281820774e-17 -0.8228664282647002 0.5682348469028626
12633328000.0 -0.8169031378708451 0.5767748809861546 6.647582521495996e-17 -8.489916162904068e-17 6.647582521495996e-17 -8.489916162904068e-17 -0.8169035219057322 0.576774337065924
12633945333.333334 -0.8108516088930091 0.5852517991048325 6.556757144521392e-17 -8.557600424150278e-17 6.556757144521392e-17 -8.557600424150278e-17 -0.8108519985530596 0.5852512592402805
12634562666.666666 -0.8047121194284101 0.5936652296074457 6.465243780949686e-17 -8.624313975098093e-17 6.465243780949686e-17 -8.624313975098093e-17 -0.804712514670806 0.593664693856737
12635180000.0 -0.7984853354837047 0.6020142598122583 6.373052795640459e-17 -8.690049835130608e-17 6.373052795640459e-17 -8.690049835130608e-17 -0.7984857362650266 0.6020137282331057
12635797333.333334 -0.7921719325351119 0.6102979840237163 6.280194624146335e-17 -8.754801134201696e-17 6.280194624146335e-17 -8.754801134201696e-17 -0.7921723388113443 0.6102974566733745
12636414666.666666 -0.7857725954552559 0.6185155036305364 6.186679771534947e-17 -8.818561113550077e-17 6.186679771534947e-17 -8.818561113550077e-17 -0.7857730071817923 0.6185149805657967
12637032000.0 -0.7792880184388234 0.6266659272032573 6.092518811202771e-17 -8.881323126401604e-17 6.092518811202771e-17 -8.881323126401604e-17 -0.7792884355704693 0.6266654084804392
12637649333.333334 -0.7727189049272185 0.6347483705909817 5.997722383681802e-17 -8.943080638658845e-17 5.997722383681802e-17 -8.943080638658845e-17 -0.7727193274181983 0.6347478562659291
12638266666.666666 -0.7660659675323095 0.6427619570172244 5.902301195440623e-17 -9.003827229577176e-17 5.902301195440623e-17 -9.003827229577176e-17 -0.7660663953362702 0.6427614471452985
12638884000.0 -0.7593299279590884 0.6507058171750671 5.806266017677361e-17 -9.063556592428912e-17 5.806266017677361e-17 -9.063556592428912e-17 -0.7593303610291053 0.6507053118111404
12639501333.333334 -0.7525115169274352 0.6585790893213941 5.709627685107274e-17 -9.122262535153789e-17 5.709627685107274e-17 -9.122262535153789e-17 -0.7525119552160173 0.6585785885198452
12640118666.666666 -0.7456114740928536 0.6663809193703764 5.612397094743069e-17 -9.179938980997114e-17 5.612397094743069e-17 -9.179938980997114e-17 -0.7456119175519486 0.6663804231850838
12640736000.0 -0.7386305479660057 0.6741104609863765 5.514585204665612e-17 -9.23657996913671e-17 5.514585204665612e-17 -9.23657996913671e-17 -0.7386309965470044 0.6741099694707119
12641353333.333334 -0.7315694958319281 0.6817668756752886 5.4162030327973796e-17 -9.29217965529161e-17 5.4162030327973796e-17 -9.29217965529161e-17 -0.7315699494856717 0.6817663888821134
12641970666.666666 -0.724429083667565 0.689349332875863 5.317261655659484e-17 -9.346732312323703e-17 5.317261655659484e-17 -9.346732312323703e-17 -0.7244295423443482 0.68934885085752
12642588000.0 -0.7172100860587476 0.6968570100497158 5.217772207128279e-17 -9.40023233082295e-17 5.217772207128279e-17 -9.40023233082295e-17 -0.7172105497083252 0.6968565328580246
12643205333.333334 -0.7099132861162258 0.704289092770495 5.1177458771858666e-17 -9.452674219679605e-17 5.1177458771858666e-17 -9.452674219679605e-17 -0.7099137546878186 0.7042886204567478
12643822666.666666 -0.7025394753906007 0.7116447748123537 5.017193910662748e-17 -9.504052606644287e-17 5.017193910662748e-17 -9.504052606644287e-17 -0.7025399488329 0.7116443074273073
12644440000.0 -0.6950894537866343 0.718923258237223 4.916127605977363e-17 -9.55436223887347e-17 4.916127605977363e-17 -9.55436223887347e-17 -0.6950899320478086 0.7189227958310952
12645057333.333334 -0.6875640294763398 0.7261237534815166 4.814558313869937e-17 -9.60359798346175e-17 4.814558313869937e-17 -9.60359798346175e-17 -0.687564512504039 0.72612329610398
12645674666.666666 -0.6799640188113903 0.7332454794417005 4.712497436128632e-17 -9.651754827961953e-17 4.712497436128632e-17 -9.651754827961953e-17 -0.6799645065527546 0.7332450271418786
12646292000.0 -0.672290246234379 0.7402876635592028 4.609956424311308e-17 -9.69882788089121e-17 4.609956424311308e-17 -9.69882788089121e-17 -0.6722907386360407 0.7402872163856624
12646909333.333334 -0.6645435441897336 0.7472495419038899 4.5069467784662056e-17 -9.74481237222175e-17 4.5069467784662056e-17 -9.74481237222175e-17 -0.6645440411978241 0.7472490999046363
12647526666.666666 -0.6567247530330822 0.7541303592572467 4.403480045843093e-17 -9.789703653860353e-17 4.403480045843093e-17 -9.789703653860353e-17 -0.6567252545932399 0.7541299224797205
12648144000.0 -0.6488347209401725 0.7609293691942202 4.2995678195999507e-17 -9.833497200113934e-17 4.2995678195999507e-17 -9.833497200113934e-17 -0.6488352269975475 0.7609289376852915
12648761333.333334 -0.6408743038150154 0.7676458341640664 4.1952217375087325e-17 -9.876188608139882e-17 4.1952217375087325e-17 -9.876188608139882e-17 -0.6408748143142744 0.7676454079700276
12649378666.666666 -0.6328443651969061 0.7742790255704656 4.0904534806539406e-17 -9.917773598383938e-17 4.0904534806539406e-17 -9.917773598383938e-17 -0.63284488008224 0.7742786047370295
12649996000.0 -0.6247457761667294 0.7808282238505835 3.985274772127188e-17 -9.958248015004124e-17 3.985274772127188e-17 -9.958248015004124e-17 -0.6247462953818577 0.780827808422875
12650613333.333334 -0.6165794152524811 0.7872927185531021 3.879697375717073e-17 -9.997607826281119e-17 3.879697375717073e-17 -9.997607826281119e-17 -0.6165799387406605 0.787292308575658
12651230666.666666 -0.6083461683341499 0.7936718084151555 3.7737330945982194e-17 -1.0035849125013578e-16 3.7737330945982194e-17 -1.0035849125013578e-16 -0.6083466960381786 0.7936714039319154
12651848000.0 -0.6000469285472585 0.7999648014386795 3.667393770011042e-17 -1.0072968128901582e-16 3.667393770011042e-17 -1.0072968128901582e-16 -0.6000474604094831 0.7999644024929832
12652465333.333334 -0.5916825961862441 0.8061710149652684 3.56069127994328e-17 -1.0108961180914169e-16 3.56069127994328e-17 -1.0108961180914169e-16 -0.5916831321485655 0.8061706215998501
12653082666.666666 -0.5832540786068672 0.8122897757501817 3.4536375378068555e-17 -1.0143824749643401e-16 3.4536375378068555e-17 -1.0143824749643401e-16 -0.5832546186107471 0.8122893880071668
12653700000.0 -0.574762290127415 0.8183204200356452 3.346244491105576e-17 -1.0177555429646335e-16 3.346244491105576e-17 -1.0177555429646335e-16 -0.5747628341138833 0.8183200379565456
12654317333.333334 -0.5662081519299313 0.8242622936225564 3.2385241201094e-17 -1.0210149941769718e-16 3.2385241201094e-17 -1.0210149941769718e-16 -0.5662086998395911 0.8242619172482649
12654934666.666666 -0.5575925919600334 0.8301147519416314 3.130488436517239e-17 -1.0241605133463376e-16 3.130488436517239e-17 -1.0241605133463376e-16 -0.5575931437330681 0.8301143813124187
12655552000.0 -0.5489165448262244 0.8358771601233431 3.022149482119678e-17 -1.0271917979078532e-16 3.022149482119678e-17 -1.0271917979078532e-16 -0.5489171004024039 0.8358767952788515
12656169333.333334 -0.5401809516988136 0.8415488930665821 2.913519327463031e-17 -1.0301085580150895e-16 2.913519327463031e-17 -1.0301085580150895e-16 -0.5401815110175014 0.8415485340458235
12656786666.666666 -0.5313867602074424 0.8471293355067238 2.804610070502231e-17 -1.0329105165672012e-16 2.804610070502231e-17 -1.0329105165672012e-16 -0.5313873232076024 0.8471289823480751
12657404000.0 -0.5225349243384745 0.8526178820822434 2.6954338352585722e-17 -1.0355974092344416e-16 2.6954338352585722e-17 -1.0355974092344416e-16 -0.5225354909586764 0.8526175348234407
12658021333.333334 -0.5136264043315333 0.8580139374003705 2.5860027704712586e-17 -1.0381689844823587e-16 2.5860027704712586e-17 -1.0381689844823587e-16 -0.5136269745099602 0.8580135960785062
12658638666.666666 -0.5046621665753117 0.8633169161016933 2.4763290482506172e-17 -1.0406250035944832e-16 2.4763290482506172e-17 -1.0406250035944832e-16 -0.5046627402497678 0.863316580753214
12659256000.0 -0.4956431835025947 0.8685262429237468 2.3664248627218525e-17 -1.0429652406937668e-16 2.3664248627218525e-17 -1.0429652406937668e-16 -0.4956437606105101 0.8685259135844463
12659873333.333334 -0.48657043348493734 0.8736413527633103 2.2563024286751777e-17 -1.0451894827623956e-16 2.2563024286751777e-17 -1.0451894827623956e-16 -0.486571013963376 0.8736410294683268
12660490666.666666 -0.4774449007266355 0.8786616907376581 2.1459739802115677e-17 -1.0472975296602585e-16 2.1459739802115677e-17 -1.0472975296602585e-16 -0.47744548451230207 0.8786613735214717
12661108000.0 -0.46826757515756134 0.8835867122449744 2.035451769381222e-17 -1.0492891941420881e-16 2.035451769381222e-17 -1.0492891941420881e-16 -0.4682681621868082 0.8835864011414022
12661725333.333334 -0.459039452326226 0.8884158830231844 1.924748064830723e-17 -1.0511643018729781e-16 1.924748064830723e-17 -1.0511643018729781e-16 -0.459040042535059 0.8884155780653762
12662342666.666666 -0.44976153329145613 0.8931486792080837 1.8138751504399402e-17 -1.0529226914426402e-16 1.8138751504399402e-17 -1.0529226914426402e-16 -0.4497621266155432 0.8931483804285206
12662960000.0 -0.440434824514028 0.8977845873900503 1.7028453239625693e-17 -1.0545642143781461e-16 1.7028453239625693e-17 -1.0545642143781461e-16 -0.4404354208887056 0.8977842948205401
12663577333.333334 -0.43106033774731073 0.9023231046698299 1.5916708956653623e-17 -1.0560887351552378e-16 1.5916708956653623e-17 -1.0560887351552378e-16 -0.43106093710758986 0.9023228183415025
12664194666.666666 -0.4216390899276115 0.906763738713035 1.4803641869638256e-17 -1.0574961312082561e-16 1.4803641869638256e-17 -1.0574961312082561e-16 -0.42163969220818664 0.906763458656342
12664812000.0 -0.41217210306381064 0.9111060078035822 1.36893752906021e-17 -1.0587862929385849e-16 1.36893752906021e-17 -1.0587862929385849e-16 -0.41217270819906515 0.9111057340482905
12665429333.333334 -0.4026604041265698 0.9153494408959089 1.2574032615788547e-17 -1.0599591237216939e-16 1.2574032615788547e-17 -1.0599591237216939e-16 -0.402661012050584 0.9153491734710996
12666046666.666666 -0.3931050249369043 0.919493577666088 1.145773731204748e-17 -1.0610145399127067e-16 1.145773731204748e-17 -1.0610145399127067e-16 -0.39310563558346245 0.9194933166001521
12666664000.0 -0.3835070020540409 0.92353796856185 1.034061290313999e-17 -1.0619524708506179e-16 1.034061290313999e-17 -1.0619524708506179e-16 -0.3835076153566386 0.9235377138824871
12667281333.333334 -0.3738673766634178 0.9274821748511618 9.222782956147779e-18 -1.0627728588609713e-16 9.222782956147779e-18 -1.0627728588609713e-16 -0.3738679925552688 0.9274819265853752
12667898666.666666 -0.36418719446331976 0.9313257686699976 8.104371067795552e-18 -1.0634756592571894e-16 8.104371067795552e-18 -1.0634756592571894e-16 -0.36418781287736385 0.9313255268440935
12668516000.0 -0.3544675055515449 0.9350683330687073 6.985500850805586e-18 -1.0640608403404352e-16 6.985500850805586e-18 -1.0640608403404352e-16 -0.35446812642045433 0.9350680977082894
12669133333.333334 -0.34470936431167604 0.938709462057173 5.866295920298308e-18 -1.064528383398024e-16 5.866295920298308e-18 -1.064528383398024e-16 -0.34470998756786314 0.9387092331871405
12669750666.666666 -0.33491382929854346 0.9422487606489125 4.746879880110112e-18 -1.0648782827004532e-16 4.746879880110112e-18 -1.0648782827004532e-16 -0.3349144548741692 0.9422485382934609
12670368000.0 -0.32508196312334214 0.9456858449039516 3.6273763091903924e-18 -1.0651105454969602e-16 3.6273763091903924e-18 -1.0651105454969602e-16 -0.32508259095032144 0.9456856290865648
