! Parameters = {f0=12700.012000; bw=77.238000; Q=6100.000000; N=10; m_0_1=1.184680; m_1_1=-0.994550; m_1_2=1.019492; m_2_2=-0.995199; m_2_3=0.656455; m_2_8=-0.003702; m_2_9=0.033002; m_3_3=-0.997136; m_3_4=0.544984; m_3_7=-0.003102; m_3_8=-0.100190; m_3_9=-0.003702; m_4_4=-1.000061; m_4_5=0.381319; m_4_6=0.000415; m_4_7=-0.120739; m_4_8=-0.003102; m_5_5=-0.999679; m_5_6=0.788674; m_5_7=0.000415; m_6_6=-0.999680; m_6_7=0.381661; m_7_7=-1.000047; m_7_8=0.545102; m_8_8=-0.997138; m_8_9=0.656768; m_9_9=-0.995204; m_9_10=1.020570; m_10_10=-0.994560; m_10_11=1.185475}
!
! Created with skrf (http://scikit-rf.org).
# Hz S RI R 50.0 
!freq ReS11 ImS11 ReS21 ImS21 ReS12 ImS12 ReS22 ImS22
12607400000.0 -0.4572503347193336 0.8893380298845336 1.3497348294389724e-17 -7.1377294071067e-17 1.3497348294389724e-17 -7.1377294071067e-17 -0.4572508899383555 0.8893377444202105
12608017333.333334 -0.4501204904329604 0.8929678292593966 1.291698706161823e-17 -7.147014034788554e-17 1.291698706161823e-17 -7.147014034788554e-17 -0.45012104789078816 0.8929675482600389
12608634666.666666 -0.44296183388058075 0.8965404696526525 1.2336007699509294e-17 -7.155827231822005e-17 1.2336007699509294e-17 -7.155827231822005e-17 -0.44296239354131445 0.8965401931358099
12609252000.0 -0.4357748232887571 0.900055722379176 1.175444846593659e-17 -7.164168606200319e-17 1.175444846593659e-17 -7.164168606200319e-17 -0.4357753851163582 0.9000554503621072
12609869333.333334 -0.4285599186988921 0.9035133624272782 1.1172347641724925e-17 -7.172037796934342e-17 1.1172347641724925e-17 -7.172037796934342e-17 -0.428560482657188 0.9035130949269545
12610486666.666666 -0.42131758193799024 0.9069131684730194 1.0589743528133861e-17 -7.179434474064091e-17 1.0589743528133861e-17 -7.179434474064091e-17 -0.42131814799067496 0.9069129055061206
12611104000.0 -0.414048276588889 0.9102549228944703 1.0006674444328535e-17 -7.186358338668328e-17 1.0006674444328535e-17 -7.186358338668328e-17 -0.4140488446995258 0.9102546644773835
12611721333.333334 -0.40675246796076414 0.9135384117855551 9.423178724901561e-18 -7.192809122871532e-17 9.423178724901561e-18 -7.192809122871532e-17 -0.40675303809278884 0.9135381579343756
12612338666.666666 -0.3994306230592963 0.9167634249697735 8.839294717325296e-18 -7.198786589849702e-17 8.839294717325296e-18 -7.198786589849702e-17 -0.3994311951760182 0.9167631757003023
12612956000.0 -0.3920832105565675 0.9199297560137409 8.25506077945539e-18 -7.204290533833454e-17 8.25506077945539e-18 -7.204290533833454e-17 -0.39208378462117316 0.9199295113414852
12613573333.333334 -0.38471070076150565 0.9230372022402126 7.670515277022433e-18 -7.209320780109322e-17 7.670515277022433e-18 -7.209320780109322e-17 -0.3847112767370599 0.9230369621803818
12614190666.666666 -0.37731356558930906 0.926085564741255 7.085696581105514e-18 -7.213877185019112e-17 7.085696581105514e-18 -7.213877185019112e-17 -0.3773141434387587 0.9260853293087641
12614808000.0 -0.3698922785315807 0.9290746483908395 6.500643065637277e-18 -7.217959635957012e-17 6.500643065637277e-18 -7.217959635957012e-17 -0.3698928582177558 0.9290744176003047
12615425333.333334 -0.3624473146258087 0.9320042618574158 5.915393104876912e-18 -7.221568051364957e-17 5.915393104876912e-18 -7.221568051364957e-17 -0.3624478961114255 0.9320040357231549
12616042666.666666 -0.3549791504250385 0.9348742176161267 5.3299850709168996e-18 -7.224702380725615e-17 5.3299850709168996e-18 -7.224702380725615e-17 -0.3549797336727015 0.9348739961521575
12616660000.0 -0.34748826396744775 0.937684331960781 4.744457331160174e-18 -7.227362604553725e-17 4.744457331160174e-18 -7.227362604553725e-17 -0.3474888489396529 0.9376841151808224
12617277333.333334 -0.33997513474553503 0.9404344250156953 4.158848245816964e-18 -7.229548734385102e-17 4.158848245816964e-18 -7.229548734385102e-17 -0.339975721404671 0.9404342129331642
12617894666.666666 -0.33244024367577435 0.9431243207470786 3.573196165415502e-18 -7.231260812763745e-17 3.573196165415502e-18 -7.231260812763745e-17 -0.33244083198412566 0.9431241133750892
12618512000.0 -0.32488407306734957 0.9457538469744736 2.9875394282628806e-18 -7.232498913226996e-17 2.9875394282628806e-18 -7.232498913226996e-17 -0.32488466298709917 0.945753644325839
12619129333.333334 -0.3173071065917372 0.9483228353816158 2.4019163579776603e-18 -7.233263140288517e-17 2.4019163579776603e-18 -7.233263140288517e-17 -0.31730769808496834 0.948322637468844
12619746666.666666 -0.3097098292515328 0.9508311215272841 1.816365260975006e-18 -7.233553629419347e-17 1.816365260975006e-18 -7.233553629419347e-17 -0.3097104222802318 0.9508309283625803
12620364000.0 -0.30209272734935094 0.9532785448558444 1.2309244239539808e-18 -7.233370547026966e-17 1.2309244239539808e-18 -7.233370547026966e-17 -0.3020933218754098 0.9532783564511081
12620981333.333334 -0.29445628845688665 0.9556649487074644 6.45632111436422e-19 -7.23271409043226e-17 6.45632111436422e-19 -7.23271409043226e-17 -0.2944568844421048 0.9556647650742884
12621598666.666666 -0.2868010013834887 0.9579901803282092 6.052656323628775e-20 -7.231584487844541e-17 6.052656323628775e-20 -7.231584487844541e-17 -0.2868015987895762 0.9579900014778803
12622216000.0 -0.27912735614508793 0.9602540908797526 -5.243540080046648e-19 -7.22998199833452e-17 -5.243540080046648e-19 -7.22998199833452e-17 -0.27912795493366754 0.9602539168232508
12622833333.333334 -0.2714358439326144 0.9624565354489706 -1.108971419323681e-18 -7.227906911805308e-17 -1.108971419323681e-18 -7.227906911805308e-17 -0.27143644406522444 0.9624563661969683
12623450666.666666 -0.26372695708074634 0.9645973730571611 -1.6932875199080087e-18 -7.22535954896138e-17 -1.6932875199080087e-18 -7.22535954896138e-17 -0.26372755851884255 0.9645972086200213
12624068000.0 -0.2560011890363418 0.9666764666690842 -2.277264193581327e-18 -7.222340261275563e-17 -2.277264193581327e-18 -7.222340261275563e-17 -0.2560017917413001 0.966676307056861
12624685333.333334 -0.2482590343266332 0.9686936832017925 -2.860863361297184e-18 -7.218849430953954e-17 -2.860863361297184e-18 -7.218849430953954e-17 -0.24825963825975228 0.9686935284242294
12625302666.666666 -0.2405009885280664 0.9706488935330169 -3.444046983588002e-18 -7.214887470899008e-17 -3.444046983588002e-18 -7.214887470899008e-17 -0.24050159365057042 0.9706487435995488
12625920000.0 -0.23272754823394753 0.9725419725095995 -4.026777063061811e-18 -7.210454824670407e-17 -4.026777063061811e-18 -7.210454824670407e-17 -0.23272815450698794 0.9725418274293491
12626537333.333334 -0.2249392110232608 0.9743727989553483 -4.60901564685631e-18 -7.205551966444157e-17 -4.60901564685631e-18 -7.205551966444157e-17 -0.22493981840791943 0.9743726587371272
12627154666.666666 -0.21713647542843326 0.9761412556788921 -5.190724829099314e-18 -7.200179400969619e-17 -5.190724829099314e-18 -7.200179400969619e-17 -0.21713708388572459 0.9761411203312
12627772000.0 -0.20931984090347783 0.9778472294811651 -5.771866753395821e-18 -7.194337663524333e-17 -5.771866753395821e-18 -7.194337663524333e-17 -0.20932045039435127 0.977847099012188
12628389333.333334 -0.20148980779221765 0.9794906111626094 -6.3524036152495715e-18 -7.18802731986738e-17 -6.3524036152495715e-18 -7.18802731986738e-17 -0.2014904182775607 0.9794904855802226
12629006666.666666 -0.193646877295926 0.9810712955302399 -6.932297664539486e-18 -7.18124896619021e-17 -6.932297664539486e-18 -7.18124896619021e-17 -0.1936474887365659 0.9810711748420027
12629624000.0 -0.18579155144163317 0.9825891814042926 -7.511511207958946e-18 -7.174003229065858e-17 -7.511511207958946e-18 -7.174003229065858e-17 -0.1857921637983402 0.982589065617452
12630241333.333334 -0.1779243330496299 0.9840441716247755 -8.090006611454458e-18 -7.166290765396114e-17 -8.090006611454458e-18 -7.166290765396114e-17 -0.17792494628311928 0.984044060746263
12630858666.666666 -0.17004572570167276 0.9854361730576154 -8.667746302667682e-18 -7.158112262356674e-17 -8.667746302667682e-18 -7.158112262356674e-17 -0.1700463397726075 0.9854360670940482
12631476000.0 -0.16215623370821788 0.9867650966007117 -9.244692773374429e-18 -7.14946843734026e-17 -9.244692773374429e-18 -7.14946843734026e-17 -0.16215684857721144 0.9867649955583923
12632093333.333334 -0.15425636207672877 0.9880308571895415 -9.820808581900329e-18 -7.140360037898086e-17 -9.820808581900329e-18 -7.140360037898086e-17 -0.15425697770434704 0.9880307610744556
12632710666.666666 -0.14634661647898575 0.9892333738026633 -1.0396056355549358e-17 -7.130787841679057e-17 -1.0396056355549358e-17 -7.130787841679057e-17 -0.14634723282575016 0.9892332826204813
12633328000.0 -0.13842750321866185 0.9903725694669119 -1.097039879302497e-17 -7.120752656367115e-17 -1.097039879302497e-17 -7.120752656367115e-17 -0.1384281202450517 0.9903724832229884
12633945333.333334 -0.13049952919925165 0.9914483712622768 -1.1543798666835435e-17 -7.110255319616761e-17 -1.1543798666835435e-17 -7.110255319616761e-17 -0.13050014686570624 0.9914482899616482
12634562666.666666 -0.1225632018912858 0.9924607103266112 -1.2116218825703528e-17 -7.09929669898647e-17 -1.2116218825703528e-17 -7.09929669898647e-17 -0.1225638201582079 0.9924606339739996
12635180000.0 -0.11461902930010304 0.9934095218600175 -1.2687622196958227e-17 -7.087877691870439e-17 -1.2687622196958227e-17 -7.087877691870439e-17 -0.11461964812786037 0.9934094504598255
12635797333.333334 -0.10666751993307703 0.9942947451290154 -1.3257971788944454e-17 -7.075999225427927e-17 -1.3257971788944454e-17 -7.075999225427927e-17 -0.10666813928200554 0.9942946786853293
12636414666.666666 -0.09870918276740663 0.9951163234703959 -1.3827230693386388e-17 -7.063662256511449e-17 -1.3827230693386388e-17 -7.063662256511449e-17 -0.09870980259781269 0.9951162619869839
12637032000.0 -0.09074452721716879 0.9958742042948897 -1.439536208779465e-17 -7.050867771592094e-17 -1.439536208779465e-17 -7.050867771592094e-17 -0.09074514748933189 0.9958741477752029
12637649333.333334 -0.08277406310090833 0.9965683390905078 -1.4962329237826697e-17 -7.037616786683702e-17 -1.4962329237826697e-17 -7.037616786683702e-17 -0.08277468377508358 0.9965682875376791
12638266666.666666 -0.07479830060906154 0.9971986834256473 -1.5528095499650675e-17 -7.023910347264964e-17 -1.5528095499650675e-17 -7.023910347264964e-17 -0.07479892164548207 0.9971986368424898
12638884000.0 -0.06681775027110004 0.9977651969519459 -1.6092624322320358e-17 -7.009749528199229e-17 -1.6092624322320358e-17 -7.009749528199229e-17 -0.0668183716299799 0.9977651553409572
12639501333.333334 -0.0588329229230507 0.9982678434068567 -1.6655879250115173e-17 -6.995135433653052e-17 -1.6655879250115173e-17 -6.995135433653052e-17 -0.05883354456458705 0.9982678067702144
12640118666.666666 -0.05084432967473989 0.9987065906159692 -1.721782392489109e-17 -6.980069197012472e-17 -1.721782392489109e-17 -6.980069197012472e-17 -0.05084495155911568 0.9987065589555314
12640736000.0 -0.04285248187685032 0.9990814104950815 -1.777842208843584e-17 -6.964551980796994e-17 -1.777842208843584e-17 -6.964551980796994e-17 -0.04285310396423687 0.9990813838123889
12641353333.333334 -0.03485789108867196 0.9993922790519738 -1.833763758476751e-17 -6.948584976573134e-17 -1.833763758476751e-17 -6.948584976573134e-17 -0.0348585133392315 0.9993922573482478
12641970666.666666 -0.026861069044846083 0.999639176387968 -1.8895434362494578e-17 -6.932169404864172e-17 -1.8895434362494578e-17 -6.932169404864172e-17 -0.026861691418734294 0.9996391596641118
12642588000.0 -0.018862527622978267 0.999822086699189 -1.945177647710696e-17 -6.91530651505971e-17 -1.945177647710696e-17 -6.91530651505971e-17 -0.018863150080346808 0.9998220749557858
12643205333.333334 -0.010862778810645676 0.9999409982775775 -2.000662809330067e-17 -6.897997585322259e-17 -2.000662809330067e-17 -6.897997585322259e-17 -0.01086340131164479 0.9999409915148939
12643822666.666666 -0.002862334672738428 0.999995903511644 -2.0559953487270693e-17 -6.88024392249263e-17 -2.0559953487270693e-17 -6.88024392249263e-17 -0.0028629571775194247 0.9999959017296254
12644440000.0 0.005138292681403055 0.999986798886949 -2.1111717049007612e-17 -6.862046861993151e-17 -2.1111717049007612e-17 -6.862046861993151e-17 0.005137670212685203 0.9999868020852238
12645057333.333334 0.013138591130569248 0.9999136849863346 -2.1661883284575986e-17 -6.843407767729364e-17 -2.1661883284575986e-17 -6.843407767729364e-17 0.013137968737753374 0.9999136931642114
12645674666.666666 0.02113804857466144 0.9997765664898846 -2.221041681839415e-17 -6.824328031989593e-17 -2.221041681839415e-17 -6.824328031989593e-17 0.021137426297577627 0.9997765796463535
12646292000.0 0.029136152967584962 0.9995754521746207 -2.2757282395507024e-17 -6.80480907534256e-17 -2.2757282395507024e-17 -6.80480907534256e-17 0.029135530846051978 0.9995754703083533
12646909333.333334 0.03713239234957066 0.9993103549139506 -2.3302444883833152e-17 -6.784852346533911e-17 -2.3302444883833152e-17 -6.784852346533911e-17 0.037131770423393454 0.9993103780233002
12647526666.666666 0.04512625488042852 0.9989812916768335 -2.3845869276417874e-17 -6.764459322380272e-17 -2.3845869276417874e-17 -6.764459322380272e-17 0.04512563318939568 0.998981319759836
12648144000.0 0.053117228872055014 0.9985882835267 -2.43875206936873e-17 -6.743631507661262e-17 -2.43875206936873e-17 -6.743631507661262e-17 0.053116607455936146 0.9985883165810722
12648761333.333334 0.06110480282129978 0.9981313556200992 -2.4927364385656465e-17 -6.72237043501098e-17 -2.4927364385656465e-17 -6.72237043501098e-17 0.061104181719843 0.9981313936432394
12649378666.666666 0.0690884654424801 0.997610537205102 -2.5465365734164742e-17 -6.700677664806432e-17 -2.5465365734164742e-17 -6.700677664806432e-17 0.06908784469540946 0.9976105801940907
12649996000.0 0.07706770570044855 0.9970258616194051 -2.600149025509195e-17 -6.6785547850545e-17 -2.600149025509195e-17 -6.6785547850545e-17 0.07706708534746175 0.9970259095710075
12650613333.333334 0.08504201284313452 0.9963773662882123 -2.653570360054966e-17 -6.656003411277711e-17 -2.653570360054966e-17 -6.656003411277711e-17 0.08504139292390005 0.9963774191988749
12651230666.666666 0.09301087643403931 0.9956650927218545 -2.7067971561080174e-17 -6.633025186397703e-17 -2.7067971561080174e-17 -6.633025186397703e-17 0.09301025698819385 0.995665150587705
12651848000.0 0.10097378638539012 0.9948890865130868 -2.759826006784305e-17 -6.609621780616839e-17 -2.759826006784305e-17 -6.609621780616839e-17 0.10097316745253641 0.9948891493299387
12652465333.333334 0.10893023299031009 0.9940493973342186 -2.8126535194784557e-17 -6.585794891298535e-17 -2.8126535194784557e-17 -6.585794891298535e-17 0.1089296146100141 0.994049465097568
12653082666.666666 0.11687970695567106 0.9931460789339118 -2.8652763160795115e-17 -6.561546242845932e-17 -2.8652763160795115e-17 -6.561546242845932e-17 0.11687908916745945 0.9931461516389378
12653700000.0 0.12482169943474951 0.9921791891337308 -2.917691033187446e-17 -6.536877586577904e-17 -2.917691033187446e-17 -6.536877586577904e-17 0.12482108227810738 0.9921792667752987
12654317333.333334 0.13275570205960097 0.9911487898244691 -2.969894322326125e-17 -6.511790700604703e-17 -2.969894322326125e-17 -6.511790700604703e-17 0.13275508557396895 0.9911488723971265
12654934666.666666 0.1406812069737974 0.9900549469621582 -3.021882850156792e-17 -6.486287389701e-17 -3.021882850156792e-17 -6.486287389701e-17 0.14068059119856952 0.9900550344601396
12655552000.0 0.14859770686485133 0.9888977305638612 -3.0736532986914474e-17 -6.460369485176852e-17 -3.0736532986914474e-17 -6.460369485176852e-17 0.14859709183937203 0.9888978229810845
12656169333.333334 0.15650469499663183 0.9876772147031937 -3.125202365501639e-17 -6.434038844748652e-17 -3.125202365501639e-17 -6.434038844748652e-17 0.15650408076019395 0.9876773120332641
12656786666.666666 0.16440166524185787 0.9863934775055798 -3.1765267639296286e-17 -6.4072973524067e-17 -3.1765267639296286e-17 -6.4072973524067e-17 0.1644010518337 0.9863935797417889
12657404000.0 0.17228811211457967 0.9850466011432364 -3.2276232232975457e-17 -6.380146918281584e-17 -3.2276232232975457e-17 -6.380146918281584e-17 0.17228749957388315 0.9850467082785601
12658021333.333334 0.18016353080236544 0.9836366718299352 -3.278488489113925e-17 -6.352589478509561e-17 -3.278488489113925e-17 -6.352589478509561e-17 0.18016291916825283 0.9836367838570398
12658638666.666666 0.18802741719870095 0.9821637798154813 -3.329119323280627e-17 -6.324626995095698e-17 -3.329119323280627e-17 -6.324626995095698e-17 0.1880268065102324 0.9821638967267179
12659256000.0 0.1958792679353107 0.9806280193799144 -3.3795125042994126e-17 -6.29626145577473e-17 -3.3795125042994126e-17 -6.29626145577473e-17 0.19587865823148254 0.9806281411673242
12659873333.333334 0.20371858041432467 0.9790294888274917 -3.429664827474012e-17 -6.267494873872203e-17 -3.429664827474012e-17 -6.267494873872203e-17 0.20371797173406597 0.9790296154828033
12660490666.666666 0.21154485284036478 0.9773682904804085 -3.479573105114393e-17 -6.238329288162171e-17 -3.479573105114393e-17 -6.238329288162171e-17 0.2115442452225356 0.9773684219950405
12661108000.0 0.21935758425286045 0.9756445306722097 -3.5292341667389226e-17 -6.208766762723702e-17 -3.5292341667389226e-17 -6.208766762723702e-17 0.21935697773624896 0.9756446670372704
12661725333.333334 0.22715627455792045 0.9738583197410257 -3.578644859273784e-17 -6.178809386796769e-17 -3.578644859273784e-17 -6.178809386796769e-17 0.2271556691812406 0.9738584609473137
12662342666.666666 0.23494042456042744 0.9720097720224907 -3.627802047253768e-17 -6.148459274634964e-17 -3.627802047253768e-17 -6.148459274634964e-17 0.23493982036231617 0.9720099180604949
12662960000.0 0.24270953599604603 0.9700990058424098 -3.676702613019046e-17 -6.117718565358299e-17 -3.676702613019046e-17 -6.117718565358299e-17 0.24270893301506158 0.9700991567023125
12663577333.333334 0.25046311156306245 0.9681261435092 -3.7253434569135217e-17 -6.086589422802803e-17 -3.7253434569135217e-17 -6.086589422802803e-17 0.25046250983768104 0.9681262991808748
12664194666.666666 0.25820065495413363 0.9660913113060816 -3.773721497479105e-17 -6.055074035370205e-17 -3.773721497479105e-17 -6.055074035370205e-17 0.2582000545227474 0.9660914717790948
12664812000.0 0.2659216708882485 0.9639946394829427 -3.8218336716513554e-17 -6.023174615874503e-17 -3.8218336716513554e-17 -6.023174615874503e-17 0.2659210717891634 0.9639948047465557
12665429333.333334 0.2736256651422391 0.961836262248058 -3.869676934952248e-17 -5.990893401387925e-17 -3.869676934952248e-17 -5.990893401387925e-17 0.27362506741367143 0.9618364322912244
12666046666.666666 0.2813121445824978 0.9596163177594698 -3.917248261680694e-17 -5.958232653086093e-17 -3.917248261680694e-17 -5.958232653086093e-17 0.28131154826257276 0.95961649257084
12666664000.0 0.28898061719662504 0.9573349481161261 -3.9645446451059414e-17 -5.925194656088827e-17 -3.9645446451059414e-17 -5.925194656088827e-17 0.2889800223233741 0.9573351276840466
12667281333.333334 0.29663059212473164 0.9549922993488366 -4.011563097653946e-17 -5.891781719303297e-17 -4.011563097653946e-17 -5.891781719303297e-17 0.2966299987360898 0.9549924836613503
12667898666.666666 0.3042615796910506 0.9525885214108734 -4.0583006510964567e-17 -5.857996175262964e-17 -4.0583006510964567e-17 -5.857996175262964e-17 0.30426098782485417 0.95258871045572
12668516000.0 0.31187309143519815 0.9501237681683904 -4.1047543567387336e-17 -5.823840379964997e-17 -4.1047543567387336e-17 -5.823840379964997e-17 0.31187250112918197 0.9501239619330076
12669133333.333334 0.3194646401433862 0.9475981973905946 -4.1509212856019615e-17 -5.789316712709068e-17 -4.1509212856019615e-17 -5.789316712709068e-17 0.31946405143518264 0.9475983958621222
12669750666.666666 0.3270357398796653 0.9450119707396347 -4.1967985286100727e-17 -5.754427575930532e-17 -4.1967985286100727e-17 -5.754427575930532e-17 0.3270351528067995 0.9450121739049089
