! Parameters = {f0=12700.012000; bw=77.238000; Q=6100.000000; N=10; m_0_1=1.253549; m_1_1=0.038483; m_1_2=1.088361; m_2_2=0.037834; m_2_3=0.725324; m_2_8=-0.000259; m_2_9=0.036445; m_3_3=0.035897; m_3_4=0.613853; m_3_7=0.000341; m_3_8=-0.096747; m_3_9=-0.000259; m_4_4=0.032972; m_4_5=0.450188; m_4_6=0.003858; m_4_7=-0.117296; m_4_8=0.000341; m_5_5=0.033354; m_5_6=0.857543; m_5_7=0.003858; m_6_6=0.033353; m_6_7=0.450530; m_7_7=0.032986; m_7_8=0.613971; m_8_8=0.035895; m_8_9=0.725637; m_9_9=0.037829; m_9_10=1.089439; m_10_10=0.038473; m_10_11=1.254344}
!
! Created with skrf (http://scikit-rf.org).
# Hz S RI R 50.0 
!freq ReS11 ImS11 ReS21 ImS21 ReS12 ImS12 ReS22 ImS22
12607400000.0 -0.28654476927992895 -0.9580668531987425 5.593549988584309e-17 8.563191568714427e-17 5.593549988584309e-17 8.563191568714427e-17 -0.2865441365019891 -0.9580670424537929
12608017333.333334 -0.2961459083626306 -0.9551427123524006 5.678854192401238e-17 8.504451461041797e-17 5.678854192401238e-17 8.504451461041797e-17 -0.29614527754689496 -0.9551429079391737
12608634666.666666 -0.3057172159337192 -0.9521223576208914 5.763542739952818e-17 8.444862402786062e-17 5.763542739952818e-17 8.444862402786062e-17 -0.3057165871435359 -0.9521225595190654
12609252000.0 -0.31525772785172507 -0.9490060932520906 5.847607190930695e-17 8.384430834915559e-17 5.847607190930695e-17 8.384430834915559e-17 -0.31525710115023264 -0.9490063014407124
12609869333.333334 -0.3247664830774102 -0.9457942331550546 5.931039172295654e-17 8.323163282226092e-17 5.931039172295654e-17 8.323163282226092e-17 -0.32476585852753 -0.9457944476125374
12610486666.666666 -0.33424252377025226 -0.9424871008685051 6.013830379110003e-17 8.261066352639034e-17 6.013830379110003e-17 8.261066352639034e-17 -0.3342419014346831 -0.9424873215726328
12611104000.0 -0.3436848953854419 -0.9390850295280653 6.095972575362587e-17 8.198146736491074e-17 6.095972575362587e-17 8.198146736491074e-17 -0.34368427532665274 -0.9390852564559944
12611721333.333334 -0.3530926467694707 -0.935588361832894 6.177457594784402e-17 8.134411205817463e-17 6.177457594784402e-17 8.134411205817463e-17 -0.35309202904969633 -0.9355885949611591
12612338666.666666 -0.3624648302562954 -0.9319974500110517 6.258277341658751e-17 8.069866613625527e-17 6.258277341658751e-17 8.069866613625527e-17 -0.36246421493752806 -0.9319976893155629
12612956000.0 -0.37180050176287405 -0.928312655783978 6.338423791623925e-17 8.004519893160201e-17 6.338423791623925e-17 8.004519893160201e-17 -0.37179988890685833 -0.9283129012400264
12613573333.333334 -0.3810987208838434 -0.9245343503302224 6.41788899246615e-17 7.938378057163234e-17 6.41788899246615e-17 7.938378057163234e-17 -0.3810981105520696 -0.9245346019124812
12614190666.666666 -0.3903585509867237 -0.920662914247866 6.496665064906887e-17 7.87144819712289e-17 6.496665064906887e-17 7.87144819712289e-17 -0.3903579432404219 -0.9206631719303944
12614808000.0 -0.3995790593059518 -0.9166987375163114 6.574744203382381e-17 7.803737482515916e-17 6.574744203382381e-17 7.803737482515916e-17 -0.39957845420608584 -0.9166990012725565
12615425333.333334 -0.4087593170369461 -0.9126422194569547 6.652118676813067e-17 7.735253160043629e-17 6.652118676813067e-17 7.735253160043629e-17 -0.4087587146442075 -0.9126424892597553
12616042666.666666 -0.41789839942974677 -0.9084937686929311 6.728780829368426e-17 7.666002552857616e-17 6.728780829368426e-17 7.666002552857616e-17 -0.41789779980454733 -0.9084940445145173
12616660000.0 -0.4269953858819821 -0.9042538031080234 6.804723081220464e-17 7.595993059780682e-17 6.804723081220464e-17 7.595993059780682e-17 -0.4269947890844509 -0.9042540849200256
12617277333.333334 -0.436049360031842 -0.899922749804476 6.879937929291582e-17 7.525232154518343e-17 6.879937929291582e-17 7.525232154518343e-17 -0.4360487661218152 -0.8999230375779197
12617894666.666666 -0.44505940985007053 -0.8955010450601028 6.954417947992966e-17 7.453727384864041e-17 6.954417947992966e-17 7.453727384864041e-17 -0.44505881888708915 -0.8955013387654189
12618512000.0 -0.4540246277321992 -0.890989134284176 7.028155789955981e-17 7.381486371895907e-17 7.028155789955981e-17 7.381486371895907e-17 -0.4540240397755014 -0.8909894338912006
12619129333.333334 -0.46294411058969137 -0.8863874719726964 7.101144186753241e-17 7.308516809168361e-17 7.101144186753241e-17 7.308516809168361e-17 -0.4629435256982063 -0.8863877774506727
12619746666.666666 -0.47181695994098727 -0.8816965216625684 7.173375949612913e-17 7.234826461894953e-17 7.173375949612913e-17 7.234826461894953e-17 -0.4718163781733296 -0.8816968329801519
12620364000.0 -0.48064228200221376 -0.8769167558848066 7.244843970125852e-17 7.160423166122983e-17 7.244843970125852e-17 7.160423166122983e-17 -0.48064170341667767 -0.876917073010067
12620981333.333334 -0.48941918777681237 -0.8720486561171422 7.315541220939268e-17 7.085314827906075e-17 7.315541220939268e-17 7.085314827906075e-17 -0.4894186124313662 -0.8720489790175688
12621598666.666666 -0.49814679314542004 -0.8670927127353582 7.385460756447812e-17 7.009509422463998e-17 7.385460756447812e-17 7.009509422463998e-17 -0.49814622109770024 -0.8670930413778614
12622216000.0 -0.5068242189548754 -0.8620494249639105 7.454595713472861e-17 6.933014993338736e-17 7.454595713472861e-17 6.933014993338736e-17 -0.5068236502621801 -0.862049759314825
12622833333.333334 -0.5154505911066789 -0.8569193008256986 7.522939311932575e-17 6.855839651544594e-17 7.522939311932575e-17 6.855839651544594e-17 -0.515450025825963 -0.8569196408507874
12623450666.666666 -0.5240250406450199 -0.8517028570909061 7.590484855504956e-17 6.777991574709802e-17 7.590484855504956e-17 6.777991574709802e-17 -0.5240244788328895 -0.8517032027553652
12624068000.0 -0.5325467038445061 -0.8464006192248329 7.657225732280671e-17 6.699479006213128e-17 7.657225732280671e-17 6.699479006213128e-17 -0.532546145557211 -0.8464009704932915
12624685333.333334 -0.5410147222970166 -0.8410131213350418 7.723155415409258e-17 6.620310254311456e-17 7.723155415409258e-17 6.620310254311456e-17 -0.5410141675904478 -0.8410134781715709
12625302666.666666 -0.54942824299813 -0.8355409061175976 7.788267463731506e-17 6.540493691266807e-17 7.788267463731506e-17 6.540493691266807e-17 -0.549427691927811 -0.8355412684857083
12625920000.0 -0.557786418433237 -0.8299845248022705 7.852555522409315e-17 6.4600377524594e-17 7.852555522409315e-17 6.4600377524594e-17 -0.5577858710543203 -0.8299848926649216
12626537333.333334 -0.5660884066626517 -0.8243445370971825 7.916013323541081e-17 6.378950935501002e-17 7.916013323541081e-17 6.378950935501002e-17 -0.5660878630299131 -0.8243449104167837
12627154666.666666 -0.5743333714066391 -0.8186215111322892 7.978634686769843e-17 6.29724179934009e-17 7.978634686769843e-17 6.29724179934009e-17 -0.57433283157447 -0.8186218898707022
12627772000.0 -0.5825204821296252 -0.8128160234021581 8.040413519884807e-17 6.214918963357593e-17 8.040413519884807e-17 6.214918963357593e-17 -0.5825199461520308 -0.8128164075207045
12628389333.333334 -0.5906489141237243 -0.8069286587080012 8.101343819407311e-17 6.131991106465074e-17 8.101343819407311e-17 6.131991106465074e-17 -0.5906483820543152 -0.806929048167463
12629006666.666666 -0.5987178485919974 -0.8009600100986313 8.161419671175307e-17 6.048466966186798e-17 8.161419671175307e-17 6.048466966186798e-17 -0.5987173204839853 -0.8009604048592572
12629624000.0 -0.606726472730746 -0.7949106788108563 8.220635250911341e-17 5.964355337745617e-17 8.220635250911341e-17 5.964355337745617e-17 -0.6067259486369391 -0.7949110788323654
12630241333.333334 -0.6146739798115959 -0.788781274208765 8.278984824785827e-17 5.879665073137086e-17 8.278984824785827e-17 5.879665073137086e-17 -0.6146734597843921 -0.7887816794503493
12630858666.666666 -0.6225595692624654 -0.7825724137225655 8.336462749968688e-17 5.794405080200861e-17 8.336462749968688e-17 5.794405080200861e-17 -0.6225590533538488 -0.7825728241428961
12631476000.0 -0.6303824467486364 -0.7762847227860613 8.393063475172675e-17 5.708584321685127e-17 8.393063475172675e-17 5.708584321685127e-17 -0.6303819350101701 -0.776285138343291
12632093333.333334 -0.6381418242523202 -0.7699188347739971 8.448781541185615e-17 5.622211814307877e-17 8.448781541185615e-17 5.622211814307877e-17 -0.6381413167351433 -0.7699192554257663
12632710666.666666 -0.6458369201522431 -0.763475390938106 8.503611581393539e-17 5.535296627812363e-17 8.503611581393539e-17 5.535296627812363e-17 -0.6458364169070637 -0.7634758166415451
12633328000.0 -0.6534669593025505 -0.7569550403423627 8.557548322296424e-17 5.447847884013809e-17 8.557548322296424e-17 5.447847884013809e-17 -0.6534664603796414 -0.7569554710540977
12633945333.333334 -0.6610311731105408 -0.750358439797895 8.610586584009697e-17 5.359874755848217e-17 8.610586584009697e-17 5.359874755848217e-17 -0.6610306785597353 -0.7503588754740523
12634562666.666666 -0.6685287996143714 -0.7436862537965834 8.66272128075967e-17 5.2713864664104664e-17 8.66272128075967e-17 5.2713864664104664e-17 -0.6685283094850573 -0.7436866943927933
12635180000.0 -0.6759590835596402 -0.7369391544442733 8.713947421368223e-17 5.1823922879891166e-17 8.713947421368223e-17 5.1823922879891166e-17 -0.6759585979007543 -0.7369395999156747
12635797333.333334 -0.6833212764755485 -0.730117821392997 8.764260109726354e-17 5.0929015410984983e-17 8.764260109726354e-17 5.0929015410984983e-17 -0.6833207953355735 -0.7301182716942423
12636414666.666666 -0.6906146367502766 -0.7232229417725298 8.81365454525937e-17 5.0029235935037964e-17 8.81365454525937e-17 5.0029235935037964e-17 -0.6906141601772356 -0.7232233968577898
12637032000.0 -0.697838429705668 -0.7162552101211943 8.862126023381151e-17 4.912467859243144e-17 8.862126023381151e-17 4.912467859243144e-17 -0.6978379577471182 -0.7162556699441615
12637649333.333334 -0.7049919276713151 -0.7092153283158166 8.909669935939312e-17 4.821543797643859e-17 8.909669935939312e-17 4.821543797643859e-17 -0.7049914603743453 -0.7092157928297115
12638266666.666666 -0.7120744100577381 -0.7021040055011453 8.956281771648867e-17 4.730160912336942e-17 8.956281771648867e-17 4.730160912336942e-17 -0.7120739474689626 -0.7021044746587204
12638884000.0 -0.7190851634290336 -0.6949219580183577 9.001957116517102e-17 4.6383287502651615e-17 9.001957116517102e-17 4.6383287502651615e-17 -0.7190847055945875 -0.694922431771902
12639501333.333334 -0.7260234815748187 -0.6876699093328189 9.046691654258386e-17 4.546056900686809e-17 9.046691654258386e-17 4.546056900686809e-17 -0.7260230285403542 -0.6876703876341634
12640118666.666666 -0.7328886655811137 -0.6803485899614719 9.090481166696596e-17 4.45335499417987e-17 9.090481166696596e-17 4.45335499417987e-17 -0.732888217391795 -0.6803490727619942
12640736000.0 -0.7396800239012143 -0.6729587373987557 9.133321534162087e-17 4.360232701632827e-17 9.133321534162087e-17 4.360232701632827e-17 -0.7396795806017133 -0.6729592246493851
12641353333.333334 -0.7463968724247506 -0.6655010960429582 9.175208735871503e-17 4.2666997332459536e-17 9.175208735871503e-17 4.2666997332459536e-17 -0.7463964340592424 -0.6655015876941807
12641970666.666666 -0.7530385345470654 -0.6579764171207334 9.216138850304099e-17 4.1727658375146916e-17 9.216138850304099e-17 4.1727658375146916e-17 -0.753038101159223 -0.6579769131225962
12642588000.0 -0.7596043412372296 -0.6503854586115707 9.256108055563948e-17 4.078440800217559e-17 9.256108055563948e-17 4.078440800217559e-17 -0.7596039128702216 -0.6503859589136881
12643205333.333334 -0.7660936311053295 -0.6427289851715734 9.295112629732004e-17 3.983734443400417e-17 9.295112629732004e-17 3.983734443400417e-17 -0.7660932078018133 -0.6427294897231309
12643822666.666666 -0.7725057504693073 -0.635007768056172 9.333148951209771e-17 3.888656624352636e-17 9.333148951209771e-17 3.888656624352636e-17 -0.7725053322714274 -0.6350082768059327
12644440000.0 -0.7788400534205902 -0.6272225850426949 9.37021349904979e-17 3.793217234586678e-17 9.37021349904979e-17 3.793217234586678e-17 -0.7788396403699721 -0.6272230979390038
12645057333.333334 -0.7850959018892287 -0.6193742203519355 9.406302853278132e-17 3.697426198808748e-17 9.406302853278132e-17 3.697426198808748e-17 -0.7850954940269749 -0.6193747373427245
12645674666.666666 -0.7912726657082227 -0.6114634645690874 9.441413695204547e-17 3.601293473890956e-17 9.441413695204547e-17 3.601293473890956e-17 -0.7912722630749102 -0.6114639856018821
12646292000.0 -0.797369722677019 -0.6034911145640862 9.475542807724541e-17 3.504829047834436e-17 9.475542807724541e-17 3.504829047834436e-17 -0.7973693253126929 -0.6034916395860092
12646909333.333334 -0.8033864586240085 -0.5954579734115604 9.50868707560735e-17 3.4080429387390774e-17 9.50868707560735e-17 3.4080429387390774e-17 -0.8033860665681808 -0.5954585023693384
12647526666.666666 -0.8093222674686243 -0.5873648503096458 9.540843485776685e-17 3.3109451937616984e-17 9.540843485776685e-17 3.3109451937616984e-17 -0.8093218807602671 -0.5873653831496137
12648144000.0 -0.8151765512822511 -0.5792125604986513 9.57200912757973e-17 3.21354588807459e-17 9.57200912757973e-17 3.21354588807459e-17 -0.8151761699597944 -0.5792130971667586
12648761333.333334 -0.820948720348524 -0.5710019251788472 9.602181193044448e-17 3.1158551238251543e-17 9.602181193044448e-17 3.1158551238251543e-17 -0.8209483444498519 -0.5710024656206629
12649378666.666666 -0.8266381932226187 -0.5627337714279056 9.631356977127919e-17 3.017883029088005e-17 9.631356977127919e-17 3.017883029088005e-17 -0.8266378227850647 -0.5627343155886236
12649996000.0 -0.8322443967899517 -0.5544089321174018 9.659533877953111e-17 2.919639756817823e-17 9.659533877953111e-17 2.919639756817823e-17 -0.8322440318502972 -0.554409479941848
12650613333.333334 -0.8377667663239124 -0.5460282458289162 9.686709397035619e-17 2.821135483797872e-17 9.686709397035619e-17 2.821135483797872e-17 -0.8377664069183799 -0.5460287972615516
12651230666.666666 -0.8432047455425732 -0.5375925567698209 9.712881139498473e-17 2.7223804095909006e-17 9.712881139498473e-17 2.7223804095909006e-17 -0.8432043917068244 -0.537593111754749
12651848000.0 -0.8485577866650069 -0.5291027146878141 9.73804681427807e-17 2.6233847554814796e-17 9.73804681427807e-17 2.6233847554814796e-17 -0.8485574384341388 -0.5291032731687856
12652465333.333334 -0.8538253504662168 -0.5205595747857025 9.762204234317992e-17 2.5241587634217937e-17 9.762204234317992e-17 2.5241587634217937e-17 -0.8538250078747593 -0.520560136706122
12653082666.666666 -0.8590069063315073 -0.5119639976351872 9.785351316752054e-17 2.4247126949760125e-17 9.785351316752054e-17 2.4247126949760125e-17 -0.8590065694134188 -0.5119645629381183
12653700000.0 -0.8641019323101216 -0.5033168490898585 9.807486083078244e-17 2.325056830256089e-17 9.807486083078244e-17 2.325056830256089e-17 -0.8641016010987851 -0.5033174177180295
12654317333.333334 -0.8691099151675107 -0.49461900019848704 9.828606659319416e-17 2.2252014668669692e-17 9.828606659319416e-17 2.2252014668669692e-17 -0.8691095896957322 -0.4946195720942973
12654934666.666666 -0.8740303504372987 -0.48587132711684344 9.848711276175321e-17 2.125156918840909e-17 9.848711276175321e-17 2.125156918840909e-17 -0.8740300307373009 -0.4858719022223678
12655552000.0 -0.8788627424719898 -0.4770747110196082 9.867798269163229e-17 2.024933515573322e-17 9.867798269163229e-17 2.024933515573322e-17 -0.8788624285754131 -0.47707528927660514
12656169333.333334 -0.8836066044928209 -0.46823003801176205 9.885866078746686e-17 1.9245416007628035e-17 9.885866078746686e-17 1.9245416007628035e-17 -0.8836062964307178 -0.4682306193616778
12656786666.666666 -0.8882614586389733 -0.45933819903900186 9.902913250455371e-17 1.8239915313405512e-17 9.902913250455371e-17 1.8239915313405512e-17 -0.8882611564418035 -0.4593387834229761
12657404000.0 -0.8928268360155406 -0.4504000897982907 9.918938434992442e-17 1.7232936764075642e-17 9.918938434992442e-17 1.7232936764075642e-17 -0.8928265397131726 -0.45040067715716453
12658021333.333334 -0.8973022767409012 -0.44141661064738436 9.933940388332273e-17 1.622458416164534e-17 9.933940388332273e-17 1.622458416164534e-17 -0.8973019863626053 -0.44141720092170406
12658638666.666666 -0.901687329992884 -0.43238866651443736 9.947917971806268e-17 1.5214961408475064e-17 9.947917971806268e-17 1.5214961408475064e-17 -0.9016870455673318 -0.4323892596444616
12659256000.0 -0.9059815540543483 -0.42331716680651804 9.960870152179208e-17 1.4204172496541642e-17 9.960870152179208e-17 1.4204172496541642e-17 -0.9059812756096086 -0.42331776273222405
12659873333.333334 -0.9101845163576 -0.41420302531815323 9.972796001713326e-17 1.3192321496792345e-17 9.972796001713326e-17 1.3192321496792345e-17 -0.9101842439211371 -0.4142036239792423
12660490666.666666 -0.9142957935278859 -0.4050471601394617 9.983694698222404e-17 1.2179512548441293e-17 9.983694698222404e-17 1.2179512548441293e-17 -0.914295527126555 -0.40504776147536503
12661108000.0 -0.9183149714262515 -0.3958504935632062 9.993565525115239e-17 1.116584984823449e-17 9.993565525115239e-17 1.116584984823449e-17 -0.9183147110862976 -0.3958510975130917
12661725333.333334 -0.9222416451910107 -0.38661395199243226 1.0002407871427234e-16 1.0151437639809824e-17 1.0002407871427234e-16 1.0151437639809824e-17 -0.922241390938068 -0.38661455849521154
12662342666.666666 -0.9260754192787002 -0.3773384658467894 1.0010221231842395e-16 9.136380202942718e-18 1.0010221231842395e-16 9.136380202942718e-18 -0.926075171137784 -0.3773390748411214
12662960000.0 -0.9298159075038883 -0.3680249694688552 1.0017005206703518e-16 8.120781842883222e-18 1.0017005206703518e-16 8.120781842883222e-18 -0.9298156654993968 -0.36802558089315407
12663577333.333334 -0.9334627330780144 -0.3586744010301748 1.0022759502012165e-16 7.104746879632115e-18 1.0022759502012165e-16 7.104746879632115e-18 -0.9334624972337269 -0.3586750148226169
12664194666.666666 -0.9370155286474325 -0.34928770243654783 1.0027483929417443e-16 6.0883796372651824e-18 1.0027483929417443e-16 6.0883796372651824e-18 -0.9370152989865047 -0.3492883185350765
12664812000.0 -0.9404739363303405 -0.33986581923333187 1.0031178406194183e-16 5.071784433232811e-18 1.0031178406194183e-16 5.071784433232811e-18 -0.9404737128753023 -0.3398664375756642
12665429333.333334 -0.9438376077528712 -0.33040970051008894 1.0033842955210255e-16 4.055065567661513e-18 1.0033842955210255e-16 4.055065567661513e-18 -0.9438373905256258 -0.330410321033722
12666046666.666666 -0.9471062040841655 -0.3209202988050354 1.0035477704882924e-16 3.038327312707064e-18 1.0035477704882924e-16 3.038327312707064e-18 -0.947105993105986 -0.3209209214472525
12666664000.0 -0.9502793960705399 -0.3113985700089821 1.0036082889124723e-16 2.0216739018262416e-18 1.0036082889124723e-16 2.0216739018262416e-18 -0.9502791913620695 -0.3113991947068598
12667281333.333334 -0.9533568640686015 -0.30184547326920796 1.0035658847278194e-16 1.005209519170787e-18 1.0035658847278194e-16 1.005209519170787e-18 -0.9533566656498481 -0.3018460999596213
12667898666.666666 -0.9563382980774685 -0.2922619708927602 1.0034206024040086e-16 -1.0961711106422759e-20 1.0034206024040086e-16 -1.0961711106422759e-20 -0.9563381059678057 -0.2922625995123902
12668516000.0 -0.9592233977700279 -0.28264902824943916 1.0031724969374704e-16 -1.0267357355063446e-18 1.0031724969374704e-16 -1.0267357355063446e-18 -0.9592232119881914 -0.2826496587347785
12669133333.333334 -0.9620118725231342 -0.2730076136747155 1.0028216338416539e-16 -2.0420085817731925e-18 1.0028216338416539e-16 -2.0420085817731925e-18 -0.9620116930872207 -0.27300824596207507
12669750666.666666 -0.9647034414469113 -0.26333869837210716 1.0023680891362082e-16 -3.0566763695683324e-18 1.0023680891362082e-16 -3.0566763695683324e-18 -0.9647032683743763 -0.2633393323976224
12670368000.0 -0.967297833413077 -0.25364325631523704 1.0018119493351028e-16 -4.07063532104509e-18 1.0018119493351028e-16 -4.07063532104509e-18 -0.9672976667207337 -0.253643892014875
