! Parameters = {f0=12700.012000; bw=77.238000; Q=6100.000000; N=10; m_0_1=1.204900; m_1_1=-0.691247; m_1_2=1.039712; m_2_2=-0.691896; m_2_3=0.676675; m_2_8=-0.002691; m_2_9=0.034013; m_3_3=-0.693833; m_3_4=0.565204; m_3_7=-0.002091; m_3_8=-0.099179; m_3_9=-0.002691; m_4_4=-0.696758; m_4_5=0.401539; m_4_6=0.001426; m_4_7=-0.119728; m_4_8=-0.002091; m_5_5=-0.696376; m_5_6=0.808894; m_5_7=0.001426; m_6_6=-0.696377; m_6_7=0.401881; m_7_7=-0.696744; m_7_8=0.565322; m_8_8=-0.693835; m_8_9=0.676988; m_9_9=-0.691901; m_9_10=1.040790; m_10_10=-0.691257; m_10_11=1.205695}
!
! Created with skrf (http://scikit-rf.org).
# Hz S RI R 50.0 
!freq ReS11 ImS11 ReS21 ImS21 ReS12 ImS12 ReS22 ImS22
12607400000.0 -0.7348804411910902 0.6781966802887127 4.1228440769184105e-17 -6.917395239509077e-17 4.1228440769184105e-17 -6.917395239509077e-17 -0.7348808717958486 0.6781962136936583
12608017333.333334 -0.7290219295611161 0.6844903404861377 4.0618014174690197e-17 -6.951587528891599e-17 4.0618014174690197e-17 -6.951587528891599e-17 -0.7290223641406041 0.6844898776334717
12608634666.666666 -0.7231095196521933 0.6907333947249216 4.000476085181959e-17 -6.985241724905335e-17 4.000476085181959e-17 -6.985241724905335e-17 -0.7231099581738943 0.6907329356484962
12609252000.0 -0.7171436485825107 0.6969253814416609 3.938872818399854e-17 -7.018355498775043e-17 3.938872818399854e-17 -7.018355498775043e-17 -0.7171440910136188 0.6969249261750449
12609869333.333334 -0.7111247574228015 0.7030658428484502 3.876996374576908e-17 -7.050926563407626e-17 3.876996374576908e-17 -7.050926563407626e-17 -0.7111252037302254 0.7030653914249277
12610486666.666666 -0.7050532911637182 0.7091543249667523 3.8148515299132145e-17 -7.082952673548008e-17 3.8148515299132145e-17 -7.082952673548008e-17 -0.7050537413140828 0.7091538774193196
12611104000.0 -0.6989296986827901 0.7151903776610986 3.752443078985769e-17 -7.114431625932826e-17 3.752443078985769e-17 -7.114431625932826e-17 -0.6989301526424406 0.715189934022463
12611721333.333334 -0.6927544327114801 0.7211735546721308 3.6897758343812866e-17 -7.145361259439327e-17 3.6897758343812866e-17 -7.145361259439327e-17 -0.6927548904464828 0.7211731149747074
12612338666.666666 -0.6865279498015903 0.7271034136497125 3.6268546263249534e-17 -7.175739455232493e-17 3.6268546263249534e-17 -7.175739455232493e-17 -0.6865284112777365 0.7271029779256223
12612956000.0 -0.6802507102913883 0.7329795161857535 3.563684302308993e-17 -7.205564136908347e-17 3.563684302308993e-17 -7.205564136908347e-17 -0.6802511754741948 0.7329790844668193
12613573333.333334 -0.6739231782718372 0.738801427846364 3.500269726721953e-17 -7.234833270633166e-17 3.500269726721953e-17 -7.234833270633166e-17 -0.6739236471265507 0.7388010001641102
12614190666.666666 -0.6675458215520362 0.7445687182042082 3.4366157804739716e-17 -7.263544865280801e-17 3.4366157804739716e-17 -7.263544865280801e-17 -0.6675462940436357 0.7445682945898576
12614808000.0 -0.6611191116248251 0.7502809608701547 3.3727273606219764e-17 -7.291696972566234e-17 3.3727273606219764e-17 -7.291696972566234e-17 -0.6611195877180238 0.7502805413546265
12615425333.333334 -0.654643523631776 0.7559377335249333 3.30860937999464e-17 -7.319287687175449e-17 3.30860937999464e-17 -7.319287687175449e-17 -0.6546440032910243 0.7559373181388404
12616042666.666666 -0.6481195363281288 0.7615386179502998 3.2442667668152466e-17 -7.346315146892489e-17 3.2442667668152466e-17 -7.346315146892489e-17 -0.6481200195176169 0.7615382067239467
12616660000.0 -0.6415476320474602 0.7670832000599012 3.179704464324807e-17 -7.372777532722676e-17 3.179704464324807e-17 -7.372777532722676e-17 -0.6415481187311213 0.7670827930232825
12617277333.333334 -0.6349282966658728 0.7725710699300193 3.1149274304018955e-17 -7.398673069013528e-17 3.1149274304018955e-17 -7.398673069013528e-17 -0.6349287868073851 0.772570667112817
12617894666.666666 -0.6282620195662696 0.7780018218297137 3.049940637184871e-17 -7.424000023570907e-17 3.049940637184871e-17 -7.424000023570907e-17 -0.6282625131290591 0.7780014232612942
12618512000.0 -0.6215492936018864 0.7833750542510515 2.984749070688541e-17 -7.448756707773764e-17 2.984749070688541e-17 -7.448756707773764e-17 -0.6215497905491298 0.7833746599604647
12619129333.333334 -0.6147906150602507 0.7886903699384692 2.919357730426492e-17 -7.472941476682942e-17 2.919357730426492e-17 -7.472941476682942e-17 -0.6147911153548787 0.7886899799544467
12619746666.666666 -0.6079864836261393 0.7939473759184316 2.853771629025341e-17 -7.496552729149468e-17 2.853771629025341e-17 -7.496552729149468e-17 -0.6079869872308377 0.7939469902693821
12620364000.0 -0.6011374023447181 0.7991456835284072 2.7879957918423784e-17 -7.519588907917823e-17 2.7879957918423784e-17 -7.519588907917823e-17 -0.6011379092219323 0.7991453022424175
12620981333.333334 -0.5942438775845119 0.8042849084454855 2.722035256583076e-17 -7.542048499725691e-17 2.722035256583076e-17 -7.542048499725691e-17 -0.5942443876964493 0.8042845315503169
12621598666.666666 -0.5873064189998335 0.8093646707148964 2.6558950729150056e-17 -7.56393003540133e-17 2.6558950729150056e-17 -7.56393003540133e-17 -0.5873069323084649 0.809364298237982
12622216000.0 -0.5803255394930761 0.8143845947781124 2.5895803020820924e-17 -7.585232089957203e-17 2.5895803020820924e-17 -7.585232089957203e-17 -0.5803260559601412 0.8143842267465572
12622833333.333334 -0.5733017551768436 0.8193443095005861 2.5230960165187857e-17 -7.605953282680002e-17 2.5230960165187857e-17 -7.605953282680002e-17 -0.5733022747638511 0.8193439459411628
12623450666.666666 -0.5662355853358351 0.8242434481991506 2.456447299463756e-17 -7.626092277217263e-17 2.456447299463756e-17 -7.626092277217263e-17 -0.5662361080040678 0.8242430891382994
12624068000.0 -0.5591275523884348 0.829081648669152 2.3896392445709878e-17 -7.645647781661228e-17 2.3896392445709878e-17 -7.645647781661228e-17 -0.5591280780989513 0.8290812941329782
12624685333.333334 -0.5519781818479212 0.8338585532113368 2.322676955522164e-17 -7.664618548628637e-17 2.322676955522164e-17 -7.664618548628637e-17 -0.5519787105615587 0.8338582032256082
12625302666.666666 -0.5447880022839208 0.8385738086580911 2.2555655456387132e-17 -7.683003375337204e-17 2.2555655456387132e-17 -7.683003375337204e-17 -0.5447885339612981 0.8385734632482358
12625920000.0 -0.5375575452830459 0.8432270663997375 2.1883101374899546e-17 -7.70080110367952e-17 2.1883101374899546e-17 -7.70080110367952e-17 -0.5375580798845674 0.8432267255908448
12626537333.333334 -0.5302873454097846 0.84781798241019 2.1209158625057638e-17 -7.718010620292196e-17 2.1209158625057638e-17 -7.718010620292196e-17 -0.5302878828956419 0.847817646227005
12627154666.666666 -0.5229779401669308 0.8523462172724149 2.0533878605856518e-17 -7.734630856622493e-17 2.0533878605856518e-17 -7.734630856622493e-17 -0.5229784804971063 0.8523458857393392
12627772000.0 -0.5156298699556532 0.856811436203648 1.985731279705145e-17 -7.750660788992041e-17 1.985731279705145e-17 -7.750660788992041e-17 -0.5156304130899224 0.856811109344736
12628389333.333334 -0.5082436780359756 0.8612133090798734 1.9179512755283237e-17 -7.766099438655492e-17 1.9179512755283237e-17 -7.766099438655492e-17 -0.5082442239339112 0.8612129869188325
12629006666.666666 -0.5008199104861051 0.8655515104605451 1.850053011012214e-17 -7.780945871857695e-17 1.850053011012214e-17 -7.780945871857695e-17 -0.5008204591070797 0.8655511930207334
12629624000.0 -0.49335911616242334 0.8698257196124258 1.782041656017848e-17 -7.795199199885723e-17 1.782041656017848e-17 -7.795199199885723e-17 -0.4933596674656118 0.8698254069168493
12630241333.333334 -0.4858618466587118 0.8740356205334135 1.713922386914993e-17 -7.808858579118923e-17 1.713922386914993e-17 -7.808858579118923e-17 -0.4858624006030945 0.8740353126047254
12630858666.666666 -0.47832865626561905 0.8781809019757656 1.645700386191408e-17 -7.821923211074398e-17 1.645700386191408e-17 -7.821923211074398e-17 -0.4783292128099858 0.8781805988362653
12631476000.0 -0.4707601019292602 0.8822612574693471 1.5773808420566897e-17 -7.8343923424502e-17 1.5773808420566897e-17 -7.8343923424502e-17 -0.4707606610322122 0.8822609591409771
12632093333.333334 -0.4631567432104616 0.8862763853440528 1.5089689480525146e-17 -7.846265265163694e-17 1.5089689480525146e-17 -7.846265265163694e-17 -0.4631573048304145 0.8862760918483971
12632710666.666666 -0.45551914224319234 0.8902259887522206 1.440469902656176e-17 -7.857541316387844e-17 1.440469902656176e-17 -7.857541316387844e-17 -0.4555197063383803 0.8902257001105042
12633328000.0 -0.44784786369297924 0.8941097756905898 1.3718889088863495e-17 -7.868219878583524e-17 1.3718889088863495e-17 -7.868219878583524e-17 -0.4478484302214579 0.8941094919236781
12633945333.333334 -0.4401434747152357 0.8979274590218526 1.303231173910457e-17 -7.878300379528091e-17 1.303231173910457e-17 -7.878300379528091e-17 -0.4401440436348843 0.8979271801502473
12634562666.666666 -0.43240654491327907 0.9016787564959058 1.2345019086500883e-17 -7.887782292340879e-17 1.2345019086500883e-17 -7.887782292340879e-17 -0.4324071161818045 0.9016784825397453
12635180000.0 -0.42463764629632084 0.905363390770669 1.1657063273854025e-17 -7.896665135505431e-17 1.1657063273854025e-17 -7.896665135505431e-17 -0.42463821987126027 0.9053631217497258
12635797333.333334 -0.4168373532369982 0.9089810894326774 1.0968496473612077e-17 -7.904948472887923e-17 1.0968496473612077e-17 -7.904948472887923e-17 -0.4168379290757226 0.9089808253663574
12636414666.666666 -0.40900624242911365 0.9125315850171207 1.027937088392986e-17 -7.912631913752258e-17 1.027937088392986e-17 -7.912631913752258e-17 -0.4090068204888313 0.9125313259244633
12637032000.0 -0.40114489284479443 0.9160146150277196 9.589738724706261e-18 -7.919715112771995e-17 9.589738724706261e-18 -7.919715112771995e-17 -0.40114547308255233 0.9160143609273913
12637649333.333334 -0.3932538856918918 0.9194299219560299 8.899652233655196e-18 -7.9261977700384e-17 8.899652233655196e-18 -7.9261977700384e-17 -0.3932544680645815 0.9194296728663293
12638266666.666666 -0.3853338043708322 0.9227772533005698 8.209163662343033e-18 -7.932079631065535e-17 8.209163662343033e-18 -7.932079631065535e-17 -0.38533438883519083 0.9227770092394219
12638884000.0 -0.3773852344315873 0.9260563615854368 7.518325272251278e-18 -7.937360486791582e-17 7.518325272251278e-18 -7.937360486791582e-17 -0.37738582094420203 0.926056122570394
12639501333.333334 -0.36940876353030533 0.9292670043786412 6.827189330824248e-18 -7.942040173576921e-17 6.827189330824248e-18 -7.942040173576921e-17 -0.36940935204761555 0.9292667704268797
12640118666.666666 -0.3614049813861265 0.9324089443099177 6.1358081075472246e-18 -7.946118573198534e-17 6.1358081075472246e-18 -7.946118573198534e-17 -0.3614055718644284 0.9324087154382394
12640736000.0 -0.35337447973700475 0.9354819490885129 5.4442338699537e-18 -7.949595612841564e-17 5.4442338699537e-18 -7.949595612841564e-17 -0.3533750721324533 0.9354817253133412
12641353333.333334 -0.3453178522966981 0.9384857915200621 4.752518879747278e-18 -7.952471265086615e-17 4.752518879747278e-18 -7.952471265086615e-17 -0.3453184465653109 0.9384855728574426
12641970666.666666 -0.3372356947102656 0.9414202495236268 4.0607153888102985e-18 -7.954745547894427e-17 4.0607153888102985e-18 -7.954745547894427e-17 -0.33723629080792605 0.9414200359892251
12642588000.0 -0.3291286045104006 0.9442851061479677 3.3688756352983727e-18 -7.956418524586586e-17 3.3688756352983727e-18 -7.956418524586586e-17 -0.3291292023928618 0.9442848977570703
12643205333.333334 -0.3209971810730695 0.94708014958766 2.6770518396900312e-18 -7.957490303823142e-17 2.6770518396900312e-18 -7.957490303823142e-17 -0.3209977806959563 0.9470799463551705
12643822666.666666 -0.31284202557316915 0.9498051731987559 1.985296200855041e-18 -7.957961039576659e-17 1.985296200855041e-18 -7.957961039576659e-17 -0.31284262689198206 0.9498049751391946
12644440000.0 -0.30466374094029564 0.9524599755139873 1.2936608921327e-18 -7.957830931102891e-17 1.2936608921327e-18 -7.957830931102891e-17 -0.3046643439104146 0.9524597826414922
12645057333.333334 -0.2964629318139819 0.9550443602577319 6.021980574135779e-19 -7.957100222908065e-17 6.021980574135779e-19 -7.957100222908065e-17 -0.2964635363906685 0.9550441725860541
12645674666.666666 -0.2882402044991016 0.957558136360481 -8.904019279534606e-20 -7.955769204712812e-17 -8.904019279534606e-20 -7.955769204712812e-17 -0.28824081063750356 0.9575579539029877
12646292000.0 -0.2799961669208002 0.9600011179730479 -7.80001785294705e-19 -7.953838211412582e-17 -7.80001785294705e-19 -7.953838211412582e-17 -0.27999677457595396 0.9600009407427185
12646909333.333334 -0.27173142858001115 0.9623731244801617 -1.4706346880785045e-18 -7.951307623034819e-17 -1.4706346880785045e-18 -7.951307623034819e-17 -0.2717320377068455 0.9623729524895884
12647526666.666666 -0.2634466005079593 0.9646739805139566 -2.1608869142672624e-18 -7.948177864692624e-17 -2.1608869142672624e-18 -7.948177864692624e-17 -0.2634472110612987 0.9646738137753431
12648144000.0 -0.2551422952210943 0.9669035159669006 -2.8507065260000285e-18 -7.944449406535072e-17 -2.8507065260000285e-18 -7.944449406535072e-17 -0.2551429071556619 0.9669033544920606
12648761333.333334 -0.24681912667599662 0.9690615660043175 -3.540041638337025e-18 -7.940122763694204e-17 -3.540041638337025e-18 -7.940122763694204e-17 -0.24681973994641818 0.9690614098046753
12649378666.666666 -0.2384777102238238 0.9711479710766238 -4.2288404231432215e-18 -7.93519849622863e-17 -4.2288404231432215e-18 -7.93519849622863e-17 -0.23847832478463066 0.971147820163212
12649996000.0 -0.23011866256478755 0.9731625769311288 -4.917051112990924e-18 -7.929677209063656e-17 -4.917051112990924e-18 -7.929677209063656e-17 -0.23011927837041984 0.9731624313145874
12650613333.333334 -0.2217426017026139 0.9751052346234214 -5.6046220050246806e-18 -7.923559551928231e-17 -5.6046220050246806e-18 -7.923559551928231e-17 -0.22174321870742456 0.9751050943139992
12651230666.666666 -0.2133501468989372 0.9769758005283677 -6.291501464840145e-18 -7.916846219288459e-17 -6.291501464840145e-18 -7.916846219288459e-17 -0.2133507650571946 0.9769756655359189
12651848000.0 -0.20494191862734926 0.9787741363507635 -6.977637930365185e-18 -7.909537950277592e-17 -6.977637930365185e-18 -7.909537950277592e-17 -0.20494253789324146 0.9787740066847499
12652465333.333334 -0.19651853852761073 0.9805001091355443 -7.662979915704828e-18 -7.901635528623021e-17 -7.662979915704828e-18 -7.901635528623021e-17 -0.19651915885524804 0.9804999848050319
12653082666.666666 -0.18808062935977415 0.9821535912775933 -8.347476014985742e-18 -7.89313978256984e-17 -8.347476014985742e-18 -7.89313978256984e-17 -0.1880812507031929 0.9821534722912528
12653700000.0 -0.17962881495794747 0.9837344605312177 -9.031074906237995e-18 -7.884051584800612e-17 -9.031074906237995e-18 -7.884051584800612e-17 -0.17962943727111344 0.9837343468973242
12654317333.333334 -0.17116372018439568 0.9852426000191425 -9.713725355192796e-18 -7.874371852352677e-17 -9.713725355192796e-18 -7.874371852352677e-17 -0.1711643434212075 0.9852424917455749
12654934666.666666 -0.16268597088317585 0.9866778982411842 -1.03953762191393e-17 -7.864101546531331e-17 -1.03953762191393e-17 -7.864101546531331e-17 -0.1626865949974682 0.9866777953354235
12655552000.0 -0.15419619383381036 0.9880402490825008 -1.1075976450737211e-17 -7.853241672820164e-17 -1.1075976450737211e-17 -7.853241672820164e-17 -0.15419681877935756 0.9880401515516302
12656169333.333334 -0.14569501670531212 0.9893295518213745 -1.1755475101822992e-17 -7.841793280788091e-17 -1.1755475101822992e-17 -7.841793280788091e-17 -0.14569564243583183 0.9893294596720812
12656786666.666666 -0.1371830680093317 0.9905457111367402 -1.2433821327227133e-17 -7.829757463992783e-17 -1.2433821327227133e-17 -7.829757463992783e-17 -0.13718369447848783 0.9905456243753112
12657404000.0 -0.12866097705391322 0.9916886371151862 -1.3110964388559888e-17 -7.817135359881155e-17 -1.3110964388559888e-17 -7.817135359881155e-17 -0.1286616042153197 0.9916885557475102
12658021333.333334 -0.12012937389699717 0.9927582452576045 -1.3786853658003054e-17 -7.803928149686327e-17 -1.3786853658003054e-17 -7.803928149686327e-17 -0.12013000170422121 0.9927581692891707
12658638666.666666 -0.11158888929981062 0.9937544564854423 -1.4461438622065384e-17 -7.79013705832184e-17 -1.4461438622065384e-17 -7.79013705832184e-17 -0.11158951770637625 0.9937543859213405
12659256000.0 -0.10304015468006408 0.9946771971465677 -1.5134668885383174e-17 -7.775763354271538e-17 -1.5134668885383174e-17 -7.775763354271538e-17 -0.10304078363945551 0.9946771319914866
12659873333.333334 -0.09448380206546664 0.9955263990206872 -1.5806494174446358e-17 -7.760808349477459e-17 -1.5806494174446358e-17 -7.760808349477459e-17 -0.09448443153113183 0.9955263392789169
12660490666.666666 -0.08592046404711254 0.9963019993243877 -1.6476864341347187e-17 -7.745273399223858e-17 -1.6476864341347187e-17 -7.745273399223858e-17 -0.08592109397246647 0.996301944999816
12661108000.0 -0.07735077373225913 0.9970039407158146 -1.714572936752657e-17 -7.729159902017765e-17 -1.714572936752657e-17 -7.729159902017765e-17 -0.0773514040706875 0.9970038918119302
12661725333.333334 -0.0687753646980295 0.9976321712988688 -1.7813039367478696e-17 -7.712469299467086e-17 -1.7813039367478696e-17 -7.712469299467086e-17 -0.06877599540289187 0.9976321278187581
12662342666.666666 -0.06019487094420235 0.9981866446270725 -1.847874459247682e-17 -7.695203076154664e-17 -1.847874459247682e-17 -7.695203076154664e-17 -0.0601955019688358 0.9981866065734213
12662960000.0 -0.05160992684659401 0.9986673197069843 -1.9142795434265556e-17 -7.677362759509715e-17 -1.9142795434265556e-17 -7.677362759509715e-17 -0.051610558144316504 0.9986672870820764
12663577333.333334 -0.04302116710995914 0.9990741610012445 -1.980514242874107e-17 -7.658949919676078e-17 -1.980514242874107e-17 -7.658949919676078e-17 -0.04302179863407301 0.9990741338069621
12664194666.666666 -0.034429226721178874 0.9994071384311926 -2.0465736259638645e-17 -7.639966169376809e-17 -2.0465736259638645e-17 -7.639966169376809e-17 -0.0344298584249743 0.999407116669017
12664812000.0 -0.025834740902258152 0.9996662273790977 -2.112452776218586e-17 -7.620413163776153e-17 -2.112452776218586e-17 -7.620413163776153e-17 -0.025835372739016583 0.9996662110501081
12665429333.333334 -0.017238345063447347 0.9998514086899695 -2.178146792675803e-17 -7.600292600337965e-17 -2.178146792675803e-17 -7.600292600337965e-17 -0.017238976986444946 0.9998513977948443
12666046666.666666 -0.008640674756236703 0.9999626686729857 -2.2436507902494803e-17 -7.579606218681782e-17 -2.2436507902494803e-17 -7.579606218681782e-17 -0.008641306718747795 0.9999626632119998
12666664000.0 -4.2365626141026606e-05 0.9999999991024985 -2.3089599000959273e-17 -7.558355800434079e-17 -2.3089599000959273e-17 -7.558355800434079e-17 -4.299758144158251e-05 0.9999999990755257
12667281333.333334 0.008555946633811857 0.999963397218639 -2.3740692699708076e-17 -7.536543169078682e-17 -2.3740692699708076e-17 -7.536543169078682e-17 0.008555314732440773 0.9999634026251517
12667898666.666666 0.0171536263305341 0.9998528657275306 -2.4389740645912143e-17 -7.514170189802124e-17 -2.4389740645912143e-17 -7.514170189802124e-17 0.01715299452980288 0.9998528765665995
12668516000.0 0.025750037817762347 0.9996684128010779 -2.503669465992876e-17 -7.491238769336961e-17 -2.503669465992876e-17 -7.491238769336961e-17 0.025749406164369406 0.9996684290713721
12669133333.333334 0.034344545542853704 0.9994100520763725 -2.5681506738861666e-17 -7.467750855802023e-17 -2.5681506738861666e-17 -7.467750855802023e-17 0.034343914083481995 0.9994100737761598
12669750666.666666 0.04293651409394405 0.9990778026546795 -2.6324129060125206e-17 -7.44370843853887e-17 -2.6324129060125206e-17 -7.44370843853887e-17 0.042935882875257646 0.9990778297818267
12670368000.0 0.051525308246982385 0.998671689100025 -2.6964513984974583e-17 -7.419113547945913e-17 -2.6964513984974583e-17 -7.419113547945913e-17 0.05152467731562299 0.9986717216519971
