! Parameters = {f0=12700.012000; bw=77.238000; Q=6100.000000; N=10; m_0_1=1.325220; m_1_1=1.113558; m_1_2=1.160032; m_2_2=1.112909; m_2_3=0.796995; m_2_8=0.003325; m_2_9=0.040029; m_3_3=1.110972; m_3_4=0.685524; m_3_7=0.003925; m_3_8=-0.093163; m_3_9=0.003325; m_4_4=1.108047; m_4_5=0.521859; m_4_6=0.007442; m_4_7=-0.113712; m_4_8=0.003925; m_5_5=1.108429; m_5_6=0.929214; m_5_7=0.007442; m_6_6=1.108428; m_6_7=0.522201; m_7_7=1.108061; m_7_8=0.685642; m_8_8=1.110970; m_8_9=0.797308; m_9_9=1.112904; m_9_10=1.161110; m_10_10=1.113548; m_10_11=1.326015}
!
! Created with skrf (http://scikit-rf.org).
# Hz S RI R 50.0 
!freq ReS11 ImS11 ReS21 ImS21 ReS12 ImS12 ReS22 ImS22
12607400000.0 0.38220533973330373 -0.9240774200677981 -1.4819254242462923e-17 1.4174177177693435e-16 -1.4819254242462923e-17 1.4174177177693435e-16 0.38220598483163837 -0.9240771532500328
12608017333.333334 0.3709448479029216 -0.928654898126364 -1.3080126161641932e-17 1.418848039923387e-16 -1.3080126161641932e-17 1.418848039923387e-16 0.3709454961650593 -0.9286546391822237
12608634666.666666 0.35962954823878407 -0.9330951655824697 -1.1339718139090032e-17 1.420065095043929e-16 -1.1339718139090032e-17 1.420065095043929e-16 0.35963019956863806 -0.9330949145494418
12609252000.0 0.348261112598876 -0.9373975663778961 -9.598291556371793e-18 1.4210687842075352e-16 -9.598291556371793e-18 1.4210687842075352e-16 0.348261766899915 -0.9373973232922942
12609869333.333334 0.33684122069209826 -0.9415614648245043 -7.856107845358732e-18 1.4218590405081458e-16 -7.856107845358732e-18 1.4218590405081458e-16 0.33684187786736197 -0.941561229721465
12610486666.666666 0.3253715598302226 -0.9455862456981154 -6.113428449052214e-18 1.422435829054558e-16 -6.113428449052214e-18 1.422435829054558e-16 0.3253722197823355 -0.9455860186115929
12611104000.0 0.31385382467829287 -0.9494713143295144 -4.370514782355324e-18 1.4227991469631306e-16 -4.370514782355324e-18 1.4227991469631306e-16 0.3138544873094789 -0.9494710952922751
12611721333.333334 0.30228971700461094 -0.9532160966921827 -2.6276281929654523e-18 1.4229490233456711e-16 -2.6276281929654523e-18 1.4229490233456711e-16 0.3022903822167073 -0.9532158857357999
12612338666.666666 0.2906809454290549 -0.9568200394871961 -8.850299221992175e-19 1.4228855192925608e-16 -8.850299221992175e-19 1.4228855192925608e-16 0.29068161312352747 -0.9568198366420465
12612956000.0 0.2790292251704903 -0.9602826102250122 8.570189341311157e-19 1.4226087278510686e-16 8.570189341311157e-19 1.4226087278510686e-16 0.279029895248448 -0.9602824155202722
12613573333.333334 0.26733627779386093 -0.9636032973039953 2.5982574647272597e-18 1.42211877399891e-16 2.5982574647272597e-18 1.42211877399891e-16 0.26733695015606945 -0.9636031107676329
12614190666.666666 0.25560383095530537 -0.9667816100861556 4.3384249818888746e-18 1.4214158146130062e-16 4.3384249818888746e-18 1.4214158146130062e-16 0.25560450550220376 -0.966781431744933
12614808000.0 0.24383361814705737 -0.9698170789695977 6.077261060467882e-18 1.420500038433501e-16 6.077261060467882e-18 1.420500038433501e-16 0.24383429477877064 -0.9698169088490609
12615425333.333334 0.23202737844142693 -0.9727092554578713 7.81450557679648e-18 1.4193716660229987e-16 7.81450557679648e-18 1.4193716660229987e-16 0.23202805705778248 -0.9727090935823507
12616042666.666666 0.2201868562337406 -0.9754577122262706 9.549898747550717e-18 1.4180309497210582e-16 9.549898747550717e-18 1.4180309497210582e-16 0.2201875367342822 -0.9754575586188757
12616660000.0 0.20831380098463023 -0.9780620431849625 1.1283181168547842e-17 1.4164781735939414e-16 1.1283181168547842e-17 1.4164781735939414e-16 0.20831448326863317 -0.9780618978675789
12617277333.333334 0.19640996696151927 -0.9805218635389948 1.3014093853475723e-17 1.414713653379626e-16 1.3014093853475723e-17 1.414713653379626e-16 0.19641065092800514 -0.9805217265322812
12617894666.666666 0.1844771129795653 -0.9828368098451202 1.4742378272520348e-17 1.412737736428114e-16 1.4742378272520348e-17 1.412737736428114e-16 0.1844777985273171 -0.9828366811685059
12618512000.0 0.17251700214148524 -0.9850065400655591 1.646777639097405e-17 1.410550801636961e-16 1.646777639097405e-17 1.410550801636961e-16 0.17251768916906202 -0.9850064197372396
12619129333.333334 0.16053140157744353 -0.987030733618457 1.8190030707654177e-17 1.4081532593822175e-16 1.8190030707654177e-17 1.4081532593822175e-16 0.1605320899831961 -0.9870306216553951
12619746666.666666 0.148522082183677 -0.9889090914253104 1.990888429331902e-17 1.4055455514445722e-16 1.990888429331902e-17 1.4055455514445722e-16 0.14852277186576207 -0.9889089878432289
12620364000.0 0.1364908183608396 -0.990641335955146 2.1624080828962757e-17 1.4027281509308331e-16 2.1624080828962757e-17 1.4027281509308331e-16 0.13649150921723532 -0.9906412407685284
12620981333.333334 0.12443938775208482 -0.9922272112654918 2.3335364643928343e-17 1.3997015621908632e-16 2.3335364643928343e-17 1.3997015621908632e-16 0.12444007968060598 -0.9922271244875804
12621598666.666666 0.11236957098013423 -0.9936664830402342 2.5042480754023907e-17 1.3964663207296918e-16 2.5042480754023907e-17 1.3964663207296918e-16 0.11237026387844722 -0.9936664046830281
12622216000.0 0.10028315138432767 -0.9949589386242212 2.674517489944176e-17 1.3930229931151173e-16 2.674517489944176e-17 1.3930229931151173e-16 0.10028384514996548 -0.994958868698473
12622833333.333334 0.08818191475707442 -0.9961043870546822 2.84431935825857e-17 1.3893721768806326e-16 2.84431935825857e-17 1.3893721768806326e-16 0.0881826092874521 -0.9961043255698996
12623450666.666666 0.07606764908011263 -0.9971026590894405 3.013628410574576e-17 1.3855145004238055e-16 3.013628410574576e-17 1.3855145004238055e-16 0.07606834427254211 -0.9971026060538815
12624068000.0 0.06394214426018965 -0.997953607231928 3.182419460867389e-17 1.3814506228999952e-16 3.182419460867389e-17 1.3814506228999952e-16 0.06394284001189518 -0.9979535626526023
12624685333.333334 0.05180719186457125 -0.9986571057529787 3.35066741060033e-17 1.377181234111525e-16 3.35066741060033e-17 1.377181234111525e-16 0.05180788807270444 -0.9986570696356454
12625302666.666666 0.03966458485664617 -0.9992130507093867 3.518347252447955e-17 1.372707054392429e-16 3.518347252447955e-17 1.372707054392429e-16 0.0396652814183013 -0.9992130230585544
12625920000.0 0.02751611733044453 -0.9996213599592928 3.6854340740137656e-17 1.3680288344884074e-16 3.6854340740137656e-17 1.3680288344884074e-16 0.027516814142673728 -0.9996213407782197
12626537333.333334 0.015363584246238376 -0.9998819731742934 3.8519030615209703e-17 1.36314735543258e-16 3.8519030615209703e-17 1.36314735543258e-16 0.015364281206066775 -0.9998819624649847
12627154666.666666 0.0032087811649067887 -0.9999948518483709 4.0177295034947876e-17 1.358063428416532e-16 4.0177295034947876e-17 1.358063428416532e-16 0.003209478169347805 -0.999994849611581
12627772000.0 -0.008946496017532404 -0.9999599793035804 4.1828887944279704e-17 1.3527778946568906e-16 4.1828887944279704e-17 1.3527778946568906e-16 -0.008945799071461886 -0.999959985538812
12628389333.333334 -0.021100451334587784 -0.9997773606925122 4.347356438420928e-17 1.3472916252576992e-16 4.347356438420928e-17 1.3472916252576992e-16 -0.02109975454985218 -0.9997773753980153
12629006666.666666 -0.03325128901547605 -0.9994470229975262 4.5111080528170563e-17 1.341605521067956e-16 4.5111080528170563e-17 1.341605521067956e-16 -0.03325059249500589 -0.9994470461703006
12629624000.0 -0.04539721374982555 -0.9989690150267732 4.674119371805908e-17 1.3357205125352011e-16 4.674119371805908e-17 1.3357205125352011e-16 -0.04539651759650226 -0.9989690466625674
12630241333.333334 -0.057536430953249416 -0.9983434074069755 4.836366250017734e-17 1.329637559554379e-16 4.836366250017734e-17 1.329637559554379e-16 -0.057535735269890136 -0.9983434475002886
12630858666.666666 -0.06966714703230041 -0.9975702925730046 4.997824666092157e-17 1.323357651312582e-16 4.997824666092157e-17 1.323357651312582e-16 -0.06966645192164268 -0.997570341117085
12631476000.0 -0.08178756964978962 -0.9966497847541981 5.15847072623359e-17 1.3168818061291971e-16 5.15847072623359e-17 1.3168818061291971e-16 -0.08178687521447654 -0.9966498417410496
12632093333.333334 -0.0938959079892396 -0.9955820199575144 5.31828066773719e-17 1.310211071292108e-16 5.31828066773719e-17 1.310211071292108e-16 -0.09389521433180432 -0.9955820853778921
12632710666.666666 -0.10599037301965096 -0.9943671559474216 5.4772308625009135e-17 1.3033465228893456e-16 5.4772308625009135e-17 1.3033465228893456e-16 -0.1059896802425017 -0.9943672297908354
12633328000.0 -0.11806917775997662 -0.9930053722225732 5.635297820515579e-17 1.2962892656364818e-16 5.635297820515579e-17 1.2962892656364818e-16 -0.11806848596538164 -0.9930054544772906
12633945333.333334 -0.13013053754289736 -0.991496869989313 5.792458193327767e-17 1.2890404327000436e-16 5.792458193327767e-17 1.2890404327000436e-16 -0.13012984683296963 -0.9914969606423594
12634562666.666666 -0.14217267027865113 -0.9898418721319311 5.948688777485269e-17 1.2816011855164918e-16 5.948688777485269e-17 1.2816011855164918e-16 -0.14217198075533338 -0.9898419711690916
12635180000.0 -0.1541937967183122 -0.9880406231797356 6.103966517956935e-17 1.2739727136071627e-16 6.103966517956935e-17 1.2739727136071627e-16 -0.15419310848336204 -0.9880407305855595
12635797333.333334 -0.16619214071670677 -0.9860933892709187 6.258268511531806e-17 1.2661562343889246e-16 6.258268511531806e-17 1.2661562343889246e-16 -0.16619145387168135 -0.9860935050287194
12636414666.666666 -0.1781659294947296 -0.9840004581132513 6.411572010186983e-17 1.258152992981089e-16 6.411572010186983e-17 1.258152992981089e-16 -0.17816524414097093 -0.9840005822051107
12637032000.0 -0.19011339390144386 -0.9817621389415476 6.563854424441365e-17 1.2499642620077282e-16 6.563854424441365e-17 1.2499642620077282e-16 -0.19011271014006384 -0.9817622713483181
12637649333.333334 -0.20203276867536518 -0.9793787624719943 6.715093326677113e-17 1.241591341396305e-16 6.715093326677113e-17 1.241591341396305e-16 -0.20203208660723032 -0.9793789031733006
12638266666.666666 -0.21392229270530955 -0.9768506808532782 6.865266454435927e-17 1.2330355581722704e-16 6.865266454435927e-17 1.2330355581722704e-16 -0.21392161243102645 -0.9768508298275224
12638884000.0 -0.22578020929060152 -0.9741782676145584 7.014351713692176e-17 1.2242982662495435e-16 7.014351713692176e-17 1.2242982662495435e-16 -0.2257795309105018 -0.9741784248389215
12639501333.333334 -0.23760476640065759 -0.9713619176102688 7.162327182098047e-17 1.2153808462171087e-16 7.162327182098047e-17 1.2153808462171087e-16 -0.23760409001478355 -0.9713620830607173
12640118666.666666 -0.24939421693365948 -0.9684020469618269 7.309171112199674e-17 1.2062847051218298e-16 7.309171112199674e-17 1.2062847051218298e-16 -0.24939354264174884 -0.9684022206131124
12640736000.0 -0.26114681897527015 -0.9652990929960028 7.45486193463329e-17 1.1970112762469174e-16 7.45486193463329e-17 1.1970112762469174e-16 -0.2611461468767416 -0.9652992748216691
12641353333.333334 -0.2728608360550693 -0.9620535141805453 7.59937826127987e-17 1.1875620188874067e-16 7.59937826127987e-17 1.1875620188874067e-16 -0.2728601662490075 -0.9620537041529297
12641970666.666666 -0.284534537403973 -0.95866579005622 7.742698888406633e-17 1.1779384181208599e-16 7.742698888406633e-17 1.1779384181208599e-16 -0.28453386998911445 -0.958665988146459
12642588000.0 -0.29616619820951845 -0.9551364211660708 7.884802799769183e-17 1.1681419845749575e-16 7.884802799769183e-17 1.1681419845749575e-16 -0.2961655332842366 -0.9551366273441055
12643205333.333334 -0.3077540998708726 -0.9514659289814204 8.025669169687775e-17 1.1581742541911497e-16 8.025669169687775e-17 1.1581742541911497e-16 -0.30775343753316403 -0.9514661432160002
12643822666.666666 -0.31929653025270494 -0.9476548558248371 8.16527736609642e-17 1.1480367879844098e-16 8.16527736609642e-17 1.1480367879844098e-16 -0.31929587060017345 -0.9476550780835219
12644440000.0 -0.3307917839381299 -0.9437037647900103 8.303606953555515e-17 1.1377311717997634e-16 8.303606953555515e-17 1.1377311717997634e-16 -0.33079112706797387 -0.9437039950391799
12645057333.333334 -0.3422381624806883 -0.9396132396585588 8.440637696239487e-17 1.1272590160648088e-16 8.440637696239487e-17 1.1272590160648088e-16 -0.34223750848968504 -0.9396134778634149
12645674666.666666 -0.3536339746552948 -0.9353838848137738 8.576349560889431e-17 1.1166219555389247e-16 8.576349560889431e-17 1.1166219555389247e-16 -0.3536333236397873 -0.935384130938347
12646292000.0 -0.36497753670830785 -0.9310163251512542 8.710722719741535e-17 1.105821649058374e-16 8.710722719741535e-17 1.105821649058374e-16 -0.36497688876418954 -0.9310165791584069
12646909333.333334 -0.376267172605959 -0.9265112059866989 8.843737553410941e-17 1.0948597792788761e-16 8.843737553410941e-17 1.0948597792788761e-16 -0.37626652782866044 -0.9265114678381338
12647526666.666666 -0.38750121428225853 -0.9218691929604678 8.975374653755252e-17 1.0837380524137819e-16 8.975374653755252e-17 1.0837380524137819e-16 -0.38750057276673344 -0.9218694626167324
12648144000.0 -0.3986780018854271 -0.9170909719392359 9.105614826699856e-17 1.0724581979692315e-16 9.105614826699856e-17 1.0724581979692315e-16 -0.3986773637261374 -0.9170912493597279
12648761333.333334 -0.4097958840230367 -0.9121772489146985 9.234439095029547e-17 1.0610219684759852e-16 9.234439095029547e-17 1.0610219684759852e-16 -0.40979524931393924 -0.9121775340576721
12649378666.666666 -0.42085321800600767 -0.9071287498992616 9.361828701147765e-17 1.0494311392178067e-16 9.361828701147765e-17 1.0494311392178067e-16 -0.4208525868405411 -0.9071290427218355
12649996000.0 -0.43184837009145116 -0.901946220818717 9.487765109803374e-17 1.0376875079564113e-16 9.487765109803374e-17 1.0376875079564113e-16 -0.4318477425625213 -0.9019465212768791
12650613333.333334 -0.4427797157239774 -0.8966304274020613 9.612230010780576e-17 1.0257928946533577e-16 9.612230010780576e-17 1.0257928946533577e-16 -0.44277909192394294 -0.8966307354506744
12651230666.666666 -0.45364563977562583 -0.8911821550684085 9.735205321553938e-17 1.0137491411887646e-16 9.735205321553938e-17 1.0137491411887646e-16 -0.4536450197962864 -0.89118247066122
12651848000.0 -0.4644445367847588 -0.885602208810819 9.856673189911876e-17 1.0015581110764815e-16 9.856673189911876e-17 1.0015581110764815e-16 -0.4644439207173399 -0.8856025319004649
12652465333.333334 -0.47517481119304095 -0.8798914130774703 9.97661599654092e-17 9.89221689176495e-17 9.97661599654092e-17 9.89221689176495e-17 -0.47517419912818243 -0.8798917436154857
12653082666.666666 -0.48583487758116517 -0.874050611649865 1.0095016357572187e-16 9.76741781404454e-17 1.0095016357572187e-16 9.76741781404454e-17 -0.4858342696089057 -0.8740509495866876
12653700000.0 -0.4964231609034736 -0.8680806675179515 1.0211857127101285e-16 9.641203144371473e-17 1.0211857127101285e-16 9.641203144371473e-17 -0.49642255711323874 -0.8680810128029312
12654317333.333334 -0.5069380967200768 -0.8619824627529463 1.0327121399657974e-16 9.513592354163942e-17 1.0327121399657974e-16 9.513592354163942e-17 -0.5069374972006652 -0.8619828153343516
12654934666.666666 -0.5173781314284761 -0.8557568983767452 1.0440792512649954e-16 9.384605116488332e-17 1.0440792512649954e-16 9.384605116488332e-17 -0.517377536268047 -0.8557572582017726
12655552000.0 -0.5277417224931061 -0.8494048942287878 1.0552854048764766e-16 9.254261303032606e-17 1.0552854048764766e-16 9.254261303032606e-17 -0.5277411317791658 -0.8494052612435681
12656169333.333334 -0.538027338672787 -0.8429273888304306 1.0663289838332037e-16 9.122580981053613e-17 1.0663289838332037e-16 9.122580981053613e-17 -0.5380267524921769 -0.8429277629800379
12656786666.666666 -0.54823346024755 -0.8363253392459223 1.0772083961652626e-16 8.989584410290517e-17 1.0772083961652626e-16 8.989584410290517e-17 -0.5482328786864336 -0.8363257204743829
12657404000.0 -0.558358579242793 -0.8295997209412366 1.0879220751285532e-16 8.855292039855168e-17 1.0879220751285532e-16 8.855292039855168e-17 -0.5583580023866422 -0.8296001091915357
12658021333.333334 -0.5684011996522783 -0.8227515276398216 1.0984684794297857e-16 8.719724505093117e-17 1.0984684794297857e-16 8.719724505093117e-17 -0.5684006275858609 -0.8227519228539112
12658638666.666666 -0.5783598376589095 -0.8157817711759493 1.1088460934474094e-16 8.582902624420208e-17 1.1088460934474094e-16 8.582902624420208e-17 -0.5783592704662793 -0.8157821732947604
12659256000.0 -0.588233021854441 -0.8086914813448957 1.1190534274489438e-16 8.444847396128477e-17 1.1190534274489438e-16 8.444847396128477e-17 -0.5882324596189221 -0.808691890308344
12659873333.333334 -0.598019293456433 -0.8014817057510915 1.1290890178040315e-16 8.30557999517053e-17 1.1290890178040315e-16 8.30557999517053e-17 -0.5980187362606088 -0.8014821214980864
12660490666.666666 -0.6077172065239091 -0.7941535096532567 1.1389514271933417e-16 8.165121769920934e-17 1.1389514271933417e-16 8.165121769920934e-17 -0.6077166544496122 -0.7941539321217141
12661108000.0 -0.6173253281712043 -0.7867079758068579 1.148639244814258e-16 8.023494238901602e-17 1.148639244814258e-16 8.023494238901602e-17 -0.6173247812995005 -0.7867084049337039
12661725333.333334 -0.6268422387793547 -0.7791462043043627 1.1581510865813842e-16 7.880719087498851e-17 1.1581510865813842e-16 7.880719087498851e-17 -0.6268416971905347 -0.7791466400255471
12662342666.666666 -0.6362665322061001 -0.7714693124125118 1.167485595323906e-16 7.736818164643358e-17 1.167485595323906e-16 7.736818164643358e-17 -0.6362659959796654 -0.7714697546630159
12662960000.0 -0.6455968159935299 -0.7636784344073266 1.1766414409783445e-16 7.591813479474133e-17 1.1766414409783445e-16 7.591813479474133e-17 -0.6455962852081827 -0.763678883121174
12663577333.333334 -0.6548317115738466 -0.7557747214065017 1.1856173207773302e-16 7.445727197977469e-17 1.1856173207773302e-16 7.445727197977469e-17 -0.6548311863074772 -0.7557751765167674
12664194666.666666 -0.6639698544730496 -0.7477593411993236 1.1944119594341903e-16 7.298581639604042e-17 1.1944119594341903e-16 7.298581639604042e-17 -0.6639693348027252 -0.7477598026381437
12664812000.0 -0.6730098945125391 -0.7396334780741275 1.2030241093233472e-16 7.15039927386432e-17 1.2030241093233472e-16 7.15039927386432e-17 -0.6730093805144931 -0.7396339457727098
12665429333.333334 -0.6819504960086291 -0.7313983326432965 1.2114525506565206e-16 7.001202716902477e-17 1.2114525506565206e-16 7.001202716902477e-17 -0.6819499877582492 -0.7313988065319312
12666046666.666666 -0.6907903379697938 -0.7230551216659679 1.2196960916545765e-16 6.851014728051767e-17 1.2196960916545765e-16 6.851014728051767e-17 -0.6907898355416109 -0.7230556016740368
12666664000.0 -0.6995281142920732 -0.7146050778680381 1.2277535687154138e-16 6.69985820636419e-17 1.2277535687154138e-16 6.69985820636419e-17 -0.6995276177597517 -0.7146055639240269
12667281333.333334 -0.7081625339517661 -0.7060494497603008 1.2356238465770923e-16 6.547756187129303e-17 1.2356238465770923e-16 6.547756187129303e-17 -0.7081620433880905 -0.706049941791807
12667898666.666666 -0.7166923211963635 -0.697389501453799 1.243305818477088e-16 6.39473183836599e-17 1.243305818477088e-16 6.39473183836599e-17 -0.7166918366732312 -0.6973899993875455
12668516000.0 -0.7251162157331441 -0.6886265124729473 1.2507984063071067e-16 6.240808457297324e-17 1.2507984063071067e-16 6.240808457297324e-17 -0.725115737321552 -0.6886270162347919
12669133333.333334 -0.7334329729149871 -0.6797617775668874 1.2581005607632138e-16 6.086009466814287e-17 1.2581005607632138e-16 6.086009466814287e-17 -0.7334325006850219 -0.6797622870818336
12669750666.666666 -0.741641363924744 -0.6707966065176946 1.2652112614921062e-16 5.930358411911711e-17 1.2652112614921062e-16 5.930358411911711e-17 -0.741640897945574 -0.6707971217099048
12670368000.0 -0.7497401759565263 -0.6617323239471437 1.272129517232646e-16 5.773878956114046e-17 1.272129517232646e-16 5.773878956114046e-17 -0.7497397162963871 -0.6617328447399465
