! Parameters = {f0=12700.012000; bw=77.238000; Q=6100.000000; N=10; m_0_1=1.196892; m_1_1=-0.811367; m_1_2=1.031704; m_2_2=-0.812016; m_2_3=0.668667; m_2_8=-0.003092; m_2_9=0.033612; m_3_3=-0.813953; m_3_4=0.557196; m_3_7=-0.002492; m_3_8=-0.099580; m_3_9=-0.003092; m_4_4=-0.816878; m_4_5=0.393531; m_4_6=0.001025; m_4_7=-0.120129; m_4_8=-0.002492; m_5_5=-0.816496; m_5_6=0.800886; m_5_7=0.001025; m_6_6=-0.816497; m_6_7=0.393873; m_7_7=-0.816864; m_7_8=0.557314; m_8_8=-0.813955; m_8_9=0.668980; m_9_9=-0.812021; m_9_10=1.032782; m_10_10=-0.811377; m_10_11=1.197687}
!
! Created with skrf (http://scikit-rf.org).
# Hz S RI R 50.0 
!freq ReS11 ImS11 ReS21 ImS21 ReS12 ImS12 ReS22 ImS22
12607400000.0 0.580841303971217 0.8140168177629129 -6.094514474603583e-17 -4.7595968513327915e-17 -6.094514474603583e-17 -4.7595968513327915e-17 0.5808407905541002 0.8140171841112022
12608017333.333334 0.5876274666488949 0.8091316088496634 -6.133315185813796e-17 -4.707004515443975e-17 -6.133315185813796e-17 -4.707004515443975e-17 0.5876269563379689 0.8091319794599753
12608634666.666666 0.594372544016512 0.8041898276645779 -6.171662639157378e-17 -4.654096590598105e-17 -6.171662639157378e-17 -4.654096590598105e-17 0.5943720368471499 0.8041902025105833
12609252000.0 0.6010760644766605 0.7991918197235836 -6.209554274025902e-17 -4.600876978248295e-17 -6.209554274025902e-17 -4.600876978248295e-17 0.6010755604840137 0.7991921987786618
12609869333.333334 0.6077375593375941 0.7941379344737463 -6.246987563352044e-17 -4.547349600569615e-17 -6.246987563352044e-17 -4.547349600569615e-17 0.6077370585565869 0.7941383177109834
12610486666.666666 0.6143565628456993 0.7890285252690553 -6.283960013777228e-17 -4.4935184001705683e-17 -6.283960013777228e-17 -4.4935184001705683e-17 0.6143560653110294 0.7890289126612487
12611104000.0 0.6209326122184936 0.7838639493453955 -6.320469165816695e-17 -4.4393873398031524e-17 -6.320469165816695e-17 -4.4393873398031524e-17 0.620932117964627 0.7838643408650539
12611721333.333334 0.6274652476764809 0.7786445677959462 -6.356512594021043e-17 -4.384960402073272e-17 -6.356512594021043e-17 -4.384960402073272e-17 0.6274647567376518 0.7786449634152927
12612338666.666666 0.6339540124757064 0.7733707455456249 -6.392087907136226e-17 -4.330241589148368e-17 -6.392087907136226e-17 -4.330241589148368e-17 0.6339535248859137 0.773371145236599
12612956000.0 0.6403984529395089 0.7680428513257098 -6.427192748261784e-17 -4.2752349224626755e-17 -6.427192748261784e-17 -4.2752349224626755e-17 0.6403979687325141 0.7680432550599691
12613573333.333334 0.6467981184902217 0.7626612576480806 -6.461824795003547e-17 -4.219944442425818e-17 -6.461824795003547e-17 -4.219944442425818e-17 0.6467976376995461 0.7626616653970024
12614190666.666666 0.6531525616807178 0.7572263407791353 -6.4959817596279e-17 -4.1643742081238946e-17 -6.4959817596279e-17 -4.1643742081238946e-17 0.6531520843396413 0.7572267525138195
12614808000.0 0.6594613382257594 0.7517384807134279 -6.529661389210513e-17 -4.108528297023955e-17 -6.529661389210513e-17 -4.108528297023955e-17 0.6594608643673171 0.7517388964046986
12615425333.333334 0.665724007032912 0.7461980611472316 -6.562861465783273e-17 -4.0524108046762036e-17 -6.562861465783273e-17 -4.0524108046762036e-17 0.6657235366898913 0.7461984807656379
12616042666.666666 0.6719401302335511 0.7406054694515575 -6.595579806479677e-17 -3.996025844413314e-17 -6.595579806479677e-17 -3.996025844413314e-17 0.6719396634384923 0.7406058929673788
12616660000.0 0.6781092732133128 0.7349610966452276 -6.62781426367599e-17 -3.939377547051435e-17 -6.62781426367599e-17 -3.939377547051435e-17 0.6781088099985045 0.7349615240284731
12617277333.333334 0.6842310046426664 0.7292653373673607 -6.65956272513169e-17 -3.882470060586834e-17 -6.65956272513169e-17 -3.882470060586834e-17 0.6842305450401426 0.7292657685877713
12617894666.666666 0.690304896506801 0.723518589850031 -6.690823114124942e-17 -3.825307549895622e-17 -6.690823114124942e-17 -3.825307549895622e-17 0.6903044405483413 0.7235190248770834
12618512000.0 0.6963305241359463 0.7177212558900575 -6.721593389588965e-17 -3.7678941964262966e-17 -6.721593389588965e-17 -3.7678941964262966e-17 0.6963300718530714 0.7177216946929643
12619129333.333334 0.7023074662346097 0.7118737408213393 -6.751871546241368e-17 -3.7102341978990466e-17 -6.751871546241368e-17 -3.7102341978990466e-17 0.7023070176585803 0.711874183369052
12619746666.666666 0.7082353049114003 0.7059764534861619 -6.781655614715176e-17 -3.6523317679963664e-17 -6.781655614715176e-17 -3.6523317679963664e-17 0.7082348600732163 0.705976899747375
12620364000.0 0.7141136257080867 0.7000298062067738 -6.810943661684456e-17 -3.5941911360576204e-17 -6.810943661684456e-17 -3.5941911360576204e-17 0.7141131846384826 0.7000302561499239
12620981333.333334 0.7199420176285316 0.6940342147565938 -6.839733789988006e-17 -3.5358165467714904e-17 -6.839733789988006e-17 -3.5358165467714904e-17 0.7199415803579755 0.6940346683498633
12621598666.666666 0.7257200731675691 0.6879900983310023 -6.868024138751285e-17 -3.477212259865673e-17 -6.868024138751285e-17 -3.477212259865673e-17 0.7257196397262597 0.6879905555423209
12622216000.0 0.7314473883393354 0.6818978795181934 -6.895812883504208e-17 -3.4183825497985546e-17 -6.895812883504208e-17 -3.4183825497985546e-17 0.7314469587572027 0.6818983403152425
12622833333.333334 0.7371235627056957 0.675757984269447 -6.923098236298027e-17 -3.359331705446649e-17 -6.923098236298027e-17 -3.359331705446649e-17 0.7371231370123954 0.6757584486196597
12623450666.666666 0.7427481994040026 0.6695708418695927 -6.949878445817442e-17 -3.3000640297952254e-17 -6.949878445817442e-17 -3.3000640297952254e-17 0.7427477776289165 0.6695713097401568
12624068000.0 0.748320905175101 0.6633368849067273 -6.976151797492511e-17 -3.2405838396231466e-17 -6.976151797492511e-17 -3.2405838396231466e-17 0.7483204873473339 0.6633373562645881
12624685333.333334 0.7538412903906829 0.6570565492421127 -7.001916613605939e-17 -3.180895465190765e-17 -7.001916613605939e-17 -3.180895465190765e-17 0.7538408765390603 0.6570570240539744
12625302666.666666 0.7593089690804967 0.6507302739797478 -7.027171253398289e-17 -3.121003249926061e-17 -7.027171253398289e-17 -3.121003249926061e-17 0.7593085592335632 0.6507307522120761
12625920000.0 0.7647235589594598 0.644358501435514 -7.051914113171127e-17 -3.060911550108061e-17 -7.051914113171127e-17 -3.060911550108061e-17 0.7647231531454783 0.6443589830545401
12626537333.333334 0.7700846814542799 0.6379416771063833 -7.076143626386481e-17 -3.00062473455238e-17 -7.076143626386481e-17 -3.00062473455238e-17 0.7700842797012277 0.6379421620781037
12627154666.666666 0.7753919617298843 0.6314802496393103 -7.099858263764286e-17 -2.9401471842939036e-17 -7.099858263764286e-17 -2.9401471842939036e-17 0.7753915640654526 0.6314807379294911
12627772000.0 0.7806450287158847 0.6249746707995611 -7.123056533377205e-17 -2.879483292268746e-17 -7.123056533377205e-17 -2.879483292268746e-17 0.780644635167476 0.6249751623737397
12628389333.333334 0.7858435151321213 0.6184253954396082 -7.145736980741945e-17 -2.81863746299752e-17 -7.145736980741945e-17 -2.81863746299752e-17 0.7858431257268473 0.6184258902630951
12629006666.666666 0.7909870575147557 0.6118328814668208 -7.167898188908954e-17 -2.757614112265046e-17 -7.167898188908954e-17 -2.757614112265046e-17 0.7909866722794365 0.6118333795047037
12629624000.0 0.7960752962413451 0.6051975898118718 -7.189538778548614e-17 -2.696417666801417e-17 -7.189538778548614e-17 -2.696417666801417e-17 0.7960749152025065 0.6051980910290169
12630241333.333334 0.8011078755562325 0.598519984396197 -7.210657408034841e-17 -2.6350525639622184e-17 -7.210657408034841e-17 -2.6350525639622184e-17 0.8011074987401033 0.5985204887572511
12630858666.666666 0.8060844435951782 0.5918005320998762 -7.231252773526243e-17 -2.573523251407297e-17 -7.231252773526243e-17 -2.573523251407297e-17 0.806084071027691 0.5918010395692701
12631476000.0 0.8110046524102847 0.5850397027285562 -7.251323609044545e-17 -2.511834186778673e-17 -7.251323609044545e-17 -2.511834186778673e-17 0.8110042841170714 0.5850402132705071
12632093333.333334 0.8158681579939704 0.5782379689810854 -7.27086868654981e-17 -2.4499898373797935e-17 -7.27086868654981e-17 -2.4499898373797935e-17 0.8158677940003616 0.5782384825595985
12632710666.666666 0.8206746203032551 0.571395806416141 -7.289886816013349e-17 -2.3879946798522856e-17 -7.289886816013349e-17 -2.3879946798522856e-17 0.8206742606342795 0.571396322995014
12633328000.0 0.8254237032834875 0.5645136934190503 -7.308376845487998e-17 -2.3258531998524377e-17 -7.308376845487998e-17 -2.3258531998524377e-17 0.8254233479638678 0.5645142129618734
12633945333.333334 0.8301150748918197 0.557592111168363 -7.326337661175255e-17 -2.2635698917279503e-17 -7.326337661175255e-17 -2.2635698917279503e-17 0.830114723945973 0.5575926336385236
12634562666.666666 0.8347484071203801 0.5506315436022826 -7.343768187489683e-17 -2.2011492581944327e-17 -7.343768187489683e-17 -2.2011492581944327e-17 0.8347480605724142 0.5506320689629662
12635180000.0 0.8393233760193134 0.5436324773846626 -7.360667387121189e-17 -2.138595810009333e-17 -7.360667387121189e-17 -2.138595810009333e-17 0.8393230338930278 0.5436330055988573
12635797333.333334 0.8438396617193243 0.5365954018711492 -7.377034261093604e-17 -2.0759140656483273e-17 -7.377034261093604e-17 -2.0759140656483273e-17 0.8438393240382056 0.5365959329016463
12636414666.666666 0.8482969484540865 0.5295208090748933 -7.392867848821302e-17 -2.0131085509790272e-17 -7.392867848821302e-17 -2.0131085509790272e-17 0.8482966152413086 0.5295213428842909
12637032000.0 0.8526949245823655 0.5224091936320787 -7.408167228162576e-17 -1.9501837989354953e-17 -7.408167228162576e-17 -1.9501837989354953e-17 0.8526945958607884 0.522409730182785
12637649333.333334 0.8570332826097028 0.5152610527675081 -7.422931515470619e-17 -1.8871443491913725e-17 -7.422931515470619e-17 -1.8871443491913725e-17 0.8570329584018705 0.515261592021743
12638266666.666666 0.8613117192100359 0.508076886259644 -7.437159865641416e-17 -1.8239947478336778e-17 -7.437159865641416e-17 -1.8239947478336778e-17 0.8613113995381738 0.5080774281794421
12638884000.0 0.8655299352467858 0.5008571964058606 -7.450851472158838e-17 -1.760739547036504e-17 -7.450851472158838e-17 -1.760739547036504e-17 0.865529620132799 0.5008577409530731
12639501333.333334 0.8696876357939014 0.49360248798710304 -7.46400556713753e-17 -1.6973833047320803e-17 -7.46400556713753e-17 -1.6973833047320803e-17 0.8696873252593766 0.4936030351234025
12640118666.666666 0.8737845301562984 0.48631326823291604 -7.476621421361937e-17 -1.6339305842862076e-17 -7.476621421361937e-17 -1.6339305842862076e-17 0.8737842242224987 0.4863138179197969
12640736000.0 0.8778203318904491 0.4789900467855101 -7.488698344324335e-17 -1.570385954165367e-17 -7.488698344324335e-17 -1.570385954165367e-17 0.8778200305783138 0.47899059898429247
12641353333.333334 0.8817947588241026 0.47163333566467314 -7.500235684257574e-17 -1.50675398761551e-17 -7.500235684257574e-17 -1.50675398761551e-17 0.8817944621542464 0.4716338903365053
12641970666.666666 0.885707533076277 0.46424364923149963 -7.511232828167702e-17 -1.443039262327634e-17 -7.511232828167702e-17 -1.443039262327634e-17 0.8857072410689877 0.46424420633736074
12642588000.0 0.8895583810765098 0.45682150415275213 -7.521689201861793e-17 -1.3792463601131962e-17 -7.521689201861793e-17 -1.3792463601131962e-17 0.8895580937517471 0.4568220636534552
12643205333.333334 0.8933470335840937 0.4493674193645374 -7.531604269974166e-17 -1.3153798665736012e-17 -7.531604269974166e-17 -1.3153798665736012e-17 0.8933467509614887 0.44936798122073157
12643822666.666666 0.8970732257068472 0.4418819160361234 -7.540977535989218e-17 -1.2514443707723135e-17 -7.540977535989218e-17 -1.2514443707723135e-17 0.8970729478056998 0.4418824802082972
12644440000.0 0.900736696919674 0.43436551753342517 -7.549808542261798e-17 -1.1874444649055825e-17 -7.549808542261798e-17 -1.1874444649055825e-17 0.9007364237589514 0.43436608398190846
12645057333.333334 0.9043371910826881 0.42681874938258985 -7.558096870034579e-17 -1.1233847439739159e-17 -7.558096870034579e-17 -1.1233847439739159e-17 0.9043369226810263 0.42681931806755835
12645674666.666666 0.9078744564592275 0.41924213923305154 -7.565842139452711e-17 -1.0592698054537111e-17 -7.565842139452711e-17 -1.0592698054537111e-17 0.9078741928349268 0.41924271011452785
12646292000.0 0.9113482457334384 0.41163621682066265 -7.57304400957609e-17 -9.951042489651665e-18 -7.57304400957609e-17 -9.951042489651665e-18 0.9113479869044624 0.41163678985851954
12646909333.333334 0.9147583160275049 0.40400151393078504 -7.579702178387955e-17 -9.308926759477178e-18 -7.579702178387955e-17 -9.308926759477178e-18 0.9147580620114818 0.4040020890847489
12647526666.666666 0.91810442891866 0.3963385643610594 -7.585816382801683e-17 -8.66639689327058e-18 -7.585816382801683e-17 -8.66639689327058e-18 0.9181041797328782 0.3963391415907118
12648144000.0 0.921386350455929 0.3886479038838986 -7.591386398664136e-17 -8.023498931880084e-18 -7.591386398664136e-17 -8.023498931880084e-18 0.9213861061173393 0.38864848314868117
12648761333.333334 0.9246038511763558 0.3809300702093433 -7.596412040756552e-17 -7.380278924446283e-18 -7.596412040756552e-17 -7.380278924446283e-18 0.9246036117015676 0.3809306514685585
12649378666.666666 0.9277567061211345 0.3731856029472565 -7.600893162792413e-17 -6.7367829251298795e-18 -7.600893162792413e-17 -6.7367829251298795e-18 0.9277564715264149 0.3731861861600715
12649996000.0 0.9308446948513037 0.3654150435696746 -7.60482965741289e-17 -6.093056989797089e-18 -7.60482965741289e-17 -6.093056989797089e-18 0.9308444651525787 0.3654156286951242
12650613333.333334 0.9338676014632036 0.3576189353728434 -7.608221456179205e-17 -5.449147172745135e-18 -7.608221456179205e-17 -5.449147172745135e-18 0.9338673766760549 0.3576195223698328
12651230666.666666 0.9368252146034985 0.3497978234394184 -7.611068529562203e-17 -4.805099523431294e-18 -7.611068529562203e-17 -4.805099523431294e-18 0.93682499474316 0.34979841226672487
12651848000.0 0.9397173274840286 0.3419522546001386 -7.613370886929518e-17 -4.160960083151661e-18 -7.613370886929518e-17 -4.160960083151661e-18 0.9397171125653935 0.3419528452164173
12652465333.333334 0.942543737896212 0.3340827773957854 -7.615128576529511e-17 -3.516774881795363e-18 -7.615128576529511e-17 -3.516774881795363e-18 0.9425435279338219 0.33408336975956865
12653082666.666666 0.9453042482251973 0.32618994203874435 -7.616341685472734e-17 -2.8725899345467184e-18 -7.616341685472734e-17 -2.8725899345467184e-18 0.9453040432332488 0.3261905361084476
12653700000.0 0.9479986654637189 0.31827430037445936 -7.617010339710525e-17 -2.2284512386027414e-18 -7.617010339710525e-17 -2.2284512386027414e-18 0.9479984654560587 0.3182748961083825
12654317333.333334 0.950626801225524 0.3103364058430363 -7.617134704010883e-17 -1.584404769910543e-18 -7.617134704010883e-17 -1.584404769910543e-18 0.9506266062156481 0.31033700319936647
12654934666.666666 0.9531884717586024 0.30237681344035733 -7.616714981931508e-17 -9.404964798901667e-19 -7.616714981931508e-17 -9.404964798901667e-19 0.9531882817596581 0.30237741237717314
12655552000.0 0.9556834979580153 0.2943960796793614 -7.615751415790193e-17 -2.967722921496632e-19 -7.615751415790193e-17 -2.967722921496632e-19 0.9556833129827966 0.2943966801546344
12656169333.333334 0.9581117053783939 0.28639476255118573 -7.614244286632359e-17 3.4672190075545885e-19 -7.614244286632359e-17 3.4672190075545885e-19 0.9581115254393435 0.2863953645227845
12656786666.666666 0.9604729242461585 0.27837342148610056 -7.612193914195906e-17 9.899402406004246e-19 -7.612193914195906e-17 9.899402406004246e-19 0.9604727493553646 0.2783740249117927
12657404000.0 0.9627669894714083 0.2703326173143117 -7.60960065687328e-17 1.6328369067548279e-18 -7.60960065687328e-17 1.6328369067548279e-18 0.9627668196406063 0.2703332221517678
12658021333.333334 0.964993740659419 0.26227291222691385 -7.606464911670824e-17 2.2753661194250056e-18 -7.606464911670824e-17 2.2753661194250056e-18 0.9649935758999887 0.26227351843370955
12658638666.666666 0.9671530221218811 0.2541948697365013 -7.602787114165404e-17 2.9174821429117145e-18 -7.602787114165404e-17 2.9174821429117145e-18 0.9671528624448464 0.25419547727012065
12659256000.0 0.9692446828877977 0.24609905463771378 -7.598567738458191e-17 3.5591392888611905e-18 -7.598567738458191e-17 3.5591392888611905e-18 0.9692445283038272 0.24609966345555254
12659873333.333334 0.971268576714034 0.23798603296777482 -7.59380729712586e-17 4.200291919505119e-18 -7.59380729712586e-17 4.200291919505119e-18 0.9712684272334378 0.23798664302714279
12660490666.666666 0.973224562095486 0.22985637196713674 -7.588506341169075e-17 4.8408944508806064e-18 -7.588506341169075e-17 4.8408944508806064e-18 0.9732244177282166 0.22985698322526107
12661108000.0 0.9751125022750952 0.2217106400393233 -7.582665459957927e-17 5.480901356098978e-18 -7.582665459957927e-17 5.480901356098978e-18 0.9751123630307484 0.22171125245335205
12661725333.333334 0.976932265253269 0.21354940671179806 -7.576285281175201e-17 6.120267168535958e-18 -7.576285281175201e-17 6.120267168535958e-18 0.9769321311410798 0.21355002023880204
12662342666.666666 0.9786837237972265 0.20537324259561673 -7.569366470756462e-17 6.7589464850701286e-18 -7.569366470756462e-17 6.7589464850701286e-18 0.9786835948260706 0.20537385719259338
12662960000.0 0.9803667554498179 0.19718271934589365 -7.561909732827612e-17 7.396893969302728e-18 -7.561909732827612e-17 7.396893969302728e-18 0.980366631628211 0.19718333496976984
12663577333.333334 0.9819812425381356 0.18897840962158186 -7.55391580963983e-17 8.034064354751988e-18 -7.55391580963983e-17 8.034064354751988e-18 0.9819811238742328 0.18897902622921683
12664194666.666666 0.9835270721817014 0.1807608870456584 -7.54538548150162e-17 8.670412448073595e-18 -7.54538548150162e-17 8.670412448073595e-18 0.9835269586832955 0.18076150459384674
12664812000.0 0.9850041363003985 0.17253072616479403 -7.536319566708419e-17 9.305893132240212e-18 -7.536319566708419e-17 9.305893132240212e-18 0.9850040279749204 0.17253134461026873
12665429333.333334 0.9864123316219882 0.16428850240937773 -7.526718921469153e-17 9.940461369750805e-18 -7.526718921469153e-17 9.940461369750805e-18 0.9864122284765081 0.1642891217088136
12666046666.666666 0.9877515596893578 0.1560347920532022 -7.516584439830778e-17 1.0574072205786033e-17 -7.516584439830778e-17 1.0574072205786033e-17 0.9877514617305806 0.15603541216321817
12666664000.0 0.9890217268674033 0.14777017217308572 -7.505917053599045e-17 1.1206680771424729e-17 -7.505917053599045e-17 1.1206680771424729e-17 0.9890216341016738 0.14777079305024876
12667281333.333334 0.9902227443495606 0.13949522060869496 -7.494717732258071e-17 1.1838242286765655e-17 -7.494717732258071e-17 1.1838242286765655e-17 0.9902226567828574 0.13949584220952224
12667898666.666666 0.9913545281640189 0.13121051592208693 -7.482987482885814e-17 1.2468712064126884e-17 -7.482987482885814e-17 1.2468712064126884e-17 0.9913544458019565 0.13121113820304928
12668516000.0 0.9924169991796217 0.12291663735703208 -7.470727350067802e-17 1.3098045511181936e-17 -7.470727350067802e-17 1.3098045511181936e-17 0.9924169220274516 0.12291726027455724
12669133333.333334 0.9934100831113374 0.11461416479899454 -7.457938415808087e-17 1.3726198134100813e-17 -7.457938415808087e-17 1.3726198134100813e-17 0.993410011173946 0.1146147883094699
12669750666.666666 0.994333710525515 0.10630367873410883 -7.444621799437141e-17 1.4353125540701722e-17 -7.444621799437141e-17 1.4353125540701722e-17 0.9943336438074246 0.1063043027938847
12670368000.0 0.9951878168447147 0.09798576020879123 -7.430778657517694e-17 1.4978783443564722e-17 -7.430778657517694e-17 1.4978783443564722e-17 0.9951877553500796 0.09798638477418348
