! Parameters = {f0=12700.012000; bw=77.238000; Q=6100.000000; N=10; m_0_1=1.240135; m_1_1=-0.162719; m_1_2=1.074947; m_2_2=-0.163368; m_2_3=0.711910; m_2_8=-0.000930; m_2_9=0.035774; m_3_3=-0.165305; m_3_4=0.600439; m_3_7=-0.000330; m_3_8=-0.097418; m_3_9=-0.000930; m_4_4=-0.168230; m_4_5=0.436774; m_4_6=0.003187; m_4_7=-0.117967; m_4_8=-0.000330; m_5_5=-0.167848; m_5_6=0.844129; m_5_7=0.003187; m_6_6=-0.167849; m_6_7=0.437116; m_7_7=-0.168216; m_7_8=0.600557; m_8_8=-0.165307; m_8_9=0.712223; m_9_9=-0.163373; m_9_10=1.076025; m_10_10=-0.162729; m_10_11=1.240930}
!
! Created with skrf (http://scikit-rf.org).
# Hz S RI R 50.0 
!freq ReS11 ImS11 ReS21 ImS21 ReS12 ImS12 ReS22 ImS22
12607400000.0 0.999157053260583 -0.041050979518868304 -9.072640474990628e-17 3.0981965956716174e-17 -9.072640474990628e-17 3.0981965956716174e-17 0.9991570800843252 -0.04105032663934625
12608017333.333334 0.9987148994766825 -0.05068085992869843 -9.040299166697513e-17 3.185690018451244e-17 -9.040299166697513e-17 3.185690018451244e-17 0.9987149325912578 -0.05068020737004502
12608634666.666666 0.9981799350207694 -0.06030603055884885 -9.007114787323201e-17 3.272847623741152e-17 -9.007114787323201e-17 3.272847623741152e-17 0.998179974422486 -0.06030537838167208
12609252000.0 0.9975522096072129 -0.06992559694131559 -8.973090807601672e-17 3.359661294568076e-17 -8.973090807601672e-17 3.359661294568076e-17 0.9975522552917937 -0.06992494520618203
12609869333.333334 0.9968317815706617 -0.07953866512892718 -8.938230776350052e-17 3.446122949681354e-17 -8.938230776350052e-17 3.446122949681354e-17 0.9968318335332464 -0.07953801389635641
12610486666.666666 0.9960187178606456 -0.08914434177819305 -8.902538320103301e-17 3.5322245443011856e-17 -8.902538320103301e-17 3.5322245443011856e-17 0.9960187760957906 -0.08914369110865199
12611104000.0 0.9951130940353111 -0.09874173423280322 -8.866017142738938e-17 3.617958070869668e-17 -8.866017142738938e-17 3.617958070869668e-17 0.9951131585369909 -0.09874108418670055
12611721333.333334 0.9941149942544433 -0.10832995060610168 -8.828671025098121e-17 3.70331555978946e-17 -8.828671025098121e-17 3.70331555978946e-17 0.9941150650160501 -0.10832930124378222
12612338666.666666 0.9930245112716266 -0.1179080998641677 -8.790503824597122e-17 3.7882890801646013e-17 -8.790503824597122e-17 3.7882890801646013e-17 0.9930245882859727 -0.11790745124590697
12612956000.0 0.9918417464256089 -0.12747529190878945 -8.751519474831762e-17 3.872870740537131e-17 -8.751519474831762e-17 3.872870740537131e-17 0.9918418296849242 -0.1274746440947876
12613573333.333334 0.9905668096309146 -0.13703063765984103 -8.711721985176782e-17 3.9570526896151825e-17 -8.711721985176782e-17 3.9570526896151825e-17 0.9905668991268531 -0.13702999071021815
12614190666.666666 0.9891998193676196 -0.146573249138104 -8.671115440376102e-17 4.0408271170017384e-17 -8.671115440376102e-17 4.0408271170017384e-17 0.9891999150912528 -0.14657260311289338
12614808000.0 0.9877409026703253 -0.15610223954781408 -8.629704000126811e-17 4.124186253917742e-17 -8.629704000126811e-17 4.124186253917742e-17 0.9877410046121492 -0.1561015945069576
12615425333.333334 0.9861901951163652 -0.16561672335901506 -8.587491898656614e-17 4.207122373919983e-17 -8.587491898656614e-17 4.207122373919983e-17 0.9861903032662982 -0.16561607936235714
12616042666.666666 0.9845478408132218 -0.1751158163897679 -8.544483444293874e-17 4.289627793615942e-17 -8.544483444293874e-17 4.289627793615942e-17 0.9845479551606057 -0.17511517349705
12616660000.0 0.9828139923851015 -0.18459863588848485 -8.500683019031527e-17 4.371694873372821e-17 -8.500683019031527e-17 4.371694873372821e-17 0.9828141129187045 -0.18459799415934017
12617277333.333334 0.9809888109587647 -0.19406430061590837 -8.456095078082853e-17 4.4533160180248323e-17 -8.456095078082853e-17 4.4533160180248323e-17 0.9809889376667802 -0.19406366010985598
12617894666.666666 0.9790724661485918 -0.20351193092678102 -8.41072414943233e-17 4.534483677572361e-17 -8.41072414943233e-17 4.534483677572361e-17 0.979072599018642 -0.20351129170322071
12618512000.0 0.9770651360407319 -0.21294064885206557 -8.364574833377804e-17 4.6151903478804404e-17 -8.364574833377804e-17 4.6151903478804404e-17 0.9770652750598664 -0.21294001097027201
12619129333.333334 0.9749670071766436 -0.2223495781800604 -8.317651802068015e-17 4.6954285713687936e-17 -8.317651802068015e-17 4.6954285713687936e-17 0.974967152331343 -0.22234894169917793
12619746666.666666 0.9727782745357256 -0.23173784453802182 -8.269959799031585e-17 4.7751909377007695e-17 -8.269959799031585e-17 4.7751909377007695e-17 0.9727784258119004 -0.23173720951705867
12620364000.0 0.970499141517154 -0.241104575473585 -8.22150363870072e-17 4.854470084465154e-17 -8.22150363870072e-17 4.854470084465154e-17 0.9704992989001486 -0.24110394197140808
12620981333.333334 0.9681298199210608 -0.2504489005355091 -8.172288205928446e-17 4.933258697853216e-17 -8.172288205928446e-17 4.933258697853216e-17 0.968129983395652 -0.25044826861083824
12621598666.666666 0.9656705299288033 -0.25976995135476216 -8.122318455498131e-17 5.0115495133329855e-17 -8.122318455498131e-17 5.0115495133329855e-17 0.9656706994792045 -0.259769321066165
12622216000.0 0.9631215000824972 -0.269066861725246 -8.071599411627756e-17 5.0893353163164776e-17 -8.071599411627756e-17 5.0893353163164776e-17 0.9631216756923577 -0.2690662331311322
12622833333.333334 0.9604829672637808 -0.2783387676842643 -8.020136167467782e-17 5.166608942822209e-17 -8.020136167467782e-17 5.166608942822209e-17 0.9604831489161905 -0.27833814084288094
12623450666.666666 0.9577551766718613 -0.28758480759262134 -7.967933884592108e-17 5.2433632801336023e-17 -7.967933884592108e-17 5.2433632801336023e-17 0.9577553643493478 -0.2875841825620462
12624068000.0 0.9549383818006374 -0.2968041222149925 -7.914997792482658e-17 5.319591267452214e-17 -7.914997792482658e-17 5.319591267452214e-17 0.9549385754851727 -0.29680349905313014
12624685333.333334 0.95203284441516 -0.30599585479971986 -7.861333188008409e-17 5.395285896544929e-17 -7.861333188008409e-17 5.395285896544929e-17 0.9520330440881578 -0.30599523356429503
12625302666.666666 0.9490388345274141 -0.31515915115807625 -7.806945434898607e-17 5.4704402123855185e-17 -7.806945434898607e-17 5.4704402123855185e-17 0.9490390401697342 -0.3151585319066293
12625920000.0 0.9459566303710472 -0.3242931597442147 -7.751839963207276e-17 5.54504731379441e-17 -7.751839963207276e-17 5.54504731379441e-17 0.9459568419629955 -0.32429254253409556
12626537333.333334 0.9427865183756585 -0.333397031733842 -7.696022268776288e-17 5.619100354066735e-17 -7.696022268776288e-17 5.619100354066735e-17 0.9427867358969922 -0.3333964166222061
12627154666.666666 0.939528793140163 -0.34246992110318336 -7.639497912687844e-17 5.692592541601391e-17 -7.639497912687844e-17 5.692592541601391e-17 0.9395290165700887 -0.34246930814698484
12627772000.0 0.9361837574052863 -0.3515109847079505 -7.582272520712331e-17 5.765517140522583e-17 -7.582272520712331e-17 5.765517140522583e-17 0.936183986722463 -0.3515103739639377
12628389333.333334 0.9327517220256408 -0.3605193823611067 -7.524351782753635e-17 5.837867471291603e-17 -7.524351782753635e-17 5.837867471291603e-17 0.9327519572081846 -0.36051877388581743
12629006666.666666 0.9292330059406287 -0.3694942769115335 -7.465741452282331e-17 5.909636911321197e-17 -7.465741452282331e-17 5.909636911321197e-17 0.9292332469661103 -0.3694936707612885
12629624000.0 0.9256279361449437 -0.37843483432142566 -7.406447345768994e-17 5.980818895576568e-17 -7.406447345768994e-17 5.980818895576568e-17 0.9256281829903962 -0.37843423055232495
12630241333.333334 0.9219368476581086 -0.38734022374401295 -7.346475342108036e-17 6.051406917175652e-17 -7.346475342108036e-17 6.051406917175652e-17 0.9219371003000242 -0.38733962241192915
12630858666.666666 0.9181600834934462 -0.39620961760050655 -7.28583138203882e-17 6.121394527979822e-17 -7.28583138203882e-17 6.121394527979822e-17 0.9181603419077815 -0.3962090187610805
12631476000.0 0.9142979946260195 -0.4050421916574523 -7.224521467556558e-17 6.190775339184468e-17 -7.224521467556558e-17 6.190775339184468e-17 0.9142982587881958 -0.4050415953660875
12632093333.333334 0.9103509399601858 -0.4138371251029064 -7.162551661323352e-17 6.259543021896854e-17 -7.162551661323352e-17 6.259543021896854e-17 0.9103512098450952 -0.413836531414765
12632710666.666666 0.9063192862962223 -0.4225936006227956 -7.099928086070436e-17 6.327691307712071e-17 -7.099928086070436e-17 6.327691307712071e-17 0.9063195618782256 -0.4225930095927917
12633328000.0 0.9022034082961021 -0.4313108044771529 -7.036656923993502e-17 6.395213989284584e-17 -7.036656923993502e-17 6.395213989284584e-17 0.9022036895490343 -0.4313102161599487
12633945333.333334 0.8980036884488212 -0.43998792657542846 -6.972744416146763e-17 6.462104920889168e-17 -6.972744416146763e-17 6.462104920889168e-17 0.8980039753459923 -0.43998734102542836
12634562666.666666 0.8937205170348301 -0.44862416055182336 -6.908196861829191e-17 6.528358018978616e-17 -6.908196861829191e-17 6.528358018978616e-17 0.8937208095490284 -0.4486235778231696
12635180000.0 0.8893542920897043 -0.4572187038403541 -6.843020617964917e-17 6.59396726273595e-17 -6.843020617964917e-17 6.59396726273595e-17 0.889354590193199 -0.4572181239869213
12635797333.333334 0.8849054193671769 -0.46577075774938187 -6.777222098479872e-17 6.658926694618847e-17 -6.777222098479872e-17 6.658926694618847e-17 0.8849057230317201 -0.4657701808247722
12636414666.666666 0.8803743123015255 -0.47427952753566033 -6.710807773673148e-17 6.723230420898149e-17 -6.710807773673148e-17 6.723230420898149e-17 0.8803746214983554 -0.47427895359319855
12637032000.0 0.8757613919689797 -0.4827442224785175 -6.643784169582481e-17 6.786872612190835e-17 -6.643784169582481e-17 6.786872612190835e-17 0.8757617066688239 -0.4827436515712464
12637649333.333334 0.87106708704875 -0.4911640559530365 -6.576157867344713e-17 6.849847503986732e-17 -6.576157867344713e-17 6.849847503986732e-17 0.8710674072218277 -0.4911634881337116
12638266666.666666 0.8662918337830852 -0.4995382455033579 -6.507935502552077e-17 6.912149397168102e-17 -6.507935502552077e-17 6.912149397168102e-17 0.8662921593991084 -0.49953768082444194
12638884000.0 0.8614360759367657 -0.5078660129153147 -6.439123764603746e-17 6.973772658522668e-17 -6.439123764603746e-17 6.973772658522668e-17 0.8614364069649457 -0.5078654514289745
12639501333.333334 0.8565002647559034 -0.5161465842887079 -6.369729396050651e-17 7.034711721252078e-17 -6.369729396050651e-17 7.034711721252078e-17 0.8565006011649499 -0.5161460260468077
12640118666.666666 0.851484858926 -0.5243791901092222 -6.299759191938619e-17 7.094961085470928e-17 -6.299759191938619e-17 7.094961085470928e-17 0.8514852006841259 -0.5243786351633198
12640736000.0 0.8463903245291317 -0.5325630653202527 -6.229219999142426e-17 7.154515318703228e-17 -6.229219999142426e-17 7.154515318703228e-17 0.8463906716040576 -0.5325625137215954
12641353333.333334 0.8412171350010408 -0.5406974493933503 -6.158118715701525e-17 7.213369056366825e-17 -6.158118715701525e-17 7.213369056366825e-17 0.8412174873599941 -0.5406969011928683
12641970666.666666 0.8359657710867294 -0.5487815863995468 -6.086462290143767e-17 7.2715170022575e-17 -6.086462290143767e-17 7.2715170022575e-17 0.835966128696452 -0.5487810416478505
12642588000.0 0.8306367207959844 -0.5568147250792924 -6.014257720811054e-17 7.328953929021053e-17 -6.014257720811054e-17 7.328953929021053e-17 0.8306370836227314 -0.5568141838266657
12643205333.333334 0.8252304793580546 -0.5647961189122214 -5.941512055176366e-17 7.38567467862209e-17 -5.941512055176366e-17 7.38567467862209e-17 0.8252308473676015 -0.5647955812086195
12643822666.666666 0.8197475491754775 -0.5727250261867664 -5.868232389157879e-17 7.441674162804933e-17 -5.868232389157879e-17 7.441674162804933e-17 0.8197479223331202 -0.5727244920818085
12644440000.0 0.8141884397775082 -0.5806007100688906 -5.794425866429367e-17 7.496947363547162e-17 -5.794425866429367e-17 7.496947363547162e-17 0.8141888180480685 -0.580600179611858
12645057333.333334 0.8085536677728121 -0.588422438670523 -5.720099677726422e-17 7.551489333506439e-17 -5.720099677726422e-17 7.551489333506439e-17 0.8085540511206395 -0.588421911910352
12645674666.666666 0.8028437568013556 -0.5961894851177099 -5.645261060146561e-17 7.60529519646194e-17 -5.645261060146561e-17 7.60529519646194e-17 0.802844145190331 -0.5961889621029888
12646292000.0 0.7970592374856702 -0.6039011276182505 -5.569917296445559e-17 7.658360147748423e-17 -5.569917296445559e-17 7.658360147748423e-17 0.7970596308792115 -0.603900608397216
12646909333.333334 0.7912006473818207 -0.6115566495284138 -5.494075714334188e-17 7.710679454680341e-17 -5.494075714334188e-17 7.710679454680341e-17 0.7912010457428825 -0.6115561341489442
12647526666.666666 0.7852685309291744 -0.6191553394198979 -5.417743685763961e-17 7.762248456973961e-17 -5.417743685763961e-17 7.762248456973961e-17 0.785268934220253 -0.6191548279295092
12648144000.0 0.7792634393998699 -0.6266964911458489 -5.340928626213521e-17 7.813062567159124e-17 -5.340928626213521e-17 7.813062567159124e-17 0.7792638475830085 -0.6266959835916925
12648761333.333334 0.7731859308477147 -0.6341794039063295 -5.2636379939706013e-17 7.863117270984522e-17 -5.2636379939706013e-17 7.863117270984522e-17 0.7731863438845049 -0.6341789003351859
12649378666.666666 0.7670365700562191 -0.641603382313579 -5.1858792894106503e-17 7.912408127815563e-17 -5.1858792894106503e-17 7.912408127815563e-17 0.767036987907806 -0.6416028827718543
12649996000.0 0.7608159284860743 -0.6489677364566787 -5.107660054268407e-17 7.960930771027385e-17 -5.107660054268407e-17 7.960930771027385e-17 0.7608163511131588 -0.6489672409903997
12650613333.333334 0.7545245842221548 -0.656271781965533 -5.028987870909606e-17 8.008680908388095e-17 -5.028987870909606e-17 8.008680908388095e-17 0.7545250115849982 -0.6562712906203438
12651230666.666666 0.7481631219197618 -0.6635148400745144 -4.949870361599457e-17 8.055654322434833e-17 -4.949870361599457e-17 8.055654322434833e-17 0.748163553978188 -0.6635143528956704
12651848000.0 0.7417321327501576 -0.6706962376856872 -4.870315187762305e-17 8.101846870845788e-17 -4.870315187762305e-17 8.101846870845788e-17 0.7417325694635594 -0.6706957547180535
12652465333.333334 0.7352322143458548 -0.677815307431105 -4.790330049244336e-17 8.147254486801061e-17 -4.790330049244336e-17 8.147254486801061e-17 0.7352326556731966 -0.677814828719151
12653082666.666666 0.7286639707449687 -0.6848713877349587 -4.709922683570882e-17 8.191873179337554e-17 -4.709922683570882e-17 8.191873179337554e-17 0.7286644166447892 -0.6848709133227534
12653700000.0 0.7220280123349425 -0.6918638228751987 -4.629100865195988e-17 8.235699033699003e-17 -4.629100865195988e-17 8.235699033699003e-17 0.7220284627653601 -0.6918633528064076
12654317333.333334 0.7153249557961585 -0.6987919630441214 -4.547872404756528e-17 8.27872821167438e-17 -4.547872404756528e-17 8.27872821167438e-17 0.7153254107148748 -0.6987914973620022
12654934666.666666 0.7085554240443154 -0.7056551644090844 -4.46624514831753e-17 8.320956951931984e-17 -4.46624514831753e-17 8.320956951931984e-17 0.7085558834086193 -0.7056547031564832
12655552000.0 0.7017200461725998 -0.7124527891722768 -4.384226976614701e-17 8.362381570346065e-17 -4.384226976614701e-17 8.362381570346065e-17 0.7017205099393699 -0.7124523323916229
12656169333.333334 0.6948194573934618 -0.7191842056297456 -4.3018258042984474e-17 8.402998460313558e-17 -4.3018258042984474e-17 8.402998460313558e-17 0.6948199255191734 -0.7191837533630494
12656786666.666666 0.6878542989792678 -0.7258487882304234 -4.219049579169053e-17 8.442804093066513e-17 -4.219049579169053e-17 8.442804093066513e-17 0.6878547714199943 -0.7258483405192717
12657404000.0 0.6808252182028627 -0.7324459176340993 -4.135906281414032e-17 8.48179501797446e-17 -4.135906281414032e-17 8.48179501797446e-17 0.6808256949142821 -0.732445474519652
12658021333.333334 0.6737328682774452 -0.7389749807689564 -4.052403922838629e-17 8.519967862841291e-17 -4.052403922838629e-17 8.519967862841291e-17 0.6737333492148421 -0.7389745422919417
12658638666.666666 0.666577908295842 -0.7454353708885649 -3.968550546097514e-17 8.557319334192786e-17 -3.968550546097514e-17 8.557319334192786e-17 0.6665783934141131 -0.7454349370892766
12659256000.0 0.659361003169111 -0.7518264876284003 -3.884354223920171e-17 8.593846217558186e-17 -3.884354223920171e-17 8.593846217558186e-17 0.6593614924227676 -0.7518260585466919
12659873333.333334 0.6520828235650021 -0.7581477370614039 -3.799823058336238e-17 8.629545377743186e-17 -3.799823058336238e-17 8.629545377743186e-17 0.6520833169081774 -0.7581473127366887
12660490666.666666 0.6447440458455108 -0.7643985317532962 -3.714965179898342e-17 8.664413759095276e-17 -3.714965179898342e-17 8.664413759095276e-17 0.6447445432319618 -0.764398112224541
12661108000.0 0.637345352003867 -0.7705782908172925 -3.629788746900095e-17 8.698448385762496e-17 -3.629788746900095e-17 8.698448385762496e-17 0.6373458533869796 -0.7705778761230144
12661725333.333334 0.629887429601529 -0.7766864399677733 -3.5443019445954675e-17 8.731646361943008e-17 -3.5443019445954675e-17 8.731646361943008e-17 0.6298879349343212 -0.7766860301460358
12662342666.666666 0.6223709717039151 -0.7827224115739616 -3.458512984412207e-17 8.764004872128545e-17 -3.458512984412207e-17 8.764004872128545e-17 0.6223714809390447 -0.782722006662374
12662960000.0 0.6147966768161753 -0.7886856447125304 -3.372430103165569e-17 8.795521181339127e-17 -3.372430103165569e-17 8.795521181339127e-17 0.6147971899059407 -0.7886852447482401
12663577333.333334 0.6071652488183221 -0.7945755852196927 -3.2860615622699404e-17 8.826192635350078e-17 -3.2860615622699404e-17 8.826192635350078e-17 0.6071657657146678 -0.794575190239384
12664194666.666666 0.5994773968996852 -0.8003916857428057 -3.199415646946236e-17 8.856016660912264e-17 -3.199415646946236e-17 8.856016660912264e-17 0.5994779175542074 -0.8003912957826966
12664812000.0 0.5917338354930721 -0.806133405791183 -3.112500665429549e-17 8.884990765963579e-17 -3.112500665429549e-17 8.884990765963579e-17 0.5917343598570218 -0.8061330208870202
12665429333.333334 0.5839352842084233 -0.8118002117862874 -3.025324948174725e-17 8.913112539832897e-17 -3.025324948174725e-17 8.913112539832897e-17 0.5839358122327127 -0.8117998319733472
12666046666.666666 0.5760824677659178 -0.8173915771113409 -2.937896847059398e-17 8.940379653436539e-17 -2.937896847059398e-17 8.940379653436539e-17 0.5760829994011226 -0.81739120242442
12666664000.0 0.5681761159284351 -0.8229069821603847 -2.8502247345834685e-17 8.966789859467327e-17 -2.8502247345834685e-17 8.966789859467327e-17 0.5681766511248013 -0.822906612633802
12667281333.333334 0.5602169634341372 -0.8283459143862958 -2.7623170030733872e-17 8.992340992574047e-17 -2.7623170030733872e-17 8.992340992574047e-17 0.5602175021415844 -0.828345550053887
12667898666.666666 0.5522057499278156 -0.8337078683486755 -2.6741820638763974e-17 9.017030969535544e-17 -2.6741820638763974e-17 9.017030969535544e-17 0.5522062920959416 -0.8337075092437901
12668516000.0 0.5441432198922233 -0.8389923457607694 -2.5858283465584228e-17 9.04085778942546e-17 -2.5858283465584228e-17 9.04085778942546e-17 0.5441437654703092 -0.8389919919162673
12669133333.333334 0.5360301225791743 -0.8441988555355836 -2.497264298101322e-17 9.063819533768945e-17 -2.497264298101322e-17 9.063819533768945e-17 0.5360306715161902 -0.8441985069838343
12669750666.666666 0.5278672119395398 -0.8493269138317769 -2.4084983820954606e-17 9.085914366692426e-17 -2.4084983820954606e-17 9.085914366692426e-17 0.527867764184148 -0.8493265706046534
12670368000.0 0.5196552465533442 -0.8543760440985084 -2.319539077932067e-17 9.107140535065252e-17 -2.319539077932067e-17 9.107140535065252e-17 0.5196558020539048 -0.8543757062273868
12670985333.333334 0.5113949895594194 -0.8593457771196389 -2.230394879996453e-17 9.127496368632847e-17 -2.230394879996453e-17 9.127496368632847e-17 0.5113955482639944 -0.8593454446353929
