! Parameters = {f0=12700.012000; bw=77.238000; Q=6100.000000; N=10; m_0_1=1.219314; m_1_1=-0.475031; m_1_2=1.054126; m_2_2=-0.475680; m_2_3=0.691089; m_2_8=-0.001971; m_2_9=0.034733; m_3_3=-0.477617; m_3_4=0.579618; m_3_7=-0.001371; m_3_8=-0.098459; m_3_9=-0.001971; m_4_4=-0.480542; m_4_5=0.415953; m_4_6=0.002146; m_4_7=-0.119008; m_4_8=-0.001371; m_5_5=-0.480160; m_5_6=0.823308; m_5_7=0.002146; m_6_6=-0.480161; m_6_7=0.416295; m_7_7=-0.480528; m_7_8=0.579736; m_8_8=-0.477619; m_8_9=0.691402; m_9_9=-0.475685; m_9_10=1.055204; m_10_10=-0.475041; m_10_11=1.220109}
!
! Created with skrf (http://scikit-rf.org).
# Hz S RI R 50.0 
!freq ReS11 ImS11 ReS21 ImS21 ReS12 ImS12 ReS22 ImS22
12607400000.0 0.9995850936474353 -0.02880348169380297 -8.224318915904613e-17 2.6964256522590515e-17 -8.224318915904613e-17 2.6964256522590515e-17 0.9995851121533655 -0.028802839463856582
12608017333.333334 0.9992844548296775 -0.03782298686764771 -8.197798683476182e-17 2.770720008712926e-17 -8.197798683476182e-17 2.770720008712926e-17 0.9992844791294193 -0.037822344862297796
12608634666.666666 0.9989024324300793 -0.04683941166483477 -8.170607904828834e-17 2.844755122592441e-17 -8.170607904828834e-17 2.844755122592441e-17 0.9989024625210852 -0.04683876993634285
12609252000.0 0.9984390575613168 -0.05585202177098601 -8.142749100632893e-17 2.91852494728498e-17 -8.142749100632893e-17 2.91852494728498e-17 0.9984390934405691 -0.05585138037158597
12609869333.333334 0.9978943679615621 -0.06486008318242824 -8.114224846033903e-17 2.99202346057186e-17 -8.114224846033903e-17 2.99202346057186e-17 0.9978944096255726 -0.06485944216432207
12610486666.666666 0.9972684079914169 -0.07386286226582985 -8.085037770417641e-17 3.0652446651184223e-17 -8.085037770417641e-17 3.0652446651184223e-17 0.9972684554362267 -0.07386222168118341
12611104000.0 0.996561228630281 -0.08285962581826145 -8.055190557170168e-17 3.1381825889632446e-17 -8.055190557170168e-17 3.1381825889632446e-17 0.9965612818514589 -0.08285898571920006
12611721333.333334 0.9957728874722229 -0.09184964112651195 -8.024685943434839e-17 3.210831286001618e-17 -8.024685943434839e-17 3.210831286001618e-17 0.9957729464648698 -0.0918490015651164
12612338666.666666 0.9949034487212753 -0.10083217602704592 -7.993526719863252e-17 3.2831848364710425e-17 -7.993526719863252e-17 3.2831848364710425e-17 0.9949035134800225 -0.10083153705534816
12612956000.0 0.9939529831862037 -0.1098064989656039 -7.961715730362626e-17 3.355237347432274e-17 -7.961715730362626e-17 3.355237347432274e-17 0.9939530537052121 -0.10980586063558259
12613573333.333334 0.992921568274751 -0.1187718790566396 -7.929255871839761e-17 3.426982953245929e-17 -7.929255871839761e-17 3.426982953245929e-17 0.9929216445477144 -0.11877124142021628
12614190666.666666 0.9918092879873277 -0.12772758614295845 -7.896150093938961e-17 3.498415816050718e-17 -7.896150093938961e-17 3.498415816050718e-17 0.991809370007471 -0.1277269492519929
12614808000.0 0.9906162329101682 -0.13667289085515408 -7.862401398776639e-17 3.5695301262369057e-17 -7.862401398776639e-17 3.5695301262369057e-17 0.9906163206702487 -0.13667225476144026
12615425333.333334 0.9893425002079558 -0.14560706467100953 -7.828012840672052e-17 3.640320102916356e-17 -7.828012840672052e-17 3.640320102916356e-17 0.9893425937002661 -0.1456064294262718
12616042666.666666 0.9879881936159113 -0.15452937997483018 -7.792987525873002e-17 3.7107799943920466e-17 -7.792987525873002e-17 3.7107799943920466e-17 0.9879882928322755 -0.15452874563071825
12616660000.0 0.9865534234313411 -0.1634391101167013 -7.75732861227771e-17 3.7809040786238176e-17 -7.75732861227771e-17 3.7809040786238176e-17 0.9865535283631188 -0.16343847672478662
12617277333.333334 0.98503830650465 -0.1723355294716959 -7.721039309152382e-17 3.850686663691949e-17 -7.721039309152382e-17 3.850686663691949e-17 0.9850384171427367 -0.17233489708346736
12617894666.666666 0.9834429662298512 -0.18121791349883137 -7.684122876845296e-17 3.920122088256753e-17 -7.684122876845296e-17 3.920122088256753e-17 0.9834430825646788 -0.18121728216569125
12618512000.0 0.9817675325344669 -0.1900855388003571 -7.646582626495022e-17 3.989204722018681e-17 -7.646582626495022e-17 3.989204722018681e-17 0.9817676545560041 -0.1900849085736166
12619129333.333334 0.9800121418689952 -0.19893768318038957 -7.60842191973687e-17 4.0579289661713674e-17 -7.60842191973687e-17 4.0579289661713674e-17 0.9800122695667486 -0.19893705411126475
12619746666.666666 0.9781769371957804 -0.20777362570384136 -7.5696441684036e-17 4.1262892538548915e-17 -7.5696441684036e-17 4.1262892538548915e-17 0.9781770705587937 -0.20777299784344877
12620364000.0 0.9762620679773413 -0.21659264675524625 -7.53025283422212e-17 4.194280050606211e-17 -7.53025283422212e-17 4.194280050606211e-17 0.9762622069942003 -0.21659202015459936
12620981333.333334 0.9742676901642616 -0.22539402809708833 -7.490251428507816e-17 4.2618958548037494e-17 -7.490251428507816e-17 4.2618958548037494e-17 0.9742678348230928 -0.22539340280709316
12621598666.666666 0.9721939661824304 -0.23417705292857474 -7.449643511852458e-17 4.329131198113314e-17 -7.449643511852458e-17 4.329131198113314e-17 0.9721941164709 -0.23417642900002517
12622216000.0 0.9700410649198393 -0.2429410059438739 -7.408432693810029e-17 4.39598064592795e-17 -7.408432693810029e-17 4.39598064592795e-17 0.9700412208251575 -0.2429403834274481
12622833333.333334 0.9678091617128189 -0.25168517339042684 -7.366622632577763e-17 4.462438797806009e-17 -7.366622632577763e-17 4.462438797806009e-17 0.9678093232217392 -0.25168455233668297
12623450666.666666 0.9654984383317914 -0.26040884312693857 -7.324217034673523e-17 4.528500287906094e-17 -7.324217034673523e-17 4.528500287906094e-17 0.9654986054306136 -0.26040822358631105
12624068000.0 0.9631090829664055 -0.26911130468162436 -7.281219654609331e-17 4.5941597854186784e-17 -7.281219654609331e-17 4.5941597854186784e-17 0.9631092556409752 -0.26911068670441946
12624685333.333334 0.960641290210245 -0.2777918493099344 -7.237634294560287e-17 4.6594119949959225e-17 -7.237634294560287e-17 4.6594119949959225e-17 0.9606414684459537 -0.27779123294632563
12625302666.666666 0.9580952610450227 -0.28644977005210986 -7.193464804031793e-17 4.724251657175091e-17 -7.193464804031793e-17 4.724251657175091e-17 0.9580954448268114 -0.2864491553521349
12625920000.0 0.9554712028241102 -0.29508436179114333 -7.148715079519508e-17 4.7886735488041547e-17 -7.148715079519508e-17 4.7886735488041547e-17 0.9554713921364693 -0.2950837488046991
12626537333.333334 0.9527693292557539 -0.303694921309821 -7.103389064169525e-17 4.8526724834580534e-17 -7.103389064169525e-17 4.8526724834580534e-17 0.9527695240827263 -0.3036943100866606
12627154666.666666 0.9499898603856319 -0.31228074734816047 -7.057490747431524e-17 4.916243311856906e-17 -7.057490747431524e-17 4.916243311856906e-17 0.9499900607108116 -0.31228013793788795
12627772000.0 0.9471330225788724 -0.3208411406606821 -7.011024164709431e-17 4.979380922278845e-17 -7.011024164709431e-17 4.979380922278845e-17 0.9471332283854076 -0.3208405331127493
12628389333.333334 0.9441990485017439 -0.3293754040729794 -6.963993397009955e-17 5.042080240967674e-17 -6.963993397009955e-17 5.042080240967674e-17 0.9441992597723391 -0.3293747984366819
12629006666.666666 0.9411881771025842 -0.337882842538877 -6.916402570583972e-17 5.1043362325419194e-17 -6.916402570583972e-17 5.1043362325419194e-17 0.941188393819499 -0.3378822388633494
12629624000.0 0.9381006535923975 -0.3463627631968462 -6.868255856567933e-17 5.1661439003956325e-17 -6.868255856567933e-17 5.1661439003956325e-17 0.9381008757374498 -0.3463621615310587
12630241333.333334 0.934936729424887 -0.35481447542643335 -6.819557470619207e-17 5.2274982870991386e-17 -6.819557470619207e-17 5.2274982870991386e-17 0.934936956979455 -0.35481387581918766
12630858666.666666 0.9316966622759968 -0.3632372909044526 -6.770311672549787e-17 5.2883944747938647e-17 -6.770311672549787e-17 5.2883944747938647e-17 0.9316968952210216 -0.3632366934043788
12631476000.0 0.9283807160228277 -0.3716305236613108 -6.72052276595319e-17 5.348827585587962e-17 -6.72052276595319e-17 5.348827585587962e-17 0.9283809543388111 -0.37162992831686187
12632093333.333334 0.9249891607222747 -0.37999349013652767 -6.670195097832969e-17 5.4087927819419116e-17 -6.670195097832969e-17 5.4087927819419116e-17 0.9249894043892842 -0.37999289699597666
12632710666.666666 0.9215222725889763 -0.38832550923456705 -6.619333058223436e-17 5.4682852670562365e-17 -6.619333058223436e-17 5.4682852670562365e-17 0.9215225215866445 -0.38832491834600225
12633328000.0 0.9179803339727612 -0.3966259023804363 -6.567941079807778e-17 5.527300285254458e-17 -6.567941079807778e-17 5.527300285254458e-17 0.9179805882802895 -0.3966253137917585
12633945333.333334 0.914363633335751 -0.4048939935747148 -6.516023637534857e-17 5.585833122360069e-17 -6.516023637534857e-17 5.585833122360069e-17 0.9143638929319107 -0.4048934073336328
12634562666.666666 0.9106724652288273 -0.41312910944871456 -6.463585248230481e-17 5.643879106072579e-17 -6.463585248230481e-17 5.643879106072579e-17 0.9106727300919595 -0.4131285256027409
12635180000.0 0.9069071302676033 -0.42133057931939677 -6.410630470206398e-17 5.701433606338575e-17 -6.410630470206398e-17 5.701433606338575e-17 0.9069074003756238 -0.4213299979158445
12635797333.333334 0.9030679351080009 -0.42949773524386436 -6.357163902864932e-17 5.758492035720452e-17 -6.357163902864932e-17 5.758492035720452e-17 0.9030682104384006 -0.4294971563298435
12636414666.666666 0.8991551924212797 -0.4376299120737623 -6.303190186302766e-17 5.815049849758727e-17 -6.303190186302766e-17 5.815049849758727e-17 0.8991554729511255 -0.4376293356961747
12637032000.0 0.8951692208685085 -0.44572644750957513 -6.248714000908239e-17 5.871102547334256e-17 -6.248714000908239e-17 5.871102547334256e-17 0.8951695065744465 -0.44572587371511196
12637649333.333334 0.8911103450746609 -0.45378668215446344 -6.193740066957915e-17 5.926645671023999e-17 -6.193740066957915e-17 5.926645671023999e-17 0.8911106359329187 -0.45378611098960114
12638266666.666666 0.8869788956021704 -0.46180995956799353 -6.138273144209065e-17 5.981674807454161e-17 -6.138273144209065e-17 5.981674807454161e-17 0.8869791915885571 -0.4618093910789894
12638884000.0 0.8827752089240021 -0.46979562631959737 -6.082318031489092e-17 6.036185587649256e-17 -6.082318031489092e-17 6.036185587649256e-17 0.8827755100139126 -0.4697950605524869
12639501333.333334 0.87849962739624 -0.4777430320418148 -6.025879566281956e-17 6.090173687377427e-17 -6.025879566281956e-17 6.090173687377427e-17 0.8784999335646553 -0.4777424690424065
12640118666.666666 0.8741524992302993 -0.4856515294830862 -5.968962624311927e-17 6.143634827491601e-17 -5.968962624311927e-17 6.143634827491601e-17 0.8741528104517897 -0.4856509692969594
12640736000.0 0.8697341784642934 -0.49352047456096354 -5.911572119122088e-17 6.196564774268674e-17 -5.911572119122088e-17 6.196564774268674e-17 0.8697344947130204 -0.49351991723346395
12641353333.333334 0.8652450249346143 -0.5013492264138206 -5.8537130016553e-17 6.248959339739889e-17 -5.8537130016553e-17 6.248959339739889e-17 0.8652453461843321 -0.5013486719900565
12641970666.666666 0.8606854042462799 -0.5091371474536657 -5.795390259825082e-17 6.30081438202391e-17 -5.795390259825082e-17 6.30081438202391e-17 0.8606857304703384 -0.5091365959785046
12642588000.0 0.8560556877433114 -0.5168836034177955 -5.73660891808889e-17 6.35212580565094e-17 -5.73660891808889e-17 6.35212580565094e-17 0.856056018914657 -0.51688305493586
12643205333.333334 0.8513562524784771 -0.5245879634204758 -5.677374037016652e-17 6.402889561884733e-17 -5.677374037016652e-17 6.402889561884733e-17 0.8513565885696569 -0.5245874179761408
12643822666.666666 0.8465874811825258 -0.5322496000044188 -5.617690712856016e-17 6.453101649040852e-17 -5.617690712856016e-17 6.453101649040852e-17 0.8465878221656896 -0.5322490576418082
12644440000.0 0.8417497622330915 -0.5398678891917649 -5.557564077095603e-17 6.50275811280032e-17 -5.557564077095603e-17 6.50275811280032e-17 0.8417501080799921 -0.539867349954746
12645057333.333334 0.8368434896230459 -0.5474422105349215 -5.4969992960262156e-17 6.551855046518546e-17 -5.4969992960262156e-17 6.551855046518546e-17 0.8368438403050431 -0.5474416744671037
12645674666.666666 0.8318690629284293 -0.5549719471670738 -5.436001570297685e-17 6.600388591531625e-17 -5.436001570297685e-17 6.600388591531625e-17 0.8318694184164929 -0.554971414311804
12646292000.0 0.8268268872757388 -0.5624564858526837 -5.3745761344726254e-17 6.648354937458789e-17 -5.3745761344726254e-17 6.648354937458789e-17 0.8268272475404485 -0.5624559562530423
12646909333.333334 0.8217173733092249 -0.5698952170369799 -5.312728256581149e-17 6.695750322497858e-17 -5.312728256581149e-17 6.695750322497858e-17 0.821717738320775 -0.5698946907357784
12647526666.666666 0.8165409371572336 -0.5772875348959349 -5.2504632376686305e-17 6.742571033720042e-17 -5.2504632376686305e-17 6.742571033720042e-17 0.8165413068854354 -0.5772870119357125
12648144000.0 0.8112980003983439 -0.5846328373855559 -5.187786411343171e-17 6.788813407358732e-17 -5.187786411343171e-17 6.788813407358732e-17 0.8112983748126276 -0.5846323178085756
12648761333.333334 0.8059889900271012 -0.5919305262908241 -5.12470314332016e-17 6.834473829094428e-17 -5.12470314332016e-17 6.834473829094428e-17 0.805989369096517 -0.5919300101390682
12649378666.666666 0.8006143384192385 -0.599180007274412 -5.061218830965511e-17 6.87954873433454e-17 -5.061218830965511e-17 6.87954873433454e-17 0.8006147221124611 -0.5991794945895804
12649996000.0 0.7951744832963838 -0.6063806899252057 -4.997338902833574e-17 6.924034608491207e-17 -4.997338902833574e-17 6.924034608491207e-17 0.7951748715817154 -0.6063801807487126
12650613333.333334 0.7896698676904756 -0.6135319878062951 -4.933068818205088e-17 6.967927987252866e-17 -4.933068818205088e-17 6.967927987252866e-17 0.7896702605358474 -0.6135314821792646
12651230666.666666 0.7841009399076861 -0.6206333185027384 -4.8684140666228777e-17 7.011225456851686e-17 -4.8684140666228777e-17 7.011225456851686e-17 0.7841013372806596 -0.6206328164660002
12651848000.0 0.778468153491834 -0.6276841036690781 -4.80338016742235e-17 7.053923654328532e-17 -4.80338016742235e-17 7.053923654328532e-17 0.7784685553596058 -0.6276836052631668
12652465333.333334 0.7727719671875372 -0.6346837690763353 -4.7379726692637366e-17 7.096019267790921e-17 -4.7379726692637366e-17 7.096019267790921e-17 0.7727723735169423 -0.6346832743414862
12653082666.666666 0.767012844902874 -0.6416317446587548 -4.672197149659297e-17 7.137509036668574e-17 -4.672197149659297e-17 7.137509036668574e-17 0.7670132556603866 -0.6416312536348998
12653700000.0 0.7611912556714189 -0.6485274645604516 -4.606059214498233e-17 7.178389751964479e-17 -4.606059214498233e-17 7.178389751964479e-17 0.7611916708231544 -0.648526977287216
12654317333.333334 0.755307673614294 -0.6553703671811854 -4.539564497572371e-17 7.218658256499884e-17 -4.539564497572371e-17 7.218658256499884e-17 0.7553080931260154 -0.6553698836978861
12654934666.666666 0.7493625779013797 -0.662159895222322 -4.4727186600957915e-17 7.258311445157302e-17 -4.4727186600957915e-17 7.258311445157302e-17 0.7493630017384979 -0.6621594155679633
12655552000.0 0.7433564527122851 -0.6688954957322157 -4.4055273902241725e-17 7.297346265117868e-17 -4.4055273902241725e-17 7.297346265117868e-17 0.7433568808398606 -0.6688950199454856
12656169333.333334 0.737289787197103 -0.6755766201510304 -4.3379964025740354e-17 7.33575971609327e-17 -4.3379964025740354e-17 7.33575971609327e-17 0.7372902195798519 -0.6755761482702985
12656786666.666666 0.7311630754363095 -0.6822027243557124 -4.2701314377361843e-17 7.373548850555385e-17 -4.2701314377361843e-17 7.373548850555385e-17 0.7311635120386044 -0.6822022564190272
12657404000.0 0.7249768164007346 -0.6887732687040733 -4.201938261789266e-17 7.410710773960202e-17 -4.201938261789266e-17 7.410710773960202e-17 0.7249772571866079 -0.6887728047491574
12658021333.333334 0.7187315139108092 -0.6952877180788647 -4.1334226658120605e-17 7.447242644966958e-17 -4.1334226658120605e-17 7.447242644966958e-17 0.7187319588439564 -0.6952872581431134
12658638666.666666 0.71242767659565 -0.701745541931235 -4.064590465393247e-17 7.483141675653114e-17 -4.064590465393247e-17 7.483141675653114e-17 0.7124281256394316 -0.7017450860517123
12659256000.0 0.7060658178514402 -0.7081462143241442 -3.9954475001372004e-17 7.518405131725962e-17 -3.9954475001372004e-17 7.518405131725962e-17 0.7060662709688859 -0.7081457625375799
12659873333.333334 0.6996464557997922 -0.7144892139750101 -3.925999633171809e-17 7.553030332727606e-17 -3.925999633171809e-17 7.553030332727606e-17 0.6996469129536044 -0.7144887663177983
12660490666.666666 0.693170113245558 -0.7207740242981708 -3.856252750652866e-17 7.587014652236416e-17 -3.856252750652866e-17 7.587014652236416e-17 0.6931705743981129 -0.7207735808063644
12661108000.0 0.6866373176340403 -0.7270001334471459 -3.7862127612634576e-17 7.620355518065413e-17 -3.7862127612634576e-17 7.620355518065413e-17 0.6866377827473934 -0.7269996941564566
12661725333.333334 0.6800486010083506 -0.7331670343560346 -3.71588559571907e-17 7.653050412452519e-17 -3.71588559571907e-17 7.653050412452519e-17 0.6800490700442374 -0.7331665993018271
12662342666.666666 0.6734044999657643 -0.7392742247811006 -3.645277206263433e-17 7.685096872249866e-17 -3.645277206263433e-17 7.685096872249866e-17 0.6734049728856047 -0.7392737939983917
12662960000.0 0.666705555614248 -0.7453212073414623 -3.5743935661673856e-17 7.716492489106365e-17 -3.5743935661673856e-17 7.716492489106365e-17 0.66670603237915 -0.7453207808649174
12663577333.333334 0.6599523135282889 -0.7513074895596996 -3.503240669224618e-17 7.747234909646305e-17 -3.503240669224618e-17 7.747234909646305e-17 0.6599527940990504 -0.7513070674236297
12664194666.666666 0.6531453237044804 -0.7572325839019398 -3.4318245292461606e-17 7.777321835643279e-17 -3.4318245292461606e-17 7.777321835643279e-17 0.6531458080415943 -0.7572321661403004
12664812000.0 0.6462851405167312 -0.7630960078175664 -3.3601511795536154e-17 7.806751024189333e-17 -3.3601511795536154e-17 7.806751024189333e-17 0.6462856285803867 -0.7630955944639524
12665429333.333334 0.6393723226710939 -0.7688972837785345 -3.2882266724696343e-17 7.835520287860053e-17 -3.2882266724696343e-17 7.835520287860053e-17 0.6393728144211808 -0.7688968748661787
12666046666.666666 0.6324074331603718 -0.7746359393181731 -3.2160570788105913e-17 7.863627494873473e-17 -3.2160570788105913e-17 7.863627494873473e-17 0.6324079285564835 -0.7746355348799435
12666664000.0 0.6253910392180262 -0.7803115070698596 -3.1436484873720906e-17 7.891070569246673e-17 -3.1436484873720906e-17 7.891070569246673e-17 0.6253915382194634 -0.7803111071382567
12667281333.333334 0.6183237122723113 -0.7859235248048169 -3.071007004419927e-17 7.917847490945036e-17 -3.071007004419927e-17 7.917847490945036e-17 0.6183242148380844 -0.7859231294119705
12667898666.666666 0.6112060278994247 -0.7914715354700044 -2.998138753174171e-17 7.943956296028962e-17 -2.998138753174171e-17 7.943956296028962e-17 0.6112065339882592 -0.7914711446476729
12668516000.0 0.6040385657767665 -0.7969550872252379 -2.925049873294287e-17 7.969395076795021e-17 -2.925049873294287e-17 7.969395076795021e-17 0.6040390753471037 -0.7969547010048026
12669133333.333334 0.5968219096358385 -0.8023737334798975 -2.851746520365367e-17 7.994161981911539e-17 -2.851746520365367e-17 7.994161981911539e-17 0.5968224226458414 -0.8023733518923641
12669750666.666666 0.5895566472145061 -0.80772703292946 -2.778234865377797e-17 8.018255216551454e-17 -2.778234865377797e-17 8.018255216551454e-17 0.5895571636220603 -0.8077266560054518
12670368000.0 0.5822433702092175 -0.8130145495913659 -2.7045210942112885e-17 8.041673042518431e-17 -2.7045210942112885e-17 8.041673042518431e-17 0.582243889971937 -0.8130141773611244
