! Parameters = {f0=12700.012000; bw=77.238000; Q=6100.000000; N=10; m_0_1=1.223719; m_1_1=-0.408965; m_1_2=1.058531; m_2_2=-0.409614; m_2_3=0.695494; m_2_8=-0.001750; m_2_9=0.034954; m_3_3=-0.411551; m_3_4=0.584023; m_3_7=-0.001150; m_3_8=-0.098238; m_3_9=-0.001750; m_4_4=-0.414476; m_4_5=0.420358; m_4_6=0.002367; m_4_7=-0.118787; m_4_8=-0.001150; m_5_5=-0.414094; m_5_6=0.827713; m_5_7=0.002367; m_6_6=-0.414095; m_6_7=0.420700; m_7_7=-0.414462; m_7_8=0.584141; m_8_8=-0.411553; m_8_9=0.695807; m_9_9=-0.409619; m_9_10=1.059609; m_10_10=-0.408975; m_10_11=1.224514}
!
! Created with skrf (http://scikit-rf.org).
# Hz S RI R 50.0 
!freq ReS11 ImS11 ReS21 ImS21 ReS12 ImS12 ReS22 ImS22
12607400000.0 -0.8996094175627063 -0.43669542685071 8.72741479719167e-17 1.4434872800259398e-17 8.72741479719167e-17 1.4434872800259398e-17 -0.8996091359771459 -0.4366960069273455
12608017333.333334 -0.9035695018332321 -0.4284415425197247 8.7386727190469e-17 1.3624885406531098e-17 8.7386727190469e-17 1.3624885406531098e-17 -0.9035692255833815 -0.4284421251213322
12608634666.666666 -0.9074538589602479 -0.4201517509876538 8.749179489496906e-17 1.2814050970570678e-17 8.749179489496906e-17 1.2814050970570678e-17 -0.9074535880687359 -0.4201523360651613
12609252000.0 -0.9112621634002164 -0.41182674701261807 8.758934505126047e-17 1.2002439096504485e-17 8.758934505126047e-17 1.2002439096504485e-17 -0.9112618978892204 -0.411827334516751
12609869333.333334 -0.9149940959835009 -0.4034672283038264 8.767937226965626e-17 1.1190119427597758e-17 8.767937226965626e-17 1.1190119427597758e-17 -0.9149938358747459 -0.40346781818511174
12610486666.666666 -0.9186493439410618 -0.3950738954632328 8.776187180514558e-17 1.0377161640304588e-17 8.776187180514558e-17 1.0377161640304588e-17 -0.9186490892558161 -0.39507448767200254
12611104000.0 -0.9222276009307884 -0.386647451926531 8.783683955754884e-17 9.563635438277357e-18 8.783683955754884e-17 9.563635438277357e-18 -0.9222273516898652 -0.38664804641292744
12611721333.333334 -0.9257285670630189 -0.3781886039045673 8.790427207161217e-17 8.749610546438773e-18 8.790427207161217e-17 8.749610546438773e-18 -0.9257283232867729 -0.3781892006185468
12612338666.666666 -0.9291519489257872 -0.36969806032389285 8.79641665370521e-17 7.935156704994365e-18 8.79641665370521e-17 7.935156704994365e-18 -0.9291517106341123 -0.3696986592152293
12612956000.0 -0.9324974596094056 -0.36117653276734585 8.801652078854302e-17 7.120343663471019e-18 8.801652078854302e-17 7.120343663471019e-18 -0.9324972268217356 -0.36117713378563665
12613573333.333334 -0.9357648187304223 -0.35262473541465583 8.806133330564768e-17 6.305241174779586e-18 8.806133330564768e-17 6.305241174779586e-18 -0.9357645914657277 -0.3526253385093247
12614190666.666666 -0.9389537524552218 -0.34404338498232273 8.809860321269658e-17 5.489918989231986e-18 8.809860321269658e-17 5.489918989231986e-18 -0.9389535307320067 -0.3440439901026239
12614808000.0 -0.9420639935229213 -0.33543320066368176 8.812833027860917e-17 4.674446848598388e-18 8.812833027860917e-17 4.674446848598388e-18 -0.9420637773592252 -0.335433807758705
12615425333.333334 -0.9450952812677829 -0.3267949040686035 8.815051491666166e-17 3.8588944801524675e-18 8.815051491666166e-17 3.8588944801524675e-18 -0.945095070681177 -0.3267955130872781
12616042666.666666 -0.9480473616410554 -0.3181292191630149 8.816515818419896e-17 3.0433315907226886e-18 8.816515818419896e-17 3.0433315907226886e-18 -0.9480471566486429 -0.3181298300541142
12616660000.0 -0.9509199872322727 -0.3094368722082266 8.817226178229308e-17 2.2278278607477215e-18 8.817226178229308e-17 2.2278278607477215e-18 -0.950919787850685 -0.3094374849203716
12617277333.333334 -0.9537129172899895 -0.30071859170003645 8.8171828055345e-17 1.4124529383338697e-18 8.8171828055345e-17 1.4124529383338697e-18 -0.9537127235353864 -0.30071920618170067
12617894666.666666 -0.9564259177419216 -0.29197510830781226 8.816385999063333e-17 5.972764333326668e-19 8.816385999063333e-17 5.972764333326668e-19 -0.9564257296299898 -0.2919757245073259
12618512000.0 -0.9590587612146537 -0.283207154812956 8.814836121780707e-17 -2.176320886160639e-19 8.814836121780707e-17 -2.176320886160639e-19 -0.9590585787606059 -0.2832077726785106
12619129333.333334 -0.9616112270525785 -0.27441546604787054 8.812533600832467e-17 -1.0322031119723857e-18 8.812533600832467e-17 -1.0322031119723857e-18 -0.9616110502711519 -0.27441608552752317
12619746666.666666 -0.9640831013364742 -0.26560077883410316 8.809478927483794e-17 -1.8463671772379887e-18 8.809478927483794e-17 -1.8463671772379887e-18 -0.9640829302419281 -0.26560139987578024
12620364000.0 -0.9664741769014273 -0.2567638319205912 8.805672657052082e-17 -2.6600548868657354e-18 8.805672657052082e-17 -2.6600548868657354e-18 -0.9664740115075441 -0.2567644544720937
12620981333.333334 -0.9687842533541289 -0.24790536592199594 8.801115408834622e-17 -3.473196911139126e-18 8.801115408834622e-17 -3.473196911139126e-18 -0.9687840936742128 -0.24790598993100363
12621598666.666666 -0.9710131370897471 -0.23902612325635897 8.795807866030525e-17 -4.285723994091185e-18 8.795807866030525e-17 -4.285723994091185e-18 -0.9710129831366199 -0.23902674867043408
12622216000.0 -0.9731606413081106 -0.23012684808301667 8.78975077565742e-17 -5.0975669593772075e-18 8.78975077565742e-17 -5.0975669593772075e-18 -0.9731604930941138 -0.23012747484960902
12622833333.333334 -0.97522658602938 -0.22120828624017874 8.782944948462719e-17 -5.908656716155947e-18 8.782944948462719e-17 -5.908656716155947e-18 -0.9752264435663742 -0.22120891430663023
12623450666.666666 -0.977210798109108 -0.21227118518253135 8.775391258829452e-17 -6.718924264946175e-18 8.775391258829452e-17 -6.718924264946175e-18 -0.9772106614084695 -0.2122718144960797
12624068000.0 -0.9791131112527807 -0.20331629391845482 8.767090644676671e-17 -7.52830070349566e-18 8.767090644676671e-17 -7.52830070349566e-18 -0.9791129803254024 -0.20331692442623878
12624685333.333334 -0.9809333660297597 -0.1943443629472225 8.758044107354417e-17 -8.336717232629493e-18 8.758044107354417e-17 -8.336717232629493e-18 -0.9809332408860484 -0.19434499459628543
12625302666.666666 -0.9826714098865843 -0.1853561441963797 8.748252711533675e-17 -9.14410516206003e-18 8.748252711533675e-17 -9.14410516206003e-18 -0.9826712905364625 -0.18535677693367492
12625920000.0 -0.9843270971598439 -0.17635239095830857 8.737717585090258e-17 -9.950395916247357e-18 8.737717585090258e-17 -9.950395916247357e-18 -0.9843269836127467 -0.1763530247307032
12626537333.333334 -0.9859002890883068 -0.1673338578274853 8.726439918984197e-17 -1.0755521040175701e-17 8.726439918984197e-17 -1.0755521040175701e-17 -0.9859001813531835 -0.16733449258176505
12627154666.666666 -0.987390853824588 -0.158301300637072 8.714420967133187e-17 -1.1559412205166912e-17 8.714420967133187e-17 -1.1559412205166912e-17 -0.9873907519098972 -0.15830193631994519
12627772000.0 -0.9887986664462182 -0.1492554763954016 8.70166204628065e-17 -1.2362001214680774e-17 8.70166204628065e-17 -1.2362001214680774e-17 -0.9887985703599329 -0.1492561129535044
12628389333.333334 -0.9901236089660552 -0.14019714322292737 8.688164535859246e-17 -1.3163220010052436e-17 8.688164535859246e-17 -1.3163220010052436e-17 -0.9901235187156592 -0.14019778060282767
12629006666.666666 -0.9913655703422398 -0.1311270602882647 8.673929877847962e-17 -1.396300067628733e-17 8.673929877847962e-17 -1.396300067628733e-17 -0.9913654859347241 -0.13112769843646643
12629624000.0 -0.9925244464874475 -0.12204598774487416 8.658959576624992e-17 -1.4761275447777553e-17 8.658959576624992e-17 -1.4761275447777553e-17 -0.9925243679293155 -0.12204662660782249
12630241333.333334 -0.9936001402776445 -0.11295468666718614 8.643255198814577e-17 -1.555797671404501e-17 8.643255198814577e-17 -1.555797671404501e-17 -0.9936000675749073 -0.11295532619127134
12630858666.666666 -0.9945925615602006 -0.10385391898698458 8.626818373129177e-17 -1.6353037025439668e-17 8.626818373129177e-17 -1.6353037025439668e-17 -0.9945924947183789 -0.1038545591185469
12631476000.0 -0.995501627161485 -0.09474444742924029 8.609650790205587e-17 -1.7146389098863488e-17 8.609650790205587e-17 -1.7146389098863488e-17 -0.9955015661856078 -0.09474508811457427
12632093333.333334 -0.9963272608937938 -0.08562703544855464 8.591754202436986e-17 -1.7937965823419162e-17 8.591754202436986e-17 -1.7937965823419162e-17 -0.9963272057883968 -0.08562767663391359
12632710666.666666 -0.997069393561753 -0.0765024471650059 8.573130423798845e-17 -1.8727700266088372e-17 8.573130423798845e-17 -1.8727700266088372e-17 -0.9970693443308821 -0.07650308879660667
12633328000.0 -0.9977279629681349 -0.06737144729996795 8.55378132966968e-17 -1.9515525677390227e-17 8.55378132966968e-17 -1.9515525677390227e-17 -0.9977279196153411 -0.06737208932399508
12633945333.333334 -0.9983029139190426 -0.05823480111227414 8.533708856647383e-17 -2.0301375496987618e-17 8.533708856647383e-17 -2.0301375496987618e-17 -0.9983028764473837 -0.058235443474884525
12634562666.666666 -0.9987941982285492 -0.04909327433394038 8.512915002359653e-17 -2.1085183359309474e-17 8.512915002359653e-17 -2.1085183359309474e-17 -0.9987941666405914 -0.04909391698126794
12635180000.0 -0.999201774722737 -0.039947633105990143 8.491401825269572e-17 -2.1866883099139357e-17 8.491401825269572e-17 -2.1866883099139357e-17 -0.9992017490205526 -0.03994827598415013
12635797333.333334 -0.9995256092431427 -0.030798643914329984 8.46917144447602e-17 -2.264640875718987e-17 8.46917144447602e-17 -2.264640875718987e-17 -0.9995255894283107 -0.030799286969423596
12636414666.666666 -0.9997656746496256 -0.021647073525454617 8.446226039509246e-17 -2.3423694585645112e-17 8.446226039509246e-17 -2.3423694585645112e-17 -0.9997656607232309 -0.02164771670357346
12637032000.0 -0.99992195082264 -0.012493688922128146 8.422567850120763e-17 -2.4198675053707008e-17 8.422567850120763e-17 -2.4198675053707008e-17 -0.9999219427852748 -0.012494332169358805
12637649333.333334 -0.9999944246649217 -0.003339257239189361 8.398199176068767e-17 -2.497128485309684e-17 8.398199176068767e-17 -2.497128485309684e-17 -0.9999944225166838 -0.0033399005016178894
12638266666.666666 -0.999983090102584 0.005815454300769381 8.373122376898277e-17 -2.5741458903547784e-17 8.373122376898277e-17 -2.5741458903547784e-17 -0.9999830938430783 0.005814811077052932
12638884000.0 -0.9998879480856286 0.014969678451702205 8.347339871716251e-17 -2.6509132358273306e-17 8.347339871716251e-17 -2.6509132358273306e-17 -0.9998879577139664 0.014969035320599278
12639501333.333334 -0.9997090065878663 0.024122648008440193 8.320854138961649e-17 -2.727424060941586e-17 8.320854138961649e-17 -2.727424060941586e-17 -0.999709022102665 0.024122005023839193
12640118666.666666 -0.9994462806062483 0.03327359587081945 8.293667716171124e-17 -2.8036719293456743e-17 8.293667716171124e-17 -2.8036719293456743e-17 -0.9994463020056326 0.03327295308659122
12640736000.0 -0.9990997921596004 0.04242175510842542 8.265783199737855e-17 -2.879650429665429e-17 8.265783199737855e-17 -2.879650429665429e-17 -0.9990998194412035 0.04242111257841886
12641353333.333334 -0.9986695702868017 0.05156635902418695 8.237203244668909e-17 -2.955353176036531e-17 8.237203244668909e-17 -2.955353176036531e-17 -0.9986696034477617 0.051565716802224264
12641970666.666666 -0.9981556510443231 0.06070664121922843 8.207930564333792e-17 -3.0307738086447634e-17 8.207930564333792e-17 -3.0307738086447634e-17 -0.9981556900812865 0.06070599935910079
12642588000.0 -0.9975580775032215 0.06984183565681706 8.177967930210805e-17 -3.105905994256594e-17 8.177967930210805e-17 -3.105905994256594e-17 -0.9975581224123431 0.06984119421228009
12643205333.333334 -0.9968768997455273 0.07897117672659187 8.147318171627611e-17 -3.180743426749868e-17 8.147318171627611e-17 -3.180743426749868e-17 -0.9968769505224702 0.07897053575136109
12643822666.666666 -0.9961121748600412 0.08809389930884211 8.115984175496632e-17 -3.2552798276426407e-17 8.115984175496632e-17 -3.2552798276426407e-17 -0.9961122314999765 0.08809325885658845
12644440000.0 -0.9952639669375545 0.09720923883848902 8.083968886046476e-17 -3.3295089466173767e-17 8.083968886046476e-17 -3.3295089466173767e-17 -0.9952640294351645 0.09720859896283449
12645057333.333334 -0.9943323470654857 0.10631643136919228 8.051275304548102e-17 -3.4034245620439504e-17 8.051275304548102e-17 -3.4034245620439504e-17 -0.9943324154149585 0.10631579212370502
12645674666.666666 -0.9933173933219126 0.11541471363737466 8.017906489036185e-17 -3.47702048149972e-17 8.017906489036185e-17 -3.47702048149972e-17 -0.9933174675169507 0.11541407507556514
12646292000.0 -0.992219190769017 0.12450332312638893 7.983865554025137e-17 -3.550290542288525e-17 7.983865554025137e-17 -3.550290542288525e-17 -0.9922192708028308 0.12450268530170483
12646909333.333334 -0.9910378314459886 0.1335814981300555 7.949155670222377e-17 -3.623228611952385e-17 7.949155670222377e-17 -3.623228611952385e-17 -0.9910379173113009 0.13358086109587763
12647526666.666666 -0.9897734143612833 0.1426484778167832 7.913780064234634e-17 -3.695828588785648e-17 7.913780064234634e-17 -3.695828588785648e-17 -0.9897735060503285 0.14264784162642083
12648144000.0 -0.988426045484326 0.1517035022933047 7.877742018270635e-17 -3.7680844023437986e-17 7.877742018270635e-17 -3.7680844023437986e-17 -0.9884261429888523 0.15170286699999136
12648761333.333334 -0.9869958377366446 0.16074581266825014 7.841044869839566e-17 -3.839990013948744e-17 7.841044869839566e-17 -3.839990013948744e-17 -0.986995941047913 0.16074517832513888
12649378666.666666 -0.9854829109824089 0.16977465111574902 7.803692011444466e-17 -3.911539417192094e-17 7.803692011444466e-17 -3.911539417192094e-17 -0.9854830200911949 0.1697740177759081
12649996000.0 -0.9838873920183616 0.17878926093908304 7.765686890270515e-17 -3.982726638436594e-17 7.765686890270515e-17 -3.982726638436594e-17 -0.9838875069149555 0.17878862865549142
12650613333.333334 -0.9822094145632043 0.18778888663401969 7.727033007869605e-17 -4.053545737312762e-17 7.727033007869605e-17 -4.053545737312762e-17 -0.9822095352374114 0.18778825545956257
12651230666.666666 -0.9804491192464121 0.19677277395201853 7.687733919840614e-17 -4.1239908072123366e-17 7.687733919840614e-17 -4.1239908072123366e-17 -0.9804492456875556 0.19677214393948314
12651848000.0 -0.9786066535963958 0.20574016996372332 7.64779323550347e-17 -4.194055975781657e-17 7.64779323550347e-17 -4.194055975781657e-17 -0.9786067857933163 0.20573954116579427
12652465333.333334 -0.9766821720281829 0.2146903231218124 7.607214617571024e-17 -4.263735405407804e-17 7.607214617571024e-17 -4.263735405407804e-17 -0.976682309969241 0.21468969559106765
12653082666.666666 -0.9746758358304829 0.2236224833239865 7.566001781815464e-17 -4.3330232937035543e-17 7.566001781815464e-17 -4.3330232937035543e-17 -0.9746759795035573 0.22362185711289223
12653700000.0 -0.9725878131521049 0.2325359019761104 7.52415849672905e-17 -4.4019138739912817e-17 7.52415849672905e-17 -4.4019138739912817e-17 -0.972587962544596 0.2325352771370175
12654317333.333334 -0.9704182789879536 0.24142983205456411 7.48168858318345e-17 -4.4704014157784514e-17 7.48168858318345e-17 -4.4704014157784514e-17 -0.9704184340867832 0.24142920863970305
12654934666.666666 -0.9681674151643014 0.25030352816912743 7.438595914081929e-17 -4.5384802252348035e-17 7.438595914081929e-17 -4.5384802252348035e-17 -0.9681675759559143 0.25030290623060436
12655552000.0 -0.965835410323543 0.2591562466254486 7.394884414007736e-17 -4.606144645665077e-17 7.394884414007736e-17 -4.606144645665077e-17 -0.9658355767939093 0.259155626215241
12656169333.333334 -0.9634224599084557 0.26798724548712616 7.350558058870771e-17 -4.673389057974437e-17 7.350558058870771e-17 -4.673389057974437e-17 -0.9634226320430703 0.26798662665707834
12656786666.666666 -0.9609287661457429 0.276795784638164 7.305620875546219e-17 -4.740207881136587e-17 7.305620875546219e-17 -4.740207881136587e-17 -0.9609289439296277 0.2767951674399827
12657404000.0 -0.9583545380291255 0.28558112584486284 7.260076941511545e-17 -4.806595572654244e-17 7.260076941511545e-17 -4.806595572654244e-17 -0.9583547214468295 0.2855805103301128
12658021333.333334 -0.9556999913018063 0.29434253281774414 7.21393038447828e-17 -4.87254662901781e-17 7.21393038447828e-17 -4.87254662901781e-17 -0.955700180337409 0.29434191903784435
12658638666.666666 -0.9529653484384355 0.30307927127312356 7.16718538202067e-17 -4.9380555861591477e-17 7.16718538202067e-17 -4.9380555861591477e-17 -0.9529655430755475 0.3030786592793428
12659256000.0 -0.9501508386263802 0.3117906089949214 7.119846161198034e-17 -5.0031170199048004e-17 7.119846161198034e-17 -5.0031170199048004e-17 -0.950151038848143 0.31178999883837316
12659873333.333334 -0.9472566977465874 0.3204758158957833 7.071916998175761e-17 -5.067725546421807e-17 7.071916998175761e-17 -5.067725546421807e-17 -0.9472569035356767 0.32047520762742243
12660490666.666666 -0.9442831683538242 0.32913416407827023 7.023402217841023e-17 -5.131875822661739e-17 7.023402217841023e-17 -5.131875822661739e-17 -0.9442833796924508 0.3291335577488882
12661108000.0 -0.9412304996562526 0.3377649278961307 6.974306193412949e-17 -5.195562546803042e-17 6.974306193412949e-17 -5.195562546803042e-17 -0.9412307165261646 0.3377643235563521
12661725333.333334 -0.9380989474946776 0.3463673840147416 6.924633346052419e-17 -5.258780458684937e-17 6.924633346052419e-17 -5.258780458684937e-17 -0.9380991698771606 0.3463667817150188
12662342666.666666 -0.9348887743209982 0.35494081147202355 6.874388144464142e-17 -5.321524340242521e-17 6.874388144464142e-17 -5.321524340242521e-17 -0.9348890021968784 0.3549402112626334
12662960000.0 -0.9316002491762619 0.36348449173873093 6.823575104497292e-17 -5.3837890159349855e-17 6.823575104497292e-17 -5.3837890159349855e-17 -0.931600482525906 0.36348389366976974
12663577333.333334 -0.9282336476681052 0.3719977087786973 6.772198788741304e-17 -5.4455693531711674e-17 6.772198788741304e-17 -5.4455693531711674e-17 -0.9282338864714242 0.3719971129000776
12664194666.666666 -0.9247892519476569 0.38047974910884585 6.720263806118046e-17 -5.5068602627311186e-17 6.720263806118046e-17 -5.5068602627311186e-17 -0.9247894961841052 0.3804791554702913
12664812000.0 -0.9212673506858892 0.38892990185898524 6.667774811470161e-17 -5.567656699183783e-17 6.667774811470161e-17 -5.567656699183783e-17 -0.9212676003344697 0.38892931051002744
12665429333.333334 -0.9176682390494155 0.3973474588314134 6.614736505145481e-17 -5.62795366130095e-17 6.614736505145481e-17 -5.62795366130095e-17 -0.9176684940886788 0.39734686982138706
12666046666.666666 -0.9139922186757966 0.4057317145601665 6.56115363257875e-17 -5.687746192466204e-17 6.56115363257875e-17 -5.687746192466204e-17 -0.9139924790838434 0.40573112793820515
12666664000.0 -0.9102395976481812 0.4140819663703244 6.507030983866939e-17 -5.74702938108278e-17 6.507030983866939e-17 -5.74702938108278e-17 -0.9102398634026646 0.41408138218535717
12667281333.333334 -0.9064106904695794 0.4223975144366953 6.45237339334515e-17 -5.805798360972922e-17 6.45237339334515e-17 -5.805798360972922e-17 -0.9064109615477066 0.42239693273744194
12667898666.666666 -0.9025058180364329 0.43067766184262096 6.397185739154858e-17 -5.864048311777528e-17 6.397185739154858e-17 -5.864048311777528e-17 -0.9025060944149679 0.43067708267758853
12668516000.0 -0.8985253076117087 0.43892171463841034 6.341472942810227e-17 -5.92177445934989e-17 6.341472942810227e-17 -5.92177445934989e-17 -0.8985255892669731 0.43892113805588895
12669133333.333334 -0.8944694927975807 0.447128981899268 6.285239968762489e-17 -5.978972076143802e-17 6.285239968762489e-17 -5.978972076143802e-17 -0.8944697797054562 0.4471284079473261
12669750666.666666 -0.8903387135073506 0.4552987757834564 6.228491823957553e-17 -6.035636481600866e-17 6.228491823957553e-17 -6.035636481600866e-17 -0.8903390056432803 0.45529820450993724
