! Parameters = {f0=12700.012000; bw=77.238000; Q=6100.000000; N=10; m_0_1=1.179274; m_1_1=-1.075632; m_1_2=1.014086; m_2_2=-1.076281; m_2_3=0.651049; m_2_8=-0.003973; m_2_9=0.032731; m_3_3=-1.078218; m_3_4=0.539578; m_3_7=-0.003373; m_3_8=-0.100461; m_3_9=-0.003973; m_4_4=-1.081143; m_4_5=0.375913; m_4_6=0.000144; m_4_7=-0.121010; m_4_8=-0.003373; m_5_5=-1.080761; m_5_6=0.783268; m_5_7=0.000144; m_6_6=-1.080762; m_6_7=0.376255; m_7_7=-1.081129; m_7_8=0.539696; m_8_8=-1.078220; m_8_9=0.651362; m_9_9=-1.076286; m_9_10=1.015164; m_10_10=-1.075642; m_10_11=1.180069}
!
! Created with skrf (http://scikit-rf.org).
# Hz S RI R 50.0 
!freq ReS11 ImS11 ReS21 ImS21 ReS12 ImS12 ReS22 ImS22
12607400000.0 0.5637451469868583 -0.8259487933574415 -2.161042052798021e-17 6.725416271038797e-17 -2.161042052798021e-17 6.725416271038797e-17 0.5637456602864954 -0.8259484430083941
12608017333.333334 0.5572517386208341 -0.8303436034581735 -2.1072323513614376e-17 6.741020068101522e-17 -2.1072323513614376e-17 6.741020068101522e-17 0.5572522546264304 -0.8303432571615232
12608634666.666666 0.5507240711397179 -0.8346873651057282 -2.0533111955817288e-17 6.756193784761485e-17 -2.0533111955817288e-17 6.756193784761485e-17 0.5507245898192853 -0.8346870228823657
12609252000.0 0.5441625458560997 -0.8389798112512934 -1.9992820193926234e-17 6.770936635456644e-17 -1.9992820193926234e-17 6.770936635456644e-17 0.544163067177491 -0.8389794731218592
12609869333.333334 0.537567566164081 -0.8432206780008857 -1.9451482621720993e-17 6.785247862015033e-17 -1.9451482621720993e-17 6.785247862015033e-17 0.5375680900949886 -0.8432203439857656
12610486666.666666 0.530939537514592 -0.8474097046314956 -1.8909133685250975e-17 6.799126733691387e-17 -1.8909133685250975e-17 6.799126733691387e-17 0.5309400640225515 -0.8474093747508201
12611104000.0 0.5242788673902012 -0.8515466336072828 -1.8365807880628995e-17 6.812572547202906e-17 -1.8365807880628995e-17 6.812572547202906e-17 0.5242793964425926 -0.8515463078809268
12611721333.333334 0.5175859652804249 -0.8556312105951837 -1.782153975187123e-17 6.825584626761977e-17 -1.782153975187123e-17 6.825584626761977e-17 0.5175864968444753 -0.8556308890427649
12612338666.666666 0.5108612426561903 -0.8596631844807717 -1.7276363888688383e-17 6.838162324108351e-17 -1.7276363888688383e-17 6.838162324108351e-17 0.5108617766989756 -0.8596628671216489
12612956000.0 0.5041051129448059 -0.8636423073835332 -1.6730314924294308e-17 6.850305018539112e-17 -1.6730314924294308e-17 6.850305018539112e-17 0.5041056494332524 -0.8636419942368057
12613573333.333334 0.49731799150442046 -0.867568334672178 -1.6183427533230304e-17 6.862012116936457e-17 -1.6183427533230304e-17 6.862012116936457e-17 0.4973185304053086 -0.8675680257566851
12614190666.666666 0.49050029559851704 -0.871441024979669 -1.5635736429150586e-17 6.873283053794622e-17 -1.5635736429150586e-17 6.873283053794622e-17 0.49050083687848023 -0.8714407203139857
12614808000.0 0.48365244437025295 -0.8752601402180542 -1.5087276362635476e-17 6.884117291244387e-17 -1.5087276362635476e-17 6.884117291244387e-17 0.4836529879957834 -0.875259839820495
12615425333.333334 0.47677485881669723 -0.8790254455931099 -1.453808211899331e-17 6.894514319076035e-17 -1.453808211899331e-17 6.894514319076035e-17 0.47677540475414565 -0.8790251494817246
12616042666.666666 0.4698679617629468 -0.8827367096187756 -1.3988188516053274e-17 6.904473654760772e-17 -1.3988188516053274e-17 6.904473654760772e-17 0.4698685099785245 -0.8827364178113472
12616660000.0 0.46293217783612906 -0.8863937041313791 -1.3437630401976567e-17 6.913994843469939e-17 -1.3437630401976567e-17 6.913994843469939e-17 0.4629327282959113 -0.8863934166454259
12617277333.333334 0.4559679334392746 -0.8899962043036842 -1.2886442653045004e-17 6.923077458092965e-17 -1.2886442653045004e-17 6.923077458092965e-17 0.45596848610920204 -0.8899959211564568
12617894666.666666 0.4489756567252275 -0.8935439886586439 -1.2334660171470334e-17 6.931721099253131e-17 -1.2334660171470334e-17 6.931721099253131e-17 0.4489762115711079 -0.8935437098671244
12618512000.0 0.4419557775700437 -0.8970368390831592 -1.1782317883169233e-17 6.93992539532217e-17 -1.1782317883169233e-17 6.93992539532217e-17 0.44195633455755473 -0.8970365646640602
12619129333.333334 0.4349087275469195 -0.9004745408413097 -1.1229450735587107e-17 6.94769000243233e-17 -1.1229450735587107e-17 6.94769000243233e-17 0.4349092866416103 -0.9004742708110732
12619746666.666666 0.4278349398994039 -0.9038568825876815 -1.0676093695473881e-17 6.955014604487397e-17 -1.0676093695473881e-17 6.955014604487397e-17 0.4278355010666975 -0.903856616962478
12620364000.0 0.42073484951476275 -0.9071836563803597 -1.0122281746679276e-17 6.961898913171692e-17 -1.0122281746679276e-17 6.961898913171692e-17 0.4207354127199581 -0.9071833951760883
12620981333.333334 0.4136088928974736 -0.9104546576936026 -9.568049887965676e-18 6.968342667957069e-17 -9.568049887965676e-18 6.968342667957069e-17 0.4136094581057479 -0.9104544009258879
12621598666.666666 0.40645750814213305 -0.9136696854305368 -9.013433130783314e-18 6.974345636108682e-17 -9.013433130783314e-18 6.974345636108682e-17 0.40645807531854394 -0.9136694331147305
12622216000.0 0.3992811349066524 -0.9168285419354618 -8.458466497075197e-18 6.979907612688599e-17 -8.458466497075197e-18 6.979907612688599e-17 0.39928170401613955 -0.9168282940866387
12622833333.333334 0.39208021438517493 -0.919931033006021 -7.903185017070365e-18 6.985028420557811e-17 -7.903185017070365e-18 6.985028420557811e-17 0.39208078539256286 -0.9199307896389811
12623450666.666666 0.38485518928108337 -0.9229769679050881 -7.347623727079503e-18 6.98970791037651e-17 -7.347623727079503e-18 6.98970791037651e-17 0.3848557621510835 -0.9229767290343545
12624068000.0 0.37760650377952215 -0.9259661593726062 -6.791817667292983e-18 6.993945960602571e-17 -6.791817667292983e-18 6.993945960602571e-17 0.3776070784767346 -0.9259659250124234
12624685333.333334 0.3703346035203498 -0.9288984236369843 -6.235801879567585e-18 6.997742477488376e-17 -6.235801879567585e-18 6.997742477488376e-17 0.3703351800092659 -0.9288981938013189
12625302666.666666 0.36303993557061126 -0.9317735804264545 -5.6796114052458645e-18 7.00109739507568e-17 -5.6796114052458645e-18 7.00109739507568e-17 0.363040513815616 -0.9317733551289937
12625920000.0 0.3557229483970795 -0.9345914529801442 -5.1232812829246035e-18 7.004010675189092e-17 -5.1232812829246035e-18 7.004010675189092e-17 0.35572352836245275 -0.9345912322342937
12626537333.333334 0.34838409183865665 -0.9373518680589497 -4.5668465462820724e-18 7.006482307427418e-17 -4.5668465462820724e-18 7.006482307427418e-17 0.34838467348857644 -0.937351651877835
12627154666.666666 0.3410238170788529 -0.9400546559561406 -4.010342221866615e-18 7.008512309153529e-17 -4.010342221866615e-18 7.008512309153529e-17 0.341024400377397 -0.9400544443526049
12627772000.0 0.3336425766177538 -0.9426996505078993 -3.4538033268865427e-18 7.010100725482467e-17 -3.4538033268865427e-18 7.010100725482467e-17 0.33364316152890255 -0.9426994434945036
12628389333.333334 0.3262408242446026 -0.9452866891033909 -2.897264867041328e-18 7.01124762926761e-17 -2.897264867041328e-18 7.01124762926761e-17 0.32624141073224044 -0.9452864866924131
12629006666.666666 0.31881901500950044 -0.947815612694906 -2.3407618342965937e-18 7.011953121085411e-17 -2.3407618342965937e-18 7.011953121085411e-17 0.31881960303741863 -0.9478154148983394
12629624000.0 0.3113776051957248 -0.950286265807532 -1.7843292047126215e-18 7.012217329218087e-17 -1.7843292047126215e-18 7.012217329218087e-17 0.31137819472762307 -0.9502860726370845
12630241333.333334 0.30391705229151667 -0.9526984965487677 -1.2280019362428572e-18 7.01204040963482e-17 -1.2280019362428572e-18 7.01204040963482e-17 0.30391764329100623 -0.9526983080158632
12630858666.666666 0.29643781496211774 -0.9550521566178117 -6.718149665483362e-19 7.011422545971082e-17 -6.718149665483362e-19 7.011422545971082e-17 0.2964384073927227 -0.9550519727335858
12631476000.0 0.2889403530212729 -0.9573471013147686 -1.1580321080030393e-19 7.010363949506295e-17 -1.1580321080030393e-19 7.010363949506295e-17 0.2889409468464335 -0.9573469220900719
12632093333.333334 0.281425127403315 -0.9595831895494399 4.399984404869984e-19 7.008864859139733e-17 4.399984404869984e-19 7.008864859139733e-17 0.28142572258638904 -0.9595830149948344
12632710666.666666 0.2738926001346645 -0.961760283850046 9.955551236490519e-19 7.006925541364727e-17 9.955551236490519e-19 7.006925541364727e-17 0.27389319663892997 -0.9617601139758063
12633328000.0 0.2663432343052881 -0.9638782503717195 1.5508320040612228e-18 7.004546290241115e-17 1.5508320040612228e-18 7.004546290241115e-17 0.26634383209394524 -0.9638780851878314
12633945333.333334 0.25877749404047323 -0.9659369589046587 2.105794278298362e-18 7.001727427365974e-17 2.105794278298362e-18 7.001727427365974e-17 0.2587780930766473 -0.9659367984208193
12634562666.666666 0.2511958444721594 -0.9679362828821776 2.6604071763194948e-18 6.998469301842687e-17 2.6604071763194948e-18 6.998469301842687e-17 0.2511964447189021 -0.9679361271077922
12635180000.0 0.24359875171036824 -0.9698760993884726 3.2146359636375952e-18 6.994772290248218e-17 3.2146359636375952e-18 6.994772290248218e-17 0.2435993531306606 -0.9698759483326576
12635797333.333334 0.23598668281454838 -0.9717562891661848 3.768445943490257e-18 6.990636796598696e-17 3.768445943490257e-18 6.990636796598696e-17 0.23598728537130303 -0.9717561428377652
12636414666.666666 0.22836010576486135 -0.9735767366237293 4.3218024589952566e-18 6.986063252313399e-17 4.3218024589952566e-18 6.986063252313399e-17 0.22836070942092457 -0.9735765950312386
12637032000.0 0.22071948943341016 -0.9753373298424005 4.8746708953325024e-18 6.981052116176748e-17 4.8746708953325024e-18 6.981052116176748e-17 0.22072009415156443 -0.9753371929940805
12637649333.333334 0.21306530355541442 -0.9770379605832556 5.427016681882846e-18 6.975603874298978e-17 5.427016681882846e-18 6.975603874298978e-17 0.21306590929838054 -0.9770378284870561
12638266666.666666 0.20539801870033117 -0.9786785242937677 5.978805294392994e-18 6.969719040074793e-17 5.978805294392994e-18 6.969719040074793e-17 0.20539862543077048 -0.9786783969573445
12638884000.0 0.19771810624292482 -0.980258920114252 6.530002257124807e-18 6.963398154140486e-17 6.530002257124807e-18 6.963398154140486e-17 0.19771871392344176 -0.980258797544969
12639501333.333334 0.19002603833426013 -0.9817790508840747 7.080573145004615e-18 6.956641784329271e-17 7.080573145004615e-18 6.956641784329271e-17 0.19002664692740406 -0.9817789330890002
12640118666.666666 0.18232228787284188 -0.9832388231475919 7.630483585754763e-18 6.949450525625159e-17 7.630483585754763e-18 6.949450525625159e-17 0.18232289734110996 -0.983238710133501
12640736000.0 0.17460732847509516 -0.9846381471599799 8.179699262064328e-18 6.941825000114516e-17 8.179699262064328e-18 6.941825000114516e-17 0.17460793878093467 -0.984638038933354
12641353333.333334 0.16688163444691906 -0.9859769368926304 8.728185913676746e-18 6.933765856937041e-17 8.728185913676746e-18 6.933765856937041e-17 0.16688224555272899 -0.9859768334596545
12641970666.666666 0.15914568075393892 -0.9872551100385422 9.275909339561641e-18 6.92527377223381e-17 9.275909339561641e-18 6.92527377223381e-17 0.15914629262207305 -0.9872550114051071
12642588000.0 0.15139994299258677 -0.9884725880173361 9.822835400021116e-18 6.916349449094553e-17 9.822835400021116e-18 6.916349449094553e-17 0.1514005555853555 -0.9884724941890359
12643205333.333334 0.14364489736083358 -0.9896292959800871 1.0368930018812916e-17 6.906993617502881e-17 1.0368930018812916e-17 6.906993617502881e-17 0.1436455106405068 -0.9896292069622218
12643822666.666666 0.13588102062880159 -0.9907251628139477 1.0914159185274793e-17 6.897207034279827e-17 1.0914159185274793e-17 6.897207034279827e-17 0.13588163455761018 -0.9907250786115188
12644440000.0 0.1281087901095926 -0.9917601211464921 1.1458488956424116e-17 6.886990483025927e-17 1.1458488956424116e-17 6.886990483025927e-17 0.12810940464973153 -0.9917600417642057
12645057333.333334 0.12032868362991629 -0.992734107349868 1.2001885459074218e-17 6.876344774061451e-17 1.2001885459074218e-17 6.876344774061451e-17 0.1203292987435466 -0.9927340327921341
12645674666.666666 0.11254117950071386 -0.9936470615447096 1.254431489192379e-17 6.865270744365187e-17 1.254431489192379e-17 6.865270744365187e-17 0.112541795149965 -0.9936469918156405
12646292000.0 0.10474675648755431 -0.9944989276038387 1.3085743527674197e-17 6.853769257511034e-17 1.3085743527674197e-17 6.853769257511034e-17 0.10474737263452645 -0.9944988627072491
12646909333.333334 0.09694589378159602 -0.9952896531556719 1.3626137715092695e-17 6.84184120360393e-17 1.3626137715092695e-17 6.84184120360393e-17 0.0969465103883624 -0.9952895930950784
12647526666.666666 0.0891390709697025 -0.9960191895874831 1.416546388111664e-17 6.829487499213128e-17 1.416546388111664e-17 6.829487499213128e-17 0.08913968799831212 -0.9960191343661083
12648144000.0 0.08132676800526983 -0.9966874920483678 1.4703688532930592e-17 6.816709087304306e-17 1.4703688532930592e-17 6.816709087304306e-17 0.08132738541774917 -0.9966874416691329
12648761333.333334 0.07350946517857751 -0.9972945194520066 1.5240778260031836e-17 6.803506937170179e-17 1.5240778260031836e-17 6.803506937170179e-17 0.07351008293693316 -0.9972944739175356
12649378666.666666 0.06568764308728933 -0.99784023447919 1.5776699736297666e-17 6.789882044359331e-17 1.5776699736297666e-17 6.789882044359331e-17 0.06568826115351047 -0.9978401937918101
12649996000.0 0.0578617826069073 -0.9983246035801184 1.6311419722056123e-17 6.775835430603147e-17 1.6311419722056123e-17 6.775835430603147e-17 0.05786240094296772 -0.9983245677418563
12650613333.333334 0.05003236486117888 -0.9987475969764561 1.6844905066133215e-17 6.761368143741601e-17 1.6844905066133215e-17 6.761368143741601e-17 0.05003298342903968 -0.9987475659890432
12651230666.666666 0.042199871192660846 -0.9991091886631669 1.7377122707903458e-17 6.74648125764717e-17 1.7377122707903458e-17 6.74648125764717e-17 0.042200489954272453 -0.9991091625280335
12651848000.0 0.03436478313284251 -0.9994093564101161 1.7908039679329863e-17 6.731175872147205e-17 1.7908039679329863e-17 6.731175872147205e-17 0.034365402050147195 -0.9994093351283949
12652465333.333334 0.02652758237279751 -0.9996480817634292 1.8437623107009103e-17 6.715453112944485e-17 1.8437623107009103e-17 6.715453112944485e-17 0.026528201407731745 -0.9996480653359563
12653082666.666666 0.018688750733570184 -0.99982535004663 1.896584021417912e-17 6.699314131536911e-17 1.896584021417912e-17 6.699314131536911e-17 0.01868936984806687 -0.9998253384739412
12653700000.0 0.010848770136269672 -0.99994115036155 1.9492658322769573e-17 6.682760105134299e-17 1.9492658322769573e-17 6.682760105134299e-17 0.010849389292260517 -0.9999411436438814
12654317333.333334 0.0030081225728397125 -0.9999954755889832 2.001804485538822e-17 6.665792236575197e-17 2.001804485538822e-17 6.665792236575197e-17 0.0030087417322576357 -0.9999954737262751
12654934666.666666 -0.004832709923857585 -0.999988322389136 2.0541967337347608e-17 6.648411754240733e-17 2.0541967337347608e-17 6.648411754240733e-17 -0.004832090799076188 -0.9999883253810309
12655552000.0 -0.01267324530967663 -0.999919691201833 2.106439339866552e-17 6.630619911967445e-17 2.106439339866552e-17 6.630619911967445e-17 -0.012672626257589506 -0.9999196990476709
12656169333.333334 -0.02051300155856795 -0.9997895862464797 2.1585290776041195e-17 6.612417988959096e-17 2.1585290776041195e-17 6.612417988959096e-17 -0.020512382617224663 -0.9997895989453046
12656786666.666666 -0.028351496692496758 -0.9995980155218116 2.2104627314859877e-17 6.593807289695814e-17 2.2104627314859877e-17 6.593807289695814e-17 -0.028350877899936382 -0.9995980330723706
12657404000.0 -0.036188248810932265 -0.9993449908054013 2.2622370971161403e-17 6.574789143842528e-17 2.2622370971161403e-17 6.574789143842528e-17 -0.036187630205180975 -0.999345013206141
12658021333.333334 -0.04402277612053099 -0.999030527652929 2.3138489813612422e-17 6.555364906155535e-17 2.3138489813612422e-17 6.555364906155535e-17 -0.044022157739599804 -0.9990305549020002
12658638666.666666 -0.05185459696461507 -0.9986546453972396 2.365295202546904e-17 6.535535956387623e-17 2.365295202546904e-17 6.535535956387623e-17 -0.05185397884649744 -0.9986546774924933
12659256000.0 -0.05968322985306753 -0.9982173671471333 2.4165725906529295e-17 6.515303699191614e-17 2.4165725906529295e-17 6.515303699191614e-17 -0.05968261203573709 -0.9982174040861244
12659873333.333334 -0.06750819349164988 -0.9977187197859635 2.4676779875089033e-17 6.4946695640221e-17 2.4676779875089033e-17 6.4946695640221e-17 -0.06750757601305807 -0.9977187615659484
12660490666.666666 -0.07532900681173359 -0.9971587339699761 2.518608246985976e-17 6.473635005036679e-17 2.518608246985976e-17 6.473635005036679e-17 -0.07532838970980725 -0.9971587805879143
12661108000.0 -0.0831451889998468 -0.9965374441264253 2.569360235192622e-17 6.452201500993889e-17 2.569360235192622e-17 6.452201500993889e-17 -0.08314457231248598 -0.9965374955789789
12661725333.333334 -0.0909562595272344 -0.9958548884514565 2.6199308306640392e-17 6.430370555151784e-17 2.6199308306640392e-17 6.430370555151784e-17 -0.09095564329230998 -0.9958549447349907
12662342666.666666 -0.09876173817940027 -0.9951111089077602 2.6703169245554496e-17 6.408143695163093e-17 2.6703169245554496e-17 6.408143695163093e-17 -0.09876112243475155 -0.9951111700183435
12662960000.0 -0.10656114508563007 -0.9943061512219901 2.720515420831617e-17 6.385522472970089e-17 2.720515420831617e-17 6.385522472970089e-17 -0.1065605298690627 -0.9943062171553961
12663577333.333334 -0.11435400074849347 -0.9934400648819549 2.770523236456573e-17 6.362508464697522e-17 2.770523236456573e-17 6.362508464697522e-17 -0.11435338609777668 -0.9934401356336586
12664194666.666666 -0.12213982607332241 -0.9925129031335702 2.8203373015822764e-17 6.339103270544141e-17 2.8203373015822764e-17 6.339103270544141e-17 -0.12213921202618716 -0.9925129786987529
12664812000.0 -0.12991814239766586 -0.9915247229775912 2.86995455973637e-17 6.31530851467277e-17 2.86995455973637e-17 6.31530851467277e-17 -0.12991752899180226 -0.991524803351138
12665429333.333334 -0.13768847152074498 -0.9904755851661003 2.919371968009014e-17 6.291125845098881e-17 2.919371968009014e-17 6.291125845098881e-17 -0.13768785879380022 -0.9904756703426023
12666046666.666666 -0.14545033573271215 -0.9893655541987956 2.9685864972388205e-17 6.266556933577774e-17 2.9685864972388205e-17 6.266556933577774e-17 -0.1454497237222877 -0.9893656441725472
12666664000.0 -0.15320325784432876 -0.9881946983189761 3.0175951321978e-17 6.2416034754902e-17 3.0175951321978e-17 6.2416034754902e-17 -0.15320264658797864 -0.9881947930839791
12667281333.333334 -0.16094676121590906 -0.9869630895094091 3.066394871775437e-17 6.216267189726707e-17 3.066394871775437e-17 6.216267189726707e-17 -0.16094615075113702 -0.9869631890593696
12667898666.666666 -0.16868036978690412 -0.9856708034878596 3.1149827291615587e-17 6.190549818570496e-17 3.1149827291615587e-17 6.190549818570496e-17 -0.16867976015116184 -0.9856709078161918
12668516000.0 -0.176403608105169 -0.9843179197024335 3.16335573202932e-17 6.164453127578357e-17 3.16335573202932e-17 6.164453127578357e-17 -0.17640299933585352 -0.9843180288022584
12669133333.333334 -0.1841160013559417 -0.9829045213267404 3.2115109227145925e-17 6.137978905461616e-17 3.2115109227145925e-17 6.137978905461616e-17 -0.1841153934903929 -0.9829046351908851
12669750666.666666 -0.19181707539131268 -0.9814306952547248 3.259445358397826e-17 6.111128963963745e-17 3.259445358397826e-17 6.111128963963745e-17 -0.19181646846681166 -0.9814308138757258
12670368000.0 -0.19950635675923659 -0.979896532095356 3.3071561112824925e-17 6.083905137737945e-17 3.3071561112824925e-17 6.083905137737945e-17 -0.19950575081300273 -0.9798966554654573
