! Parameters = {f0=12700.012000; bw=77.238000; Q=6100.000000; N=10; m_0_1=1.314610; m_1_1=0.954398; m_1_2=1.149422; m_2_2=0.953749; m_2_3=0.786385; m_2_8=0.002794; m_2_9=0.039498; m_3_3=0.951812; m_3_4=0.674914; m_3_7=0.003394; m_3_8=-0.093694; m_3_9=0.002794; m_4_4=0.948887; m_4_5=0.511249; m_4_6=0.006911; m_4_7=-0.114243; m_4_8=0.003394; m_5_5=0.949269; m_5_6=0.918604; m_5_7=0.006911; m_6_6=0.949268; m_6_7=0.511591; m_7_7=0.948901; m_7_8=0.675032; m_8_8=0.951810; m_8_9=0.786698; m_9_9=0.953744; m_9_10=1.150500; m_10_10=0.954388; m_10_11=1.315405}
!
! Created with skrf (http://scikit-rf.org).
# Hz S RI R 50.0 
!freq ReS11 ImS11 ReS21 ImS21 ReS12 ImS12 ReS22 ImS22
12607400000.0 0.49623510097448104 -0.8681881849925492 -3.114249199106451e-17 1.322623578192729e-16 -3.114249199106451e-17 1.322623578192729e-16 0.4962357022211083 -0.8681878413344282
12608017333.333334 0.48591970367641 -0.874003456273968 -2.9556580108279337e-17 1.3259851019107116e-16 -2.9556580108279337e-17 1.3259851019107116e-16 0.48592030892066 -0.8740031197760458
12608634666.666666 0.475536168386762 -0.8796961705929203 -2.7967082313913274e-17 1.3291565766844418e-16 -2.7967082313913274e-17 1.3291565766844418e-16 0.4755367775433779 -0.8796958413016802
12609252000.0 0.46508595113475865 -0.8852655296897582 -2.6374226221152408e-17 1.33213762558537e-16 -2.6374226221152408e-17 1.33213762558537e-16 0.46508656411794247 -0.8852652076506666
12609869333.333334 0.454570517300058 -0.8907107526023071 -2.477823983192211e-17 1.3349278989293103e-16 -2.477823983192211e-17 1.3349278989293103e-16 0.45457113402348404 -0.8907104378598103
12610486666.666666 0.4439913414074261 -0.8960310757753019 -2.3179351504318453e-17 1.3375270743154922e-16 -2.3179351504318453e-17 1.3375270743154922e-16 0.4439919617842524 -0.8960307683728177
12611104000.0 0.4333499069195911 -0.9012257531676474 -2.1577789919921637e-17 1.3399348566618413e-16 -2.1577789919921637e-17 1.3399348566618413e-16 0.43335053086247177 -0.90122545314756
12611721333.333334 0.4226477060297315 -0.9062940563567746 -1.9973784051209497e-17 1.3421509782361405e-16 -1.9973784051209497e-17 1.3421509782361405e-16 0.4226483334508301 -0.9062937637604307
12612338666.666666 0.4118862394518808 -0.911235274640967 -1.8367563128812896e-17 1.3441751986835026e-16 -1.8367563128812896e-17 1.3441751986835026e-16 0.41188687026288084 -0.9112349895086665
12612956000.0 0.4010670162105114 -0.9160487151389978 -1.675935660880433e-17 1.346007305049839e-16 -1.675935660880433e-17 1.346007305049839e-16 0.40106765032263003 -0.9160484375099909
12613573333.333334 0.39019155342916556 -0.9207337028871845 -1.514939413999784e-17 1.3476471118013846e-16 -1.514939413999784e-17 1.3476471118013846e-16 0.3901921907531659 -0.9207334327996656
12614190666.666666 0.3792613761174589 -0.9252895809341539 -1.3537905531165621e-17 1.3490944608404125e-16 -1.3537905531165621e-17 1.3490944608404125e-16 0.37926201656366243 -0.9252893184252562
12614808000.0 0.36827801695739193 -0.9297157104328948 -1.1925120718282732e-17 1.3503492215169732e-16 -1.1925120718282732e-17 1.3503492215169732e-16 0.36827866043569096 -0.9297154555386846
12615425333.333334 0.35724301608829767 -0.9340114707303906 -1.0311269731782068e-17 1.3514112906367257e-16 -1.0311269731782068e-17 1.3514112906367257e-16 0.35724366250816836 -0.9340112234858642
12616042666.666666 0.34615792089103536 -0.9381762594545905 -8.696582663774091e-18 1.3522805924648855e-16 -8.696582663774091e-18 1.3522805924648855e-16 0.3461585701615501 -0.9381760198936667
12616660000.0 0.3350242857709028 -0.9422094925989161 -7.081289635289876e-18 1.352957078726253e-16 -7.081289635289876e-18 1.352957078726253e-16 0.3350249378007436 -0.9422092607544351
12617277333.333334 0.32384367193967056 -0.946110604604156 -5.4656207635251026e-18 1.3534407286013364e-16 -5.4656207635251026e-18 1.3534407286013364e-16 0.323844326637141 -0.9461103805078709
12617894666.666666 0.31261764719679525 -0.9498790484377214 -3.8498061291243925e-18 1.3537315487185597e-16 -3.8498061291243925e-18 1.3537315487185597e-16 0.3126183044698338 -0.9498788321202958
12618512000.0 0.30134778570927895 -0.9535142956704559 -2.2340757434028223e-18 1.353829573142597e-16 -2.2340757434028223e-18 1.353829573142597e-16 0.3013484454654723 -0.9535140871614608
12619129333.333334 0.2900356677913097 -0.9570158365506086 -6.186595157248037e-19 1.3537348633587718e-16 -6.186595157248037e-19 1.3537348633587718e-16 0.2900363299379052 -0.9570156358785166
12619746666.666666 0.27868287968241945 -0.9603831800753931 9.96212779220594e-19 1.353447508253592e-16 9.96212779220594e-19 1.353447508253592e-16 0.27868354412633867 -0.9603829872675763
12620364000.0 0.2672910133249445 -0.9636158540598715 2.6103115340546296e-18 1.3529676240913732e-16 2.6103115340546296e-18 1.3529676240913732e-16 0.26729167997279557 -0.9636156691425949
12620981333.333334 0.25586166614120354 -0.9667134052030403 4.223407341272723e-18 1.3522953544870006e-16 4.223407341272723e-18 1.3522953544870006e-16 0.2558623348992953 -0.9667132282014619
12621598666.666666 0.24439644080911932 -0.9696753991515129 5.835271025859377e-18 1.351430870374777e-16 5.835271025859377e-18 1.351430870374777e-16 0.24439711158347283 -0.9696752300896759
12622216000.0 0.232896945037645 -0.9725014205603725 7.445673677761179e-18 1.3503743699734322e-16 7.445673677761179e-18 1.3503743699734322e-16 0.232897617734009 -0.9725012594612071
12622833333.333334 0.22136479134127088 -0.9751910731514349 9.054386684374714e-18 1.3491260787472348e-16 9.054386684374714e-18 1.3491260787472348e-16 0.22136546586513292 -0.9751909200367501
12623450666.666666 0.20980159681401842 -0.9777439797687834 1.0661181762937256e-17 1.3476862493632719e-16 1.0661181762937256e-17 1.3476862493632719e-16 0.20980227307061974 -0.977743834659269
12624068000.0 0.19820898290257505 -0.9801597824316899 1.226583099289239e-17 1.3460551616448528e-16 1.226583099289239e-17 1.3460551616448528e-16 0.1982096607969228 -0.9801596453469097
12624685333.333334 0.18658857517878577 -0.9824381423848328 1.3868106848198956e-17 1.3442331225210425e-16 1.3868106848198956e-17 1.3442331225210425e-16 0.18658925461566692 -0.9824380133432243
12625302666.666666 0.1749420031121544 -0.9845787401457126 1.5467782229468177e-17 1.3422204659724825e-16 1.5467782229468177e-17 1.3422204659724825e-16 0.1749426839961487 -0.9845786191645821
12625920000.0 0.16327089984082102 -0.9865812755495513 1.706463049621843e-17 1.3400175529731688e-16 1.706463049621843e-17 1.3400175529731688e-16 0.16327158207631495 -0.9865811626450754
12626537333.333334 0.15157690194297513 -0.9884454677913095 1.865842549884602e-17 1.337624771428649e-16 1.865842549884602e-17 1.337624771428649e-16 0.15157758543417485 -0.9884453629785294
12627154666.666666 0.13986164920719898 -0.9901710554650913 2.0248941610651045e-17 1.3350425361102546e-16 2.0248941610651045e-17 1.3350425361102546e-16 0.13986233385814403 -0.9901709587579128
12627772000.0 0.12812678440235975 -0.9917577966008245 2.183595375975309e-17 1.3322712885855458e-16 2.183595375975309e-17 1.3322712885855458e-16 0.12812747011693634 -0.9917577080120148
12628389333.333334 0.11637395304767423 -0.9932054686981281 2.3419237460840108e-17 1.3293114971451086e-16 2.3419237460840108e-17 1.3293114971451086e-16 0.116374639729629 -0.993205388239316
12629006666.666666 0.1046048031814316 -0.9945138687575884 2.499856884694976e-17 1.32616365672535e-16 2.499856884694976e-17 1.32616365672535e-16 0.10460549073438473 -0.99451379643926
12629624000.0 0.09282098513037625 -0.9956828133091572 2.6573724701014565e-17 1.32282828882778e-16 2.6573724701014565e-17 1.32282828882778e-16 0.09282167345783542 -0.9956827491406579
12630241333.333334 0.0810241512780094 -0.9967121384379191 2.814448248740404e-17 1.319305941434356e-16 2.814448248740404e-17 1.319305941434356e-16 0.08102484028338304 -0.9967120824274499
12630858666.666666 0.06921595583308171 -0.9976016998070547 2.971062038329376e-17 1.315597188919228e-16 2.971062038329376e-17 1.315597188919228e-16 0.06921664541969266 -0.9976016519616717
12631476000.0 0.05739805459732064 -0.998351372678104 3.1271917309987894e-17 1.3117026319565994e-16 3.1271917309987894e-17 1.3117026319565994e-16 0.05739874466841967 -0.9983513330037184
12632093333.333334 0.0455721047336144 -0.9989610519284321 3.2828152964034154e-17 1.307622897425102e-16 3.2828152964034154e-17 1.307622897425102e-16 0.0455727951923938 -0.9989610204298084
12632710666.666666 0.03373976453349502 -0.999430652065983 3.43791078482837e-17 1.3033586383083255e-16 3.43791078482837e-17 1.3033586383083255e-16 0.03374045528310217 -0.999430628746738
12633328000.0 0.021902693184349033 -0.999760107241274 3.5924563302838255e-17 1.2989105335916126e-16 3.5924563302838255e-17 1.2989105335916126e-16 0.02190338412790006 -0.9997600921038794
12633945333.333334 0.010062550537184313 -0.9999493712566143 3.7464301535777767e-17 1.2942792881554445e-16 3.7464301535777767e-17 1.2942792881554445e-16 0.010063241577777557 -0.9999493643023926
12634562666.666666 -0.0017790031263778662 -0.9999984175725923 3.8998105653841156e-17 1.2894656326649446e-16 3.8998105653841156e-17 1.2894656326649446e-16 -0.001778312085648171 -0.9999984188017189
12635180000.0 -0.013620307326858623 -0.9999072393117935 4.0525759692922835e-17 1.2844703234558742e-16 4.0525759692922835e-17 1.2844703234558742e-16 -0.013619616382888814 -0.9999072487232975
12635797333.333334 -0.02545970161979037 -0.9996758492597707 4.2047048648454566e-17 1.2792941424169367e-16 4.2047048648454566e-17 1.2792941424169367e-16 -0.025459010869453718 -0.9996758668515316
12636414666.666666 -0.03729552582843849 -0.999304279863242 4.356175850558413e-17 1.2739378968686622e-16 4.356175850558413e-17 1.2739378968686622e-16 -0.03729483536857169 -0.9993043056319947
12637032000.0 -0.04912612027676992 -0.9987925832255483 4.5069676269274394e-17 1.268402419438493e-16 4.5069676269274394e-17 1.268402419438493e-16 -0.04912543020415947 -0.998792617166881
12637649333.333334 -0.06094982602203892 -0.9981408310993474 4.6570589994190886e-17 1.2626885679324903e-16 4.6570589994190886e-17 1.2626885679324903e-16 -0.06094913643340752 -0.9981408732077018
12638266666.666666 -0.0727649850875535 -0.997349114876541 4.806428881444999e-17 1.2567972252034354e-16 4.806428881444999e-17 1.2567972252034354e-16 -0.07276429607954664 -0.9973491651452161
12638884000.0 -0.08456994069499517 -0.9964175455754765 4.9550562973195246e-17 1.2507292990154574e-16 4.9550562973195246e-17 1.2507292990154574e-16 -0.08456925236416742 -0.9964176039966262
12639501333.333334 -0.09636303749688167 -0.9953462538253635 5.1029203852028646e-17 1.2444857219050535e-16 5.1029203852028646e-17 1.2444857219050535e-16 -0.09636234993968329 -0.9953463203900007
12640118666.666666 -0.10814262180846185 -0.994135389847984 5.2500004000187485e-17 1.2380674510389883e-16 5.2500004000187485e-17 1.2380674510389883e-16 -0.10814193512122501 -0.9941354645459783
12640736000.0 -0.11990704184019627 -0.9927851234365592 5.3962757163709024e-17 1.2314754680680353e-16 5.3962757163709024e-17 1.2314754680680353e-16 -0.11990635611912195 -0.9927852062566433
12641353333.333334 -0.1316546479284189 -0.9912956439320485 5.5417258314185815e-17 1.2247107789782901e-16 5.5417258314185815e-17 1.2247107789782901e-16 -0.1316539632695632 -0.9912957348618161
12641970666.666666 -0.1433837927675083 -0.9896671601965051 5.686330367754823e-17 1.2177744139381252e-16 5.686330367754823e-17 1.2177744139381252e-16 -0.14338310926676892 -0.9896672592224145
12642588000.0 -0.15509283164056936 -0.98789990058382 5.830069076252866e-17 1.2106674271423528e-16 5.830069076252866e-17 1.2106674271423528e-16 -0.15509214939367222 -0.9879000076911946
12643205333.333334 -0.16678012264995162 -0.9859941129077187 5.97292183889706e-17 1.2033908966528586e-16 5.97292183889706e-17 1.2033908966528586e-16 -0.1667794417524375 -0.9859942280807513
12643822666.666666 -0.17844402694770836 -0.9839500644069795 6.114868671596696e-17 1.195945924235759e-16 6.114868671596696e-17 1.195945924235759e-16 -0.1784433474949196 -0.9839501876287331
12644440000.0 -0.19008290896523522 -0.9817680417079822 6.255889726973202e-17 1.1883336351955715e-16 6.255889726973202e-17 1.1883336351955715e-16 -0.1900822310523025 -0.9817681729603944
12645057333.333334 -0.20169513664264652 -0.9794483507845194 6.395965297132345e-17 1.180555178205844e-16 6.395965297132345e-17 1.180555178205844e-16 -0.201694460364475 -0.9794484900484021
12645674666.666666 -0.21327908165760276 -0.976991316914896 6.535075816413377e-17 1.1726117251366173e-16 6.535075816413377e-17 1.1726117251366173e-16 -0.21327840710885884 -0.9769914641699381
12646292000.0 -0.22483311965397357 -0.9743972846362382 6.67320186411953e-17 1.1645044708784953e-16 6.67320186411953e-17 1.1645044708784953e-16 -0.2248324469290727 -0.9743974398610135
12646909333.333334 -0.23635563046894872 -0.9716666176963366 6.810324167219951e-17 1.1562346331639317e-16 6.810324167219951e-17 1.1562346331639317e-16 -0.2363549596620408 -0.9716667808683012
12647526666.666666 -0.24784499836088925 -0.9687996990024844 6.946423603038735e-17 1.1478034523847808e-16 6.946423603038735e-17 1.1478034523847808e-16 -0.24784432956584612 -0.9687998700979827
12648144000.0 -0.2592996122355618 -0.9657969305678602 7.081481201914613e-17 1.1392121914071047e-16 7.081481201914613e-17 1.1392121914071047e-16 -0.2592989455459644 -0.9657971095621288
12648761333.333334 -0.27071786587208246 -0.9626587334551516 7.215478149840211e-17 1.1304621353827318e-16 7.215478149840211e-17 1.1304621353827318e-16 -0.27071720138120725 -0.962658920322322
12649378666.666666 -0.28209815814812184 -0.959385547717522 7.348395791077749e-17 1.1215545915577283e-16 7.348395791077749e-17 1.1215545915577283e-16 -0.28209749594892736 -0.9593857424306222
12649996000.0 -0.29343889326455797 -0.9559778323368611 7.480215630752818e-17 1.1124908890777004e-16 7.480215630752818e-17 1.1124908890777004e-16 -0.29343823344967324 -0.9559780348678243
12650613333.333334 -0.3047384809691658 -0.952436065159451 7.610919337423606e-17 1.1032723787900957e-16 7.610919337423606e-17 1.1032723787900957e-16 -0.3047378236308758 -0.9524362754791152
12651230666.666666 -0.31599533677947367 -0.9487607428290019 7.740488745620536e-17 1.0939004330438635e-16 7.740488745620536e-17 1.0939004330438635e-16 -0.31599468200970754 -0.9487609609071169
12651848000.0 -0.3272078822053269 -0.9449523807168898 7.868905858373513e-17 1.0843764454852868e-16 7.868905858373513e-17 1.0843764454852868e-16 -0.3272072300956443 -0.9449526065221195
12652465333.333334 -0.3383745449698242 -0.9410115128500167 7.996152849700479e-17 1.0747018308518245e-16 7.996152849700479e-17 1.0747018308518245e-16 -0.3383738956114033 -0.9410117463499462
12653082666.666666 -0.34949375922990067 -0.9369386918358993 8.122212067078218e-17 1.0648780247625156e-16 8.122212067078218e-17 1.0648780247625156e-16 -0.3494931127135243 -0.9369389329970358
12653700000.0 -0.36056396579613587 -0.9327344887850862 8.247066033890373e-17 1.0549064835052473e-16 8.247066033890373e-17 1.0549064835052473e-16 -0.3605633222121805 -0.9327347375728683
12654317333.333334 -0.3715836123510199 -0.9283994932312168 8.37069745183786e-17 1.0447886838220792e-16 8.37069745183786e-17 1.0447886838220792e-16 -0.37158297178944116 -0.9283997496100153
12654934666.666666 -0.3825511536668646 -0.9239343130482611 8.493089203337613e-17 1.0345261226905936e-16 8.493089203337613e-17 1.0345261226905936e-16 -0.3825505162171867 -0.9239345769813884
12655552000.0 -0.3934650518225893 -0.9193395743652396 8.61422435388415e-17 1.0241203171032665e-16 8.61422435388415e-17 1.0241203171032665e-16 -0.3934644175738895 -0.9193398458149482
12656169333.333334 -0.4043237764189773 -0.9146159214785786 8.734086154386466e-17 1.013572803843935e-16 8.734086154386466e-17 1.013572803843935e-16 -0.404323145459877 -0.9146162004060743
12656786666.666666 -0.41512580479364775 -0.9097640167616206 8.852658043481296e-17 1.0028851392612033e-16 8.852658043481296e-17 1.0028851392612033e-16 -0.41512517721229775 -0.9097643031270631
12657404000.0 -0.4258696222344117 -0.9047845405718058 8.969923649814422e-17 9.920588990395248e-17 8.969923649814422e-17 9.920588990395248e-17 -0.4258689981184804 -0.9047848343343156
12658021333.333334 -0.4365537221917217 -0.8996781911552403 9.085866794297533e-17 9.810956779673253e-17 9.085866794297533e-17 9.810956779673253e-17 -0.43655310162838423 -0.8996784922729066
12658638666.666666 -0.447176606489805 -0.8944456845488583 9.200471492332052e-17 9.699970897029338e-17 9.200471492332052e-17 9.699970897029338e-17 -0.44717598956572807 -0.8944459929787403
12659256000.0 -0.45773678553696845 -0.8890877544798912 9.313721956011397e-17 9.587647665372702e-17 9.313721956011397e-17 9.587647665372702e-17 -0.45773617233830194 -0.8890880701780298
12659873333.333334 -0.4682327785343534 -0.8836051522630515 9.425602596287751e-17 9.474003591546032e-17 9.425602596287751e-17 9.474003591546032e-17 -0.46823216914671517 -0.8836054751844709
12660490666.666666 -0.47866311368342646 -0.8779986466952551 9.536098025112265e-17 9.359055363905561e-17 9.536098025112265e-17 9.359055363905561e-17 -0.47866250819189154 -0.8779989767939708
12661108000.0 -0.4890263283927146 -0.8722690239476313 9.645193057549676e-17 9.242819849872042e-17 9.645193057549676e-17 9.242819849872042e-17 -0.48902572688180423 -0.8722693611766582
12661725333.333334 -0.4993209694825224 -0.8664170874554863 9.752872713854341e-17 9.125314093466584e-17 9.752872713854341e-17 9.125314093466584e-17 -0.49932037203619084 -0.8664174317668432
12662342666.666666 -0.5095455933889766 -0.8604436578054887 9.859122221525394e-17 9.006555312812675e-17 9.859122221525394e-17 9.006555312812675e-17 -0.5095450000906008 -0.8604440091502076
12662960000.0 -0.5196987663663273 -0.8543495726206757 9.963927017326162e-17 8.886560897620217e-17 9.963927017326162e-17 8.886560897620217e-17 -0.5196981772986936 -0.8543499309488053
12663577333.333334 -0.5297790646879926 -0.8481356864429942 1.0067272749274854e-16 8.765348406644208e-17 1.0067272749274854e-16 8.765348406644208e-17 -0.5297784799332868 -0.84813605170361
12664194666.666666 -0.5397850748462999 -0.8418028706134162 1.0169145278603874e-16 8.642935565120888e-17 1.0169145278603874e-16 8.642935565120888e-17 -0.5397844944860942 -0.8418032427546263
12664812000.0 -0.5497153937505462 -0.835352013149842 1.0269530681689311e-16 8.519340262179799e-17 1.0269530681689311e-16 8.519340262179799e-17 -0.5497148178657901 -0.8353523921187955
12665429333.333334 -0.5595686289238709 -0.8287840186225067 1.0368415251946829e-16 8.394580548236126e-17 1.0368415251946829e-16 8.394580548236126e-17 -0.5595680575948768 -0.828784404365399
12666046666.666666 -0.5693433986983694 -0.8220998080272264 1.0465785501696991e-16 8.26867463235998e-17 1.0465785501696991e-16 8.26867463235998e-17 -0.569342832004804 -0.8221002004893094
12666664000.0 -0.5790383324090976 -0.8153003186560787 1.056162816400124e-16 8.141640879620848e-17 1.056162816400124e-16 8.141640879620848e-17 -0.57903777042997 -0.8153007177816677
12667281333.333334 -0.588652070585946 -0.8083865039661974 1.0655930194460161e-16 8.013497808418027e-17 1.0655930194460161e-16 8.013497808418027e-17 -0.5886515133995958 -0.8083869096986775
12667898666.666666 -0.5981832651444806 -0.8013593334459269 1.0748678772984788e-16 7.884264087783467e-17 1.0748678772984788e-16 7.884264087783467e-17 -0.5981827128285688 -0.8013597457277642
12668516000.0 -0.6076305795750675 -0.7942197924788071 1.083986130553397e-16 7.753958534665583e-17 1.083986130553397e-16 7.753958534665583e-17 -0.6076300322065639 -0.7942202112515537
12669133333.333334 -0.6169926891299432 -0.7869688822056524 1.0929465425814845e-16 7.622600111199047e-17 1.0929465425814845e-16 7.622600111199047e-17 -0.6169921467851163 -0.7869693074099561
12669750666.666666 -0.6262682810092945 -0.779607619383928 1.101747899695657e-16 7.490207921945992e-17 1.101747899695657e-16 7.490207921945992e-17 -0.6262677437637018 -0.7796080509595413
12670368000.0 -0.6354560545452345 -0.7721370362452622 1.110389011314663e-16 7.356801211123929e-17 1.110389011314663e-16 7.356801211123929e-17 -0.6354555224737101 -0.7721374741310493
