! Parameters = {f0=12700.012000; bw=77.238000; Q=6100.000000; N=10; m_0_1=1.158453; m_1_1=-1.387944; m_1_2=0.993265; m_2_2=-1.388593; m_2_3=0.630228; m_2_8=-0.005014; m_2_9=0.031690; m_3_3=-1.390530; m_3_4=0.518757; m_3_7=-0.004414; m_3_8=-0.101502; m_3_9=-0.005014; m_4_4=-1.393455; m_4_5=0.355092; m_4_6=-0.000897; m_4_7=-0.122051; m_4_8=-0.004414; m_5_5=-1.393073; m_5_6=0.762447; m_5_7=-0.000897; m_6_6=-1.393074; m_6_7=0.355434; m_7_7=-1.393441; m_7_8=0.518875; m_8_8=-1.390532; m_8_9=0.630541; m_9_9=-1.388598; m_9_10=0.994343; m_10_10=-1.387954; m_10_11=1.159248}
!
! Created with skrf (http://scikit-rf.org).
# Hz S RI R 50.0 
!freq ReS11 ImS11 ReS21 ImS21 ReS12 ImS12 ReS22 ImS22
12607400000.0 0.5738252897928097 -0.8189777388879693 -2.0112534368763024e-17 6.005532683232601e-17 -2.0112534368763024e-17 6.005532683232601e-17 0.5738257898029201 -0.8189773885504456
12608017333.333334 0.5678929720867555 -0.8231024069059241 -1.9668900502258717e-17 6.018903026293183e-17 -1.9668900502258717e-17 6.018903026293183e-17 0.5678934745904878 -0.8231020602072358
12608634666.666666 0.5619310073710378 -0.8271841046313848 -1.92243878758814e-17 6.031946042107238e-17 -1.92243878758814e-17 6.031946042107238e-17 0.5619315123419156 -0.8271837615892735
12609252000.0 0.555939706891764 -0.8312226189781851 -1.8779020612597212e-17 6.044661161190194e-17 -1.8779020612597212e-17 6.044661161190194e-17 0.5559402143031854 -0.8312222796102019
12609869333.333334 0.5499193834264057 -0.8352177391146427 -1.8332822871628053e-17 6.057047831814598e-17 -1.8332822871628053e-17 6.057047831814598e-17 0.5499198932516433 -0.835217403438143
12610486666.666666 0.5438703512677768 -0.8391692564743541 -1.788581884714078e-17 6.069105520032823e-17 -1.788581884714078e-17 6.069105520032823e-17 0.5438708634799794 -0.8391689245064992
12611104000.0 0.5377929262071726 -0.8430769647673813 -1.7438032766934965e-17 6.08083370969877e-17 -1.7438032766934965e-17 6.08083370969877e-17 0.5377934407793682 -0.8430766365251385
12611721333.333334 0.5316874255184115 -0.8469406599906841 -1.6989488891146838e-17 6.092231902488191e-17 -1.6989488891146838e-17 6.092231902488191e-17 0.5316879424235073 -0.8469403354908243
12612338666.666666 0.5255541679408411 -0.8507601404390449 -1.6540211510927588e-17 6.103299617918641e-17 -1.6540211510927588e-17 6.103299617918641e-17 0.5255546871516241 -0.8507598196981403
12612956000.0 0.5193934736628852 -0.8545352067154721 -1.6090224947137872e-17 6.114036393368032e-17 -1.6090224947137872e-17 6.114036393368032e-17 0.5193939951520257 -0.8545348897498986
12613573333.333334 0.5132056643053585 -0.8582656617416013 -1.563955354903968e-17 6.124441784092312e-17 -1.563955354903968e-17 6.124441784092312e-17 0.5132061880454097 -0.8582653485675351
12614190666.666666 0.5069910629046246 -0.8619513107680108 -1.5188221692980065e-17 6.134515363242284e-17 -1.5188221692980065e-17 6.134515363242284e-17 0.5069915888680262 -0.8619510014014299
12614808000.0 0.5007499938956602 -0.8655919613844325 -1.4736253781072276e-17 6.144256721879594e-17 -1.4736253781072276e-17 6.144256721879594e-17 0.5007505220547375 -0.8655916558411137
12615425333.333334 0.49448278309528826 -0.8691874235296965 -1.428367423989343e-17 6.153665468991226e-17 -1.428367423989343e-17 6.153665468991226e-17 0.49448331342225466 -0.8691871218252152
12616042666.666666 0.4881897576849717 -0.8727375095017648 -1.3830507519155278e-17 6.162741231503758e-17 -1.3830507519155278e-17 6.162741231503758e-17 0.4881902901519307 -0.8727372116514954
12616660000.0 0.48187124619393096 -0.8762420339674202 -1.337677809040209e-17 6.171483654295939e-17 -1.337677809040209e-17 6.171483654295939e-17 0.48187178077287723 -0.8762417399865347
12617277333.333334 0.4755275784817706 -0.8797008139720672 -1.2922510445678264e-17 6.179892400210995e-17 -1.2922510445678264e-17 6.179892400210995e-17 0.4755281151445905 -0.8797005238755324
12617894666.666666 0.4691590857215805 -0.8831136689491021 -1.2467729096233858e-17 6.18796715006714e-17 -1.2467729096233858e-17 6.18796715006714e-17 0.4691596244400552 -0.8831133827516828
12618512000.0 0.4627661003821743 -0.8864804207295999 -1.2012458571173408e-17 6.195707602668276e-17 -1.2012458571173408e-17 6.195707602668276e-17 0.4627666411279801 -0.8864801384458544
12619129333.333334 0.456348956211283 -0.8898008935513189 -1.1556723416176427e-17 6.203113474812283e-17 -1.1556723416176427e-17 6.203113474812283e-17 0.45634949895599264 -0.8898006151955996
12619746666.666666 0.4499079882176794 -0.8930749140681163 -1.1100548192147194e-17 6.210184501299768e-17 -1.1100548192147194e-17 6.210184501299768e-17 0.44990853293276484 -0.8930746396545702
12620364000.0 0.4434435326538901 -0.8963023113588917 -1.0643957473909789e-17 6.216920434940823e-17 -1.0643957473909789e-17 6.216920434940823e-17 0.4434440793107227 -0.8963020409014583
12620981333.333334 0.43695592699866675 -0.8994829169364965 -1.0186975848890961e-17 6.223321046561285e-17 -1.0186975848890961e-17 6.223321046561285e-17 0.4369564755685198 -0.8994826504489073
12621598666.666666 0.4304455099393188 -0.9026165647565603 -9.72962791579722e-18 6.229386125007919e-17 -9.72962791579722e-18 6.229386125007919e-17 0.4304460603933678 -0.9026163022523374
12622216000.0 0.42391262135395275 -0.9057030912261891 -9.271938283290179e-18 6.235115477152761e-17 -9.271938283290179e-18 6.235115477152761e-17 0.42391317366327846 -0.9057028327186466
12622833333.333334 0.4173576022938844 -0.9087423352124374 -8.813931568677834e-18 6.24050892789621e-17 -8.813931568677834e-18 6.24050892789621e-17 0.4173581564294731 -0.9087420807146792
12623450666.666666 0.410780794965731 -0.9117341380507676 -8.355632396589956e-18 6.245566320169446e-17 -8.355632396589956e-18 6.245566320169446e-17 0.410781350898477 -0.9117338875756873
12624068000.0 0.40418254271362414 -0.9146783435532974 -7.89706539765529e-18 6.250287514935775e-17 -7.89706539765529e-18 6.250287514935775e-17 0.40418310041433 -0.9146780971135764
12624685333.333334 0.39756319000105056 -0.9175747980170567 -7.438255207186148e-18 6.254672391190972e-17 -7.438255207186148e-18 6.254672391190972e-17 0.3975637494404302 -0.9175745556251657
12625302666.666666 0.39092308239333906 -0.920423350231808 -6.979226463865051e-18 6.258720845962656e-17 -6.979226463865051e-18 6.258720845962656e-17 0.3909236435420179 -0.9204231119000037
12625920000.0 0.3842625665390185 -0.9232238514881964 -6.520003808413801e-18 6.262432794308833e-17 -6.520003808413801e-18 6.262432794308833e-17 0.3842631293675363 -0.9232236172285248
12626537333.333334 0.3775819901522989 -0.9259761555852738 -6.060611882286259e-18 6.26580816931531e-17 -6.060611882286259e-18 6.26580816931531e-17 0.37758255463110957 -0.925975925409564
12627154666.666666 0.37088170199454906 -0.9286801188382795 -5.601075326354364e-18 6.268846922092176e-17 -5.601075326354364e-18 6.268846922092176e-17 0.37088226809402425 -0.9286798927581484
12627772000.0 0.3641620518561435 -0.9313356000861214 -5.141418779566213e-18 6.271549021769573e-17 -5.141418779566213e-18 6.271549021769573e-17 0.364162619546573 -0.9313353781129715
12628389333.333334 0.35742339053836053 -0.9339424606986862 -4.681666877668962e-18 6.273914455491984e-17 -4.681666877668962e-18 6.273914455491984e-17 0.35742395978995306 -0.9339422428437016
12629006666.666666 0.35066606983488063 -0.9365005645841395 -4.221844251852131e-18 6.275943228412182e-17 -4.221844251852131e-18 6.275943228412182e-17 0.3506666406177675 -0.9365003508582913
12629624000.0 0.3438904425135034 -0.9390097781960108 -3.761975527466611e-18 6.277635363683675e-17 -3.761975527466611e-18 6.277635363683675e-17 0.3438910147977383 -0.9390095686100517
12630241333.333334 0.33709686229778235 -0.9414699705401354 -3.3020853226873835e-18 6.27899090245257e-17 -3.3020853226873835e-18 6.27899090245257e-17 0.33709743605334386 -0.9414697651046023
12630858666.666666 0.33028568384850726 -0.9438810131815224 -2.8421982472164237e-18 6.280009903848259e-17 -2.8421982472164237e-18 6.280009903848259e-17 0.3302862590452999 -0.9438808119067333
12631476000.0 0.32345726274510744 -0.9462427802510815 -2.3823389009561894e-18 6.280692444973275e-17 -2.3823389009561894e-18 6.280692444973275e-17 0.32345783935296324 -0.9462425831471367
12632093333.333334 0.3166119554672493 -0.9485551484521386 -1.922531872709179e-18 6.281038620892119e-17 -1.922531872709179e-18 6.281038620892119e-17 0.31661253345592993 -0.9485549555289199
12632710666.666666 0.3097501193761466 -0.9508179970669031 -1.4628017388714209e-18 6.281048544619124e-17 -1.4628017388714209e-18 6.281048544619124e-17 0.3097506987153446 -0.9508178083340728
12633328000.0 0.302872112695823 -0.9530312079627942 -1.0031730621003766e-18 6.280722347105473e-17 -1.0031730621003766e-18 6.280722347105473e-17 0.30287269335516315 -0.9530310234297951
12633945333.333334 0.2959782944945999 -0.9551946655985485 -5.436703900376486e-19 6.280060177225099e-17 -5.436703900376486e-19 6.280060177225099e-17 0.29597887644364096 -0.9551944852746027
12634562666.666666 0.2890690246661339 -0.9573082570303172 -8.431825397943686e-20 6.279062201759777e-17 -8.431825397943686e-20 6.279062201759777e-17 0.2890696078743709 -0.9573080809244279
12635180000.0 0.2821446639108474 -0.9593718719175005 3.7485883241234324e-19 6.277728605383182e-17 3.7485883241234324e-19 6.277728605383182e-17 0.28214524834771204 -0.9593717000384477
12635797333.333334 0.27520557371685134 -0.9613854025285765 8.338363744296198e-19 6.276059590644035e-17 8.338363744296198e-19 6.276059590644035e-17 0.2752061593517143 -0.9613852348849199
12636414666.666666 0.2682521163414015 -0.9633487437466315 1.2925898975987236e-18 6.274055377948271e-17 1.2925898975987236e-18 6.274055377948271e-17 0.268252703143574 -0.9633485803467087
12637032000.0 0.2612846547916051 -0.9652617930749593 1.7510949490057546e-18 6.271716205540295e-17 1.7510949490057546e-18 6.271716205540295e-17 0.2612852427303404 -0.9652616339268852
12637649333.333334 0.2543035528057973 -0.9671244506423168 2.209327098573889e-18 6.269042329483254e-17 2.209327098573889e-18 6.269042329483254e-17 0.2543041418502923 -0.9671242957539844
12638266666.666666 0.24730917483430553 -0.9689366192082064 2.6672619403764334e-18 6.266034023638395e-17 2.6672619403764334e-18 6.266034023638395e-17 0.24730976495370238 -0.9689364685872843
12638884000.0 0.24030188602064334 -0.9706982041678945 3.124875093917757e-18 6.262691579643482e-17 3.124875093917757e-18 6.262691579643482e-17 0.24030247718403128 -0.9706980578218293
12639501333.333334 0.2332820521822277 -0.9724091135574073 3.582142205440872e-18 6.259015306890206e-17 3.582142205440872e-18 6.259015306890206e-17 0.23328264435864438 -0.9724089714934204
12640118666.666666 0.22625003979152944 -0.9740692580582683 4.039038949202834e-18 6.255005532500823e-17 4.039038949202834e-18 6.255005532500823e-17 0.2262506329499626 -0.9740691202833579
12640736000.0 0.21920621595655482 -0.9756785510022565 4.495541028787217e-18 6.250662601303528e-17 4.495541028787217e-18 6.250662601303528e-17 0.21920681006594397 -0.9756784175231952
12641353333.333334 0.21215094840228896 -0.977236908375786 4.951624178361262e-18 6.245986875807375e-17 4.951624178361262e-18 6.245986875807375e-17 0.2121515434315271 -0.9772367791991222
12641970666.666666 0.20508460545083426 -0.9787442488244463 5.407264163984147e-18 6.240978736175787e-17 5.407264163984147e-18 6.240978736175787e-17 0.20508520136876954 -0.978744123956504
12642588000.0 0.19800755600265355 -0.9802004936571446 5.8624367848864166e-18 6.235638580199378e-17 5.8624367848864166e-18 6.235638580199378e-17 0.19800815277809056 -0.980200373104021
12643205333.333334 0.19092016951706128 -0.9816055668502659 6.3171178747400376e-18 6.229966823267872e-17 6.3171178747400376e-18 6.229966823267872e-17 0.19092076711876277 -0.9816054506178317
12643822666.666666 0.18382281599304656 -0.9829593950516168 6.7712833029491895e-18 6.223963898340925e-17 6.7712833029491895e-18 6.223963898340925e-17 0.18382341438973565 -0.9829592831455193
12644440000.0 0.1767158659498746 -0.9842619075842765 7.224908975920891e-18 6.21763025591816e-17 7.224908975920891e-18 6.21763025591816e-17 0.1767164651102357 -0.9842618000099346
12645057333.333334 0.16959969040793885 -0.9855130364502467 7.67797083833673e-18 6.210966364008252e-17 7.67797083833673e-18 6.210966364008252e-17 0.16960029030061935 -0.9855129332128519
12645674666.666666 0.1624746608691676 -0.9867127163340416 8.130444874418517e-18 6.203972708097155e-17 8.130444874418517e-18 6.203972708097155e-17 0.16247526146278002 -0.9867126174385602
12646292000.0 0.15534114929765824 -0.987860884606095 8.582307109221287e-18 6.196649791114977e-17 8.582307109221287e-18 6.196649791114977e-17 0.1553417505607816 -0.9878607900572658
12646909333.333334 0.14819952810039863 -0.9889574813260038 9.033533609861956e-18 6.188998133402797e-17 9.033533609861956e-18 6.188998133402797e-17 0.14820013000157992 -0.9889573911283381
12647526666.666666 0.1410501701077693 -0.990002449245669 9.484100486813938e-18 6.181018272677602e-17 9.484100486813938e-18 6.181018272677602e-17 0.14105077261552532 -0.9900023634034503
12648144000.0 0.13389344855388322 -0.9909957338123117 9.933983895151388e-18 6.172710763996981e-17 9.933983895151388e-18 6.172710763996981e-17 0.13389405163670223 -0.9909956523295961
12648761333.333334 0.1267297370574383 -0.9919372831712733 1.0383160035811706e-17 6.1640761797226e-17 1.0383160035811706e-17 6.1640761797226e-17 0.12673034068378153 -0.9919372060518883
12649378666.666666 0.11955940960198741 -0.992827048168752 1.0831605156844574e-17 6.155115109482942e-17 1.0831605156844574e-17 6.155115109482942e-17 0.11956001374029095 -0.9928269754162986
12649996000.0 0.11238284051649934 -0.9936649823543632 1.1279295554666746e-17 6.145828160134994e-17 1.1279295554666746e-17 6.145828160134994e-17 0.11238344513517541 -0.9936649139722115
12650613333.333334 0.10520040445570342 -0.9944510419835711 1.1726207575317196e-17 6.136215955724917e-17 1.1726207575317196e-17 6.136215955724917e-17 0.10520100952314249 -0.9944509779748656
12651230666.666666 0.09801247638072852 -0.9951851860199542 1.2172317615681305e-17 6.126279137448421e-17 1.2172317615681305e-17 6.126279137448421e-17 0.09801308186530057 -0.9951851263876086
12651848000.0 0.0908194315393022 -0.9958673761373714 1.2617602124764024e-17 6.11601836360913e-17 1.2617602124764024e-17 6.11601836360913e-17 0.09082003740935851 -0.995867320884071
12652465333.333334 0.08362164544635828 -0.9964975767219398 1.306203760489892e-17 6.105434309577335e-17 1.306203760489892e-17 6.105434309577335e-17 0.0836222516702332 -0.9964975258501422
12653082666.666666 0.07641949386434856 -0.997075754873907 1.3505600612997355e-17 6.094527667746948e-17 1.3505600612997355e-17 6.094527667746948e-17 0.076420100410361 -0.9970757083858398
12653700000.0 0.06921335278354088 -0.9976018804093728 1.3948267761783745e-17 6.083299147491734e-17 1.3948267761783745e-17 6.083299147491734e-17 0.06921395961999605 -0.9976018383070352
12654317333.333334 0.06200359840256028 -0.9980759258618495 1.4390015721013658e-17 6.07174947512104e-17 1.4390015721013658e-17 6.07174947512104e-17 0.06200420549775138 -0.998075888147012
12654934666.666666 0.054790607108693254 -0.9984978664837072 1.4830821218702087e-17 6.059879393834245e-17 1.4830821218702087e-17 6.059879393834245e-17 0.054791214430902964 -0.9984978331579101
12655552000.0 0.04757475545801084 -0.9988676802474719 1.5270661042358486e-17 6.047689663674098e-17 1.5270661042358486e-17 6.047689663674098e-17 0.0475753629755131 -0.9988676513120259
12656169333.333334 0.04035642015619306 -0.9991853478469508 1.5709512040175224e-17 6.035181061480282e-17 1.5709512040175224e-17 6.035181061480282e-17 0.04035702783725477 -0.9991853233029384
12656786666.666666 0.033135978038352054 -0.9994508526982682 1.6147351122272348e-17 6.022354380840508e-17 1.6147351122272348e-17 6.022354380840508e-17 0.033136585851234655 -0.9994508325465429
12657404000.0 0.025913806049728358 -0.9996641809407157 1.658415526188546e-17 6.009210432042166e-17 1.658415526188546e-17 6.009210432042166e-17 0.02591441396268946 -0.9996641651818999
12658021333.333334 0.018690281225756566 -0.9998253214374784 1.70199014965873e-17 5.99575004202203e-17 1.70199014965873e-17 5.99575004202203e-17 0.01869088920705171 -0.9998253100719665
12658638666.666666 0.011465780672609623 -0.9999342657762167 1.745456692947662e-17 5.981974054316014e-17 1.745456692947662e-17 5.981974054316014e-17 0.011466388690493868 -0.9999342588041743
12659256000.0 0.00424068154728445 -0.9999910082695085 1.7888128730390006e-17 5.96788332900713e-17 1.7888128730390006e-17 5.96788332900713e-17 0.00424128957001402 -0.9999910056908702
12659873333.333334 -0.00298463896188871 -0.9999955459551416 1.8320564137084498e-17 5.953478742673453e-17 1.8320564137084498e-17 5.953478742673453e-17 -0.002984030966054737 -0.9999955477696131
12660490666.666666 -0.010209803655022756 -0.9999478785962697 1.8751850456432916e-17 5.938761188334672e-17 1.8751850456432916e-17 5.938761188334672e-17 -0.010209195717820795 -0.9999478848033277
12661108000.0 -0.017434435340450815 -0.9998480086814262 1.9181965065614987e-17 5.923731575397758e-17 1.9181965065614987e-17 5.923731575397758e-17 -0.017433827493611137 -0.9998480192803192
12661725333.333334 -0.02465815685424712 -0.999695941424394 1.9610885413287467e-17 5.908390829602344e-17 1.9610885413287467e-17 5.908390829602344e-17 -0.024657549129492164 -0.9996959564141393
12662342666.666666 -0.03188059108000222 -0.9994916847639321 2.003858902077527e-17 5.892739892964452e-17 2.003858902077527e-17 5.892739892964452e-17 -0.031879983509044994 -0.9994917041433199
12662960000.0 -0.039101360968595664 -0.9992352493633602 2.046505348323114e-17 5.876779723720177e-17 2.046505348323114e-17 5.876779723720177e-17 -0.03910075358313803 -0.9992352731309505
12663577333.333334 -0.04632008955768118 -0.998926648610008 2.0890256470818098e-17 5.860511296267735e-17 2.0890256470818098e-17 5.860511296267735e-17 -0.0463194823894122 -0.9989266767641315
12664194666.666666 -0.05353639999159315 -0.9985658986145058 2.1314175729860376e-17 5.843935601109514e-17 2.1314175729860376e-17 5.843935601109514e-17 -0.05353579307218747 -0.9985659311532648
12664812000.0 -0.06074991554079334 -0.9981530182099535 2.173678908401662e-17 5.827053644792363e-17 2.173678908401662e-17 5.827053644792363e-17 -0.06074930890190962 -0.9981530551312231
12665429333.333334 -0.06796025962179399 -0.9976880289509309 2.21580744354236e-17 5.809866449847965e-17 2.21580744354236e-17 5.809866449847965e-17 -0.06795965329507299 -0.997688070252355
12666046666.666666 -0.07516705581644788 -0.9971709551123823 2.257800976585186e-17 5.792375054731766e-17 2.257800976585186e-17 5.792375054731766e-17 -0.07516644983351117 -0.9971710007913791
12666664000.0 -0.08236992789213914 -0.996601823688327 2.2996573137856438e-17 5.774580513761021e-17 2.2996573137856438e-17 5.774580513761021e-17 -0.08236932228458706 -0.9966018737420838
12667281333.333334 -0.08956849982079987 -0.9959806643904818 2.3413742695908385e-17 5.756483897052686e-17 2.3413742695908385e-17 5.756483897052686e-17 -0.0895678946202103 -0.9959807188159604
12667898666.666666 -0.09676239579905191 -0.9953075096466831 2.3829496667534307e-17 5.738086290459898e-17 2.3829496667534307e-17 5.738086290459898e-17 -0.09676179103697823 -0.9953075684406154
12668516000.0 -0.10395124026759821 -0.9945823945992021 2.4243813364459234e-17 5.719388795507311e-17 2.4243813364459234e-17 5.719388795507311e-17 -0.1039506359755679 -0.9945824577580933
12669133333.333334 -0.11113465793080123 -0.9938053571029182 2.46566711837137e-17 5.700392529326948e-17 2.46566711837137e-17 5.700392529326948e-17 -0.11113405414031423 -0.9938054246230459
12669750666.666666 -0.11831227377633194 -0.9929764377233371 2.5068048608766593e-17 5.681098624591896e-17 2.5068048608766593e-17 5.681098624591896e-17 -0.11831167051885887 -0.9929765096007515
12670368000.0 -0.12548371309483222 -0.9920956797344644 2.5477924210646483e-17 5.661508229449485e-17 2.5477924210646483e-17 5.661508229449485e-17 -0.12548311040181268 -0.9920957559649879
