! Parameters = {f0=12700.012000; bw=77.238000; Q=6100.000000; N=10; m_0_1=1.232527; m_1_1=-0.276833; m_1_2=1.067339; m_2_2=-0.277482; m_2_3=0.704302; m_2_8=-0.001310; m_2_9=0.035394; m_3_3=-0.279419; m_3_4=0.592831; m_3_7=-0.000710; m_3_8=-0.097798; m_3_9=-0.001310; m_4_4=-0.282344; m_4_5=0.429166; m_4_6=0.002807; m_4_7=-0.118347; m_4_8=-0.000710; m_5_5=-0.281962; m_5_6=0.836521; m_5_7=0.002807; m_6_6=-0.281963; m_6_7=0.429508; m_7_7=-0.282330; m_7_8=0.592949; m_8_8=-0.279421; m_8_9=0.704615; m_9_9=-0.277487; m_9_10=1.068417; m_10_10=-0.276843; m_10_11=1.233322}
!
! Created with skrf (http://scikit-rf.org).
# Hz S RI R 50.0 
!freq ReS11 ImS11 ReS21 ImS21 ReS12 ImS12 ReS22 ImS22
12607400000.0 -0.1567659220755093 -0.9876357859432037 3.980013614424518e-17 8.336432623463327e-17 3.980013614424518e-17 8.336432623463327e-17 -0.15676528066982695 -0.9876358877523358
12608017333.333334 -0.1660575875829925 -0.9861160568644805 4.0582659204400996e-17 8.296606054596049e-17 4.0582659204400996e-17 8.296606054596049e-17 -0.16605694719563271 -0.9861161647026684
12608634666.666666 -0.17533453297559592 -0.9845089138987335 4.136120981260719e-17 8.256045621856626e-17 4.136120981260719e-17 8.256045621856626e-17 -0.1753338936632231 -0.9845090277558288
12609252000.0 -0.18459593590202023 -0.9828144995106097 4.213571921043987e-17 8.214755275870508e-17 4.213571921043987e-17 8.214755275870508e-17 -0.184595297721198 -0.9828146193759307
12609869333.333334 -0.1938409753887234 -0.9810329639008988 4.2906119031303324e-17 8.172739031623703e-17 4.2906119031303324e-17 8.172739031623703e-17 -0.19384033839590947 -0.9810330897632318
12610486666.666666 -0.20306883191261138 -0.9791644649932317 4.36723413064509e-17 8.130000968075003e-17 4.36723413064509e-17 8.130000968075003e-17 -0.20306819616415256 -0.979164596840833
12611104000.0 -0.21227868747387998 -0.9772091684200476 4.443431847098112e-17 8.086545227761811e-17 4.443431847098112e-17 8.086545227761811e-17 -0.2122780530260074 -0.9772093062406443
12611721333.333334 -0.22146972566830347 -0.9751672475079544 4.5191983369751523e-17 8.042376016402794e-17 4.5191983369751523e-17 8.042376016402794e-17 -0.2214690925771275 -0.9751673912887456
12612338666.666666 -0.23064113175977113 -0.9730388832623311 4.594526926329448e-17 7.997497602492704e-17 4.594526926329448e-17 7.997497602492704e-17 -0.23064050008127646 -0.9730390329899888
12612956000.0 -0.23979209275256466 -0.9708242643512671 4.6694109833692966e-17 7.951914316891649e-17 4.6694109833692966e-17 7.951914316891649e-17 -0.23979146254260486 -0.9708244200119363
12613573333.333334 -0.24892179746306514 -0.9685235870889205 4.743843919037304e-17 7.905630552411454e-17 4.743843919037304e-17 7.905630552411454e-17 -0.2489211687773586 -0.968523748668223
12614190666.666666 -0.2580294365921042 -0.9661370554180161 4.8178191875911837e-17 7.858650763393189e-17 4.8178191875911837e-17 7.858650763393189e-17 -0.2580288094862286 -0.9661372229010501
12614808000.0 -0.2671142027964811 -0.9636648808918135 4.891330287175709e-17 7.810979465282208e-17 4.891330287175709e-17 7.810979465282208e-17 -0.26711357732586877 -0.963665054263156
12615425333.333334 -0.2761752907604765 -0.9611072826553755 4.964370760394062e-17 7.762621234195635e-17 4.964370760394062e-17 7.762621234195635e-17 -0.276174666980409 -0.9611074618990814
12616042666.666666 -0.2852118972674023 -0.9584644874260929 5.0369341948724765e-17 7.713580706486025e-17 5.0369341948724765e-17 7.713580706486025e-17 -0.2852112752330062 -0.9584646725256993
12616660000.0 -0.29422322127072076 -0.9557367294736104 5.1090142238219375e-17 7.663862578298968e-17 5.1090142238219375e-17 7.663862578298968e-17 -0.2942226010369629 -0.9557369204121381
12617277333.333334 -0.3032084639649994 -0.9529242505990803 5.1806045265944574e-17 7.613471605126161e-17 5.1806045265944574e-17 7.613471605126161e-17 -0.303207845586681 -0.9529244473590321
12617894666.666666 -0.3121668288567475 -0.9500273001137162 5.251698829235848e-17 7.562412601352746e-17 5.251698829235848e-17 7.562412601352746e-17 -0.3121662123885 -0.950027502677081
12618512000.0 -0.32109752183520957 -0.9470461348166314 5.3222909050353063e-17 7.510690439798551e-17 5.3222909050353063e-17 7.510690439798551e-17 -0.3210969073314905 -0.9470463431648874
12619129333.333334 -0.32999975124243613 -0.9439810189721849 5.392374575066516e-17 7.458310051257177e-17 5.392374575066516e-17 7.458310051257177e-17 -0.32999913875752285 -0.9439812330862978
12619746666.666666 -0.33887272794362117 -0.9408322242864992 5.4619437087280076e-17 7.405276424027223e-17 5.4619437087280076e-17 7.405276424027223e-17 -0.3388721175316072 -0.940832444146926
12620364000.0 -0.3477156653972163 -0.9376000298833209 5.530992224278964e-17 7.351594603438547e-17 5.530992224278964e-17 7.351594603438547e-17 -0.3477150571120056 -0.9376002554700101
12620981333.333334 -0.3565277797243304 -0.934284722279388 5.599514089366424e-17 7.297269691376517e-17 5.599514089366424e-17 7.297269691376517e-17 -0.35652717361963354 -0.9342849535717836
12621598666.666666 -0.36530828977840496 -0.9308865953589676 5.667503321553006e-17 7.24230684579737e-17 5.667503321553006e-17 7.24230684579737e-17 -0.365307685907734 -0.9308868323360097
12622216000.0 -0.374056417214485 -0.927405950347795 5.73495398883561e-17 7.186711280242109e-17 5.73495398883561e-17 7.186711280242109e-17 -0.3740558156311485 -0.9274061929879214
12622833333.333334 -0.38277138655816056 -0.923843095786388 5.801860210162836e-17 7.130488263342786e-17 5.801860210162836e-17 7.130488263342786e-17 -0.38277078731525954 -0.9238433440675375
12623450666.666666 -0.39145242527425683 -0.92019834750272 5.86821615594434e-17 7.073643118326624e-17 5.86821615594434e-17 7.073643118326624e-17 -0.3914518284246793 -0.9201986014023329
12624068000.0 -0.400098763835342 -0.9164720285842145 5.934016048558397e-17 7.01618122251296e-17 5.934016048558397e-17 7.01618122251296e-17 -0.40009816943175885 -0.9164722880792359
12624685333.333334 -0.40870963579012376 -0.9126644693490253 5.999254162852507e-17 6.958108006807073e-17 5.999254162852507e-17 6.958108006807073e-17 -0.40870904388498397 -0.9126647344159061
12625302666.666666 -0.4172842778310527 -0.9087760073169023 6.063924826638984e-17 6.899428955189716e-17 6.063924826638984e-17 6.899428955189716e-17 -0.4172836884765783 -0.9087762779316015
12625920000.0 -0.42582192986229667 -0.9048069871791348 6.128022421188421e-17 6.840149604199328e-17 6.128022421188421e-17 6.840149604199328e-17 -0.425821343110479 -0.9048072633171229
12626537333.333334 -0.43432183506691263 -0.9007577607680898 6.191541381713682e-17 6.780275542413751e-17 6.191541381713682e-17 6.780275542413751e-17 -0.4343212509695069 -0.9007580424043499
12627154666.666666 -0.4427832399739866 -0.8966286870260025 6.254476197851569e-17 6.719812409925026e-17 6.254476197851569e-17 6.719812409925026e-17 -0.44278265858250776 -0.8966289741350321
12627772000.0 -0.45120539452562813 -0.8924201319730556 6.316821414141297e-17 6.658765897807955e-17 6.316821414141297e-17 6.658765897807955e-17 -0.4512048158913466 -0.8924204245288709
12628389333.333334 -0.4595875521430015 -0.8881324686751625 6.378571630492077e-17 6.597141747589597e-17 6.378571630492077e-17 6.597141747589597e-17 -0.45958697631693757 -0.8881327666512977
12629006666.666666 -0.46792896979303805 -0.8837660772106277 6.439721502652177e-17 6.534945750708146e-17 6.439721502652177e-17 6.534945750708146e-17 -0.46792839682595877 -0.8837663805801409
12629624000.0 -0.4762289080539475 -0.8793213446366345 6.500265742666722e-17 6.472183747973311e-17 6.500265742666722e-17 6.472183747973311e-17 -0.47622833799636155 -0.8793216533721079
12630241333.333334 -0.48448663118084134 -0.8747986649548992 6.560199119335309e-17 6.408861629017543e-17 6.560199119335309e-17 6.408861629017543e-17 -0.48448606408299405 -0.8747989790284411
12630858666.666666 -0.4927014071709511 -0.8701984390767427 6.619516458660236e-17 6.344985331747102e-17 6.619516458660236e-17 6.344985331747102e-17 -0.4927008430828209 -0.8701987584599921
12631476000.0 -0.5008725078286914 -0.8655210747874558 6.67821264429354e-17 6.280560841784661e-17 6.67821264429354e-17 6.280560841784661e-17 -0.5008719467999851 -0.8655213994515831
12632093333.333334 -0.5089992088299364 -0.8607669867103022 6.736282617973315e-17 6.215594191913535e-17 6.736282617973315e-17 6.215594191913535e-17 -0.5089986509100849 -0.8607673166260135
12632710666.666666 -0.5170807897862798 -0.8559365962697421 6.793721379959801e-17 6.150091461512348e-17 6.793721379959801e-17 6.150091461512348e-17 -0.5170802350244333 -0.8559369314072802
12633328000.0 -0.5251165343091608 -0.8510303316539134 6.850523989463997e-17 6.084058775987769e-17 6.850523989463997e-17 6.084058775987769e-17 -0.5251159827541847 -0.851030671983061
12633945333.333334 -0.5331057300730752 -0.8460486277768485 6.906685565069454e-17 6.017502306204924e-17 6.906685565069454e-17 6.017502306204924e-17 -0.5331051817735462 -0.8460489732669312
12634562666.666666 -0.5410476688787682 -0.8409919262398933 6.962201285149886e-17 5.950428267912314e-17 6.962201285149886e-17 5.950428267912314e-17 -0.5410471238829693 -0.8409922768597821
12635180000.0 -0.5489416467161334 -0.8358606752924881 7.017066388281976e-17 5.882842921162196e-17 7.017066388281976e-17 5.882842921162196e-17 -0.548941105072051 -0.8358610310106037
12635797333.333334 -0.5567869638265484 -0.8306553297924777 7.071276173651309e-17 5.814752569728497e-17 7.071276173651309e-17 5.814752569728497e-17 -0.5567864255818655 -0.8306556905767896
12636414666.666666 -0.564582924764853 -0.8253763511658174 7.124826001451914e-17 5.746163560522063e-17 7.124826001451914e-17 5.746163560522063e-17 -0.5645823899669489 -0.8253767169838524
12637032000.0 -0.5723288384610508 -0.820024207365648 7.177711293283258e-17 5.677082282998404e-17 7.177711293283258e-17 5.677082282998404e-17 -0.5723283071569926 -0.8200245781844866
12637649333.333334 -0.5800240182816101 -0.8145993728307734 7.229927532538246e-17 5.607515168565862e-17 7.229927532538246e-17 5.607515168565862e-17 -0.5800234905181515 -0.8145997486170583
12638266666.666666 -0.5876677820902853 -0.80910232844364 7.281470264787313e-17 5.537468689988008e-17 7.281470264787313e-17 5.537468689988008e-17 -0.5876672579138613 -0.8091027091635756
12638884000.0 -0.5952594523085151 -0.8035335614877587 7.332335098155612e-17 5.46694936078397e-17 7.332335098155612e-17 5.46694936078397e-17 -0.5952589317652387 -0.803533947107116
12639501333.333334 -0.6027983559756476 -0.7978935656043918 7.382517703696163e-17 5.395963734623037e-17 7.382517703696163e-17 5.395963734623037e-17 -0.6027978391113055 -0.7978939560885114
12640118666.666666 -0.610283824808368 -0.792182840748967 7.432013815754528e-17 5.3245184047194416e-17 7.432013815754528e-17 5.3245184047194416e-17 -0.6102833116684149 -0.7921832360627603
12640736000.0 -0.6177151952603414 -0.7864018931464447 7.480819232331856e-17 5.252620003217856e-17 7.480819232331856e-17 5.252620003217856e-17 -0.6177146858898991 -0.7864022932543994
12641353333.333334 -0.6250918085804061 -0.7805512352469323 7.528929815435211e-17 5.180275200585446e-17 7.528929815435211e-17 5.180275200585446e-17 -0.6250913030242564 -0.7805516401131142
12641970666.666666 -0.632413010871572 -0.7746313856797874 7.576341491430102e-17 5.1074907049889305e-17 7.576341491430102e-17 5.1074907049889305e-17 -0.6324125091741553 -0.7746317952678444
12642588000.0 -0.6396781531486956 -0.7686428692078713 7.623050251381054e-17 5.034273261677283e-17 7.623050251381054e-17 5.034273261677283e-17 -0.6396776553541059 -0.7686432834810364
12643205333.333334 -0.6468865913959646 -0.7625862166810682 7.669052151388672e-17 4.960629652357643e-17 7.669052151388672e-17 4.960629652357643e-17 -0.646886097547945 -0.7625866356021623
12643822666.666666 -0.654037686624206 -0.7564619649890477 7.714343312920265e-17 4.88656669456886e-17 7.714343312920265e-17 4.88656669456886e-17 -0.6540371967661464 -0.7564623885204842
12644440000.0 -0.6611308049273321 -0.750270657013835 7.758919923134603e-17 4.812091241051813e-17 7.758919923134603e-17 4.812091241051813e-17 -0.6611303191022639 -0.7502710851176215
12645057333.333334 -0.6681653175385992 -0.7440128415816348 7.802778235200078e-17 4.737210179117692e-17 7.802778235200078e-17 4.737210179117692e-17 -0.6681648357891917 -0.7440132742193769
12645674666.666666 -0.675140600886257 -0.7376890734142523 7.845914568607411e-17 4.661930430012279e-17 7.845914568607411e-17 4.661930430012279e-17 -0.6751401232548156 -0.7376895105471593
12646292000.0 -0.6820560366491054 -0.7312999130796805 7.888325309476424e-17 4.5862589482772146e-17 7.888325309476424e-17 4.5862589482772146e-17 -0.682055563177565 -0.7313003546685652
12646909333.333334 -0.6889110118109617 -0.7248459269427066 7.930006910855363e-17 4.510202721110724e-17 7.930006910855363e-17 4.510202721110724e-17 -0.6889105425408847 -0.7248463729479914
12647526666.666666 -0.6957049187151523 -0.7183276871145767 7.970955893015725e-17 4.4337687677227463e-17 7.970955893015725e-17 4.4337687677227463e-17 -0.6957044536877249 -0.7183281374962968
12648144000.0 -0.7024371551184806 -0.7117457714021836 8.011168843740266e-17 4.35696413868852e-17 8.011168843740266e-17 4.35696413868852e-17 -0.7024366943745088 -0.7117462261199896
12648761333.333334 -0.7091071242444463 -0.7051007632570017 8.050642418603683e-17 4.2797959153016635e-17 8.050642418603683e-17 4.2797959153016635e-17 -0.709106667824352 -0.7051012222701635
12649378666.666666 -0.7157142348361881 -0.6983932517233283 8.089373341248838e-17 4.2022712089215575e-17 8.089373341248838e-17 4.2022712089215575e-17 -0.7157137827800072 -0.6983937149907402
12649996000.0 -0.7222579012089193 -0.6916238313860523 8.12735840365605e-17 4.1243971603193703e-17 8.12735840365605e-17 4.1243971603193703e-17 -0.7222574535562956 -0.6916242988662346
12650613333.333334 -0.7287375433018998 -0.684793102317881 8.164594466405887e-17 4.0461809390221536e-17 8.164594466405887e-17 4.0461809390221536e-17 -0.7287371000920836 -0.6847935739689849
12651230666.666666 -0.7351525867297195 -0.6779016700262923 8.201078458934926e-17 3.967629742656262e-17 8.201078458934926e-17 3.967629742656262e-17 -0.7351521480015646 -0.6779021458061044
12651848000.0 -0.7415024628333555 -0.6709501453997184 8.236807379787854e-17 3.888750796282863e-17 8.236807379787854e-17 3.888750796282863e-17 -0.741502028625312 -0.6709506252656611
12652465333.333334 -0.7477866087305135 -0.6639391446534492 8.271778296859995e-17 3.809551351738017e-17 8.271778296859995e-17 3.809551351738017e-17 -0.7477861790806292 -0.6639396285625887
12653082666.666666 -0.7540044673654549 -0.6568692892750976 8.305988347635177e-17 3.730038686967089e-17 8.305988347635177e-17 3.730038686967089e-17 -0.7540040423113694 -0.6568697771841456
12653700000.0 -0.7601554875586021 -0.6497412059692528 8.339434739417633e-17 3.650220105356126e-17 8.339434739417633e-17 3.650220105356126e-17 -0.760155067137544 -0.6497416978345709
12654317333.333334 -0.7662391240550591 -0.6425555266023086 8.372114749556012e-17 3.570102935064487e-17 8.372114749556012e-17 3.570102935064487e-17 -0.7662387083038426 -0.6425560223799116
12654934666.666666 -0.7722548375732459 -0.635312888146112 8.40402572566247e-17 3.489694528352201e-17 8.40402572566247e-17 3.489694528352201e-17 -0.7722544265282675 -0.6353133877916722
12655552000.0 -0.7782020948526415 -0.628013932621558 8.435165085824857e-17 3.4090022609063316e-17 8.435165085824857e-17 3.4090022609063316e-17 -0.7782016885498771 -0.6280144360904094
12656169333.333334 -0.7840803687008417 -0.6206593070419445 8.46553031881105e-17 3.3280335311691125e-17 8.46553031881105e-17 3.3280335311691125e-17 -0.7840799671758434 -0.620659814289086
12656786666.666666 -0.7898891380405788 -0.6132496633552651 8.495118984269644e-17 3.246795759657326e-17 8.495118984269644e-17 3.246795759657326e-17 -0.7898887413284722 -0.6132501743353663
12657404000.0 -0.7956278879557509 -0.6057856583866165 8.5239287129217e-17 3.165296388285943e-17 8.5239287129217e-17 3.165296388285943e-17 -0.7956274960912305 -0.605786173054019
12658021333.333334 -0.8012961097371349 -0.5982679537798827 8.55195720674728e-17 3.083542879686982e-17 8.55195720674728e-17 3.083542879686982e-17 -0.8012957227544635 -0.5982684720886073
12658638666.666666 -0.8068933009273305 -0.5906972159392923 8.579202239164338e-17 3.001542716529929e-17 8.579202239164338e-17 3.001542716529929e-17 -0.806892918860334 -0.5906977378430405
12659256000.0 -0.8124189653655706 -0.5830741159699783 8.605661655203218e-17 2.919303400834496e-17 8.605661655203218e-17 2.919303400834496e-17 -0.8124185882476354 -0.5830746414221373
12659873333.333334 -0.8178726132314968 -0.57539932961876 8.631333371672139e-17 2.8368324532890016e-17 8.631333371672139e-17 2.8368324532890016e-17 -0.8178722410955686 -0.5753998585724078
12660490666.666666 -0.8232537610885364 -0.5676735372143163 8.656215377317463e-17 2.754137412563654e-17 8.656215377317463e-17 2.754137412563654e-17 -0.8232533939671159 -0.5676740696222253
12661108000.0 -0.8285619319270168 -0.5598974236065059 8.680305732977649e-17 2.6712258346215016e-17 8.680305732977649e-17 2.6712258346215016e-17 -0.8285615698521572 -0.5598979594211464
12661725333.333334 -0.8337966552061578 -0.5520716781060768 8.703602571729607e-17 2.5881052920315407e-17 8.703602571729607e-17 2.5881052920315407e-17 -0.8337962982094596 -0.5520722172796209
12662342666.666666 -0.8389574668959859 -0.544196994423257 8.726104099029534e-17 2.5047833732768677e-17 8.726104099029534e-17 2.5047833732768677e-17 -0.8389571150085995 -0.5441975369075852
12662960000.0 -0.8440439095183345 -0.536274070606477 8.747808592846527e-17 2.421267682064173e-17 8.747808592846527e-17 2.421267682064173e-17 -0.8440435627709533 -0.5362746163531807
12663577333.333334 -0.8490555321875008 -0.528303608980323 8.768714403789502e-17 2.3375658366320994e-17 8.768714403789502e-17 2.3375658366320994e-17 -0.849055190610359 -0.5283041579407091
12664194666.666666 -0.8539918906501688 -0.5202863160833516 8.788819955228214e-17 2.2536854690563484e-17 8.788819955228214e-17 2.2536854690563484e-17 -0.8539915542730394 -0.5202868682084463
12664812000.0 -0.8588525473247437 -0.5122229026055299 8.808123743406933e-17 2.1696342245562756e-17 8.808123743406933e-17 2.1696342245562756e-17 -0.858852216176937 -0.5122234578460843
12665429333.333334 -0.8636370713402484 -0.5041140833250692 8.826624337551935e-17 2.0854197607988277e-17 8.826624337551935e-17 2.0854197607988277e-17 -0.8636367454506068 -0.5041146416315625
12666046666.666666 -0.8683450385743824 -0.4959605770452815 8.844320379971738e-17 2.001049747204657e-17 8.844320379971738e-17 2.001049747204657e-17 -0.8683447179712817 -0.49596113836792727
12666664000.0 -0.8729760316913094 -0.4877631065305447 8.8612105861521e-17 1.9165318642468824e-17 8.8612105861521e-17 1.9165318642468824e-17 -0.8729757164026523 -0.4877636708192929
12667281333.333334 -0.8775296401783929 -0.47952239844267486 8.877293744842483e-17 1.8318738027579583e-17 8.877293744842483e-17 1.8318738027579583e-17 -0.8775293302316072 -0.4795229656472169
12667898666.666666 -0.8820054603828104 -0.47123918327611614 8.892568718137447e-17 1.7470832632283002e-17 8.892568718137447e-17 1.7470832632283002e-17 -0.8820051558048503 -0.47123975334589113
12668516000.0 -0.8864030955472955 -0.4629141952932616 8.907034441550591e-17 1.6621679551083608e-17 8.907034441550591e-17 1.6621679551083608e-17 -0.886402796364635 -0.46291476817745886
12669133333.333334 -0.8907221558451408 -0.45454817245966256 8.920689924081888e-17 1.5771355961099154e-17 8.920689924081888e-17 1.5771355961099154e-17 -0.8907218620837747 -0.4545487481072276
12669750666.666666 -0.8949622584149768 -0.44614185637821463 8.933534248278778e-17 1.4919939115045947e-17 8.933534248278778e-17 1.4919939115045947e-17 -0.8949619701004151 -0.4461424347378523
12670368000.0 -0.8991230273945943 -0.4376959922236153 8.945566570290224e-17 1.4067506334240326e-17 8.945566570290224e-17 1.4067506334240326e-17 -0.8991227445518625 -0.43769657324379524
12670985333.333334 -0.9032040939542563 -0.42921132867633593 8.956786119913916e-17 1.3214135001609445e-17 8.956786119913916e-17 1.3214135001609445e-17 -0.903203816607893 -0.42921191230529737
