! Parameters = {f0=12700.012000; bw=77.238000; Q=6100.000000; N=10; m_0_1=1.259755; m_1_1=0.131576; m_1_2=1.094567; m_2_2=0.130927; m_2_3=0.731530; m_2_8=0.000051; m_2_9=0.036755; m_3_3=0.128990; m_3_4=0.620059; m_3_7=0.000651; m_3_8=-0.096437; m_3_9=0.000051; m_4_4=0.126065; m_4_5=0.456394; m_4_6=0.004168; m_4_7=-0.116986; m_4_8=0.000651; m_5_5=0.126447; m_5_6=0.863749; m_5_7=0.004168; m_6_6=0.126446; m_6_7=0.456736; m_7_7=0.126079; m_7_8=0.620177; m_8_8=0.128988; m_8_9=0.731843; m_9_9=0.130922; m_9_10=1.095645; m_10_10=0.131566; m_10_11=1.260550}
!
! Created with skrf (http://scikit-rf.org).
# Hz S RI R 50.0 
!freq ReS11 ImS11 ReS21 ImS21 ReS12 ImS12 ReS22 ImS22
12607400000.0 0.7823460889217654 0.6228439589083634 -9.767324869091307e-17 -3.95070003927004e-17 -9.767324869091307e-17 -3.95070003927004e-17 0.7823456755199442 0.6228444781765898
12608017333.333334 0.7886706297708046 0.6148159380959062 -9.805611312014318e-17 -3.849048982035229e-17 -9.805611312014318e-17 -3.849048982035229e-17 0.7886702217174186 0.6148164615363059
12608634666.666666 0.7949127948108595 0.6067237004154479 -9.842840645100693e-17 -3.747028666387273e-17 -9.842840645100693e-17 -3.747028666387273e-17 0.7949123921480042 0.6067242279729427
12609252000.0 0.8010719320545368 0.5985680910925992 -9.879009326430212e-17 -3.6446500774534255e-17 -9.879009326430212e-17 -3.6446500774534255e-17 0.8010715348237396 0.5985686227116855
12609869333.333334 0.8071473981865543 0.5903499619721371 -9.914113928153092e-17 -3.5419242341199704e-17 -9.914113928153092e-17 -3.5419242341199704e-17 0.8071470064287715 0.5903504975968924
12610486666.666666 0.8131385586309903 0.5820701714289632 -9.948151136808114e-17 -3.4388621878522416e-17 -9.948151136808114e-17 -3.4388621878522416e-17 0.8131381723866034 0.5820707110030535
12611104000.0 0.8190447876176141 0.5737295842783805 -9.981117753631654e-17 -3.335475021502604e-17 -9.981117753631654e-17 -3.335475021502604e-17 0.8190444069264244 0.5737301277450643
12611721333.333334 0.8248654682471461 0.5653290716859009 -1.00130106948504e-16 -3.231773848127169e-17 -1.00130106948504e-16 -3.231773848127169e-17 0.8248650931483703 0.5653296189880347
12612338666.666666 0.8305999925557266 0.5568695110762071 -1.0043826991965634e-16 -3.127769809788449e-17 -1.0043826991965634e-16 -3.127769809788449e-17 0.8305996230879934 0.5568700621562528
12612956000.0 0.836247761578543 0.5483517860413178 -1.0073563792022606e-16 -3.02347407636274e-17 -1.0073563792022606e-16 -3.02347407636274e-17 0.8362473977798904 0.5483523408413492
12613573333.333334 0.8418081854121385 0.5397767862486759 -1.0102218357868286e-16 -2.918897844343068e-17 -1.0102218357868286e-16 -2.918897844343068e-17 0.8418078273200088 0.5397773447103836
12614190666.666666 0.8472806832762344 0.5311454073479173 -1.0129788068397044e-16 -2.81405233563862e-17 -1.0129788068397044e-16 -2.81405233563862e-17 0.8472803309274682 0.5311459694126144
12614808000.0 0.8526646835743531 0.5224585508773641 -1.0156270418783424e-16 -2.7089487963733692e-17 -1.0156270418783424e-16 -2.7089487963733692e-17 0.8526643370051897 0.5224591164859943
12615425333.333334 0.8579596239534365 0.5137171241700085 -1.0181663020703048e-16 -2.6035984956808884e-17 -1.0181663020703048e-16 -2.6035984956808884e-17 0.8579592831995083 0.513717693263151
12616042666.666666 0.8631649513627001 0.5049220402585474 -1.0205963602540121e-16 -2.4980127245003452e-17 -1.0205963602540121e-16 -2.4980127245003452e-17 0.8631646164590261 0.5049226127764223
12616660000.0 0.8682801221112798 0.4960742177802114 -1.0229170009583662e-16 -2.3922027943663386e-17 -1.0229170009583662e-16 -2.3922027943663386e-17 0.8682797930922661 0.4960747936626875
12617277333.333334 0.8733046019251499 0.4871745808805939 -1.0251280204210081e-16 -2.2861800362013418e-17 -1.0251280204210081e-16 -2.2861800362013418e-17 0.8733042788245857 0.4871751600671951
12617894666.666666 0.878237866002761 0.47822405911742233 -1.0272292266054075e-16 -2.1799557991036964e-17 -1.0272292266054075e-16 -2.1799557991036964e-17 0.8782375488538121 0.4782246415473324
12618512000.0 0.8830793990700461 0.46922358736311837 -1.0292204392166796e-16 -2.0735414491340897e-17 -1.0292204392166796e-16 -2.0735414491340897e-17 0.8830790879052548 0.46922417297518887
12619129333.333334 0.8878286954340902 0.4601741057074251 -1.031101489716115e-16 -1.966948368103395e-17 -1.031101489716115e-16 -1.966948368103395e-17 0.8878283902853705 0.4601746944401814
12619746666.666666 0.8924852590359937 0.4510765593591434 -1.032872221334487e-16 -1.8601879523569296e-17 -1.032872221334487e-16 -1.8601879523569296e-17 0.8924849599346275 0.4510771511507904
12620364000.0 0.8970486035027837 0.4419318985472 -1.0345324890841415e-16 -1.7532716115559042e-17 -1.0345324890841415e-16 -1.7532716115559042e-17 0.8970483104794189 0.4419324933356296
12620981333.333334 0.9015182521980012 0.432741078421831 -1.0360821597697018e-16 -1.6462107674652704e-17 -1.0360821597697018e-16 -1.6462107674652704e-17 0.9015179652826474 0.4327416761446279
12621598666.666666 0.90589373827171 0.4235050589543576 -1.0375211119976897e-16 -1.539016852730472e-17 -1.0375211119976897e-16 -1.539016852730472e-17 0.9058934574937372 0.42350565954880665
12622216000.0 0.9101746047091126 0.41422480483722596 -1.0388492361847424e-16 -1.431701309662639e-17 -1.0388492361847424e-16 -1.431701309662639e-17 0.9101743300972452 0.4142254082403177
12622833333.333334 0.9143604043783429 0.4049012853831171 -1.0400664345646756e-16 -1.3242755890164534e-17 -1.0400664345646756e-16 -1.3242755890164534e-17 0.9143601359606595 0.4049018915315551
12623450666.666666 0.9184507000771588 0.3955354744237295 -1.0411726211941987e-16 -1.2167511487737942e-17 -1.0411726211941987e-16 -1.2167511487737942e-17 0.9184504378810877 0.39553608325393663
12624068000.0 0.9224450645785834 0.38612835020811476 -1.0421677219574548e-16 -1.1091394529214822e-17 -1.0421677219574548e-16 -1.1091394529214822e-17 0.9224448086309016 0.38612896165624044
12624685333.333334 0.9263430806756303 0.37668089530026627 -1.0430516745692697e-16 -1.0014519702300303e-17 -1.0430516745692697e-16 -1.0014519702300303e-17 0.9263428310024586 0.3766815093021923
12625302666.666666 0.9301443412246803 0.367194096476962 -1.0438244285770975e-16 -8.937001730386064e-18 -1.0438244285770975e-16 -8.937001730386064e-18 0.9301440978514819 0.36719471296831
12625920000.0 0.9338484491882587 0.3576689446240936 -1.0444859453618084e-16 -7.858955360282177e-18 -1.0444859453618084e-16 -7.858955360282177e-18 0.9338482121398354 0.3576695635402311
12626537333.333334 0.9374550176762763 0.3481064346337204 -1.0450361981371103e-16 -6.7804953500848275e-18 -1.0450361981371103e-16 -6.7804953500848275e-18 0.9374547869767693 0.3481070559097688
12627154666.666666 0.9409636699865448 0.3385075652999206 -1.0454751719478021e-16 -5.701736456940756e-18 -1.0454751719478021e-16 -5.701736456940756e-18 0.9409634456594284 0.3385081888707607
12627772000.0 0.9443740396442035 0.32887333921422524 -1.0458028636667202e-16 -4.622793424863988e-18 -1.0458028636667202e-16 -4.622793424863988e-18 0.9443738217122842 0.3288739650145045
12628389333.333334 0.9476857704397951 0.3192047626614598 -1.0460192819904479e-16 -3.543780972570741e-18 -1.0460192819904479e-16 -3.543780972570741e-18 0.9476855589252087 0.31920539062559916
12629006666.666666 0.9508985164666887 0.3095028455140231 -1.0461244474337662e-16 -2.4648137812830295e-18 -1.0461244474337662e-16 -2.4648137812830295e-18 0.9508983113908998 0.30950347557622404
12629624000.0 0.9540119421570346 0.29976860112691744 -1.0461183923228578e-16 -1.386006482570822e-18 -1.0461183923228578e-16 -1.386006482570822e-18 0.9540117435408323 0.29976923322116883
12630241333.333334 0.9570257223169402 0.29000304623152756 -1.0460011607872485e-16 -3.0747364620120654e-19 -1.0460011607872485e-16 -3.0747364620120654e-19 0.9570255301804371 0.2900036802916122
12630858666.666666 0.9599395421603143 0.28020720082980327 -1.0457728087505132e-16 7.706702320129963e-19 -1.0457728087505132e-16 7.706702320129963e-19 0.9599393565229446 0.28020783678930544
12631476000.0 0.9627530973419043 0.2703820880872045 -1.0454334039197138e-16 1.8483107423549993e-18 -1.0454334039197138e-16 1.8483107423549993e-18 0.9627529182224217 0.2703827258795166
12632093333.333334 0.9654660939889228 0.260528734226378 -1.0449830257736103e-16 2.925333573308137e-18 -1.0449830257736103e-16 2.925333573308137e-18 0.9654659214053982 0.2605293737847074
12632710666.666666 0.9680782487318185 0.2506481684197251 -1.0444217655496192e-16 4.001624523653748e-18 -1.0444217655496192e-16 4.001624523653748e-18 0.968078082701638 0.25064880967710124
12633328000.0 0.9705892887339249 0.2407414226816839 -1.0437497262295047e-16 5.077069514597086e-18 -1.0437497262295047e-16 5.077069514597086e-18 0.9705891292737888 0.24074206557096528
12633945333.333334 0.9729989517198467 0.23080953176137747 -1.0429670225238749e-16 6.151554601789469e-18 -1.0429670225238749e-16 6.151554601789469e-18 0.9729987988457682 0.23081017621525896
12634562666.666666 0.9753069860029451 0.22085353303417743 -1.0420737808554007e-16 7.224965987402646e-18 -1.0420737808554007e-16 7.224965987402646e-18 0.9753068397302469 0.22085417898519677
12635180000.0 0.9775131505115634 0.21087446639359902 -1.0410701393408045e-16 8.297190032165062e-18 -1.0410701393408045e-16 8.297190032165062e-18 0.9775130108548781 0.21087511377414442
12635797333.333334 0.9796172148142657 0.20087337414243656 -1.0399562477716282e-16 9.36811326735289e-18 -1.0399562477716282e-16 9.36811326735289e-18 0.9796170817875329 0.20087402288475345
12636414666.666666 0.9816189591438396 0.19085130088420163 -1.0387322675937594e-16 1.043762240678793e-17 -1.0387322675937594e-16 1.043762240678793e-17 0.9816188327603055 0.19085195092039975
12637032000.0 0.9835181744203016 0.1808092934137648 -1.0373983718857243e-16 1.1505604358793588e-17 -1.0373983718857243e-16 1.1505604358793588e-17 0.9835180546925165 0.18080994467582542
12637649333.333334 0.985314662272729 0.17074840060804652 -1.0359547453357482e-16 1.2571946238143288e-17 -1.0359547453357482e-16 1.2571946238143288e-17 0.9853145492125477 0.17074905302782958
12638266666.666666 0.9870082350599491 0.16066967331663096 -1.0344015842176254e-16 1.3636535377949878e-17 -1.0344015842176254e-16 1.3636535377949878e-17 0.9870081286785285 0.16067032682588214
12638884000.0 0.9885987158901757 0.15057416425178188 -1.032739096365315e-16 1.4699259341571345e-17 -1.032739096365315e-16 1.4699259341571345e-17 0.9885986161979756 0.15057481878213996
12639501333.333334 0.990085938639461 0.14046292787865633 -1.030967501146373e-16 1.5760005934443298e-17 -1.030967501146373e-16 1.5760005934443298e-17 0.9900858456462394 0.14046358336165973
12640118666.666666 0.9914697479690321 0.1303370203052512 -1.0290870294341436e-16 1.681866321590769e-17 -1.0290870294341436e-16 1.681866321590769e-17 0.991469661683847 0.13033767667234575
12640736000.0 0.9927499993415914 0.12019749917155907 -1.0270979235786904e-16 1.7875119511027197e-17 -1.0270979235786904e-16 1.7875119511027197e-17 0.9927499197728 0.12019815635410494
12641353333.333334 0.9939265590362976 0.11004542353997217 -1.0250004373766635e-16 1.8929263422296987e-17 -1.0250004373766635e-16 1.8929263422296987e-17 0.9939264861915542 0.11004608146925102
12641970666.666666 0.9949993041628376 0.09988185378384698 -1.0227948360397868e-16 1.998098384140972e-17 -1.0227948360397868e-16 1.998098384140972e-17 0.9949992380490927 0.09988251239106913
12642588000.0 0.9959681226741954 0.08970785147725675 -1.0204813961622727e-16 2.1030169960924222e-17 -1.0204813961622727e-16 2.1030169960924222e-17 0.9959680632976989 0.08970851069356872
12643205333.333334 0.9968329133783945 0.07952447928385796 -1.0180604056869762e-16 2.2076711285926636e-17 -1.0180604056869762e-16 2.2076711285926636e-17 0.9968328607446887 0.0795251390403491
12643822666.666666 0.9975935859490451 0.06933280084600837 -1.0155321638703629e-16 2.3120497645650908e-17 -1.0155321638703629e-16 2.3120497645650908e-17 0.9975935400629687 0.0693334610737184
12644440000.0 0.9982500609347887 0.05913388067358612 -1.0128969812463468e-16 2.4161419205034246e-17 -1.0128969812463468e-16 2.4161419205034246e-17 0.9982500218004757 0.05913454130351236
12645057333.333334 0.9988022697675867 0.048928784032972905 -1.010155179588886e-16 2.5199366476261536e-17 -1.010155179588886e-16 2.5199366476261536e-17 0.9988022373884646 0.04892944499607733
12645674666.666666 0.999250154769888 0.03871857683570312 -1.007307091873394e-16 2.6234230330268148e-17 -1.007307091873394e-16 2.6234230330268148e-17 0.99925012914868 0.038719238062919735
12646292000.0 0.9995936691606679 0.02850432552684661 -1.0043530622369888e-16 2.726590200819139e-17 -1.0043530622369888e-16 2.726590200819139e-17 0.9995936502993898 0.028504986949088484
12646909333.333334 0.9998327770602864 0.01828709697418729 -1.0012934459376269e-16 2.8294273132764253e-17 -1.0012934459376269e-16 2.8294273132764253e-17 0.9998327649602481 0.01828775852235392
12647526666.666666 0.9999674534942569 0.00806795835627893 -9.981286093120021e-17 2.931923571968378e-17 -9.981286093120021e-17 2.931923571968378e-17 0.999967448156063 0.008068619961263407
12648144000.0 0.9999976843958466 -0.0021520229487649095 -9.948589297322546e-17 3.034068218894774e-17 -9.948589297322546e-17 3.034068218894774e-17 0.9999976858193941 -0.0021513613560687093
12648761333.333334 0.9999234666075466 -0.012371779474871067 -9.914847955616757e-17 3.135850537608988e-17 -9.914847955616757e-17 3.135850537608988e-17 0.9999234747920263 -0.01237111796356122
12649378666.666666 0.9997448078814007 -0.022590243779303465 -9.880066061090985e-17 3.237259854342339e-17 -9.880066061090985e-17 3.237259854342339e-17 0.9997448228252985 -0.02258958241846281
12649996000.0 0.9994617268782009 -0.032806348554383816 -9.84424771582237e-17 3.338285539120358e-17 -9.84424771582237e-17 3.338285539120358e-17 0.999461748579296 -0.032805687413072736
12650613333.333334 0.9990742531655286 -0.043019026738970643 -9.80739713039809e-17 3.4389170068761996e-17 -9.80739713039809e-17 3.4389170068761996e-17 0.999074281620895 -0.04301836588621983
12651230666.666666 0.9985824272146817 -0.05322721162960028 -9.769518623426945e-17 3.5391437185541216e-17 -9.769518623426945e-17 3.5391437185541216e-17 0.9985824624206879 -0.053226551134403575
12651848000.0 0.9979863003964249 -0.06342983699241406 -9.730616621036666e-17 3.638955182215986e-17 -9.730616621036666e-17 3.638955182215986e-17 0.9979863423487352 -0.0634291769237212
12652465333.333334 0.9972859349756465 -0.07362583717404263 -9.690695656363399e-17 3.738340954132878e-17 -9.690695656363399e-17 3.738340954132878e-17 0.9972859836692207 -0.0736251776007521
12653082666.666666 0.9964814041048443 -0.08381414721313943 -9.649760369028204e-17 3.837290639876489e-17 -9.649760369028204e-17 3.837290639876489e-17 0.9964814595339395 -0.0838134882040913
12653700000.0 0.9955727918164806 -0.09399370295167148 -9.607815504601187e-17 3.9357938954075107e-17 -9.607815504601187e-17 3.9357938954075107e-17 0.9955728539746498 -0.09399304457564006
12654317333.333334 0.994560193014215 -0.10416344114589922 -9.56486591405844e-17 4.0338404281489886e-17 -9.56486591405844e-17 4.0338404281489886e-17 0.9945602618943103 -0.10416278347158617
12654934666.666666 0.99344371346299 -0.11432229957751669 -9.520916553223595e-17 4.131419998064421e-17 -9.520916553223595e-17 4.131419998064421e-17 0.9934437890571619 -0.11432164267354361
12655552000.0 0.9922234697779719 -0.12446921716468361 -9.475972482201407e-17 4.2285224187227805e-17 -9.475972482201407e-17 4.2285224187227805e-17 0.9922235520776692 -0.12446856109958479
12656169333.333334 0.9908995894123878 -0.1346031340726844 -9.430038864799697e-17 4.32513755835933e-17 -9.430038864799697e-17 4.32513755835933e-17 0.9908996784083602 -0.13460247891489993
12656786666.666666 0.9894722106442062 -0.14472299182471213 -9.383120967940185e-17 4.421255340931047e-17 -9.383120967940185e-17 4.421255340931047e-17 0.9894723063265058 -0.14472233764258075
12657404000.0 0.987941482561681 -0.15482773341250922 -9.335224161058389e-17 4.516865747165946e-17 -9.335224161058389e-17 4.516865747165946e-17 0.9879415849196629 -0.15482708027426118
12658021333.333334 0.9863075650478044 -0.16491630340660246 -9.286353915494037e-17 4.6119588156035795e-17 -9.286353915494037e-17 4.6119588156035795e-17 0.986307674070126 -0.16491565138035202
12658638666.666666 0.9845706287635934 -0.17498764806662528 -9.236515803869829e-17 4.70652464363142e-17 -9.236515803869829e-17 4.70652464363142e-17 0.9845707444382186 -0.1749869972203643
12659256000.0 0.9827308551302584 -0.18504071545143697 -9.18571549945964e-17 4.8005533885142405e-17 -9.18571549945964e-17 4.8005533885142405e-17 0.9827309774444559 -0.18504006585302696
12659873333.333334 0.9807884363102498 -0.19507445552896646 -9.133958775546825e-17 4.8940352684160224e-17 -9.133958775546825e-17 4.8940352684160224e-17 0.9807885652505982 -0.19507380724613255
12660490666.666666 0.9787435751872343 -0.2050878202856941 -9.081251504773079e-17 4.986960563413147e-17 -9.081251504773079e-17 4.986960563413147e-17 0.97874371073962 -0.20508717338601706
12661108000.0 0.9765964853448292 -0.21507976383647737 -9.027599658473335e-17 5.0793196165073515e-17 -9.027599658473335e-17 5.0793196165073515e-17 0.9765966274944493 -0.21507911838738686
12661725333.333334 0.9743473910443513 -0.22504924253348466 -8.973009306005999e-17 5.171102834621541e-17 -8.973009306005999e-17 5.171102834621541e-17 0.9743475397757154 -0.22504859860225238
12662342666.666666 0.9719965272013757 -0.23499521507531634 -8.917486614068013e-17 5.262300689597447e-17 -8.917486614068013e-17 5.262300689597447e-17 0.9719966824983094 -0.23499457272904917
12662960000.0 0.9695441393611789 -0.24491664261584983 -8.861037846002149e-17 5.3529037191818624e-17 -8.861037846002149e-17 5.3529037191818624e-17 0.9695443012068217 -0.24491600192148227
12663577333.333334 0.9669904836731347 -0.25481248887255226 -8.803669361094903e-17 5.442902528004501e-17 -8.803669361094903e-17 5.442902528004501e-17 0.9669906520499448 -0.25481184989683997
12664194666.666666 0.96433582686391 -0.2646817202349405 -8.745387613862432e-17 5.5322877885519404e-17 -8.745387613862432e-17 5.5322877885519404e-17 0.9643360017536644 -0.2646810830444528
12664812000.0 0.9615804462096486 -0.2745233058723466 -8.686199153328986e-17 5.621050242129886e-17 -8.686199153328986e-17 5.621050242129886e-17 0.9615806275934455 -0.27452267053345997
12665429333.333334 0.958724629506985 -0.2843362178416977 -8.62611062229304e-17 5.70918069982206e-17 -8.62611062229304e-17 5.70918069982206e-17 0.9587248173652488 -0.2843355844205894
12666046666.666666 0.9557686750430034 -0.2941194311948304 -8.56512875658724e-17 5.796670043435856e-17 -8.56512875658724e-17 5.796670043435856e-17 0.9557688693554803 -0.29411879975746985
12666664000.0 0.9527128915640392 -0.3038719240856508 -8.503260384323488e-17 5.883509226447909e-17 -8.503260384323488e-17 5.883509226447909e-17 0.9527130923098062 -0.30387129469779467
12667281333.333334 0.94955759824349 -0.31359267787670553 -8.440512425135382e-17 5.969689274931778e-17 -8.440512425135382e-17 5.969689274931778e-17 0.9495578054009532 -0.31359205060388967
12667898666.666666 0.9463031246484579 -0.3232806772456304 -8.376891889404476e-17 6.055201288487173e-17 -8.376891889404476e-17 6.055201288487173e-17 0.9463033381953565 -0.32328005215316347
12668516000.0 0.942949810705255 -0.33293491029141514 -8.312405877481616e-17 6.140036441154777e-17 -8.312405877481616e-17 6.140036441154777e-17 0.9429500306186624 -0.33293428744437176
12669133333.333334 0.9394980066640428 -0.34255436863966476 -8.247061578897851e-17 6.224185982324501e-17 -8.247061578897851e-17 6.224185982324501e-17 0.9394982329203695 -0.34255374810287836
12669750666.666666 0.9359480730621321 -0.35213804754827316 -8.180866271565665e-17 6.307641237636083e-17 -8.180866271565665e-17 6.307641237636083e-17 0.93594830563713 -0.3521374293863303
12670368000.0 0.9323003806863321 -0.36168494601234014 -8.113827320970721e-17 6.390393609871676e-17 -8.113827320970721e-17 6.390393609871676e-17 0.9323006195550935 -0.36168433028957225
