! Parameters = {f0=12700.012000; bw=77.238000; Q=6100.000000; N=10; m_0_1=1.311807; m_1_1=0.912356; m_1_2=1.146619; m_2_2=0.911707; m_2_3=0.783582; m_2_8=0.002654; m_2_9=0.039358; m_3_3=0.909770; m_3_4=0.672111; m_3_7=0.003254; m_3_8=-0.093834; m_3_9=0.002654; m_4_4=0.906845; m_4_5=0.508446; m_4_6=0.006771; m_4_7=-0.114383; m_4_8=0.003254; m_5_5=0.907227; m_5_6=0.915801; m_5_7=0.006771; m_6_6=0.907226; m_6_7=0.508788; m_7_7=0.906859; m_7_8=0.672229; m_8_8=0.909768; m_8_9=0.783895; m_9_9=0.911702; m_9_10=1.147697; m_10_10=0.912346; m_10_11=1.312602}
!
! Created with skrf (http://scikit-rf.org).
# Hz S RI R 50.0 
!freq ReS11 ImS11 ReS21 ImS21 ReS12 ImS12 ReS22 ImS22
12607400000.0 0.8010572651863834 0.5985877194630075 -1.2586148506470118e-16 -4.647546932252614e-17 -1.2586148506470118e-16 -4.647546932252614e-17 0.8010568515266462 0.5985882730408514
12608017333.333334 0.8080404351167827 0.5891270280814599 -1.2637850873337857e-16 -4.497228401696294e-17 -1.2637850873337857e-16 -4.497228401696294e-17 0.8080400280148724 0.5891275864577523
12608634666.666666 0.8149118778249564 0.5795848784946132 -1.2687759093631798e-16 -4.346337481810273e-17 -1.2687759093631798e-16 -4.346337481810273e-17 0.8149114773365183 0.579585441591682
12609252000.0 0.8216706432010941 0.5699625900893072 -1.27358668655383e-16 -4.194895573518191e-17 -1.27358668655383e-16 -4.194895573518191e-17 0.8216702493808534 0.5699631578288351
12609869333.333334 0.8283157967152724 0.5602614933330289 -1.2782168142360533e-16 -4.0429241466821445e-17 -1.2782168142360533e-16 -4.0429241466821445e-17 0.8283154096170267 0.560262065636064
12610486666.666666 0.8348464195464919 0.550482929590205 -1.2826657133266835e-16 -3.890444737064081e-17 -1.2826657133266835e-16 -3.890444737064081e-17 0.8348460392231045 0.5504835063771727
12611104000.0 0.8412616087099655 0.5406282509363832 -1.286932830400452e-16 -3.737478943273269e-17 -1.286932830400452e-16 -3.737478943273269e-17 0.8412612352133573 0.5406288321270963
12611721333.333334 0.8475604771817185 0.5306988199716572 -1.291017637757379e-16 -3.584048423718574e-17 -1.291017637757379e-16 -3.584048423718574e-17 0.8475601105628623 0.5306994054853279
12612338666.666666 0.8537421540214569 0.5206960096319302 -1.2949196334868755e-16 -3.4301748935414635e-17 -1.2949196334868755e-16 -3.4301748935414635e-17 0.853741794330369 0.5206965993871805
12612956000.0 0.8598057844928947 0.5106212029992192 -1.2986383415280988e-16 -3.2758801215459166e-17 -1.2986383415280988e-16 -3.2758801215459166e-17 0.8598054317786288 0.510621796914093
12613573333.333334 0.8657505301818533 0.5004757931105672 -1.3021733117264808e-16 -3.1211859271286254e-17 -1.3021733117264808e-16 -3.1211859271286254e-17 0.8657501844924943 0.5004763911025416
12614190666.666666 0.8715755691123792 0.49026118276511027 -1.3055241198868746e-16 -2.9661141771930006e-17 -1.3055241198868746e-16 -2.9661141771930006e-17 0.8715752304950346 0.4902617847511057
12614808000.0 0.877280095860234 0.4799787843303815 -1.3086903678228835e-16 -2.8106867830632257e-17 -1.3086903678228835e-16 -2.8106867830632257e-17 0.8772797643610302 0.47997939022677516
12615425333.333334 0.8828633216643245 0.46963001954692896 -1.3116716834025042e-16 -2.6549256973947972e-17 -1.3116716834025042e-16 -2.6549256973947972e-17 0.8828629973283987 0.46963062926956534
12616042666.666666 0.8883244745357977 0.45921631933165374 -1.3144677205902043e-16 -2.4988529110752717e-17 -1.3144677205902043e-16 -2.4988529110752717e-17 0.8883241574072931 0.45921693279585696
12616660000.0 0.8936627993647076 0.4487391235801112 -1.3170781594852066e-16 -2.3424904501264354e-17 -1.3170781594852066e-16 -2.3424904501264354e-17 0.893662489486766 0.44873974070069605
12617277333.333334 0.8988775580244868 0.43819988096729007 -1.3195027063561795e-16 -2.1858603725982903e-17 -1.3195027063561795e-16 -2.1858603725982903e-17 0.898877255439243 0.43820050165857394
12617894666.666666 0.9039680294739201 0.427600048747484 -1.321741093672171e-16 -2.028984765464261e-17 -1.321741093672171e-16 -2.028984765464261e-17 0.9039677342224963 0.4276006729232988
12618512000.0 0.9089335098570263 0.4169410925524136 -1.3237930801299725e-16 -1.8718857415052775e-17 -1.3237930801299725e-16 -1.8718857415052775e-17 0.9089332219795273 0.41694172012611835
12619129333.333334 0.913773312600135 0.40622448618908735 -1.3256584506776033e-16 -1.714585436204634e-17 -1.3256584506776033e-16 -1.714585436204634e-17 0.9137730321356432 0.40622511707358033
12619746666.666666 0.9184867685069813 0.39545171143568775 -1.3273370165342868e-16 -1.5571060046284577e-17 -1.3273370165342868e-16 -1.5571060046284577e-17 0.9184864954935491 0.3954523455434171
12620364000.0 0.9230732258512613 0.3846242578366043 -1.3288286152066632e-16 -1.3994696183084022e-17 -1.3288286152066632e-16 -1.3994696183084022e-17 0.9230729603259068 0.3846248950795812
12620981333.333334 0.9275320504665762 0.37374362249686705 -1.330133110501238e-16 -1.2416984621304328e-17 -1.330133110501238e-16 -1.2416984621304328e-17 0.9275317924652795 0.3737442627866781
12621598666.666666 0.9318626258342694 0.36281130987480553 -1.331250392533277e-16 -1.0838147312101153e-17 -1.331250392533277e-16 -1.0838147312101153e-17 0.9318623753919665 0.36281195312262465
12622216000.0 0.9360643531686439 0.35182883157407785 -1.3321803777318818e-16 -9.258406277790222e-18 -1.3321803777318818e-16 -9.258406277790222e-18 0.9360641103192215 0.35182947769067824
12622833333.333334 0.9401366514997133 0.340797706134768 -1.3329230088414458e-16 -7.677983580645598e-18 -1.3329230088414458e-16 -7.677983580645598e-18 0.9401364162760065 0.3407983550305356
12623450666.666666 0.9440789577535265 0.3297194588234464 -1.333478254919378e-16 -6.0971012917499175e-18 -1.333478254919378e-16 -6.0971012917499175e-18 0.9440787301873131 0.3297201104083918
12624068000.0 0.9478907268301044 0.3185956214220596 -1.3338461113301737e-16 -4.515981459798798e-18 -1.3338461113301737e-16 -4.515981459798798e-18 0.9478905069520983 0.31859627560582954
12624685333.333334 0.9515714316787519 0.3074277320162622 -1.3340265997357582e-16 -2.9348460799773635e-18 -1.3340265997357582e-16 -2.9348460799773635e-18 0.9515712195186025 0.30742838870815353
12625302666.666666 0.9551205633708795 0.2962173347829383 -1.334019768082166e-16 -1.3539170628413455e-18 -1.334019768082166e-16 -1.3539170628413455e-18 0.9551203589571652 0.2962179938919097
12625920000.0 0.9585376311705255 0.2849659797762015 -1.3338256905825343e-16 2.265837968156996e-19 -1.3338256905825343e-16 2.265837968156996e-19 0.9585374345307527 0.2849666412108868
12626537333.333334 0.9618221626020412 0.2736752227136123 -1.3334444676964228e-16 1.80643485099852e-18 -1.3334444676964228e-16 1.80643485099852e-18 0.9618219737626377 0.2736758863823323
12627154666.666666 0.9649737035154969 0.2623466247608262 -1.3328762261054562e-16 3.385414629566659e-18 -1.3328762261054562e-16 3.385414629566659e-18 0.9649735225018098 0.2623472905716023
12627772000.0 0.9679918181495445 0.25098175231548625 -1.3321211186852783e-16 4.963301871276534e-18 -1.3321211186852783e-16 4.963301871276534e-18 0.9679916449858355 0.2509824201760518
12628389333.333334 0.9708760891915146 0.23958217679118413 -1.331179324473893e-16 6.539875554664696e-18 -1.331179324473893e-16 6.539875554664696e-18 0.9708759239009594 0.23958284660899912
12629006666.666666 0.9736261178352595 0.22814947439969066 -1.3300510486362765e-16 8.114914929051944e-18 -1.3300510486362765e-16 8.114914929051944e-18 0.9736259604399404 0.2281501460819526
12629624000.0 0.9762415238362259 0.21668522593323084 -1.3287365224254113e-16 9.688199545338383e-18 -1.3287365224254113e-16 9.688199545338383e-18 0.9762413743571345 0.21668589938688929
12630241333.333334 0.9787219455640441 0.20519101654591182 -1.3272360031396098e-16 1.125950928686897e-17 -1.3272360031396098e-16 1.125950928686897e-17 0.9787218040210734 0.20519169167768
12630858666.666666 0.9810670400525044 0.1936684355346261 -1.3255497740762714e-16 1.2828624400138351e-17 -1.3255497740762714e-16 1.2828624400138351e-17 0.9810669064644489 0.19366911225099456
12631476000.0 0.9832764830470654 0.18211907611891215 -1.3236781444819135e-16 1.439532552553831e-17 -1.3236781444819135e-16 1.439532552553831e-17 0.9832763574316178 0.18211975432616154
12632093333.333334 0.9853499690495767 0.1705445352211896 -1.3216214494987025e-16 1.5959393727925015e-17 -1.3216214494987025e-16 1.5959393727925015e-17 0.9853498514233254 0.17054521482540336
12632710666.666666 0.9872872113605786 0.15894641324567524 -1.3193800501072675e-16 1.7520610527208846e-17 -1.3193800501072675e-16 1.7520610527208846e-17 0.9872871017390071 0.1589470941527532
12633328000.0 0.989087942118959 0.14732631385701278 -1.316954333065954e-16 1.9078757928823123e-17 -1.316954333065954e-16 1.9078757928823123e-17 0.9890878405164413 0.14732699597268364
12633945333.333334 0.9907519123389619 0.13568584375867396 -1.3143447108464976e-16 2.0633618454116872e-17 -1.3143447108464976e-16 2.0633618454116872e-17 0.9907518187687616 0.13568652698850844
12634562666.666666 0.9922788919446106 0.12402661247082934 -1.3115516215661048e-16 2.218497517065929e-17 -1.3115516215661048e-16 2.218497517065929e-17 0.9922788064188807 0.12402729672025352
12635180000.0 0.9936686698015339 0.11235023210774528 -1.30857552891596e-16 2.3732611722471085e-17 -1.30857552891596e-16 2.3732611722471085e-17 0.9936685923313133 0.11235091728205344
12635797333.333334 0.9949210537461678 0.10065831715476457 -1.3054169220861326e-16 2.527631236017005e-17 -1.3054169220861326e-16 2.527631236017005e-17 0.9949209843413808 0.10065900315913238
12636414666.666666 0.9960358706122955 0.08895248424535511 -1.3020763156870598e-16 2.6815861970968263e-17 -1.3020763156870598e-16 2.6815861970968263e-17 0.996035809281751 0.08895317098485281
12637032000.0 0.9970129662550206 0.07723435193732499 -1.2985542496673343e-16 2.835104610863833e-17 -1.2985542496673343e-16 2.835104610863833e-17 0.9970129130064088 0.07723503931693035
12637649333.333334 0.9978522055720723 0.06550554048905341 -1.294851289228057e-16 2.988165102333755e-17 -1.294851289228057e-16 2.988165102333755e-17 0.9978521604119664 0.06550622841366499
12638266666.666666 0.9985534725224777 0.05376767163560033 -1.2909680247337084e-16 3.1407463691307956e-17 -1.2909680247337084e-16 3.1407463691307956e-17 0.9985534354563316 0.0537683600100507
12638884000.0 0.9991166701426126 0.04202236836438542 -1.286905071619463e-16 3.2928271844492434e-17 -1.286905071619463e-16 3.2928271844492434e-17 0.9991166411747592 0.042023057093454115
12639501333.333334 0.9995417205596104 0.03027125469066474 -1.2826630702950042e-16 3.4443864000036723e-17 -1.2826630702950042e-16 3.4443864000036723e-17 0.9995416996932655 0.030271943679091744
12640118666.666666 0.9998285650021224 0.01851595543334885 -1.2782426860450446e-16 3.595402948960783e-17 -1.2782426860450446e-16 3.595402948960783e-17 0.9998285522393795 0.018516644585847494
12640736000.0 0.9999771638084579 0.006758095989629638 -1.273644608926007e-16 3.7458558488724865e-17 -1.273644608926007e-16 3.7458558488724865e-17 0.9999771591502906 0.006758785210899891
12641353333.333334 0.9999874964320496 -0.005000697888739275 -1.2688695536599087e-16 3.895724204573878e-17 -1.2688695536599087e-16 3.895724204573878e-17 0.9999874998783096 -0.005000008693997654
12641970666.666666 0.9998595614443091 -0.01675880032122875 -1.2639182595240721e-16 4.0449872110935436e-17 -1.2639182595240721e-16 4.0449872110935436e-17 0.9998595729937292 -0.016758111248303023
12642588000.0 0.9995933765348178 -0.02851458552274675 -1.2587914902380486e-16 4.1936241565294727e-17 -1.2587914902380486e-16 4.1936241565294727e-17 0.99959339618501 -0.02851389666689804
12643205333.333334 0.9991889785088871 -0.0402664280285768 -1.2534900338468062e-16 4.3416144249223286e-17 -1.2534900338468062e-16 4.3416144249223286e-17 0.9991890062563419 -0.04026573948502685
12643822666.666666 0.998646423282454 -0.052012702919328496 -1.2480147026007022e-16 4.4889374991090983e-17 -1.2480147026007022e-16 4.4889374991090983e-17 0.9986464591225465 -0.05201201478324669
12644440000.0 0.9979657858743687 -0.06375178604530184 -1.242366332832035e-16 4.6355729635642855e-17 -1.242366332832035e-16 4.6355729635642855e-17 0.9979658298013525 -0.06375109841179187
12645057333.333334 0.9971471603960129 -0.07548205425119932 -1.2365457848283743e-16 4.7815005072225435e-17 -1.2365457848283743e-16 4.7815005072225435e-17 0.9971472124030253 -0.07548136721528609
12645674666.666666 0.9961906600382924 -0.0872018856005017 -1.2305539427024505e-16 4.926699926289079e-17 -1.2305539427024505e-16 4.926699926289079e-17 0.9961907201173544 -0.08720119925711832
12646292000.0 0.9950964170559633 -0.09890965960004419 -1.2243917142587326e-16 5.071151127034246e-17 -1.2243917142587326e-16 5.071151127034246e-17 0.9950964851979792 -0.09890897404401854
12646909333.333334 0.9938645827493834 -0.11060375742354205 -1.2180600308569393e-16 5.214834128566729e-17 -1.2180600308569393e-16 5.214834128566729e-17 0.9938646589441457 -0.11060307274958411
12647526666.666666 0.9924953274435699 -0.12228256213579367 -1.2115598472721162e-16 5.357729065593969e-17 -1.2115598472721162e-16 5.357729065593969e-17 0.9924954116797563 -0.12228187843848204
12648144000.0 0.9909888404646285 -0.1339444589163083 -1.2048921415514334e-16 5.4998161911667134e-17 -1.2048921415514334e-16 5.4998161911667134e-17 0.990988932729809 -0.1339437762900776
12648761333.333334 0.9893453301136235 -0.14558783528227692 -1.1980579148680368e-16 5.641075879399639e-17 -1.1980579148680368e-16 5.641075879399639e-17 0.9893454303942558 -0.14558715382140403
12649378666.666666 0.9875650236377359 -0.15721108131175346 -1.1910581913714938e-16 5.781488628179143e-17 -1.1910581913714938e-16 5.781488628179143e-17 0.9875651319191746 -0.15721040111034543
12649996000.0 0.9856481671988633 -0.16881258986620276 -1.1838940180350782e-16 5.921035061852326e-17 -1.1838940180350782e-16 5.921035061852326e-17 0.9856482834653556 -0.16881191101818302
12650613333.333334 0.9835950258395667 -0.1803907568127453 -1.1765664644999442e-16 6.059695933896482e-17 -1.1765664644999442e-16 6.059695933896482e-17 0.9835951500742581 -0.18039007941184107
12651230666.666666 0.9814058834464605 -0.19194398124579268 -1.1690766229163932e-16 6.197452129565462e-17 -1.1690766229163932e-16 6.197452129565462e-17 0.9814060156313965 -0.19194330538552196
12651848000.0 0.9790810427108839 -0.20347066570879438 -1.1614256077815336e-16 6.33428466852615e-17 -1.1614256077815336e-16 6.33428466852615e-17 0.9790811828270131 -0.20346999148245318
12652465333.333334 0.9766208250871282 -0.2149692164146985 -1.1536145557744737e-16 6.470174707463771e-17 -1.1536145557744737e-16 6.470174707463771e-17 0.9766209731143032 -0.21496854391534745
12653082666.666666 0.9740255707479755 -0.2264380434664077 -1.145644625588134e-16 6.605103542673301e-17 -1.145644625588134e-16 6.605103542673301e-17 0.9740257266649569 -0.22643737278685966
12653700000.0 0.9712956385375818 -0.23787556107697352 -1.137516997757832e-16 6.739052612633444e-17 -1.137516997757832e-16 6.739052612633444e-17 0.9712958023220436 -0.23787489230978107
12654317333.333334 0.9684314059219882 -0.24928018778830838 -1.1292328744875083e-16 6.872003500549007e-17 -1.1292328744875083e-16 6.872003500549007e-17 0.9684315775505182 -0.24927952102575068
12654934666.666666 0.9654332689368457 -0.26065034669021303 -1.1207934794723412e-16 7.003937936882607e-17 -1.1207934794723412e-16 7.003937936882607e-17 0.9654334483849483 -0.2606496820242826
12655552000.0 0.9623016421326295 -0.2719844656384958 -1.1122000577186096e-16 7.134837801861525e-17 -1.1122000577186096e-16 7.134837801861525e-17 0.9623018293747304 -0.27198380316088655
12656169333.333334 0.959036958517426 -0.2832809774719396 -1.1034538753609906e-16 7.264685127956818e-17 -1.1034538753609906e-16 7.264685127956818e-17 0.9590371535268775 -0.28328031727403413
12656786666.666666 0.9556396694969744 -0.2945383202293511 -1.0945562194764152e-16 7.393462102349039e-17 -1.0945562194764152e-16 7.393462102349039e-17 0.9556398722460548 -0.2945376624022073
12657404000.0 0.9521102448122534 -0.3057549373654741 -1.085508397895344e-16 7.521151069366479e-17 -1.085508397895344e-16 7.521151069366479e-17 0.9521104552721763 -0.30575428199981397
12658021333.333334 0.9484491724745707 -0.3169292779661051 -1.076311739010262e-16 7.647734532899847e-17 -1.076311739010262e-16 7.647734532899847e-17 0.9484493906154855 -0.3169286251523011
12658638666.666666 0.9446569586981024 -0.32805979696248266 -1.0669675915813184e-16 7.773195158794254e-17 -1.0669675915813184e-16 7.773195158794254e-17 0.9446571844890996 -0.3280591467905459
12659256000.0 0.9407341278297845 -0.33914495534527483 -1.0574773245388597e-16 7.897515777222108e-17 -1.0574773245388597e-16 7.897515777222108e-17 0.9407343612388993 -0.3391443079048419
12659873333.333334 0.9366812222769425 -0.35018322037697047 -1.0478423267838154e-16 8.020679385023485e-17 -1.0478423267838154e-16 8.020679385023485e-17 0.9366814632711604 -0.35018257575729195
12660490666.666666 0.9324988024322766 -0.3611730658038946 -1.038064006984985e-16 8.14266914802778e-17 -1.038064006984985e-16 8.14266914802778e-17 0.9324990509775364 -0.3611724240938219
12661108000.0 0.9281874465962369 -0.3721129720675855 -1.0281437933733691e-16 8.263468403353518e-17 -1.0281437933733691e-16 8.263468403353518e-17 0.928187702657439 -0.3721123333555597
12661725333.333334 0.9237477508972722 -0.3830014265143735 -1.0180831335346234e-16 8.383060661673642e-17 -1.0180831335346234e-16 8.383060661673642e-17 0.9237480144382797 -0.3830007908884122
12662342666.666666 0.9191803292092455 -0.39383692360493155 -1.0078834941980743e-16 8.501429609465489e-17 -1.0078834941980743e-16 8.501429609465489e-17 0.9191806001928917 -0.3938362911526173
12662960000.0 0.9144858130666302 -0.40461796512226084 -9.97546361023506e-17 8.61855911123053e-17 -9.97546361023506e-17 8.61855911123053e-17 0.9144860914547217 -0.4046173359307284
12663577333.333334 0.9096648515771282 -0.41534306037897745 -9.870732383854761e-17 8.734433211687161e-17 -9.870732383854761e-17 8.734433211687161e-17 0.9096651373304536 -0.415342434534903
12664194666.666666 0.9047181113320046 -0.4260107264232491 -9.764656491547551e-17 8.849036137941404e-17 -9.764656491547551e-17 8.849036137941404e-17 0.9047184044103368 -0.4260101040128371
12664812000.0 0.8996462763138188 -0.43661948824404634 -9.657251344776052e-17 8.962352301626751e-17 -9.657251344776052e-17 8.962352301626751e-17 0.8996465766759217 -0.43661886935301814
12665429333.333334 0.8944500478019259 -0.4471678789749386 -9.548532535523103e-17 9.074366301020909e-17 -9.548532535523103e-17 9.074366301020909e-17 0.8944503554055611 -0.44716726368852067
12666046666.666666 0.889130144275537 -0.45765444009686573 -9.438515834035459e-17 9.185062923132031e-17 -9.438515834035459e-17 9.185062923132031e-17 0.8891304590774685 -0.45765382849977787
12666664000.0 0.8836873013141963 -0.46807772164016176 -9.327217186537703e-17 9.294427145763669e-17 -9.327217186537703e-17 9.294427145763669e-17 0.8836876232701972 -0.4680771138166055
12667281333.333334 0.8781222714963315 -0.4784362823845354 -9.214652712931822e-17 9.402444139542529e-17 -9.214652712931822e-17 9.402444139542529e-17 0.8781226005611898 -0.4784356784181821
12667898666.666666 0.8724358242950275 -0.4887286900586755 -9.100838704463004e-17 9.509099269928754e-17 -9.100838704463004e-17 9.509099269928754e-17 0.8724361604225532 -0.48872809003265516
12668516000.0 0.8666287459715843 -0.49895352153836126 -8.9857916213689e-17 9.614378099191419e-17 -8.9857916213689e-17 9.614378099191419e-17 0.8666290891146151 -0.49895292553525106
12669133333.333334 0.8607018394670126 -0.5091093630428672 -8.869528090505982e-17 9.718266388356076e-17 -8.869528090505982e-17 9.718266388356076e-17 0.8607021895774214 -0.5091087711446801
12669750666.666666 0.8546559242908156 -0.5191948103307908 -8.75206490294811e-17 9.820750099128362e-17 -8.75206490294811e-17 9.820750099128362e-17 0.8546562813195159 -0.5191942226189641
12670368000.0 0.8484918364077434 -0.5292084688940917 -8.633419011569418e-17 9.921815395782977e-17 -8.633419011569418e-17 9.921815395782977e-17 0.848492200304698 -0.5292078854494764
