! Parameters = {f0=12700.012000; bw=77.238000; Q=6100.000000; N=10; m_0_1=1.327422; m_1_1=1.146591; m_1_2=1.162234; m_2_2=1.145942; m_2_3=0.799197; m_2_8=0.003435; m_2_9=0.040139; m_3_3=1.144005; m_3_4=0.687726; m_3_7=0.004035; m_3_8=-0.093053; m_3_9=0.003435; m_4_4=1.141080; m_4_5=0.524061; m_4_6=0.007552; m_4_7=-0.113602; m_4_8=0.004035; m_5_5=1.141462; m_5_6=0.931416; m_5_7=0.007552; m_6_6=1.141461; m_6_7=0.524403; m_7_7=1.141094; m_7_8=0.687844; m_8_8=1.144003; m_8_9=0.799510; m_9_9=1.145937; m_9_10=1.163312; m_10_10=1.146581; m_10_11=1.328217}
!
! Created with skrf (http://scikit-rf.org).
# Hz S RI R 50.0 
!freq ReS11 ImS11 ReS21 ImS21 ReS12 ImS12 ReS22 ImS22
12607400000.0 -0.8065245978295312 -0.5912005354325384 1.3546488170197164e-16 4.861162832895375e-17 1.3546488170197164e-16 4.861162832895375e-17 -0.8065241844288807 -0.5912010993994651
12608017333.333334 -0.8136889643769991 -0.5813004982372665 1.3602633468017524e-16 4.6931333382291834e-17 1.3602633468017524e-16 4.6931333382291834e-17 -0.8136885579189049 -0.5813010671860672
12608634666.666666 -0.8207318155206198 -0.5713136502763042 1.3656695800575712e-16 4.5244585638241354e-17 1.3656695800575712e-16 4.5244585638241354e-17 -0.8207314160650989 -0.5713142241215288
12609252000.0 -0.8276520994889112 -0.5612414829744897 1.370866779335597e-16 4.355164315605131e-17 1.370866779335597e-16 4.355164315605131e-17 -0.8276517070949305 -0.5612420616299666
12609869333.333334 -0.8344487828145195 -0.5510855004980391 1.3758542391364204e-16 4.18527648322806e-17 1.3758542391364204e-16 4.18527648322806e-17 -0.8344483975399838 -0.551086083876885
12610486666.666666 -0.841120850488346 -0.5408472195302182 1.380631286007127e-16 4.0148210361266936e-17 1.380631286007127e-16 4.0148210361266936e-17 -0.8411204723900921 -0.5408478075448543
12611104000.0 -0.8476673061114288 -0.5305281690443968 1.3851972786308894e-16 3.8438240195430994e-17 1.3851972786308894e-16 3.8438240195430994e-17 -0.8476669352452162 -0.53052876160656
12611721333.333334 -0.8540871720434144 -0.5201298900762095 1.3895516079113428e-16 3.6723115505595605e-17 1.3895516079113428e-16 3.6723115505595605e-17 -0.8540868084639173 -0.5201304870969664
12612338666.666666 -0.8603794895487629 -0.5096539354931124 1.393693697052296e-16 3.5003098141120957e-17 1.393693697052296e-16 3.5003098141120957e-17 -0.8603791333095617 -0.5096545368828725
12612956000.0 -0.8665433189399605 -0.4991018697624024 1.3976230016325171e-16 3.32784505899527e-17 1.3976230016325171e-16 3.32784505899527e-17 -0.8665429700935344 -0.4991024754309315
12613573333.333334 -0.8725777397176208 -0.488475268717972 1.40133900967535e-16 3.154943593868399e-17 1.40133900967535e-16 3.154943593868399e-17 -0.8725773983153406 -0.48847587857440616
12614190666.666666 -0.8784818507082133 -0.4777757193245381 1.40484124171373e-16 2.981631783240372e-17 1.40484124171373e-16 2.981631783240372e-17 -0.8784815168003327 -0.47777633327739666
12614808000.0 -0.8842547701984544 -0.4670048194409626 1.40812925084995e-16 2.8079360434598834e-17 1.40812925084995e-16 2.8079360434598834e-17 -0.8842544438341027 -0.467005437398162
12615425333.333334 -0.8898956360670961 -0.4561641775814344 1.4112026228106893e-16 2.6338828386906678e-17 1.4112026228106893e-16 2.6338828386906678e-17 -0.8898953172942715 -0.45616479945030236
12616042666.666666 -0.8954036059136296 -0.44525541267532825 1.4140609759969102e-16 2.4594986768878044e-17 1.4140609759969102e-16 2.4594986768878044e-17 -0.895403294779193 -0.4452560383626177
12616660000.0 -0.9007778571840545 -0.4342801538255142 1.416703961528938e-16 2.2848101057626035e-17 1.416703961528938e-16 2.2848101057626035e-17 -0.9007775537337193 -0.43428078323741587
12617277333.333334 -0.9060175872938132 -0.42324004006486193 1.41913126328644e-16 2.1098437087490394e-17 1.41913126328644e-16 2.1098437087490394e-17 -0.9060172915721438 -0.4232406731070211
12617894666.666666 -0.9111220137474955 -0.412136720111807 1.4213425979435062e-16 1.9346261009627624e-17 1.4213425979435062e-16 1.9346261009627624e-17 -0.9111217257978953 -0.412137356689335
12618512000.0 -0.9160903742559169 -0.40097185212363984 1.4233377149987645e-16 1.759183925154437e-17 1.4233377149987645e-16 1.759183925154437e-17 -0.9160900941206265 -0.40097249214112984
12619129333.333334 -0.9209219268497146 -0.38974710344942354 1.4251163968003964e-16 1.5835438476702003e-17 1.4251163968003964e-16 1.5835438476702003e-17 -0.9209216545698028 -0.3897477468109644
12619746666.666666 -0.9256159499903052 -0.37846415038065717 1.4266784585663153e-16 1.4077325543988083e-17 1.4266784585663153e-16 1.4077325543988083e-17 -0.9256156856056627 -0.37846479698984725
12620364000.0 -0.9301717426776622 -0.3671246779008581 1.42802374839929e-16 1.2317767467210146e-17 1.42802374839929e-16 1.2317767467210146e-17 -0.9301714862269979 -0.36712532766082057
12620981333.333334 -0.934588624554836 -0.35573037943435126 1.429152147297034e-16 1.055703137465932e-17 1.429152147297034e-16 1.055703137465932e-17 -0.9345883760756705 -0.3557310322477485
12621598666.666666 -0.9388659360097469 -0.3442829565929002 1.4300635691574195e-16 8.795384468534219e-18 1.4300635691574195e-16 8.795384468534219e-18 -0.9388656955384064 -0.34428361236194793
12622216000.0 -0.943003038273557 -0.33278411892193416 1.4307579607786115e-16 7.03309398449552e-18 1.4307579607786115e-16 7.03309398449552e-18 -0.9430028058451673 -0.3327847775484158
12622833333.333334 -0.94699931351616 -0.3212355836449794 1.4312353018542748e-16 5.270427151137726e-18 1.4312353018542748e-16 5.270427151137726e-18 -0.9469990891646435 -0.321236245030262
12623450666.666666 -0.9508541649383336 -0.3096390754075329 1.431495604963765e-16 3.507651149567404e-18 1.431495604963765e-16 3.507651149567404e-18 -0.9508539486964046 -0.30963973945258133
12624068000.0 -0.9545670168609903 -0.2979963260191577 1.4315389155573826e-16 1.745033072906752e-18 1.4315389155573826e-16 1.745033072906752e-18 -0.9545668087601474 -0.29799699262454893
12624685333.333334 -0.9581373148110794 -0.28630907419504315 1.4313653119366158e-16 -1.7160114116722955e-20 1.4313653119366158e-16 -1.7160114116722955e-20 -0.9581371148816009 -0.286309743260981
12625302666.666666 -0.9615645256043726 -0.2745790652964008 1.4309749052294404e-16 -1.778661615500502e-18 1.4309749052294404e-16 -1.778661615500502e-18 -0.9615643338753168 -0.2745797367227326
12625920000.0 -0.9648481374251552 -0.26280805106962657 1.4303678393606491e-16 -3.539204844398421e-18 1.4303678393606491e-16 -3.539204844398421e-18 -0.9648479539243516 -0.26280872475585626
12626537333.333334 -0.9679876599026057 -0.250997789384858 1.429544291017234e-16 -5.298523463329662e-18 1.429544291017234e-16 -5.298523463329662e-18 -0.9679874846566512 -0.2509984652301618
12627154666.666666 -0.9709826241840146 -0.23915004397351208 1.428504469608812e-16 -7.05635142445626e-18 1.428504469608812e-16 -7.05635142445626e-18 -0.9709824572182729 -0.23915072187675404
12627772000.0 -0.9738325830049048 -0.22726658416450674 1.427248617223098e-16 -8.812423009800929e-18 1.427248617223098e-16 -8.812423009800929e-18 -0.9738324243434996 -0.22726726402425332
12628389333.333334 -0.9765371107556713 -0.21534918462063712 1.4257770085765052e-16 -1.0566472871277469e-17 1.4257770085765052e-16 -1.0566472871277469e-17 -0.9765369604214837 -0.21534986633517247
12629006666.666666 -0.979095803545295 -0.20339962507291426 1.4240899509597222e-16 -1.2318236070823899e-17 1.4240899509597222e-16 -1.2318236070823899e-17 -0.9790956615599605 -0.20340030854025556
12629624000.0 -0.9815082792615347 -0.19141969005530735 1.4221877841784792e-16 -1.4067448120311905e-17 1.4221877841784792e-16 -1.4067448120311905e-17 -0.9815081456454409 -0.19142037517322014
12630241333.333334 -0.9837741776280806 -0.17941116863785583 1.4200708804893588e-16 -1.5813845021445473e-17 1.4200708804893588e-16 -1.5813845021445473e-17 -0.9837740524003628 -0.17941185530386905
12630858666.666666 -0.9858931602582793 -0.16737585415988154 1.4177396445307508e-16 -1.7557163305537432e-17 1.4177396445307508e-16 -1.7557163305537432e-17 -0.9858930434368179 -0.1673765422713029
12631476000.0 -0.9878649107057643 -0.15531554396164218 1.415194513248838e-16 -1.929714007326275e-17 1.415194513248838e-16 -1.929714007326275e-17 -0.9878648023071819 -0.15531623341557355
12632093333.333334 -0.9896891345116122 -0.14323203911647786 1.4124359558188944e-16 -2.1033513034173155e-17 1.4124359558188944e-16 -2.1033513034173155e-17 -0.9896890345512735 -0.14323272980983087
12632710666.666666 -0.9913655592483702 -0.13112714416159033 1.4094644735615607e-16 -2.276602054623701e-17 1.4094644735615607e-16 -2.276602054623701e-17 -0.991365467740378 -0.13112783599110153
12633328000.0 -0.9928939345607638 -0.11900266682832895 1.406280599854332e-16 -2.4494401655220977e-17 1.406280599854332e-16 -2.4494401655220977e-17 -0.9928938515179573 -0.11900335969057535
12633945333.333334 -0.9942740322030229 -0.10686041777267673 1.4028849000383266e-16 -2.6218396133896345e-17 1.4028849000383266e-16 -2.6218396133896345e-17 -0.9942739576369758 -0.10686111156409117
12634562666.666666 -0.9955056460730165 -0.09470221030448274 1.3992779713200905e-16 -2.793774452121591e-17 1.3992779713200905e-16 -2.793774452121591e-17 -0.9955055799940361 -0.09470290492136953
12635180000.0 -0.9965885922430027 -0.08252986011691853 1.3954604426687593e-16 -2.9652188161275595e-17 1.3954604426687593e-16 -2.9652188161275595e-17 -0.9965885346601273 -0.08253055545546878
12635797333.333334 -0.9975227089871204 -0.07034518501507002 1.3914329747083115e-16 -3.13614692422106e-17 1.3914329747083115e-16 -3.13614692422106e-17 -0.9975226599081191 -0.07034588097137719
12636414666.666666 -0.9983078568055129 -0.05815000464480813 1.3871962596052498e-16 -3.3065330834865255e-17 1.3871962596052498e-16 -3.3065330834865255e-17 -0.9983078162368837 -0.05815070111488359
12637032000.0 -0.9989439184451916 -0.04594614022064851 1.3827510209513188e-16 -3.476351693141698e-17 1.3827510209513188e-16 -3.476351693141698e-17 -0.9989438863921607 -0.04594683710043708
12637649333.333334 -0.9994307989175202 -0.033735414254113284 1.378098013641741e-16 -3.645577248374281e-17 1.378098013641741e-16 -3.645577248374281e-17 -0.9994307753840427 -0.033736111439508804
12638266666.666666 -0.9997684255124177 -0.02151965028130411 1.373238023748571e-16 -3.8141843441708545e-17 1.373238023748571e-16 -3.8141843441708545e-17 -0.9997684105011766 -0.021520347668164942
12638884000.0 -0.9999567478092082 -0.009300672590804417 1.3681718683895412e-16 -3.982147679122494e-17 1.3681718683895412e-16 -3.982147679122494e-17 -0.9999567413216118 -0.009301370074968982
12639501333.333334 -0.9999957376841504 0.002919694049013565 1.3629003955920766e-16 -4.149442059219857e-17 1.3629003955920766e-16 -4.149442059219857e-17 -0.9999957397203362 0.0029189965717111837
12640118666.666666 -0.9998853893146449 0.015139624662099734 1.3574244841529496e-16 -4.316042401621602e-17 1.3574244841529496e-16 -4.316042401621602e-17 -0.9998853998734756 0.015138927295814265
12640736000.0 -0.999625719180092 0.027357294337948104 1.35174504349286e-16 -4.4819237384191505e-17 1.35174504349286e-16 -4.4819237384191505e-17 -0.9996257382591581 0.027356597186807507
12641353333.333334 -0.9992167660594419 0.03957087850324586 1.3458630135071474e-16 -4.647061220361046e-17 1.3458630135071474e-16 -4.647061220361046e-17 -0.9992167936550633 0.039570181671335844
12641970666.666666 -0.9986585910254 0.05177855319503529 1.3397793644111616e-16 -4.8114301205813185e-17 1.3397793644111616e-16 -4.8114301205813185e-17 -0.9986586271326237 0.051777856786383684
12642588000.0 -0.9979512774352991 0.06397849533290317 1.333495096581707e-16 -4.9750058382898083e-17 1.333495096581707e-16 -4.9750058382898083e-17 -0.9979513220479025 0.06397779945146449
12643205333.333334 -0.9970949309186672 0.07616888299106754 1.3270112403936504e-16 -5.137763902451947e-17 1.3270112403936504e-16 -5.137763902451947e-17 -0.9970949840291568 0.07616818774070731
12643822666.666666 -0.9960896793614288 0.08834789567077375 1.320328856052126e-16 -5.299679975444719e-17 1.320328856052126e-16 -5.299679975444719e-17 -0.996089740961045 0.0883472011552533
12644440000.0 -0.994935672886825 0.10051371457193917 1.313449033420416e-16 -5.460729856688012e-17 1.313449033420416e-16 -5.460729856688012e-17 -0.9949357429655394 0.10051302089489982
12645057333.333334 -0.9936330838329956 0.11266452286474225 1.3063728918432508e-16 -5.620889486257967e-17 1.3063728918432508e-16 -5.620889486257967e-17 -0.9936331623795153 0.11266383012968997
12645674666.666666 -0.992182106727243 0.12479850596100306 1.299101579965797e-16 -5.780134948475333e-17 1.299101579965797e-16 -5.780134948475333e-17 -0.9921821937290127 0.12479781427129322
12646292000.0 -0.9905829582569442 0.13691385178545365 1.2916362755480774e-16 -5.938442475474987e-17 1.2916362755480774e-16 -5.938442475474987e-17 -0.9905830537001463 0.13691316124427533
12646909333.333334 -0.9888358772372609 0.14900875104578737 1.283978185275481e-16 -6.095788450742525e-17 1.283978185275481e-16 -6.095788450742525e-17 -0.9888359811068186 0.14900806175614803
12647526666.666666 -0.9869411245754081 0.16108139750336356 1.276128544564589e-16 -6.252149412634592e-17 1.276128544564589e-16 -6.252149412634592e-17 -0.9869412368549885 0.1610807095680739
12648144000.0 -0.9848989832317286 0.1731299882426964 1.2680886173647604e-16 -6.407502057873652e-17 1.2680886173647604e-16 -6.407502057873652e-17 -0.9848991039037427 0.17312930176435448
12648761333.333334 -0.9827097581774107 0.18515272394081123 1.259859695955682e-16 -6.561823245013045e-17 1.259859695955682e-16 -6.561823245013045e-17 -0.9827098872230209 0.185152039021788
12649378666.666666 -0.9803737763489953 0.19714780913573154 1.251443100740631e-16 -6.715089997878053e-17 1.251443100740631e-16 -6.715089997878053e-17 -0.9803739137481122 0.19714712587815467
12649996000.0 -0.9778913865994735 0.2091134524949728 1.2428401800353796e-16 -6.867279508983753e-17 1.2428401800353796e-16 -6.867279508983753e-17 -0.977891532330765 0.20911277100071224
12650613333.333334 -0.9752629596462498 0.22104786708277993 1.2340523098530863e-16 -7.018369142923503e-17 1.2340523098530863e-16 -7.018369142923503e-17 -0.97526311368714 0.22104718745343213
12651230666.666666 -0.9724888880157841 0.23294927062695833 1.225080893685302e-16 -7.16833643972619e-17 1.225080893685302e-16 -7.16833643972619e-17 -0.9724890503424598 0.23294859296383166
12651848000.0 -0.9695695859849012 0.24481588578537025 1.2159273622783155e-16 -7.317159118195774e-17 1.2159273622783155e-16 -7.317159118195774e-17 -0.9695697565723131 0.24481521018946928
12652465333.333334 -0.9665054895189853 0.2566459404110542 1.2065931734061644e-16 -7.464815079210187e-17 1.2065931734061644e-16 -7.464815079210187e-17 -0.9665056683408533 0.256645266983065
12653082666.666666 -0.963297056206905 0.26843766781679534 1.1970798116391646e-16 -7.611282408999831e-17 1.1970798116391646e-16 -7.611282408999831e-17 -0.9632972432357213 0.26843699665707044
12653700000.0 -0.9599447651925476 0.28018930703942657 1.187388788108445e-16 -7.756539382396542e-17 1.187388788108445e-16 -7.756539382396542e-17 -0.9599449603995828 0.28018863824796997
12654317333.333334 -0.9564491171034247 0.291899103102233 1.1775216402670696e-16 -7.900564466045021e-17 1.1775216402670696e-16 -7.900564466045021e-17 -0.9564493204587309 0.2918984367786857
12654934666.666666 -0.9528106339758124 0.30356530727739567 1.1674799316466434e-16 -8.0433363215934e-17 1.1674799316466434e-16 -8.0433363215934e-17 -0.9528108454482266 0.3035646435210197
12655552000.0 -0.9490298591767562 0.31518617734722276 1.1572652516102618e-16 -8.18483380884997e-17 1.1572652516102618e-16 -8.18483380884997e-17 -0.9490300787339078 0.31518551625688784
12656169333.333334 -0.9451073573230683 0.3267599778638988 1.1468792151020814e-16 -8.325035988902386e-17 1.1468792151020814e-16 -8.325035988902386e-17 -0.9451075849313815 0.32675931953806636
12656786666.666666 -0.9410437141968466 0.3382849804091401 1.1363234623923277e-16 -8.463922127216403e-17 1.1363234623923277e-16 -8.463922127216403e-17 -0.9410439498215475 0.3382843249458496
12657404000.0 -0.936839536658117 0.3497594638519657 1.1255996588192956e-16 -8.60147169669227e-17 1.1255996588192956e-16 -8.60147169669227e-17 -0.9368397802632366 0.34975881134881887
12658021333.333334 -0.9324954525541039 0.361181714605995 1.1147094945271016e-16 -8.737664380696015e-17 1.1147094945271016e-16 -8.737664380696015e-17 -0.9324957041024872 0.3611810651601429
12658638666.666666 -0.9280121106256042 0.3725500268850088 1.1036546842003481e-16 -8.872480076050277e-17 1.1036546842003481e-16 -8.872480076050277e-17 -0.9280123700789119 0.3725493805931362
12659256000.0 -0.9233901804099285 0.38386270295814 1.0924369667944234e-16 -9.005898896001167e-17 1.0924369667944234e-16 -9.005898896001167e-17 -0.9233904477286455 0.383862059916451
12659873333.333334 -0.918630352141035 0.3951180534030914 1.0810581052629648e-16 -9.137901173142062e-17 1.0810581052629648e-16 -9.137901173142062e-17 -0.9186306272844748 0.39511741370729536
12660490666.666666 -0.9137333366464889 0.40631439735835606 1.0695198862815686e-16 -9.268467462305915e-17 1.0695198862815686e-16 -9.268467462305915e-17 -0.913733619572801 0.4063137611036535
12661108000.0 -0.9086998652411177 0.4174500627746791 1.0578241199674934e-16 -9.397578543428893e-17 1.0578241199674934e-16 -9.397578543428893e-17 -0.9087001559072939 0.4174494300557479
12661725333.333334 -0.9035306896180355 0.42852338666421275 1.045972639596912e-16 -9.52521542436715e-17 1.045972639596912e-16 -9.52521542436715e-17 -0.9035309879799153 0.42852275757519276
12662342666.666666 -0.8982265817362249 0.4395327153492283 1.0339673013178576e-16 -9.651359343688756e-17 1.0339673013178576e-16 -9.651359343688756e-17 -0.8982268877485031 0.4395320899837086
12662960000.0 -0.8927883337052752 0.45047640470902256 1.0218099838602518e-16 -9.775991773424278e-17 1.0218099838602518e-16 -9.775991773424278e-17 -0.8927886473215089 0.45047578316002695
12663577333.333334 -0.8872167576671636 0.46135282042529446 1.0095025882425837e-16 -9.899094421781666e-17 1.0095025882425837e-16 -9.899094421781666e-17 -0.8872170788397785 0.46135220278526806
12664194666.666666 -0.8815126856748711 0.47216033822641806 9.97047037475385e-17 -1.0020649235823728e-16 9.97047037475385e-17 -1.0020649235823728e-16 -0.8815130143551692 0.4721597245872125
12664812000.0 -0.8756769695682255 0.48289734412980395 9.844452762612037e-17 -1.0140638404111215e-16 9.844452762612037e-17 -1.0140638404111215e-16 -0.875677305706393 0.4828967345826653
12665429333.333334 -0.8697104808465719 0.49356223468315846 9.716992706917811e-17 -1.0259044359304623e-16 9.716992706917811e-17 -1.0259044359304623e-16 -0.8697108243916861 0.49356162931871267
12666046666.666666 -0.8636141105388014 0.5041534172036167 9.588110079420007e-17 -1.0375849780729237e-16 9.588110079420007e-17 -1.0375849780729237e-16 -0.863614461438838 0.5041528161118561
12666664000.0 -0.8573887690700177 0.5146693100160615 9.457824959603123e-17 -1.0491037596905798e-16 9.457824959603123e-17 -1.0491037596905798e-16 -0.8573891272718596 0.5146687132863316
12667281333.333334 -0.8510353861258755 0.5251083426888121 9.326157631569928e-17 -1.0604590988034627e-16 9.326157631569928e-17 -1.0604590988034627e-16 -0.8510357515753202 0.5251077504097985
12667898666.666666 -0.844554910513557 0.5354689562684716 9.193128580887503e-17 -1.0716493388446906e-16 9.193128580887503e-17 -1.0716493388446906e-16 -0.844555283155325 0.5354683685281865
12668516000.0 -0.8379483100200444 0.545749603512784 9.058758491403871e-17 -1.0826728489016384e-16 9.058758491403871e-17 -1.0826728489016384e-16 -0.8379486897977875 0.5457490203985531
12669133333.333334 -0.8312165712677556 0.5559487491214326 8.923068242043252e-17 -1.0935280239525139e-16 8.923068242043252e-17 -1.0935280239525139e-16 -0.8312169581240658 0.5559481707198826
12669750666.666666 -0.8243606995671015 0.5660648699654902 8.786078903562259e-17 -1.104213285099822e-16 8.786078903562259e-17 -1.104213285099822e-16 -0.8243610934435198 0.5660642963625362
