! Parameters = {f0=12700.012000; bw=77.238000; Q=6100.000000; N=10; m_0_1=1.184279; m_1_1=-1.000557; m_1_2=1.019091; m_2_2=-1.001206; m_2_3=0.656054; m_2_8=-0.003722; m_2_9=0.032982; m_3_3=-1.003143; m_3_4=0.544583; m_3_7=-0.003122; m_3_8=-0.100210; m_3_9=-0.003722; m_4_4=-1.006068; m_4_5=0.380918; m_4_6=0.000395; m_4_7=-0.120759; m_4_8=-0.003122; m_5_5=-1.005686; m_5_6=0.788273; m_5_7=0.000395; m_6_6=-1.005687; m_6_7=0.381260; m_7_7=-1.006054; m_7_8=0.544701; m_8_8=-1.003145; m_8_9=0.656367; m_9_9=-1.001211; m_9_10=1.020169; m_10_10=-1.000567; m_10_11=1.185074}
!
! Created with skrf (http://scikit-rf.org).
# Hz S RI R 50.0 
!freq ReS11 ImS11 ReS21 ImS21 ReS12 ImS12 ReS22 ImS22
12607400000.0 -0.6569736975183839 0.7539134968740577 3.014014892062924e-17 -6.592975066033853e-17 3.014014892062924e-17 -6.592975066033853e-17 -0.6569741680324541 0.7539130868594275
12608017333.333334 -0.6509299202220473 0.759137826062939 2.960082441659854e-17 -6.615809324022366e-17 2.960082441659854e-17 -6.615809324022366e-17 -0.6509303939733991 0.7591374198400983
12608634666.666666 -0.6448446000204219 0.7643137064218777 2.9059779364750245e-17 -6.638202878719859e-17 2.9059779364750245e-17 -6.638202878719859e-17 -0.644845076978504 0.7643133040163788
12609252000.0 -0.6387181252839287 0.7694408076217626 2.851704973824579e-17 -6.66015444175168e-17 2.851704973824579e-17 -6.66015444175168e-17 -0.6387186054179884 0.7694404090589119
12609869333.333334 -0.6325508870094844 0.77451880244663 2.7972671606020496e-17 -6.681662754076376e-17 2.7972671606020496e-17 -6.681662754076376e-17 -0.6325513702885701 0.7745184077514872
12610486666.666666 -0.6263432787955908 0.7795473668145092 2.7426681130415265e-17 -6.702726586055447e-17 2.7426681130415265e-17 -6.702726586055447e-17 -0.6263437651885528 0.7795469760118842
12611104000.0 -0.6200956968171066 0.7845261797981975 2.6879114564755312e-17 -6.7233447375231e-17 2.6879114564755312e-17 -6.7233447375231e-17 -0.6200961862925992 0.7845257929126487
12611721333.333334 -0.6138085398002038 0.7894549236455424 2.6330008250971684e-17 -6.743516037852114e-17 2.6330008250971684e-17 -6.743516037852114e-17 -0.6138090323266878 0.7894545407013767
12612338666.666666 -0.6074822089966331 0.7943332837999536 2.5779398617189215e-17 -6.763239346018889e-17 2.5779398617189215e-17 -6.763239346018889e-17 -0.6074827045423785 0.794332904821224
12612956000.0 -0.6011171081582499 0.7991609489203717 2.522732217531179e-17 -6.782513550666483e-17 2.522732217531179e-17 -6.782513550666483e-17 -0.6011176066913362 0.7991605739308754
12613573333.333334 -0.5947136435113582 0.8039376109010519 2.4673815518620368e-17 -6.801337570165044e-17 2.4673815518620368e-17 -6.801337570165044e-17 -0.5947141449996777 0.8039372399243291
12614190666.666666 -0.5882722237306058 0.8086629648913664 2.411891531934924e-17 -6.819710352670877e-17 2.411891531934924e-17 -6.819710352670877e-17 -0.5882727281418649 0.8086625979506991
12614808000.0 -0.5817932599129215 0.8133367093152394 2.3562658326258123e-17 -6.837630876183581e-17 2.3562658326258123e-17 -6.837630876183581e-17 -0.5817937672146443 0.8133363464336503
12615425333.333334 -0.5752771655513971 0.8179585458903146 2.3005081362217727e-17 -6.855098148600615e-17 2.3005081362217727e-17 -6.855098148600615e-17 -0.575277675710925 0.8179581870905637
12616042666.666666 -0.5687243565088256 0.8225281796470381 2.2446221321771856e-17 -6.872111207770514e-17 2.2446221321771856e-17 -6.872111207770514e-17 -0.5687248694933222 0.8225278249516241
12616660000.0 -0.5621352509910925 0.8270453189475341 2.1886115168707657e-17 -6.888669121543802e-17 2.1886115168707657e-17 -6.888669121543802e-17 -0.5621357667675442 0.8270449683786919
12617277333.333334 -0.5555102695206023 0.831509675504137 2.1324799933608492e-17 -6.90477098782232e-17 2.1324799933608492e-17 -6.90477098782232e-17 -0.5555107880558195 0.8315093290838346
12617894666.666666 -0.5488498349094864 0.8359209643977573 2.0762312711434814e-17 -6.92041593460562e-17 2.0762312711434814e-17 -6.92041593460562e-17 -0.5488503561701076 0.8359206221476964
12618512000.0 -0.5421543722322897 0.8402789040962882 2.0198690659052668e-17 -6.935603120036855e-17 2.0198690659052668e-17 -6.935603120036855e-17 -0.5421548961847825 0.8402785660379024
12619129333.333334 -0.5354243087993142 0.8445832164722571 1.9633970992808423e-17 -6.950331732445265e-17 1.9633970992808423e-17 -6.950331732445265e-17 -0.5354248354099781 0.8445828826267107
12619746666.666666 -0.5286600741290175 0.848833626820797 1.9068190986070865e-17 -6.96460099038749e-17 1.9068190986070865e-17 -6.96460099038749e-17 -0.5286606033639849 0.848833297208983
12620364000.0 -0.5218620999206457 0.8530298638771457 1.8501387966772527e-17 -6.978410142686848e-17 1.8501387966772527e-17 -6.978410142686848e-17 -0.521862631745885 0.8530295385196842
12620981333.333334 -0.5150308200268009 0.8571716598338789 1.7933599314966392e-17 -6.991758468470178e-17 1.7933599314966392e-17 -6.991758468470178e-17 -0.5150313544081195 0.8571713387511184
12621598666.666666 -0.5081666704256613 0.8612587503580702 1.736486246036215e-17 -7.004645277203128e-17 1.736486246036215e-17 -7.004645277203128e-17 -0.5081672073287051 0.8612584335700817
12622216000.0 -0.5012700891931988 0.8652908746081219 1.679521487986017e-17 -7.017069908723438e-17 1.679521487986017e-17 -7.017069908723438e-17 -0.5012706285834582 0.8652905621347032
12622833333.333334 -0.494341516475103 0.8692677752504926 1.622469409509939e-17 -7.029031733271874e-17 1.622469409509939e-17 -7.029031733271874e-17 -0.4943420583179118 0.869267467111163
12623450666.666666 -0.48738139445893425 0.8731891984759724 1.565333766999528e-17 -7.040530151521361e-17 1.565333766999528e-17 -7.040530151521361e-17 -0.4873819387194728 0.8731888946899716
12624068000.0 -0.48039016734570594 0.8770548940159968 1.508118320825789e-17 -7.051564594604497e-17 1.508118320825789e-17 -7.051564594604497e-17 -0.48039071398900457 0.8770545946022865
12624685333.333334 -0.47336828132143577 0.8808646151586724 1.4508268350934408e-17 -7.062134524138496e-17 1.4508268350934408e-17 -7.062134524138496e-17 -0.473368830312376 0.8808643201359331
12625302666.666666 -0.4663161845290684 0.8846181187643049 1.3934630773954248e-17 -7.072239432248109e-17 1.3934630773954248e-17 -7.072239432248109e-17 -0.4663167358323849 0.8846178281509341
12625920000.0 -0.45923432703942507 0.8883151652811594 1.336030818562263e-17 -7.081878841587509e-17 1.336030818562263e-17 -7.081878841587509e-17 -0.45923488061970863 0.8883148790952721
12626537333.333334 -0.4521231608227535 0.891955518760599 1.27853383241893e-17 -7.091052305358672e-17 1.27853383241893e-17 -7.091052305358672e-17 -0.4521237166444537 0.8919552370200268
12627154666.666666 -0.4449831397198866 0.89553894687215 1.2209758955358162e-17 -7.099759407328967e-17 1.2209758955358162e-17 -7.099759407328967e-17 -0.4449836977473125 0.8955386695944373
12627772000.0 -0.43781471941304684 0.8990652209184391 1.1633607869795728e-17 -7.10799976184657e-17 1.1633607869795728e-17 -7.10799976184657e-17 -0.4378152796103713 0.8990649481208457
12628389333.333334 -0.4306183573970463 0.9025341158496546 1.1056922880697767e-17 -7.115773013853047e-17 1.1056922880697767e-17 -7.115773013853047e-17 -0.4306189197283061 0.9025338475491508
12629006666.666666 -0.423394512949856 0.9059454102780148 1.0479741821278406e-17 -7.123078838895059e-17 1.0479741821278406e-17 -7.123078838895059e-17 -0.4233950773789563 0.9059451464912844
12629624000.0 -0.4161436471034774 0.9092988864918194 9.902102542311703e-18 -7.129916943133348e-17 9.902102542311703e-18 -7.129916943133348e-17 -0.4161442135941922 0.9092986272352547
12630241333.333334 -0.4088662226144139 0.9125943304693864 9.324042909656655e-18 -7.136287063349891e-17 9.324042909656655e-18 -7.136287063349891e-17 -0.4088667911303892 0.9125940757590891
12630858666.666666 -0.401562703934189 0.9158315318926895 8.745600801788444e-18 -7.14218896695303e-17 8.745600801788444e-18 -7.14218896695303e-17 -0.40156327443894557 0.9158312817444703
12631476000.0 -0.39423355717957587 0.9190102841608385 8.166814107295212e-18 -7.147622451981012e-17 8.166814107295212e-18 -7.147622451981012e-17 -0.39423412963651105 0.9190100385902159
12632093333.333334 -0.38687925010310875 0.9221303844031512 7.587720722444212e-18 -7.152587347102683e-17 7.587720722444212e-18 -7.152587347102683e-17 -0.3868798244754987 0.9221301434253488
12632710666.666666 -0.37950025206299653 0.9251916334922019 7.008358548679406e-18 -7.15708351161703e-17 7.008358548679406e-18 -7.15708351161703e-17 -0.379500828313999 0.9251913971221501
12633328000.0 -0.37209703399319366 0.9281938360565187 6.428765490152109e-18 -7.161110835450305e-17 6.428765490152109e-18 -7.161110835450305e-17 -0.3720976120858497 0.9281936043088509
12633945333.333334 -0.3646700683735013 0.9311368004929846 5.848979451258628e-18 -7.164669239151143e-17 5.848979451258628e-18 -7.164669239151143e-17 -0.3646706482707387 0.9311365733820396
12634562666.666666 -0.3572198291992045 0.9340203389791564 5.26903833416252e-18 -7.167758673883831e-17 5.26903833416252e-18 -7.167758673883831e-17 -0.3572204108638388 0.9340201165189737
12635180000.0 -0.3497467919510044 0.9368442674851718 4.688980036317971e-18 -7.170379121419564e-17 4.688980036317971e-18 -7.170379121419564e-17 -0.34974737534574246 0.9368440496894942
12635797333.333334 -0.34225143356456766 0.9396084057855405 4.108842448012772e-18 -7.172530594125565e-17 4.108842448012772e-18 -7.172530594125565e-17 -0.3422520186520097 0.9396081926678118
12636414666.666666 -0.33473423240011513 0.9423125774706361 3.52866344989238e-18 -7.174213134952409e-17 3.52866344989238e-18 -7.174213134952409e-17 -0.33473481914275643 0.942312369043999
12637032000.0 -0.327195668211891 0.9449566099579501 2.948480910495722e-18 -7.175426817419224e-17 2.948480910495722e-18 -7.175426817419224e-17 -0.3271962565721254 0.944956406235248
12637649333.333334 -0.3196362221175729 0.9475403345031035 2.3683326837927845e-18 -7.176171745596952e-17 2.3683326837927845e-18 -7.176171745596952e-17 -0.31963681205769445 0.9475401354968777
12638266666.666666 -0.31205637656745794 0.9500635862106477 1.788256606713904e-18 -7.176448054089645e-17 1.788256606713904e-18 -7.176448054089645e-17 -0.3120569680496637 0.9500633919331376
12638884000.0 -0.3044566153138336 0.9525262040445347 1.2082904967015335e-18 -7.176255908013726e-17 1.2082904967015335e-18 -7.176255908013726e-17 -0.3044572083002261 0.9525260145076775
12639501333.333334 -0.29683742337999813 0.9549280308384347 6.284721492438381e-19 -7.175595502975307e-17 6.284721492438381e-19 -7.175595502975307e-17 -0.2968380178325869 0.9549278460538618
12640118666.666666 -0.2891992870293853 0.9572689133057349 4.8839335424962715e-20 -7.174467065045555e-17 4.8839335424962715e-20 -7.174467065045555e-17 -0.2891998829100906 0.9572687332847746
12640736000.0 -0.2815426937342597 0.9595487020494088 -5.305702005486631e-19 -7.172870850733944e-17 -5.305702005486631e-19 -7.172870850733944e-17 -0.2815432910049142 0.9595485268030843
12641353333.333334 -0.2738681321451496 0.9617672515713841 -1.1097187437560918e-18 -7.170807146959792e-17 -1.1097187437560918e-18 -7.170807146959792e-17 -0.27386873076750134 0.9617670811104136
12641970666.666666 -0.26617609205914466 0.963924420281989 -1.6885686110585172e-18 -7.168276271021522e-17 -1.6885686110585172e-18 -7.168276271021522e-17 -0.26617669199485877 0.9639242546167834
12642588000.0 -0.2584670643887987 0.9660200705089331 -2.267082153511348e-18 -7.165278570564179e-17 -2.267082153511348e-18 -7.165278570564179e-17 -0.2584676655994602 0.9660199096495957
12643205333.333334 -0.25074154113093644 0.9680540685060577 -2.845221758815923e-18 -7.161814423544916e-17 -2.845221758815923e-18 -7.161814423544916e-17 -0.250742143578053 0.9680539124623849
12643822666.666666 -0.24300001533503446 0.9700262844619312 -3.42294985376174e-18 -7.15788423819645e-17 -3.42294985376174e-18 -7.15788423819645e-17 -0.24300061898003866 0.9700261332434118
12644440000.0 -0.23524298107194744 0.9719365925080862 -4.0002289066590805e-18 -7.153488452988625e-17 -4.0002289066590805e-18 -7.153488452988625e-17 -0.23524358587619895 0.9719364461238991
12645057333.333334 -0.2274709334022375 0.9737848707270828 -4.577021429757845e-18 -7.148627536588119e-17 -4.577021429757845e-18 -7.148627536588119e-17 -0.2274715393270257 0.9737847291860972
12645674666.666666 -0.2196843683447729 0.9755710011602463 -5.153289981691001e-18 -7.143301987815955e-17 -5.153289981691001e-18 -7.143301987815955e-17 -0.21968497535131967 0.9755708644710221
12646292000.0 -0.21188378284465645 0.9772948698152905 -5.728997169897779e-18 -7.137512335603176e-17 -5.728997169897779e-18 -7.137512335603176e-17 -0.21188439089411834 0.9772947379860774
12646909333.333334 -0.20406967474206397 0.9789563666734666 -6.304105653022531e-18 -7.13125913894482e-17 -6.304105653022531e-18 -7.13125913894482e-17 -0.204070283795535 0.9789562397122034
12647526666.666666 -0.1962425427400842 0.9805553856966737 -6.878578143355872e-18 -7.124542986851448e-17 -6.878578143355872e-18 -7.124542986851448e-17 -0.19624315275859786 0.9805552636109875
12648144000.0 -0.1884028863729737 0.9820918248342058 -7.452377409230858e-18 -7.117364498299153e-17 -7.452377409230858e-18 -7.117364498299153e-17 -0.1884034973175055 0.9820917076314106
12648761333.333334 -0.18055120597427524 0.98356558602926 -8.025466277426773e-18 -7.109724322177531e-17 -8.025466277426773e-18 -7.109724322177531e-17 -0.18055181780574595 0.98356547371636
12649378666.666666 -0.17268800264505546 0.9849765752251718 -8.597807635576235e-18 -7.101623137235636e-17 -8.597807635576235e-18 -7.101623137235636e-17 -0.17268861532433272 0.9849764678088567
12649996000.0 -0.16481377822169943 0.9863247023714531 -9.169364434559265e-18 -7.093061652026053e-17 -9.169364434559265e-18 -7.093061652026053e-17 -0.16481439170960072 0.9863245998581004
12650613333.333334 -0.1569290352438833 0.987609881429541 -9.740099690894394e-18 -7.08404060484709e-17 -9.740099690894394e-18 -7.08404060484709e-17 -0.15692964950117813 0.9876097838252134
12651230666.666666 -0.1490342769227815 0.9888320303782389 -1.030997648912249e-17 -7.074560763683036e-17 -1.030997648912249e-17 -7.074560763683036e-17 -0.14903489191019448 0.9888319376886874
12651848000.0 -0.14113000710858792 0.989991071219017 -1.0878957984195314e-17 -7.064622926142391e-17 -1.0878957984195314e-17 -7.064622926142391e-17 -0.14113062278680052 0.9899909834496762
12652465333.333334 -0.13321673025852665 0.9910869299809543 -1.144700740383836e-17 -7.054227919394431e-17 -1.144700740383836e-17 -7.054227919394431e-17 -0.13321734658818032 0.9910868471369461
12653082666.666666 -0.12529495140482713 0.9921195367254443 -1.2014088050926319e-17 -7.043376600103719e-17 -1.2014088050926319e-17 -7.043376600103719e-17 -0.12529556834652536 0.9921194588115729
12653700000.0 -0.11736517612212559 0.9930888255507005 -1.2580163305854438e-17 -7.032069854362519e-17 -1.2580163305854438e-17 -7.032069854362519e-17 -0.11736579363643702 0.993088752571459
12654317333.333334 -0.10942791049550983 0.9939947345959302 -1.3145196628874059e-17 -7.020308597621942e-17 -1.3145196628874059e-17 -7.020308597621942e-17 -0.10942852854297014 0.9939946665554937
12654934666.666666 -0.10148366108810686 0.9948372060452914 -1.3709151562470048e-17 -7.00809377462037e-17 -1.3709151562470048e-17 -7.00809377462037e-17 -0.10148427962922164 0.9948371429475202
12655552000.0 -0.09353293490866917 0.9956161861315928 -1.4271991733693766e-17 -6.995426359310562e-17 -1.4271991733693766e-17 -6.995426359310562e-17 -0.09353355390391635 0.9956161279800315
12656169333.333334 -0.08557623937938634 0.9963316251397065 -1.4833680856489913e-17 -6.982307354785042e-17 -1.4833680856489913e-17 -6.982307354785042e-17 -0.0855768587892188 0.9963315719375841
12656786666.666666 -0.07761408230338829 0.9969834774097565 -1.5394182734054455e-17 -6.968737793198792e-17 -1.5394182734054455e-17 -6.968737793198792e-17 -0.07761470208823608 0.9969834291599842
12657404000.0 -0.06964697183236453 0.9975717013400243 -1.5953461261138098e-17 -6.954718735691028e-17 -1.5953461261138098e-17 -6.954718735691028e-17 -0.0696475919526379 0.9975716580451985
12658021333.333334 -0.06167541643413388 0.9980962593896062 -1.6511480426374723e-17 -6.940251272304519e-17 -1.6511480426374723e-17 -6.940251272304519e-17 -0.06167603685022542 0.998096221052007
12658638666.666666 -0.05369992486022201 0.9985571180808108 -1.706820431458898e-17 -6.925336521903342e-17 -1.706820431458898e-17 -6.925336521903342e-17 -0.05370054553250931 0.9985570847024008
12659256000.0 -0.04572100611327878 0.9989542480012976 -1.7623597109108288e-17 -6.909975632088423e-17 -1.7623597109108288e-17 -6.909975632088423e-17 -0.04572162700212693 0.9989542195837232
12659873333.333334 -0.037739169414763546 0.9992876238059454 -1.8177623094048146e-17 -6.894169779111838e-17 -1.8177623094048146e-17 -6.894169779111838e-17 -0.037739790480527724 0.9992876003505364
12660490666.666666 -0.029754924172361204 0.999557224218476 -1.873024665660751e-17 -6.877920167788792e-17 -1.873024665660751e-17 -6.877920167788792e-17 -0.029755545375389127 0.9995572057262456
12661108000.0 -0.021768779947357705 0.9997630320328168 -1.9281432289356506e-17 -6.861228031407727e-17 -1.9281432289356506e-17 -6.861228031407727e-17 -0.021769401247992207 0.999763018504461
12661725333.333334 -0.013781246422431786 0.9999050341141869 -1.9831144592498927e-17 -6.844094631639148e-17 -1.9831144592498927e-17 -6.844094631639148e-17 -0.01378186778101333 0.999905025550084
12662342666.666666 -0.005792833368728916 0.9999832213999447 -2.0379348276146157e-17 -6.826521258442038e-17 -2.0379348276146157e-17 -6.826521258442038e-17 -0.00579345474559816 0.9999832178001578
12662960000.0 0.002195949386360169 0.9999975889001633 -2.0926008162571586e-17 -6.808509229968852e-17 -2.0926008162571586e-17 -6.808509229968852e-17 0.00219532803085988 0.9999975902644385
12663577333.333334 0.01018459199187921 0.9999481356979504 -2.1471089188468328e-17 -6.790059892468337e-17 -2.1471089188468328e-17 -6.790059892468337e-17 0.0101839706973993 0.999948142025716
12664194666.666666 0.018172584605788692 0.999834864949504 -2.201455640717912e-17 -6.771174620187093e-17 -2.201455640717912e-17 -6.771174620187093e-17 0.018171963411972827 0.9998348762398724
12664812000.0 0.026159417427618094 0.9996577838839127 -2.2556374990935575e-17 -6.751854815268956e-17 -2.2556374990935575e-17 -6.751854815268956e-17 0.026158796374099652 0.9996578001356797
12665429333.333334 0.034144580730831244 0.9994169038026944 -2.3096510233090138e-17 -6.732101907652355e-17 -2.3096510233090138e-17 -6.732101907652355e-17 0.03414395985723077 0.9994169250143384
12666046666.666666 0.04212756489544278 0.9991122400790755 -2.3634927550311036e-17 -6.711917354967004e-17 -2.3634927550311036e-17 -6.711917354967004e-17 0.042126944241365503 0.9991122662487599
12666664000.0 0.050107860440656175 0.9987438121570053 -2.417159248481575e-17 -6.691302642427088e-17 -2.417159248481575e-17 -6.691302642427088e-17 0.05010724004568945 0.9987438432825767
12667281333.333334 0.05808495805709521 0.9983116435499256 -2.4706470706547984e-17 -6.670259282724437e-17 -2.4706470706547984e-17 -6.670259282724437e-17 0.058084337960805914 0.9983116796289135
12667898666.666666 0.06605834863953573 0.9978157618392619 -2.5239528015374006e-17 -6.648788815918908e-17 -2.5239528015374006e-17 -6.648788815918908e-17 0.06605772888146794 0.9978158028688815
12668516000.0 0.07402752331951049 0.9972561986726519 -2.577073034326744e-17 -6.62689280932703e-17 -2.577073034326744e-17 -6.62689280932703e-17 0.07402690393918282 0.9972562446498028
12669133333.333334 0.08199197349736025 0.9966329897619562 -2.6300043756468076e-17 -6.60457285740968e-17 -2.6300043756468076e-17 -6.60457285740968e-17 0.08199135453426337 0.9966330406832221
12669750666.666666 0.08995119087506172 0.9959461748809546 -2.682743445764952e-17 -6.581830581657194e-17 -2.682743445764952e-17 -6.581830581657194e-17 0.08995057236865577 0.9959462307426036
12670368000.0 0.09790466748863905 0.9951957978628061 -2.735286878806796e-17 -6.558667630473196e-17 -2.735286878806796e-17 -6.558667630473196e-17 0.09790404947835113 0.995195858660791
