! Parameters = {f0=12700.012000; bw=77.238000; Q=6100.000000; N=10; m_0_1=1.172067; m_1_1=-1.183740; m_1_2=1.006879; m_2_2=-1.184389; m_2_3=0.643842; m_2_8=-0.004333; m_2_9=0.032371; m_3_3=-1.186326; m_3_4=0.532371; m_3_7=-0.003733; m_3_8=-0.100821; m_3_9=-0.004333; m_4_4=-1.189251; m_4_5=0.368706; m_4_6=-0.000216; m_4_7=-0.121370; m_4_8=-0.003733; m_5_5=-1.188869; m_5_6=0.776061; m_5_7=-0.000216; m_6_6=-1.188870; m_6_7=0.369048; m_7_7=-1.189237; m_7_8=0.532489; m_8_8=-1.186328; m_8_9=0.644155; m_9_9=-1.184394; m_9_10=1.007957; m_10_10=-1.183750; m_10_11=1.172862}
!
! Created with skrf (http://scikit-rf.org).
# Hz S RI R 50.0 
!freq ReS11 ImS11 ReS21 ImS21 ReS12 ImS12 ReS22 ImS22
12607400000.0 -0.9711799005135021 -0.23834764701677622 6.796393597777479e-17 -3.2201576666198774e-18 6.796393597777479e-17 -3.2201576666198774e-18 -0.9711797532905045 -0.23834824689609937
12608017333.333334 -0.9729696961186174 -0.2309328266719443 6.792375704070853e-17 -3.743765460590842e-18 6.792375704070853e-17 -3.743765460590842e-18 -0.9729695534825987 -0.23093342762735947
12608634666.666666 -0.9747028814964502 -0.22350456998094229 6.787954824361859e-17 -4.266945169354871e-18 6.787954824361859e-17 -4.266945169354871e-18 -0.9747027434552605 -0.22350517197738054
12609252000.0 -0.9763793558052407 -0.21606330914154043 6.78313137974692e-17 -4.78966580960286e-18 6.78313137974692e-17 -4.78966580960286e-18 -0.9763792223664604 -0.21606391214387544
12609869333.333334 -0.9779990215028516 -0.2086094771081004 6.777905815119235e-17 -5.311896437482766e-18 6.777905815119235e-17 -5.311896437482766e-18 -0.977998892673793 -0.20861008108115087
12610486666.666666 -0.9795617843524312 -0.20114350756643987 6.772278599132912e-17 -5.833606150431187e-18 6.772278599132912e-17 -5.833606150431187e-18 -0.9795616601401392 -0.20114411247497174
12611104000.0 -0.9810675534279216 -0.19366583490848854 6.76625022416572e-17 -6.354764089003698e-18 6.76625022416572e-17 -6.354764089003698e-18 -0.9810674338391703 -0.19366644071721648
12611721333.333334 -0.9825162411193107 -0.1861768942071802 6.759821206280686e-17 -6.87533943867303e-18 6.759821206280686e-17 -6.87533943867303e-18 -0.9825161261606041 -0.18617750088076992
12612338666.666666 -0.983907763137748 -0.17867712119105572 6.752992085185888e-17 -7.39530143167007e-18 6.752992085185888e-17 -7.39530143167007e-18 -0.9839076528153226 -0.1786777286941265
12612956000.0 -0.9852420385204674 -0.1711669522188278 6.745763424193145e-17 -7.91461934878473e-18 6.745763424193145e-17 -7.91461934878473e-18 -0.9852419328402882 -0.1711675605159538
12613573333.333334 -0.9865189896354649 -0.1636468242541595 6.738135810175459e-17 -8.433262521163416e-18 6.738135810175459e-17 -8.433262521163416e-18 -0.9865188886032245 -0.16364743330987203
12614190666.666666 -0.9877385421860313 -0.15611717484012802 6.730109853522505e-17 -8.951200332139046e-18 6.730109853522505e-17 -8.951200332139046e-18 -0.9877384458071536 -0.15611778461891807
12614808000.0 -0.9889006252150746 -0.14857844207382462 6.721686188095436e-17 -9.46840221900947e-18 6.721686188095436e-17 -9.46840221900947e-18 -0.9889005334947103 -0.14857905254014422
12615425333.333334 -0.9900051711092572 -0.14103106458075107 6.712865471179703e-17 -9.984837674852112e-18 6.712865471179703e-17 -9.984837674852112e-18 -0.9900050840522876 -0.14103167569901615
12616042666.666666 -0.9910521156029105 -0.1334754814894688 6.703648383437015e-17 -1.0500476250304052e-17 6.703648383437015e-17 -1.0500476250304052e-17 -0.9910520332139435 -0.13347609322406054
12616660000.0 -0.9920413977817829 -0.12591213240596416 6.69403562885555e-17 -1.101528755535703e-17 6.69403562885555e-17 -1.101528755535703e-17 -0.9920413200651553 -0.12591274472123146
12617277333.333334 -0.9929729600865997 -0.11834145738795819 6.68402793469883e-17 -1.1529241261150116e-17 6.68402793469883e-17 -1.1529241261150116e-17 -0.9929728870463761 -0.11834207024821972
12617894666.666666 -0.993846748316375 -0.11076389691961341 6.673626051453705e-17 -1.2042307101729582e-17 6.673626051453705e-17 -1.2042307101729582e-17 -0.9938466799563465 -0.1107645102891595
12618512000.0 -0.9946627116316085 -0.10317989188550945 6.662830752776095e-17 -1.2554454875851714e-17 6.662830752776095e-17 -1.2554454875851714e-17 -0.9946626479552948 -0.10318050572860443
12619129333.333334 -0.9954208025572128 -0.09558988354530226 6.651642835436307e-17 -1.3065654448733758e-17 6.651642835436307e-17 -1.3065654448733758e-17 -0.9954207435678604 -0.09559049782618635
12619746666.666666 -0.9961209769852838 -0.08799431350793692 6.640063119262448e-17 -1.3575875753826668e-17 6.640063119262448e-17 -1.3575875753826668e-17 -0.9961209226858657 -0.08799492819082835
12620364000.0 -0.9967631941776788 -0.08039362370586899 6.628092447082319e-17 -1.4085088794592595e-17 6.628092447082319e-17 -1.4085088794592595e-17 -0.9967631445708954 -0.08039423875496611
12620981333.333334 -0.9973474167683674 -0.07278825636952106 6.615731684664878e-17 -1.4593263646232165e-17 6.615731684664878e-17 -1.4593263646232165e-17 -0.9973473718566451 -0.0727888717490044
12621598666.666666 -0.9978736107656155 -0.0651786540014678 6.602981720659246e-17 -1.510037045746158e-17 6.602981720659246e-17 -1.510037045746158e-17 -0.9978735705511086 -0.06517926967550228
12622216000.0 -0.9983417455539702 -0.05756525935060481 6.58984346653293e-17 -1.5606379452256256e-17 6.58984346653293e-17 -1.5606379452256256e-17 -0.9983417100385583 -0.05756587528334157
12622833333.333334 -0.9987517938960254 -0.04994851538655816 6.576317856508884e-17 -1.611126093158382e-17 6.576317856508884e-17 -1.611126093158382e-17 -0.9987517630813155 -0.04994913154213691
12623450666.666666 -0.9991037319340186 -0.04232886527379784 6.562405847500848e-17 -1.661498527514866e-17 6.562405847500848e-17 -1.661498527514866e-17 -0.9991037058213434 -0.04232948161634881
12624068000.0 -0.9993975391912113 -0.034706752345909794 6.548108419047596e-17 -1.7117522943119854e-17 6.548108419047596e-17 -1.7117522943119854e-17 -0.9993975177816308 -0.034707368839555844
12624685333.333334 -0.999633198573091 -0.027082620079688032 6.533426573245628e-17 -1.761884447786488e-17 6.533426573245628e-17 -1.761884447786488e-17 -0.9996331818673898 -0.027083236688546695
12625302666.666666 -0.9998106963683512 -0.019456912069530433 6.518361334681062e-17 -1.8118920505657297e-17 6.518361334681062e-17 -1.8118920505657297e-17 -0.9998106843670416 -0.0194575287577161
12625920000.0 -0.9999300222497041 -0.011830072001373678 6.502913750359433e-17 -1.8617721738406523e-17 6.502913750359433e-17 -1.8617721738406523e-17 -0.9999300149530231 -0.011830688732999604
12626537333.333334 -0.9999911692744655 -0.004202543627190671 6.48708488963496e-17 -1.9115218975356004e-17 6.48708488963496e-17 -1.9115218975356004e-17 -0.9999911666823786 -0.00420316036637113
12627154666.666666 -0.9999941338849743 0.003425229261083823 6.470875844138241e-17 -1.9611383104784836e-17 6.470875844138241e-17 -1.9611383104784836e-17 -0.9999941359971719 0.003424612550231508
12627772000.0 -0.99993891590879 0.011052802857374418 6.454287727702045e-17 -2.0106185105721584e-17 6.454287727702045e-17 -2.0106185105721584e-17 -0.9999389227246901 0.011052186210727774
12628389333.333334 -0.9998255185587077 0.018679733366974403 6.437321676287013e-17 -2.0599596049615577e-17 6.437321676287013e-17 -2.0599596049615577e-17 -0.9998255300774527 0.018679116820403692
12629006666.666666 -0.9996539484325656 0.02630557703287856 6.419978847904913e-17 -2.1091587102036673e-17 6.419978847904913e-17 -2.1091587102036673e-17 -0.9996539646530254 0.02630496062224473
12629624000.0 -0.9994242155128644 0.03392989016111907 6.402260422541304e-17 -2.158212952434873e-17 6.402260422541304e-17 -2.158212952434873e-17 -0.9994242364336364 0.03392927392227166
12630241333.333334 -0.9991363331661897 0.041552229146836824 6.384167602076779e-17 -2.207119467538033e-17 6.384167602076779e-17 -2.207119467538033e-17 -0.9991363587855965 0.041551613115611855
12630858666.666666 -0.998790318142429 0.049172150500006256 6.365701610207096e-17 -2.2558754013085608e-17 6.365701610207096e-17 -2.2558754013085608e-17 -0.9987903484585214 0.04917153471222422
12631476000.0 -0.9983861905737975 0.05678921087135266 6.346863692360916e-17 -2.3044779096229008e-17 6.346863692360916e-17 -2.3044779096229008e-17 -0.9983862255843519 0.05678859536281629
12632093333.333334 -0.9979239739736692 0.06440296707800536 6.327655115618501e-17 -2.352924158600217e-17 6.327655115618501e-17 -2.352924158600217e-17 -0.9979240136761895 0.06440235188449768
12632710666.666666 -0.997403695235213 0.07201297612925518 6.308077168626948e-17 -2.401211324769542e-17 6.308077168626948e-17 -2.401211324769542e-17 -0.9974037396269311 0.07201236128653746
12633328000.0 -0.9968253846298173 0.0796187952525561 6.288131161515169e-17 -2.4493365952333373e-17 6.288131161515169e-17 -2.4493365952333373e-17 -0.9968254337076913 0.07961818079636554
12633945333.333334 -0.9961890758053313 0.08721998191911622 6.267818425807989e-17 -2.4972971678296775e-17 6.267818425807989e-17 -2.4972971678296775e-17 -0.9961891295660489 0.08721936788516427
12634562666.666666 -0.9954948057841179 0.09481609386961784 6.24714031433796e-17 -2.545090251296209e-17 6.24714031433796e-17 -2.545090251296209e-17 -0.9954948642240936 0.09481548029358779
12635180000.0 -0.994742614960892 0.10240668914000566 6.226098201157043e-17 -2.5927130654307356e-17 6.226098201157043e-17 -2.5927130654307356e-17 -0.9947426780762678 0.10240607605755057
12635797333.333334 -0.9939325471003578 0.10999132608731461 6.204693481446259e-17 -2.6401628412530362e-17 6.204693481446259e-17 -2.6401628412530362e-17 -0.9939326148870051 0.10999071353405551
12636414666.666666 -0.9930646493346931 0.11756956341508344 6.182927571424505e-17 -2.6874368211650712e-17 6.182927571424505e-17 -2.6874368211650712e-17 -0.9930647217882115 0.11756895142660698
12637032000.0 -0.9921389721607806 0.1251409601992849 6.160801908256098e-17 -2.734532259110434e-17 6.160801908256098e-17 -2.734532259110434e-17 -0.9921390492764991 0.1251403488111415
12637649333.333334 -0.9911555694372718 0.13270507591395184 6.138317949956796e-17 -2.7814464207339453e-17 6.138317949956796e-17 -2.7814464207339453e-17 -0.9911556512102473 0.13270446516165332
12638266666.666666 -0.9901144983814674 0.14026147045666662 6.115477175299416e-17 -2.828176583538559e-17 6.115477175299416e-17 -2.828176583538559e-17 -0.990114584806487 0.14026086037568444
12638884000.0 -0.9890158195659815 0.14780970417425282 6.092281083717102e-17 -2.874720037044115e-17 6.092281083717102e-17 -2.874720037044115e-17 -0.989015910637564 0.14780909480001617
12639501333.333334 -0.9878595969152014 0.15534933788846803 6.068731195206509e-17 -2.9210740829428916e-17 6.068731195206509e-17 -2.9210740829428916e-17 -0.9878596926275935 0.15534872925636117
12640118666.666666 -0.9866458977016166 0.16287993292121894 6.044829050229523e-17 -2.967236035255067e-17 6.044829050229523e-17 -2.967236035255067e-17 -0.9866459980487964 0.16287932506657968
12640736000.0 -0.9853747925418223 0.17040105112061862 6.020576209612354e-17 -3.013203220486113e-17 6.020576209612354e-17 -3.013203220486113e-17 -0.9853748975174978 0.1704004440787359
12641353333.333334 -0.9840463553925035 0.17791225488588988 5.995974254446563e-17 -3.058972977777423e-17 5.995974254446563e-17 -3.058972977777423e-17 -0.984046464990116 0.17791164869200216
12641970666.666666 -0.9826606635460712 0.1854131071932194 5.971024785985375e-17 -3.1045426590629367e-17 5.971024785985375e-17 -3.1045426590629367e-17 -0.9826607777587935 0.18541250188251232
12642588000.0 -0.981217797626174 0.19290317162112874 5.9457294255416e-17 -3.149909629219672e-17 5.9457294255416e-17 -3.149909629219672e-17 -0.9812179164469091 0.19290256722873295
12643205333.333334 -0.9797178415830327 0.20038201237569836 5.920089814383046e-17 -3.195071266219983e-17 5.920089814383046e-17 -3.195071266219983e-17 -0.9797179650044177 0.2003814089366877
12643822666.666666 -0.9781608826885237 0.20784919431611926 5.894107613626417e-17 -3.2400249612836273e-17 5.894107613626417e-17 -3.2400249612836273e-17 -0.9781610107029288 0.20784859186550883
12644440000.0 -0.9765470115311077 0.21530428297995438 5.867784504131721e-17 -3.2847681190259784e-17 5.867784504131721e-17 -3.2847681190259784e-17 -0.9765471441306376 0.2153036815526985
12645057333.333334 -0.9748763220106011 0.22274684460825145 5.841122186394213e-17 -3.3292981576079187e-17 5.841122186394213e-17 -3.3292981576079187e-17 -0.9748764591870922 0.22274624423924105
12645674666.666666 -0.9731489113326585 0.23017644617100103 5.814122380435207e-17 -3.373612508884653e-17 5.814122380435207e-17 -3.373612508884653e-17 -0.9731490530776832 0.23017584689506237
12646292000.0 -0.9713648800031176 0.23759265539233218 5.786786825692123e-17 -3.417708618553174e-17 5.786786825692123e-17 -3.417708618553174e-17 -0.9713650263079825 0.23759205724422428
12646909333.333334 -0.9695243318222174 0.2449950407753863 5.75911728090788e-17 -3.461583946298033e-17 5.75911728090788e-17 -3.461583946298033e-17 -0.9695244826779658 0.2449944437897995
12647526666.666666 -0.9676273738784739 0.25238317162778307 5.73111552401841e-17 -3.5052359659375153e-17 5.73111552401841e-17 -3.5052359659375153e-17 -0.9676275292758844 0.2523825758393365
12648144000.0 -0.9656741165424927 0.25975661808648504 5.702783352039175e-17 -3.548662165568771e-17 5.702783352039175e-17 -3.548662165568771e-17 -0.9656742764720803 0.25975602352972466
12648761333.333334 -0.9636646734605557 0.2671149511427807 5.674122580950871e-17 -3.591860047711534e-17 5.674122580950871e-17 -3.591860047711534e-17 -0.963664837912575 0.26711435785217813
12649378666.666666 -0.9615991615479932 0.27445774266733014 5.645135045584699e-17 -3.6348271294499796e-17 5.645135045584699e-17 -3.6348271294499796e-17 -0.9615993305124335 0.2744571506772791
12649996000.0 -0.9594777009823799 0.2817845654350447 5.615822599504474e-17 -3.677560942576863e-17 5.615822599504474e-17 -3.677560942576863e-17 -0.9594778744489704 0.2817839747798603
12650613333.333334 -0.9573004151965482 0.28909499314994574 5.586187114890154e-17 -3.7200590337328754e-17 5.586187114890154e-17 -3.7200590337328754e-17 -0.9573005931547569 0.28909440386386187
12651230666.666666 -0.9550674308714127 0.2963886004699399 5.556230482418778e-17 -3.7623189645474866e-17 5.556230482418778e-17 -3.7623189645474866e-17 -0.9550676133104478 0.2963880125871078
12651848000.0 -0.9527788779285683 0.3036649630316763 5.5259546111443835e-17 -3.8043383117786396e-17 5.5259546111443835e-17 -3.8043383117786396e-17 -0.9527790648373781 0.3036643765861621
12652465333.333334 -0.9504348895227777 0.31092365747507317 5.495361428377906e-17 -3.8461146674500965e-17 5.495361428377906e-17 -3.8461146674500965e-17 -0.9504350808900515 0.3109230725008559
12653082666.666666 -0.9480356020342025 0.31816426146803234 5.4644528795650416e-17 -3.8876456389892383e-17 5.4644528795650416e-17 -3.8876456389892383e-17 -0.9480357978483711 0.31816367799900236
12653700000.0 -0.9455811550604397 0.325386353731093 5.4332309281629576e-17 -3.928928849364033e-17 5.4332309281629576e-17 -3.928928849364033e-17 -0.9455813553096774 0.3253857718010497
12654317333.333334 -0.9430716914084526 0.33258951406177995 5.401697555517653e-17 -3.969961937216709e-17 5.401697555517653e-17 -3.969961937216709e-17 -0.9430718960806761 0.33258893370443
12654934666.666666 -0.9405073570862376 0.3397733233591348 5.369854760737648e-17 -4.010742557000163e-17 5.369854760737648e-17 -4.010742557000163e-17 -0.9405075661691065 0.3397727446080897
12655552000.0 -0.9378883012942968 0.346937363648179 5.3377045605688173e-17 -4.051268379110242e-17 5.3377045605688173e-17 -4.051268379110242e-17 -0.9378885147752173 0.34693678653695414
12656169333.333334 -0.935214676417017 0.3540812181040738 5.3052489892677054e-17 -4.091537090018047e-17 5.3052489892677054e-17 -4.091537090018047e-17 -0.9352148942831391 0.3540806426660853
12656786666.666666 -0.9324866380137639 0.36120447107647796 5.2724900984732334e-17 -4.131546392401727e-17 5.2724900984732334e-17 -4.131546392401727e-17 -0.9324868602519839 0.36120389734504155
12657404000.0 -0.9297043448098519 0.3683067081136795 5.2394299570781024e-17 -4.171294005276579e-17 5.2394299570781024e-17 -4.171294005276579e-17 -0.9297045714068138 0.36830613612200863
12658021333.333334 -0.9268679586872555 0.37538751598684106 5.206070651098355e-17 -4.210777664125136e-17 5.206070651098355e-17 -4.210777664125136e-17 -0.9268681896293507 0.37538694576804443
12658638666.666666 -0.9239776446753082 0.3824464827137526 5.172414283543881e-17 -4.2499951210238646e-17 5.172414283543881e-17 -4.2499951210238646e-17 -0.9239778799486766 0.3824459143008327
12659256000.0 -0.9210335709409623 0.38948319758314515 5.138462974285075e-17 -4.288944144772349e-17 5.138462974285075e-17 -4.288944144772349e-17 -0.9210338105314925 0.3894826310089957
12659873333.333334 -0.9180359087790636 0.3964972511784266 5.1042188599208486e-17 -4.327622521018658e-17 5.1042188599208486e-17 -4.327622521018658e-17 -0.9180361526723969 0.3964966864758326
12660490666.666666 -0.914984832602462 0.4034882354013503 5.069684093645845e-17 -4.3660280523835315e-17 5.069684093645845e-17 -4.3660280523835315e-17 -0.9149850807839868 0.4034876726029825
12661108000.0 -0.9118805199317064 0.4104557434960941 5.0348608451135903e-17 -4.404158558587086e-17 5.0348608451135903e-17 -4.404158558587086e-17 -0.9118807723865664 0.41045518263451103
12661725333.333334 -0.9087231513848494 0.4173993700726435 4.9997513003036006e-17 -4.4420118765688767e-17 4.9997513003036006e-17 -4.4420118765688767e-17 -0.9087234080979392 0.417398811180287
12662342666.666666 -0.9055129106668875 0.4243187111304805 4.9643576613831766e-17 -4.4795858606118836e-17 4.9643576613831766e-17 -4.4795858606118836e-17 -0.9055131716228572 0.42431815423967506
12662960000.0 -0.9022499845590415 0.4312133640821684 4.928682146570313e-17 -4.516878382463149e-17 4.928682146570313e-17 -4.516878382463149e-17 -0.9022502497422942 0.4312128092251188
12663577333.333334 -0.8989345629079551 0.4380829277766192 4.8927269899962033e-17 -4.5538873314527446e-17 4.8927269899962033e-17 -4.5538873314527446e-17 -0.8989348323026505 0.4380823749854088
12664194666.666666 -0.895566838614619 0.44492700252251294 4.856494441565056e-17 -4.5906106146136294e-17 4.856494441565056e-17 -4.5906106146136294e-17 -0.8955671122046728 0.44492645182910145
12664812000.0 -0.8921470076231053 0.4517451901116275 4.81998676681499e-17 -4.627046156798312e-17 4.81998676681499e-17 -4.627046156798312e-17 -0.8921472853921909 0.45174464154785005
12665429333.333334 -0.8886752689092304 0.458537093841881 4.783206246776587e-17 -4.663191900795928e-17 4.783206246776587e-17 -4.663191900795928e-17 -0.88867555084078 0.4585365474394454
12666046666.666666 -0.8851518244690083 0.46530231854036375 4.746155177831419e-17 -4.6990458074474055e-17 4.746155177831419e-17 -4.6990458074474055e-17 -0.885152110546213 0.4653017743308488
12666664000.0 -0.8815768793067087 0.47204047058668125 4.708835871568837e-17 -4.7346058557602596e-17 4.708835871568837e-17 -4.7346058557602596e-17 -0.8815771695125206 0.47203992860153576
12667281333.333334 -0.8779506414231993 0.4787511579353562 4.671250654643338e-17 -4.769870043021002e-17 4.671250654643338e-17 -4.769870043021002e-17 -0.8779509357403316 0.47875061820589576
12667898666.666666 -0.8742733218036667 0.4854339901389625 4.6334018686298166e-17 -4.804836384907553e-17 4.6334018686298166e-17 -4.804836384907553e-17 -0.8742736202145948 0.4854334526963685
12668516000.0 -0.8705451344052995 0.4920885783709178 4.5952918698780116e-17 -4.8395029156005504e-17 4.5952918698780116e-17 -4.8395029156005504e-17 -0.8705454368922633 0.4920880432462361
12669133333.333334 -0.8667662961450607 0.49871453544770905 4.5569230293673696e-17 -4.8738676878923303e-17 4.5569230293673696e-17 -4.8738676878923303e-17 -0.8667666026900643 0.4987140026718474
12669750666.666666 -0.8629370268868171 0.5053114758518662 4.5182977325598257e-17 -4.9079287732959136e-17 4.5182977325598257e-17 -4.9079287732959136e-17 -0.86293733747163 0.5053109454555927
