! Parameters = {f0=12700.012000; bw=77.238000; Q=6100.000000; N=10; m_0_1=1.190485; m_1_1=-0.907463; m_1_2=1.025297; m_2_2=-0.908112; m_2_3=0.662260; m_2_8=-0.003412; m_2_9=0.033292; m_3_3=-0.910049; m_3_4=0.550789; m_3_7=-0.002812; m_3_8=-0.099900; m_3_9=-0.003412; m_4_4=-0.912974; m_4_5=0.387124; m_4_6=0.000705; m_4_7=-0.120449; m_4_8=-0.002812; m_5_5=-0.912592; m_5_6=0.794479; m_5_7=0.000705; m_6_6=-0.912593; m_6_7=0.387466; m_7_7=-0.912960; m_7_8=0.550907; m_8_8=-0.910051; m_8_9=0.662573; m_9_9=-0.908117; m_9_10=1.026375; m_10_10=-0.907473; m_10_11=1.191280}
!
! Created with skrf (http://scikit-rf.org).
# Hz S RI R 50.0 
!freq ReS11 ImS11 ReS21 ImS21 ReS12 ImS12 ReS22 ImS22
12607400000.0 0.10877636304636698 -0.9940662467070539 1.3326431093732905e-17 7.364531789860617e-17 1.3326431093732905e-17 7.364531789860617e-17 0.10877698667930859 -0.9940661784654049
12608017333.333334 0.10064902456741191 -0.9949219938535249 1.3931622380320368e-17 7.351831403175843e-17 1.3931622380320368e-17 7.351831403175843e-17 0.10064964870664662 -0.9949219307136986
12608634666.666666 0.09251496415162268 -0.9957112942052379 1.4535625662491416e-17 7.338634164294834e-17 1.4535625662491416e-17 7.338634164294834e-17 0.09251558875541918 -0.995711236170951
12609252000.0 0.08437472503976882 -0.9964340950480913 1.513840018868068e-17 7.324941168421335e-17 1.513840018868068e-17 7.324941168421335e-17 0.08437535006636895 -0.9964340421227197
12609869333.333334 0.07622885088532581 -0.997090348109211 1.5739905307114736e-17 7.310753544150766e-17 1.5739905307114736e-17 7.310753544150766e-17 0.07622947629294724 -0.9970903002957894
12610486666.666666 0.0680778857182233 -0.9976800095601704 1.634010046854137e-17 7.296072453380286e-17 1.634010046854137e-17 7.296072453380286e-17 0.06807851146506232 -0.9976799668613907
12611104000.0 0.059922373908114744 -0.9982030400199453 1.693894522896314e-17 7.280899091216268e-17 1.693894522896314e-17 7.280899091216268e-17 0.05992299995234914 -0.9982030024381592
12611721333.333334 0.05176286012858823 -0.9986594045575062 1.753639925234214e-17 7.265234685880102e-17 1.753639925234214e-17 7.265234685880102e-17 0.05176348642837993 -0.9986593720947217
12612338666.666666 0.043599889320421276 -0.9990490726941756 1.813242231331489e-17 7.249080498611326e-17 1.813242231331489e-17 7.249080498611326e-17 0.043600515833919294 -0.9990490453520591
12612956000.0 0.0354340066551012 -0.9993720184056643 1.8726974299898492e-17 7.232437823568474e-17 1.8726974299898492e-17 7.232437823568474e-17 0.03543463334044439 -0.9993719961855408
12613573333.333334 0.027265757498841168 -0.9996282201237914 1.9320015216169717e-17 7.215307987728297e-17 1.9320015216169717e-17 7.215307987728297e-17 0.027266384314160973 -0.9996282030266436
12614190666.666666 0.019095687375788394 -0.9998176607379425 1.991150518495337e-17 7.197692350782203e-17 1.991150518495337e-17 7.197692350782203e-17 0.0190963142792117 -0.9998176487644104
12614808000.0 0.010924341931647413 -0.9999403275962049 2.050140445050169e-17 7.17959230503057e-17 2.050140445050169e-17 7.17959230503057e-17 0.01092496888129932 -0.9999403207465868
12615425333.333334 0.0027522668973807927 -0.999996212506213 2.108967338114586e-17 7.161009275275353e-17 2.108967338114586e-17 7.161009275275353e-17 0.0027528938513874082 -0.9999962107804646
12616042666.666666 -0.0054199919473232935 -0.9999853117356956 2.1676272471956535e-17 7.141944718710014e-17 2.1676272471956535e-17 7.141944718710014e-17 -0.005419365030832059 -0.9999853151334309
12616660000.0 -0.013591888810586737 -0.9999076260127262 2.2261162347394596e-17 7.122400124807286e-17 2.2261162347394596e-17 7.122400124807286e-17 -0.013591261973474364 -0.9999076345332165
12617277333.333334 -0.021762877924622188 -0.9997631605256734 2.2844303763933706e-17 7.10237701520529e-17 2.2844303763933706e-17 7.10237701520529e-17 -0.02176225120874276 -0.9997631741678485
12617894666.666666 -0.029932413582267923 -0.9995519249228553 2.3425657612691318e-17 7.081876943591027e-17 2.3425657612691318e-17 7.081876943591027e-17 -0.029931787029463332 -0.9995519436853029
12618512000.0 -0.03809995017354706 -0.9992739333118916 2.4005184922051112e-17 7.060901495581551e-17 2.4005184922051112e-17 7.060901495581551e-17 -0.03809932382564422 -0.9992739571928576
12619129333.333334 -0.046264942221794135 -0.9989292042587699 2.4582846860245253e-17 7.039452288604122e-17 2.4582846860245253e-17 7.039452288604122e-17 -0.046264316120602174 -0.9989292332561588
12619746666.666666 -0.05442684442045454 -0.9985177607865954 2.5158604737973986e-17 7.017530971772518e-17 2.5158604737973986e-17 7.017530971772518e-17 -0.05442621860776204 -0.99851779489797
12620364000.0 -0.0625851116693328 -0.998039630374055 2.5732420010976457e-17 6.995139225762561e-17 2.5732420010976457e-17 6.995139225762561e-17 -0.062584486186905 -0.9980396695966376
12620981333.333334 -0.0707391991108276 -0.9974948449535981 2.630425428259095e-17 6.972278762685628e-17 2.630425428259095e-17 6.972278762685628e-17 -0.07073857400040354 -0.9974948892842682
12621598666.666666 -0.07888856216668916 -0.9968834409092754 2.687406930634153e-17 6.948951325958593e-17 2.687406930634153e-17 6.948951325958593e-17 -0.07888793746997895 -0.9968834903445727
12622216000.0 -0.08703265657407751 -0.9962054590743336 2.7441826988465953e-17 6.92515869017349e-17 2.7441826988465953e-17 6.92515869017349e-17 -0.08703203233275962 -0.9962055136104573
12622833333.333334 -0.09517093842205337 -0.9954609447284762 2.800748939046378e-17 6.900902660963906e-17 2.800748939046378e-17 6.900902660963906e-17 -0.09517031467777173 -0.9954610043612852
12623450666.666666 -0.10330286418787553 -0.9946499475948443 2.857101873162132e-17 6.876185074869808e-17 2.857101873162132e-17 6.876185074869808e-17 -0.10330224098223685 -0.9946500123198578
12624068000.0 -0.11142789077327199 -0.9937725218366947 2.9132377391522377e-17 6.851007799200285e-17 2.9132377391522377e-17 6.851007799200285e-17 -0.11142726814784291 -0.9937725916490924
12624685333.333334 -0.1195454755408247 -0.9928287260537757 2.969152791256901e-17 6.825372731893465e-17 2.969152791256901e-17 6.825372731893465e-17 -0.11954485353712901 -0.9928288009483968
12625302666.666666 -0.12765507635001178 -0.9918186232784285 3.024843300243942e-17 6.799281801376499e-17 3.024843300243942e-17 6.799281801376499e-17 -0.12765445500952785 -0.9918187032497753
12625920000.0 -0.13575615159366963 -0.9907422809713542 3.080305553660151e-17 6.77273696642057e-17 3.080305553660151e-17 6.77273696642057e-17 -0.13575553095782725 -0.9907423660135888
12626537333.333334 -0.14384816023385372 -0.9895997710171426 3.1355358560758e-17 6.745740215996402e-17 3.1355358560758e-17 6.745740215996402e-17 -0.1438475403440317 -0.9895998611240895
12627154666.666666 -0.15193056183822676 -0.988391169719442 3.190530529329825e-17 6.718293569126883e-17 3.190530529329825e-17 6.718293569126883e-17 -0.15192994273575006 -0.9883912648845886
12627772000.0 -0.16000281661612292 -0.9871165577958624 3.2452859127766005e-17 6.690399074736333e-17 3.2452859127766005e-17 6.690399074736333e-17 -0.16000219834225993 -0.9871166580123593
12628389333.333334 -0.16806438545443042 -0.9857760203726147 3.299798363524753e-17 6.662058811501012e-17 3.299798363524753e-17 6.662058811501012e-17 -0.16806376805039006 -0.9857761256332749
12629006666.666666 -0.1761147299538206 -0.9843696469787858 3.3540642566820747e-17 6.633274887694013e-17 3.3540642566820747e-17 6.633274887694013e-17 -0.17611411346074954 -0.9843697572760854
12629624000.0 -0.18415331246450914 -0.9828975315403914 3.4080799855942025e-17 6.604049441030687e-17 3.4080799855942025e-17 6.604049441030687e-17 -0.18415269692348957 -0.9828976468664735
12630241333.333334 -0.19217959612227625 -0.981359772374089 3.461841962083262e-17 6.574384638511387e-17 3.461841962083262e-17 6.574384638511387e-17 -0.1921789815743226 -0.98135989272076
12630858666.666666 -0.20019304488426537 -0.9797564721806187 3.515346616685769e-17 6.5442826762621e-17 3.515346616685769e-17 6.5442826762621e-17 -0.20019243137032158 -0.9797565975393501
12631476000.0 -0.20819312356489464 -0.9780877380379214 3.56859039888945e-17 6.513745779372793e-17 3.56859039888945e-17 6.513745779372793e-17 -0.20819251112583176 -0.9780878683998516
12632093333.333334 -0.21617929787146037 -0.976353681394016 3.621569777366158e-17 6.482776201735393e-17 3.621569777366158e-17 6.482776201735393e-17 -0.21617868654807365 -0.9763538167499501
12632710666.666666 -0.22415103443979317 -0.9745544180595647 3.6742812402068834e-17 6.451376225877908e-17 3.6742812402068834e-17 6.451376225877908e-17 -0.2241504242727992 -0.9745545583999744
12633328000.0 -0.23210780087010083 -0.9726900682000875 3.726721295153466e-17 6.419548162797603e-17 3.726721295153466e-17 6.419548162797603e-17 -0.23210719190013543 -0.9726902135151146
12633945333.333334 -0.24004906576235885 -0.9707607563279763 3.7788864698279933e-17 6.387294351792908e-17 3.7788864698279933e-17 6.387294351792908e-17 -0.2400484580299734 -0.9707609066074288
12634562666.666666 -0.2479742987517726 -0.9687666112941823 3.83077331196334e-17 6.354617160291998e-17 3.83077331196334e-17 6.354617160291998e-17 -0.24797369229743224 -0.9687667665275393
12635180000.0 -0.25588297054425374 -0.9667077662796004 3.8823783896294376e-17 6.32151898368102e-17 3.8823783896294376e-17 6.32151898368102e-17 -0.25588236540833426 -0.9667079264560112
12635797333.333334 -0.26377455295188007 -0.9645843587861466 3.933698291460145e-17 6.28800224512941e-17 3.933698291460145e-17 6.28800224512941e-17 -0.2637739491746651 -0.9645845238944311
12636414666.666666 -0.2716485189278954 -0.9623965306276445 3.9847296268776784e-17 6.254069395413866e-17 3.9847296268776784e-17 6.254069395413866e-17 -0.2716479165495742 -0.9623967006562945
12637032000.0 -0.2795043426021566 -0.9601444279202901 4.035469026315551e-17 6.21972291274053e-17 4.035469026315551e-17 6.21972291274053e-17 -0.279503741662821 -0.9601446028574699
12637649333.333334 -0.28734149931622677 -0.9578282010729001 4.085913141440873e-17 6.184965302564776e-17 4.085913141440873e-17 6.184965302564776e-17 -0.2873408998558682 -0.9578283809064467
12638266666.666666 -0.29515946565827766 -0.9554480047769037 4.1360586453733523e-17 6.14979909741037e-17 4.1360586453733523e-17 6.14979909741037e-17 -0.2951588677167851 -0.9554481894943286
12638884000.0 -0.3029577194981288 -0.9530039979959899 4.185902232904355e-17 6.114226856685866e-17 4.185902232904355e-17 6.114226856685866e-17 -0.3029571231152859 -0.9530041875844798
12639501333.333334 -0.31073574002222615 -0.9504963439554541 4.23544062071452e-17 6.078251166499003e-17 4.23544062071452e-17 6.078251166499003e-17 -0.31073514523770934 -0.950496538401874
12640118666.666666 -0.3184930077681025 -0.9479252101314081 4.284670547587098e-17 6.041874639471412e-17 4.284670547587098e-17 6.041874639471412e-17 -0.3184924146214763 -0.9479254094222955
12640736000.0 -0.3262290046595801 -0.945290768239416 4.333588774624946e-17 6.005099914547676e-17 4.333588774624946e-17 6.005099914547676e-17 -0.3262284131902968 -0.9452909723609902
12641353333.333334 -0.33394321404080707 -0.9425931942232243 4.382192085459165e-17 5.96792965680772e-17 4.382192085459165e-17 5.96792965680772e-17 -0.3339426242882026 -0.942593403161381
12641970666.666666 -0.34163512071113966 -0.9398326682428801 4.430477286462015e-17 5.930366557273067e-17 4.430477286462015e-17 5.930366557273067e-17 -0.34163453271443145 -0.9398328819831947
12642588000.0 -0.3493042109594944 -0.9370093746627146 4.4784412069554976e-17 5.892413332713413e-17 4.4784412069554976e-17 5.892413332713413e-17 -0.34930362475777904 -0.9370095931904444
12643205333.333334 -0.3569499725984986 -0.9341235020390921 4.526080699417641e-17 5.854072725452063e-17 4.526080699417641e-17 5.854072725452063e-17 -0.3569493882307487 -0.9341237253391754
12643822666.666666 -0.3645718949989093 -0.9311752431077359 4.5733926396892675e-17 5.815347503167997e-17 4.5733926396892675e-17 5.815347503167997e-17 -0.3645713125039715 -0.9311754711647943
12644440000.0 -0.37216946912353005 -0.9281647947709264 4.6203739271776135e-17 5.776240458697469e-17 4.6203739271776135e-17 5.776240458697469e-17 -0.3721688885401224 -0.9281650275692657
12645057333.333334 -0.3797421875613409 -0.9250923580843011 4.6670214850576174e-17 5.736754409834506e-17 4.6670214850576174e-17 5.736754409834506e-17 -0.3797416089280495 -0.9250925956079111
12645674666.666666 -0.387289544561201 -0.9219581382435014 4.7133322604737834e-17 5.696892199127932e-17 4.7133322604737834e-17 5.696892199127932e-17 -0.3872889679164778 -0.9219583804760575
12646292000.0 -0.3948110360660202 -0.9187623445703041 4.759303224738995e-17 5.656656693677778e-17 4.759303224738995e-17 5.656656693677778e-17 -0.3948104614481809 -0.9187625914951697
12646909333.333334 -0.40230615974589723 -0.9155051904988609 4.804931373530069e-17 5.616050784931569e-17 4.804931373530069e-17 5.616050784931569e-17 -0.40230558719311843 -0.9155054420990875
12647526666.666666 -0.4097744150320113 -0.9121868935613032 4.8502137270852e-17 5.575077388475804e-17 4.8502137270852e-17 5.575077388475804e-17 -0.409773844582328 -0.9121871498196319
12648144000.0 -0.4172153031501019 -0.9088076753731867 4.8951473303964626e-17 5.5337394438286425e-17 4.8951473303964626e-17 5.5337394438286425e-17 -0.4172147348414051 -0.9088079362720495
12648761333.333334 -0.4246283271535214 -0.9053677616188072 4.93972925340155e-17 5.4920399142302337e-17 4.93972925340155e-17 5.4920399142302337e-17 -0.4246277610235552 -0.9053680271403272
12649378666.666666 -0.43201299195650233 -0.901867382036094 4.98395659117433e-17 5.44998178643094e-17 4.98395659117433e-17 5.44998178643094e-17 -0.43201242804286183 -0.9018676521620879
12649996000.0 -0.4393688043674282 -0.8983067704011714 5.027826464112828e-17 5.407568070478714e-17 5.027826464112828e-17 5.407568070478714e-17 -0.43936824270755664 -0.89830704511315
12650613333.333334 -0.44669527312151425 -0.8946861645128654 5.0713360181265175e-17 5.3648017995040293e-17 5.0713360181265175e-17 5.3648017995040293e-17 -0.44669471375270065 -0.8946864437920349
12651230666.666666 -0.4539919089137197 -0.8910058061767739 5.114482424819314e-17 5.321686029505557e-17 5.114482424819314e-17 5.321686029505557e-17 -0.45399135187309675 -0.8910060900040377
12651848000.0 -0.46125822443150327 -0.8872659411890798 5.157262881674434e-17 5.2782238391309533e-17 5.157262881674434e-17 5.2782238391309533e-17 -0.4612576697560442 -0.8872662295450389
12652465333.333334 -0.46849373438721525 -0.8834668193202095 5.1996746122345026e-17 5.234418329458903e-17 5.1996746122345026e-17 5.234418329458903e-17 -0.468493182113732 -0.8834671121851648
12653082666.666666 -0.47569795555058564 -0.879608694298117 5.241714866279724e-17 5.190272623779928e-17 5.241714866279724e-17 5.190272623779928e-17 -0.4756974057157264 -0.8796089916520707
12653700000.0 -0.4828704067810968 -0.8756918237912835 5.28338092000784e-17 5.145789867371992e-17 5.28338092000784e-17 5.145789867371992e-17 -0.4828698594213426 -0.8756921256139389
12654317333.333334 -0.49001060905983973 -0.8717164693916538 5.324670076206514e-17 5.100973227280566e-17 5.324670076206514e-17 5.100973227280566e-17 -0.4900100642115036 -0.8717167756624189
12654934666.666666 -0.49711808552183406 -0.867682896596995 5.3655796644288246e-17 5.055825892092197e-17 5.3655796644288246e-17 5.055825892092197e-17 -0.4971175432210571 -0.8676832072949815
12655552000.0 -0.5041923614877228 -0.8635913747932413 5.4061070411653347e-17 5.010351071708135e-17 5.4061070411653347e-17 5.010351071708135e-17 -0.5041918217704724 -0.8635916898972674
12656169333.333334 -0.5112329644953266 -0.859442177236588 5.4462495900116044e-17 4.964551997119564e-17 5.4462495900116044e-17 4.964551997119564e-17 -0.5112324273973948 -0.859442496725181
12656786666.666666 -0.518239424331521 -0.855235581035062 5.48600472183862e-17 4.9184319201762544e-17 5.48600472183862e-17 4.9184319201762544e-17 -0.5182388898885211 -0.8552359048864583
12657404000.0 -0.5252112730633656 -0.850971867130168 5.525369874957014e-17 4.8719941133584694e-17 5.525369874957014e-17 4.8719941133584694e-17 -0.5252107413107304 -0.8509721953223145
12658021333.333334 -0.5321480450694815 -0.8466513202780559 5.5643425152818e-17 4.825241869544981e-17 5.5643425152818e-17 4.825241869544981e-17 -0.5321475160424601 -0.8466516527886108
12658638666.666666 -0.5390492770710971 -0.8422742290305301 5.602920136494128e-17 4.77817850178082e-17 5.602920136494128e-17 4.77817850178082e-17 -0.5390487508047533 -0.8422745658368662
12659256000.0 -0.5459145081630862 -0.8378408857157197 5.641100260201924e-17 4.730807343042818e-17 5.641100260201924e-17 4.730807343042818e-17 -0.5459139846922964 -0.8378412267949251
12659873333.333334 -0.5527432798446056 -0.8333515864186465 5.678880436097255e-17 4.6831317460055034e-17 5.678880436097255e-17 4.6831317460055034e-17 -0.5527427592040557 -0.8333519317475264
12660490666.666666 -0.5595351360497884 -0.8288066309614036 5.71625824211284e-17 4.635155082804243e-17 5.71625824211284e-17 4.635155082804243e-17 -0.559534618273972 -0.8288069805164812
12661108000.0 -0.5662896231782968 -0.8242063228830687 5.753231284576637e-17 4.58688074479719e-17 5.753231284576637e-17 4.58688074479719e-17 -0.5662891083015132 -0.8242066766405882
12661725333.333334 -0.5730062901253582 -0.8195509694196083 5.789797198363243e-17 4.538312142327477e-17 5.789797198363243e-17 4.538312142327477e-17 -0.5730057781817101 -0.8195513273555352
12662342666.666666 -0.579684688312221 -0.8148408814831328 5.825953647044561e-17 4.48945270448255e-17 5.825953647044561e-17 4.48945270448255e-17 -0.5796841793356104 -0.8148412435731551
12662960000.0 -0.5863243717158545 -0.810076373641309 5.861698323037714e-17 4.44030587885333e-17 5.861698323037714e-17 4.44030587885333e-17 -0.5863238657399834 -0.8100767398608405
12663577333.333334 -0.5929248968988328 -0.8052577640962887 5.897028947751674e-17 4.3908751312911896e-17 5.897028947751674e-17 4.3908751312911896e-17 -0.5929243939571986 -0.8052581344204692
12664194666.666666 -0.599485823039017 -0.800385374663405 5.931943271730597e-17 4.341163945665461e-17 5.931943271730597e-17 4.341163945665461e-17 -0.5994853231649118 -0.800385749067103
12664812000.0 -0.6060067119588582 -0.7954595307497798 5.96643907479626e-17 4.291175823618295e-17 5.96643907479626e-17 4.291175823618295e-17 -0.6060062151853659 -0.7954599092075945
12665429333.333334 -0.6124871281547558 -0.7904805613325266 6.000514166188548e-17 4.240914284318245e-17 6.000514166188548e-17 4.240914284318245e-17 -0.6124866345147498 -0.7904809438187876
12666046666.666666 -0.6189266388260947 -0.7854487989368116 6.034166384701945e-17 4.190382864215456e-17 6.034166384701945e-17 4.190382864215456e-17 -0.6189261483522361 -0.7854491854255832
12666664000.0 -0.6253248139042411 -0.7803645796135759 6.067393598823668e-17 4.139585116790478e-17 6.067393598823668e-17 4.139585116790478e-17 -0.6253243266289769 -0.780364970078657
12667281333.333334 -0.6316812260811311 -0.7752282429171977 6.100193706864992e-17 4.088524612308893e-17 6.100193706864992e-17 4.088524612308893e-17 -0.6316807420366907 -0.7752286373321244
12667898666.666666 -0.6379954508378755 -0.7700401318827618 6.132564637094468e-17 4.037204937569015e-17 6.132564637094468e-17 4.037204937569015e-17 -0.63799497005627 -0.7700405302208095
12668516000.0 -0.6442670664731794 -0.7648005930030981 6.16450434786789e-17 3.985629695650314e-17 6.16450434786789e-17 3.985629695650314e-17 -0.6442665889861979 -0.7648009952372813
12669133333.333334 -0.6504956541313697 -0.7595099762057435 6.196010827753972e-17 3.933802505664101e-17 6.196010827753972e-17 3.933802505664101e-17 -0.650495179970579 -0.7595103823088202
12669750666.666666 -0.6566807978304605 -0.7541686348295037 6.2270820956618e-17 3.8817270024973154e-17 6.2270820956618e-17 3.8817270024973154e-17 -0.6566803270272027 -0.7541690447739767
12670368000.0 -0.6628220844899116 -0.7487769256008727 6.257716200962861e-17 3.82940683656039e-17 6.257716200962861e-17 3.82940683656039e-17 -0.6628216170753012 -0.7487773393589906
