! Parameters = {f0=12700.012000; bw=77.238000; Q=6100.000000; N=10; m_0_1=1.201697; m_1_1=-0.739295; m_1_2=1.036509; m_2_2=-0.739944; m_2_3=0.673472; m_2_8=-0.002851; m_2_9=0.033853; m_3_3=-0.741881; m_3_4=0.562001; m_3_7=-0.002251; m_3_8=-0.099339; m_3_9=-0.002851; m_4_4=-0.744806; m_4_5=0.398336; m_4_6=0.001266; m_4_7=-0.119888; m_4_8=-0.002251; m_5_5=-0.744424; m_5_6=0.805691; m_5_7=0.001266; m_6_6=-0.744425; m_6_7=0.398678; m_7_7=-0.744792; m_7_8=0.562119; m_8_8=-0.741883; m_8_9=0.673785; m_9_9=-0.739949; m_9_10=1.037587; m_10_10=-0.739305; m_10_11=1.202492}
!
! Created with skrf (http://scikit-rf.org).
# Hz S RI R 50.0 
!freq ReS11 ImS11 ReS21 ImS21 ReS12 ImS12 ReS22 ImS22
12607400000.0 -0.37178307908757396 -0.9283196335874865 4.913854476855526e-17 6.215920440147763e-17 4.913854476855526e-17 6.215920440147763e-17 -0.3717824912347053 -0.9283198690166868
12608017333.333334 -0.3796637134704261 -0.9251245671117422 4.9661092849424277e-17 6.172260486767004e-17 4.9661092849424277e-17 6.172260486767004e-17 -0.3796631276695002 -0.9251248075195342
12608634666.666666 -0.38751689328668437 -0.9218626022446507 5.017976911582977e-17 6.128161853750088e-17 5.017976911582977e-17 6.128161853750088e-17 -0.3875163095798591 -0.9218628476131624
12609252000.0 -0.3953420506506778 -0.9185339748681912 5.0694536793543844e-17 6.083627968478836e-17 5.0694536793543844e-17 6.083627968478836e-17 -0.3953414690799557 -0.9185342251791951
12609869333.333334 -0.4031386197029624 -0.9151389256849655 5.120535941122392e-17 6.038662289115748e-17 5.120535941122392e-17 6.038662289115748e-17 -0.40313804031018713 -0.9151391809198774
12610486666.666666 -0.41090603665139747 -0.9116777002007251 5.1712200802971567e-17 5.993268304337929e-17 5.1712200802971567e-17 5.993268304337929e-17 -0.41090545947825113 -0.9116779603406069
12611104000.0 -0.41864373981212205 -0.908150548706525 5.2215025110894673e-17 5.947449533066533e-17 5.2215025110894673e-17 5.947449533066533e-17 -0.41864316490012266 -0.9081508137320865
12611721333.333334 -0.42635116964960307 -0.9045577262608835 5.271379678761963e-17 5.901209524196504e-17 5.271379678761963e-17 5.901209524196504e-17 -0.42635059704010014 -0.9045579961524813
12612338666.666666 -0.4340277688177667 -0.9008994926710265 5.3208480598803885e-17 5.854551856321882e-17 5.3208480598803885e-17 5.854551856321882e-17 -0.43402719855194066 -0.9008997674086704
12612956000.0 -0.44167298219999507 -0.8971761124742488 5.3699041625608197e-17 5.807480137460585e-17 5.3699041625608197e-17 5.807480137460585e-17 -0.4416724143188511 -0.8971763920375966
12613573333.333334 -0.4492862569489573 -0.8933878549189255 5.418544526714504e-17 5.75999800477716e-17 5.418544526714504e-17 5.75999800477716e-17 -0.44928569149332537 -0.8933881392872901
12614190666.666666 -0.4568670425272549 -0.8895349939447249 5.466765724291821e-17 5.712109124301878e-17 5.466765724291821e-17 5.712109124301878e-17 -0.4568664795377857 -0.8895352830970743
12614808000.0 -0.46441479074667197 -0.8856178081630741 5.5145643595213986e-17 5.663817190650193e-17 5.5145643595213986e-17 5.663817190650193e-17 -0.46441423026383294 -0.8856181020780307
12615425333.333334 -0.47192895580801797 -0.8816365808369098 5.561937069149159e-17 5.61512592673785e-17 5.561937069149159e-17 5.61512592673785e-17 -0.4719283978720921 -0.8816368794927549
12616042666.666666 -0.4794089943407482 -0.8775915998601145 5.60888052267326e-17 5.566039083495553e-17 5.60888052267326e-17 5.566039083495553e-17 -0.4794084389918303 -0.8775919032347888
12616660000.0 -0.4868543654419547 -0.8734831577368596 5.655391422576554e-17 5.516560439581733e-17 5.655391422576554e-17 5.516560439581733e-17 -0.486853812719948 -0.8734834658079637
12617277333.333334 -0.49426453071568 -0.8693115515603432 5.701466504558084e-17 5.466693801091756e-17 5.701466504558084e-17 5.466693801091756e-17 -0.4942639806602948 -0.8693118643051418
12617894666.666666 -0.5016389543117535 -0.8650770829913674 5.747102537759686e-17 5.416443001267636e-17 5.747102537759686e-17 5.416443001267636e-17 -0.501638406962503 -0.8650774003867886
12618512000.0 -0.5089771029647346 -0.8607800582364051 5.792296324992522e-17 5.365811900203252e-17 5.792296324992522e-17 5.365811900203252e-17 -0.5089765583609321 -0.8607803802590429
12619129333.333334 -0.5162784460321796 -0.8564207880256299 5.837044702958611e-17 5.314804384550366e-17 5.837044702958611e-17 5.314804384550366e-17 -0.5162779042129366 -0.8564211146517466
12619746666.666666 -0.5235424555331634 -0.8519995875903622 5.88134454247199e-17 5.2634243672202486e-17 5.88134454247199e-17 5.2634243672202486e-17 -0.5235419165373861 -0.8519999187958895
12620364000.0 -0.5307686061866043 -0.847516776640186 5.925192748675829e-17 5.2116757870852104e-17 5.925192748675829e-17 5.2116757870852104e-17 -0.5307680700529909 -0.8475171124007264
12620981333.333334 -0.537956375448956 -0.8429726793400031 5.968586261256913e-17 5.159562608678308e-17 5.968586261256913e-17 5.159562608678308e-17 -0.5379558422159936 -0.8429730196308318
12621598666.666666 -0.5451052435521896 -0.8383676242864772 6.011522054658792e-17 5.1070888218897526e-17 6.011522054658792e-17 5.1070888218897526e-17 -0.5451047132581518 -0.8383679690825445
12622216000.0 -0.5522146935412809 -0.8337019444843284 6.053997138290997e-17 5.054258441663107e-17 6.053997138290997e-17 5.054258441663107e-17 -0.5522141662242267 -0.8337022937602633
12622833333.333334 -0.5592842113117895 -0.828975977322137 6.096008556735731e-17 5.001075507689575e-17 6.096008556735731e-17 5.001075507689575e-17 -0.5592836870095561 -0.8289763310522437
12623450666.666666 -0.5663132856467409 -0.8241900645481212 6.137553389952469e-17 4.9475440840999064e-17 6.137553389952469e-17 4.9475440840999064e-17 -0.5663127643969457 -0.824190422706386
12624068000.0 -0.5733014082537441 -0.81934455224534 6.178628753479848e-17 4.893668259154609e-17 6.178628753479848e-17 4.893668259154609e-17 -0.57330089009378 -0.8193449148054323
12624685333.333334 -0.5802480738018853 -0.8144397908065669 6.219231798634295e-17 4.839452144933194e-17 6.219231798634295e-17 4.839452144933194e-17 -0.580247558768918 -0.8144401577418395
12625302666.666666 -0.5871527799579884 -0.8094761349091454 6.259359712705684e-17 4.784899877022164e-17 6.259359712705684e-17 4.784899877022164e-17 -0.5871522680889538 -0.8094765061926377
12625920000.0 -0.5940150274231282 -0.8044539434892112 6.299009719152407e-17 4.730015614198512e-17 6.299009719152407e-17 4.730015614198512e-17 -0.5940145187547294 -0.8044543190936505
12626537333.333334 -0.6008343199686884 -0.7993735797157708 6.338179077789839e-17 4.6748035381168565e-17 6.338179077789839e-17 4.6748035381168565e-17 -0.6008338145373943 -0.7993739596135752
12627154666.666666 -0.6076101644722017 -0.7942354109644736 6.37686508497991e-17 4.6192678529897894e-17 6.37686508497991e-17 4.6192678529897894e-17 -0.6076096623142427 -0.7942357951277526
12627772000.0 -0.614342070953188 -0.7890398087909066 6.415065073816636e-17 4.563412785268262e-17 6.415065073816636e-17 4.563412785268262e-17 -0.6143415721045551 -0.7890401971914648
12628389333.333334 -0.621029552608316 -0.7837871489039343 6.452776414306386e-17 4.5072425833241695e-17 6.452776414306386e-17 4.5072425833241695e-17 -0.6210290571047564 -0.783787541513272
12629006666.666666 -0.6276721258467406 -0.7784778111384266 6.489996513550149e-17 4.450761517124425e-17 6.489996513550149e-17 4.450761517124425e-17 -0.6276716337237574 -0.7784782079277436
12629624000.0 -0.6342693103252075 -0.7731121794276873 6.526722815918615e-17 4.393973877910069e-17 6.526722815918615e-17 4.393973877910069e-17 -0.6342688216180546 -0.7731125803678826
12630241333.333334 -0.640820628982519 -0.767690641775899 6.562952803226487e-17 4.3368839778707126e-17 6.562952803226487e-17 4.3368839778707126e-17 -0.6408201437262011 -0.7676910468375755
12630858666.666666 -0.6473256080741675 -0.7622135902299643 6.598683994903726e-17 4.2794961498182237e-17 6.598683994903726e-17 4.2794961498182237e-17 -0.6473251263034356 -0.7622139993834294
12631476000.0 -0.653783777206723 -0.756681420851043 6.63391394816476e-17 4.2218147468574086e-17 6.63391394816476e-17 4.2218147468574086e-17 -0.6537832989560732 -0.7566818340663114
12632093333.333334 -0.6601946693716277 -0.7510945336860925 6.668640258172085e-17 4.1638441420599195e-17 6.668640258172085e-17 4.1638441420599195e-17 -0.6601941946752979 -0.7510949509328878
12632710666.666666 -0.6665578209789323 -0.7454533327389844 6.702860558200293e-17 4.105588728131519e-17 6.702860558200293e-17 4.105588728131519e-17 -0.6665573498708998 -0.7454537539867414
12633328000.0 -0.672872771891156 -0.7397582259409863 6.736572519796012e-17 4.0470529170798694e-17 6.736572519796012e-17 4.0470529170798694e-17 -0.672872304405135 -0.7397586511588533
12633945333.333334 -0.6791390654563026 -0.7340096251214845 6.769773852933361e-17 3.988241139883753e-17 6.769773852933361e-17 3.988241139883753e-17 -0.6791386016257432 -0.7340100542783268
12634562666.666666 -0.6853562485408464 -0.7282079459782487 6.802462306169188e-17 3.929157846156604e-17 6.802462306169188e-17 3.929157846156604e-17 -0.6853557883989304 -0.7282083790426492
12635180000.0 -0.6915238715625805 -0.7223536080472931 6.834635666793626e-17 3.8698075038116675e-17 6.834635666793626e-17 3.8698075038116675e-17 -0.6915234151422204 -0.7223540449875555
12635797333.333334 -0.6976414885232921 -0.7164470346723807 6.866291760977995e-17 3.810194598725555e-17 6.866291760977995e-17 3.810194598725555e-17 -0.6976410358571272 -0.7164474754565312
12636414666.666666 -0.7037086570405642 -0.7104886529748444 6.897428453920282e-17 3.7503236343998794e-17 6.897428453920282e-17 3.7503236343998794e-17 -0.7037082081609595 -0.7104890975706343
12637032000.0 -0.7097249383803341 -0.7044788938221449 6.928043649987541e-17 3.6901991316216274e-17 6.928043649987541e-17 3.6901991316216274e-17 -0.7097244933193785 -0.7044793421970539
12637649333.333334 -0.7156898974881765 -0.6984181917971537 6.958135292855034e-17 3.6298256281232555e-17 6.958135292855034e-17 3.6298256281232555e-17 -0.7156894562776783 -0.6984186439183907
12638266666.666666 -0.7216031030209226 -0.6923069851665652 6.987701365642292e-17 3.5692076782418307e-17 6.987701365642292e-17 3.5692076782418307e-17 -0.7216026656924093 -0.6923074410010712
12638884000.0 -0.727464127377971 -0.6861457158490821 7.016739891047128e-17 3.5083498525753136e-17 7.016739891047128e-17 3.5083498525753136e-17 -0.7274636939626865 -0.6861461753635338
12639501333.333334 -0.7332725467319727 -0.6799348293837062 7.045248931475838e-17 3.447256737639335e-17 7.045248931475838e-17 3.447256737639335e-17 -0.7332721172608743 -0.6799352925445162
12640118666.666666 -0.7390279410595969 -0.6736747748973948 7.073226589169815e-17 3.3859329355243854e-17 7.073226589169815e-17 3.3859329355243854e-17 -0.7390275155633543 -0.6736752416707168
12640736000.0 -0.7447298941720579 -0.6673660050724181 7.100671006332086e-17 3.32438306354571e-17 7.100671006332086e-17 3.32438306354571e-17 -0.7447294726810499 -0.6673664754241464
12641353333.333334 -0.7503779937447889 -0.6610089761140833 7.127580365246259e-17 3.262611753902135e-17 7.127580365246259e-17 3.262611753902135e-17 -0.7503775762891024 -0.6610094500098583
12641970666.666666 -0.7559718313477931 -0.6546041477171584 7.153952888396627e-17 3.2006236533248034e-17 7.153952888396627e-17 3.2006236533248034e-17 -0.7559714179572197 -0.6546046251223664
12642588000.0 -0.7615110024747596 -0.6481519830330923 7.179786838583284e-17 3.1384234227294547e-17 7.179786838583284e-17 3.1384234227294547e-17 -0.7615105931787942 -0.6481524639128698
12643205333.333334 -0.7669951065724686 -0.6416529486363567 7.205080519034347e-17 3.0760157368673754e-17 7.205080519034347e-17 3.0760157368673754e-17 -0.7669947014003071 -0.6416534329555921
12643822666.666666 -0.7724237470698277 -0.6351075144906186 7.229832273515456e-17 3.013405283974854e-17 7.229832273515456e-17 3.013405283974854e-17 -0.7724233460503649 -0.635108002213955
12644440000.0 -0.7777965314065093 -0.6285161539147955 7.254040486436236e-17 2.9505967654217903e-17 7.254040486436236e-17 2.9505967654217903e-17 -0.7777961345683375 -0.6285166450066342
12645057333.333334 -0.7831130710611255 -0.6218793435490971 7.277703582953462e-17 2.887594895360077e-17 7.277703582953462e-17 2.887594895360077e-17 -0.7831126784325315 -0.6218798379735984
12645674666.666666 -0.788372981579612 -0.6151975633202046 7.300820029071104e-17 2.8244044003713965e-17 7.300820029071104e-17 2.8244044003713965e-17 -0.7883725931885751 -0.6151980610412913
12646292000.0 -0.7935758826029852 -0.6084712964066056 7.323388331738592e-17 2.7610300191109013e-17 7.323388331738592e-17 2.7610300191109013e-17 -0.7935754984771769 -0.6084717973879668
12646909333.333334 -0.7987213978946796 -0.6017010292038829 7.345407038943735e-17 2.6974765019561904e-17 7.345407038943735e-17 2.6974765019561904e-17 -0.7987210180614582 -0.6017015334089736
12647526666.666666 -0.8038091553678532 -0.5948872512894026 7.366874739804381e-17 2.6337486106507578e-17 7.366874739804381e-17 2.6337486106507578e-17 -0.8038087798542659 -0.5948877586814498
12648144000.0 -0.8088387871124015 -0.5880304553867791 7.387790064656816e-17 2.569851117947151e-17 7.387790064656816e-17 2.569851117947151e-17 -0.8088384159451787 -0.5880309659287821
12648761333.333334 -0.8138099294213526 -0.5811311373305139 7.408151685140212e-17 2.50578880725198e-17 7.408151685140212e-17 2.50578880725198e-17 -0.8138095626269093 -0.5811316509852485
12649378666.666666 -0.8187222228172754 -0.574189796030008 7.427958314278342e-17 2.4415664722694492e-17 7.427958314278342e-17 2.4415664722694492e-17 -0.818721860421708 -0.5741903127600289
12649996000.0 -0.8235753120783709 -0.5672069334333432 7.447208706559101e-17 2.3771889166412987e-17 7.447208706559101e-17 2.3771889166412987e-17 -0.8235749541074541 -0.5672074532009851
12650613333.333334 -0.8283688462639596 -0.5601830544912615 7.465901658009763e-17 2.312660953589962e-17 7.465901658009763e-17 2.312660953589962e-17 -0.8283684927431457 -0.560183577258644
12651230666.666666 -0.8331024787399933 -0.5531186671204674 7.484036006269473e-17 2.2479874055601074e-17 7.484036006269473e-17 2.2479874055601074e-17 -0.8331021296944113 -0.5531191928494967
12651848000.0 -0.8377758672040558 -0.5460142821669917 7.501610630659124e-17 2.1831731038579254e-17 7.501610630659124e-17 2.1831731038579254e-17 -0.8377755226585084 -0.5460148108193639
12652465333.333334 -0.8423886737102416 -0.5388704133690614 7.518624452247622e-17 2.1182228882918298e-17 7.518624452247622e-17 2.1182228882918298e-17 -0.842388333689203 -0.5388709449062644
12653082666.666666 -0.8469405646934045 -0.5316875773202335 7.535076433915013e-17 2.0531416068126743e-17 7.535076433915013e-17 2.0531416068126743e-17 -0.8469402292210204 -0.5316881117035512
12653700000.0 -0.8514312109934069 -0.5244662934318515 7.550965580413063e-17 1.9879341151513477e-17 7.550965580413063e-17 1.9879341151513477e-17 -0.85143088009349 -0.5244668306223642
12654317333.333334 -0.8558602878788552 -0.517207083895576 7.566290938421928e-17 1.922605276459186e-17 7.566290938421928e-17 1.922605276459186e-17 -0.8558599615748883 -0.5172076238541674
12654934666.666666 -0.8602274750707105 -0.5099104736454373 7.581051596604529e-17 1.857159960944733e-17 7.581051596604529e-17 1.857159960944733e-17 -0.8602271533858379 -0.5099110163327918
12655552000.0 -0.8645324567652586 -0.502576990320158 7.595246685657182e-17 1.7916030455122665e-17 7.595246685657182e-17 1.7916030455122665e-17 -0.8645321397222924 -0.5025775356967691
12656169333.333334 -0.8687749216570505 -0.495207164224862 7.60887537835728e-17 1.725939413400008e-17 7.60887537835728e-17 1.725939413400008e-17 -0.8687746092784615 -0.4952077122510308
12656786666.666666 -0.8729545629614839 -0.4878015282925699 7.621936889608164e-17 1.6601739538157992e-17 7.621936889608164e-17 1.6601739538157992e-17 -0.8729542552694057 -0.487802078928411
12657404000.0 -0.8770710784368287 -0.48036061804596353 7.634430476480285e-17 1.5943115615757638e-17 7.634430476480285e-17 1.5943115615757638e-17 -0.877070775453053 -0.4803611712514059
12658021333.333334 -0.8811241704061905 -0.4728849715584593 7.646355438249931e-17 1.5283571367392123e-17 7.646355438249931e-17 1.5283571367392123e-17 -0.8811238721521665 -0.4728855272932505
12658638666.666666 -0.8851135457789824 -0.46537512941539977 7.65771111643408e-17 1.462315584246772e-17 7.65771111643408e-17 1.462315584246772e-17 -0.8851132522758145 -0.465375687639108
12659256000.0 -0.8890389160722263 -0.4578316346747615 7.668496894822825e-17 1.3961918135550484e-17 7.668496894822825e-17 1.3961918135550484e-17 -0.8890386273406745 -0.45783219534677927
12659873333.333334 -0.8928999974312537 -0.4502550328281853 7.678712199508216e-17 1.329990738273264e-17 7.678712199508216e-17 1.329990738273264e-17 -0.8928997134917313 -0.4502555959077324
12660490666.666666 -0.8966965106503145 -0.44264587176138215 7.688356498910004e-17 1.2637172757997412e-17 7.688356498910004e-17 1.2637172757997412e-17 -0.8966962315228848 -0.4426464372075075
12661108000.0 -0.9004281811928396 -0.4350047017143583 7.697429303798578e-17 1.1973763469560516e-17 7.697429303798578e-17 1.1973763469560516e-17 -0.9004279068972173 -0.43500526948594426
12661725333.333334 -0.9040947392111439 -0.4273320752419332 7.705930167314296e-17 1.1309728756243508e-17 7.705930167314296e-17 1.1309728756243508e-17 -0.9040944697666914 -0.4273326452976975
12662342666.666666 -0.9076959195660382 -0.4196285471735774 7.713858684984187e-17 1.0645117883811148e-17 7.713858684984187e-17 1.0645117883811148e-17 -0.9076956549917664 -0.4196291194720773
12662960000.0 -0.9112314618459568 -0.4118946745733957 7.721214494734966e-17 9.97998014134323e-18 7.721214494734966e-17 9.97998014134323e-18 -0.9112312021605216 -0.4118952490730299
12663577333.333334 -0.9147011103858806 -0.40413101669963625 7.727997276903494e-17 9.314364837573412e-18 7.727997276903494e-17 9.314364837573412e-18 -0.9147008556075824 -0.4041315933586481
12664194666.666666 -0.918104614285681 -0.39633813496455805 7.734206754243681e-17 8.648321297249737e-18 7.734206754243681e-17 8.648321297249737e-18 -0.9181043644324651 -0.3963387137410397
12664812000.0 -0.9214417274283427 -0.3885165928936827 7.739842691930347e-17 7.981898857495525e-18 7.739842691930347e-17 7.981898857495525e-18 -0.9214414825177955 -0.3885171737455766
12665429333.333334 -0.9247122084978406 -0.3806669560848304 7.744904897560168e-17 7.315146864148767e-18 7.744904897560168e-17 7.315146864148767e-18 -0.9247119685471888 -0.380667538969933
12666046666.666666 -0.9279158209963514 -0.3727897921677987 7.749393221149166e-17 6.648114668135295e-18 7.749393221149166e-17 6.648114668135295e-18 -0.9279155860224632 -0.37279037704376394
12666664000.0 -0.9310523332616624 -0.36488567076258 7.753307555127353e-17 5.980851621807734e-18 7.753307555127353e-17 5.980851621807734e-18 -0.9310521032810426 -0.36488625758692167
12667281333.333334 -0.9341215184836824 -0.3569551634387493 7.756647834330051e-17 5.31340707532111e-18 7.756647834330051e-17 5.31340707532111e-18 -0.9341212935124743 -0.3569557521688448
12667898666.666666 -0.9371231547209308 -0.3489988436739214 7.759414035986219e-17 4.645830372976863e-18 7.759414035986219e-17 4.645830372976863e-18 -0.937122934774914 -0.34899943426701435
12668516000.0 -0.9400570249166496 -0.3410172868121229 7.761606179703577e-17 3.9781708495908414e-18 7.761606179703577e-17 3.9781708495908414e-18 -0.940056810011238 -0.3410178792253261
12669133333.333334 -0.9429229169143734 -0.3330110700225047 7.763224327450622e-17 3.3104778268634045e-18 7.763224327450622e-17 3.3104778268634045e-18 -0.9429227070646151 -0.33301166421280376
12669750666.666666 -0.9457206234733373 -0.3249807722574473 7.764268583535597e-17 2.642800609732022e-18 7.764268583535597e-17 2.642800609732022e-18 -0.9457204186939137 -0.3249813681817035
12670368000.0 -0.9484499422835134 -0.3169269742105328 7.764739094582225e-17 1.9751884827441957e-18 7.764739094582225e-17 1.9751884827441957e-18 -0.9484497425887388 -0.31692757182548653
