! Parameters = {f0=12700.012000; bw=77.238000; Q=6100.000000; N=10; m_0_1=1.309404; m_1_1=0.876320; m_1_2=1.144216; m_2_2=0.875671; m_2_3=0.781179; m_2_8=0.002534; m_2_9=0.039238; m_3_3=0.873734; m_3_4=0.669708; m_3_7=0.003134; m_3_8=-0.093954; m_3_9=0.002534; m_4_4=0.870809; m_4_5=0.506043; m_4_6=0.006651; m_4_7=-0.114503; m_4_8=0.003134; m_5_5=0.871191; m_5_6=0.913398; m_5_7=0.006651; m_6_6=0.871190; m_6_7=0.506385; m_7_7=0.870823; m_7_8=0.669826; m_8_8=0.873732; m_8_9=0.781492; m_9_9=0.875666; m_9_10=1.145294; m_10_10=0.876310; m_10_11=1.310199}
!
! Created with skrf (http://scikit-rf.org).
# Hz S RI R 50.0 
!freq ReS11 ImS11 ReS21 ImS21 ReS12 ImS12 ReS22 ImS22
12607400000.0 -0.49889244631202445 0.866663906605448 3.081285529462993e-17 -1.290884679445489e-16 3.081285529462993e-17 -1.290884679445489e-16 -0.49889304413502744 0.8666635624701771
12608017333.333334 -0.4887291681577823 0.8724355564691384 2.928480382129006e-17 -1.294170306420866e-16 2.928480382129006e-17 -1.294170306420866e-16 -0.4887297699325986 0.8724352193609803
12608634666.666666 -0.47849912756600804 0.8780880280008273 2.775328927900526e-17 -1.2972751625952174e-16 2.775328927900526e-17 -1.2972751625952174e-16 -0.47849973321004996 0.8780876979651429
12609252000.0 -0.4682037220028997 0.8836205490494455 2.6218525395250506e-17 -1.3001988882127808e-16 2.6218525395250506e-17 -1.3001988882127808e-16 -0.46820433143305895 0.8836202261306241
12609869333.333334 -0.4578443578637308 0.8890323638496863 2.4680726264310008e-17 -1.3029411487721547e-16 2.4680726264310008e-17 -1.3029411487721547e-16 -0.45784497099638966 0.8890320480911403
12610486666.666666 -0.44742245028095645 0.8943227331251264 2.3140106317487255e-17 -1.3055016350627227e-16 2.3140106317487255e-17 -1.3055016350627227e-16 -0.4474230670320011 0.8943224245692885
12611104000.0 -0.4369394229304747 0.8994909341894428 2.1596880293198315e-17 -1.3078800631976988e-16 2.1596880293198315e-17 -1.3078800631976988e-16 -0.4369400432153032 0.8994906328777538
12611721333.333334 -0.426396707837571 0.904536261044903 2.0051263207149437e-17 -1.3100761746434543e-16 2.0051263207149437e-17 -1.3100761746434543e-16 -0.42639733157110854 0.9045359670178131
12612338666.666666 -0.41579574518115264 0.9094580244788996 1.850347032236163e-17 -1.3120897362455352e-16 1.850347032236163e-17 -1.3120897362455352e-16 -0.4157963722778612 0.909457737775859
12612956000.0 -0.40513798309672516 0.9142555521582191 1.695371711924681e-17 -1.313920540251013e-16 1.695371711924681e-17 -1.313920540251013e-16 -0.4051386134706157 0.9142552728176739
12613573333.333334 -0.39442487747916755 0.9189281887206183 1.5402219265680814e-17 -1.3155684043273102e-16 1.5402219265680814e-17 -1.3155684043273102e-16 -0.39442551104381196 0.9189279167800055
12614190666.666666 -0.3836578917833068 0.9234752958645945 1.3849192586990943e-17 -1.3170331715775742e-16 1.3849192586990943e-17 -1.3170331715775742e-16 -0.3836585284518494 0.923475031360336
12614808000.0 -0.372838496824237 0.9278962524364754 1.2294853036008356e-17 -1.3183147105524338e-16 1.2294853036008356e-17 -1.3183147105524338e-16 -0.3728391365094069 0.9278959954039744
12615425333.333334 -0.3619681705764532 0.9321904545152501 1.0739416663054568e-17 -1.3194129152582908e-16 1.0739416663054568e-17 -1.3194129152582908e-16 -0.3619688131905756 0.9321902049888849
12616042666.666666 -0.3510483979717953 0.9363573154951312 9.183099585967345e-18 -1.3203277051620293e-16 9.183099585967345e-18 -1.3203277051620293e-16 -0.35104904342680415 0.9363570735082521
12616660000.0 -0.34008067069670667 0.9403962661656476 7.626117960110316e-18 -1.321059025192228e-16 7.626117960110316e-18 -1.321059025192228e-16 -0.34008131890415644 0.9403960317505717
12617277333.333334 -0.32906648698838226 0.9443067547894263 6.0686879483853005e-18 -1.3216068457368264e-16 6.0686879483853005e-18 -1.3216068457368264e-16 -0.32906713785946046 0.9443065279774338
12617894666.666666 -0.3180073514303463 0.9480882471774815 4.511025691296658e-18 -1.3219711626372555e-16 4.511025691296658e-18 -1.3219711626372555e-16 -0.31800800487588454 0.9480880279988096
12618512000.0 -0.3069047747464615 0.9517402267623432 2.9533472769327894e-18 -1.3221519971790766e-16 2.9533472769327894e-18 -1.3221519971790766e-16 -0.3069054306769493 0.9517400152461855
12619129333.333334 -0.29576027359504353 0.9552621946684572 1.3958687110981492e-18 -1.3221493960790562e-16 1.3958687110981492e-18 -1.3221493960790562e-16 -0.2957609319206392 0.955261990842956
12619746666.666666 -0.28457537036138236 0.9586536697804348 -1.611941126406339e-19 -1.321963431468746e-16 -1.611941126406339e-19 -1.321963431468746e-16 -0.2845760309919258 0.9586534736726797
12620364000.0 -0.27335159294974903 0.961914188808777 -1.717625442843757e-18 -1.3215942008745353e-16 -1.717625442843757e-18 -1.3215942008745353e-16 -0.27335225579477457 0.9619140004448014
12620981333.333334 -0.2620904745750334 0.9650433063530603 -3.273209700003278e-18 -1.3210418271942036e-16 -3.273209700003278e-18 -1.3210418271942036e-16 -0.2620911395437812 0.9650431257578361
12621598666.666666 -0.2507935535528633 0.9680405949629076 -4.827731506421585e-18 -1.3203064586699494e-16 -4.827731506421585e-18 -1.3203064586699494e-16 -0.25079422055429273 0.968040422160344
12622216000.0 -0.23946237308968268 0.9709056451963141 -6.380975715956295e-18 -1.3193882688579267e-16 -6.380975715956295e-18 -1.3193882688579267e-16 -0.23946304203248428 0.9709054802092539
12622833333.333334 -0.22809848107197067 0.9736380656755738 -7.93272744377024e-18 -1.3182874565942788e-16 -7.93272744377024e-18 -1.3182874565942788e-16 -0.22809915186457858 0.9736379085257888
12623450666.666666 -0.21670342985473978 0.9762374831407592 -9.482772095988643e-18 -1.3170042459577078e-16 -9.482772095988643e-18 -1.3170042459577078e-16 -0.21670410240534463 0.9762373338489501
12624068000.0 -0.20527877604944966 0.9787035425007174 -1.1030895399375485e-17 -1.3155388862285044e-16 -1.1030895399375485e-17 -1.3155388862285044e-16 -0.20527945026601063 0.9787034010865078
12624685333.333334 -0.19382608031128282 0.9810359068815873 -1.2576883430901378e-17 -1.3138916518441401e-16 -1.2576883430901378e-17 -1.3138916518441401e-16 -0.1938267561015408 0.9810357733635235
12625302666.666666 -0.1823469071263434 0.9832342576727428 -1.4120522647229043e-17 -1.312062842351419e-16 -1.4120522647229043e-17 -1.312062842351419e-16 -0.18234758439783344 0.9832341320682921
12625920000.0 -0.17084282459735725 0.9852982945704366 -1.56615999142278e-17 -1.3100527823550637e-16 -1.56615999142278e-17 -1.3100527823550637e-16 -0.17084350325742062 0.9852981768959812
12626537333.333334 -0.15931540422993454 0.9872277356187203 -1.7199902536293182e-17 -1.3078618214629981e-16 -1.7199902536293182e-17 -1.3078618214629981e-16 -0.15931608418573245 0.9872276258895598
12627154666.666666 -0.147766220717815 0.9890223172479916 -1.873521828570602e-17 -1.3054903342280524e-16 -1.873521828570602e-17 -1.3054903342280524e-16 -0.1477669018763406 0.9890222154783382
12627772000.0 -0.13619685172741974 0.9906817943110451 -2.0267335431881377e-17 -1.3029387200862565e-16 -2.0267335431881377e-17 -1.3029387200862565e-16 -0.1361975339955107 0.9906817005140217
12628389333.333334 -0.12460887768284125 0.9922059401164842 -2.1796042770463478e-17 -1.3002074032918436e-16 -2.1796042770463478e-17 -1.3002074032918436e-16 -0.12460956096719306 0.9922058543041236
12629006666.666666 -0.1130038815495009 0.9935945464597515 -2.3321129652476606e-17 -1.2972968328486e-16 -2.3321129652476606e-17 -1.2972968328486e-16 -0.11300456575667939 0.9935944686429955
12629624000.0 -0.10138344861819118 0.994847423651535 -2.484238601325473e-17 -1.2942074824380398e-16 -2.484238601325473e-17 -1.2942074824380398e-16 -0.10138413365464505 0.994847353840231
12630241333.333334 -0.08974916628846136 0.9959644005436831 -2.6359602401359984e-17 -1.2909398503440436e-16 -2.6359602401359984e-17 -1.2909398503440436e-16 -0.08974985206053543 0.9959643387465861
12630858666.666666 -0.07810262385177345 0.9969453245525962 -2.7872570007357166e-17 -1.287494459374214e-16 -2.7872570007357166e-17 -1.287494459374214e-16 -0.07810331026572093 0.9969452707773625
12631476000.0 -0.06644541227419878 0.9977900616800737 -2.9381080692553554e-17 -1.2838718567777072e-16 -2.9381080692553554e-17 -1.2838718567777072e-16 -0.06644609923619454 0.9977900159332652
12632093333.333334 -0.054779123979397576 0.9984984965315981 -3.088492701752895e-17 -1.2800726141599619e-16 -3.088492701752895e-17 -1.2800726141599619e-16 -0.054779811395550874 0.9984984588186804
12632710666.666666 -0.04310535263103105 0.9990705323321112 -3.2383902270663345e-17 -1.2760973273938365e-16 -3.2383902270663345e-17 -1.2760973273938365e-16 -0.0431060404073981 0.9990705026574492
12633328000.0 -0.031425692914747526 0.9995060909392403 -3.387780049651217e-17 -1.2719466165275035e-16 -3.387780049651217e-17 -1.2719466165275035e-16 -0.03142638095734464 0.9995060693061028
12633945333.333334 -0.019741740320711115 0.9998051128539616 -3.5366416524036923e-17 -1.2676211256891097e-16 -3.5366416524036923e-17 -1.2676211256891097e-16 -0.01974242853552738 0.9998050992645179
12634562666.666666 -0.008055090925452162 0.9999675572287315 -3.6849545994745016e-17 -1.2631215229880628e-16 -3.6849545994745016e-17 -1.2631215229880628e-16 -0.008055779218462332 0.9999675516840518
12635180000.0 0.0036326588260212917 0.9999934018730655 -3.832698539072035e-17 -1.2584485004129914e-16 -3.832698539072035e-17 -1.2584485004129914e-16 0.003631970548843957 0.9999934043731219
12635797333.333334 0.015319912338503465 0.9998826432565737 -3.9798532062497446e-17 -1.2536027737265069e-16 -3.9798532062497446e-17 -1.2536027737265069e-16 0.015319224171174354 0.9998826538002379
12636414666.666666 0.027005073084465092 0.99963529650944 -4.1263984256808405e-17 -1.2485850823567217e-16 -4.1263984256808405e-17 -1.2485850823567217e-16 0.0270043851209754 0.9996353150944856
12637032000.0 0.038686544822373 0.9992513954203515 -4.272314114420849e-17 -1.2433961892854613e-16 -4.272314114420849e-17 -1.2433961892854613e-16 0.0386858571566769 0.9992514220434546
12637649333.333334 0.05036273181451612 0.9987309924318926 -4.417580284656339e-17 -1.2380368809332754e-16 -4.417580284656339e-17 -1.2380368809332754e-16 0.0503620445405179 0.998731027088631
12638266666.666666 0.062032039045188635 0.9980741586333701 -4.5621770464375684e-17 -1.2325079670412887e-16 -4.5621770464375684e-17 -1.2325079670412887e-16 0.06203135225672998 0.9980742013182259
12638884000.0 0.07369287243846234 0.9972809837511103 -4.7060846103979476e-17 -1.226810280549827e-16 -4.7060846103979476e-17 -1.226810280549827e-16 0.0736921862293094 0.9972810344574683
12639501333.333334 0.08534363907602888 0.9963515761361923 -4.8492832904588203e-17 -1.2209446774738544e-16 -4.8492832904588203e-17 -1.2209446774738544e-16 0.0853429535398595 0.9963516348563427
12640118666.666666 0.09698274741451582 0.9952860627496726 -4.9917535065143806e-17 -1.2149120367754461e-16 -4.9917535065143806e-17 -1.2149120367754461e-16 0.09698206264490686 0.9952861294748122
12640736000.0 0.10860860750352129 0.9940845891451887 -5.13347578711398e-17 -1.2087132602325905e-16 -5.13347578711398e-17 -1.2087132602325905e-16 0.10860792359393567 0.9940846638654208
12641353333.333334 0.12021963120204321 0.9927473194491422 -5.274430772105901e-17 -1.2023492723058098e-16 -5.274430772105901e-17 -1.2023492723058098e-16 0.12021894824581728 0.9927474021534796
12641970666.666666 0.1318142323959357 0.9912744363382339 -5.414599215289132e-17 -1.1958210200006655e-16 -5.414599215289132e-17 -1.1958210200006655e-16 0.13181355048626642 0.9912745270145994
12642588000.0 0.14339082721446522 0.9896661410145168 -5.55396198703042e-17 -1.1891294727279473e-16 -5.55396198703042e-17 -1.1891294727279473e-16 0.14339014644439751 0.9896662396497455
12643205333.333334 0.15494783424658945 0.9879226531779223 -5.69250007687343e-17 -1.182275622160417e-16 -5.69250007687343e-17 -1.182275622160417e-16 0.15494715470900366 0.9879227597577647
12643822666.666666 0.16648367475712564 0.98604421099623 -5.830194596127569e-17 -1.1752604820866324e-16 -5.830194596127569e-17 -1.1752604820866324e-16 0.16648299654472443 0.986044325505351
12644440000.0 0.177996772902299 0.9840310710725453 -5.967026780437636e-17 -1.1680850882618374e-16 -5.967026780437636e-17 -1.1680850882618374e-16 0.17799609610759526 0.98403119349453
12645057333.333334 0.18948555594492686 0.9818835084102673 -6.102977992337246e-17 -1.1607504982557677e-16 -6.102977992337246e-17 -1.1607504982557677e-16 0.18948488066023053 0.9818836387276202
12645674666.666666 0.2009484544694285 0.9796018163754907 -6.23802972378166e-17 -1.1532577912975903e-16 -6.23802972378166e-17 -1.1532577912975903e-16 0.2009477807868345 0.9796019545696404
12646292000.0 0.2123839025963253 0.9771863066569078 -6.372163598667268e-17 -1.145608068117603e-16 -6.372163598667268e-17 -1.145608068117603e-16 0.2123832306077004 0.9771864527082077
12646909333.333334 0.22379033819570002 0.9746373092233171 -6.505361375322001e-17 -1.137802450786553e-16 -6.505361375322001e-17 -1.137802450786553e-16 0.22378966799267086 0.9746374631110502
12647526666.666666 0.23516620310103695 0.9719551722784631 -6.637604948985249e-17 -1.129842082551549e-16 -6.637604948985249e-17 -1.129842082551549e-16 0.2351655347749772 0.9719553339808431
12648144000.0 0.24650994332193257 0.9691402622134889 -6.768876354263934e-17 -1.121728127669328e-16 -6.768876354263934e-17 -1.121728127669328e-16 0.2465092769639511 0.969140431707667
12648761333.333334 0.25782000925629667 0.9661929635569163 -6.899157767567665e-17 -1.1134617712367048e-16 -6.899157767567665e-17 -1.1134617712367048e-16 0.25781934495722386 0.9661931408189779
12649378666.666666 0.2690948559020597 0.9631136789221013 -7.028431509523021e-17 -1.1050442190182317e-16 -7.028431509523021e-17 -1.1050442190182317e-16 0.26909419375243626 0.9631138639270747
12649996000.0 0.280332943068256 0.9599028289522354 -7.156680047371594e-17 -1.0964766972707575e-16 -7.156680047371594e-17 -1.0964766972707575e-16 0.28033228315832026 0.9599030216740944
12650613333.333334 0.29153273558550136 0.9565608522628591 -7.283885997341423e-17 -1.0877604525655508e-16 -7.283885997341423e-17 -1.0877604525655508e-16 0.29153207800517683 0.9565610526745256
12651230666.666666 0.3026927035154861 0.9530882053820097 -7.41003212699661e-17 -1.0788967516077079e-16 -7.41003212699661e-17 -1.0788967516077079e-16 0.3026920483543693 0.9530884134553571
12651848000.0 0.31381132236029646 0.9494853626877551 -7.535101357572078e-17 -1.0698868810523554e-16 -7.535101357572078e-17 -1.0698868810523554e-16 0.31381066970764426 0.9494855783936128
12652465333.333334 0.3248870732703132 0.9457528163435005 -7.65907676627724e-17 -1.0607321473187702e-16 -7.65907676627724e-17 -1.0607321473187702e-16 0.32488642321503236 0.9457530396516611
12653082666.666666 0.33591844325186043 0.9418910762307181 -7.781941588581474e-17 -1.0514338764015427e-16 -7.781941588581474e-17 -1.0514338764015427e-16 0.33591779588249293 0.9418913071099348
12653700000.0 0.346903925374069 0.937900669879213 -7.903679220479678e-17 -1.0419934136788671e-16 -7.903679220479678e-17 -1.0419934136788671e-16 0.34690328077878185 0.9379009082972097
12654317333.333334 0.3578420189742771 0.933782142395231 -8.02427322072609e-17 -1.032412123718874e-16 -8.02427322072609e-17 -1.032412123718874e-16 0.35784137724084986 0.9337823883187054
12654934666.666666 0.36873122986345425 0.9295360563868398 -8.143707313054803e-17 -1.0226913900826149e-16 -8.143707313054803e-17 -1.0226913900826149e-16 0.36873059107926703 0.9295363097814672
12655552000.0 0.3795700705302061 0.9251629918871093 -8.261965388370493e-17 -1.0128326151249326e-16 -8.261965388370493e-17 -1.0128326151249326e-16 0.3795694347822275 0.925163252717548
12656169333.333334 0.3903570603437633 0.920663546274962 -8.379031506914157e-17 -1.0028372197929139e-16 -8.379031506914157e-17 -1.0028372197929139e-16 0.39035642771853857 0.9206638145048575
12656786666.666666 0.4010907257565317 0.9160383341934512 -8.494889900409887e-17 -9.927066434213879e-17 -8.494889900409887e-17 -9.927066434213879e-17 0.40109009634017134 0.916038609785442
12657404000.0 0.41176960050514944 0.9112879874658961 -8.609524974181373e-17 -9.824423435264342e-17 -8.609524974181373e-17 -9.824423435264342e-17 0.41176897438331744 0.9112882703816199
12658021333.333334 0.4223922258109933 0.9064131550094847 -8.722921309248325e-17 -9.720457955960436e-17 -8.722921309248325e-17 -9.720457955960436e-17 0.42239160306889495 0.9064134452095814
12658638666.666666 0.4329571505792203 0.9014145027467309 -8.835063664392952e-17 -9.615184928787817e-17 -8.835063664392952e-17 -9.615184928787817e-17 0.43295653130159073 0.901414800190849
12659256000.0 0.44346293159730205 0.8962927135143627 -8.945936978206546e-17 -9.508619461695794e-17 -8.945936978206546e-17 -9.508619461695794e-17 0.4434623158683955 0.8962930181611661
12659873333.333334 0.453908133731841 0.8910484869702044 -9.05552637110508e-17 -9.400776835936457e-17 -9.05552637110508e-17 -9.400776835936457e-17 0.4539075216354184 0.8910487987773769
12660490666.666666 0.46429133012476903 0.8856825394975265 -9.163817147320025e-17 -9.291672503879729e-17 -9.163817147320025e-17 -9.291672503879729e-17 0.4642907217440864 0.8856828584217764
12661108000.0 0.47461110238841253 0.8801956041071035 -9.270794796868162e-17 -9.181322086800323e-17 -9.270794796868162e-17 -9.181322086800323e-17 0.4746104978062119 0.8801959301041746
12661725333.333334 0.4848660407989499 0.8745884303372444 -9.376444997485921e-17 -9.069741372651015e-17 -9.376444997485921e-17 -9.069741372651015e-17 0.48486544009744464 0.8745887633619157
12662342666.666666 0.49505474448915904 0.8688617841513043 -9.48075361654502e-17 -8.956946313805509e-17 -9.48075361654502e-17 -8.956946313805509e-17 0.49505414775002543 0.8688621241574005
12662960000.0 0.505175821639808 0.8630164478330399 -9.583706712935412e-17 -8.84295302478525e-17 -9.583706712935412e-17 -8.84295302478525e-17 0.505175228944173 0.8630167947734366
12663577333.333334 0.5152278896697092 0.857053219879788 -9.685290538925079e-17 -8.727777779960433e-17 -9.685290538925079e-17 -8.727777779960433e-17 0.5152273010981387 0.8570535737064173
12664194666.666666 0.5252095754246318 0.850972914893354 -9.785491541989405e-17 -8.611437011232563e-17 -9.785491541989405e-17 -8.611437011232563e-17 0.5252089910571218 0.8509732755572136
12664812000.0 0.5351195153647872 0.8447763634688001 -9.884296366614129e-17 -8.493947305694861e-17 -9.884296366614129e-17 -8.493947305694861e-17 0.5351189352807507 0.8447767309199572
12665429333.333334 0.5449563557512599 0.8384644120808712 -9.981691856070484e-17 -8.375325403271726e-17 -9.981691856070484e-17 -8.375325403271726e-17 0.5449557800295177 0.8384647862684719
12666046666.666666 0.5547187528307206 0.8320379229685054 -1.0077665054159479e-16 -8.255588194341071e-17 -1.0077665054159479e-16 -8.255588194341071e-17 0.5547181815494897 0.8320383038407799
12666664000.0 0.5644053730192964 0.825497774016843 -1.0172203206933815e-16 -8.134752717329281e-17 -1.0172203206933815e-16 -8.134752717329281e-17 0.5644048062561796 0.8254981615211135
12667281333.333334 0.5740148930843183 0.8188448586375887 -1.0265293764382981e-16 -8.012836156296695e-17 -1.0265293764382981e-16 -8.012836156296695e-17 0.5740143309162938 0.818845252720277
12667898666.666666 0.5835460003254579 0.8120800856467136 -1.035692438209604e-16 -7.889855838495391e-17 -1.035692438209604e-16 -7.889855838495391e-17 0.5835454428288686 0.812080486253348
12668516000.0 0.592997392753952 0.8052043791403701 -1.0447082922893036e-16 -7.765829231911014e-17 -1.0447082922893036e-16 -7.765829231911014e-17 0.592996840004495 0.8052047862155923
12669133333.333334 0.6023677792702972 0.7982186783687688 -1.0535757458423889e-16 -7.640773942790194e-17 -1.0535757458423889e-16 -7.640773942790194e-17 0.6023672313430143 0.7982190918563435
12669750666.666666 0.611655879840761 0.7911239376077807 -1.0622936270744164e-16 -7.514707713141147e-17 -1.0622936270744164e-16 -7.514707713141147e-17 0.6116553368100275 0.7911243574506011
