! Parameters = {f0=12700.012000; bw=77.238000; Q=6100.000000; N=10; m_0_1=1.305601; m_1_1=0.819263; m_1_2=1.140413; m_2_2=0.818614; m_2_3=0.777376; m_2_8=0.002344; m_2_9=0.039048; m_3_3=0.816677; m_3_4=0.665905; m_3_7=0.002944; m_3_8=-0.094144; m_3_9=0.002344; m_4_4=0.813752; m_4_5=0.502240; m_4_6=0.006461; m_4_7=-0.114693; m_4_8=0.002944; m_5_5=0.814134; m_5_6=0.909595; m_5_7=0.006461; m_6_6=0.814133; m_6_7=0.502582; m_7_7=0.813766; m_7_8=0.666023; m_8_8=0.816675; m_8_9=0.777689; m_9_9=0.818609; m_9_10=1.141491; m_10_10=0.819253; m_10_11=1.306396}
!
! Created with skrf (http://scikit-rf.org).
# Hz S RI R 50.0 
!freq ReS11 ImS11 ReS21 ImS21 ReS12 ImS12 ReS22 ImS22
12607400000.0 -0.31575698016585374 -0.9488400968953378 7.464585207258908e-17 1.0696960666280524e-16 7.464585207258908e-17 1.0696960666280524e-16 -0.31575632755227356 -0.9488403140731924
12608017333.333334 -0.32671877948563577 -0.9451216001823417 7.587358841233097e-17 1.0607090039683915e-16 7.587358841233097e-17 1.0607090039683915e-16 -0.3267181294614649 -0.9451218248887363
12608634666.666666 -0.3376368023213744 -0.9412764682695571 7.709052129116576e-17 1.0515811495042071e-16 7.709052129116576e-17 1.0515811495042071e-16 -0.3376361549734506 -0.941276700473648
12609252000.0 -0.3485095857862497 -0.9373052163595957 7.82964893975157e-17 1.042313800050403e-16 7.82964893975157e-17 1.042313800050403e-16 -0.348508941201044 -0.9373054560295381
12609869333.333334 -0.3593356730549352 -0.9332083765536883 7.949133297433465e-17 1.0329082708871223e-16 7.949133297433465e-17 1.0329082708871223e-16 -0.35933503131853917 -0.9332086236566386
12610486666.666666 -0.37011361355874073 -0.9289864977804058 8.06748938401927e-17 1.0233658955738856e-16 8.06748938401927e-17 1.0233658955738856e-16 -0.3701129747568569 -0.9289867522825301
12611104000.0 -0.3808419631803459 -0.9246401457219747 8.184701541021519e-17 1.0136880257607452e-16 8.184701541021519e-17 1.0136880257607452e-16 -0.3808413273982744 -0.9246404075884495
12611721333.333334 -0.3915192844467614 -0.9201699027386784 8.300754271670549e-17 1.0038760309977489e-16 8.300754271670549e-17 1.0038760309977489e-16 -0.3915186517693903 -0.9201701719336985
12612338666.666666 -0.4021441467222827 -0.9155763677907054 8.415632242962712e-17 9.939312985413594e-17 8.415632242962712e-17 9.939312985413594e-17 -0.40214351723407493 -0.9155766442774852
12612956000.0 -0.4127151264002498 -0.9108601563578455 8.529320287679679e-17 9.838552331589977e-17 8.529320287679679e-17 9.838552331589977e-17 -0.4127145001852334 -0.9108604400986282
12613573333.333334 -0.42323080709340716 -0.9060219003572029 8.641803406384569e-17 9.736492569313013e-17 8.641803406384569e-17 9.736492569313013e-17 -0.42323018423516257 -0.906022191313261
12614190666.666666 -0.4336897798240441 -0.9010622480583597 8.753066769399711e-17 9.633148090516327e-17 8.753066769399711e-17 9.633148090516327e-17 -0.4336891604056952 -0.901062546190006
12614808000.0 -0.44409064321260316 -0.8959818639966042 8.863095718753871e-17 9.528533456239283e-17 8.863095718753871e-17 9.528533456239283e-17 -0.4440900273168036 -0.8959821692631913
12615425333.333334 -0.4544320036655739 -0.8907814288838232 8.971875770109558e-17 9.422663394579606e-17 8.971875770109558e-17 9.422663394579606e-17 -0.45443139137449756 -0.8907817412437524
12616042666.666666 -0.46471247556206563 -0.8854616395173711 9.079392614665667e-17 9.315552798624312e-17 9.079392614665667e-17 9.315552798624312e-17 -0.4647118669573957 -0.8854619589280982
12616660000.0 -0.47493068143956707 -0.8800232086866592 9.185632121033055e-17 9.207216724361279e-17 9.185632121033055e-17 9.207216724361279e-17 -0.4749300766024847 -0.880023535104699
12617277333.333334 -0.4850852521785083 -0.8744668650776468 9.290580337088203e-17 9.097670388566661e-17 9.290580337088203e-17 9.097670388566661e-17 -0.48508465118968236 -0.8744671984585802
12617894666.666666 -0.49517482718555944 -0.8687933531752908 9.394223491798724e-17 8.986929166674489e-17 9.394223491798724e-17 8.986929166674489e-17 -0.4951742301251346 -0.8687936934737692
12618512000.0 -0.5051980545763043 -0.8630034331635829 9.496547997029044e-17 8.875008590619562e-17 9.496547997029044e-17 8.875008590619562e-17 -0.5051974615238917 -0.8630037803333361
12619129333.333334 -0.5151535913558835 -0.8570978808239749 9.59754044931167e-17 8.761924346669328e-17 9.59754044931167e-17 8.761924346669328e-17 -0.5151530023905492 -0.8570982348178162
12619746666.666666 -0.525040103599261 -0.8510774874312517 9.697187631601055e-17 8.6476922732268e-17 9.697187631601055e-17 8.6476922732268e-17 -0.5250395187995152 -0.851077848201084
12620364000.0 -0.5348562666300233 -0.8449430596474573 9.795476514998737e-17 8.532328358616202e-17 9.795476514998737e-17 8.532328358616202e-17 -0.5348556860738118 -0.8449434271442826
12620981333.333334 -0.5446007651975122 -0.8386954194140432 9.892394260447973e-17 8.415848738854175e-17 9.892394260447973e-17 8.415848738854175e-17 -0.5446001889622032 -0.8386957935879646
12621598666.666666 -0.5542722936533627 -0.8323354038415368 9.987928220408647e-17 8.298269695394e-17 9.987928220408647e-17 8.298269695394e-17 -0.5542717218157389 -0.8323357846417693
12622216000.0 -0.5638695561263976 -0.8258638650974099 1.0082065940501832e-16 8.179607652855044e-17 1.0082065940501832e-16 8.179607652855044e-17 -0.5638689887626445 -0.8258642524722849
12622833333.333334 -0.5733912666961628 -0.8192816702919595 1.0174795161127007e-16 8.059879176734254e-17 1.0174795161127007e-16 8.059879176734254e-17 -0.5733907038818592 -0.8192820641889329
12623450666.666666 -0.5828361495652278 -0.8125897013621283 1.0266103819053102e-16 7.939100971098238e-17 1.0266103819053102e-16 7.939100971098238e-17 -0.582835591375336 -0.8125901017277877
12624068000.0 -0.5922029392301976 -0.805788854953286 1.0355980048982967e-16 7.817289876256598e-17 1.0355980048982967e-16 7.817289876256598e-17 -0.5922023857390524 -0.805789261733357
12624685333.333334 -0.6014903806513887 -0.7988800422990053 1.0444412185090544e-16 7.694462866416889e-17 1.0444412185090544e-16 7.694462866416889e-17 -0.6014898319326881 -0.798880455438359
12625302666.666666 -0.6106972294206233 -0.7918641890992347 1.0531388762525717e-16 7.570637047328983e-17 1.0531388762525717e-16 7.570637047328983e-17 -0.6106966855474187 -0.7918646085418961
12625920000.0 -0.6198222519283982 -0.7847422353959445 1.0616898518899767e-16 7.445829653900428e-17 1.0616898518899767e-16 7.445829653900428e-17 -0.6198217129730852 -0.7847426610850999
12626537333.333334 -0.6288642255288346 -0.777515135447429 1.0700930395733331e-16 7.320058047808397e-17 1.0700930395733331e-16 7.320058047808397e-17 -0.6288636915631426 -0.7775155673254333
12627154666.666666 -0.6378219387036136 -0.7701838576003643 1.0783473539882758e-16 7.193339715086095e-17 1.0783473539882758e-16 7.193339715086095e-17 -0.6378214097985963 -0.7701842956087486
12627772000.0 -0.6466941912245234 -0.7627493841598787 1.0864517304936476e-16 7.065692263694809e-17 1.0864517304936476e-16 7.065692263694809e-17 -0.6466936674505498 -0.7627498282393586
12628389333.333334 -0.655479794313815 -0.7552127112583142 1.0944051252580044e-16 6.937133421084786e-17 1.0944051252580044e-16 6.937133421084786e-17 -0.6554792757405596 -0.7552131613487979
12629006666.666666 -0.6641775708039854 -0.7475748487213378 1.1022065153936087e-16 6.807681031734869e-17 1.1022065153936087e-16 6.807681031734869e-17 -0.6641770575004196 -0.747575304761934
12629624000.0 -0.6727863552951168 -0.7398368199329688 1.1098548990871938e-16 6.677353054682516e-17 1.1098548990871938e-16 6.677353054682516e-17 -0.6727858473294981 -0.7398372818619943
12630241333.333334 -0.6813049943112367 -0.7319996616982682 1.1173492957281382e-16 6.546167561033858e-17 1.1173492957281382e-16 6.546167561033858e-17 -0.6813044917511021 -0.732000129453258
12630858666.666666 -0.6897323464547092 -0.724064424104578 1.1246887460333085e-16 6.414142731466123e-17 1.1246887460333085e-16 6.414142731466123e-17 -0.689731849366864 -0.7240648976222919
12631476000.0 -0.698067282559474 -0.7160321703805259 1.1318723121694318e-16 6.28129685370786e-17 1.1318723121694318e-16 6.28129685370786e-17 -0.6980667910099834 -0.716032649596957
12632093333.333334 -0.7063086858419487 -0.707903976753934 1.1388990778720767e-16 6.147648320013303e-17 1.1388990778720767e-16 6.147648320013303e-17 -0.7063081998961307 -0.7079044616043197
12632710666.666666 -0.7144554520508766 -0.6996809323074276 1.145768148561828e-16 6.013215624620283e-17 1.145768148561828e-16 6.013215624620283e-17 -0.7144549717732918 -0.699681422726257
12633328000.0 -0.7225064896153403 -0.6913641388324483 1.152478651457604e-16 5.87801736119263e-17 1.152478651457604e-16 5.87801736119263e-17 -0.7225060150697824 -0.6913646347534691
12633945333.333334 -0.7304607197909141 -0.6829547106817216 1.1590297356867275e-16 5.742072220254664e-17 1.1590297356867275e-16 5.742072220254664e-17 -0.730460251040404 -0.6829552120379525
12634562666.666666 -0.73831707680419 -0.6744537746199737 1.1654205723920615e-16 5.60539898661186e-17 1.1654205723920615e-16 5.60539898661186e-17 -0.738316613910965 -0.6744542813437104
12635180000.0 -0.7460745079956159 -0.6658624696729152 1.1716503548361625e-16 5.4680165367587454e-17 1.1716503548361625e-16 5.4680165367587454e-17 -0.7460740510211237 -0.6658629816957421
12635797333.333334 -0.7537319739606161 -0.6571819469745408 1.1777182985024004e-16 5.3299438362746025e-17 1.1777182985024004e-16 5.3299438362746025e-17 -0.7537315229655036 -0.6571824642273382
12636414666.666666 -0.7612884486886676 -0.6484133696131015 1.1836236411928224e-16 5.191199937212841e-17 1.1836236411928224e-16 5.191199937212841e-17 -0.7612880037327766 -0.648413892026056
12637032000.0 -0.768742919700966 -0.6395579124750537 1.1893656431232292e-16 5.0518039754728515e-17 1.1893656431232292e-16 5.0518039754728515e-17 -0.7687424808433226 -0.6395584399776681
12637649333.333334 -0.7760943881859711 -0.630616762087766 1.194943587014939e-16 4.9117751681669207e-17 1.194943587014939e-16 4.9117751681669207e-17 -0.776093955484778 -0.6306172946088667
12638266666.666666 -0.783341869133326 -0.6215911164604278 1.2003567781836105e-16 4.77113281097338e-17 1.2003567781836105e-16 4.77113281097338e-17 -0.7833414426459562 -0.6215916539281768
12638884000.0 -0.7904843914657322 -0.6124821849236645 1.2056045446248028e-16 4.629896275483852e-17 1.2056045446248028e-16 4.629896275483852e-17 -0.7904839712487197 -0.6124827272655675
12639501333.333334 -0.7975209981691469 -0.6032911879673879 1.210686237096573e-16 4.488085006537466e-17 1.210686237096573e-16 4.488085006537466e-17 -0.7975205842781814 -0.6032917351103054
12640118666.666666 -0.8044507464208791 -0.5940193570774492 1.215601229198779e-16 4.3457185195506316e-17 1.215601229198779e-16 4.3457185195506316e-17 -0.8044503389107956 -0.5940199089476045
12640736000.0 -0.8112727077162527 -0.5846679345701755 1.2203489174495802e-16 4.202816397828544e-17 1.2203489174495802e-16 4.202816397828544e-17 -0.8112723066410276 -0.5846684910931669
12641353333.333334 -0.81798596799251 -0.5752381734266011 1.2249287213582036e-16 4.059398289885871e-17 1.2249287213582036e-16 4.059398289885871e-17 -0.8179855734052518 -0.5752387345274103
12641970666.666666 -0.8245896277517051 -0.5657313371240098 1.2293400834951864e-16 3.915483906740862e-17 1.2293400834951864e-16 3.915483906740862e-17 -0.8245892397046476 -0.5657319027270125
12642588000.0 -0.8310828021810275 -0.5561486994669207 1.2335824695590926e-16 3.7710930192127794e-17 1.2335824695590926e-16 3.7710930192127794e-17 -0.8310824207255231 -0.5561492694958965
12643205333.333334 -0.8374646212714354 -0.5464915444162942 1.2376553684400802e-16 3.6262454552119375e-17 1.2376553684400802e-16 3.6262454552119375e-17 -0.8374642464579491 -0.5464921187944382
12643822666.666666 -0.8437342299341813 -0.5367611659175704 1.2415582922804738e-16 3.480961097016704e-17 1.2415582922804738e-16 3.480961097016704e-17 -0.8437338618122819 -0.536761744567501
12644440000.0 -0.8498907881154263 -0.5269588677272202 1.2452907765319104e-16 3.335259878552626e-17 1.2452907765319104e-16 3.335259878552626e-17 -0.8498904267337831 -0.5269594505709927
12645057333.333334 -0.8559334709087109 -0.5170859632382045 1.2488523800094626e-16 3.189161782659602e-17 1.2488523800094626e-16 3.189161782659602e-17 -0.8559331163150838 -0.5170865501973184
12645674666.666666 -0.8618614686655416 -0.5071437753038979 1.2522426849425002e-16 3.0426868383559545e-17 1.2522426849425002e-16 3.0426868383559545e-17 -0.861861120906777 -0.5071443662993096
12646292000.0 -0.8676739871039627 -0.4971336360606953 1.2554612970224536e-16 2.895855118092642e-17 1.2554612970224536e-16 2.895855118092642e-17 -0.8676736462259864 -0.4971342310128282
12646909333.333334 -0.8733702474147751 -0.48705688674986347 1.258507845447111e-16 2.7486867350133297e-17 1.258507845447111e-16 2.7486867350133297e-17 -0.8733699134625877 -0.4870574855786192
12647526666.666666 -0.8789494863660925 -0.47691487753748774 1.261381982961987e-16 2.601201840198618e-17 1.261381982961987e-16 2.601201840198618e-17 -0.878949159383761 -0.4769154801622555
12648144000.0 -0.8844109564055008 -0.466708967333736 1.2640833858983594e-16 2.453420619910064e-17 1.2640833858983594e-16 2.453420619910064e-17 -0.8844106364361546 -0.46670957367340443
12648761333.333334 -0.8897539257602112 -0.4564405236108065 1.2666117542080006e-16 2.3053632928348155e-17 1.2666117542080006e-16 2.3053632928348155e-17 -0.8897536128460355 -0.4564411335837745
12649378666.666666 -0.8949776785351504 -0.4461109222196293 1.2689668114948056e-16 2.1570501073219205e-17 1.2689668114948056e-16 2.1570501073219205e-17 -0.8949773727173818 -0.44611153574381723
12649996000.0 -0.9000815148088663 -0.4357215472055412 1.2711483050431545e-16 2.008501338615988e-17 1.2711483050431545e-16 2.008501338615988e-17 -0.9000812161277868 -0.4357221641984018
12650613333.333334 -0.9050647507273254 -0.42527379062281684 1.2731560058430483e-16 1.8597372860890258e-17 1.2731560058430483e-16 1.8597372860890258e-17 -0.9050644592222551 -0.4252744110013452
12651230666.666666 -0.9099267185954633 -0.41476905234830086 1.2749897086119402e-16 1.7107782704740313e-17 1.2749897086119402e-16 1.7107782704740313e-17 -0.9099264343047594 -0.4147696760290477
12651848000.0 -0.9146667669668218 -0.4042087398934834 1.2766492318134662e-16 1.5616446310884612e-17 1.2766492318134662e-16 1.5616446310884612e-17 -0.914666489927869 -0.4042093667925643
12652465333.333334 -0.9192842607306487 -0.39359426821629356 1.2781344176728267e-16 1.4123567230631106e-17 1.2781344176728267e-16 1.4123567230631106e-17 -0.9192839909798588 -0.3935948982494019
12653082666.666666 -0.9237785811970419 -0.38292705953143913 1.2794451321889564e-16 1.2629349145699536e-17 1.2794451321889564e-16 1.2629349145699536e-17 -0.9237783187698458 -0.3829276926138563
12653700000.0 -0.9281491261799861 -0.37220854311950374 1.2805812651435093e-16 1.1133995840423662e-17 1.2805812651435093e-16 1.1133995840423662e-17 -0.9281488711108283 -0.37220917916611035
12654317333.333334 -0.9323953100778157 -0.361440155135964 1.2815427301065416e-16 9.637711174037875e-18 1.2815427301065416e-16 9.637711174037875e-18 -0.9323950624001536 -0.3614407940612523
12654934666.666666 -0.9365165639518263 -0.35062333841842175 1.2823294644389824e-16 8.140699052909616e-18 1.2823294644389824e-16 8.140699052909616e-18 -0.9365163236981235 -0.350623980136507
12655552000.0 -0.9405123356025314 -0.33975954229319993 1.2829414292918868e-16 6.643163402780059e-18 1.2829414292918868e-16 6.643163402780059e-18 -0.9405121028042536 -0.339760186717831
12656169333.333334 -0.944382089643499 -0.32885022238154765 1.2833786096024214e-16 5.145308141045675e-18 1.2833786096024214e-16 5.145308141045675e-18 -0.9443818643311085 -0.3288508694261192
12656786666.666666 -0.9481253075732244 -0.31789684040423133 1.2836410140866382e-16 3.647337149015326e-18 1.2836410140866382e-16 3.647337149015326e-18 -0.9481250897761795 -0.3178974899817958
12657404000.0 -0.9517414878445509 -0.3069008639858428 1.2837286752290128e-16 2.1494542442049677e-18 1.2837286752290128e-16 2.1494542442049677e-18 -0.9517412775912988 -0.3069015160091216
12658021333.333334 -0.9552301459318725 -0.2958637664581262 1.2836416492687577e-16 6.518631526262945e-19 1.2836416492687577e-16 6.518631526262945e-19 -0.9552299432498486 -0.2958644208395216
12658638666.666666 -0.9585908143960552 -0.28478702666259775 1.2833800161829038e-16 -8.452325188429954e-19 1.2833800161829038e-16 -8.452325188429954e-19 -0.9585906193116763 -0.2847876833142048
12659256000.0 -0.9618230429470934 -0.2736721287522883 1.282943879666164e-16 -2.341629310149513e-18 1.282943879666164e-16 -2.341629310149513e-18 -0.9618228554857569 -0.2736727875859063
12659873333.333334 -0.9649263985044062 -0.26252056199302043 1.28233336710758e-16 -3.837123935654394e-18 1.28233336710758e-16 -3.837123935654394e-18 -0.9649262186904844 -0.26252122292016483
12660490666.666666 -0.9679004652548518 -0.25133382056392034 1.281548629563969e-16 -5.3315133116891075e-18 1.281548629563969e-16 -5.3315133116891075e-18 -0.9679002931116911 -0.2513344834958348
12661108000.0 -0.9707448447085438 -0.2401134033568302 1.280589841730124e-16 -6.824594584145863e-18 1.280589841730124e-16 -6.824594584145863e-18 -0.9707446802584607 -0.24011406820449863
12661725333.333334 -0.9734591557520998 -0.22886081377602457 1.279457201905873e-16 -8.316165155916849e-18 1.279457201905873e-16 -8.316165155916849e-18 -0.9734589990163766 -0.2288614804501826
12662342666.666666 -0.9760430346998055 -0.21757755953638647 1.2781509319598717e-16 -9.806022714400608e-18 1.2781509319598717e-16 -9.806022714400608e-18 -0.9760428856986899 -0.21757822794753384
12662960000.0 -0.9784961353423287 -0.20626515246144578 1.2766712772902628e-16 -1.1293965258864429e-17 1.2766712772902628e-16 -1.1293965258864429e-17 -0.9784959940950303 -0.20626582251985828
12663577333.333334 -0.9808181289930744 -0.19492510828095105 1.2750185067821233e-16 -1.2779791127808247e-17 1.2750185067821233e-16 -1.2779791127808247e-17 -0.980817995517762 -0.1949257798966926
12664194666.666666 -0.9830087045322488 -0.1835589464276974 1.2731929127617285e-16 -1.4263299026268032e-17 1.2731929127617285e-16 -1.4263299026268032e-17 -0.9830085788460482 -0.18355961951063196
12664812000.0 -0.9850675684485557 -0.17216818983385554 1.2711948109476753e-16 -1.5744288053026068e-17 1.2711948109476753e-16 -1.5744288053026068e-17 -0.9850674505675467 -0.17216886429365924
12665429333.333334 -0.9869944448784994 -0.16075436472705656 1.2690245403988107e-16 -1.7222557727796995e-17 1.2690245403988107e-16 -1.7222557727796995e-17 -0.9869943348177159 -0.16075504047322994
12666046666.666666 -0.9887890756433437 -0.1493190004259238 1.2666824634590563e-16 -1.8697908018302604e-17 1.2666824634590563e-16 -1.8697908018302604e-17 -0.9887889734167701 -0.14931967736780397
12666664000.0 -0.9904512202837528 -0.1378636291348819 1.2641689656989745e-16 -2.0170139367354443e-17 1.2641689656989745e-16 -2.0170139367354443e-17 -0.9904511259043212 -0.1378643071816543
12667281333.333334 -0.9919806560919392 -0.12638978573927973 1.261484455854386e-16 -2.1639052719735295e-17 1.261484455854386e-16 -2.1639052719735295e-17 -0.9919805695715301 -0.12639046479999086
12667898666.666666 -0.9933771781415658 -0.11489900759934094 1.2586293657616855e-16 -2.310444954912061e-17 1.2586293657616855e-16 -2.310444954912061e-17 -0.9933770994910063 -0.11489968758291036
12668516000.0 -0.9946405993151792 -0.10339283434434421 1.255604150290087e-16 -2.4566131884881532e-17 1.255604150290087e-16 -2.4566131884881532e-17 -0.9946405285442381 -0.10339351515957639
12669133333.333334 -0.9957707503292559 -0.09187280766649995 1.2524092872708827e-16 -2.6023902338737456e-17 1.2524092872708827e-16 -2.6023902338737456e-17 -0.9957706874466492 -0.09187348922209723
12669750666.666666 -0.9967674797569359 -0.08034047111401563 1.249045277423432e-16 -2.747756413141931e-17 1.249045277423432e-16 -2.747756413141931e-17 -0.9967674247703193 -0.08034115331858978
12670368000.0 -0.9976306540482714 -0.0687973698845598 1.2455126442781396e-16 -2.8926921119189293e-17 1.2455126442781396e-16 -2.8926921119189293e-17 -0.9976306069642432 -0.06879805264664471
