! Parameters = {f0=12700.012000; bw=77.238000; Q=6100.000000; N=10; m_0_1=1.271567; m_1_1=0.308753; m_1_2=1.106379; m_2_2=0.308104; m_2_3=0.743342; m_2_8=0.000642; m_2_9=0.037346; m_3_3=0.306167; m_3_4=0.631871; m_3_7=0.001242; m_3_8=-0.095846; m_3_9=0.000642; m_4_4=0.303242; m_4_5=0.468206; m_4_6=0.004759; m_4_7=-0.116395; m_4_8=0.001242; m_5_5=0.303624; m_5_6=0.875561; m_5_7=0.004759; m_6_6=0.303623; m_6_7=0.468548; m_7_7=0.303256; m_7_8=0.631989; m_8_8=0.306165; m_8_9=0.743655; m_9_9=0.308099; m_9_10=1.107457; m_10_10=0.308743; m_10_11=1.272362}
!
! Created with skrf (http://scikit-rf.org).
# Hz S RI R 50.0 
!freq ReS11 ImS11 ReS21 ImS21 ReS12 ImS12 ReS22 ImS22
12607400000.0 0.9837732798809322 -0.17941609122968072 -9.942077331319282e-17 5.0302648324240266e-17 -9.942077331319282e-17 5.0302648324240266e-17 0.9837734000776538 -0.1794154321664553
12608017333.333334 0.9818220723001694 -0.18980363100853367 -9.885965043934072e-17 5.134933491659869e-17 -9.885965043934072e-17 5.134933491659869e-17 0.9818221994496327 -0.18980297328469084
12608634666.666666 0.9797611871497088 -0.20016996816409702 -9.828751712133922e-17 5.2389778470170954e-17 -9.828751712133922e-17 5.2389778470170954e-17 0.9797613212370296 -0.20016931185297515
12609252000.0 0.9775908546473875 -0.21051394469158877 -9.770444265299594e-17 5.342386325829405e-17 -9.770444265299594e-17 5.342386325829405e-17 0.9775909956569082 -0.21051328986636117
12609869333.333334 0.9753113172372017 -0.22083440508412147 -9.711049754344495e-17 5.4451474321724016e-17 -9.711049754344495e-17 5.4451474321724016e-17 0.9753114651524931 -0.22083375181778836
12610486666.666666 0.9729228295622616 -0.23113019646161534 -9.650575350867484e-17 5.547249748137131e-17 -9.650575350867484e-17 5.547249748137131e-17 0.9729229843661262 -0.23112954482699596
12611104000.0 0.9704256584362522 -0.2414001687000004 -9.589028346288958e-17 5.648681935100025e-17 -9.589028346288958e-17 5.648681935100025e-17 0.970425820110723 -0.24139951876972424
12611721333.333334 0.9678200828137533 -0.2516431745591404 -9.526416150979255e-17 5.749432734973773e-17 -9.526416150979255e-17 5.749432734973773e-17 0.9678202513400977 -0.25164252640563955
12612338666.666666 0.9651063937589901 -0.26185806981137705 -9.462746293368509e-17 5.849490971457873e-17 -9.462746293368509e-17 5.849490971457873e-17 0.965106569117713 -0.261857423506878
12612956000.0 0.9622848944133202 -0.2720437133693204 -9.398026419045696e-17 5.948845551275219e-17 -9.398026419045696e-17 5.948845551275219e-17 0.9622850765841642 -0.2720430689858362
12613573333.333334 0.9593558999614377 -0.2821989674130711 -9.332264289846305e-17 6.047485465396783e-17 -9.332264289846305e-17 6.047485465396783e-17 0.9593560889233876 -0.2821983250223931
12614190666.666666 0.9563197375960921 -0.2923226975175992 -9.265467782923967e-17 6.145399790260962e-17 -9.265467782923967e-17 6.145399790260962e-17 0.9563199333273755 -0.2923220571912892
12614808000.0 0.953176746481572 -0.30241377277933024 -9.197644889811115e-17 6.242577688980111e-17 -9.197644889811115e-17 6.242577688980111e-17 0.9531769489596632 -0.30241313458871255
12615425333.333334 0.9499272777158232 -0.31247106594247837 -9.128803715467736e-17 6.339008412535719e-17 -9.128803715467736e-17 6.339008412535719e-17 0.9499274869174441 -0.31247042995863133
12616042666.666666 0.9465716942911891 -0.3224934535250767 -9.058952477316017e-17 6.434681300965506e-17 -9.058952477316017e-17 6.434681300965506e-17 0.9465719101923137 -0.32249281981882577
12616660000.0 0.943110371053916 -0.3324798159443184 -8.988099504263508e-17 6.529585784538626e-17 -8.988099504263508e-17 6.529585784538626e-17 0.9431105936297717 -0.33247918458622727
12617277333.333334 0.9395436946622355 -0.3424290376417574 -8.916253235713649e-17 6.623711384920704e-17 -8.916253235713649e-17 6.623711384920704e-17 0.9395439238873066 -0.3424284087021207
12617894666.666666 0.9358720635432253 -0.3523400072077646 -8.843422220565426e-17 6.717047716326247e-17 -8.843422220565426e-17 6.717047716326247e-17 0.9358722993912568 -0.35233938075660015
12618512000.0 0.9320958878482016 -0.36221161750597686 -8.769615116197042e-17 6.809584486665399e-17 -8.769615116197042e-17 6.809584486665399e-17 0.9320961302922002 -0.3622109936130172
12619129333.333334 0.9282155894070312 -0.37204276579659706 -8.694840687444331e-17 6.901311498670827e-17 -8.694840687444331e-17 6.901311498670827e-17 0.9282158384192694 -0.3720421445312825
12619746666.666666 0.9242316016809269 -0.3818323538598216 -8.61910780556086e-17 6.992218651021908e-17 -8.61910780556086e-17 6.992218651021908e-17 0.9242318572329475 -0.3818317352912923
12620364000.0 0.920144369713979 -0.391579288118624 -8.542425447169192e-17 7.082295939453807e-17 -8.542425447169192e-17 7.082295939453807e-17 0.920144631776596 -0.3915786723157117
12620981333.333334 0.9159543500835999 -0.40128247976052084 -8.4648026932023e-17 7.171533457853216e-17 -8.4648026932023e-17 7.171533457853216e-17 0.9159546186269042 -0.4012818667917422
12621598666.666666 0.9116620108493748 -0.41094084485957155 -8.386248727829886e-17 7.25992139934687e-17 -8.386248727829886e-17 7.25992139934687e-17 0.9116622858427341 -0.4109402347931192
12622216000.0 0.907267831500833 -0.4205533044973008 -8.306772837375383e-17 7.347450057375924e-17 -8.306772837375383e-17 7.347450057375924e-17 0.9072681129128998 -0.42055269740103723
12622833333.333334 0.9027723029038695 -0.4301187848832781 -8.226384409222466e-17 7.434109826757835e-17 -8.226384409222466e-17 7.434109826757835e-17 0.9027725907025813 -0.43011818082472714
12623450666.666666 0.8981759272459544 -0.43963621747496334 -8.145092930709705e-17 7.51989120473731e-17 -8.145092930709705e-17 7.51989120473731e-17 0.8981762213985388 -0.4396356165213028
12624068000.0 0.8934792179799782 -0.44910453909720244 -8.06290798801342e-17 7.604784792026114e-17 -8.06290798801342e-17 7.604784792026114e-17 0.8934795184529558 -0.44910394131525677
12624685333.333334 0.8886826997668757 -0.45852269206101526 -7.97983926502033e-17 7.68878129382995e-17 -7.97983926502033e-17 7.68878129382995e-17 0.8886830065260652 -0.4585220975172484
12625302666.666666 0.8837869084171633 -0.4678896242814712 -7.895896542192296e-17 7.771871520860493e-17 -7.895896542192296e-17 7.771871520860493e-17 0.8837872214276838 -0.4678890330419783
12625920000.0 0.8787923908308338 -0.4772042893956945 -7.811089695413849e-17 7.854046390341696e-17 -7.811089695413849e-17 7.854046390341696e-17 0.8787927100571101 -0.4772037015261959
12626537333.333334 0.8736997049365286 -0.48646564687924837 -7.725428694838018e-17 7.935296926994962e-17 -7.725428694838018e-17 7.935296926994962e-17 0.8737000303422945 -0.4864650624450811
12627154666.666666 0.8685094196290807 -0.4956726621626227 -7.638923603715225e-17 8.015614264018364e-17 -7.638923603715225e-17 8.015614264018364e-17 0.8685097511773828 -0.4956720812287334
12627772000.0 0.8632221147058913 -0.5048243067469247 -7.551584577213134e-17 8.094989644052011e-17 -7.551584577213134e-17 8.094989644052011e-17 0.8632224523590943 -0.5048237293778632
12628389333.333334 0.8578383808023605 -0.5139195583184271 -7.463421861230933e-17 8.173414420126602e-17 -7.463421861230933e-17 8.173414420126602e-17 0.8578387245221517 -0.5139189845783388
12629006666.666666 0.852358819325696 -0.5229574008631379 -7.374445791197038e-17 8.250880056605178e-17 -7.374445791197038e-17 8.250880056605178e-17 0.8523591690730872 -0.5229568308157565
12629624000.0 0.8467840423878853 -0.5319368247800257 -7.284666790863398e-17 8.3273781301062e-17 -7.284666790863398e-17 8.3273781301062e-17 0.846784398123219 -0.5319362584886654
12630241333.333334 0.8411146727372326 -0.5408568269939483 -7.194095371085128e-17 8.402900330418172e-17 -7.194095371085128e-17 8.402900330418172e-17 0.8411150344201879 -0.5408562645214989
12630858666.666666 0.8353513436889002 -0.5497164110675367 -7.102742128595875e-17 8.477438461396423e-17 -7.102742128595875e-17 8.477438461396423e-17 0.835351711278494 -0.5497158524764543
12631476000.0 0.8294946990539277 -0.5585145873128617 -7.010617744767492e-17 8.550984441852154e-17 -7.010617744767492e-17 8.550984441852154e-17 0.829495072508523 -0.5585140326651635
12632093333.333334 0.8235453930676122 -0.5672503729015403 -6.917732984367599e-17 8.623530306422246e-17 -6.917732984367599e-17 8.623530306422246e-17 0.823545772344918 -0.5672498222587957
12632710666.666666 0.8175040903162626 -0.57592279197476 -6.824098694303291e-17 8.695068206429567e-17 -6.824098694303291e-17 8.695068206429567e-17 0.8175044753733455 -0.575922245398087
12633328000.0 0.8113714656629042 -0.5845308757523884 -6.729725802356203e-17 8.765590410729432e-17 -6.729725802356203e-17 8.765590410729432e-17 0.8113718564561863 -0.584530333302443
12633945333.333334 0.805148204172026 -0.5930736626409776 -6.634625315912671e-17 8.835089306539551e-17 -6.634625315912671e-17 8.835089306539551e-17 0.8051486006572948 -0.5930731243779501
12634562666.666666 0.79883500103298 -0.6015501983413032 -6.538808320680584e-17 8.903557400259837e-17 -6.538808320680584e-17 8.903557400259837e-17 0.79883540316539 -0.6015496643249095
12635180000.0 0.7924325614823529 -0.6099595359549197 -6.442285979401858e-17 8.970987318275318e-17 -6.442285979401858e-17 8.970987318275318e-17 0.7924329692164331 -0.6099590062443959
12635797333.333334 0.7859416007250976 -0.618300736090048 -6.345069530553639e-17 9.037371807747366e-17 -6.345069530553639e-17 9.037371807747366e-17 0.7859420140147557 -0.6183002107441437
12636414666.666666 0.7793628438548162 -0.6265728669662913 -6.247170287043982e-17 9.102703737389092e-17 -6.247170287043982e-17 9.102703737389092e-17 0.7793632626533443 -0.6265723460432627
12637032000.0 0.7726970257725845 -0.6347750045189451 -6.148599634896771e-17 9.166976098228625e-17 -6.148599634896771e-17 9.166976098228625e-17 0.7726974500326632 -0.6347744880765486
12637649333.333334 0.7659448911049449 -0.6429062325021108 -6.049369031931359e-17 9.230182004356339e-17 -6.049369031931359e-17 9.230182004356339e-17 0.7659453207786496 -0.6429057205975968
12638266666.666666 0.7591071941207105 -0.6509656425910721 -5.949490006433656e-17 9.292314693658674e-17 -5.949490006433656e-17 9.292314693658674e-17 0.7591076291595161 -0.6509651352811778
12638884000.0 0.7521846986467018 -0.6589523344837587 -5.848974155818585e-17 9.353367528538153e-17 -5.848974155818585e-17 9.353367528538153e-17 0.7521851390014903 -0.6589518318247038
12639501333.333334 0.7451781779824082 -0.666865416001342 -5.747833145287624e-17 9.413333996617546e-17 -5.747833145287624e-17 9.413333996617546e-17 0.7451786236034711 -0.6668649180488209
12640118666.666666 0.7380884148137331 -0.6747040031877498 -5.646078706478431e-17 9.472207711430063e-17 -5.646078706478431e-17 9.472207711430063e-17 0.7380888656507788 -0.674703509996925
12640736000.0 0.7309162011251814 -0.6824672204088322 -5.543722636102796e-17 9.529982413097661e-17 -5.543722636102796e-17 9.529982413097661e-17 0.7309166571273409 -0.6824667320343296
12641353333.333334 0.723662338111962 -0.6901542004495469 -5.440776794588341e-17 9.586651968988543e-17 -5.440776794588341e-17 9.586651968988543e-17 0.7236627992277936 -0.6901537169454484
12641970666.666666 0.7163276360900075 -0.6977640846113583 -5.3372531047015747e-17 9.642210374366914e-17 -5.3372531047015747e-17 9.642210374366914e-17 0.7163281022675042 -0.6977636060311971
12642588000.0 0.7089129144056682 -0.7052960228079316 -5.233163550171441e-17 9.696651753023827e-17 -5.233163550171441e-17 9.696651753023827e-17 0.7089133855922627 -0.7052955492046861
12643205333.333334 0.7014190013441656 -0.712749173660116 -5.1285201743062624e-17 9.749970357893429e-17 -5.1285201743062624e-17 9.749970357893429e-17 0.7014194774867358 -0.7127487050862028
12643822666.666666 0.6938467340369843 -0.7201227045900129 -5.023335078600852e-17 9.802160571656213e-17 -5.023335078600852e-17 9.802160571656213e-17 0.6938472150818598 -0.7201222410972817
12644440000.0 0.6861969583684593 -0.7274157919138822 -4.917620421341465e-17 9.853216907325277e-17 -4.917620421341465e-17 9.853216907325277e-17 0.686197444261427 -0.7274153335536099
12645057333.333334 0.6784705288812635 -0.7346276209341734 -4.811388416202881e-17 9.903134008818564e-17 -4.811388416202881e-17 9.903134008818564e-17 0.6784710195675752 -0.7346271677570599
12645674666.666666 0.6706683086809715 -0.7417573860305201 -4.7046513308403376e-17 9.951906651515756e-17 -4.7046513308403376e-17 9.951906651515756e-17 0.670668804105348 -0.7417569380866801
12646292000.0 0.6627911693394114 -0.7488042907499397 -4.597421485472442e-17 9.999529742801577e-17 -4.597421485472442e-17 9.999529742801577e-17 0.6627916694460497 -0.7488038480888988
12646909333.333334 0.6548399907977019 -0.7557675478954431 -4.4897112514672094e-17 1.0045998322589966e-16 -4.4897112514672094e-17 1.0045998322589966e-16 0.6548404955302813 -0.7557671105661316
12647526666.666666 0.6468156612676613 -0.7626463796142371 -4.381533049913473e-17 1.0091307563837346e-16 -4.381533049913473e-17 1.0091307563837346e-16 0.6468161705693508 -0.7626459476649858
12648144000.0 0.6387190771326284 -0.7694400174845782 -4.272899350191732e-17 1.0135452773038435e-16 -4.272899350191732e-17 1.0135452773038435e-16 0.6387195909460917 -0.7694395909631123
12648761333.333334 0.6305511428474146 -0.7761477026015366 -4.163822668540671e-17 1.0178429390706515e-16 -4.163822668540671e-17 1.0178429390706515e-16 0.6305516611148169 -0.7761472815549698
12649378666.666666 0.6223127708372711 -0.7827686856617753 -4.054315566617804e-17 1.0220232991838874e-16 -4.054315566617804e-17 1.0220232991838874e-16 0.6223132935002851 -0.7827682701366044
12649996000.0 0.6140048813958519 -0.7893022270473404 -3.944390650054306e-17 1.0260859286367109e-16 -3.944390650054306e-17 1.0260859286367109e-16 0.6140054083956661 -0.7893018170894425
12650613333.333334 0.605628402582476 -0.7957475969082303 -3.8340605670063174e-17 1.0300304119591682e-16 -3.8340605670063174e-17 1.0300304119591682e-16 0.6056289338598001 -0.7957471925628555
12651230666.666666 0.5971842701185698 -0.8021040752438398 -3.7233380067051986e-17 1.0338563472599706e-16 -3.7233380067051986e-17 1.0338563472599706e-16 0.5971848056136412 -0.8021036765556069
12651848000.0 0.5886734272828212 -0.8083709519836307 -3.6122356979966525e-17 1.0375633462669751e-16 -3.6122356979966525e-17 1.0375633462669751e-16 0.5886739669354119 -0.8083705589965221
12652465333.333334 0.5800968248061471 -0.8145475270661937 -3.500766407882972e-17 1.0411510343658468e-16 -3.500766407882972e-17 1.0411510343658468e-16 0.5800973685555704 -0.8145471398235505
12653082666.666666 0.5714554207654 -0.8206331105175224 -3.388942940058593e-17 1.0446190506372676e-16 -3.388942940058593e-17 1.0446190506372676e-16 0.5714559685505185 -0.8206327290620409
12653700000.0 0.5627501804761361 -0.826627022528238 -3.276778133439059e-17 1.0479670478926609e-16 -3.276778133439059e-17 1.0479670478926609e-16 0.5627507322353668 -0.8266266469019631
12654317333.333334 0.553982076385104 -0.8325285935292985 -3.1642848606940266e-17 1.0511946927081169e-16 -3.1642848606940266e-17 1.0511946927081169e-16 0.5539826320564262 -0.8325282237736202
12654934666.666666 0.5451520879614077 -0.8383371642669448 -3.0514760267683476e-17 1.0543016654570067e-16 -3.0514760267683476e-17 1.0543016654570067e-16 0.545152647482369 -0.8383368004225917
12655552000.0 0.5362612015869922 -0.8440520858763992 -2.9383645674060214e-17 1.0572876603408253e-16 -2.9383645674060214e-17 1.0572876603408253e-16 0.5362617648947174 -0.8440517279834376
12656169333.333334 0.5273104104468161 -0.8496727199541215 -2.8249634476709804e-17 1.0601523854184864e-16 -2.8249634476709804e-17 1.0601523854184864e-16 0.5273109774780131 -0.8496723680519491
12656786666.666666 0.5183007144175708 -0.8551984386293392 -2.7112856604608805e-17 1.0628955626341314e-16 -2.7112856604608805e-17 1.0628955626341314e-16 0.5183012851085373 -0.8551980927566799
12657404000.0 0.509233119956129 -0.8606286246340933 -2.5973442250228317e-17 1.0655169278432348e-16 -2.5973442250228317e-17 1.0655169278432348e-16 0.5092336942427601 -0.8606282848289933
12658021333.333334 0.500108639987066 -0.8659626713722203 -2.4831521854631006e-17 1.0680162308372131e-16 -2.4831521854631006e-17 1.0680162308372131e-16 0.5001092178048618 -0.8659623376720451
12658638666.666666 0.49092829378963176 -0.8711999829870442 -2.368722609259722e-17 1.0703932353663194e-16 -2.368722609259722e-17 1.0703932353663194e-16 0.49092887507370403 -0.871199655428474
12659256000.0 0.4816931068836419 -0.8763399744280801 -2.254068585765433e-17 1.0726477191611127e-16 -2.254068585765433e-17 1.0726477191611127e-16 0.4816936915687219 -0.8763396530471058
12659873333.333334 0.472404110915142 -0.8813820715162629 -2.1392032247160344e-17 1.0747794739521824e-16 -2.1392032247160344e-17 1.0747794739521824e-16 0.4724046989355865 -0.8813817563481798
12660490666.666666 0.4630623435411885 -0.8863257110080737 -2.0241396547339562e-17 1.076788305488332e-16 -2.0241396547339562e-17 1.076788305488332e-16 0.4630629348309887 -0.8863254020874812
12661108000.0 0.45366884831358395 -0.8911703406586478 -1.9088910218271996e-17 1.0786740335532223e-16 -1.9088910218271996e-17 1.0786740335532223e-16 0.4536694428063731 -0.8911700380194453
12661725333.333334 0.4442246745628069 -0.8959154192832005 -1.7934704878945655e-17 1.0804364919802805e-16 -1.7934704878945655e-17 1.0804364919802805e-16 0.4442252721918655 -0.8959151229585798
12662342666.666666 0.4347308772804135 -0.900560416817676 -1.6778912292204424e-17 1.082075528666165e-16 -1.6778912292204424e-17 1.082075528666165e-16 0.43473147797867934 -0.9005601268401224
12662960000.0 0.42518851700133936 -0.9051048143778847 -1.56216643497654e-17 1.083591005582491e-16 -1.56216643497654e-17 1.083591005582491e-16 0.42518912070141357 -0.9051045307791706
12663577333.333334 0.41559865968540366 -0.9095481043174797 -1.446309305717831e-17 1.0849827987860447e-16 -1.446309305717831e-17 1.0849827987860447e-16 0.4155992663195583 -0.9095478271286612
12664194666.666666 0.40596237659823103 -0.9138897902846606 -1.3303330518796239e-17 1.086250798427354e-16 -1.3303330518796239e-17 1.086250798427354e-16 0.40596298609841747 -0.9138895195360761
12664812000.0 0.3962807441915849 -0.9181293872776264 -1.2142508922737971e-17 1.087394908757666e-16 -1.2142508922737971e-17 1.087394908757666e-16 0.3962813564894408 -0.9181291229988912
12665429333.333334 0.3865548439830901 -0.9222664216987592 -1.098076052584358e-17 1.0884150481343241e-16 -1.098076052584358e-17 1.0884150481343241e-16 0.38655545900994787 -0.9222661639187643
12666046666.666666 0.37678576243557893 -0.9263004314074698 -9.818217638649788e-18 1.0893111490245218e-16 -9.818217638649788e-18 1.0893111490245218e-16 0.37678638012247195 -0.9263001801543752
12666664000.0 0.3669745908353278 -0.9302309657719788 -8.655012610299974e-18 1.0900831580075069e-16 -8.655012610299974e-18 1.0900831580075069e-16 0.3669752111129997 -0.9302307210732149
12667281333.333334 0.35712242517067877 -0.9340575857194446 -7.491277813564175e-18 1.0907310357750978e-16 -7.491277813564175e-18 1.0907310357750978e-16 0.35712304796959027 -0.9340573476017061
12667898666.666666 0.3472303660092399 -0.9377798637851604 -6.327145629756875e-18 1.0912547571306757e-16 -6.327145629756875e-18 1.0912547571306757e-16 0.3472309912595769 -0.9377796322744035
12668516000.0 0.33729951837496847 -0.9413973841602918 -5.162748433706147e-18 1.0916543109865402e-16 -5.162748433706147e-18 1.0916543109865402e-16 0.33730014600665 -0.9413971592817338
12669133333.333334 0.3273309916249696 -0.944909742738236 -3.998218578754292e-18 1.0919297003596576e-16 -3.998218578754292e-18 1.0919297003596576e-16 0.3273316215676553 -0.9449095245163499
12669750666.666666 0.3173258993253069 -0.9483165471598658 -2.833688381710848e-18 1.0920809423658327e-16 -2.833688381710848e-18 1.0920809423658327e-16 0.31732653150840523 -0.948316335618379
12670368000.0 0.3072853591267134 -0.9516174168573165 -1.6692901078435638e-18 1.0921080682122666e-16 -1.6692901078435638e-18 1.0921080682122666e-16 0.30728599347938956 -0.9516172120192079
