! Parameters = {f0=12700.012000; bw=77.238000; Q=6100.000000; N=10; m_0_1=1.221516; m_1_1=-0.441998; m_1_2=1.056328; m_2_2=-0.442647; m_2_3=0.693291; m_2_8=-0.001860; m_2_9=0.034844; m_3_3=-0.444584; m_3_4=0.581820; m_3_7=-0.001260; m_3_8=-0.098348; m_3_9=-0.001860; m_4_4=-0.447509; m_4_5=0.418155; m_4_6=0.002257; m_4_7=-0.118897; m_4_8=-0.001260; m_5_5=-0.447127; m_5_6=0.825510; m_5_7=0.002257; m_6_6=-0.447128; m_6_7=0.418497; m_7_7=-0.447495; m_7_8=0.581938; m_8_8=-0.444586; m_8_9=0.693604; m_9_9=-0.442652; m_9_10=1.057406; m_10_10=-0.442008; m_10_11=1.222311}
!
! Created with skrf (http://scikit-rf.org).
# Hz S RI R 50.0 
!freq ReS11 ImS11 ReS21 ImS21 ReS12 ImS12 ReS22 ImS22
12607400000.0 0.20998272078296157 -0.9777050971394298 6.6831033233391194e-18 8.724553956536654e-17 6.6831033233391194e-18 8.724553956536654e-17 0.2099833500857661 -0.9777049619832126
12608017333.333334 0.20108717371482215 -0.979573350274099 7.48211372555791e-18 8.716345110261872e-17 7.48211372555791e-18 8.716345110261872e-17 0.2010878041892612 -0.979573220849865
12608634666.666666 0.19217501259997954 -0.9813606699537304 8.280180791440761e-18 8.707405096308309e-17 8.280180791440761e-18 8.707405096308309e-17 0.19217564419385053 -0.9813605462716113
12609252000.0 0.1832469737713008 -0.9830669085080105 9.077237665817343e-18 8.697734954120538e-17 9.077237665817343e-18 8.697734954120538e-17 0.18324760643231353 -0.9830667905776617
12609869333.333334 0.1743037948733466 -0.9846919249656648 9.873217604772244e-18 8.687335784223954e-17 9.873217604772244e-18 8.687335784223954e-17 0.17430442854912812 -0.984691812796267
12610486666.666666 0.16534621480179018 -0.9862355850660406 1.0668053981225901e-17 8.676208748108094e-17 1.0668053981225901e-17 8.676208748108094e-17 0.16534684943988864 -0.9862354786662966
12611104000.0 0.15637497364183725 -0.9876977612702945 1.1461680290505942e-17 8.66435506810489e-17 1.1461680290505942e-17 8.66435506810489e-17 0.15637560918972632 -0.9876976606484288
12611721333.333334 0.14739081260769463 -0.9890783327718182 1.2254030155883924e-17 8.651776027262125e-17 1.2254030155883924e-17 8.651776027262125e-17 0.14739144901277823 -0.9890782379355791
12612338666.666666 0.13839447398082724 -0.9903771855063133 1.304503733411883e-17 8.638472969211565e-17 1.304503733411883e-17 8.638472969211565e-17 0.13839511119044354 -0.9903770964629692
12612956000.0 0.129386701048853 -0.9915942121611699 1.3834635720999337e-17 8.624447298031829e-17 1.3834635720999337e-17 8.624447298031829e-17 0.1293873390102788 -0.9915941289175104
12613573333.333334 0.1203682380441603 -0.992729312184334 1.4622759356825696e-17 8.60970047810697e-17 1.4622759356825696e-17 8.60970047810697e-17 0.1203688767046155 -0.9927292347466682
12614190666.666666 0.11133983008236266 -0.9937823917926234 1.540934243192384e-17 8.594234033979303e-17 1.540934243192384e-17 8.594234033979303e-17 0.1113404693890146 -0.993782320166781
12614808000.0 0.10230222310067977 -0.9947533639794821 1.6194319292132445e-17 8.578049550197385e-17 1.6194319292132445e-17 8.578049550197385e-17 0.10230286300064749 -0.9947532981708116
12615425333.333334 0.09325616379636346 -0.9956421485221596 1.6977624444252734e-17 8.56114867115942e-17 1.6977624444252734e-17 8.56114867115942e-17 0.09325680423672232 -0.9956420885355294
12616042666.666666 0.08420239956509014 -0.9964486719883359 1.775919256151688e-17 8.543533100951083e-17 1.775919256151688e-17 8.543533100951083e-17 0.0842030404928758 -0.9964486178281304
12616660000.0 0.07514167843901155 -0.9971728677422014 1.8538958489015697e-17 8.525204603178769e-17 1.8538958489015697e-17 8.525204603178769e-17 0.0751423198012248 -0.9971728194123258
12617277333.333334 0.06607474902514997 -0.9978146759499478 1.9316857249112327e-17 8.506165000797935e-17 1.9316857249112327e-17 8.506165000797935e-17 0.06607539076876086 -0.9978146334538254
12617894666.666666 0.057002360443462616 -0.9983740435847231 2.0092824046848676e-17 8.486416175936314e-17 2.0092824046848676e-17 8.486416175936314e-17 0.05700300251541476 -0.9983740069252925
12618512000.0 0.047925262264862996 -0.9988509244310083 2.0866794275336412e-17 8.465960069712028e-17 2.0866794275336412e-17 8.465960069712028e-17 0.047925904612078206 -0.9988508936107282
12619129333.333334 0.038844204449461135 -0.9992452790884353 2.1638703521108737e-17 8.444798682047506e-17 2.1638703521108737e-17 8.444798682047506e-17 0.038844847018843595 -0.9992452541092798
12619746666.666666 0.02975993728454409 -0.9995570749750392 2.240848756947278e-17 8.422934071477916e-17 2.240848756947278e-17 8.422934071477916e-17 0.029760580022984852 -0.9995570558385009
12620364000.0 0.020673211322359192 -0.9997862863299627 2.3176082409855158e-17 8.40036835495446e-17 2.3176082409855158e-17 8.40036835495446e-17 0.020673854176740534 -0.9997862730370503
12620981333.333334 0.011584777318585456 -0.9999328942155649 2.3941424241082926e-17 8.377103707644082e-17 2.3941424241082926e-17 8.377103707644082e-17 0.011585420235785293 -0.9999328867668056
12621598666.666666 0.0024953861698223923 -0.9999968865190032 2.470444947669006e-17 8.353142362723048e-17 2.470444947669006e-17 8.353142362723048e-17 0.0024960290967186343 -0.9999968849144407
12622216000.0 -0.0065942111482226624 -0.999978257953226 2.5465094750192018e-17 8.328486611166115e-17 2.5465094750192018e-17 8.328486611166115e-17 -0.006593568264747716 -0.9999782621924213
12622833333.333334 -0.015683263642752597 -0.9998770100574117 2.6223296920320495e-17 8.303138801531409e-17 2.6223296920320495e-17 8.303138801531409e-17 -0.015682620855807843 -0.9998770201394416
12623450666.666666 -0.024771020366013564 -0.9996931511968373 2.6978993076261205e-17 8.277101339739912e-17 2.6978993076261205e-17 8.277101339739912e-17 -0.024770377728694774 -0.9996931671202992
12624068000.0 -0.033856730477254085 -0.9994266965621984 2.7732120542853393e-17 8.25037668885066e-17 2.7732120542853393e-17 8.25037668885066e-17 -0.0338560880426394 -0.9994267183252035
12624685333.333334 -0.04293964330501571 -0.9990776681683337 2.848261688579332e-17 8.222967368830343e-17 2.848261688579332e-17 8.222967368830343e-17 -0.04293900112616143 -0.9990776957685146
12625302666.666666 -0.05201900840864342 -0.9986460948524348 2.923041991676658e-17 8.194875956319993e-17 2.923041991676658e-17 8.194875956319993e-17 -0.05201836653857945 -0.9986461282869394
12625920000.0 -0.06109407564094079 -0.9981320122716316 2.9975467698615564e-17 8.166105084394783e-17 2.9975467698615564e-17 8.166105084394783e-17 -0.06109343413266636 -0.9981320515371273
12626537333.333334 -0.07016409520952342 -0.9975354629000749 3.071769855044008e-17 8.136657442320933e-17 3.071769855044008e-17 8.136657442320933e-17 -0.07016345411600272 -0.9975355079927475
12627154666.666666 -0.07922831773916521 -0.9968564960254108 3.1457051052685715e-17 8.106535775307455e-17 3.1457051052685715e-17 8.106535775307455e-17 -0.07922767711332294 -0.996856546940965
12627772000.0 -0.08828599433365546 -0.9960951677447063 3.219346405224281e-17 8.075742884251969e-17 3.219346405224281e-17 8.075742884251969e-17 -0.0882853542283726 -0.996095224478367
12628389333.333334 -0.09733637663747553 -0.9952515409598344 3.292687666745211e-17 8.044281625484653e-17 3.292687666745211e-17 8.044281625484653e-17 -0.09733573710558473 -0.9952516035063447
12629006666.666666 -0.10637871689796816 -0.994325685372242 3.365722829315199e-17 8.012154910504938e-17 3.365722829315199e-17 8.012154910504938e-17 -0.10637807799224969 -0.9943257537258665
12629624000.0 -0.11541226802672185 -0.9933176774772331 3.438445860566403e-17 7.979365705715207e-17 3.438445860566403e-17 7.979365705715207e-17 -0.11541162979989901 -0.9933177516317572
12630241333.333334 -0.12443628366166361 -0.9922276005576097 3.510850756775722e-17 7.945917032149712e-17 3.510850756775722e-17 7.945917032149712e-17 -0.12443564616639838 -0.9922276805063387
12630858666.666666 -0.13345001822832864 -0.9910555446768338 3.582931543359572e-17 7.911811965198725e-17 3.582931543359572e-17 7.911811965198725e-17 -0.1334493815172176 -0.9910556304125969
12631476000.0 -0.14245272700199713 -0.9898016066715252 3.654682275366168e-17 7.87705363432798e-17 3.654682275366168e-17 7.87705363432798e-17 -0.14245209112756674 -0.9898016981866729
12632093333.333334 -0.15144366616863122 -0.9884658901435299 3.726097037963152e-17 7.84164522279468e-17 3.726097037963152e-17 7.84164522279468e-17 -0.15144303118333394 -0.9884659874299376
12632710666.666666 -0.16042209288672585 -0.987048505451318 3.797169946924503e-17 7.805589967358159e-17 3.797169946924503e-17 7.805589967358159e-17 -0.1604214588429352 -0.9870486085003828
12633328000.0 -0.16938726534859677 -0.985549569700866 3.867895149114419e-17 7.768891157986185e-17 3.867895149114419e-17 7.768891157986185e-17 -0.1693866322986038 -0.9855496785035118
12633945333.333334 -0.17833844284164235 -0.9839692067359911 3.938266822967547e-17 7.731552137557397e-17 3.938266822967547e-17 7.731552137557397e-17 -0.1783378108376506 -0.9839693212826669
12634562666.666666 -0.18727488580945836 -0.9823075471281346 4.0082791789661334e-17 7.693576301559495e-17 4.0082791789661334e-17 7.693576301559495e-17 -0.1872742549035798 -0.9823076674088145
12635180000.0 -0.19619585591310792 -0.98056472816554 4.0779264601164866e-17 7.654967097781995e-17 4.0779264601164866e-17 7.654967097781995e-17 -0.19619522615735915 -0.980564854169728
12635797333.333334 -0.2051006160920692 -0.9787408938419261 4.147202942419442e-17 7.615728026006296e-17 4.147202942419442e-17 7.615728026006296e-17 -0.20509998753836597 -0.9787410255586506
12636414666.666666 -0.21398843062493508 -0.9768361948446189 4.216102935340075e-17 7.575862637690352e-17 4.216102935340075e-17 7.575862637690352e-17 -0.21398780332508968 -0.9768363322624419
12637032000.0 -0.222858565190564 -0.9748507885420415 4.284620782274379e-17 7.535374535649088e-17 4.284620782274379e-17 7.535374535649088e-17 -0.22285793919627941 -0.9748509316490521
12637649333.333334 -0.2317102869284143 -0.9727848389707708 4.3527508610107617e-17 7.494267373731826e-17 4.3527508610107617e-17 7.494267373731826e-17 -0.23170966229128076 -0.9727849877545898
12638266666.666666 -0.2405428644993453 -0.9706385168219361 4.420487584191689e-17 7.452544856493737e-17 4.420487584191689e-17 7.452544856493737e-17 -0.24054224127083573 -0.9706386712697161
12638884000.0 -0.2493555681458184 -0.9684119994271622 4.487825399768794e-17 7.410210738865089e-17 4.487825399768794e-17 7.410210738865089e-17 -0.24935494637728486 -0.9684121595255909
12639501333.333334 -0.2581476697524407 -0.9661054707438637 4.554758791458236e-17 7.367268825814418e-17 4.554758791458236e-17 7.367268825814418e-17 -0.2581470494951091 -0.966105636479162
12640118666.666666 -0.26691844290573585 -0.9637191213401414 4.621282279189287e-17 7.323722972009777e-17 4.621282279189287e-17 7.323722972009777e-17 -0.26691782421070254 -0.9637192926980664
12640736000.0 -0.2756671629547942 -0.9612531483788709 4.6873904195542727e-17 7.279577081473017e-17 4.6873904195542727e-17 7.279577081473017e-17 -0.27566654587302125 -0.961253325344716
12641353333.333334 -0.28439310707040233 -0.9587077556016126 4.753077806249069e-17 7.234835107234126e-17 4.753077806249069e-17 7.234835107234126e-17 -0.2843924916527134 -0.9587079381602085
12641970666.666666 -0.29309555430525774 -0.9560831533116411 4.8183390705164625e-17 7.189501050977466e-17 4.8183390705164625e-17 7.189501050977466e-17 -0.29309494060233493 -0.9560833414473611
12642588000.0 -0.30177378565345314 -0.9533795583565974 4.8831688815830986e-17 7.143578962686111e-17 4.8831688815830986e-17 7.143578962686111e-17 -0.30177317371583096 -0.9533797520533526
12643205333.333334 -0.31042708410968933 -0.9505971941106254 4.9475619470920486e-17 7.097072940282967e-17 4.9475619470920486e-17 7.097072940282967e-17 -0.3104264739877517 -0.9505973933518693
12643822666.666666 -0.31905473472884094 -0.9477362904558133 5.0115130135356295e-17 7.049987129265462e-17 5.0115130135356295e-17 7.049987129265462e-17 -0.31905412647281756 -0.9477364952245453
12644440000.0 -0.3276560246846753 -0.9447970837633196 5.075016866680927e-17 7.002325722339049e-17 5.075016866680927e-17 7.002325722339049e-17 -0.32765541834463585 -0.9447972940420816
12645057333.333334 -0.3362302433289881 -0.9417798168737569 5.1380683319930965e-17 6.954092959046073e-17 5.1380683319930965e-17 6.954092959046073e-17 -0.33622963895483954 -0.9417800326446379
12645674666.666666 -0.34477668225010527 -0.9386847390772095 5.2006622750569375e-17 6.90529312538952e-17 5.2006622750569375e-17 6.90529312538952e-17 -0.3447760798915873 -0.9386849603218469
12646292000.0 -0.35329463533181177 -0.9355121060924859 5.2627936019932717e-17 6.855930553454088e-17 5.2627936019932717e-17 6.855930553454088e-17 -0.35329403503849327 -0.9355123327920682
12646909333.333334 -0.36178339881113397 -0.9322621800462046 5.3244572598710744e-17 6.806009621024265e-17 5.3244572598710744e-17 6.806009621024265e-17 -0.3617828006324071 -0.9322624121814681
12647526666.666666 -0.37024227133696147 -0.9289352294509482 5.3856482371172765e-17 6.755534751197535e-17 5.3856482371172765e-17 6.755534751197535e-17 -0.37024167532203983 -0.9289354670021847
12648144000.0 -0.37867055402775696 -0.9255315291831772 5.446361563923746e-17 6.70451041199339e-17 5.446361563923746e-17 6.70451041199339e-17 -0.3786699602256702 -0.9255317721302317
12648761333.333334 -0.38706755052937575 -0.9220513604604825 5.5065923126480434e-17 6.652941115960641e-17 5.5065923126480434e-17 6.652941115960641e-17 -0.3870669589889663 -0.9220516087827576
12649378666.666666 -0.39543256707252267 -0.9184950108183887 5.566335598211333e-17 6.600831419780618e-17 5.566335598211333e-17 6.600831419780618e-17 -0.39543197784244105 -0.9184952644948435
12649996000.0 -0.40376491253012353 -0.9148627740865727 5.625586578495286e-17 6.54818592386434e-17 5.625586578495286e-17 6.54818592386434e-17 -0.4037643256588245 -0.9148630330957263
12650613333.333334 -0.4120638984745306 -0.9111549503645416 5.684340454730943e-17 6.495009271949867e-17 5.684340454730943e-17 6.495009271949867e-17 -0.4120633140102696 -0.9111552146844749
12651230666.666666 -0.4203288392340899 -0.9073718459969765 5.742592471886426e-17 6.441306150693959e-17 5.742592471886426e-17 6.441306150693959e-17 -0.42032825722491884 -0.9073721156053342
12651848000.0 -0.42855905195025895 -0.9035137735482134 5.80033791905145e-17 6.387081289259521e-17 5.80033791905145e-17 6.387081289259521e-17 -0.42855847244402245 -0.9035140484222056
12652465333.333334 -0.43675385663358585 -0.8995810517766187 5.85757212981458e-17 6.332339458902832e-17 5.85757212981458e-17 6.332339458902832e-17 -0.4367532796779159 -0.8995813318930209
12653082666.666666 -0.44491257622009533 -0.895574005608155 5.914290482640033e-17 6.27708547255425e-17 5.914290482640033e-17 6.27708547255425e-17 -0.4449120018624101 -0.8955742909433143
12653700000.0 -0.4530345366272825 -0.8914929661095151 5.970488401239609e-17 6.221324184396346e-17 5.970488401239609e-17 6.221324184396346e-17 -0.45303396491478026 -0.8914932566393485
12654317333.333334 -0.4611190668096256 -0.8873382704608526 6.026161354939287e-17 6.165060489440131e-17 6.026161354939287e-17 6.165060489440131e-17 -0.46111849778928143 -0.8873385661608506
12654934666.666666 -0.46916549881420777 -0.8831102619278376 6.081304859043245e-17 6.108299323096645e-17 6.081304859043245e-17 6.108299323096645e-17 -0.46916493253276936 -0.8831105627730651
12655552000.0 -0.4771731678358253 -0.8788092898333294 6.135914475194711e-17 6.051045660744424e-17 6.135914475194711e-17 6.051045660744424e-17 -0.47717260433981046 -0.8788095957984302
12656169333.333334 -0.4851414122718682 -0.8744357095285475 6.189985811729519e-17 5.993304517297084e-17 6.189985811729519e-17 5.993304517297084e-17 -0.48514085160755943 -0.8744360205877441
12656786666.666666 -0.4930695737770306 -0.869989882363683 6.243514524028838e-17 5.93508094676444e-17 6.243514524028838e-17 5.93508094676444e-17 -0.4930690159904718 -0.869990198490779
12657404000.0 -0.5009569973177781 -0.8654721756580008 6.29649631486695e-17 5.876380041811352e-17 6.29649631486695e-17 5.876380041811352e-17 -0.5009564424547714 -0.8654724968263846
12658021333.333334 -0.50880303122632 -0.860882962669576 6.348926934753567e-17 5.817206933314941e-17 6.348926934753567e-17 5.817206933314941e-17 -0.5088024793324215 -0.860883288852222
12658638666.666666 -0.5166070272545241 -0.8562226225644133 6.40080218227351e-17 5.75756678991714e-17 6.40080218227351e-17 5.75756678991714e-17 -0.5166064783750398 -0.8562229537338838
12659256000.0 -0.5243683406275254 -0.8514915403850901 6.452117904421986e-17 5.697464817574403e-17 6.452117904421986e-17 5.697464817574403e-17 -0.5243677948075085 -0.851491876513539
12659873333.333334 -0.5320863300969721 -0.8466901070189579 6.502869996935082e-17 5.636906259105201e-17 6.502869996935082e-17 5.636906259105201e-17 -0.5320857873812183 -0.8466904480781312
12660490666.666666 -0.5397603579938144 -0.8418187191659665 6.553054404615808e-17 5.575896393734769e-17 6.553054404615808e-17 5.575896393734769e-17 -0.5397598184268579 -0.841819065127206
12661108000.0 -0.5473897902813973 -0.8368777793056317 6.60266712165751e-17 5.514440536635107e-17 6.60266712165751e-17 5.514440536635107e-17 -0.5473892539075095 -0.8368781301398777
12661725333.333334 -0.5549739966074397 -0.8318676956640421 6.65170419196078e-17 5.4525440384647514e-17 6.65170419196078e-17 5.4525440384647514e-17 -0.5549734634706225 -0.8318680513418341
12662342666.666666 -0.5625123503563042 -0.8267888821800062 6.700161709447609e-17 5.390212284903863e-17 6.700161709447609e-17 5.390212284903863e-17 -0.5625118205002878 -0.8267892426714866
12662960000.0 -0.570004228700817 -0.8216417584708228 6.748035818371085e-17 5.327450696186742e-17 6.748035818371085e-17 5.327450696186742e-17 -0.5700037021690565 -0.8216421237457389
12663577333.333334 -0.5774490126535603 -0.8164267497977192 6.795322713620082e-17 5.2642647266323544e-17 6.795322713620082e-17 5.2642647266323544e-17 -0.5774484894892322 -0.816427119825427
12664194666.666666 -0.5848460871182026 -0.811144287030591 6.842018641019421e-17 5.200659864172382e-17 6.842018641019421e-17 5.200659864172382e-17 -0.5848455673642016 -0.8111446617800573
12664812000.0 -0.592194840940133 -0.8057948066125331 6.888119897627177e-17 5.1366416298747156e-17 6.888119897627177e-17 5.1366416298747156e-17 -0.5921943246390662 -0.8057951860523358
12665429333.333334 -0.5994946669571595 -0.8003787505236267 6.933622832025389e-17 5.072215577467012e-17 6.933622832025389e-17 5.072215577467012e-17 -0.5994941541513464 -0.8003791346219614
12666046666.666666 -0.6067449620493813 -0.7948965662446481 6.978523844607911e-17 5.0073872928558047e-17 6.978523844607911e-17 5.0073872928558047e-17 -0.6067444527808477 -0.7948969549693271
12666664000.0 -0.6139451271894478 -0.7893487067197682 7.02281938786363e-17 4.9421623936430106e-17 7.02281938786363e-17 4.9421623936430106e-17 -0.6139446214999222 -0.7893491000382246
12667281333.333334 -0.6210945674915527 -0.7837356303195102 7.066505966653926e-17 4.876546528642018e-17 7.066505966653926e-17 4.876546528642018e-17 -0.6210940654224651 -0.7837360281988015
12667898666.666666 -0.6281926922609693 -0.7780578008025836 7.109580138487462e-17 4.810545377388486e-17 7.109580138487462e-17 4.810545377388486e-17 -0.6281921938534472 -0.7780582032093945
12668516000.0 -0.6352389150427855 -0.7723156872776201 7.152038513789098e-17 4.7441646496507767e-17 7.152038513789098e-17 4.7441646496507767e-17 -0.6352384203376484 -0.7723160941782631
12669133333.333334 -0.6422326536700903 -0.7665097641646271 7.193877756164382e-17 4.677410084937832e-17 7.193877756164382e-17 4.677410084937832e-17 -0.6422321627078483 -0.766510175525047
12669750666.666666 -0.6491733303124496 -0.760640511155487 7.235094582660001e-17 4.6102874520039343e-17 7.235094582660001e-17 4.6102874520039343e-17 -0.6491728431333001 -0.7606409269412644
12670368000.0 -0.6560603715233837 -0.7547084131745435 7.275685764019897e-17 4.542802548350777e-17 7.275685764019897e-17 4.542802548350777e-17 -0.6560598881672073 -0.7547088333508956
