! Parameters = {f0=12700.012000; bw=77.238000; Q=6100.000000; N=10; m_0_1=1.229124; m_1_1=-0.327884; m_1_2=1.063936; m_2_2=-0.328533; m_2_3=0.700899; m_2_8=-0.001480; m_2_9=0.035224; m_3_3=-0.330470; m_3_4=0.589428; m_3_7=-0.000880; m_3_8=-0.097968; m_3_9=-0.001480; m_4_4=-0.333395; m_4_5=0.425763; m_4_6=0.002637; m_4_7=-0.118517; m_4_8=-0.000880; m_5_5=-0.333013; m_5_6=0.833118; m_5_7=0.002637; m_6_6=-0.333014; m_6_7=0.426105; m_7_7=-0.333381; m_7_8=0.589546; m_8_8=-0.330472; m_8_9=0.701212; m_9_9=-0.328538; m_9_10=1.065014; m_10_10=-0.327894; m_10_11=1.229919}
!
! Created with skrf (http://scikit-rf.org).
# Hz S RI R 50.0 
!freq ReS11 ImS11 ReS21 ImS21 ReS12 ImS12 ReS22 ImS22
12607400000.0 0.946717544923087 0.3220650402242333 -9.077585406935834e-17 -3.623958948713951e-18 -9.077585406935834e-17 -3.623958948713951e-18 0.9467173363380579 0.3220656533640429
12608017333.333334 0.9496763233307528 0.313232949902812 -9.078813287477328e-17 -2.7696819432996675e-18 -9.078813287477328e-17 -2.7696819432996675e-18 0.9496761204757432 0.31323356492875365
12608634666.666666 0.9525527076402903 0.3043736834336802 -9.079237832636314e-17 -1.9154945915232936e-18 -9.079237832636314e-17 -1.9154945915232936e-18 0.9525525105323385 0.30437430029221224
12609252000.0 0.9553464482960989 0.29548800944854625 -9.07885931952568e-17 -1.061472379093376e-18 -9.07885931952568e-17 -1.061472379093376e-18 0.9553462569517419 0.2954886280859729
12609869333.333334 0.9580573029128 0.2865766988701027 -9.077678096134742e-17 -2.0769074756285843e-19 -9.077678096134742e-17 -2.0769074756285843e-19 0.9580571173480749 0.2865773192325798
12610486666.666666 0.9606850362961589 0.27764052484549495 -9.075694581270773e-17 6.457749123284501e-19 -9.075694581270773e-17 6.457749123284501e-19 0.9606848565265977 0.2776411468790331
12611104000.0 0.9632294204636432 0.2686802626787247 -9.072909264494194e-17 1.498849267304305e-18 -9.072909264494194e-17 1.498849267304305e-18 0.9632292465042744 0.2686808863291951
12611721333.333334 0.9656902346640271 0.2596966897639844 -9.069322706047658e-17 2.3514570481715577e-18 -9.069322706047658e-17 2.3514570481715577e-18 0.9656900665293744 0.25969731497712356
12612338666.666666 0.968067265396686 0.25069058551771944 -9.064935536778836e-17 3.2035230564520746e-18 -9.064935536778836e-17 3.2035230564520746e-18 0.9680671031007657 0.2506912122391333
12612956000.0 0.9703603064300568 0.2416627313112238 -9.059748458056956e-17 4.054972171021249e-18 -9.059748458056956e-17 4.054972171021249e-18 0.9703601499863775 0.24166335948639295
12613573333.333334 0.9725691588195247 0.232613910402876 -9.053762241683395e-17 4.9057293546727086e-18 -9.053762241683395e-17 4.9057293546727086e-18 0.9725690082410856 0.2326145399771602
12614190666.666666 0.9746936309246979 0.22354490787012904 -9.046977729795662e-17 5.755719660760559e-18 -9.046977729795662e-17 5.755719660760559e-18 0.9746934862239884 0.22354553878877192
12614808000.0 0.9767335384260527 0.21445651054131276 -9.039395834765562e-17 6.604868239766691e-18 -9.039395834765562e-17 6.604868239766691e-18 0.9767333996150526 0.21445714274944716
12615425333.333334 0.9786887043408853 0.20534950692756418 -9.0310175390911e-17 7.453100345872378e-18 -9.0310175390911e-17 7.453100345872378e-18 0.9786885714310594 0.20535014037021576
12616042666.666666 0.9805589590387082 0.19622468715419195 -9.021843895282075e-17 8.300341343541264e-18 -9.021843895282075e-17 8.300341343541264e-18 0.980558832041009 0.19622532177628485
12616660000.0 0.9823441402559245 0.18708284289234858 -9.011876025739816e-17 9.146516714051504e-18 -9.011876025739816e-17 9.146516714051504e-18 0.9823440191807927 0.18708347863871042
12617277333.333334 0.984044093109958 0.17792476729009418 -9.001115122630423e-17 9.991552062058645e-18 -9.001115122630423e-17 9.991552062058645e-18 0.984043977967318 0.17792540410546012
12617894666.666666 0.9856586701126194 0.1687512549039455 -8.989562447752467e-17 1.0835373122088689e-17 -8.989562447752467e-17 1.0835373122088689e-17 0.9856585609118792 0.16875189273296337
12618512000.0 0.9871877311829992 0.15956310162940876 -8.977219332397635e-17 1.167790576509897e-17 -8.977219332397635e-17 1.167790576509897e-17 0.9871876279330513 0.15956374041664384
12619129333.333334 0.988631143659512 0.1503611046325432 -8.964087177206592e-17 1.2519076004919667e-17 -8.964087177206592e-17 1.2519076004919667e-17 0.9886310463687326 0.1503617443224833
12619746666.666666 0.9899887823114973 0.14114606228029533 -8.950167452017467e-17 1.3358810004782309e-17 -8.950167452017467e-17 1.3358810004782309e-17 0.9899886909877426 0.14114670281735503
12620364000.0 0.991260529350039 0.13191877407145558 -8.935461695709118e-17 1.4197034083766102e-17 -8.935461695709118e-17 1.4197034083766102e-17 0.9912604440006477 0.1319194153999816
12620981333.333334 0.9924462744381859 0.1226800405673225 -8.919971516038206e-17 1.503367472324599e-17 -8.919971516038206e-17 1.503367472324599e-17 0.9924461950699794 0.12268068263159852
12621598666.666666 0.9935459147005351 0.11343066332218991 -8.903698589470055e-17 1.5868658573331316e-17 -8.903698589470055e-17 1.5868658573331316e-17 0.9935458413198135 0.11343130606644097
12622216000.0 0.994559354732163 0.1041714448137187 -8.886644661003484e-17 1.6701912459289668e-17 -8.886644661003484e-17 1.6701912459289668e-17 0.9945592873447071 0.10417208818211647
12622833333.333334 0.9954865066068863 0.09490318837348348 -8.868811543990025e-17 1.753336338792986e-17 -8.868811543990025e-17 1.753336338792986e-17 0.9954864452179557 0.09490383231015079
12623450666.666666 0.9963272898848994 0.08562669811716202 -8.850201119946789e-17 1.8362938553991813e-17 -8.850201119946789e-17 1.8362938553991813e-17 0.9963272344992329 0.0856273425661779
12624068000.0 0.9970816316197487 0.07634277887485516 -8.830815338363633e-17 1.919056534649954e-17 -8.830815338363633e-17 1.919056534649954e-17 0.9970815822415648 0.07634342378025984
12624685333.333334 0.9977494663646823 0.06705223612100482 -8.810656216503862e-17 2.0016171355122136e-17 -8.810656216503862e-17 2.0016171355122136e-17 0.9977494229976772 0.06705288142680423
12625302666.666666 0.9983307361782857 0.057755875905020515 -8.789725839200172e-17 2.0839684376461955e-17 -8.789725839200172e-17 2.0839684376461955e-17 0.9983306988256343 0.057756521555191426
12625920000.0 0.998825390629559 0.04845450478069472 -8.768026358643253e-17 2.166103242038452e-17 -8.768026358643253e-17 2.166103242038452e-17 0.9988253592939135 0.04845515071918944
12626537333.333334 0.9992333868022504 0.03914892973684987 -8.745559994165705e-17 2.2480143716279823e-17 -8.745559994165705e-17 2.2480143716279823e-17 0.999233361485739 0.039149575907601125
12627154666.666666 0.9995546892985994 0.029839958126926584 -8.722329032019758e-17 2.329694671931409e-17 -8.722329032019758e-17 2.329694671931409e-17 0.9995546700028318 0.029840604473852582
12627772000.0 0.9997892702424114 0.0205283975989945 -8.698335825148118e-17 2.4111370116698932e-17 -8.698335825148118e-17 2.4111370116698932e-17 0.999789256968473 0.020529044066003574
12628389333.333334 0.9999371092814654 0.011215056025850826 -8.67358279295146e-17 2.4923342833848393e-17 -8.67358279295146e-17 2.4923342833848393e-17 0.999937102029918 0.011215702556846363
12629006666.666666 0.9999981935892857 0.0019007414347302883 -8.648072421046995e-17 2.573279404062368e-17 -8.648072421046995e-17 2.573279404062368e-17 0.9999981923601704 0.0019013879736156356
12629624000.0 0.9999725178662526 -0.007413738062714196 -8.621807261024277e-17 2.653965315745035e-17 -8.621807261024277e-17 2.653965315745035e-17 0.9999725226590875 -0.00741309157203091
12630241333.333334 0.9998600843400641 -0.01672757434046661 -8.594789930192892e-17 2.7343849861492145e-17 -8.594789930192892e-17 2.7343849861492145e-17 0.9998600951538443 -0.01672692795406758
12630858666.666666 0.9996609027655401 -0.026039959328317815 -8.567023111326529e-17 2.814531409273112e-17 -8.567023111326529e-17 2.814531409273112e-17 0.9996609195987389 -0.02603931310227072
12631476000.0 0.9993749904237782 -0.03535008508205919 -8.538509552398767e-17 2.89439760601026e-17 -8.538509552398767e-17 2.89439760601026e-17 0.9993750132743469 -0.0353494390724123
12632093333.333334 0.9990023721206519 -0.0446571438534378 -8.509252066316447e-17 2.9739766247506734e-17 -8.509252066316447e-17 2.9739766247506734e-17 0.9990024009860191 -0.044656498116215124
12632710666.666666 0.9985430801846672 -0.05396032816018023 -8.47925353064459e-17 3.0532615419878555e-17 -8.47925353064459e-17 3.0532615419878555e-17 0.9985431150617412 -0.05395968275137669
12633328000.0 0.9979971544641366 -0.06325883085641876 -8.448516887326959e-17 3.132245462918908e-17 -8.448516887326959e-17 3.132245462918908e-17 0.9979971953493051 -0.06325818583199537
12633945333.333334 0.9973646423237531 -0.07255184520223736 -8.417045142401088e-17 3.2109215220424296e-17 -8.417045142401088e-17 3.2109215220424296e-17 0.99736468921288 -0.07255120061811614
12634562666.666666 0.996645598640447 -0.0818385649340327 -8.384841365707777e-17 3.2892828837530464e-17 -8.384841365707777e-17 3.2892828837530464e-17 0.9966456515288787 -0.08183792084609219
12635180000.0 0.995840085798655 -0.0911181843342113 -8.351908690594337e-17 3.3673227429352734e-17 -8.351908690594337e-17 3.3673227429352734e-17 0.9958401446812177 -0.09111754079828156
12635797333.333334 0.994948173684882 -0.1003898983013485 -8.318250313613034e-17 3.445034325552501e-17 -8.318250313613034e-17 3.445034325552501e-17 0.9949482385558798 -0.10038925537320599
12636414666.666666 0.9939699396816648 -0.10965290241969904 -8.283869494214574e-17 3.522410889231848e-17 -8.283869494214574e-17 3.522410889231848e-17 0.9939700105348858 -0.10965226015506231
12637032000.0 0.9929054686608274 -0.11890639302938513 -8.2487695544342e-17 3.5994457238507184e-17 -8.2487695544342e-17 3.5994457238507184e-17 0.9929055454895409 -0.11890575148390976
12637649333.333334 0.991754852976147 -0.12814956729578242 -8.212953878574813e-17 3.676132152114347e-17 -8.212953878574813e-17 3.676132152114347e-17 0.991754935773103 -0.1281489265250559
12638266666.666666 0.990518192455316 -0.13738162327942846 -8.176425912882695e-17 3.752463530135216e-17 -8.176425912882695e-17 3.752463530135216e-17 0.990518281212747 -0.13738098333896565
12638884000.0 0.9891955943913034 -0.14660176000537292 -8.139189165219502e-17 3.828433248005247e-17 -8.139189165219502e-17 3.828433248005247e-17 0.9891956891009278 -0.14660112095061148
12639501333.333334 0.9877871735330185 -0.1558091775329246 -8.101247204727303e-17 3.904034730368795e-17 -8.101247204727303e-17 3.904034730368795e-17 0.9877872741860388 -0.15580853941921982
12640118666.666666 0.9862930520754112 -0.16500307702466055 -8.062603661490693e-17 3.979261436986983e-17 -8.062603661490693e-17 3.979261436986983e-17 0.9862931586625145 -0.16500243990728072
12640736000.0 0.9847133596487624 -0.17418266081640693 -8.023262226189488e-17 4.054106863307483e-17 -8.023262226189488e-17 4.054106863307483e-17 0.9847134721601214 -0.1741820247505283
12641353333.333334 0.9830482333075843 -0.1833471324855469 -7.983226649752561e-17 4.1285645410180975e-17 -7.983226649752561e-17 4.1285645410180975e-17 0.98304835173286 -0.18334649752624946
12641970666.666666 0.981297817518596 -0.19249569692093177 -7.942500742999472e-17 4.2026280386108543e-17 -7.942500742999472e-17 4.2026280386108543e-17 0.9812979418469364 -0.19249506312319384
12642588000.0 0.9794622641482738 -0.2016275603913604 -7.901088376282363e-17 4.276290961931893e-17 -7.901088376282363e-17 4.276290961931893e-17 0.9794623943683162 -0.2016269278100543
12643205333.333334 0.9775417324496313 -0.21074193061469554 -7.85899347911962e-17 4.34954695473401e-17 -7.85899347911962e-17 4.34954695473401e-17 0.9775418685495021 -0.2107412993045825
12643822666.666666 0.9755363890484204 -0.21983801682648976 -7.816220039825964e-17 4.422389699222663e-17 -7.816220039825964e-17 4.422389699222663e-17 0.9755365310157388 -0.21983738684221574
12644440000.0 0.9734464079286616 -0.22891502984867682 -7.772772105136776e-17 4.4948129165997404e-17 -7.772772105136776e-17 4.4948129165997404e-17 0.9734465557505381 -0.22891440124476717
12645057333.333334 0.9712719704175906 -0.23797218215784657 -7.728653779827908e-17 4.566810367602769e-17 -7.728653779827908e-17 4.566810367602769e-17 0.9712721240806281 -0.2379715549887014
12645674666.666666 0.9690132651698752 -0.24700868795379158 -7.683869226330651e-17 4.638375853040202e-17 -7.683869226330651e-17 4.638375853040202e-17 0.9690134246601729 -0.2470080622736817
12646292000.0 0.9666704881512541 -0.25602376322765624 -7.638422664339508e-17 4.709503214326684e-17 -7.638422664339508e-17 4.709503214326684e-17 0.9666706534544072 -0.2560231390907179
12646909333.333334 0.9642438426215707 -0.2650166258298196 -7.592318370419747e-17 4.7801863340068885e-17 -7.592318370419747e-17 4.7801863340068885e-17 0.9642440137226699 -0.26501600329004954
12647526666.666666 0.9617335391171221 -0.27398649553780974 -7.545560677604788e-17 4.8504191362839616e-17 -7.545560677604788e-17 4.8504191362839616e-17 0.9617337160007572 -0.2739858746490611
12648144000.0 0.959139795432341 -0.2829325941241877 -7.498153974992483e-17 4.920195587538284e-17 -7.498153974992483e-17 4.920195587538284e-17 0.9591399780826019 -0.282931974940165
12648761333.333334 0.9564628366009916 -0.2918541454237382 -7.450102707334747e-17 4.989509696845046e-17 -7.450102707334747e-17 4.989509696845046e-17 0.9564630250014686 -0.2918535279979928
12649378666.666666 0.9537028948765832 -0.30075037540102884 -7.401411374624204e-17 5.058355516485353e-17 -7.401411374624204e-17 5.058355516485353e-17 0.9537030890103714 -0.30074975978695484
12649996000.0 0.9508602097122474 -0.3096205122174842 -7.352084531673059e-17 5.126727142457718e-17 -7.352084531673059e-17 5.126727142457718e-17 0.9508604095619438 -0.30961989846831256
12650613333.333334 0.9479350277399126 -0.3184637862984848 -7.302126787690722e-17 5.1946187149804196e-17 -7.302126787690722e-17 5.1946187149804196e-17 0.947935233287622 -0.31846317446728023
12651230666.666666 0.9449276027490202 -0.3272794303998128 -7.251542805854722e-17 5.262024418992985e-17 -7.251542805854722e-17 5.262024418992985e-17 0.9449278139763538 -0.32727882053946794
12651848000.0 0.9418381956643386 -0.3360666796747024 -7.200337302877162e-17 5.328938484652985e-17 -7.200337302877162e-17 5.328938484652985e-17 0.9418384125524165 -0.33606607183793386
12652465333.333334 0.938667074523482 -0.3448247717397413 -7.148515048567181e-17 5.395355187828123e-17 -7.148515048567181e-17 5.395355187828123e-17 0.9386672970529355 -0.3448241659790851
12653082666.666666 0.9354145144535811 -0.3535529467412296 -7.096080865389905e-17 5.4612688505826156e-17 -7.096080865389905e-17 5.4612688505826156e-17 0.9354147426045549 -0.3535523431090367
12653700000.0 0.9320807976473956 -0.3622504474211589 -7.043039628016934e-17 5.52667384166459e-17 -7.043039628016934e-17 5.52667384166459e-17 0.9320810313995473 -0.3622498459695903
12654317333.333334 0.9286662133388871 -0.37091651918275176 -6.989396262878608e-17 5.5915645769811e-17 -6.989396262878608e-17 5.5915645769811e-17 0.9286664526713898 -0.37091591996377377
12654934666.666666 0.9251710577781066 -0.37955041015598373 -6.935155747705754e-17 5.65593552007661e-17 -6.935155747705754e-17 5.65593552007661e-17 0.925171302669653 -0.37954981322136455
12655552000.0 0.9215956342054075 -0.3881513712630273 -6.880323111070228e-17 5.719781182603074e-17 -6.880323111070228e-17 5.719781182603074e-17 0.9215958846342097 -0.3881507766643319
12656169333.333334 0.9179402528253191 -0.3967186562827943 -6.824903431922612e-17 5.783096124783839e-17 -6.824903431922612e-17 5.783096124783839e-17 0.9179405087691103 -0.3967180640713795
12656786666.666666 0.9142052307794346 -0.4052515219161505 -6.768901839120963e-17 5.845874955878763e-17 -6.768901839120963e-17 5.845874955878763e-17 0.9142054922154724 -0.40525093214316144
12657404000.0 0.9103908921190454 -0.4137492278500653 -6.712323510960198e-17 5.908112334638946e-17 -6.712323510960198e-17 5.908112334638946e-17 0.9103911590241124 -0.4137486405664302
12658021333.333334 0.9064975677769047 -0.4222110368220994 -6.655173674693499e-17 5.969802969761368e-17 -6.655173674693499e-17 5.969802969761368e-17 0.9064978401273125 -0.4222104520785261
12658638666.666666 0.9025255955386756 -0.4306362146840363 -6.597457606053478e-17 6.030941620334565e-17 -6.597457606053478e-17 6.030941620334565e-17 0.9025258733102646 -0.4306356325310068
12659256000.0 0.8984753200134055 -0.4390240304660392 -6.539180628763936e-17 6.09152309628551e-17 -6.539180628763936e-17 6.09152309628551e-17 0.8984756031815481 -0.4390234509538059
12659873333.333334 0.8943470926038326 -0.44737375643963273 -6.480348114053565e-17 6.151542258815248e-17 -6.480348114053565e-17 6.151542258815248e-17 0.894347381143437 -0.44737317961821477
12660490666.666666 0.8901412714758057 -0.4556846681810487 -6.420965480161413e-17 6.210994020834587e-17 -6.420965480161413e-17 6.210994020834587e-17 0.8901415653613152 -0.455684094100226
12661108000.0 0.885858221527178 -0.46395604463412454 -6.361038191839263e-17 6.269873347393759e-17 -6.361038191839263e-17 6.269873347393759e-17 0.8858585207325745 -0.4639554733434346
12661725333.333334 0.8814983143562279 -0.47218716817271195 -6.300571759851707e-17 6.328175256106053e-17 -6.300571759851707e-17 6.328175256106053e-17 0.8814986188550353 -0.4721865997214459
12662342666.666666 0.8770619282293817 -0.48037732466301447 -6.239571740470587e-17 6.385894817568096e-17 -6.239571740470587e-17 6.385894817568096e-17 0.8770622379946665 -0.4803767591002118
12662960000.0 0.8725494480483516 -0.4885258035256197 -6.178043734965698e-17 6.443027155775392e-17 -6.178043734965698e-17 6.443027155775392e-17 0.8725497630527265 -0.48852524090006477
12663577333.333334 0.8679612653168405 -0.4966318977969762 -6.115993389093496e-17 6.499567448531171e-17 -6.115993389093496e-17 6.499567448531171e-17 0.8679615855324653 -0.49663133815719335
12664194666.666666 0.8632977781064592 -0.504694904190926 -6.05342639257933e-17 6.555510927852932e-17 -6.05342639257933e-17 6.555510927852932e-17 0.8632981035050459 -0.5046943475851764
12664812000.0 0.8585593910223074 -0.5127141231595262 -5.99034847859897e-17 6.610852880371326e-17 -5.99034847859897e-17 6.610852880371326e-17 0.8585597215751204 -0.5127135696358034
12665429333.333334 0.8537465151677379 -0.520688858953963 -5.926765423253485e-17 6.665588647726732e-17 -5.926765423253485e-17 6.665588647726732e-17 0.8537468508455974 -0.5206883085599876
12666046666.666666 0.8488595681088812 -0.5286184196845968 -5.862683045043573e-17 6.719713626958182e-17 -5.862683045043573e-17 6.719713626958182e-17 0.8488599088821653 -0.5286178724678134
12666664000.0 0.8438989738381337 -0.5365021173814518 -5.798107204337272e-17 6.773223270889814e-17 -5.798107204337272e-17 6.773223270889814e-17 0.8438993196767821 -0.5365015733890257
12667281333.333334 0.8388651627377037 -0.5443392680533737 -5.733043802837092e-17 6.826113088509883e-17 -5.733043802837092e-17 6.826113088509883e-17 0.8388655136112182 -0.5443387273321846
12667898666.666666 0.8337585715419973 -0.5521291917478055 -5.66749878304196e-17 6.878378645346043e-17 -5.66749878304196e-17 6.878378645346043e-17 0.8337589274194473 -0.5521286543444456
12668516000.0 0.8285796432998495 -0.559871212609588 -5.601478127704558e-17 6.930015563836501e-17 -5.601478127704558e-17 6.930015563836501e-17 0.8285800041498732 -0.5598706785703569
12669133333.333334 0.8233288273361028 -0.5675646589395745 -5.5349878592902744e-17 6.981019523691971e-17 -5.5349878592902744e-17 6.981019523691971e-17 0.8233291931269088 -0.5675641283104751
12669750666.666666 0.8180065792125892 -0.5752088632529534 -5.468034039425929e-17 7.031386262258024e-17 -5.468034039425929e-17 7.031386262258024e-17 0.8180069499119624 -0.575208336079689
12670368000.0 0.8126133606885451 -0.5828031623372557 -5.400622768351182e-17 7.081111574867412e-17 -5.400622768351182e-17 7.081111574867412e-17 0.8126137362638458 -0.5828026386652246
