! Parameters = {f0=12700.012000; bw=77.238000; Q=6100.000000; N=10; m_0_1=1.211506; m_1_1=-0.592148; m_1_2=1.046318; m_2_2=-0.592797; m_2_3=0.683281; m_2_8=-0.002361; m_2_9=0.034343; m_3_3=-0.594734; m_3_4=0.571810; m_3_7=-0.001761; m_3_8=-0.098849; m_3_9=-0.002361; m_4_4=-0.597659; m_4_5=0.408145; m_4_6=0.001756; m_4_7=-0.119398; m_4_8=-0.001761; m_5_5=-0.597277; m_5_6=0.815500; m_5_7=0.001756; m_6_6=-0.597278; m_6_7=0.408487; m_7_7=-0.597645; m_7_8=0.571928; m_8_8=-0.594736; m_8_9=0.683594; m_9_9=-0.592802; m_9_10=1.047396; m_10_10=-0.592158; m_10_11=1.212301}
!
! Created with skrf (http://scikit-rf.org).
# Hz S RI R 50.0 
!freq ReS11 ImS11 ReS21 ImS21 ReS12 ImS12 ReS22 ImS22
12607400000.0 -0.02420938235520546 -0.9997069099520213 2.557094518113701e-17 7.922147294491336e-17 2.557094518113701e-17 7.922147294491336e-17 -0.024208744146259786 -0.9997069254069915
12608017333.333334 -0.032999481189016154 -0.9994553688089803 2.6268459119232445e-17 7.897574786404333e-17 2.6268459119232445e-17 7.897574786404333e-17 -0.032998843171895796 -0.9994553898744838
12608634666.666666 -0.04178702819997114 -0.9991265406714278 2.6963627014874975e-17 7.872388704538232e-17 2.6963627014874975e-17 7.872388704538232e-17 -0.041786390423992174 -0.9991265673452854
12609252000.0 -0.05057134385487998 -0.9987204509674117 2.765639494458614e-17 7.846591276181625e-17 2.765639494458614e-17 7.846591276181625e-17 -0.05057070636933505 -0.9987204832470126
12609869333.333334 -0.05935174887045943 -0.9982371310995488 2.8346709195301007e-17 7.820184775968539e-17 2.8346709195301007e-17 7.820184775968539e-17 -0.059351111724613805 -0.9982371689818466
12610486666.666666 -0.0681275642657198 -0.9976766184425988 2.903451626851019e-17 7.793171525680952e-17 2.903451626851019e-17 7.793171525680952e-17 -0.06812692750880782 -0.9976766619241171
12611104000.0 -0.07689811141478235 -0.9970389563405633 2.9719762884418506e-17 7.765553894046316e-17 2.9719762884418506e-17 7.765553894046316e-17 -0.07689747509600327 -0.9970390054173903
12611721333.333334 -0.0856627120989592 -0.9963241941033498 3.0402395986029785e-17 7.737334296533586e-17 3.0402395986029785e-17 7.737334296533586e-17 -0.08566207626747378 -0.996324248771144
12612338666.666666 -0.0944206885594837 -0.9955323870029507 3.108236274326529e-17 7.708515195143596e-17 3.108236274326529e-17 7.708515195143596e-17 -0.09442005326441004 -0.9955324472569369
12612956000.0 -0.10317136354991989 -0.9946635962691557 3.1759610557040483e-17 7.679099098196663e-17 3.1759610557040483e-17 7.679099098196663e-17 -0.10317072884032988 -0.9946636621041277
12613573333.333334 -0.11191406038827934 -0.9937178890848488 3.243408706330052e-17 7.649088560117604e-17 3.243408706330052e-17 7.649088560117604e-17 -0.11191342631319481 -0.9937179604951701
12614190666.666666 -0.12064810300963108 -0.9926953385807842 3.310574013708762e-17 7.618486181214966e-17 3.310574013708762e-17 7.618486181214966e-17 -0.12064746961801993 -0.9926954155603867
12614808000.0 -0.1293728160182394 -0.9915960238299416 3.377451789653372e-17 7.587294607459023e-17 3.377451789653372e-17 7.587294607459023e-17 -0.12937218335901207 -0.9915961063723283
12615425333.333334 -0.1380875247398205 -0.9904200298414144 3.444036870686726e-17 7.555516530254806e-17 3.444036870686726e-17 7.555516530254806e-17 -0.13808689286182585 -0.9904201179396581
12616042666.666666 -0.14679155527371401 -0.9891674475538328 3.5103241184385744e-17 7.523154686212188e-17 3.5103241184385744e-17 7.523154686212188e-17 -0.14679092422573553 -0.9891675412005762
12616660000.0 -0.1554842345449948 -0.9878383738283286 3.576308420040915e-17 7.490211856912378e-17 3.576308420040915e-17 7.490211856912378e-17 -0.1554836043757475 -0.987838473015789
12617277333.333334 -0.16416489035655016 -0.9864329114410477 3.641984688521391e-17 7.456690868670894e-17 3.641984688521391e-17 7.456690868670894e-17 -0.164164261114676 -0.9864330161610125
12617894666.666666 -0.17283285144091945 -0.9849511690752196 3.7073478631932236e-17 7.422594592297717e-17 3.7073478631932236e-17 7.422594592297717e-17 -0.17283222317498387 -0.9849512793190491
12618512000.0 -0.18148744751251072 -0.9833932613127027 3.772392910046268e-17 7.387925942852317e-17 3.772392910046268e-17 7.387925942852317e-17 -0.18148682027099933 -0.983393377071333
12619129333.333334 -0.19012800931904197 -0.9817593086251938 3.837114822130606e-17 7.352687879398008e-17 3.837114822130606e-17 7.352687879398008e-17 -0.1901273831503561 -0.981759429889134
12619746666.666666 -0.1987538686935729 -0.9800494373648593 3.9015086199428316e-17 7.316883404750272e-17 3.9015086199428316e-17 7.316883404750272e-17 -0.19875324364602628 -0.9800495641241941
12620364000.0 -0.20736435860617394 -0.9782637797545662 3.965569351807965e-17 7.280515565222872e-17 3.965569351807965e-17 7.280515565222872e-17 -0.2073637347279888 -0.9782639119989555
12620981333.333334 -0.2159588132152555 -0.9764024738777027 4.029292094257153e-17 7.24358745037163e-17 4.029292094257153e-17 7.24358745037163e-17 -0.21595819055455914 -0.9764026115963844
12621598666.666666 -0.22453656791933665 -0.9744656636674504 4.092671952406926e-17 7.206102192732762e-17 4.092671952406926e-17 7.206102192732762e-17 -0.22453594652415731 -0.9744658068492396
12622216000.0 -0.23309695940829808 -0.9724534988956781 4.1557040603329394e-17 7.168062967559588e-17 4.1557040603329394e-17 7.168062967559588e-17 -0.23309633932656143 -0.9724536475289685
12622833333.333334 -0.24163932571473049 -0.9703661351613475 4.218383581442556e-17 7.129472992555349e-17 4.218383581442556e-17 7.129472992555349e-17 -0.24163870699425635 -0.9703662892341135
12623450666.666666 -0.2501630062650143 -0.9682037338785104 4.2807057088447475e-17 7.090335527602886e-17 4.2807057088447475e-17 7.090335527602886e-17 -0.2501623889535123 -0.9682038933783061
12624068000.0 -0.25866734193053953 -0.9659664622637938 4.342665665717304e-17 7.050653874491194e-17 4.342665665717304e-17 7.050653874491194e-17 -0.25866672607560537 -0.9659666271777545
12624685333.333334 -0.26715167507870086 -0.9636544933234542 4.404258705672713e-17 7.010431376638017e-17 4.404258705672713e-17 7.010431376638017e-17 -0.26715106072781364 -0.9636546636382991
12625302666.666666 -0.2756153496234798 -0.9612680058400812 4.46548011311837e-17 6.969671418811375e-17 4.46548011311837e-17 6.969671418811375e-17 -0.27561473682399695 -0.9612681815421118
12625920000.0 -0.2840577110765885 -0.9588071843586535 4.5263252036193096e-17 6.928377426844532e-17 4.5263252036193096e-17 6.928377426844532e-17 -0.28405709987574324 -0.9588073654337566
12626537333.333334 -0.29247810659767104 -0.9562722191723866 4.5867893242526393e-17 6.886552867351604e-17 4.5867893242526393e-17 6.886552867351604e-17 -0.2924774970425684 -0.9562724056060351
12627154666.666666 -0.30087588504508794 -0.9536633063079311 4.646867853963311e-17 6.844201247437515e-17 4.646867853963311e-17 6.844201247437515e-17 -0.30087527718270113 -0.9536634980851854
12627772000.0 -0.309250397026131 -0.9509806475102528 4.7065562039171727e-17 6.801326114404762e-17 4.7065562039171727e-17 6.801326114404762e-17 -0.30924979090329774 -0.950980844615761
12628389333.333334 -0.3176009949472415 -0.9482244502270346 4.765849817847519e-17 6.757931055459895e-17 4.765849817847519e-17 6.757931055459895e-17 -0.3176003906106601 -0.9482246526450343
12629006666.666666 -0.32592703306419507 -0.9453949275925966 4.824744172404508e-17 6.714019697413002e-17 4.824744172404508e-17 6.714019697413002e-17 -0.32592643056042153 -0.9453951353069162
12629624000.0 -0.3342278675318751 -0.9424922984114698 4.8832347774968537e-17 6.669595706377732e-17 4.8832347774968537e-17 6.669595706377732e-17 -0.33422726690731897 -0.94249251140553
12630241333.333334 -0.3425028564541951 -0.9395167871414305 4.9413171766340265e-17 6.624662787466032e-17 4.9413171766340265e-17 6.624662787466032e-17 -0.34250225775511645 -0.939517005398246
12630858666.666666 -0.3507513599335763 -0.9364686238762016 4.9989869472633905e-17 6.579224684481579e-17 4.9989869472633905e-17 6.579224684481579e-17 -0.3507507632060812 -0.9364688473783802
12631476000.0 -0.35897274012072244 -0.9333480443275493 5.056239701107705e-17 6.533285179607853e-17 5.056239701107705e-17 6.533285179607853e-17 -0.35897214541076 -0.9333482730572955
12632093333.333334 -0.36716636126359786 -0.9301552898071853 5.1130710844953575e-17 6.486848093096808e-17 5.1130710844953575e-17 6.486848093096808e-17 -0.36716576861695754 -0.9301555237463026
12632710666.666666 -0.3753315897567515 -0.9268906072080503 5.169476778691033e-17 6.439917282951976e-17 5.169476778691033e-17 6.439917282951976e-17 -0.3753309992190583 -0.9268908463379404
12633328000.0 -0.3834677941904434 -0.9235542489851668 5.2254525002242766e-17 6.392496644608223e-17 5.2254525002242766e-17 6.392496644608223e-17 -0.3834672058071542 -0.9235544932868301
12633945333.333334 -0.39157434539923247 -0.9201464731362082 5.2809940012106914e-17 6.344590110612115e-17 5.2809940012106914e-17 6.344590110612115e-17 -0.39157375921563387 -0.9201467225902492
12634562666.666666 -0.3996506165107625 -0.9166675431814997 5.336097069674652e-17 6.29620165029601e-17 5.336097069674652e-17 6.29620165029601e-17 -0.3996500325719665 -0.9166677977681259
12635180000.0 -0.4076959829942121 -0.9131177281436509 5.3907575298670205e-17 6.247335269450981e-17 5.3907575298670205e-17 6.247335269450981e-17 -0.40769540134515236 -0.9131179878426745
12635797333.333334 -0.4157098227086129 -0.9094973025267388 5.4449712425804333e-17 6.197995009996544e-17 5.4449712425804333e-17 6.197995009996544e-17 -0.41570924339404186 -0.9094975673175787
12636414666.666666 -0.4236915159508565 -0.9058065462951269 5.498734105460699e-17 6.148184949648429e-17 5.498734105460699e-17 6.148184949648429e-17 -0.42369093901534177 -0.9058068161568106
12637032000.0 -0.4316404455037714 -0.9020457448517482 5.552042053316922e-17 6.097909201582122e-17 5.552042053316922e-17 6.097909201582122e-17 -0.43163987099169254 -0.9020460197629137
12637649333.333334 -0.43955599668374856 -0.8982151890160822 5.604891058426854e-17 6.047171914095311e-17 5.604891058426854e-17 6.047171914095311e-17 -0.4395554246392928 -0.898215468954978
12638266666.666666 -0.4474375573882986 -0.8943151750016507 5.65727713083999e-17 5.99597727026688e-17 5.65727713083999e-17 5.99597727026688e-17 -0.44743698785545843 -0.8943154599461391
12638884000.0 -0.4552845181433862 -0.8903460043931148 5.709196318677434e-17 5.944329487613456e-17 5.709196318677434e-17 5.944329487613456e-17 -0.45528395116595566 -0.8903462943206736
12639501333.333334 -0.46309627215058585 -0.8863079841229405 5.760644708428831e-17 5.892232817743269e-17 5.760644708428831e-17 5.892232817743269e-17 -0.463095707772157 -0.8863082790106643
12640118666.666666 -0.47087221533385276 -0.8822014264477415 5.811618425244933e-17 5.839691546008535e-17 5.811618425244933e-17 5.839691546008535e-17 -0.4708716535978123 -0.882201726272343
12640736000.0 -0.47861174638663884 -0.8780266489239218 5.862113633230687e-17 5.786709991151696e-17 5.862113633230687e-17 5.786709991151696e-17 -0.4786111873361652 -0.8780269536617348
12641353333.333334 -0.4863142668177883 -0.8737839743834389 5.91212653572856e-17 5.73329250495587e-17 5.91212653572856e-17 5.73329250495587e-17 -0.4863137104958476 -0.8737842840104192
12641970666.666666 -0.49397918099834404 -0.869473730908557 5.961653375605997e-17 5.679443471885242e-17 5.961653375605997e-17 5.679443471885242e-17 -0.49397862744768806 -0.8694740454002857
12642588000.0 -0.5016058962073588 -0.865096251806614 6.01069043553447e-17 5.625167308728441e-17 6.01069043553447e-17 5.625167308728441e-17 -0.5016053454705202 -0.8650965711382977
12643205333.333334 -0.5091938226777535 -0.860651875584232 6.059234038267843e-17 5.570468464236774e-17 6.059234038267843e-17 5.570468464236774e-17 -0.5091932747970433 -0.8606521997307058
12643822666.666666 -0.5167423736420218 -0.8561409459210848 6.107280546916346e-17 5.515351418761278e-17 6.107280546916346e-17 5.515351418761278e-17 -0.5167418286595261 -0.8561412748568132
12644440000.0 -0.5242509653774807 -0.8515638116433899 6.154826365217435e-17 5.459820683887271e-17 6.154826365217435e-17 5.459820683887271e-17 -0.5242504233350578 -0.8515641453424705
12645057333.333334 -0.5317190172514374 -0.8469208266969264 6.201867937803521e-17 5.4038808020664127e-17 6.201867937803521e-17 5.4038808020664127e-17 -0.5317184781907136 -0.8469211651330908
12645674666.666666 -0.5391459517660858 -0.8422123501196602 6.248401750466345e-17 5.347536346246463e-17 6.248401750466345e-17 5.347536346246463e-17 -0.5391454157284528 -0.8422126932662757
12646292000.0 -0.5465311946033344 -0.8374387460138756 6.294424330419038e-17 5.290791919497517e-17 6.294424330419038e-17 5.290791919497517e-17 -0.5465306616299463 -0.8374390938439485
12646909333.333334 -0.5538741746688802 -0.832600383518232 6.339932246551854e-17 5.233652154639616e-17 6.339932246551854e-17 5.233652154639616e-17 -0.5538736448006502 -0.8326007360044086
12647526666.666666 -0.5611743241367312 -0.8276976367789891 6.384922109687956e-17 5.176121713864037e-17 6.384922109687956e-17 5.176121713864037e-17 -0.5611737974143283 -0.8276979938935591
12648144000.0 -0.5684310784928287 -0.8227308849212607 6.429390572834073e-17 5.118205288354326e-17 6.429390572834073e-17 5.118205288354326e-17 -0.5684305549566747 -0.8227312466361579
12648761333.333334 -0.5756438765789373 -0.8177005120195372 6.473334331427419e-17 5.059907597905834e-17 6.473334331427419e-17 5.059907597905834e-17 -0.5756433562692045 -0.8177008783063437
12649378666.666666 -0.5828121606357826 -0.8126069070681663 6.516750123579692e-17 5.001233390542377e-17 6.516750123579692e-17 5.001233390542377e-17 -0.5828116435923882 -0.8126072778981115
12649996000.0 -0.5899353763464122 -0.8074504639511063 6.559634730318309e-17 4.942187442129872e-17 6.559634730318309e-17 4.942187442129872e-17 -0.5899348626090187 -0.8074508392950731
12650613333.333334 -0.5970129728789718 -0.8022315814115357 6.60198497582308e-17 4.882774555989452e-17 6.60198497582308e-17 4.882774555989452e-17 -0.5970124624869807 -0.8022319612400589
12651230666.666666 -0.6040444029292036 -0.7969506630210821 6.643797727659217e-17 4.8229995625087413e-17 6.643797727659217e-17 4.8229995625087413e-17 -0.6040438959217552 -0.7969510473043545
12651848000.0 -0.6110291227630034 -0.7916081171484511 6.685069897008766e-17 4.762867318748502e-17 6.685069897008766e-17 4.762867318748502e-17 -0.6110286191789716 -0.7916085058563226
12652465333.333334 -0.6179665922582555 -0.7862043569279937 6.725798438895766e-17 4.702382708051123e-17 6.725798438895766e-17 4.702382708051123e-17 -0.6179660921362463 -0.7862047500299758
12653082666.666666 -0.6248562749466067 -0.7807398002277657 6.765980352409836e-17 4.641550639644565e-17 6.765980352409836e-17 4.641550639644565e-17 -0.624855778324954 -0.7807401976930327
12653700000.0 -0.6316976380551709 -0.7752148696170365 6.805612680926061e-17 4.580376048244335e-17 6.805612680926061e-17 4.580376048244335e-17 -0.6316971449719347 -0.7752152714144286
12654317333.333334 -0.6384901525474176 -0.7696299923338595 6.844692512319584e-17 4.518863893656385e-17 6.844692512319584e-17 4.518863893656385e-17 -0.6384896630403805 -0.7696303984318849
12654934666.666666 -0.6452332931643027 -0.7639856002518566 6.883216979179015e-17 4.457019160374471e-17 6.883216979179015e-17 4.457019160374471e-17 -0.6452328072709671 -0.7639860106186939
12655552000.0 -0.6519265384648868 -0.758282129846821 6.921183259015092e-17 4.394846857177471e-17 6.921183259015092e-17 4.394846857177471e-17 -0.6519260562224719 -0.7582825444503221
12656169333.333334 -0.6585693708664598 -0.7525200221631289 6.958588574464545e-17 4.3323520167267134e-17 6.958588574464545e-17 4.3323520167267134e-17 -0.658568892311899 -0.7525204409708207
12656786666.666666 -0.6651612766847841 -0.7466997227794502 6.995430193492785e-17 4.269539695157863e-17 6.995430193492785e-17 4.269539695157863e-17 -0.6651608018547223 -0.7467001457585387
12657404000.0 -0.6717017461737095 -0.7408216817743869 7.031705429590992e-17 4.206414971674049e-17 7.031705429590992e-17 4.206414971674049e-17 -0.6717012751044988 -0.7408221088917574
12658021333.333334 -0.6781902735646295 -0.7348863536916256 7.067411641970415e-17 4.1429829481359363e-17 7.067411641970415e-17 4.1429829481359363e-17 -0.6781898062923297 -0.7348867849138481
12658638666.666666 -0.6846263571054948 -0.7288941975048921 7.10254623575225e-17 4.079248748651645e-17 7.10254623575225e-17 4.079248748651645e-17 -0.6846258936658667 -0.7288946327982211
12659256000.0 -0.6910094990998146 -0.7228456765822585 7.137106662155415e-17 4.015217519161949e-17 7.137106662155415e-17 4.015217519161949e-17 -0.6910090395283207 -0.7228461159126386
12659873333.333334 -0.6973392059449615 -0.7167412586504923 7.171090418678555e-17 3.9508944270278295e-17 7.171090418678555e-17 3.9508944270278295e-17 -0.6973387502767601 -0.7167417019835572
12660490666.666666 -0.7036149881703367 -0.7105814157588821 7.204495049279333e-17 3.886284660614671e-17 7.204495049279333e-17 3.886284660614671e-17 -0.7036145364402829 -0.7105818630599617
12661108000.0 -0.7098363604754306 -0.7043666242425427 7.237318144551042e-17 3.821393428872884e-17 7.237318144551042e-17 3.821393428872884e-17 -0.7098359127180697 -0.7043670754766613
12661725333.333334 -0.7160028417670605 -0.6980973646858538 7.269557341892791e-17 3.756225960922229e-17 7.269557341892791e-17 3.756225960922229e-17 -0.7160023980166283 -0.6980978198177369
12662342666.666666 -0.7221139551967997 -0.6917741218850813 7.301210325679157e-17 3.6907875056285194e-17 7.301210325679157e-17 3.6907875056285194e-17 -0.7221135154872188 -0.6917745808791551
12662960000.0 -0.7281692281977487 -0.6853973848109848 7.33227482742327e-17 3.625083331184309e-17 7.33227482742327e-17 3.625083331184309e-17 -0.7281687925626253 -0.6853978476313807
12663577333.333334 -0.7341681925210978 -0.6789676465709878 7.362748625937823e-17 3.5591187246848907e-17 7.362748625937823e-17 3.5591187246848907e-17 -0.734167760993721 -0.6789681131815455
12664194666.666666 -0.7401103842723395 -0.6724854043710468 7.392629547491714e-17 3.4928989917042597e-17 7.392629547491714e-17 3.4928989917042597e-17 -0.7401099568856764 -0.6724858747353157
12664812000.0 -0.7459953439471393 -0.6659511594772023 7.421915465962902e-17 3.426429455869525e-17 7.421915465962902e-17 3.426429455869525e-17 -0.7459949207338338 -0.6659516335584451
12665429333.333334 -0.7518226164668854 -0.659365417176793 7.450604302987582e-17 3.3597154584338725e-17 7.450604302987582e-17 3.3597154584338725e-17 -0.7518221974592566 -0.6593658949379896
12666046666.666666 -0.7575917512137905 -0.6527286867394928 7.478694028105008e-17 3.2927623578495935e-17 7.478694028105008e-17 3.2927623578495935e-17 -0.7575913364438269 -0.6527291681433403
12666664000.0 -0.7633023020659192 -0.6460414813777118 7.50618265889992e-17 3.225575529336499e-17 7.50618265889992e-17 3.225575529336499e-17 -0.7633018915652809 -0.6460419663866311
12667281333.333334 -0.7689538274315053 -0.6393043182071279 7.533068261138846e-17 3.158160364454516e-17 7.533068261138846e-17 3.158160364454516e-17 -0.7689534212315174 -0.6393048067832634
12667898666.666666 -0.7745458902831683 -0.6325177182066086 7.559348948904759e-17 3.090522270670048e-17 7.559348948904759e-17 3.090522270670048e-17 -0.7745454884148221 -0.632518210311834
12668516000.0 -0.7800780581917873 -0.6256822061778422 7.585022884726912e-17 3.022666670923362e-17 7.585022884726912e-17 3.022666670923362e-17 -0.7800776606857346 -0.625682701773761
12669133333.333334 -0.7855499033597534 -0.6187983107049692 7.610088279706083e-17 2.9545990031968886e-17 7.610088279706083e-17 2.9545990031968886e-17 -0.7855495102463063 -0.6187988097529189
12669750666.666666 -0.790961002654235 -0.6118665641134905 7.634543393637558e-17 2.8863247200784026e-17 7.634543393637558e-17 2.8863247200784026e-17 -0.7909606139633635 -0.611867066574546
12670368000.0 -0.7963109376398247 -0.6048875024291908 7.65838653512902e-17 2.8178492883262354e-17 7.65838653512902e-17 2.8178492883262354e-17 -0.7963105534011531 -0.6048880082641662
