! Parameters = {f0=12700.012000; bw=77.238000; Q=6100.000000; N=10; m_0_1=1.180676; m_1_1=-1.054611; m_1_2=1.015488; m_2_2=-1.055260; m_2_3=0.652451; m_2_8=-0.003903; m_2_9=0.032801; m_3_3=-1.057197; m_3_4=0.540980; m_3_7=-0.003303; m_3_8=-0.100391; m_3_9=-0.003903; m_4_4=-1.060122; m_4_5=0.377315; m_4_6=0.000214; m_4_7=-0.120940; m_4_8=-0.003303; m_5_5=-1.059740; m_5_6=0.784670; m_5_7=0.000214; m_6_6=-1.059741; m_6_7=0.377657; m_7_7=-1.060108; m_7_8=0.541098; m_8_8=-1.057199; m_8_9=0.652764; m_9_9=-1.055265; m_9_10=1.016566; m_10_10=-1.054621; m_10_11=1.181471}
!
! Created with skrf (http://scikit-rf.org).
# Hz S RI R 50.0 
!freq ReS11 ImS11 ReS21 ImS21 ReS12 ImS12 ReS22 ImS22
12607400000.0 -0.24519917524805793 -0.9694727249683301 3.6322940737667264e-17 6.11862132933239e-17 3.6322940737667264e-17 6.11862132933239e-17 -0.24519857203926726 -0.9694728775317807
12608017333.333334 -0.25283313942933633 -0.9675098984538367 3.680228524169769e-17 6.088281564007349e-17 3.680228524169769e-17 6.088281564007349e-17 -0.2528325374713012 -0.9675100557594587
12608634666.666666 -0.26045139506098636 -0.9654869604560351 3.7279103111444553e-17 6.057566757939543e-17 3.7279103111444553e-17 6.057566757939543e-17 -0.26045079439098207 -0.9654871224935905
12609252000.0 -0.2680534688200604 -0.96340403666031 3.7753365042905e-17 6.026479009457791e-17 3.7753365042905e-17 6.026479009457791e-17 -0.26805286947527884 -0.9634042034192689
12609869333.333334 -0.27563888838902006 -0.9612612564789615 3.8225041905895484e-17 5.995020439755862e-17 3.8225041905895484e-17 5.995020439755862e-17 -0.27563829040656695 -0.9612614279485016
12610486666.666666 -0.283207182484945 -0.9590587530432043 3.869410474582504e-17 5.963193192749426e-17 3.869410474582504e-17 5.963193192749426e-17 -0.28320658590183756 -0.9590589292122107
12611104000.0 -0.29075788088911336 -0.9567966631948084 3.9160524785483213e-17 5.930999434929758e-17 3.9160524785483213e-17 5.930999434929758e-17 -0.2907572857422787 -0.956796844051876
12611721333.333334 -0.2982905144758357 -0.9544751274777094 3.9624273426774485e-17 5.898441355218939e-17 3.9624273426774485e-17 5.898441355218939e-17 -0.2982899208021078 -0.9544753130111433
12612338666.666666 -0.30580461524187325 -0.9520942901291959 4.008532225248073e-17 5.865521164820938e-17 4.008532225248073e-17 5.865521164820938e-17 -0.30580402307799115 -0.9520944803270117
12612956000.0 -0.3132997163355156 -0.9496542990709471 4.054364302799449e-17 5.832241097072484e-17 4.054364302799449e-17 5.832241097072484e-17 -0.31329912571812124 -0.9496544939208724
12613573333.333334 -0.3207753520853424 -0.9471553058999209 4.0999207703025484e-17 5.798603407293641e-17 4.0999207703025484e-17 5.798603407293641e-17 -0.320774763050977 -0.9471555053893933
12614190666.666666 -0.32823105802942437 -0.944597465878843 4.1451988413325875e-17 5.764610372634815e-17 4.1451988413325875e-17 5.764610372634815e-17 -0.3282304706145284 -0.9445976699950155
12614808000.0 -0.33566637094404816 -0.9419809379266122 4.190195748237857e-17 5.730264291924234e-17 4.190195748237857e-17 5.730264291924234e-17 -0.33566578518495727 -0.9419811466563506
12615425333.333334 -0.3430808288725213 -0.9393058846084124 4.234908742308255e-17 5.695567485513354e-17 4.234908742308255e-17 5.695567485513354e-17 -0.3430802448054649 -0.939306097938297
12616042666.666666 -0.35047397115390067 -0.9365724721256028 4.279335093942395e-17 5.660522295121104e-17 4.279335093942395e-17 5.660522295121104e-17 -0.35047338881499945 -0.9365726900419302
12616660000.0 -0.3578453384515073 -0.933780870305434 4.323472092813461e-17 5.625131083676849e-17 4.323472092813461e-17 5.625131083676849e-17 -0.35784475787677145 -0.9337810927942172
12617277333.333334 -0.36519447278162487 -0.930931252590436 4.3673170480338797e-17 5.58939623516189e-17 4.3673170480338797e-17 5.58939623516189e-17 -0.36519389400695096 -0.9309314796374044
12617894666.666666 -0.3725209175418473 -0.9280237960276809 4.410867288317824e-17 5.553320154450546e-17 4.410867288317824e-17 5.553320154450546e-17 -0.3725203406030168 -0.9280240276182832
12618512000.0 -0.37982421753950085 -0.925058681257764 4.4541201621448326e-17 5.5169052671478124e-17 4.4541201621448326e-17 5.5169052671478124e-17 -0.37982364247217726 -0.9250589173771663
12619129333.333334 -0.38710391901981933 -0.9220360925036211 4.4970730379182676e-17 5.4801540194290566e-17 4.4970730379182676e-17 5.4801540194290566e-17 -0.3871033458595467 -0.922036333136711
12619746666.666666 -0.3943595696942677 -0.9189562175590298 4.539723304126173e-17 5.443068877875372e-17 4.539723304126173e-17 5.443068877875372e-17 -0.39435899847646877 -0.918956462690417
12620364000.0 -0.4015907187686704 -0.9158192477769342 4.5820683694991963e-17 5.405652329308928e-17 4.5820683694991963e-17 5.405652329308928e-17 -0.40159014952864286 -0.9158194973909485
12620981333.333334 -0.40879691697098114 -0.91262537805765 4.624105663165855e-17 5.3679068806283813e-17 4.624105663165855e-17 5.3679068806283813e-17 -0.40879634974389656 -0.9126256321383448
12621598666.666666 -0.415977716579459 -0.9093748068366463 4.665832634809291e-17 5.329835058640484e-17 4.665832634809291e-17 5.329835058640484e-17 -0.41597715140036057 -0.9093750653677992
12622216000.0 -0.4231326714503544 -0.906067736072273 4.7072467548204066e-17 5.2914394098925305e-17 4.7072467548204066e-17 5.2914394098925305e-17 -0.4231321083541549 -0.9060679990373873
12622833333.333334 -0.4302613370456811 -0.9027043712331911 4.7483455144506866e-17 5.252722500502677e-17 4.7483455144506866e-17 5.252722500502677e-17 -0.43026077606715996 -0.9027046386154954
12623450666.666666 -0.43736327046073065 -0.8992849212856526 4.789126425962725e-17 5.2136869159898855e-17 4.789126425962725e-17 5.2136869159898855e-17 -0.4373627116345329 -0.8992851930681033
12624068000.0 -0.44443803045172 -0.8958095986804584 4.8295870227807025e-17 5.1743352611014766e-17 4.8295870227807025e-17 5.1743352611014766e-17 -0.4444374738123533 -0.8958098748457403
12624685333.333334 -0.45148517746323047 -0.8922786193397454 4.869724859638863e-17 5.134670159640081e-17 4.869724859638863e-17 5.134670159640081e-17 -0.4514846230450636 -0.8922788998702726
12625302666.666666 -0.4585042736552635 -0.8886922026436975 4.909537512726998e-17 5.0946942542909876e-17 4.909537512726998e-17 5.0946942542909876e-17 -0.4585037214925233 -0.8886924875216143
12625920000.0 -0.46549488293082325 -0.8850505714167226 4.949022579838089e-17 5.0544102064448285e-17 4.949022579838089e-17 5.0544102064448285e-17 -0.4654943330575929 -0.8850508606239044
12626537333.333334 -0.4724565709626576 -0.8813539519137901 4.988177680510417e-17 5.013820696023294e-17 4.988177680510417e-17 5.013820696023294e-17 -0.47245602341287596 -0.881354245431847
12627154666.666666 -0.4793889052203957 -0.8776025738062978 5.027000456171025e-17 4.9729284213008315e-17 5.027000456171025e-17 4.9729284213008315e-17 -0.4793883600278529 -0.8776028716165725
12627772000.0 -0.48629145499756965 -0.8737966701677188 5.065488570277773e-17 4.9317360987253057e-17 5.065488570277773e-17 4.9317360987253057e-17 -0.4862909121959066 -0.8737969722512895
12628389333.333334 -0.4931637914380265 -0.8699364774593131 5.1036397084571187e-17 4.89024646274041e-17 5.1036397084571187e-17 4.89024646274041e-17 -0.4931632510607318 -0.8699367837969942
12629006666.666666 -0.5000054875629437 -0.8660222355152266 5.14145157864447e-17 4.8484622656028294e-17 5.14145157864447e-17 4.8484622656028294e-17 -0.5000049496433522 -0.8660225460875699
12629624000.0 -0.5068161182970867 -0.8620541875277457 5.178921911219494e-17 4.8063862772021396e-17 5.178921911219494e-17 4.8063862772021396e-17 -0.5068155828683776 -0.8620545023150424
12630241333.333334 -0.5135952604953662 -0.8580325800321021 5.216048459142252e-17 4.7640212848771363e-17 5.216048459142252e-17 4.7640212848771363e-17 -0.5135947275905602 -0.858032899014383
12630858666.666666 -0.5203424929689814 -0.8539576628912426 5.25282899808626e-17 4.7213700932329387e-17 5.25282899808626e-17 4.7213700932329387e-17 -0.5203419626209402 -0.8539579860482812
12631476000.0 -0.5270573965118578 -0.8498296892801469 5.2892613265722665e-17 4.6784355239544853e-17 5.2892613265722665e-17 4.6784355239544853e-17 -0.5270568687532802 -0.8498300165914573
12632093333.333334 -0.5337395539263734 -0.8456489156702814 5.325343266097421e-17 4.6352204156226784e-17 5.325343266097421e-17 4.6352204156226784e-17 -0.5337390287897945 -0.8456492471151236
12632710666.666666 -0.5403885500494299 -0.8414156018135885 5.361072661265399e-17 4.591727623526633e-17 5.361072661265399e-17 4.591727623526633e-17 -0.5403880275672179 -0.8414159373709652
12633328000.0 -0.5470039717783851 -0.8371300107262427 5.3964473799148384e-17 4.547960019475052e-17 5.3964473799148384e-17 4.547960019475052e-17 -0.5470034519827417 -0.837130350374906
12633945333.333334 -0.5535854080964124 -0.8327924086725199 5.431465313244503e-17 4.5039204916088294e-17 5.431465313244503e-17 4.5039204916088294e-17 -0.5535848910193676 -0.8327927523909675
12634562666.666666 -0.5601324500982959 -0.8284030651480764 5.46612437593869e-17 4.459611944210509e-17 5.46612437593869e-17 4.459611944210509e-17 -0.5601319357717092 -0.8284034129145573
12635180000.0 -0.5666446910157205 -0.8239622528632888 5.500422506290316e-17 4.415037297513714e-17 5.500422506290316e-17 4.415037297513714e-17 -0.5666441794712763 -0.8239626046558014
12635797333.333334 -0.5731217262425891 -0.8194702477262757 5.534357666322715e-17 4.3701994875113315e-17 5.534357666322715e-17 4.3701994875113315e-17 -0.5731212175117959 -0.8194706035225701
12636414666.666666 -0.5795631533600668 -0.8149273288258184 5.567927841909292e-17 4.3251014657635725e-17 5.567927841909292e-17 4.3251014657635725e-17 -0.5795626474742561 -0.8149276886033995
12637032000.0 -0.5859685721617265 -0.8103337784139295 5.601131042892809e-17 4.279746199203526e-17 5.601131042892809e-17 4.279746199203526e-17 -0.5859680691520494 -0.8103341421500561
12637649333.333334 -0.5923375846783173 -0.8056898818883759 5.633965303201893e-17 4.2341366699433935e-17 5.633965303201893e-17 4.2341366699433935e-17 -0.5923370845757434 -0.8056902495600634
12638266666.666666 -0.5986697952025148 -0.8009959277749332 5.666428680966574e-17 4.1882758750790456e-17 5.666428680966574e-17 4.1882758750790456e-17 -0.5986692980378299 -0.8009962993589548
12638884000.0 -0.6049648103135074 -0.796252207709461 5.698519258632137e-17 4.1421668264938746e-17 5.698519258632137e-17 4.1421668264938746e-17 -0.6049643161173113 -0.7962525831823484
12639501333.333334 -0.6112222389014591 -0.791459016419761 5.730235143071477e-17 4.0958125506616016e-17 5.730235143071477e-17 4.0958125506616016e-17 -0.6112217477041653 -0.7914593957578075
12640118666.666666 -0.6174416921916784 -0.7866166517073767 5.76157446569509e-17 4.04921608844941e-17 5.76157446569509e-17 4.04921608844941e-17 -0.6174412040235104 -0.7866170348866377
12640736000.0 -0.6236227837691289 -0.7817254144288069 5.792535382561918e-17 4.0023804949165834e-17 5.792535382561918e-17 4.0023804949165834e-17 -0.6236222986601192 -0.7817258014251013
12641353333.333334 -0.6297651296019009 -0.7767856084772357 5.82311607448412e-17 3.95530883911896e-17 5.82311607448412e-17 3.95530883911896e-17 -0.629764647581889 -0.7767859992661474
12641970666.666666 -0.6358683480655408 -0.7717975407632813 5.853314747135249e-17 3.908004203905115e-17 5.853314747135249e-17 3.908004203905115e-17 -0.6358678691641715 -0.7717979353201617
12642588000.0 -0.6419320599665373 -0.7667615211961056 5.883129631153352e-17 3.860469685716869e-17 5.883129631153352e-17 3.860469685716869e-17 -0.6419315842132589 -0.766761919496074
12643205333.333334 -0.6479558885659064 -0.7616778626641424 5.912558982243682e-17 3.8127083943872284e-17 5.912558982243682e-17 3.8127083943872284e-17 -0.6479554159899676 -0.761678264682087
12643822666.666666 -0.6539394596026801 -0.7565468810155805 5.94160108128009e-17 3.764723452937003e-17 5.94160108128009e-17 3.764723452937003e-17 -0.653938990233132 -0.7565472867261636
12644440000.0 -0.6598824013170562 -0.7513688950388377 5.970254234403797e-17 3.7165179973722e-17 5.970254234403797e-17 3.7165179973722e-17 -0.659881935182745 -0.7513693044164921
12645057333.333334 -0.6657843444735134 -0.7461442264427308 5.998516773121205e-17 3.6680951764796785e-17 5.998516773121205e-17 3.6680951764796785e-17 -0.6657838816030837 -0.7461446394616658
12645674666.666666 -0.6716449223837566 -0.7408731998364944 6.02638705439993e-17 3.619458151622218e-17 6.02638705439993e-17 3.619458151622218e-17 -0.6716444628056453 -0.7408736164706934
12646292000.0 -0.6774637709296424 -0.7355561427094726 6.053863460763878e-17 3.570610096531666e-17 6.053863460763878e-17 3.570610096531666e-17 -0.6774633146720804 -0.7355565629326989
12646909333.333334 -0.6832405285855299 -0.7301933854110245 6.080944400384669e-17 3.52155419710484e-17 6.080944400384669e-17 3.52155419710484e-17 -0.6832400756765402 -0.7301938091968213
12647526666.666666 -0.6889748364409563 -0.72478526112981 6.107628307173672e-17 3.472293651194749e-17 6.107628307173672e-17 3.472293651194749e-17 -0.688974386908348 -0.7247856884514993
12648144000.0 -0.6946663382229057 -0.7193321058730999 6.133913640871318e-17 3.42283166840306e-17 6.133913640871318e-17 3.42283166840306e-17 -0.6946658920942785 -0.7193325367037894
12648761333.333334 -0.7003146803178691 -0.7138342584459848 6.159798887134385e-17 3.3731714698723945e-17 6.159798887134385e-17 3.3731714698723945e-17 -0.7003142376206073 -0.7138346927585653
12649378666.666666 -0.7059195117938135 -0.7082920604303229 6.185282557622072e-17 3.3233162880773215e-17 6.185282557622072e-17 3.3233162880773215e-17 -0.7059190725550853 -0.7082924981974722
12649996000.0 -0.7114804844220849 -0.702705856163419 6.210363190080802e-17 3.27326936661379e-17 6.210363190080802e-17 3.27326936661379e-17 -0.7114800486688414 -0.7027062973576024
12650613333.333334 -0.7169972526989844 -0.6970759927166889 6.23503934842659e-17 3.2230339599893615e-17 6.23503934842659e-17 3.2230339599893615e-17 -0.7169968204579572 -0.6970764373101614
12651230666.666666 -0.7224694738671738 -0.6914028198741576 6.259309622825677e-17 3.172613333413029e-17 6.259309622825677e-17 3.172613333413029e-17 -0.7224690451648745 -0.6914032678389671
12651848000.0 -0.7278968079370922 -0.6856866901106068 6.283172629774652e-17 3.122010762581916e-17 6.283172629774652e-17 3.122010762581916e-17 -0.7278963827998091 -0.6856871414185929
12652465333.333334 -0.7332789177080175 -0.6799279585697338 6.306627012177255e-17 3.071229533470806e-17 6.306627012177255e-17 3.071229533470806e-17 -0.7332784961618154 -0.6799284131925319
12653082666.666666 -0.7386154687889411 -0.6741269830421716 6.329671439420244e-17 3.0202729421194996e-17 6.329671439420244e-17 3.0202729421194996e-17 -0.7386150508596587 -0.6741274409512138
12653700000.0 -0.7439061296195553 -0.6682841239430288 6.352304607448349e-17 2.969144294417775e-17 6.352304607448349e-17 2.969144294417775e-17 -0.7439057153328038 -0.6682845851095454
12654317333.333334 -0.7491505714905837 -0.6623997442897909 6.374525238835595e-17 2.9178469058941934e-17 6.374525238835595e-17 2.9178469058941934e-17 -0.7491501608717465 -0.6624002086848132
12654934666.666666 -0.754348468564397 -0.6564742096795559 6.396332082856792e-17 2.866384101499985e-17 6.396332082856792e-17 2.866384101499985e-17 -0.7543480616386268 -0.6564746772739177
12655552000.0 -0.7594994978952543 -0.6505078882663184 6.417723915556554e-17 2.814759215394261e-17 6.417723915556554e-17 2.814759215394261e-17 -0.7594990946874718 -0.6505083590306572
12656169333.333334 -0.764603339449201 -0.6445011507382891 6.43869953981584e-17 2.762975590730355e-17 6.43869953981584e-17 2.762975590730355e-17 -0.7646029399840935 -0.644501624643048
12656786666.666666 -0.7696596761241373 -0.6384543702946481 6.459257785418282e-17 2.7110365794382152e-17 6.459257785418282e-17 2.7110365794382152e-17 -0.7696592804261579 -0.6384548473100794
12657404000.0 -0.7746681937694304 -0.6323679226224691 6.479397509113588e-17 2.658945542009056e-17 6.479397509113588e-17 2.658945542009056e-17 -0.7746678018627943 -0.6323684027186327
12658021333.333334 -0.7796285812054636 -0.6262421858733292 6.499117594679777e-17 2.6067058472782806e-17 6.499117594679777e-17 2.6067058472782806e-17 -0.7796281931141484 -0.6262426690200976
12658638666.666666 -0.7845405302428845 -0.6200775406399284 6.518416952983134e-17 2.5543208722092468e-17 6.518416952983134e-17 2.5543208722092468e-17 -0.7845401459906306 -0.6200780268069884
12659256000.0 -0.7894037357019321 -0.6138743699322219 6.537294522037508e-17 2.501794001673811e-17 6.537294522037508e-17 2.501794001673811e-17 -0.7894033553122364 -0.6138748590890742
12659873333.333334 -0.7942178954312327 -0.607633059153821 6.555749267060516e-17 2.449128628236001e-17 6.555749267060516e-17 2.449128628236001e-17 -0.7942175189273517 -0.6076335512697846
12660490666.666666 -0.7989827103265799 -0.6013539960780517 6.573780180528656e-17 2.3963281519336055e-17 6.573780180528656e-17 2.3963281519336055e-17 -0.7989823377315245 -0.6013544911222632
12661108000.0 -0.8036978843496845 -0.5950375708236331 6.591386282231273e-17 2.34339598005749e-17 6.591386282231273e-17 2.34339598005749e-17 -0.8036975156862222 -0.5950380687650516
12661725333.333334 -0.8083631245463317 -0.5886841758307593 6.608566619321264e-17 2.2903355269350587e-17 6.608566619321264e-17 2.2903355269350587e-17 -0.8083627598369837 -0.5886846766381671
12662342666.666666 -0.8129781410647685 -0.5822942058364665 6.625320266365588e-17 2.2371502137086418e-17 6.625320266365588e-17 2.2371502137086418e-17 -0.8129777803318069 -0.5822947094784703
12662960000.0 -0.8175426471736273 -0.5758680578502214 6.641646325393039e-17 2.1838434681165606e-17 6.641646325393039e-17 2.1838434681165606e-17 -0.8175422904390759 -0.5758685642952549
12663577333.333334 -0.8220563592797573 -0.5694061311292319 6.657543925940579e-17 2.130418724272706e-17 6.657543925940579e-17 2.130418724272706e-17 -0.8220560065653885 -0.5694066403455575
12664194666.666666 -0.8265189969458432 -0.562908827153641 6.673012225097898e-17 2.0768794224460168e-17 6.673012225097898e-17 2.0768794224460168e-17 -0.8265186482731779 -0.5629093391093523
12664812000.0 -0.8309302829078296 -0.556376549601583 6.688050407550194e-17 2.023229008839631e-17 6.688050407550194e-17 2.023229008839631e-17 -0.8309299382981369 -0.5563770642646073
12665429333.333334 -0.8352899430921661 -0.5498097043240816 6.702657685619236e-17 1.9694709353695698e-17 6.702657685619236e-17 1.9694709353695698e-17 -0.835289602566459 -0.5498102216621801
12666046666.666666 -0.8395977066327523 -0.5432086993199492 6.716833299302301e-17 1.915608659444274e-17 6.716833299302301e-17 1.915608659444274e-17 -0.8395973702117883 -0.5432092193007202
12666664000.0 -0.843853305887941 -0.5365739447101785 6.730576516310252e-17 1.8616456437408405e-17 6.730576516310252e-17 1.8616456437408405e-17 -0.8438529735922206 -0.5365744673010594
12667281333.333334 -0.8480564764569485 -0.5299058527127941 6.743886632102483e-17 1.807585355985779e-17 6.743886632102483e-17 1.807585355985779e-17 -0.8480561483067145 -0.5299063778810639
12667898666.666666 -0.8522069571964528 -0.5232048376169807 6.756762969921354e-17 1.7534312687309437e-17 6.756762969921354e-17 1.7534312687309437e-17 -0.852206633211688 -0.5232053653297607
12668516000.0 -0.8563044902367569 -0.5164713157574371 6.76920488082431e-17 1.69918685913116e-17 6.76920488082431e-17 1.69918685913116e-17 -0.8563041704371823 -0.5164718459816934
12669133333.333334 -0.8603488209977607 -0.5097057054885803 6.78121174371382e-17 1.6448556087233795e-17 6.78121174371382e-17 1.6448556087233795e-17 -0.8603485054028385 -0.5097062381911279
12669750666.666666 -0.8643396982048778 -0.5029084271584134 6.792782965366427e-17 1.5904410032019853e-17 6.792782965366427e-17 1.5904410032019853e-17 -0.8643393868338042 -0.502908962305915
12670368000.0 -0.8682768739045916 -0.4960799030824757 6.803917980459373e-17 1.5359465321966173e-17 6.803917980459373e-17 1.5359465321966173e-17 -0.8682765667762997 -0.4960804406414459
