! Parameters = {f0=12700.012000; bw=77.238000; Q=6100.000000; N=10; m_0_1=1.185480; m_1_1=-0.982538; m_1_2=1.020292; m_2_2=-0.983187; m_2_3=0.657255; m_2_8=-0.003662; m_2_9=0.033042; m_3_3=-0.985124; m_3_4=0.545784; m_3_7=-0.003062; m_3_8=-0.100150; m_3_9=-0.003662; m_4_4=-0.988049; m_4_5=0.382119; m_4_6=0.000455; m_4_7=-0.120699; m_4_8=-0.003062; m_5_5=-0.987667; m_5_6=0.789474; m_5_7=0.000455; m_6_6=-0.987668; m_6_7=0.382461; m_7_7=-0.988035; m_7_8=0.545902; m_8_8=-0.985126; m_8_9=0.657568; m_9_9=-0.983192; m_9_10=1.021370; m_10_10=-0.982548; m_10_11=1.186275}
!
! Created with skrf (http://scikit-rf.org).
# Hz S RI R 50.0 
!freq ReS11 ImS11 ReS21 ImS21 ReS12 ImS12 ReS22 ImS22
12607400000.0 0.008892280195473118 0.999960462894794 -2.1339963044777338e-17 -6.975109713390999e-17 -2.1339963044777338e-17 -6.975109713390999e-17 0.00889165549349867 0.9999604684498442
12608017333.333334 0.01691591832238943 0.9998569156170083 -2.1900855644087632e-17 -6.956204406084559e-17 -2.1900855644087632e-17 -6.956204406084559e-17 0.01691529371569163 0.9998569261841208
12608634666.666666 0.02493846723973387 0.9996889880615766 -2.2460086666225045e-17 -6.936848531507946e-17 -2.2460086666225045e-17 -6.936848531507946e-17 0.02493784276851955 0.9996890036395817
12609252000.0 0.032959410379639814 0.9994566910413236 -2.301761995496412e-17 -6.917043540115576e-17 -2.301761995496412e-17 -6.917043540115576e-17 0.032958786084103124 0.9994567116287273
12609869333.333334 0.040978231277693414 0.99916003951379 -2.35734194799529e-17 -6.896790911344675e-17 -2.35734194799529e-17 -6.896790911344675e-17 0.04097760719801322 0.9991600651087752
12610486666.666666 0.04899441360601787 0.9987990525802712 -2.4127449339023916e-17 -6.876092153506978e-17 -2.4127449339023916e-17 -6.876092153506978e-17 0.04899378978235528 0.9987990831807011
12611104000.0 0.05700744120683224 0.9983737534845837 -2.4679673760524965e-17 -6.854948803677442e-17 -2.4679673760524965e-17 -6.854948803677442e-17 0.057006817679327845 0.9983737890879962
12611721333.333334 0.06501679812528863 0.997884169611575 -2.52300571056017e-17 -6.833362427582651e-17 -2.52300571056017e-17 -6.833362427582651e-17 0.0650161749340601 0.9978842102151884
12612338666.666666 0.07302196864297852 0.9973303324853554 -2.5778563870497622e-17 -6.811334619486283e-17 -2.5778563870497622e-17 -6.811334619486283e-17 0.07302134582811798 0.9973303780860666
12612956000.0 0.08102243731113949 0.9967122777672648 -2.632515868884426e-17 -6.788867002072761e-17 -2.632515868884426e-17 -6.788867002072761e-17 0.08102181491271082 0.9967123283616478
12613573333.333334 0.0890176889835892 0.9960300452535897 -2.6869806333914478e-17 -6.76596122633015e-17 -2.6869806333914478e-17 -6.76596122633015e-17 0.08901706704162556 0.9960301008378979
12614190666.666666 0.09700720885017919 0.9952836788729857 -2.7412471720904244e-17 -6.742618971429709e-17 -2.7412471720904244e-17 -6.742618971429709e-17 0.09700658740468053 0.9952837394431521
12614808000.0 0.10499048246977319 0.9944732266836599 -2.795311990917527e-17 -6.718841944604787e-17 -2.795311990917527e-17 -6.718841944604787e-17 0.10498986156070354 0.9944732922352972
12615425333.333334 0.11296699580351323 0.9935987408702647 -2.8491716104498866e-17 -6.694631881027453e-17 -2.8491716104498866e-17 -6.694631881027453e-17 0.11296637547079806 0.9935988113986637
12616042666.666666 0.12093623524774834 0.9926602777405509 -2.9028225661285376e-17 -6.669990543683499e-17 -2.9028225661285376e-17 -6.669990543683499e-17 0.12093561553127224 0.9926603532406839
12616660000.0 0.12889768766721882 0.9916578977217351 -2.956261408481263e-17 -6.644919723245266e-17 -2.956261408481263e-17 -6.644919723245266e-17 0.12889706860682265 0.9916579781882535
12617277333.333334 0.13685084042809603 0.9905916653566038 -3.009484703342628e-17 -6.619421237943397e-17 -3.009484703342628e-17 -6.619421237943397e-17 0.13685022206357478 0.9905917507838415
12617894666.666666 0.1447951814308507 0.9894616492993819 -3.062489032073718e-17 -6.593496933436588e-17 -3.062489032073718e-17 -6.593496933436588e-17 0.14479456380195038 0.9894617396813529
12618512000.0 0.1527301991435357 0.988267922311264 -3.115270991782798e-17 -6.567148682678546e-17 -3.115270991782798e-17 -6.567148682678546e-17 0.15272958228995115 0.9882680176416637
12619129333.333334 0.16065538263432935 0.9870105612557871 -3.1678271955403675e-17 -6.540378385785321e-17 -3.1678271955403675e-17 -6.540378385785321e-17 0.16065476659570171 0.9870106615279934
12619746666.666666 0.16857022160471596 0.9856896470938427 -3.2201542725975805e-17 -6.513187969898843e-17 -3.2201542725975805e-17 -6.513187969898843e-17 0.16856960642062987 0.9856897523009155
12620364000.0 0.17647420642234274 0.9843052648784579 -3.2722488686016096e-17 -6.485579389049509e-17 -3.2722488686016096e-17 -6.485579389049509e-17 0.17647359213232414 0.9843053750131409
12620981333.333334 0.184366828153583 0.9828575037493654 -3.3241076458080604e-17 -6.457554624018124e-17 -3.3241076458080604e-17 -6.457554624018124e-17 0.18436621479709628 0.9828576188040856
12621598666.666666 0.1922475785965582 0.9813464569272197 -3.375727283296579e-17 -6.429115682193766e-17 -3.375727283296579e-17 -6.429115682193766e-17 0.19224696621300377 0.9813465768940872
12622216000.0 0.20011595031383234 0.9797722217075961 -3.427104477180694e-17 -6.400264597432389e-17 -3.427104477180694e-17 -6.400264597432389e-17 0.2001153389425441 0.9797723465784063
12622833333.333334 0.20797143666497403 0.9781348994547499 -3.478235940819591e-17 -6.371003429912113e-17 -3.478235940819591e-17 -6.371003429912113e-17 0.20797082634521702 0.978135029220983
12623450666.666666 0.21581353183917926 0.9764345955950897 -3.529118405026643e-17 -6.34133426598791e-17 -3.529118405026643e-17 -6.34133426598791e-17 0.21581292261014692 0.9764347302479123
12624068000.0 0.22364173088795164 0.9746714196103671 -3.579748618278525e-17 -6.311259218043595e-17 -3.579748618278525e-17 -6.311259218043595e-17 0.22364112278876322 0.9746715591406306
12624685333.333334 0.23145552975764264 0.9728454850306166 -3.630123346922355e-17 -6.280780424342596e-17 -3.630123346922355e-17 -6.280780424342596e-17 0.23145492282734087 0.9728456294288604
12625302666.666666 0.23925442532163096 0.9709569094269129 -3.6802393753796413e-17 -6.249900048878217e-17 -3.6802393753796413e-17 -6.249900048878217e-17 0.23925381959917966 0.9709570586833638
12625920000.0 0.24703791541313355 0.9690058144037014 -3.730093506353205e-17 -6.218620281219761e-17 -3.730093506353205e-17 -6.218620281219761e-17 0.2470373109374147 0.9690059685082738
12626537333.333334 0.25480549885715265 0.9669923255910595 -3.779682561028577e-17 -6.186943336359545e-17 -3.779682561028577e-17 -6.186943336359545e-17 0.25480489566696424 0.9669924845333567
12627154666.666666 0.26255667550291206 0.9649165726365703 -3.829003379275863e-17 -6.154871454557258e-17 -3.829003379275863e-17 -6.154871454557258e-17 0.2625560736369658 0.964916736405886
12627772000.0 0.27029094625619976 0.9627786891969379 -3.87805281985207e-17 -6.122406901181643e-17 -3.87805281985207e-17 -6.122406901181643e-17 0.2702903457531181 0.9627788577822564
12628389333.333334 0.278007813111229 0.9605788129294542 -3.926827760597719e-17 -6.089551966553292e-17 -3.926827760597719e-17 -6.089551966553292e-17 0.2780072140095426 0.9605789863194479
12629006666.666666 0.28570677918295045 0.9583170854830629 -3.975325098637364e-17 -6.056308965782575e-17 -3.975325098637364e-17 -6.056308965782575e-17 0.2857061815210964 0.9583172636660993
12629624000.0 0.29338734873885636 0.9559936524893 -4.0235417505742415e-17 -6.022680238608878e-17 -4.0235417505742415e-17 -6.022680238608878e-17 0.29338675255517505 0.9559938354534379
12630241333.333334 0.3010490272310361 0.9536086635528719 -4.0714746526865164e-17 -5.988668149236398e-17 -4.0714746526865164e-17 -5.988668149236398e-17 0.3010484325637693 0.9536088512858635
12630858666.666666 0.3086913213278575 0.9511622722420755 -4.119120761120102e-17 -5.954275086169763e-17 -4.119120761120102e-17 -5.954275086169763e-17 0.3086907282151453 0.9511624647313671
12631476000.0 0.31631373894602993 0.9486546360788151 -4.1664770520827946e-17 -5.919503462046222e-17 -4.1664770520827946e-17 -5.919503462046222e-17 0.3163131474259089 0.9486548333115482
12632093333.333334 0.3239157892819373 0.9460859165285709 -4.213540522033809e-17 -5.884355713468576e-17 -4.213540522033809e-17 -5.884355713468576e-17 0.3239151993923373 0.9460861184915826
12632710666.666666 0.33149698284340334 0.943456278989952 -4.260308187873447e-17 -5.848834300835546e-17 -4.260308187873447e-17 -5.848834300835546e-17 0.3314963946221461 0.9434564856697764
12633328000.0 0.3390568314813444 0.9407658927840004 -4.306777087132817e-17 -5.812941708169519e-17 -4.306777087132817e-17 -5.812941708169519e-17 0.33905624496613984 0.9407661041668683
12633945333.333334 0.3465948484209583 0.9380149311433695 -4.352944278158985e-17 -5.776680442945149e-17 -4.352944278158985e-17 -5.776680442945149e-17 0.3465942636494033 0.9380151472152111
12634562666.666666 0.35411054829320177 0.9352035712011232 -4.3988068403011485e-17 -5.740053035914613e-17 -4.3988068403011485e-17 -5.740053035914613e-17 0.35410996530277766 0.9352037919475691
12635180000.0 0.36160344716601817 0.9323319939793442 -4.444361874094404e-17 -5.703062040932194e-17 -4.444361874094404e-17 -5.703062040932194e-17 0.36160286599408703 0.9323322193857235
12635797333.333334 0.3690730625754948 0.9294003843774714 -4.4896065014421616e-17 -5.665710034777229e-17 -4.4896065014421616e-17 -5.665710034777229e-17 0.36907248325929864 0.9294006144288162
12636414666.666666 0.37651891355693096 0.9264089311603999 -4.5345378657971394e-17 -5.627999616975683e-17 -4.5345378657971394e-17 -5.627999616975683e-17 0.3765183361335885 0.9264091658414441
12637032000.0 0.3839405206758056 0.9233578269463245 -4.5791531323408064e-17 -5.589933409620221e-17 -4.5791531323408064e-17 -5.589933409620221e-17 0.38393994518230995 0.923358066241505
12637649333.333334 0.39133740605864786 0.9202472681943344 -4.6234494881613924e-17 -5.551514057188941e-17 -4.6234494881613924e-17 -5.551514057188941e-17 0.3913368325318645 0.9202475120877937
12638266666.666666 0.39870909342380845 0.9170774551917694 -4.6674241424303374e-17 -5.512744226362662e-17 -4.6674241424303374e-17 -5.512744226362662e-17 0.39870852190047223 0.9170777036673537
12638884000.0 0.4060551081121251 0.9138485920413169 -4.7110743265772566e-17 -5.473626605840836e-17 -4.7110743265772566e-17 -5.473626605840836e-17 0.40605453862883883 0.9138488450825808
12639501333.333334 0.41337497711751325 0.9105608866478623 -4.754397294463481e-17 -5.434163906155934e-17 -4.754397294463481e-17 -5.434163906155934e-17 0.4133744097107448 0.910561144238068
12640118666.666666 0.4206682291172671 0.9072145507051725 -4.7973903225530535e-17 -5.3943588594874696e-17 -4.7973903225530535e-17 -5.3943588594874696e-17 0.4206676638233466 0.9072148128272896
12640736000.0 0.4279343945028208 0.9038097996820743 -4.840050710085291e-17 -5.354214219471719e-17 -4.840050710085291e-17 -5.354214219471719e-17 0.42793383135793894 0.9038100663187828
12641353333.333334 0.43517300540934045 0.9003468528088763 -4.882375779240529e-17 -5.313732761014991e-17 -4.882375779240529e-17 -5.313732761014991e-17 0.43517244444954645 0.9003471239425679
12641970666.666666 0.4423835957464964 0.8968259330629593 -4.924362875309567e-17 -5.2729172801007015e-17 -4.924362875309567e-17 -5.2729172801007015e-17 0.44238303700769444 0.8968262086757366
12642588000.0 0.44956570122805983 0.8932472671546047 -4.966009366858352e-17 -5.2317705935980443e-17 -4.966009366858352e-17 -5.2317705935980443e-17 0.44956514474600845 0.893247547228285
12643205333.333334 0.4567188594019292 0.8896110855123422 -5.00731264589199e-17 -5.190295539068563e-17 -5.00731264589199e-17 -5.190295539068563e-17 0.4567183052122378 0.8896113700284569
12643822666.666666 0.463842609679981 0.8859176222680699 -5.048270128017712e-17 -5.148494974570813e-17 -5.048270128017712e-17 -5.148494974570813e-17 0.46384205781810817 0.8859179112078667
12644440000.0 0.470936493367602 0.8821671152420455 -5.088879252604946e-17 -5.1063717784651035e-17 -5.088879252604946e-17 -5.1063717784651035e-17 0.4709359438688526 0.8821674085864882
12645057333.333334 0.4780000536932484 0.8783598059275588 -5.129137482944451e-17 -5.0639288492162077e-17 -5.129137482944451e-17 -5.0639288492162077e-17 0.4779995065927715 0.8783601036573291
12645674666.666666 0.4850328358378576 0.8744959394753831 -5.169042306406433e-17 -5.021169105194293e-17 -5.169042306406433e-17 -5.021169105194293e-17 0.4850322911706452 0.8744962415708838
12646292000.0 0.4920343869643094 0.8705757646778955 -5.208591234596531e-17 -4.9780954844749936e-17 -5.208591234596531e-17 -4.9780954844749936e-17 0.49203384476519313 0.8705760711192497
12646909333.333334 0.4990042562462595 0.8665995339532352 -5.247781803508778e-17 -4.934710944639811e-17 -5.247781803508778e-17 -4.934710944639811e-17 0.4990037165499082 0.8665998447202872
12647526666.666666 0.5059419948974155 0.8625675033289105 -5.2866115736794354e-17 -4.891018462572607e-17 -5.2866115736794354e-17 -4.891018462572607e-17 0.5059414577383341 0.8625678184012294
12648144000.0 0.5128471562004109 0.8584799324253294 -5.325078130337703e-17 -4.8470210342563773e-17 -5.325078130337703e-17 -4.8470210342563773e-17 0.5128466216129375 0.8584802517822082
12648761333.333334 0.5197192955354438 0.8543370844391512 -5.3631790835543783e-17 -4.8027216745693325e-17 -5.3631790835543783e-17 -4.8027216745693325e-17 0.519718763553747 0.8543374080596091
12649378666.666666 0.5265579704090051 0.8501392261262836 -5.400912068389379e-17 -4.7581234170792207e-17 -5.400912068389379e-17 -4.7581234170792207e-17 0.5265574410670835 0.8501395539890682
12649996000.0 0.5333627404823469 0.8458866277847216 -5.43827474503821e-17 -4.713229313835698e-17 -5.43827474503821e-17 -4.713229313835698e-17 0.5333622138140249 0.8458869598683088
12650613333.333334 0.540133167599857 0.8415795632371257 -5.475264798975511e-17 -4.668042435162962e-17 -5.475264798975511e-17 -4.668042435162962e-17 0.5401326436387842 0.841579899519722
12651230666.666666 0.5468688158171552 0.8372183098132704 -5.51187994109748e-17 -4.622565869450689e-17 -5.51187994109748e-17 -4.622565869450689e-17 0.546868294596803 0.8372186502728135
12651848000.0 0.5535692514293998 0.83280314833203 -5.5481179078629895e-17 -4.576802722943155e-17 -5.5481179078629895e-17 -4.576802722943155e-17 0.55356873298306 0.8328034929461913
12652465333.333334 0.5602340429989994 0.8283343630834367 -5.583976461431883e-17 -4.530756119528752e-17 -5.583976461431883e-17 -4.530756119528752e-17 0.5602335273597823 0.8283347118296224
12653082666.666666 0.5668627613833945 0.8238122418103773 -5.619453389802016e-17 -4.484429200527774e-17 -5.619453389802016e-17 -4.484429200527774e-17 0.5668622485842264 0.8238125946657299
12653700000.0 0.5734549797629259 0.8192370756899071 -5.654546506945947e-17 -4.4378251244773753e-17 -5.654546506945947e-17 -4.4378251244773753e-17 0.5734544698365462 0.8192374326313054
12654317333.333334 0.5800102736679849 0.8146091593147207 -5.689253652942816e-17 -4.3909470669193336e-17 -5.689253652942816e-17 -4.3909470669193336e-17 0.5800097666469465 0.8146095203187854
12654934666.666666 0.5865282210065846 0.8099287906740307 -5.7235726941115e-17 -4.3437982201829174e-17 -5.7235726941115e-17 -4.3437982201829174e-17 0.586527716923249 0.809929155717121
12655552000.0 0.5930084020915098 0.8051962711343873 -5.75750152314057e-17 -4.2963817931684904e-17 -5.75750152314057e-17 -4.2963817931684904e-17 0.5930079009780459 0.805196640192605
12656169333.333334 0.5994503996672256 0.8004119054203597 -5.791038059216037e-17 -4.2487010111307994e-17 -5.791038059216037e-17 -4.2487010111307994e-17 0.5994499015556091 0.8004122784695511
12656786666.666666 0.6058537989368386 0.7955760015948502 -5.82418024814835e-17 -4.2007591154597757e-17 -5.82418024814835e-17 -4.2007591154597757e-17 0.6058533038588475 0.7955763786106059
12657404000.0 0.6122181875887795 0.7906888710392709 -5.856926062497007e-17 -4.1525593634611724e-17 -5.856926062497007e-17 -4.1525593634611724e-17 0.6122176955759951 0.7906892519969305
12658021333.333334 0.6185431558233779 0.7857508284334822 -5.88927350169361e-17 -4.104105028135948e-17 -5.88927350169361e-17 -4.104105028135948e-17 0.6185426669071794 0.7857512133081318
12658638666.666666 0.6248282963791334 0.7807621917356125 -5.921220592162389e-17 -4.0553993979596675e-17 -5.921220592162389e-17 -4.0553993979596675e-17 0.6248278105906985 0.7807625805020895
12659256000.0 0.6310732045591643 0.7757232821614127 -5.952765387440643e-17 -4.006445776658473e-17 -5.952765387440643e-17 -4.006445776658473e-17 0.6310727219294657 0.7757236747943063
12659873333.333334 0.637277478257064 0.7706344241637302 -5.983905968295146e-17 -3.957247482987327e-17 -5.983905968295146e-17 -3.957247482987327e-17 0.6372769988168688 0.7706348206373831
12660490666.666666 0.643440717982796 0.7654959454116216 -6.014640442837822e-17 -3.907807850505868e-17 -6.014640442837822e-17 -3.907807850505868e-17 0.6434402417626619 0.7654963457001308
12661108000.0 0.6495625268886315 0.7603081767690676 -6.044966946640473e-17 -3.8581302273517913e-17 -6.044966946640473e-17 -3.8581302273517913e-17 0.649562053918907 0.7603085808462889
12661725333.333334 0.655642510794379 0.7550714522739488 -6.074883642845644e-17 -3.80821797601666e-17 -6.074883642845644e-17 -3.80821797601666e-17 0.6556420411052001 0.7550718601134959
12662342666.666666 0.6616802782130896 0.7497861091162574 -6.104388722277211e-17 -3.7580744731182477e-17 -6.104388722277211e-17 -3.7580744731182477e-17 0.6616798118343774 0.7497865206915034
12662960000.0 0.6676754403760258 0.7444524876165901 -6.133480403548493e-17 -3.707703109173096e-17 -6.133480403548493e-17 -3.707703109173096e-17 0.6676749773374856 0.7444529029006705
12663577333.333334 0.6736276112578017 0.7390709312041404 -6.162156933168594e-17 -3.6571072883680626e-17 -6.162156933168594e-17 -3.6571072883680626e-17 0.6736271515889224 0.7390713501699561
12664194666.666666 0.6795364076012215 0.7336417863946092 -6.190416585646871e-17 -3.6062904283310754e-17 -6.190416585646871e-17 -3.6062904283310754e-17 0.6795359513312703 0.7336422090148252
12664812000.0 0.6854014489419523 0.7281654027678877 -6.218257663595488e-17 -3.555255959901066e-17 -6.218257663595488e-17 -3.555255959901066e-17 0.685400996099975 0.7281658290149361
12665429333.333334 0.6912223576330434 0.7226421329455288 -6.24567849783014e-17 -3.504007326897148e-17 -6.24567849783014e-17 -3.504007326897148e-17 0.6912219082478633 0.7226425627916124
12666046666.666666 0.6969987588691439 0.7170723325681445 -6.272677447468746e-17 -3.4525479858872054e-17 -6.272677447468746e-17 -3.4525479858872054e-17 0.6969983129693577 0.7170727659852354
12666664000.0 0.7027302807108574 0.7114563602722855 -6.299252900028811e-17 -3.400881405954641e-17 -6.299252900028811e-17 -3.400881405954641e-17 0.7027298383248348 0.7114567972321291
12667281333.333334 0.7084165541084052 0.7057945776676249 -6.325403271521477e-17 -3.3490110684671036e-17 -6.325403271521477e-17 -3.3490110684671036e-17 0.7084161152642877 0.7057950181417422
12667898666.666666 0.7140572129255963 0.7000873493134812 -6.351127006545467e-17 -3.2969404668410847e-17 -6.351127006545467e-17 -3.2969404668410847e-17 0.7140567776512949 0.7000877932731695
12668516000.0 0.7196518939633803 0.6943350426953602 -6.376422578378241e-17 -3.244673106307414e-17 -6.376422578378241e-17 -3.244673106307414e-17 0.719651462286572 0.694335490111694
12669133333.333334 0.7252002369831301 0.6885380282013911 -6.401288489064407e-17 -3.192212503677719e-17 -6.401288489064407e-17 -3.192212503677719e-17 0.7251998089312583 0.6885384790452264
12669750666.666666 0.7307018847299218 0.6826966790984021 -6.425723269503956e-17 -3.13956218710675e-17 -6.425723269503956e-17 -3.13956218710675e-17 0.7307014603301943 0.6826971333403768
12670368000.0 0.736156482955537 0.6768113715078832 -6.449725479537201e-17 -3.086725695856801e-17 -6.449725479537201e-17 -3.086725695856801e-17 0.7361560622349229 0.6768118291184184
