! Parameters = {f0=12700.012000; bw=77.238000; Q=6100.000000; N=10; m_0_1=1.301797; m_1_1=0.762206; m_1_2=1.136609; m_2_2=0.761557; m_2_3=0.773572; m_2_8=0.002154; m_2_9=0.038858; m_3_3=0.759620; m_3_4=0.662101; m_3_7=0.002754; m_3_8=-0.094334; m_3_9=0.002154; m_4_4=0.756695; m_4_5=0.498436; m_4_6=0.006271; m_4_7=-0.114883; m_4_8=0.002754; m_5_5=0.757077; m_5_6=0.905791; m_5_7=0.006271; m_6_6=0.757076; m_6_7=0.498778; m_7_7=0.756709; m_7_8=0.662219; m_8_8=0.759618; m_8_9=0.773885; m_9_9=0.761552; m_9_10=1.137687; m_10_10=0.762196; m_10_11=1.302592}
!
! Created with skrf (http://scikit-rf.org).
# Hz S RI R 50.0 
!freq ReS11 ImS11 ReS21 ImS21 ReS12 ImS12 ReS22 ImS22
12607400000.0 0.9187208348649073 0.39490761905152316 -1.2730442035831407e-16 -1.5086642984202854e-17 -1.2730442035831407e-16 -1.5086642984202854e-17 0.9187205640352415 0.39490824911437544
12608017333.333334 0.9231871807983307 0.38435065917654654 -1.2744523765524763e-16 -1.3612429289381762e-17 -1.2744523765524763e-16 -1.3612429289381762e-17 0.9231869172215798 0.3843512922714455
12608634666.666666 0.9275322221067132 0.3737431965315196 -1.2756899334714905e-16 -1.2136976408025948e-17 -1.2756899334714905e-16 -1.2136976408025948e-17 0.9275319658167991 0.37374383257498556
12609252000.0 0.9317553878619439 0.363086624912091 -1.2767567760347148e-16 -1.0660481683531862e-17 -1.2767567760347148e-16 -1.0660481683531862e-17 0.9317551388918272 0.36308726382026435
12609869333.333334 0.9358561231500523 0.3523823445667635 -1.2776528287489889e-16 -9.183142520999439e-18 -1.2776528287489889e-16 -9.183142520999439e-18 0.9358558815317285 0.352382986255417
12610486666.666666 0.9398338891441355 0.34163176201288037 -1.2783780389345842e-16 -7.705156360895433e-18 -1.2783780389345842e-16 -7.705156360895433e-18 0.9398336549086314 0.3416324063974294
12611104000.0 0.9436881631752237 0.3308362898516234 -1.2789323767233216e-16 -6.226720652660578e-18 -1.2789323767233216e-16 -6.226720652660578e-18 0.943687936352594 0.330836936847138
12611721333.333334 0.9474184388008363 0.3199973465827496 -1.2793158350535957e-16 -4.748032828434986e-18 -1.2793158350535957e-16 -4.748032828434986e-18 0.9474182194201575 0.3199979961039645
12612338666.666666 0.9510242258716207 0.3091163564179352 -1.2795284296624105e-16 -3.2692902766724512e-18 -1.2795284296624105e-16 -3.2692902766724512e-18 0.9510240139609883 0.30911700837926165
12612956000.0 0.9545050505957601 0.2981947490936089 -1.2795701990743428e-16 -1.7906903158436665e-18 -1.2795701990743428e-16 -1.7906903158436665e-18 0.9545048461822866 0.2981954034091461
12613573333.333334 0.9578604556011205 0.2872339596834413 -1.279441204587488e-16 -3.124301681736359e-19 -1.279441204587488e-16 -3.124301681736359e-19 0.9578602587109306 0.28723461626698754
12614190666.666666 0.9610899999954846 0.27623542840934506 -1.2791415302563637e-16 1.1652930666633017e-18 -1.2791415302563637e-16 1.1652930666633017e-18 0.9610898106537115 0.27623608717440923
12614808000.0 0.9641932594244058 0.2652006004524779 -1.2786712828717934e-16 2.6422824377708537e-18 -1.2786712828717934e-16 2.6422824377708537e-18 0.9641930776551886 0.2652012613122905
12615425333.333334 0.9671698261269938 0.25413092576326707 -1.2780305919377665e-16 4.118341169231717e-18 -1.2780305919377665e-16 4.118341169231717e-18 0.967169651953474 0.2541315886307917
12616042666.666666 0.9700193089894618 0.24302785887099873 -1.2772196096452694e-16 5.5932726863076355e-18 -1.2772196096452694e-16 5.5932726863076355e-18 0.9700191424337815 0.24302852365894415
12616660000.0 0.9727413335965633 0.2318928586925321 -1.2762385108431048e-16 7.066880641566009e-18 -1.2762385108431048e-16 7.066880641566009e-18 0.9727411746798607 0.23189352531336305
12617277333.333334 0.9753355422807655 0.22072738834068298 -1.275087493005706e-16 8.538968940987786e-18 -1.275087493005706e-16 8.538968940987786e-18 0.9753353910231742 0.22072805670663218
12617894666.666666 0.9778015941692249 0.20953291493208592 -1.273766776197953e-16 1.000934177000598e-17 -1.273766776197953e-16 1.000934177000598e-17 0.9778014505898686 0.20953358495516505
12618512000.0 0.9801391652286459 0.1983109093940846 -1.2722766030369422e-16 1.1477803619558224e-17 -1.2722766030369422e-16 1.1477803619558224e-17 0.9801390293456381 0.19831158098609625
12619129333.333334 0.9823479483077522 0.18706284627195574 -1.2706172386508595e-16 1.2944159311979898e-17 -1.2706172386508595e-16 1.2944159311979898e-17 0.9823478201381942 0.1870635193445052
12619746666.666666 0.9844276531777435 0.1757902035347134 -1.2687889706347574e-16 1.4408214026965875e-17 -1.2687889706347574e-16 1.4408214026965875e-17 0.9844275327377215 0.1757908779992201
12620364000.0 0.9863780065703996 0.16449446238101684 -1.2667921090034057e-16 1.586977332740203e-17 -1.2667921090034057e-16 1.586977332740203e-17 0.9863778938749825 0.164495138148726
12620981333.333334 0.9881987522139513 0.15317710704476925 -1.264626986141218e-16 1.7328643185121407e-17 -1.264626986141218e-16 1.7328643185121407e-17 0.9881986472771882 0.15317778402676333
12621598666.666666 0.9898896508668062 0.14183962459978466 -1.262293956749109e-16 1.8784630006660376e-17 -1.262293956749109e-16 1.8784630006660376e-17 0.9898895537017263 0.1418403027069954
12622216000.0 0.9914504803489437 0.1304835047646422 -1.2597933977884748e-16 2.0237540658896422e-17 -1.2597933977884748e-16 2.0237540658896422e-17 0.9914503909675535 0.13048418390786232
12622833333.333334 0.9928810355711419 0.11911023970671623 -1.257125708422216e-16 2.168718249462179e-17 -1.257125708422216e-16 2.168718249462179e-17 0.9928809539844244 0.1191109197966109
12623450666.666666 0.9941811285618973 0.10772132384633387 -1.2542913099528032e-16 2.3133363378056666e-17 -1.2542913099528032e-16 2.3133363378056666e-17 0.9941810547798094 0.10772200479345262
12624068000.0 0.9953505884921434 0.09631825366024281 -1.2512906457574123e-16 2.4575891710280494e-17 -1.2512906457574123e-16 2.4575891710280494e-17 0.9953505225236161 0.0963189353750313
12624685333.333334 0.9963892616976997 0.08490252748492068 -1.2481241812201318e-16 2.6014576454585155e-17 -1.2481241812201318e-16 2.6014576454585155e-17 0.9963892035506371 0.08490320987773257
12625302666.666666 0.9972970116994291 0.07347564532009371 -1.2447924036613647e-16 2.7449227161701076e-17 -1.2447924036613647e-16 2.7449227161701076e-17 0.997296961380706 0.07347632830120222
12625920000.0 0.9980737192212206 0.06203910863104554 -1.241295822264111e-16 2.8879653995026725e-17 -1.241295822264111e-16 2.8879653995026725e-17 0.9980736767366837 0.06203979211065551
12626537333.333334 0.998719282205623 0.05059442015183828 -1.2376349679976606e-16 3.030566775564683e-17 -1.2376349679976606e-16 3.030566775564683e-17 0.9987192475600871 0.050595104040097656
12627154666.666666 0.9992336158272683 0.03914308368765828 -1.2338103935381465e-16 3.172707990736141e-17 -1.2338103935381465e-16 3.172707990736141e-17 0.9992335890245202 0.03914376789467023
12627772000.0 0.9996166525040274 0.027686603917020994 -1.2298226731863113e-16 3.3143702601581033e-17 -1.2298226731863113e-16 3.3143702601581033e-17 0.9996166335468217 0.02768728835285558
12628389333.333334 0.9998683419058693 0.016226486194570917 -1.2256724027825813e-16 3.455534870206878e-17 -1.2256724027825813e-16 3.455534870206878e-17 0.9998683307959305 0.01622717076927691
12629006666.666666 0.9999886509614955 0.004764236352685014 -1.2213601996190162e-16 3.596183180967482e-17 -1.2213601996190162e-16 3.596183180967482e-17 0.9999886476995151 0.004764920976301714
12629624000.0 0.9999775638626692 -0.006698639495964024 -1.2168867023486953e-16 3.7362966286872604e-17 -1.2168867023486953e-16 3.7362966286872604e-17 0.9999775684483093 -0.006697954913394926
12630241333.333334 0.9998350820663011 -0.018160635156506243 -1.2122525708921118e-16 3.875856728224651e-17 -1.2122525708921118e-16 3.875856728224651e-17 0.9998350944981929 -0.018159950704928894
12630858666.666666 0.9995612242942582 -0.029620244549614462 -1.2074584863409424e-16 4.014845075480628e-17 -1.2074584863409424e-16 4.014845075480628e-17 0.9995612445700004 -0.029619560318946973
12631476000.0 0.9991560265308939 -0.04107596190974043 -1.2025051508587317e-16 4.153243349827664e-17 -1.2025051508587317e-16 4.153243349827664e-17 0.9991560546470561 -0.04107527798986313
12632093333.333334 0.9986195420183365 -0.05252628198248599 -1.1973932875791846e-16 4.291033316515305e-17 -1.1973932875791846e-16 4.291033316515305e-17 0.9986195779704579 -0.05252559846322955
12632710666.666666 0.9979518412494806 -0.0639697002227308 -1.1921236405014936e-16 4.428196829069519e-17 -1.1921236405014936e-16 4.428196829069519e-17 0.9979518850320725 -0.06396901719386457
12633328000.0 0.9971530119587244 -0.0754047129923545 -1.1866969743827441e-16 4.564715831684059e-17 -1.1866969743827441e-16 4.564715831684059e-17 0.9971530635652676 -0.07540403054357443
12633945333.333334 0.9962231591104457 -0.08682981775761207 -1.1811140746280866e-16 4.7005723615856e-17 -1.1811140746280866e-16 4.7005723615856e-17 0.9962232185333956 -0.08682913597852933
12634562666.666666 0.9951624048852142 -0.0982435132865922 -1.1753757471776997e-16 4.835748551398726e-17 -1.1753757471776997e-16 4.835748551398726e-17 0.995162472116 -0.09824283226672118
12635180000.0 0.9939708886637281 -0.10964429984661715 -1.1694828183913473e-16 4.9702266314898574e-17 -1.1694828183913473e-16 4.9702266314898574e-17 0.9939709636927526 -0.10964361967536362
12635797333.333334 0.9926487670084999 -0.12103067940121888 -1.1634361349301419e-16 5.103988932299892e-17 -1.1634361349301419e-16 5.103988932299892e-17 0.9926488498251439 -0.12103000016786855
12636414666.666666 0.9911962136432997 -0.1324011558068929 -1.1572365636357299e-16 5.2370178866609523e-17 -1.1572365636357299e-16 5.2370178866609523e-17 0.991196304235921 -0.13240047760059948
12637032000.0 0.989613419430303 -0.14375423500988585 -1.1508849914067512e-16 5.3692960321002244e-17 -1.1508849914067512e-16 5.3692960321002244e-17 0.989613517786239 -0.14375355791965935
12637649333.333334 0.9879005923450411 -0.1550884252422848 -1.144382325072676e-16 5.500806013128911e-17 -1.144382325072676e-16 5.500806013128911e-17 0.9879006984506095 -0.15508774935697983
12638266666.666666 0.9860579574490452 -0.16640223721822917 -1.1377294912651018e-16 5.631530583514383e-17 -1.1377294912651018e-16 5.631530583514383e-17 0.9860580712895479 -0.1664015626265334
12638884000.0 0.9840857568602921 -0.17769418432948691 -1.130927436286409e-16 5.761452608538213e-17 -1.130927436286409e-16 5.761452608538213e-17 0.9840858784200156 -0.17769351111990944
12639501333.333334 0.9819842497213725 -0.18896278284087514 -1.1239771259758163e-16 5.890555067238727e-17 -1.1239771259758163e-16 5.890555067238727e-17 0.9819843789835923 -0.188962111101735
12640118666.666666 0.9797537121655047 -0.20020655208491292 -1.1168795455731112e-16 6.018821054633406e-17 -1.1168795455731112e-16 6.018821054633406e-17 0.9797538491124832 -0.20020588190432692
12640736000.0 0.977394437280097 -0.2114240146571298 -1.1096356995791911e-16 6.146233783936979e-17 -1.1096356995791911e-16 6.146233783936979e-17 0.9773945818930906 -0.21142334612300165
12641353333.333334 0.9749067350684537 -0.22261369660913477 -1.1022466116152147e-16 6.272776588742352e-17 -1.1022466116152147e-16 6.272776588742352e-17 0.9749068873277128 -0.22261302980914316
12641970666.666666 0.9722909324088577 -0.23377412764318056 -1.0947133242780377e-16 6.398432925206684e-17 -1.0947133242780377e-16 6.398432925206684e-17 0.9722910922936296 -0.23377346266476778
12642588000.0 0.9695473730117059 -0.24490384130494 -1.0870368989940034e-16 6.523186374205512e-17 -1.0870368989940034e-16 6.523186374205512e-17 0.9695475405002396 -0.24490317823530067
12643205333.333334 0.9666764173743368 -0.25600137517625043 -1.0792184158699726e-16 6.647020643474698e-17 -1.0792184158699726e-16 6.647020643474698e-17 0.9666765924438834 -0.2560007141023197
12643822666.666666 0.9636784427336261 -0.2670652710674096 -1.0712589735418843e-16 6.769919569735242e-17 -1.0712589735418843e-16 6.769919569735242e-17 0.9636786253604417 -0.26706461207585175
12644440000.0 0.9605538430164798 -0.27809407520853036 -1.0631596890210553e-16 6.891867120797611e-17 -1.0631596890210553e-16 6.891867120797611e-17 0.9605540331758311 -0.2780934183857278
12645057333.333334 0.9573030287880283 -0.28908633844075593 -1.0549216975380727e-16 7.012847397648094e-17 -1.0549216975380727e-16 7.012847397648094e-17 0.9573032264541951 -0.2890856838727977
12645674666.666666 0.9539264271977073 -0.30004061640656604 -1.0465461523841449e-16 7.132844636519307e-17 -1.0465461523841449e-16 7.132844636519307e-17 0.9539266323439853 -0.3000399641792368
12646292000.0 0.9504244819230573 -0.3109554697398074 -1.0380342247501485e-16 7.251843210940846e-17 -1.0380342247501485e-16 7.251843210940846e-17 0.9504246945217614 -0.3109548199385752
12646909333.333334 0.9467976531115656 -0.32182946425435993 -1.0293871035636706e-16 7.369827633766488e-17 -1.0293871035636706e-16 7.369827633766488e-17 0.9467978731340344 -0.3218288169643661
12647526666.666666 0.9430464173200719 -0.33266117113302096 -1.0206059953232947e-16 7.486782559188481e-17 -1.0206059953232947e-16 7.486782559188481e-17 0.9430466447366731 -0.332660526439069
12648144000.0 0.939171267452189 -0.34344916711511164 -1.0116921239308077e-16 7.602692784729208e-17 -1.0116921239308077e-16 7.602692784729208e-17 0.93917150223232 -0.3434485251016553
12648761333.333334 0.935172712693555 -0.3541920346834366 -1.0026467305213304e-16 7.717543253210718e-17 -1.0026467305213304e-16 7.717543253210718e-17 0.9351729548056485 -0.354191395434569
12649378666.666666 0.931051278444969 -0.36488836225043597 -9.934710732909181e-17 7.831319054708141e-17 -9.934710732909181e-17 7.831319054708141e-17 0.9310515278564979 -0.3648877258498789
12649996000.0 0.9268075062532439 -0.37553674434395745 -9.84166427322046e-17 7.944005428481189e-17 -9.84166427322046e-17 7.944005428481189e-17 0.9268077629307261 -0.37553611087505073
12650613333.333334 0.9224419537401216 -0.3861357817917467 -9.747340844069692e-17 8.055587764884495e-17 -9.747340844069692e-17 8.055587764884495e-17 0.9224422176491222 -0.3861351513374361
12651230666.666666 0.9179551945290314 -0.3966840819052151 -9.651753528691018e-17 8.166051607254872e-17 -9.651753528691018e-17 8.166051607254872e-17 0.9179554656341699 -0.396683454548043
12651848000.0 0.9133478181696133 -0.40718025866270025 -9.554915573815704e-17 8.275382653785653e-17 -9.554915573815704e-17 8.275382653785653e-17 0.9133480964345664 -0.40717963448479344
12652465333.333334 0.908620430060333 -0.41762293289137326 -9.456840387846741e-17 8.383566759367566e-17 -9.456840387846741e-17 8.383566759367566e-17 0.9086207154478404 -0.417622311974433
12653082666.666666 0.9037736513689895 -0.4280107324483585 -9.357541539004785e-17 8.490589937417377e-17 -9.357541539004785e-17 8.490589937417377e-17 0.9037739438408594 -0.4280101148736499
12653700000.0 0.8988081189509047 -0.43834229240144346 -9.257032753454742e-17 8.596438361682895e-17 -9.257032753454742e-17 8.596438361682895e-17 0.8988084184680174 -0.43834167824978426
12654317333.333334 0.8937244852654544 -0.44861625520796194 -9.155327913416436e-17 8.70109836802117e-17 -9.155327913416436e-17 8.70109836802117e-17 0.8937247917877685 -0.4486156445597122
12654934666.666666 0.8885234182902059 -0.4588312708934558 -9.052441055249635e-17 8.804556456160473e-17 -9.052441055249635e-17 8.804556456160473e-17 0.8885237317767641 -0.45883066382850785
12655552000.0 0.8832056014331315 -0.46898599722908285 -8.948386367521371e-17 8.906799291437283e-17 -8.948386367521371e-17 8.906799291437283e-17 0.8832059218420645 -0.4689853938268499
12656169333.333334 0.8777717334429778 -0.4790790999076524 -8.843178189057326e-17 9.007813706507004e-17 -8.843178189057326e-17 9.007813706507004e-17 0.8777720607315116 -0.479078500247059
12656786666.666666 0.8722225283172458 -0.48910925271935646 -8.736831006966609e-17 9.107586703039092e-17 -8.736831006966609e-17 9.107586703039092e-17 0.872222862441707 -0.489108656878828
12657404000.0 0.8665587152084898 -0.49907513772580187 -8.629359454653796e-17 9.206105453382572e-17 -8.629359454653796e-17 9.206105453382572e-17 0.8665590561243102 -0.4990745457832537
12658021333.333334 0.8607810383284518 -0.5089754454332834 -8.520778309808985e-17 9.303357302211463e-17 -8.520778309808985e-17 9.303357302211463e-17 0.8607813859901753 -0.5089748574661114
12658638666.666666 0.8548902568504052 -0.5188088749646291 -8.411102492383081e-17 9.399329768143205e-17 -8.411102492383081e-17 9.399329768143205e-17 0.8548906112116954 -0.5188082910496997
12659256000.0 0.8488871448091717 -0.5285741342305237 -8.300347062536562e-17 9.494010545340588e-17 -8.300347062536562e-17 9.494010545340588e-17 0.848887505822815 -0.528573554444163
12659873333.333334 0.8427724909995999 -0.5382699400989671 -8.188527218582196e-17 9.587387505079245e-17 -8.188527218582196e-17 9.587387505079245e-17 0.8427728586175125 -0.5382693645169508
12660490666.666666 0.8365470988729078 -0.5478950185639013 -8.075658294901018e-17 9.679448697299e-17 -8.075658294901018e-17 9.679448697299e-17 0.836547473046145 -0.5478944472614463
12661108000.0 0.830211786430944 -0.5574481049128752 -7.96175575984246e-17 9.770182352129207e-17 -7.96175575984246e-17 9.770182352129207e-17 0.8302121671097032 -0.5574475379646286
12661725333.333334 0.8237673861189825 -0.5669279438927964 -7.846835213612512e-17 9.859576881385481e-17 -7.846835213612512e-17 9.859576881385481e-17 0.8237677732526121 -0.5669273813728256
12662342666.666666 0.8172147447160768 -0.5763332898752715 -7.730912386138093e-17 9.947620880047176e-17 -7.730912386138093e-17 9.947620880047176e-17 0.81721513825308 -0.5763327318570541
12662960000.0 0.8105547232239315 -0.5856629070200641 -7.614003134920917e-17 1.0034303127705278e-16 -7.614003134920917e-17 1.0034303127705278e-16 0.8105551231119779 -0.5856623535764808
12663577333.333334 0.8037881967537435 -0.5949155694375309 -7.496123442870589e-17 1.0119612589988514e-16 -7.496123442870589e-17 1.0119612589988514e-16 0.8037886029396719 -0.594915020640853
12664194666.666666 0.7969160544112112 -0.6040900613497 -7.377289416125009e-17 1.0203538419961811e-16 -7.377289416125009e-17 1.0203538419961811e-16 0.7969164668410381 -0.6040895172715817
12664812000.0 0.7899391991796897 -0.6131851772500423 -7.257517281853709e-17 1.0286069959500185e-16 -7.257517281853709e-17 1.0286069959500185e-16 0.7899396177986181 -0.6131846379615112
12665429333.333334 0.7828585478015974 -0.6221997220618077 -7.136823386045643e-17 1.0367196740637208e-16 -7.136823386045643e-17 1.0367196740637208e-16 0.7828589725540195 -0.6221991876332539
12666046666.666666 0.7756750306579354 -0.6311325112950746 -7.015224191285521e-17 1.0446908486885094e-16 -7.015224191285521e-17 1.0446908486885094e-16 0.7756754614874454 -0.6311319817962441
12666664000.0 0.7683895916459181 -0.6399823712025475 -6.892736274505971e-17 1.0525195114535166e-16 -6.892736274505971e-17 1.0525195114535166e-16 0.7683900284953168 -0.6399818467025316
12667281333.333334 0.7610031880551581 -0.6487481389335165 -6.769376324740224e-17 1.0602046733922196e-16 -6.769376324740224e-17 1.0602046733922196e-16 0.7610036308664604 -0.6487476195007424
12667898666.666666 0.7535167904417956 -0.6574286626867671 -6.645161140846076e-17 1.0677453650672004e-16 -6.645161140846076e-17 1.0677453650672004e-16 0.7535172391562388 -0.6574281483889899
12668516000.0 0.7459313825007614 -0.6660228018621586 -6.520107629223838e-17 1.0751406366917393e-16 -6.520107629223838e-17 1.0751406366917393e-16 0.7459318370588125 -0.6660222927664515
12669133333.333334 0.73824796093695 -0.6745294272100009 -6.39423280152186e-17 1.0823895582486962e-16 -6.39423280152186e-17 1.0823895582486962e-16 0.738248421278316 -0.674528923382749
12669750666.666666 0.7304675353338668 -0.6829474209798893 -6.267553772323036e-17 1.0894912196070601e-16 -6.267553772323036e-17 1.0894912196070601e-16 0.7304680013974986 -0.6829469224867774
12670368000.0 0.7225911280211141 -0.6912756770673985 -6.140087756824315e-17 1.0964447306354431e-16 -6.140087756824315e-17 1.0964447306354431e-16 0.7225915997452175 -0.6912751839734039
