! Parameters = {f0=12700.012000; bw=77.238000; Q=6100.000000; N=10; m_0_1=1.209705; m_1_1=-0.619175; m_1_2=1.044517; m_2_2=-0.619824; m_2_3=0.681480; m_2_8=-0.002451; m_2_9=0.034253; m_3_3=-0.621761; m_3_4=0.570009; m_3_7=-0.001851; m_3_8=-0.098939; m_3_9=-0.002451; m_4_4=-0.624686; m_4_5=0.406344; m_4_6=0.001666; m_4_7=-0.119488; m_4_8=-0.001851; m_5_5=-0.624304; m_5_6=0.813699; m_5_7=0.001666; m_6_6=-0.624305; m_6_7=0.406686; m_7_7=-0.624672; m_7_8=0.570127; m_8_8=-0.621763; m_8_9=0.681793; m_9_9=-0.619829; m_9_10=1.045595; m_10_10=-0.619185; m_10_11=1.210500}
!
! Created with skrf (http://scikit-rf.org).
# Hz S RI R 50.0 
!freq ReS11 ImS11 ReS21 ImS21 ReS12 ImS12 ReS22 ImS22
12607400000.0 0.8744608097046265 -0.4850961680848127 -5.78024733754319e-17 5.886229155033806e-17 -5.78024733754319e-17 5.886229155033806e-17 0.8744611189288863 -0.4850956106598774
12608017333.333334 0.8701874979814048 -0.49272073059361127 -5.726930433163757e-17 5.935870890005636e-17 -5.726930433163757e-17 5.935870890005636e-17 0.8701878120505611 -0.49272017591985906
12608634666.666666 0.8658477081579119 -0.5003076516280074 -5.67318790095598e-17 5.985030380526383e-17 -5.67318790095598e-17 5.985030380526383e-17 0.8658480270474972 -0.5003070997475406
12609252000.0 0.8614417717731072 -0.5078563515840377 -5.619024096743894e-17 6.033703983623756e-17 -5.619024096743894e-17 6.033703983623756e-17 0.8614420954582901 -0.5078558025387426
12609869333.333334 0.8569700254191709 -0.5153662537777445 -5.564443407474242e-17 6.08188809561705e-17 -5.564443407474242e-17 6.08188809561705e-17 0.8569703538747538 -0.515365707609285
12610486666.666666 0.8524328107159147 -0.5228367844890075 -5.509450250863412e-17 6.129579152381759e-17 -5.509450250863412e-17 6.129579152381759e-17 0.8524331439163406 -0.5228362412388251
12611104000.0 0.8478304742845151 -0.5302673730056696 -5.454049075039069e-17 6.176773629613618e-17 -5.454049075039069e-17 6.176773629613618e-17 0.8478308122038652 -0.530266832714978
12611721333.333334 0.8431633677212322 -0.5376574516667931 -5.3982443581848654e-17 6.223468043084776e-17 -5.3982443581848654e-17 6.223468043084776e-17 0.84316371033323 -0.5376569143765758
12612338666.666666 0.8384318475704069 -0.5450064559062708 -5.3420406081769855e-17 6.269658948902075e-17 -5.3420406081769855e-17 6.269658948902075e-17 0.8384321948484207 -0.5450059216572787
12612956000.0 0.833636275297202 -0.5523138242959773 -5.285442362221963e-17 6.315342943758877e-17 -5.285442362221963e-17 6.315342943758877e-17 0.8336366272142457 -0.5523132931287247
12613573333.333334 0.8287770172601902 -0.5595789985883507 -5.2284541864931883e-17 6.360516665183171e-17 -5.2284541864931883e-17 6.360516665183171e-17 0.8287773737889268 -0.5595784705431126
12614190666.666666 0.8238544446831199 -0.5668014237594211 -5.1710806757619885e-17 6.405176791785024e-17 -5.1710806757619885e-17 6.405176791785024e-17 0.8238548057958621 -0.5668008988762302
12614808000.0 0.8188689336266932 -0.5739805480509975 -5.113326453029371e-17 6.449320043498524e-17 -5.113326453029371e-17 6.449320043498524e-17 0.818869299295405 -0.5739800263696396
12615425333.333334 0.8138208649598031 -0.5811158230128639 -5.055196169154617e-17 6.492943181821299e-17 -5.055196169154617e-17 6.492943181821299e-17 0.8138212351561063 -0.5811153045728787
12616042666.666666 0.8087106243304437 -0.5882067035446843 -4.9966945024820155e-17 6.536043010050544e-17 -4.9966945024820155e-17 6.536043010050544e-17 0.8087109990256147 -0.5882061883853588
12616660000.0 0.803538602136243 -0.5952526479376408 -4.93782615846544e-17 6.578616373515857e-17 -4.93782615846544e-17 6.578616373515857e-17 0.803538981301218 -0.5952521360980074
12617277333.333334 0.7983051934946054 -0.602253117915864 -4.878595869291703e-17 6.620660159808155e-17 -4.878595869291703e-17 6.620660159808155e-17 0.7983055770999825 -0.6022526094346985
12617894666.666666 0.7930107982126833 -0.6092075786773528 -4.819008393501219e-17 6.662171299005745e-17 -4.819008393501219e-17 6.662171299005745e-17 0.7930111862287231 -0.6092070735931696
12618512000.0 0.7876558207565375 -0.6161154989352124 -4.759068515605616e-17 6.703146763897813e-17 -4.759068515605616e-17 6.703146763897813e-17 0.7876562131531676 -0.6161149972862632
12619129333.333334 0.7822406702205518 -0.6229763509578368 -4.69878104570731e-17 6.743583570201828e-17 -4.69878104570731e-17 6.743583570201828e-17 0.7822410669673681 -0.6229758527821074
12619746666.666666 0.7767657602959893 -0.6297896106094741 -4.6381508191128e-17 6.783478776780548e-17 -4.6381508191128e-17 6.783478776780548e-17 0.776766161362258 -0.6297891159446811
12620364000.0 0.771231509239386 -0.6365547573902655 -4.577182695946097e-17 6.822829485854287e-17 -4.577182695946097e-17 6.822829485854287e-17 0.7712319145940455 -0.6365542662738527
12620981333.333334 0.7656383398407565 -0.6432712744758077 -4.515881560762103e-17 6.861632843208542e-17 -4.515881560762103e-17 6.861632843208542e-17 0.7656387494524227 -0.643270786944946
12621598666.666666 0.7599866793911039 -0.6499386487568839 -4.4542523221545655e-17 6.899886038400611e-17 -4.4542523221545655e-17 6.899886038400611e-17 0.7599870932280689 -0.6499381648484649
12622216000.0 0.7542769596499329 -0.6565563708784601 -4.392299912364999e-17 6.937586304960884e-17 -4.392299912364999e-17 6.937586304960884e-17 0.7542773776801702 -0.6565558906290964
12622833333.333334 0.7485096168121235 -0.6631239352787743 -4.3300292868895794e-17 6.974730920590944e-17 -4.3300292868895794e-17 6.974730920590944e-17 0.7485100390032889 -0.6631234587247948
12623450666.666666 0.7426850914747546 -0.6696408402277864 -4.2674454240835657e-17 7.011317207358628e-17 -4.2674454240835657e-17 7.011317207358628e-17 0.7426855177941891 -0.6696403674052339
12624068000.0 0.7368038286033322 -0.6761065878656352 -4.204553324764309e-17 7.047342531889434e-17 -4.204553324764309e-17 7.047342531889434e-17 0.7368042590180652 -0.6761061188102647
12624685333.333334 0.7308662774977764 -0.6825206842406936 -4.1413580118124174e-17 7.082804305554441e-17 -4.1413580118124174e-17 7.082804305554441e-17 0.730866711974527 -0.6825202189879682
12625302666.666666 0.7248728917582881 -0.6888826393470933 -4.07786452977384e-17 7.117699984653361e-17 -4.07786452977384e-17 7.117699984653361e-17 0.7248733302634693 -0.688882177932183
12625920000.0 0.7188241292503895 -0.6951919671624949 -4.014077944455321e-17 7.152027070596834e-17 -4.014077944455321e-17 7.152027070596834e-17 0.7188245717501089 -0.695191509620272
12626537333.333334 0.712720452070293 -0.7014481856848425 -3.9500033425242674e-17 7.185783110081888e-17 -3.9500033425242674e-17 7.185783110081888e-17 0.7127208985303568 -0.7014477320498805
12627154666.666666 0.7065623265093671 -0.7076508169694352 -3.885645831103065e-17 7.21896569526602e-17 -3.885645831103065e-17 7.21896569526602e-17 0.7065627768952827 -0.7076503672760063
12627772000.0 0.7003502230184734 -0.7137993871654805 -3.821010537361942e-17 7.251572463937664e-17 -3.821010537361942e-17 7.251572463937664e-17 0.7003506772954501 -0.713798941447551
12628389333.333334 0.6940846161722808 -0.7198934265520259 -3.7561026081143516e-17 7.283601099680952e-17 -3.7561026081143516e-17 7.283601099680952e-17 0.6940850743052365 -0.7198929848432574
12629006666.666666 0.6877659846327172 -0.7259324695741535 -3.690927209406044e-17 7.315049332039492e-17 -3.690927209406044e-17 7.315049332039492e-17 0.6877664465862767 -0.7259320319078957
12629624000.0 0.6813948111126172 -0.731916054878318 -3.6254895261060905e-17 7.345914936674734e-17 -3.6254895261060905e-17 7.345914936674734e-17 0.6813952768511183 -0.7319156212876101
12630241333.333334 0.6749715823387064 -0.7378437253477348 -3.5597947614951413e-17 7.376195735521417e-17 -3.5597947614951413e-17 7.376195735521417e-17 0.6749720518262001 -0.7378432958653006
12630858666.666666 0.6684967890146244 -0.7437150281371075 -3.493848136853919e-17 7.405889596938715e-17 -3.493848136853919e-17 7.405889596938715e-17 0.6684972622148792 -0.743714602795354
12631476000.0 0.6619709257830806 -0.7495295147075477 -3.4276548910470515e-17 7.434994435859193e-17 -3.4276548910470515e-17 7.434994435859193e-17 0.661971402659586 -0.7495290935385633
12632093333.333334 0.655394491188426 -0.755286740860519 -3.361220280110796e-17 7.463508213931803e-17 -3.361220280110796e-17 7.463508213931803e-17 0.6553949717043929 -0.7552863238960693
12632710666.666666 0.6487679876384169 -0.7609862667719033 -3.294549576835565e-17 7.49142893966302e-17 -3.294549576835565e-17 7.49142893966302e-17 0.6487684717567826 -0.76098585404343
12633328000.0 0.6420919213657283 -0.7666276570256956 -3.2276480703474973e-17 7.518754668554095e-17 -3.2276480703474973e-17 7.518754668554095e-17 0.6420924090491578 -0.7666272485643131
12633945333.333334 0.6353668023894696 -0.7722104806470972 -3.160521065691719e-17 7.54548350323349e-17 -3.160521065691719e-17 7.54548350323349e-17 0.6353672936003598 -0.7722100764835916
12634562666.666666 0.6285931444760958 -0.777734311135554 -3.0931738834125784e-17 7.571613593586318e-17 -3.0931738834125784e-17 7.571613593586318e-17 0.6285936391765774 -0.7777339113003797
12635180000.0 0.6217714651002655 -0.783198726497247 -3.0256118591320105e-17 7.597143136880515e-17 -3.0256118591320105e-17 7.597143136880515e-17 0.6217719632522068 -0.7831983310205253
12635797333.333334 0.6149022854051562 -0.7886033092774574 -2.957840343128583e-17 7.622070377888457e-17 -2.957840343128583e-17 7.622070377888457e-17 0.6149027869701653 -0.788602918188973
12636414666.666666 0.6079861301628257 -0.793947646592313 -2.889864699915578e-17 7.646393609004907e-17 -2.889864699915578e-17 7.646393609004907e-17 0.6079866351022538 -0.7939472599215132
12637032000.0 0.601023527733969 -0.7992313301604582 -2.821690307816191e-17 7.670111170361942e-17 -2.821690307816191e-17 7.670111170361942e-17 0.6010240360089136 -0.7992309479364497
12637649333.333334 0.5940150100276427 -0.8044539563341712 -2.7533225585399706e-17 7.693221449939282e-17 -2.7533225585399706e-17 7.693221449939282e-17 0.5940155215989497 -0.8044535785857178
12638266666.666666 0.5869611124606053 -0.8096151261302186 -2.6847668567573e-17 7.715722883671251e-17 -2.6847668567573e-17 7.715722883671251e-17 0.5869616272888735 -0.8096147528857403
12638884000.0 0.579862373916394 -0.8147144452603531 -2.616028619673272e-17 7.737613955549911e-17 -2.616028619673272e-17 7.737613955549911e-17 0.5798628919619763 -0.814714076547922
12639501333.333334 0.5727193367042234 -0.819751524161386 -2.5471132766002868e-17 7.75889319772453e-17 -2.5471132766002868e-17 7.75889319772453e-17 0.5727198579272313 -0.819751160008726
12640118666.666666 0.5655325465175581 -0.8247259780249478 -2.4780262685325396e-17 7.779559190596415e-17 -2.4780262685325396e-17 7.779559190596415e-17 0.5655330708778645 -0.8247256184594319
12640736000.0 0.5583025523921432 -0.8296374268270806 -2.408773047712675e-17 7.799610562912175e-17 -2.408773047712675e-17 7.799610562912175e-17 0.5583030798493847 -0.829637071875728
12641353333.333334 0.5510299066645973 -0.8344854953568965 -2.339359077208831e-17 7.819045991849779e-17 -2.339359077208831e-17 7.819045991849779e-17 0.5510304371781788 -0.8344851450463727
12641970666.666666 0.5437151649297283 -0.8392698132455854 -2.26978983047989e-17 7.837864203104161e-17 -2.26978983047989e-17 7.837864203104161e-17 0.5437156984588235 -0.839269467602196
12642588000.0 0.536358885998318 -0.8439900149945401 -2.2000707909472085e-17 7.856063970966865e-17 -2.2000707909472085e-17 7.856063970966865e-17 0.5363594225018762 -0.843989674044235
12643205333.333334 0.52896163185439 -0.8486457400033195 -2.130207451563298e-17 7.873644118402655e-17 -2.130207451563298e-17 7.873644118402655e-17 0.528962171291136 -0.8486454037716853
12643822666.666666 0.521523967612273 -0.8532366325971912 -2.0602053143792468e-17 7.890603517122413e-17 -2.0602053143792468e-17 7.890603517122413e-17 0.5215245099407123 -0.8532363011094525
12644440000.0 0.5140464614734066 -0.8577623420543196 -1.9900698901136272e-17 7.906941087651715e-17 -1.9900698901136272e-17 7.906941087651715e-17 0.5140470066518275 -0.8577620153353359
12645057333.333334 0.5065296846830044 -0.8622225226325142 -1.9198066977193235e-17 7.922655799395992e-17 -1.9198066977193235e-17 7.922655799395992e-17 0.5065302326694819 -0.8622222007067792
12645674666.666666 0.49897421148639337 -0.8666168335956628 -1.8494212639512454e-17 7.93774667070153e-17 -1.8494212639512454e-17 7.93774667070153e-17 0.49897476223879156 -0.8666165164872999
12646292000.0 0.49138061908496833 -0.8709449392398546 -1.7789191229297482e-17 7.952212768913471e-17 -1.7789191229297482e-17 7.952212768913471e-17 0.49138117256094427 -0.8709446269726179
12646909333.333334 0.4837494875924177 -0.8752065089188458 -1.7083058157104435e-17 7.966053210428508e-17 -1.7083058157104435e-17 7.966053210428508e-17 0.4837500437494249 -0.8752062015161175
12647526666.666666 0.4760813999901355 -0.8794012170694744 -1.637586889847306e-17 7.979267160745129e-17 -1.637586889847306e-17 7.979267160745129e-17 0.47608195878542625 -0.879400914554262
12648144000.0 0.4683769420828065 -0.883528743236461 -1.5667678989581414e-17 7.991853834509348e-17 -1.5667678989581414e-17 7.991853834509348e-17 0.46837750347343615 -0.8835284456313969
12648761333.333334 0.46063670245360405 -0.8875887720969158 -1.4958544022904533e-17 8.003812495556546e-17 -1.4958544022904533e-17 8.003812495556546e-17 0.4606372663964339 -0.8875884794242552
12649378666.666666 0.4528612724193267 -0.891580993484378 -1.4248519642861325e-17 8.015142456949652e-17 -1.4248519642861325e-17 8.015142456949652e-17 0.4528618388710271 -0.8915807057659969
12649996000.0 0.4450512459850716 -0.8955051024125862 -1.3537661541447622e-17 8.025843081013617e-17 -1.3537661541447622e-17 8.025843081013617e-17 0.4450518149021258 -0.8955048196699807
12650613333.333334 0.4372072197989329 -0.8993607990987421 -1.2826025453885478e-17 8.035913779365733e-17 -1.2826025453885478e-17 8.035913779365733e-17 0.43720779113764 -0.8993605213530259
12651230666.666666 0.42932979310652186 -0.903147788986361 -1.2113667154270892e-17 8.045354012942149e-17 -1.2113667154270892e-17 8.045354012942149e-17 0.42933036682299974 -0.903147516258263
12651848000.0 0.4214195677049057 -0.9068657827679089 -1.1400642451199555e-17 8.054163292020797e-17 -1.1400642451199555e-17 8.054163292020797e-17 0.4214201437550955 -0.9068655150777738
12652465333.333334 0.4134771478969668 -0.9105144964067465 -1.0687007183412196e-17 8.062341176240183e-17 -1.0687007183412196e-17 8.062341176240183e-17 0.4134777262366355 -0.9105142337745319
12653082666.666666 0.40550314044508445 -0.9140936511589043 -9.972817215441698e-18 8.069887274614355e-17 -9.972817215441698e-18 8.069887274614355e-17 0.4055037210298282 -0.9140933936041788
12653700000.0 0.39749815452462245 -0.9176029735944409 -9.258128433225304e-18 8.07680124554432e-17 -9.258128433225304e-18 8.07680124554432e-17 0.397498737309871 -0.9176027211363854
12654317333.333334 0.38946280167773245 -0.9210421956181881 -8.54299673977446e-18 8.0830827968251e-17 -8.54299673977446e-18 8.0830827968251e-17 0.38946338661875074 -0.9210419482755899
12654934666.666666 0.381397695766371 -0.9244110544903404 -7.827478050789718e-18 8.088731685649396e-17 -7.827478050789718e-18 8.088731685649396e-17 0.3813982828182647 -0.924410812281596
12655552000.0 0.3733034529254058 -0.9277092928465298 -7.111628290299447e-18 8.093747718607247e-17 -7.111628290299447e-18 8.093747718607247e-17 0.3733040420431232 -0.9277090557896411
12656169333.333334 0.3651806915157812 -0.9309366587173894 -6.395503386320283e-18 8.098130751681654e-17 -6.395503386320283e-18 8.098130751681654e-17 0.36518128265411665 -0.9309364268299611
12656786666.666666 0.3570300320769879 -0.9340929055479144 -5.679159266472898e-18 8.101880690240694e-17 -5.679159266472898e-18 8.101880690240694e-17 0.35703062519058687 -0.9340926788471581
12657404000.0 0.3488520972798975 -0.9371777922162146 -4.962651853645604e-18 8.104997489025505e-17 -4.962651853645604e-18 8.104997489025505e-17 0.348852692323258 -0.9371775707189406
12658021333.333334 0.3406475118789777 -0.9401910830520048 -4.246037061620838e-18 8.10748115213465e-17 -4.246037061620838e-18 8.10748115213465e-17 0.3406481088064558 -0.9401908667746279
12658638666.666666 0.33241690266480683 -0.9431325478545302 -3.529370790743234e-18 8.109331733004434e-17 -3.529370790743234e-18 8.109331733004434e-17 0.33241750143061827 -0.9431323368130615
12659256000.0 0.32416089841589396 -0.9460019619102495 -2.8127089235443294e-18 8.110549334385581e-17 -2.8127089235443294e-18 8.110549334385581e-17 0.324161498974119 -0.9460017561203009
12659873333.333334 0.3158801298508853 -0.9487991060099229 -2.096107320416488e-18 8.111134108315923e-17 -2.096107320416488e-18 8.111134108315923e-17 0.31588073215547163 -0.9487989054867025
12660490666.666666 0.3075752295803532 -0.9515237664653644 -1.3796218152694778e-18 8.111086256089347e-17 -1.3796218152694778e-18 8.111086256089347e-17 0.30757583358511964 -0.9515235712236768
12661108000.0 0.29924683205830704 -0.9541757351258245 -6.633082111677449e-19 8.110406028220927e-17 -6.633082111677449e-19 8.110406028220927e-17 0.29924743771694695 -0.9541755451800695
12661725333.333334 0.2908955735339391 -0.9567548093938182 5.277772397287062e-20 8.109093724408152e-17 5.277772397287062e-20 8.109093724408152e-17 0.2908961808000239 -0.9567546247579891
12662342666.666666 0.28252209200282885 -0.9592607922406639 7.685802617439417e-19 8.107149693488432e-17 7.685802617439417e-19 8.107149693488432e-17 0.28252270082981207 -0.959260612928348
12662960000.0 0.27412702715831216 -0.9616934922215012 1.4840437175500805e-18 8.104574333392738e-17 1.4840437175500805e-18 8.104574333392738e-17 0.27412763749953245 -0.9616933182458774
12663577333.333334 0.2657110203425844 -0.9640527234899264 2.1991124549463447e-18 8.101368091095456e-17 2.1991124549463447e-18 8.101368091095456e-17 0.26571163215126903 -0.9640525548637634
12664194666.666666 0.25727471449770456 -0.9663383058121862 2.9137308899448523e-18 8.09753146256042e-17 2.9137308899448523e-18 8.09753146256042e-17 0.25727532772697376 -0.9663381425478452
12664812000.0 0.24881875411647847 -0.9685500645809512 3.6278434953271574e-18 8.093064992683183e-17 3.6278434953271574e-18 8.093064992683183e-17 0.2488193687193482 -0.9685499066903812
12665429333.333334 0.24034378519316663 -0.9706878308286658 4.341394804950512e-18 8.087969275229462e-17 4.341394804950512e-18 8.087969275229462e-17 0.24034440112255284 -0.9706876783234053
12666046666.666666 0.23185045517438285 -0.9727514412403989 5.054329418033914e-18 8.082244952769907e-17 5.054329418033914e-18 8.082244952769907e-17 0.23185107238310407 -0.972751294131571
12666664000.0 0.2233394129091615 -0.974740738166428 5.76659200347412e-18 8.075892716610799e-17 5.76659200347412e-18 8.075892716610799e-17 0.2233400313499437 -0.9747405964647454
12667281333.333334 0.21481130859988734 -0.9766555696341698 6.4781273040971816e-18 8.06891330672146e-17 6.4781273040971816e-18 8.06891330672146e-17 0.214811928225367 -0.9766554333499305
12667898666.666666 0.206266793752319 -0.9784957893598621 7.188880140959929e-18 8.061307511657427e-17 7.188880140959929e-18 8.061307511657427e-17 0.20626741451504643 -0.9784956585029487
12668516000.0 0.19770652112581558 -0.9802612567597321 7.898795417609219e-18 8.053076168480096e-17 7.898795417609219e-18 8.053076168480096e-17 0.19770714297825898 -0.9802611313396117
12669133333.333334 0.18913114468372 -0.9819518369606864 8.607818124335523e-18 8.04422016267275e-17 8.607818124335523e-18 8.04422016267275e-17 0.18913176757826916 -0.981951716986411
12669750666.666666 0.1805413195430937 -0.9835674008106812 9.31589334243858e-18 8.034740428052481e-17 9.31589334243858e-18 8.034740428052481e-17 0.1805419434320631 -0.9835672862908844
12670368000.0 0.17193770192489097 -0.9851078248885394 1.002296624846376e-17 8.024637946678708e-17 1.002296624846376e-17 8.024637946678708e-17 0.17193832676052384 -0.9851077158314376
12670985333.333334 0.16332094910374337 -0.986572991513397 1.0728982118429375e-17 8.013913748757926e-17 1.0728982118429375e-17 8.013913748757926e-17 0.16332157483821563 -0.9865728879267899
