! Parameters = {f0=12700.012000; bw=77.238000; Q=6100.000000; N=10; m_0_1=1.175470; m_1_1=-1.132689; m_1_2=1.010282; m_2_2=-1.133338; m_2_3=0.647245; m_2_8=-0.004163; m_2_9=0.032541; m_3_3=-1.135275; m_3_4=0.535774; m_3_7=-0.003563; m_3_8=-0.100651; m_3_9=-0.004163; m_4_4=-1.138200; m_4_5=0.372109; m_4_6=-0.000046; m_4_7=-0.121200; m_4_8=-0.003563; m_5_5=-1.137818; m_5_6=0.779464; m_5_7=-0.000046; m_6_6=-1.137819; m_6_7=0.372451; m_7_7=-1.138186; m_7_8=0.535892; m_8_8=-1.135277; m_8_9=0.647558; m_9_9=-1.133343; m_9_10=1.011360; m_10_10=-1.132699; m_10_11=1.176265}
!
! Created with skrf (http://scikit-rf.org).
# Hz S RI R 50.0 
!freq ReS11 ImS11 ReS21 ImS21 ReS12 ImS12 ReS22 ImS22
12607400000.0 0.24222762260514155 0.9702194488088298 -3.5172032599076656e-17 -5.966320294361924e-17 -3.5172032599076656e-17 -5.966320294361924e-17 0.24222702158446602 0.9702195988610859
12608017333.333334 0.2497185634780118 0.9683184595236872 -3.5630365484833895e-17 -5.937480727963984e-17 -3.5630365484833895e-17 -5.937480727963984e-17 0.24971796366431445 0.9683186142087725
12608634666.666666 0.2571945891695599 0.9663596345573165 -3.608634098722584e-17 -5.908289538993407e-17 -3.608634098722584e-17 -5.908289538993407e-17 0.25719399059854614 0.9663597938655374
12609252000.0 0.2646552531520148 0.964343090906391 -3.653993216769449e-17 -5.878748648903066e-17 -3.653993216769449e-17 -5.878748648903066e-17 0.26465465585931286 0.9643432548277807
12609869333.333334 0.2721001098152672 0.9622689490149661 -3.699111224387814e-17 -5.848859999754819e-17 -3.699111224387814e-17 -5.848859999754819e-17 0.27209951383642506 0.9622691175392827
12610486666.666666 0.27952871449312844 0.960137332767385 -3.743985459118931e-17 -5.818625554092673e-17 -3.743985459118931e-17 -5.818625554092673e-17 0.2795281198636122 0.9601375058841121
12611104000.0 0.28694062349040816 0.9579483694807277 -3.788613274438339e-17 -5.78804729481455e-17 -3.788613274438339e-17 -5.78804729481455e-17 0.2869400302456001 0.9579485471790764
12611721333.333334 0.2943353941088161 0.9557021898973846 -3.832992039910118e-17 -5.75712722504402e-17 -3.832992039910118e-17 -5.75712722504402e-17 0.29433480228401215 0.9557023721662936
12612338666.666666 0.3017125846738935 0.9533989281771021 -3.87711914134235e-17 -5.725867367999287e-17 -3.87711914134235e-17 -5.725867367999287e-17 0.3017119943043014 0.9533991150052377
12612956000.0 0.30907175456117536 0.9510387218890327 -3.920991980939883e-17 -5.694269766862062e-17 -3.920991980939883e-17 -5.694269766862062e-17 0.3090711656819125 0.9510389132647902
12613573333.333334 0.3164124642224546 0.9486217120035378 -3.964607977456266e-17 -5.662336484645252e-17 -3.964607977456266e-17 -5.662336484645252e-17 0.31641187686854577 0.9486219079150413
12614190666.666666 0.32373427521222414 0.946148042883705 -4.007964566345186e-17 -5.630069604058958e-17 -4.007964566345186e-17 -5.630069604058958e-17 0.32373368941859965 0.9461482433188102
12614808000.0 0.3310367502136483 0.9436178622767984 -4.0510591999108653e-17 -5.597471227375365e-17 -4.0510591999108653e-17 -5.597471227375365e-17 0.33103616601514246 0.9436180672230923
12615425333.333334 0.3383194530648997 0.9410313213053617 -4.093889347456722e-17 -5.564543476292919e-17 -4.093889347456722e-17 -5.564543476292919e-17 0.3383188704962473 0.9410315307501617
12616042666.666666 0.3455819487849938 0.9383885744582648 -4.136452495432769e-17 -5.531288491799514e-17 -4.136452495432769e-17 -5.531288491799514e-17 0.3455813678808292 0.9383887883886209
12616660000.0 0.35282380359995735 0.9356897795814098 -4.1787461475835154e-17 -5.497708434033393e-17 -4.1787461475835154e-17 -5.497708434033393e-17 0.35282322439481223 0.9356899979841066
12617277333.333334 0.36004458496868363 0.9329350978683233 -4.2207678250925107e-17 -5.463805482144534e-17 -4.2207678250925107e-17 -5.463805482144534e-17 0.36004400749698456 0.9329353207298782
12617894666.666666 0.3672438616085539 0.9301246938506077 -4.262515066727222e-17 -5.4295818341539296e-17 -4.262515066727222e-17 -5.4295818341539296e-17 0.36724328590462085 0.9301249211572743
12618512000.0 0.3744212035216757 0.9272587353879331 -4.303985428983669e-17 -5.3950397068109874e-17 -4.303985428983669e-17 -5.3950397068109874e-17 0.37442062961971984 0.9272589671257011
12619129333.333334 0.3815761820199824 0.9243373936582369 -4.345176486226096e-17 -5.360181335452915e-17 -4.345176486226096e-17 -5.360181335452915e-17 0.3815756099541035 0.9243376298128316
12619746666.666666 0.3887083697513138 0.9213608431473113 -4.3860858308306954e-17 -5.325008973858847e-17 -4.3860858308306954e-17 -5.325008973858847e-17 0.3887077995554989 0.9213610837041963
12620364000.0 0.3958173407247299 0.9183292616384673 -4.4267110733243566e-17 -5.2895248941059725e-17 -4.4267110733243566e-17 -5.2895248941059725e-17 0.3958167724328508 0.9183295065828441
12620981333.333334 0.4029026703359018 0.9152428302019361 -4.4670498425232e-17 -5.253731386423918e-17 -4.4670498425232e-17 -5.253731386423918e-17 0.40290210398171344 0.9152430795187461
12621598666.666666 0.4099639353926558 0.9121017331839778 -4.5070997856712385e-17 -5.2176307590468575e-17 -4.5070997856712385e-17 -5.2176307590468575e-17 0.4099633710097943 0.9121019868579032
12622216000.0 0.4170007141400419 0.9089061581959631 -4.5468585685756697e-17 -5.1812253380665664e-17 -4.5468585685756697e-17 -5.1812253380665664e-17 0.4170001517620222 0.9089064162114268
12622833333.333334 0.42401258628575683 0.9056562961030596 -4.586323875743314e-17 -5.1445174672823313e-17 -4.586323875743314e-17 -5.1445174672823313e-17 0.424012025945971 0.9056565584442275
12623450666.666666 0.43099913302493786 0.902352341012977 -4.625493410513694e-17 -5.1075095080518334e-17 -4.625493410513694e-17 -5.1075095080518334e-17 0.4309985747566528 0.9023526076637576
12624068000.0 0.43795993706551295 0.8989944902642182 -4.6643648951921793e-17 -5.070203839139789e-17 -4.6643648951921793e-17 -5.070203839139789e-17 0.4379593809018682 0.8989947612082629
12624685333.333334 0.4448945826529419 0.8955829444143714 -4.7029360711828183e-17 -5.032602856564828e-17 -4.7029360711828183e-17 -5.032602856564828e-17 0.44489402862694843 0.8955832196350784
12625302666.666666 0.45180265559497457 0.8921179072281746 -4.741204699116214e-17 -4.99470897344884e-17 -4.741204699116214e-17 -4.99470897344884e-17 0.4518021037395131 0.8921181867086889
12625920000.0 0.45868374328669537 0.888599585665194 -4.779168558981877e-17 -4.956524619859948e-17 -4.779168558981877e-17 -4.956524619859948e-17 0.45868319363451293 0.8885998693884066
12626537333.333334 0.4655374347347336 0.8850281898676747 -4.8168254502538146e-17 -4.918052242659795e-17 -4.8168254502538146e-17 -4.918052242659795e-17 0.46553688731844267 0.8850284778162253
12627154666.666666 0.47236332058214314 0.8814039331478278 -4.854173192017722e-17 -4.879294305347155e-17 -4.854173192017722e-17 -4.879294305347155e-17 0.47236277543421956 0.8814042253041056
12627772000.0 0.47916099313280014 0.8777270319751123 -4.891209623098132e-17 -4.8402532878993155e-17 -4.891209623098132e-17 -4.8402532878993155e-17 0.4791604502855804 0.8777273283212553
12628389333.333334 0.48593004637560194 0.8739977059633823 -4.927932602180354e-17 -4.8009316866165703e-17 -4.927932602180354e-17 -4.8009316866165703e-17 0.48592950586128364 0.8739980064812835
12629006666.666666 0.49267007600889695 0.8702161778576846 -4.964340007935075e-17 -4.761332013961694e-17 -4.964340007935075e-17 -4.761332013961694e-17 0.49266953785953377 0.8702164825289869
12629624000.0 0.49938067946452797 0.8663826735210005 -5.0004297391395715e-17 -4.7214567984007807e-17 -5.0004297391395715e-17 -4.7214567984007807e-17 0.49938014371202955 0.8663829823271009
12630241333.333334 0.5060614559319532 0.862497421920716 -5.036199714797858e-17 -4.681308584242835e-17 -5.036199714797858e-17 -4.681308584242835e-17 0.5060609226080832 0.8624977348427674
12630858666.666666 0.5127120063819649 0.8585606551150765 -5.071647874260173e-17 -4.640889931477976e-17 -5.071647874260173e-17 -4.640889931477976e-17 0.512711475518339 0.8585609721339871
12631476000.0 0.5193319335909634 0.8545726082390659 -5.106772177341189e-17 -4.6002034156144716e-17 -5.106772177341189e-17 -4.6002034156144716e-17 0.5193314052190465 0.8545729293355012
12632093333.333334 0.5259208421641691 0.8505335194906669 -5.141570604435862e-17 -4.5592516275163185e-17 -5.141570604435862e-17 -4.5592516275163185e-17 0.5259203163152746 0.8505338446450504
12632710666.666666 0.5324783385595555 0.8464436301164447 -5.176041156635078e-17 -4.518037173238568e-17 -5.176041156635078e-17 -4.518037173238568e-17 0.5324778152648432 0.8464439593089601
12633328000.0 0.5390040311114028 0.8423031843971073 -5.210181855839884e-17 -4.476562673861944e-17 -5.210181855839884e-17 -4.476562673861944e-17 0.5390035104018768 0.8423035176076987
12633945333.333334 0.5454975300534016 0.8381124296330936 -5.243990744873899e-17 -4.434830765327211e-17 -5.243990744873899e-17 -4.434830765327211e-17 0.5454970119599087 0.8381127668414676
12634562666.666666 0.5519584475422211 0.8338716161296236 -5.2774658875942616e-17 -4.392844098268845e-17 -5.2774658875942616e-17 -4.392844098268845e-17 0.5519579320954487 0.8338719573152493
12635180000.0 0.5583863976804596 0.8295809971818842 -5.310605369002406e-17 -4.350605337846529e-17 -5.310605369002406e-17 -4.350605337846529e-17 0.558385884910934 0.8295813423239955
12635797333.333334 0.5647809965398827 0.825240829059776 -5.343407295352467e-17 -4.308117163577015e-17 -5.343407295352467e-17 -4.308117163577015e-17 0.5647804864779676 0.8252411781373732
12636414666.666666 0.5711418621841897 0.8208513709927184 -5.375869794257775e-17 -4.265382269165954e-17 -5.375869794257775e-17 -4.265382269165954e-17 0.5711413548600839 0.8208517239845677
12637032000.0 0.5774686146918968 0.8164128851541183 -5.407991014798308e-17 -4.222403362336032e-17 -5.407991014798308e-17 -4.222403362336032e-17 0.5774681101356326 0.8164132420387549
12637649333.333334 0.5837608761790971 0.8119256366456605 -5.439769127624458e-17 -4.179183164657194e-17 -5.439769127624458e-17 -4.179183164657194e-17 0.5837603744205392 0.8119259974013895
12638266666.666666 0.5900182708218724 0.8073898934815927 -5.471202325060099e-17 -4.13572441137536e-17 -5.471202325060099e-17 -4.13572441137536e-17 0.590017771890714 0.8073902580864885
12638884000.0 0.5962404248789193 0.8028059265725785 -5.50228882120533e-17 -4.092029851238967e-17 -5.50228882120533e-17 -4.092029851238967e-17 0.5962399288046834 0.8028062950044895
12639501333.333334 0.6024269667137154 0.7981740097096386 -5.5330268520361726e-17 -4.048102246326905e-17 -5.5330268520361726e-17 -4.048102246326905e-17 0.6024264735257508 0.7981743819461865
12640118666.666666 0.6085775268167624 0.7934944195477643 -5.563414675504036e-17 -4.003944371874367e-17 -5.563414675504036e-17 -4.003944371874367e-17 0.6085770365442429 0.7934947955663455
12640736000.0 0.6146917378278346 0.7887674355892531 -5.593450571634342e-17 -3.959559016096915e-17 -5.593450571634342e-17 -3.959559016096915e-17 0.6146912504997573 0.7887678153670409
12641353333.333334 0.6207692345575389 0.78399334016731 -5.623132842621088e-17 -3.9149489800178936e-17 -5.623132842621088e-17 -3.9149489800178936e-17 0.6207687502027218 0.7839937236812552
12641970666.666666 0.6268096540095321 0.7791724184288735 -5.652459812923725e-17 -3.870117077289644e-17 -5.652459812923725e-17 -3.870117077289644e-17 0.6268091726566124 0.7791728056557047
12642588000.0 0.6328126354019087 0.7743049583178071 -5.681429829359877e-17 -3.8250661340180215e-17 -5.681429829359877e-17 -3.8250661340180215e-17 0.6328121570793417 0.7743053492340343
12643205333.333334 0.6387778201889288 0.7693912505575631 -5.71004126119727e-17 -3.7797989885854487e-17 -5.71004126119727e-17 -3.7797989885854487e-17 0.6387773449249866 0.7693916451394788
12643822666.666666 0.6447048520823453 0.7644315886338887 -5.738292500245702e-17 -3.7343184914710115e-17 -5.738292500245702e-17 -3.7343184914710115e-17 0.644704379905115 0.7644319868575691
12644440000.0 0.6505933770727279 0.7594262687772617 -5.766181960945051e-17 -3.688627505073758e-17 -5.766181960945051e-17 -3.688627505073758e-17 0.6505929080101079 0.7594266706185663
12645057333.333334 0.6564430434505626 0.7543755899452302 -5.793708080454137e-17 -3.642728903531977e-17 -5.793708080454137e-17 -3.642728903531977e-17 0.656442577530264 0.7543759953798062
12645674666.666666 0.662253501827195 0.7492798538046163 -5.820869318736948e-17 -3.5966255725435605e-17 -5.820869318736948e-17 -3.5966255725435605e-17 0.6622530390767387 0.749280262807899
12646292000.0 0.6680244051560015 0.744139364713237 -5.847664158648172e-17 -3.550320409184621e-17 -5.847664158648172e-17 -3.550320409184621e-17 0.6680239456027148 0.7441397772604492
12646909333.333334 0.6737554087526639 0.7389544297021164 -5.874091106016326e-17 -3.503816321729131e-17 -5.874091106016326e-17 -3.503816321729131e-17 0.6737549524236821 0.7389548457682729
12647526666.666666 0.6794461703161447 0.7337253584568102 -5.900148689726212e-17 -3.45711622946662e-17 -5.900148689726212e-17 -3.45711622946662e-17 0.6794457172384064 0.7337257780167173
12648144000.0 0.6850963499489365 0.7284524632990779 -5.925835461800425e-17 -3.41022306251842e-17 -5.925835461800425e-17 -3.41022306251842e-17 0.6850959001491851 0.7284528863273371
12648761333.333334 0.6907056101774304 0.723136059168172 -5.951149997477581e-17 -3.3631397616565297e-17 -5.951149997477581e-17 -3.3631397616565297e-17 0.6907051636822095 0.7231364856391785
12649378666.666666 0.6962736159720071 0.717776463602085 -5.976090895290935e-17 -3.3158692781186943e-17 -5.976090895290935e-17 -3.3158692781186943e-17 0.6962731728076621 0.7177768934900328
12649996000.0 0.701800034767094 0.7123739967185471 -6.000656777145053e-17 -3.268414573423759e-17 -6.000656777145053e-17 -3.268414573423759e-17 0.7017995949597664 0.7123744299974263
12650613333.333334 0.7072845364811028 0.7069289811958216 -6.024846288390266e-17 -3.220778619187816e-17 -6.024846288390266e-17 -3.220778619187816e-17 0.7072841000567333 0.7069294178394243
12651230666.666666 0.7127267935359078 0.7014417422536764 -6.048658097896456e-17 -3.172964396938476e-17 -6.048658097896456e-17 -3.172964396938476e-17 0.7127263605202317 0.7014421822355958
12651848000.0 0.7181264808767729 0.6959126076335973 -6.072090898125751e-17 -3.124974897927703e-17 -6.072090898125751e-17 -3.124974897927703e-17 0.7181260512953186 0.6959130509272288
12652465333.333334 0.7234832759914203 0.6903419075795506 -6.095143405202109e-17 -3.0768131229474304e-17 -6.095143405202109e-17 -3.0768131229474304e-17 0.7234828498695103 0.6903423541580961
12653082666.666666 0.7287968589294421 0.6847299748181246 -6.117814358981116e-17 -3.0284820821413895e-17 -6.117814358981116e-17 -3.0284820821413895e-17 0.7287964362921884 0.6847304246545911
12653700000.0 0.7340669123215402 0.6790771445385055 -6.140102523117809e-17 -2.979984794817276e-17 -6.140102523117809e-17 -2.979984794817276e-17 0.7340664931938449 0.6790775976057088
12654317333.333334 0.7392931213981541 0.6733837543728126 -6.162006685132316e-17 -2.931324289260029e-17 -6.162006685132316e-17 -2.931324289260029e-17 0.7392927058047066 0.6733842106433775
12654934666.666666 0.7444751740085895 0.6676501443755771 -6.183525656475183e-17 -2.8825036025421794e-17 -6.183525656475183e-17 -2.8825036025421794e-17 0.7444747619738677 0.6676506038219415
12655552000.0 0.7496127606395107 0.6618766570036004 -6.204658272590297e-17 -2.833525780335454e-17 -6.204658272590297e-17 -2.833525780335454e-17 0.7496123521877747 0.6618771195980125
12656169333.333334 0.754705574433403 0.6560636370955168 -6.225403392976543e-17 -2.78439387672182e-17 -6.225403392976543e-17 -2.78439387672182e-17 0.7547051695886979 0.6560641028100411
12656786666.666666 0.7597533112069438 0.6502114318511594 -6.24575990124821e-17 -2.7351109540033363e-17 -6.24575990124821e-17 -2.7351109540033363e-17 0.7597529099930977 0.6502119006576773
12657404000.0 0.7647556694692074 0.6443203908107783 -6.265726705193884e-17 -2.685680082511582e-17 -6.265726705193884e-17 -2.685680082511582e-17 0.764755271909829 0.6443208626809886
12658021333.333334 0.7697123504396515 0.6383908658341835 -6.285302736833648e-17 -2.6361043404172098e-17 -6.285302736833648e-17 -2.6361043404172098e-17 0.7697119565581275 0.6383913407396042
12658638666.666666 0.7746230580658158 0.6324232110799018 -6.304486952474235e-17 -2.586386813540341e-17 -6.304486952474235e-17 -2.586386813540341e-17 0.7746226678853128 0.632423688991874
12659256000.0 0.779487499041319 0.6264177829836578 -6.323278332764564e-17 -2.5365305951561104e-17 -6.323278332764564e-17 -2.5365305951561104e-17 0.7794871125847785 0.6264182638733439
12659873333.333334 0.7843053828230626 0.6203749402374503 -6.341675882747211e-17 -2.4865387858058914e-17 -6.341675882747211e-17 -2.4865387858058914e-17 0.7843050001132037 0.6203754240758393
12660490666.666666 0.7890764216487348 0.6142950437679581 -6.359678631910211e-17 -2.4364144931038916e-17 -6.359678631910211e-17 -2.4364144931038916e-17 0.7890760427080493 0.6142955305258655
12661108000.0 0.7938003305540311 0.6081784567149359 -6.377285634237209e-17 -2.3861608315433307e-17 -6.377285634237209e-17 -2.3861608315433307e-17 0.7937999554047831 0.6081789463630047
12661725333.333334 0.7984768273895485 0.6020255444096794 -6.394495968254554e-17 -2.3357809223066655e-17 -6.394495968254554e-17 -2.3357809223066655e-17 0.7984764560537742 0.6020260369183837
12662342666.666666 0.8031056328377817 0.5958366743530281 -6.411308737079125e-17 -2.2852778930692867e-17 -6.411308737079125e-17 -2.2852778930692867e-17 0.803105265337287 0.5958371696926734
12662960000.0 0.8076864704296647 0.589612216193593 -6.427723068462965e-17 -2.2346548778074454e-17 -6.427723068462965e-17 -2.2346548778074454e-17 0.8076861067860249 0.5896127143343196
12663577333.333334 0.812219066561222 0.583352541705499 -6.443738114836825e-17 -2.1839150166047825e-17 -6.443738114836825e-17 -2.1839150166047825e-17 0.8122187067957798 0.5833530426172823
12664194666.666666 0.8167031505097769 0.5770580247663621 -6.459353053352739e-17 -2.1330614554569147e-17 -6.459353053352739e-17 -2.1330614554569147e-17 0.81670279464364 0.5770585284190142
12664812000.0 0.8211384544502487 0.5707290413347712 -6.474567085924122e-17 -2.082097346078481e-17 -6.474567085924122e-17 -2.082097346078481e-17 0.8211381025042922 0.5707295476979447
12665429333.333334 0.8255247134710412 0.5643659694279994 -6.489379439265334e-17 -2.031025845706973e-17 -6.489379439265334e-17 -2.031025845706973e-17 0.8255243654659022 0.5643664784711874
12666046666.666666 0.8298616655898942 0.5579691890993772 -6.503789364928782e-17 -1.979850116909265e-17 -6.503789364928782e-17 -1.979850116909265e-17 0.8298613215459737 0.5579697007919158
12666664000.0 0.8341490517696604 0.5515390824154052 -6.517796139341344e-17 -1.9285733273849174e-17 -6.517796139341344e-17 -1.9285733273849174e-17 0.8341487117071194 0.5515395967264749
12667281333.333334 0.8383866159335049 0.5450760334333329 -6.531399063838528e-17 -1.8771986497720494e-17 -6.531399063838528e-17 -1.8771986497720494e-17 0.8383862798722665 0.5450765503319618
12667898666.666666 0.8425741049804727 0.538580428177822 -6.544597464697493e-17 -1.8257292614512843e-17 -6.544597464697493e-17 -1.8257292614512843e-17 0.8425737729402174 0.5385809476328857
12668516000.0 0.8467112688004746 0.5320526546180743 -6.557390693168826e-17 -1.7741683443485783e-17 -6.557390693168826e-17 -1.7741683443485783e-17 0.8467109408006421 0.5320531765982992
12669133333.333334 0.8507978602892022 0.5254931026447124 -6.569778125505853e-17 -1.722519084741377e-17 -6.569778125505853e-17 -1.722519084741377e-17 0.8507975363489875 0.5254936271186766
12669750666.666666 0.8548336353629857 0.5189021640463186 -6.581759162993267e-17 -1.6707846730610256e-17 -6.581759162993267e-17 -1.6707846730610256e-17 0.8548333155013413 0.5189026909824555
12670368000.0 0.8588183529732737 0.5122802324862088 -6.593333231974084e-17 -1.6189683036959637e-17 -6.593333231974084e-17 -1.6189683036959637e-17 0.8588180372089059 0.5122807618528069
