! Parameters = {f0=12700.012000; bw=77.238000; Q=6100.000000; N=10; m_0_1=1.291186; m_1_1=0.603047; m_1_2=1.125998; m_2_2=0.602398; m_2_3=0.762961; m_2_8=0.001623; m_2_9=0.038327; m_3_3=0.600461; m_3_4=0.651490; m_3_7=0.002223; m_3_8=-0.094865; m_3_9=0.001623; m_4_4=0.597536; m_4_5=0.487825; m_4_6=0.005740; m_4_7=-0.115414; m_4_8=0.002223; m_5_5=0.597918; m_5_6=0.895180; m_5_7=0.005740; m_6_6=0.597917; m_6_7=0.488167; m_7_7=0.597550; m_7_8=0.651608; m_8_8=0.600459; m_8_9=0.763274; m_9_9=0.602393; m_9_10=1.127076; m_10_10=0.603037; m_10_11=1.291981}
!
! Created with skrf (http://scikit-rf.org).
# Hz S RI R 50.0 
!freq ReS11 ImS11 ReS21 ImS21 ReS12 ImS12 ReS22 ImS22
12607400000.0 0.8612649036578889 0.5081562414523558 -1.184483993559922e-16 -2.9619016438441336e-17 -1.184483993559922e-16 -2.9619016438441336e-17 0.8612645579923429 0.508156827314237
12608017333.333334 0.866876825928109 0.49852238532349336 -1.187505118100126e-16 -2.828051749507952e-17 -1.187505118100126e-16 -2.828051749507952e-17 0.8668764868324441 0.498522974973929
12608634666.666666 0.8723809911984692 0.4888265604438791 -1.1903750844462643e-16 -2.6938971028352165e-17 -1.1903750844462643e-16 -2.6938971028352165e-17 0.8723806587141921 0.48882715380920605
12609252000.0 0.8777767152745805 0.4790699720516673 -1.1930935893872036e-16 -2.5594547635668907e-17 -1.1930935893872036e-16 -2.5594547635668907e-17 0.8777763894423707 0.47907056905776696
12609869333.333334 0.8830633274418453 0.4692538329381588 -1.1956603489534642e-16 -2.4247418210858582e-17 -1.1956603489534642e-16 -2.4247418210858582e-17 0.8830630083015523 0.46925443351046753
12610486666.666666 0.8882401705487148 0.45937936329727275 -1.1980750984455008e-16 -2.2897753922497115e-17 -1.1980750984455008e-16 -2.2897753922497115e-17 0.8882398581393524 0.45937996736079123
12611104000.0 0.8933066010885999 0.4494477905734429 -1.2003375924596394e-16 -2.1545726192154592e-17 -1.2003375924596394e-16 -2.1545726192154592e-17 0.8933062954483411 0.44944839805274506
12611721333.333334 0.8982619892796276 0.43946034930949535 -1.2024476049114185e-16 -2.0191506672704353e-17 -1.2024476049114185e-16 -2.0191506672704353e-17 0.8982616904458 0.43946096012873737
12612338666.666666 0.9031057191430657 0.42941828099290774 -1.2044049290566233e-16 -1.8835267226529306e-17 -1.2044049290566233e-16 -1.8835267226529306e-17 0.9031054271521479 0.429418895075839
12612956000.0 0.907837188579892 0.4193228339014882 -1.206209377509806e-16 -1.7477179903744464e-17 -1.206209377509806e-16 -1.7477179903744464e-17 0.9078369034675087 0.4193234511714594
12613573333.333334 0.9124558094455277 0.40917526294843765 -1.207860782260326e-16 -1.6117416920435387e-17 -1.207860782260326e-16 -1.6117416920435387e-17 0.912455531246445 0.4091758833284112
12614190666.666666 0.9169610076230708 0.3989768295261028 -1.2093589946860184e-16 -1.4756150636815304e-17 -1.2093589946860184e-16 -1.4756150636815304e-17 0.9169607363711904 0.39897745293866116
12614808000.0 0.9213522230945943 0.3887288013493049 -1.2107038855643305e-16 -1.3393553535441485e-17 -1.2107038855643305e-16 -1.3393553535441485e-17 0.921351958822954 0.38872942771666247
12615425333.333334 0.9256289100107787 0.3784324522977334 -1.2118953450810708e-16 -1.2029798199369635e-17 -1.2118953450810708e-16 -1.2029798199369635e-17 0.9256286527515435 0.3784330815417441
12616042666.666666 0.92979053675877 0.3680890622575688 -1.212933282836653e-16 -1.0665057290341917e-17 -1.212933282836653e-16 -1.0665057290341917e-17 0.929790286543231 0.3680896942997371
12616660000.0 0.933836586028221 0.35769991696249287 -1.2138176278499211e-16 -9.299503526956509e-18 -1.2138176278499211e-16 -9.299503526956509e-18 0.9338363428867911 0.3577005517239831
12617277333.333334 0.9377665548756693 0.3472663078336806 -1.214548328559505e-16 -7.933309662838395e-18 -1.214548328559505e-16 -7.933309662838395e-18 0.9377663188378771 0.3472669452353259
12617894666.666666 0.9415799547869604 0.33678953181950755 -1.2151253528227222e-16 -6.5666484648350695e-18 -1.2151253528227222e-16 -6.5666484648350695e-18 0.9415797258814509 0.33679017178182186
12618512000.0 0.945276311738097 0.326270891234016 -1.2155486879120581e-16 -5.19969269116384e-18 -1.2155486879120581e-16 -5.19969269116384e-18 0.9452760899926245 0.32627153367720196
12619129333.333334 0.9488551662540186 0.3157116935954017 -1.2158183405091477e-16 -3.832615069655074e-18 -1.2158183405091477e-16 -3.832615069655074e-18 0.9488549516954463 0.3157123384393621
12619746666.666666 0.9523160734658223 0.30511325146321866 -1.2159343366963592e-16 -2.465588275924962e-18 -1.2159343366963592e-16 -2.465588275924962e-18 0.9523158661201153 0.30511389862756494
12620364000.0 0.9556586031660502 0.2944768822752182 -1.2158967219458972e-16 -1.0987849115978816e-18 -1.2158967219458972e-16 -1.0987849115978816e-18 0.9556584030582765 0.29447753167928187
12620981333.333334 0.9588823398620933 0.2838039081838298 -1.215705561106482e-16 2.676225174222153e-19 -1.215705561106482e-16 2.676225174222153e-19 0.958882147016418 0.2838045597466716
12621598666.666666 0.9619868828279321 0.27309565589151275 -1.2153609383875818e-16 1.6334616227255303e-18 -1.2153609383875818e-16 1.6334616227255303e-18 0.9619866972676162 0.2730963095319333
12622216000.0 0.9649718461538773 0.2623534564860864 -1.2148629573412064e-16 2.998560155094946e-18 -1.2148629573412064e-16 2.998560155094946e-18 0.9649716679012714 0.2623541121226353
12622833333.333334 0.967836858794595 0.25157864527504814 -1.2142117408412642e-16 4.362746026206132e-18 -1.2142117408412642e-16 4.362746026206132e-18 0.9678366878711427 0.25157930282603586
12623450666.666666 0.9705815646151803 0.2407725616198112 -1.2134074310605085e-16 5.725847330260903e-18 -1.2134074310605085e-16 5.725847330260903e-18 0.9705814010414096 0.2407732210033175
12624068000.0 0.9732056224354628 0.22993654876904812 -1.2124501894450227e-16 7.087692365654635e-18 -1.2124501894450227e-16 7.087692365654635e-18 0.9732054662309867 0.2299372099029331
12624685333.333334 0.975708706072424 0.21907195369169102 -1.2113401966863008e-16 8.448109656561079e-18 -1.2113401966863008e-16 8.448109656561079e-18 0.9757085572559375 0.2190726164936054
12625302666.666666 0.9780905043806777 0.20818012690977364 -1.2100776526909384e-16 9.806927974459694e-18 -1.2100776526909384e-16 9.806927974459694e-18 0.9780903629699571 0.20818079129716904
12625920000.0 0.9803507212912449 0.1972624223301396 -1.2086627765478317e-16 1.1163976359705824e-17 -1.2086627765478317e-16 1.1163976359705824e-17 0.9803505873031424 0.19726308822027824
12626537333.333334 0.9824890758482714 0.18632019707650507 -1.2070958064930722e-16 1.2519084142958902e-17 -1.2070958064930722e-16 1.2519084142958902e-17 0.9824889492987168 0.18632086438647086
12627154666.666666 0.9845053022439729 0.17535481132070788 -1.205376999872361e-16 1.3872080966634309e-17 -1.205376999872361e-16 1.3872080966634309e-17 0.9845051831479684 0.17535547996741613
12627772000.0 0.9863991498517358 0.16436762811329553 -1.2035066331010212e-16 1.5222796806307363e-17 -1.2035066331010212e-16 1.5222796806307363e-17 0.9863990382233561 0.1643682980135036
12628389333.333334 0.9881703832571781 0.15336001321459472 -1.201485001621713e-16 1.6571061991998565e-17 -1.201485001621713e-16 1.6571061991998565e-17 0.988170279109568 0.15336068428491217
12629006666.666666 0.9898187822874904 0.1423333349244925 -1.199312419859624e-16 1.7916707229504823e-17 -1.199312419859624e-16 1.7916707229504823e-17 0.989818685632865 0.1423340070813919
12629624000.0 0.9913441420387565 0.1312889639126589 -1.1969892211754118e-16 1.9259563621586195e-17 -1.1969892211754118e-16 1.9259563621586195e-17 0.9913440528883968 0.13128963707248564
12630241333.333334 0.9927462729014468 0.12022827304799705 -1.1945157578156775e-16 2.059946268915557e-17 -1.1945157578156775e-16 2.059946268915557e-17 0.9927461912657007 0.12022894712698022
12630858666.666666 0.994025000583967 0.10915263722815831 -1.1918924008611894e-16 2.193623639234623e-17 -1.1918924008611894e-16 2.193623639234623e-17 0.9940249264722477 0.1091533121424209
12631476000.0 0.9951801661343614 0.09806343320832528 -1.189119540172529e-16 2.326971715162738e-17 -1.189119540172529e-16 2.326971715162738e-17 0.9951800995551444 0.09806410887389452
12632093333.333334 0.9962116259600274 0.08696203943041296 -1.1861975843337126e-16 2.459973786868765e-17 -1.1861975843337126e-16 2.459973786868765e-17 0.996211566920853 0.08696271576323107
12632710666.666666 0.9971192518455828 0.07584983585166619 -1.183126960593189e-16 2.5926131947398535e-17 -1.183126960593189e-16 2.5926131947398535e-17 0.9971192003530519 0.0758505127676006
12633328000.0 0.9979029309688213 0.06472820377281219 -1.1799081148025928e-16 2.7248733314648388e-17 -1.1799081148025928e-16 2.7248733314648388e-17 0.9979028870285982 0.06472888118766616
12633945333.333334 0.9985625659147107 0.053598525666726515 -1.176541511353259e-16 2.856737644107583e-17 -1.176541511353259e-16 2.856737644107583e-17 0.9985625295315188 0.05359920349624944
12634562666.666666 0.9990980746875151 0.042462185006415055 -1.1730276331103167e-16 2.988189636176997e-17 -1.1730276331103167e-16 2.988189636176997e-17 0.9990980458651377 0.042462863166313
12635180000.0 0.9995093907209811 0.031320566093069706 -1.1693669813445135e-16 3.1192128696870976e-17 -1.1693669813445135e-16 3.1192128696870976e-17 0.9995093694622633 0.03132124449901598
12635797333.333334 0.9997964628866202 0.020175053883964966 -1.1655600756617423e-16 3.2497909672095696e-17 -1.1655600756617423e-16 3.2497909672095696e-17 0.9997964491934639 0.020175732451610456
12636414666.666666 0.9999592555000552 0.009027033820414391 -1.161607453930317e-16 3.379907613916209e-17 -1.161607453930317e-16 3.379907613916209e-17 0.9999592493734232 0.009027712465398173
12637032000.0 0.9999977483254607 -0.0021221083446168443 -1.1575096722058816e-16 3.5095465596159864e-17 -1.1575096722058816e-16 3.5095465596159864e-17 0.999997749765377 -0.002121429706657054
12637649333.333334 0.9999119365780824 -0.013270986718654093 -1.1532673046541444e-16 3.638691620779829e-17 -1.1532673046541444e-16 3.638691620779829e-17 0.9999119455836278 -0.013270308172071487
12638266666.666666 0.9997018309248239 -0.024418215442043298 -1.148880943471315e-16 3.767326682557877e-17 -1.148880943471315e-16 3.767326682557877e-17 0.9997018474941394 -0.024417537071171447
12638884000.0 0.9993674574829243 -0.035562408860106295 -1.144351198802288e-16 3.895435700787264e-17 -1.144351198802288e-16 3.895435700787264e-17 0.9993674816132132 -0.03556173074924875
12639501333.333334 0.9989088578167133 -0.046702181695583496 -1.139678698656642e-16 4.023002703988875e-17 -1.139678698656642e-16 4.023002703988875e-17 0.9989088895042365 -0.04670150392900318
12640118666.666666 0.9983260889324476 -0.05783614922054636 -1.134864088822402e-16 4.150011795354867e-17 -1.134864088822402e-16 4.150011795354867e-17 0.9983261281725286 -0.05783547188245522
12640736000.0 0.997619223271204 -0.06896292742900847 -1.1299080327773581e-16 4.2764471547316923e-17 -1.1299080327773581e-16 4.2764471547316923e-17 0.9976192700582276 -0.06896225060355696
12641353333.333334 0.996788348699911 -0.08008113320828303 -1.124811211598805e-16 4.4022930405766576e-17 -1.124811211598805e-16 4.4022930405766576e-17 0.9967884030273252 -0.08008045697954969
12641970666.666666 0.9958335685003956 -0.09118938451150654 -1.1195743238703112e-16 4.5275337919243284e-17 -1.1195743238703112e-16 4.5275337919243284e-17 0.9958336303607102 -0.09118870896348745
12642588000.0 0.9947550013565548 -0.10228630052914985 -1.1141980855868763e-16 4.6521538303272386e-17 -1.1141980855868763e-16 4.6521538303272386e-17 0.9947550707413454 -0.10228562574574834
12643205333.333334 0.9935527813396099 -0.11337050186068837 -1.1086832300577272e-16 4.7761376617909026e-17 -1.1086832300577272e-16 4.7761376617909026e-17 0.9935528582395174 -0.11336982792570455
12643822666.666666 0.992227057891423 -0.12444061068618092 -1.1030305078069229e-16 4.8994698786979704e-17 -1.1030305078069229e-16 4.8994698786979704e-17 0.9922271422961555 -0.12443993768330135
12644440000.0 0.9907779958059336 -0.1354952509374265 -1.0972406864719595e-16 5.0221351617179526e-17 -1.0972406864719595e-16 5.0221351617179526e-17 0.9907780877042667 -0.13549457895021352
12645057333.333334 0.9892057752086877 -0.14653304846893184 -1.0913145507001735e-16 5.144118281706942e-17 -1.0913145507001735e-16 5.144118281706942e-17 0.9892058745884664 -0.14653237758081342
12645674666.666666 0.9875105915344251 -0.15755263122889354 -1.0852529020430453e-16 5.265404101594865e-17 -1.0852529020430453e-16 5.265404101594865e-17 0.9875106983825671 -0.1575519615231531
12646292000.0 0.9856926555027725 -0.1685526294298351 -1.0790565588482928e-16 5.385977578262857e-17 -1.0790565588482928e-16 5.385977578262857e-17 0.9856927698052669 -0.16855196098960068
12646909333.333334 0.9837521930920969 -0.17953167571854012 -1.072726356150262e-16 5.50582376440033e-17 -1.072726356150262e-16 5.50582376440033e-17 0.9837523148340095 -0.1795310086267747
12647526666.666666 0.9816894455113798 -0.19048840534630307 -1.0662631455577803e-16 5.624927810359127e-17 -1.0662631455577803e-16 5.624927810359127e-17 0.9816895746768506 -0.1904877396857935
12648144000.0 0.9795046691702283 -0.2014214563385447 -1.0596677951401651e-16 5.743274965989878e-17 -1.0596677951401651e-16 5.743274965989878e-17 0.9795048057424778 -0.20142079219189213
12648761333.333334 0.9771981356470253 -0.2123294696640004 -1.0529411893114293e-16 5.860850582461277e-17 -1.0529411893114293e-16 5.860850582461277e-17 0.9771982796083558 -0.21232880711360982
12649378666.666666 0.9747701316551775 -0.22321108940365575 -1.0460842287120973e-16 5.97764011407279e-17 -1.0460842287120973e-16 5.97764011407279e-17 0.9747702829869724 -0.22321042853172535
12649996000.0 0.972220959007432 -0.23406496291945905 -1.039097830089172e-16 6.093629120050576e-17 -1.039097830089172e-16 6.093629120050576e-17 0.9722211176901623 -0.23406430380797075
12650613333.333334 0.9695509345784079 -0.24488974102226754 -1.0319829261741511e-16 6.208803266328877e-17 -1.0319829261741511e-16 6.208803266328877e-17 0.969551100591633 -0.2448890837529765
12651230666.666666 0.9667603902651957 -0.2556840781396142 -1.0247404655591183e-16 6.32314832731673e-17 -1.0247404655591183e-16 6.32314832731673e-17 0.9667605635875637 -0.25568342279403805
12651848000.0 0.9638496729460552 -0.2664466324831329 -1.0173714125706246e-16 6.43665018765431e-17 -1.0173714125706246e-16 6.43665018765431e-17 0.9638498535553092 -0.2664459791425426
12652465333.333334 0.9608191444373517 -0.27717606621512875 -1.0098767471419734e-16 6.54929484394917e-17 -1.0098767471419734e-16 6.54929484394917e-17 0.9608193323103319 -0.27717541496053844
12653082666.666666 0.9576691814485914 -0.2878710456148808 -1.0022574646834329e-16 6.66106840650033e-17 -1.0022574646834329e-16 6.66106840650033e-17 0.9576693765612355 -0.28787039652703666
12653700000.0 0.9544001755355037 -0.29853024124469957 -9.945145759503451e-17 6.771957101010134e-17 -9.945145759503451e-17 6.771957101010134e-17 0.9544003778628545 -0.29852959440407145
12654317333.333334 0.9510125330514925 -0.30915232811480414 -9.86649106909812e-17 6.881947270274083e-17 -9.86649106909812e-17 6.881947270274083e-17 0.9510127425676962 -0.30915168360157397
12654934666.666666 0.9475066750970349 -0.31973598584829477 -9.78662098605054e-17 6.991025375862013e-17 -9.78662098605054e-17 6.991025375862013e-17 0.9475068917753481 -0.3197353437423481
12655552000.0 0.9438830374673292 -0.33027989884530967 -9.705546070180802e-17 7.099177999781043e-17 -9.705546070180802e-17 7.099177999781043e-17 0.9438832612801199 -0.33027925922622425
12656169333.333334 0.9401420705982382 -0.34078275644620903 -9.62327702930825e-17 7.206391846118866e-17 -9.62327702930825e-17 7.206391846118866e-17 0.9401423015169917 -0.34078211939324654
12656786666.666666 0.9362842395101556 -0.35124325309492865 -9.539824717838739e-17 7.312653742678969e-17 -9.539824717838739e-17 7.312653742678969e-17 0.9362844775054753 -0.35124261868702356
12657404000.0 0.9323100237502813 -0.36166008850102344 -9.455200135339061e-17 7.417950642592696e-17 -9.455200135339061e-17 7.417950642592696e-17 0.9323102687918947 -0.36165945681677397
12658021333.333334 0.9282199173329839 -0.37203196780138076 -9.36941442509112e-17 7.522269625918164e-17 -9.36941442509112e-17 7.522269625918164e-17 0.9282201693897447 -0.37203133891903867
12658638666.666666 0.9240144286784431 -0.3823576017210454 -9.282478872630267e-17 7.625597901220424e-17 -9.282478872630267e-17 7.625597901220424e-17 0.9240146877183374 -0.3823569757185068
12659256000.0 0.9196940805493475 -0.3926357067337475 -9.194404904262987e-17 7.727922807138714e-17 -9.194404904262987e-17 7.727922807138714e-17 0.9196943465394959 -0.39263508368854294
12659873333.333334 0.9152594099860057 -0.40286500522121294 -9.105204085571519e-17 7.829231813931672e-17 -9.105204085571519e-17 7.829231813931672e-17 0.9152596828926677 -0.4028643852104977
12660490666.666666 0.9107109682395936 -0.41304422563197896 -9.014888119899568e-17 7.92951252500778e-17 -9.014888119899568e-17 7.92951252500778e-17 0.9107112480281732 -0.41304360873252377
12661108000.0 0.9060493207035039 -0.4231721026397399 -8.923468846818881e-17 8.02875267844085e-17 -8.923468846818881e-17 8.02875267844085e-17 0.9060496073385527 -0.42317148892792145
12661725333.333334 0.9012750468432745 -0.4332473773001669 -8.830958240584733e-17 8.12694014846187e-17 -8.830958240584733e-17 8.12694014846187e-17 0.9012753402884961 -0.43324676685195757
12662342666.666666 0.8963887401243583 -0.4432687972078399 -8.737368408569292e-17 8.224062946939438e-17 -8.737368408569292e-17 8.224062946939438e-17 0.8963890403426146 -0.4432681900987999
12662960000.0 0.8913910079384593 -0.45323511665169625 -8.642711589682454e-17 8.320109224838137e-17 -8.642711589682454e-17 8.320109224838137e-17 0.8913913148917729 -0.453234512956963
12663577333.333334 0.8862824715280069 -0.4631450967699296 -8.547000152775302e-17 8.415067273660353e-17 -8.547000152775302e-17 8.415067273660353e-17 0.8862827851775669 -0.46314449656420836
12664194666.666666 0.8810637659089308 -0.4729975057039857 -8.450246595027796e-17 8.50892552686976e-17 -8.450246595027796e-17 8.50892552686976e-17 0.8810640862150988 -0.47299690906154157
12664812000.0 0.8757355397917288 -0.48279111875169006 -8.352463540322108e-17 8.60167256129514e-17 -8.352463540322108e-17 8.60167256129514e-17 0.8757358667140419 -0.4827905257463374
12665429333.333334 0.8702984555008118 -0.49252471851950774 -8.253663737597899e-17 8.693297098518181e-17 -8.253663737597899e-17 8.693297098518181e-17 0.8702987889979891 -0.492524129224602
12666046666.666666 0.8647531888922461 -0.5021970950737484 -8.15386005919641e-17 8.783788006238687e-17 -8.15386005919641e-17 8.783788006238687e-17 0.864753528922193 -0.5021965095621763
12666664000.0 0.859100429269568 -0.5118070460912618 -8.053065499184356e-17 8.873134299625676e-17 -8.053065499184356e-17 8.873134299625676e-17 0.8591007757893832 -0.5118064644354334
12667281333.333334 0.8533408792983629 -0.5213533770084516 -7.951293171669707e-17 8.961325142643426e-17 -7.951293171669707e-17 8.961325142643426e-17 0.8533412322643413 -0.5213527992802899
12667898666.666666 0.8474752549187 -0.5308349011701324 -7.848556309096841e-17 9.048349849363612e-17 -7.848556309096841e-17 9.048349849363612e-17 0.8474756142863406 -0.5308343274410657
12668516000.0 0.8415042852561211 -0.5402504399770589 -7.744868260529997e-17 9.134197885255775e-17 -7.744868260529997e-17 9.134197885255775e-17 0.8415046509801305 -0.5402498703180109
12669133333.333334 0.8354287125312757 -0.5495988230319961 -7.640242489924984e-17 9.218858868456136e-17 -7.640242489924984e-17 9.218858868456136e-17 0.8354290845655764 -0.5495982575133789
12669750666.666666 0.8292492919673621 -0.5588788882856905 -7.534692574382177e-17 9.302322571020918e-17 -7.534692574382177e-17 9.302322571020918e-17 0.829249670265095 -0.5588783269773934
12670368000.0 0.8229667916963791 -0.5680894821810977 -7.428232202389229e-17 9.384578920156785e-17 -7.428232202389229e-17 9.384578920156785e-17 0.8229671762099129 -0.5680889251524809
