! Parameters = {f0=12700.012000; bw=77.238000; Q=6100.000000; N=10; m_0_1=1.227522; m_1_1=-0.351908; m_1_2=1.062334; m_2_2=-0.352557; m_2_3=0.699297; m_2_8=-0.001560; m_2_9=0.035144; m_3_3=-0.354494; m_3_4=0.587826; m_3_7=-0.000960; m_3_8=-0.098048; m_3_9=-0.001560; m_4_4=-0.357419; m_4_5=0.424161; m_4_6=0.002557; m_4_7=-0.118597; m_4_8=-0.000960; m_5_5=-0.357037; m_5_6=0.831516; m_5_7=0.002557; m_6_6=-0.357038; m_6_7=0.424503; m_7_7=-0.357405; m_7_8=0.587944; m_8_8=-0.354496; m_8_9=0.699610; m_9_9=-0.352562; m_9_10=1.063412; m_10_10=-0.351918; m_10_11=1.228317}
!
! Created with skrf (http://scikit-rf.org).
# Hz S RI R 50.0 
!freq ReS11 ImS11 ReS21 ImS21 ReS12 ImS12 ReS22 ImS22
12607400000.0 0.27183545210718263 0.9623437467856897 -4.813104076855523e-17 -7.620872950247514e-17 -4.813104076855523e-17 -7.620872950247514e-17 0.27183482965636396 0.9623439226105863
12608017333.333334 0.2807418848030312 0.9597833058128676 -4.8832358490848756e-17 -7.57402552832251e-17 -4.8832358490848756e-17 -7.57402552832251e-17 0.28074126403872035 0.9597834873896176
12608634666.666666 0.2896242072708215 0.9571404382652438 -4.952912657542861e-17 -7.526533396678619e-17 -4.952912657542861e-17 -7.526533396678619e-17 0.28962358824616197 0.9571406255776903
12609252000.0 0.29848165669320925 0.9544153711133911 -5.0221285820025924e-17 -7.478400964559278e-17 -5.0221285820025924e-17 -7.478400964559278e-17 0.29848103946119026 0.9544155641448866
12609869333.333334 0.30731347238887663 0.9516083383872421 -5.090877744886875e-17 -7.429632695509877e-17 -5.090877744886875e-17 -7.429632695509877e-17 0.3073128570023279 0.9516085371206491
12610486666.666666 0.31611889587794145 0.9487195811559636 -5.159154311762971e-17 -7.380233106967887e-17 -5.159154311762971e-17 -7.380233106967887e-17 0.3161182823895298 0.9487197855736585
12611104000.0 0.32489717094717757 0.9457493475072328 -5.226952491840102e-17 -7.330206769843727e-17 -5.226952491840102e-17 -7.330206769843727e-17 0.32489655940940076 0.9457495575911036
12611721333.333334 0.3336475437147952 0.9426978925259775 -5.294266538454393e-17 -7.279558308103215e-17 -5.294266538454393e-17 -7.279558308103215e-17 0.33364693417997915 0.942698108257429
12612338666.666666 0.34236926269526735 0.9395654782724485 -5.361090749558098e-17 -7.228292398339574e-17 -5.361090749558098e-17 -7.228292398339574e-17 0.3423686552155604 0.9395656996324014
12612956000.0 0.35106157886394634 0.9363523737596808 -5.427419468199276e-17 -7.176413769344843e-17 -5.427419468199276e-17 -7.176413769344843e-17 0.35106097349131526 0.9363526007285741
12613573333.333334 0.3597237457212308 0.9330588549304502 -5.4932470829988876e-17 -7.123927201675943e-17 -5.4932470829988876e-17 -7.123927201675943e-17 0.3597231425074566 0.9330590874882442
12614190666.666666 0.3683550193567556 0.929685204633547 -5.558568028624249e-17 -7.070837527215843e-17 -5.558568028624249e-17 -7.070837527215843e-17 0.36835441835342836 0.9296854427597229
12614808000.0 0.37695465851335785 0.9262317125994518 -5.623376786258511e-17 -7.017149628730281e-17 -5.623376786258511e-17 -7.017149628730281e-17 0.3769540597718735 0.9262319562730157
12615425333.333334 0.38552192465055235 0.9226986754155282 -5.687667884063852e-17 -6.962868439421765e-17 -5.687667884063852e-17 -6.962868439421765e-17 0.38552132822210666 0.9226989246150106
12616042666.666666 0.3940560820081669 0.9190863965004635 -5.7514358976434e-17 -6.907998942476971e-17 -5.7514358976434e-17 -6.907998942476971e-17 0.3940554879437532 0.919086651203925
12616660000.0 0.4025563976693225 0.9153951860783054 -5.814675450495627e-17 -6.852546170612501e-17 -5.814675450495627e-17 -6.852546170612501e-17 0.4025558060197245 0.9153954462633319
12617277333.333334 0.4110221416236073 0.9116253611517062 -5.877381214467741e-17 -6.796515205613731e-17 -5.877381214467741e-17 -6.796515205613731e-17 0.41102155243939825 0.9116256267954199
12617894666.666666 0.41945258682943726 0.9077772454748627 -5.93954791020039e-17 -6.73991117787319e-17 -5.93954791020039e-17 -6.73991117787319e-17 0.4194520001609722 0.9077775165539157
12618512000.0 0.4278470092769832 0.9038511695254796 -6.001170307574067e-17 -6.682739265919481e-17 -6.001170307574067e-17 -6.682739265919481e-17 0.4278464251743969 0.9038514460160606
12619129333.333334 0.4362046880498075 0.8998474704766387 -6.062243226143398e-17 -6.625004695948965e-17 -6.062243226143398e-17 -6.625004695948965e-17 0.43620410656300984 0.8998477523544756
12619746666.666666 0.44452490538711403 0.8957664921676926 -6.122761535573409e-17 -6.566712741347678e-17 -6.122761535573409e-17 -6.566712741347678e-17 0.44452432656578444 0.8957667794080504
12620364000.0 0.4528069467454621 0.8916085850746882 -6.182720156069257e-17 -6.507868722210953e-17 -6.182720156069257e-17 -6.507868722210953e-17 0.45280637063904716 0.891608877652376
12620981333.333334 0.4610501008597265 0.887374106280475 -6.242114058797934e-17 -6.44847800486253e-17 -6.242114058797934e-17 -6.44847800486253e-17 0.46104952751743405 0.8873744041698443
12621598666.666666 0.4692536598046375 0.883063419443807 -6.300938266311576e-17 -6.38854600136382e-17 -6.300938266311576e-17 -6.38854600136382e-17 0.46925308927543385 0.8830637226187571
12622216000.0 0.4774169190552498 0.878676894768281 -6.359187852960447e-17 -6.328078169024819e-17 -6.359187852960447e-17 -6.328078169024819e-17 0.47741635138785443 0.8786772032022591
12622833333.333334 0.4855391775476973 0.8742149089704095 -6.416857945305393e-17 -6.267080009907175e-17 -6.416857945305393e-17 -6.267080009907175e-17 0.4855386127905797 0.8742152226364144
12623450666.666666 0.49361973773910206 0.8696778452474314 -6.473943722521645e-17 -6.20555707032751e-17 -6.473943722521645e-17 -6.20555707032751e-17 0.49361917594047666 0.8696781641180149
12624068000.0 0.5016579056678039 0.8650660932442265 -6.530440416802293e-17 -6.143514940352502e-17 -6.530440416802293e-17 -6.143514940352502e-17 0.5016573468756262 0.8650664172914955
12624685333.333334 0.5096529910127813 0.8603800490199438 -6.586343313753391e-17 -6.080959253293965e-17 -6.586343313753391e-17 -6.080959253293965e-17 0.5096524352747446 0.8603803782155647
12625302666.666666 0.5176043071528915 0.8556201150140238 -6.641647752785232e-17 -6.017895685199546e-17 -6.641647752785232e-17 -6.017895685199546e-17 0.5176037545164213 0.8556204493292223
12625920000.0 0.5255111712260295 0.8507867000115146 -6.696349127500157e-17 -5.954329954338026e-17 -6.696349127500157e-17 -5.954329954338026e-17 0.525510621738281 0.8507870394170808
12626537333.333334 0.5333729041875075 0.8458802191081312 -6.750442886073412e-17 -5.890267820683746e-17 -6.750442886073412e-17 -5.890267820683746e-17 0.533372357895361 0.8458805635744204
12627154666.666666 0.5411888308685899 0.8409010936744727 -6.803924531629639e-17 -5.825715085396726e-17 -6.803924531629639e-17 -5.825715085396726e-17 0.541188287818646 0.8409014431714086
12627772000.0 0.5489582800344512 0.8358497513198487 -6.856789622617144e-17 -5.760677590296338e-17 -6.856789622617144e-17 -5.760677590296338e-17 0.5489577402730281 0.8358501058169258
12628389333.333334 0.5566805844416784 0.8307266258556466 -6.909033773171213e-17 -5.695161217338598e-17 -6.909033773171213e-17 -5.695161217338598e-17 0.5566800480148073 0.8307269853219332
12629006666.666666 0.5643550808957422 0.8255321572579694 -6.960652653479779e-17 -5.629171888081389e-17 -6.960652653479779e-17 -5.629171888081389e-17 0.5643545478491632 0.8255325216621101
12629624000.0 0.5719811103078785 0.8202667916298955 -7.011641990137229e-17 -5.562715563154643e-17 -7.011641990137229e-17 -5.562715563154643e-17 0.5719805806870375 0.8202671609401142
12630241333.333334 0.5795580177516473 0.8149309811632005 -7.061997566498454e-17 -5.4957982417208225e-17 -7.061997566498454e-17 -5.4957982417208225e-17 0.5795574916016911 0.8149313553473025
12630858666.666666 0.5870851525192242 0.8095251840994913 -7.111715223023368e-17 -5.428425960937824e-17 -7.111715223023368e-17 -5.428425960937824e-17 0.5870846298849969 0.8095255631248661
12631476000.0 0.5945618681773512 0.8040498646907998 -7.160790857621383e-17 -5.3606047954120957e-17 -7.160790857621383e-17 -5.3606047954120957e-17 0.5945613491033914 0.8040502485244255
12632093333.333334 0.601987522622739 0.7985054931597988 -7.209220425984647e-17 -5.2923408566568326e-17 -7.209220425984647e-17 -5.2923408566568326e-17 0.6019870071532746 0.7985058817682429
12632710666.666666 0.6093614781371877 0.7928925456594339 -7.256999941921389e-17 -5.223640292540009e-17 -7.256999941921389e-17 -5.223640292540009e-17 0.609360966316133 0.792892939008858
12633328000.0 0.6166831014425376 0.7872115042318988 -7.30412547768146e-17 -5.154509286732926e-17 -7.30412547768146e-17 -5.154509286732926e-17 0.616682593313489 0.7872119022880594
12633945333.333334 0.6239517637549173 0.7814628567673354 -7.350593164276993e-17 -5.084954058155438e-17 -7.350593164276993e-17 -5.084954058155438e-17 0.6239512593611501 0.781463259495589
12634562666.666666 0.6311668408386993 0.7756470969619702 -7.396399191797455e-17 -5.0149808604187206e-17 -7.396399191797455e-17 -5.0149808604187206e-17 0.6311663402231648 0.7756475043272762
12635180000.0 0.6383277130602696 0.7697647242755956 -7.441539809720881e-17 -4.944595981263147e-17 -7.441539809720881e-17 -4.944595981263147e-17 0.6383272162655883 0.7697651362425172
12635797333.333334 0.6454337654410794 0.7638162438887938 -7.486011327217783e-17 -4.8738057419963204e-17 -7.486011327217783e-17 -4.8738057419963204e-17 0.645433272509542 0.7638166604215038
12636414666.666666 0.6524843877105574 0.7578021666594882 -7.529810113451324e-17 -4.802616496926112e-17 -7.529810113451324e-17 -4.802616496926112e-17 0.6524838986841169 0.75780258772177
12637032000.0 0.6594789743584686 0.7517230090791014 -7.572932597871162e-17 -4.7310346327922316e-17 -7.572932597871162e-17 -4.7310346327922316e-17 0.6594784892787392 0.7517234346343528
12637649333.333334 0.6664169246870052 0.745579293228125 -7.615375270502855e-17 -4.659066568193962e-17 -7.615375270502855e-17 -4.659066568193962e-17 0.6664164435952581 0.7455797232393622
12638266666.666666 0.6732976428622256 0.7393715467314167 -7.65713468223033e-17 -4.5867187530176846e-17 -7.65713468223033e-17 -4.5867187530176846e-17 0.6732971657993853 0.7393719811612766
12638884000.0 0.6801205379653922 0.733100302712734 -7.698207445074884e-17 -4.5139976678586376e-17 -7.698207445074884e-17 -4.5139976678586376e-17 0.6801200649720337 0.7331007415234777
12639501333.333334 0.6868850240435947 0.7267660997490639 -7.738590232466781e-17 -4.4409098234434605e-17 -7.738590232466781e-17 -4.4409098234434605e-17 0.6868845551599394 0.72676654290258
12640118666.666666 0.6935905201600124 0.7203694818244314 -7.778279779512602e-17 -4.367461760048429e-17 -7.778279779512602e-17 -4.367461760048429e-17 0.6935900554259246 0.7203699292822395
12640736000.0 0.7002364504441929 0.7139109982828061 -7.817272883257675e-17 -4.293660046913894e-17 -7.817272883257675e-17 -4.293660046913894e-17 0.700235989899177 0.7139114500060599
12641353333.333334 0.7068222441408749 0.7073912037815377 -7.855566402940225e-17 -4.219511281661857e-17 -7.855566402940225e-17 -4.219511281661857e-17 0.7068217878240717 0.7073916597310281
12641970666.666666 0.7133473356595965 0.700810658243146 -7.893157260243367e-17 -4.145022089704748e-17 -7.893157260243367e-17 -4.145022089704748e-17 0.7133468836097794 0.700811118379305
12642588000.0 0.719811164622901 0.6941699268075927 -7.930042439539796e-17 -4.070199123655393e-17 -7.930042439539796e-17 -4.070199123655393e-17 0.7198107168784739 0.6941703910904966
12643205333.333334 0.7262131759146481 0.6874695797835688 -7.966218988130319e-17 -3.995049062735957e-17 -7.966218988130319e-17 -3.995049062735957e-17 0.7262127325136409 0.6874700481729419
12643822666.666666 0.7325528197276014 0.6807101925995938 -8.001684016478944e-17 -3.9195786121804854e-17 -8.001684016478944e-17 -3.9195786121804854e-17 0.7325523807076678 0.6807106650548115
12644440000.0 0.7388295516107098 0.6738923457545379 -8.036434698439643e-17 -3.843794502640843e-17 -8.036434698439643e-17 -3.843794502640843e-17 0.7388291170091232 0.6738928222346304
12645057333.333334 0.7450428325157269 0.6670166247679133 -8.070468271479334e-17 -3.767703489587062e-17 -8.070468271479334e-17 -3.767703489587062e-17 0.7450424023693777 0.6670171052315694
12645674666.666666 0.7511921288436603 0.6600836201294235 -8.103782036895031e-17 -3.691312352705944e-17 -8.103782036895031e-17 -3.691312352705944e-17 0.7511917031890533 0.6600841045349941
12646292000.0 0.7572769124905974 0.6530939272482515 -8.136373360024973e-17 -3.614627895298449e-17 -8.136373360024973e-17 -3.614627895298449e-17 0.7572764913638469 0.6530944155537525
12646909333.333334 0.7632966608928673 0.6460481464021358 -8.168239670453621e-17 -3.5376569436764527e-17 -8.168239670453621e-17 -3.5376569436764527e-17 0.7632962443296962 0.6460486385652523
12647526666.666666 0.7692508570721655 0.6389468826855433 -8.199378462211669e-17 -3.46040634655609e-17 -8.199378462211669e-17 -3.46040634655609e-17 0.7692504451079022 0.6389473786636347
12648144000.0 0.775138989679804 0.6317907459578753 -8.229787293970767e-17 -3.3828829744481914e-17 -8.229787293970767e-17 -3.3828829744481914e-17 0.7751385823493763 0.6317912457079754
12648761333.333334 0.7809605530406928 0.6245803507910013 -8.25946378923071e-17 -3.305093719051506e-17 -8.25946378923071e-17 -3.305093719051506e-17 0.7809601503786286 0.6245808542698258
12649378666.666666 0.7867150471966327 0.617316316416662 -8.288405636502827e-17 -3.227045492639635e-17 -8.288405636502827e-17 -3.227045492639635e-17 0.7867146492370551 0.6173168235806094
12649996000.0 0.7924019779494769 0.609999266672996 -8.316610589486504e-17 -3.148745227448962e-17 -8.316610589486504e-17 -3.148745227448962e-17 0.7924015847261024 0.6099997774781536
12650613333.333334 0.7980208569033818 0.6026298299512128 -8.34407646724074e-17 -3.0701998750632083e-17 -8.34407646724074e-17 -3.0701998750632083e-17 0.7980204684495171 0.6026303443533597
12651230666.666666 0.8035712015068214 0.5952086391415365 -8.370801154348358e-17 -2.991416405800557e-17 -8.370801154348358e-17 -2.991416405800557e-17 0.8035708178553594 0.5952091570961461
12651848000.0 0.8090525350940593 0.5877363315788044 -8.396782601077027e-17 -2.912401808092241e-17 -8.396782601077027e-17 -2.912401808092241e-17 0.8090521562774787 0.5877368530410507
12652465333.333334 0.8144643869260733 0.5802135489877602 -8.422018823531556e-17 -2.833163087868146e-17 -8.422018823531556e-17 -2.833163087868146e-17 0.8144640129764322 0.5802140739125189
12653082666.666666 0.8198062922308414 0.5726409374281197 -8.446507903802393e-17 -2.75370726793514e-17 -8.446507903802393e-17 -2.75370726793514e-17 0.8198059231797796 0.572641465769975
12653700000.0 0.8250777922435639 0.5650191472386782 -8.470247990107793e-17 -2.6740413873555965e-17 -8.470247990107793e-17 -2.6740413873555965e-17 0.8250774281222947 0.5650196789519237
12654317333.333334 0.8302784342457086 0.5573488329819404 -8.493237296929614e-17 -2.5941725008266926e-17 -8.493237296929614e-17 -2.5941725008266926e-17 0.8302780750850214 0.5573493680205867
12654934666.666666 0.8354077716041113 0.5496306533876093 -8.515474105143762e-17 -2.5141076780566136e-17 -8.515474105143762e-17 -2.5141076780566136e-17 0.8354074174343652 0.5496311917053845
12655552000.0 0.84046536380937 0.5418652712959371 -8.53695676214526e-17 -2.4338540031382652e-17 -8.53695676214526e-17 -2.4338540031382652e-17 0.8404650146604932 0.5418658128462926
12656169333.333334 0.8454507765134327 0.5340533536011831 -8.557683681965716e-17 -2.353418573928022e-17 -8.557683681965716e-17 -2.353418573928022e-17 0.8454504324149182 0.5340538983372973
12656786666.666666 0.8503635815671732 0.5261955711939104 -8.577653345387244e-17 -2.272808501415011e-17 -8.577653345387244e-17 -2.272808501415011e-17 0.850363242548079 0.5261961190686927
12657404000.0 0.8552033570569656 0.5182925989036814 -8.596864300048514e-17 -2.1920309090970456e-17 -8.596864300048514e-17 -2.1920309090970456e-17 0.8552030231459095 0.518293149869776
12658021333.333334 0.859969687341066 0.5103451154408615 -8.615315160546335e-17 -2.111092932350088e-17 -8.615315160546335e-17 -2.111092932350088e-17 0.8599693585662243 0.5103456694506517
12658638666.666666 0.864662163085116 0.5023538033386463 -8.633004608529964e-17 -2.030001717802552e-17 -8.633004608529964e-17 -2.030001717802552e-17 0.8646618394742225 0.5023543603442597
12659256000.0 0.8692803812975647 0.49431934889401025 -8.649931392791324e-17 -1.9487644227012645e-17 -8.649931392791324e-17 -1.9487644227012645e-17 0.8692800628779046 0.4943199088473202
12659873333.333334 0.8738239453640197 0.48624244210917517 -8.666094329347281e-17 -1.8673882142853305e-17 -8.666094329347281e-17 -1.8673882142853305e-17 0.8738236321624333 0.48624300496180844
12660490666.666666 0.8782924650814394 0.4781237766321661 -8.681492301517533e-17 -1.78588026915325e-17 -8.681492301517533e-17 -1.78588026915325e-17 0.8782921571243132 0.4781243423355036
12661108000.0 0.8826855566916704 0.4699640496971576 -8.696124259996031e-17 -1.7042477726308934e-17 -8.696124259996031e-17 -1.7042477726308934e-17 0.8826852540049396 0.4699646182023412
12661725333.333334 0.8870028429142638 0.46176396206487424 -8.709989222916283e-17 -1.6224979181409782e-17 -8.709989222916283e-17 -1.6224979181409782e-17 0.8870025455234078 0.4617645333228095
12662342666.666666 0.8912439529790609 0.4535242179620563 -8.723086275911079e-17 -1.5406379065698402e-17 -8.723086275911079e-17 -1.5406379065698402e-17 0.8912436609091017 0.45352479192341705
12662960000.0 0.8954085226578751 0.44524552502128223 -8.735414572166272e-17 -1.458674945633792e-17 -8.735414572166272e-17 -1.458674945633792e-17 0.8954082359333768 0.44524610163651585
12663577333.333334 0.8994961942958936 0.43692859421997104 -8.746973332468221e-17 -1.3766162492476232e-17 -8.746973332468221e-17 -1.3766162492476232e-17 0.8994959129409571 0.4369291734393009
12664194666.666666 0.9035066168422848 0.42857413981952425 -8.757761845245926e-17 -1.2944690368890755e-17 -8.757761845245926e-17 -1.2944690368890755e-17 0.9035063408805483 0.42857472159295523
12664812000.0 0.9074394458804506 0.4201828793037819 -8.767779466606614e-17 -1.212240532967058e-17 -8.767779466606614e-17 -1.212240532967058e-17 0.907439175335087 0.4201834635811047
12665429333.333334 0.911294343657519 0.4117555333175844 -8.77702562036595e-17 -1.1299379661854407e-17 -8.77702562036595e-17 -1.1299379661854407e-17 0.911294078551233 0.41175612004837897
12666046666.666666 0.9150709791133848 0.4032928256048052 -8.785499798071676e-17 -1.0475685689122135e-17 -8.785499798071676e-17 -1.0475685689122135e-17 0.9150707194684131 0.4032934147384465
12666664000.0 0.9187690279091792 0.3947954829461191 -8.793201559022238e-17 -9.651395765405786e-18 -8.793201559022238e-17 -9.651395765405786e-18 0.9187687737472868 0.3947960744317802
12667281333.333334 0.9223881724550502 0.3862642350967396 -8.800130530278256e-17 -8.826582268602625e-18 -8.800130530278256e-17 -8.826582268602625e-18 0.9223879237975293 0.3862648288833969
12667898666.666666 0.9259281019374783 0.3776998147236719 -8.806286406669305e-17 -8.001317594188856e-18 -8.806286406669305e-17 -8.001317594188856e-18 0.9259278588051456 0.3777004107601088
12668516000.0 0.9293885123459952 0.36910295734271026 -8.811668950793893e-17 -7.175674148899015e-18 -8.811668950793893e-17 -7.175674148899015e-18 0.9293882747591921 0.3691035555775223
12669133333.333334 0.9327691064992326 0.3604744012554306 -8.816277993013851e-17 -6.349724344389581e-18 -8.816277993013851e-17 -6.349724344389581e-18 0.9327688744778206 0.36047500163702895
12669750666.666666 0.9360695940704719 0.3518148874857045 -8.820113431442786e-17 -5.523540590896964e-18 -8.820113431442786e-17 -5.523540590896964e-18 0.9360693676338349 0.35181548996232187
12670368000.0 0.9392896916126238 0.34312515971595575 -8.82317523192865e-17 -4.697195290893125e-18 -8.82317523192865e-17 -4.697195290893125e-18 0.9392894707796624 0.3431257642356495
12670985333.333334 0.9424291225824534 0.33440596422358254 -8.82546342803017e-17 -3.870760832779439e-18 -8.82546342803017e-17 -3.870760832779439e-18 0.9424289073715865 0.3344065707342397
