! Parameters = {f0=12700.012000; bw=77.238000; Q=6100.000000; N=10; m_0_1=1.182477; m_1_1=-1.027584; m_1_2=1.017289; m_2_2=-1.028233; m_2_3=0.654252; m_2_8=-0.003812; m_2_9=0.032892; m_3_3=-1.030170; m_3_4=0.542781; m_3_7=-0.003212; m_3_8=-0.100300; m_3_9=-0.003812; m_4_4=-1.033095; m_4_5=0.379116; m_4_6=0.000305; m_4_7=-0.120849; m_4_8=-0.003212; m_5_5=-1.032713; m_5_6=0.786471; m_5_7=0.000305; m_6_6=-1.032714; m_6_7=0.379458; m_7_7=-1.033081; m_7_8=0.542899; m_8_8=-1.030172; m_8_9=0.654565; m_9_9=-1.028238; m_9_10=1.018367; m_10_10=-1.027594; m_10_11=1.183272}
!
! Created with skrf (http://scikit-rf.org).
# Hz S RI R 50.0 
!freq ReS11 ImS11 ReS21 ImS21 ReS12 ImS12 ReS22 ImS22
12607400000.0 -0.9726222241864316 -0.23239192976195622 7.171889898112354e-17 -3.838674331727078e-18 7.171889898112354e-17 -3.838674331727078e-18 -0.9726220793713686 -0.23239253585079173
12608017333.333334 -0.9744357385741425 -0.2246664002233357 7.167174654014995e-17 -4.413169556614129e-18 7.167174654014995e-17 -4.413169556614129e-18 -0.974435598580094 -0.22466700741252638
12608634666.666666 -0.9761878901693446 -0.21692672285029893 7.161999660541744e-17 -4.98715552429656e-18 7.161999660541744e-17 -4.98715552429656e-18 -0.9761877550046537 -0.2169273311015025
12609252000.0 -0.9778785686344768 -0.2091733850307824 7.156365430985161e-17 -5.5605954781515344e-18 7.156365430985161e-17 -5.5605954781515344e-18 -0.977878438307181 -0.20917399430559336
12609869333.333334 -0.9795076675031056 -0.20140687501292784 7.150272507995838e-17 -6.133452711095862e-18 7.150272507995838e-17 -6.133452711095862e-18 -0.9795075420209389 -0.20140748527288044
12610486666.666666 -0.98107508418661 -0.19362768187447682 7.14372146353613e-17 -6.7056905679266344e-18 7.14372146353613e-17 -6.7056905679266344e-18 -0.9810749635569992 -0.19362829308104668
12611104000.0 -0.9825807199806903 -0.18583629549169214 7.13671289883156e-17 -7.277272447679763e-18 7.13671289883156e-17 -7.277272447679763e-18 -0.9825806042107563 -0.18583690760629926
12611721333.333334 -0.9840244800715305 -0.1780332065087883 7.12924744432102e-17 -7.848161805935522e-18 7.12924744432102e-17 -7.848161805935522e-18 -0.9840243691680876 -0.17803381949279912
12612338666.666666 -0.9854062735417933 -0.17021890630692293 7.121325759604544e-17 -8.418322157168206e-18 7.121325759604544e-17 -8.418322157168206e-18 -0.9854061675113476 -0.17021952012165287
12612956000.0 -0.9867260133763587 -0.16239388697314058 7.112948533389416e-17 -8.987717077068693e-18 7.112948533389416e-17 -8.987717077068693e-18 -0.986725912225111 -0.16239450157985685
12613573333.333334 -0.987983616467764 -0.15455864126966584 7.104116483434647e-17 -9.556310204854218e-18 7.104116483434647e-17 -9.556310204854218e-18 -0.9879835202016051 -0.15455925662958925
12614190666.666666 -0.9891790036214783 -0.14671366260259172 7.09483035649326e-17 -1.012406524559122e-17 7.09483035649326e-17 -1.012406524559122e-17 -0.9891789122459924 -0.14671427867689968
12614808000.0 -0.990312099560867 -0.13885944499094888 7.085090928252917e-17 -1.0690945972503016e-17 7.085090928252917e-17 -1.0690945972503016e-17 -0.990312013081329 -0.13886006174077747
12615425333.333334 -0.9913828329319361 -0.13099648303559647 7.074899003274724e-17 -1.1256916229274226e-17 7.074899003274724e-17 -1.1256916229274226e-17 -0.991382751353313 -0.1309971004220432
12616042666.666666 -0.9923911363078376 -0.12312527188796271 7.064255414930109e-17 -1.182193993234762e-17 7.064255414930109e-17 -1.182193993234762e-17 -0.992391059634786 -0.12312588987208867
12616660000.0 -0.9933369461930943 -0.1152463072190331 7.053161025335857e-17 -1.2385981073225636e-17 7.053161025335857e-17 -1.2385981073225636e-17 -0.9933368744299622 -0.11524692576186558
12617277333.333334 -0.9942202030276158 -0.1073600851879957 7.041616725287497e-17 -1.294900372074789e-17 7.041616725287497e-17 -1.294900372074789e-17 -0.9942201361784406 -0.10736070425053053
12617894666.666666 -0.9950408511904288 -0.09946710241116599 7.029623434190846e-17 -1.3510972023371046e-17 7.029623434190846e-17 -1.3510972023371046e-17 -0.9950407892589407 -0.0994677219543704
12618512000.0 -0.9957988390032175 -0.09156785593040324 7.017182099991214e-17 -1.4071850211464473e-17 7.017182099991214e-17 -1.4071850211464473e-17 -0.9957987819928341 -0.09156847591521775
12619129333.333334 -0.996494118733531 -0.08366284318220571 7.004293699101824e-17 -1.4631602599551967e-17 7.004293699101824e-17 -1.4631602599551967e-17 -0.9964940666473606 -0.0836634635695469
12619746666.666666 -0.9971266465978224 -0.07575256196610333 6.990959236329448e-17 -1.5190193588595012e-17 6.990959236329448e-17 -1.5190193588595012e-17 -0.9971265994386633 -0.07575318271686635
12620364000.0 -0.9976963827641994 -0.06783751041333796 6.977179744798617e-17 -1.5747587668247514e-17 6.977179744798617e-17 -1.5747587668247514e-17 -0.9976963405345384 -0.0678381314883988
12620981333.333334 -0.9982032913549205 -0.05991818695563638 6.962956285874323e-17 -1.630374941909623e-17 6.962956285874323e-17 -1.630374941909623e-17 -0.9982032540569356 -0.05991880831585453
12621598666.666666 -0.9986473404486674 -0.0519950902937096 6.948289949082494e-17 -1.6858643514912223e-17 6.948289949082494e-17 -1.6858643514912223e-17 -0.9986473080842241 -0.05199571189993036
12622216000.0 -0.9990285020825476 -0.044068719365876405 6.933181852028887e-17 -1.7412234724885527e-17 6.933181852028887e-17 -1.7412234724885527e-17 -0.9990284746532014 -0.04406934117893345
12622833333.333334 -0.9993467522538614 -0.0361395733166158 6.9176331403162e-17 -1.7964487915854768e-17 6.9176331403162e-17 -1.7964487915854768e-17 -0.9993467297608561 -0.03614019529733359
12623450666.666666 -0.9996020709216047 -0.028208151465247928 6.901644987459406e-17 -1.8515368054529748e-17 6.901644987459406e-17 -1.8515368054529748e-17 -0.9996020533658746 -0.028208773574444214
12624068000.0 -0.9997944420077416 -0.02027495327434878 6.885218594799363e-17 -1.906484020970458e-17 6.885218594799363e-17 -1.906484020970458e-17 -0.9997944293899085 -0.020275575472837048
12624685333.333334 -0.9999238533982086 -0.012340478318297526 6.868355191414339e-17 -1.961286955447527e-17 6.868355191414339e-17 -1.961286955447527e-17 -0.9999238457185854 -0.012341100566889493
12625302666.666666 -0.9999902969436832 -0.004405226251987651 6.851056034030725e-17 -2.0159421368418496e-17 6.851056034030725e-17 -2.0159421368418496e-17 -0.9999902942022694 -0.004405848511495679
12625920000.0 -0.9999937684600915 0.0035303032208935273 6.833322406930446e-17 -2.0704461039813198e-17 6.833322406930446e-17 -2.0704461039813198e-17 -0.9999937706565769 0.0035296809896539117
12626537333.333334 -0.9999342677288762 0.011465610379048247 6.81515562185845e-17 -2.1247954067796134e-17 6.81515562185845e-17 -2.1247954067796134e-17 -0.999934274862639 0.0114649882152559
12627154666.666666 -0.9998117984970072 0.019400195515179165 6.796557017926972e-17 -2.1789866064557957e-17 6.796557017926972e-17 -2.1789866064557957e-17 -0.9998118105671162 0.01939957345800488
12627772000.0 -0.9996263684767477 0.027333558967627812 6.777527961518607e-17 -2.2330162757511596e-17 6.777527961518607e-17 -2.2330162757511596e-17 -0.9996263854819598 0.02733293705623183
12628389333.333334 -0.9993779893451706 0.03526520115144172 6.758069846188415e-17 -2.286880999143339e-17 6.758069846188415e-17 -2.286880999143339e-17 -0.9993780112839322 0.035264579424971264
12629006666.666666 -0.9990666767434169 0.04319462259023244 6.738184092562667e-17 -2.3405773730641755e-17 6.738184092562667e-17 -2.3405773730641755e-17 -0.9990667036138644 0.043194001087819275
12629624000.0 -0.9986924502757146 0.051121323947429964 6.71787214823759e-17 -2.3941020061119478e-17 6.71787214823759e-17 -2.3941020061119478e-17 -0.9986924820756728 0.05112070270818788
12630241333.333334 -0.9982553335081421 0.05904480605772715 6.69713548767534e-17 -2.4474515192657947e-17 6.69713548767534e-17 -2.4474515192657947e-17 -0.9982553702351287 0.05904418512074968
12630858666.666666 -0.9977553539671563 0.06696456995845719 6.67597561209877e-17 -2.500622546097931e-17 6.67597561209877e-17 -2.500622546097931e-17 -0.997755395618376 0.06696394936281486
12631476000.0 -0.9971925431378338 0.07488011692129787 6.654394049383952e-17 -2.5536117329862668e-17 6.654394049383952e-17 -2.5536117329862668e-17 -0.9971925897101815 0.0748794967060359
12632093333.333334 -0.9965669364619124 0.08279094848330908 6.632392353952146e-17 -2.6064157393235086e-17 6.632392353952146e-17 -2.6064157393235086e-17 -0.9965669879519751 0.082790328687445
12632710666.666666 -0.9958785733355545 0.09069656647849293 6.609972106659037e-17 -2.6590312377279778e-17 6.609972106659037e-17 -2.6590312377279778e-17 -0.9958786297396091 0.09069594714101402
12633328000.0 -0.9951274971068512 0.09859647306927752 6.587134914682258e-17 -2.7114549142534708e-17 6.587134914682258e-17 -2.7114549142534708e-17 -0.995127558420866 0.0985958542291384
12633945333.333334 -0.994313755073105 0.10649017077772552 6.563882411408392e-17 -2.7636834685955654e-17 6.563882411408392e-17 -2.7636834685955654e-17 -0.9943138212927383 0.1064895524738456
12634562666.666666 -0.9934373984778535 0.11437716251683323 6.540216256317311e-17 -2.8157136142994034e-17 6.540216256317311e-17 -2.8157136142994034e-17 -0.9934374695984567 0.1143765447880945
12635180000.0 -0.9924984825076381 0.1222569516219188 6.516138134864944e-17 -2.8675420789662946e-17 6.516138134864944e-17 -2.8675420789662946e-17 -0.992498558524253 0.12225633450716307
12635797333.333334 -0.9914970662885219 0.1301290418818977 6.491649758365094e-17 -2.9191656044578824e-17 6.491649758365094e-17 -2.9191656044578824e-17 -0.991497147195885 0.13012842541992464
12636414666.666666 -0.9904332128823905 0.13799293757041886 6.46675286386918e-17 -2.970580947100202e-17 6.46675286386918e-17 -2.970580947100202e-17 -0.990433298674927 0.13799232179998272
12637032000.0 -0.9893069892829465 0.1458481434772495 6.44144921404402e-17 -3.0217848778876796e-17 6.44144921404402e-17 -3.0217848778876796e-17 -0.9893070799547777 0.14584752843705762
12637649333.333334 -0.9881184664115191 0.15369416493932003 6.415740597048795e-17 -3.072774182684253e-17 6.415740597048795e-17 -3.072774182684253e-17 -0.9881185619564595 0.15369355066803
12638266666.666666 -0.9868677191125752 0.16153050787201484 6.389628826409609e-17 -3.1235456624252915e-17 6.389628826409609e-17 -3.1235456624252915e-17 -0.9868678195241312 0.16152989440823176
12638884000.0 -0.9855548261490278 0.16935667880011668 6.363115740893381e-17 -3.174096133316461e-17 6.363115740893381e-17 -3.174096133316461e-17 -0.9855549314204017 0.16935606618239132
12639501333.333334 -0.9841798701972608 0.1771721848890237 6.33620320437924e-17 -3.2244224270335363e-17 6.33620320437924e-17 -3.2244224270335363e-17 -0.9841799803213479 0.1771715731558495
12640118666.666666 -0.9827429378419501 0.18497653397558744 6.308893105729426e-17 -3.2745213909189716e-17 6.308893105729426e-17 -3.2745213909189716e-17 -0.9827430528113419 0.18497592316539854
12640736000.0 -0.9812441195705325 0.1927692345995533 6.281187358656439e-17 -3.32438988818148e-17 6.281187358656439e-17 -3.32438988818148e-17 -0.9812442393775174 0.1927686247507223
12641353333.333334 -0.9796835097676357 0.20054979603383954 6.253087901592615e-17 -3.374024798087249e-17 6.253087901592615e-17 -3.374024798087249e-17 -0.9796836344041958 0.20054918718467415
12641970666.666666 -0.9780612067090231 0.2083177283159966 6.224596697553319e-17 -3.423423016158912e-17 6.224596697553319e-17 -3.423423016158912e-17 -0.9780613361668385 0.2083171205047382
12642588000.0 -0.9763773125554398 0.2160725422788947 6.195715734002546e-17 -3.472581454366105e-17 6.195715734002546e-17 -3.472581454366105e-17 -0.976377446825888 0.21607193554371554
12643205333.333334 -0.9746319333462083 0.22381374958138864 6.166447022715047e-17 -3.521497041318658e-17 6.166447022715047e-17 -3.521497041318658e-17 -0.9746320724203638 0.22381314396038937
12643822666.666666 -0.9728251789925018 0.2315408627392921 6.136792599637026e-17 -3.570166722458229e-17 6.136792599637026e-17 -3.570166722458229e-17 -0.972825322861138 0.2315402582704997
12644440000.0 -0.9709571632704593 0.23925339515590924 6.106754524746225e-17 -3.6185874602474155e-17 6.106754524746225e-17 -3.6185874602474155e-17 -0.9709573119240501 0.23925279187727455
12645057333.333334 -0.9690280038140204 0.24695086115270576 6.076334881909973e-17 -3.666756234358568e-17 6.076334881909973e-17 -3.666756234358568e-17 -0.9690281572427362 0.24695025910210036
12645674666.666666 -0.9670378221075104 0.25463277599989204 6.04553577874138e-17 -3.714670041862112e-17 6.04553577874138e-17 -3.714670041862112e-17 -0.9670379803012243 0.25463217521510706
12646292000.0 -0.9649867434779532 0.2622986559471141 6.014359346454285e-17 -3.762325897413129e-17 6.014359346454285e-17 -3.762325897413129e-17 -0.9649869064262384 0.26229805646585713
12646909333.333334 -0.9628748970872407 0.26994801825366854 5.982807739717891e-17 -3.809720833435069e-17 5.982807739717891e-17 -3.809720833435069e-17 -0.9628750647793725 0.26994742011356143
12647526666.666666 -0.9607024159239719 0.2775803812190124 5.950883136507995e-17 -3.856851900305288e-17 5.950883136507995e-17 -3.856851900305288e-17 -0.9607025883489264 0.2775797844575885
12648144000.0 -0.9584694367950517 0.28519526421317803 5.91858773795782e-17 -3.903716166537667e-17 5.91858773795782e-17 -3.903716166537667e-17 -0.9584696139415104 0.2851946688678808
12648761333.333334 -0.9561761003171183 0.292792187706904 5.885923768207909e-17 -3.9503107189633144e-17 5.885923768207909e-17 -3.9503107189633144e-17 -0.9561762821734658 0.292791593815084
12649378666.666666 -0.9538225509076891 0.3003706733018329 5.852893474253577e-17 -3.9966326629115447e-17 5.852893474253577e-17 -3.9966326629115447e-17 -0.9538227374620132 0.300370080900745
12649996000.0 -0.9514089367760215 0.30793024376077194 5.819499125791501e-17 -4.0426791223887474e-17 5.819499125791501e-17 -4.0426791223887474e-17 -0.9514091280161161 0.3079296528875739
12650613333.333334 -0.9489354099138161 0.31547042303763817 5.785743015064689e-17 -4.088447240256314e-17 5.785743015064689e-17 -4.088447240256314e-17 -0.9489356058271818 0.31546983372938775
12651230666.666666 -0.9464021260856444 0.32299073630743597 5.75162745670679e-17 -4.1339341784063226e-17 5.75162745670679e-17 -4.1339341784063226e-17 -0.9464023266594893 0.32299014860108927
12651848000.0 -0.943809244819106 0.3304907099962666 5.717154787583204e-17 -4.179137117938343e-17 5.717154787583204e-17 -4.179137117938343e-17 -0.9438094500403446 0.3304901239286748
12652465333.333334 -0.9411569293948238 0.3379698718110146 5.682327366633217e-17 -4.224053259331702e-17 5.682327366633217e-17 -4.224053259331702e-17 -0.94115713925008 0.3379692874189222
12653082666.666666 -0.9384453468361773 0.34542775076906423 5.647147574709166e-17 -4.2686798226187337e-17 5.647147574709166e-17 -4.2686798226187337e-17 -0.9384455613117837 0.3454271680891062
12653700000.0 -0.9356746678986843 0.35286387722822404 5.611617814414118e-17 -4.313014047556623e-17 5.611617814414118e-17 -4.313014047556623e-17 -0.9356748869806848 0.35286329629692476
12654317333.333334 -0.9328450670593855 0.3602777829159294 5.575740509940069e-17 -4.3570531937957634e-17 5.575740509940069e-17 -4.3570531937957634e-17 -0.9328452907335357 0.36027720376969924
12654934666.666666 -0.9299567225057631 0.36766900095899774 5.539518106902393e-17 -4.4007945410497373e-17 5.539518106902393e-17 -4.4007945410497373e-17 -0.9299569507575292 0.36766842363413077
12655552000.0 -0.9270098161245204 0.3750370659129994 5.5029530721740936e-17 -4.4442353892625185e-17 5.5029530721740936e-17 -4.4442353892625185e-17 -0.9270100489390835 0.37503649044567205
12656169333.333334 -0.9240045334901864 0.38238151379143775 5.46604789372007e-17 -4.48737305877277e-17 5.46604789372007e-17 -4.48737305877277e-17 -0.9240047708524408 0.3823809402177057
12656786666.666666 -0.9209410638533859 0.3897018820950728 5.4288050804269814e-17 -4.530204890480476e-17 5.4288050804269814e-17 -4.530204890480476e-17 -0.9209413057479418 0.38970131045086903
12657404000.0 -0.9178196001289324 0.39699770984101934 5.391227161935058e-17 -4.572728246008321e-17 5.391227161935058e-17 -4.572728246008321e-17 -0.9178198465401155 0.3969971401621519
12658021333.333334 -0.9146403388836692 0.40426853759180326 5.353316688466468e-17 -4.61494050786431e-17 5.353316688466468e-17 -4.61494050786431e-17 -0.9146405897955219 0.4042679699139525
12658638666.666666 -0.9114034803241453 0.4115139074841611 5.315076230653951e-17 -4.6568390796011145e-17 5.315076230653951e-17 -4.6568390796011145e-17 -0.9114037357204293 0.4115133418428786
12659256000.0 -0.9081092282838981 0.41873336325813637 5.2765083793661395e-17 -4.6984213859764646e-17 5.2765083793661395e-17 -4.6984213859764646e-17 -0.9081094881480937 0.41873279968884153
12659873333.333334 -0.9047577902107282 0.42592645028554865 5.237615745534256e-17 -4.7396848731090595e-17 5.237615745534256e-17 -4.7396848731090595e-17 -0.9047580545260357 0.4259258888235269
12660490666.666666 -0.9013493771535797 0.4330927155987535 5.1984009599757733e-17 -4.780627008635189e-17 5.1984009599757733e-17 -4.780627008635189e-17 -0.901349645902921 0.4330921562791543
12661108000.0 -0.8978842037492611 0.4402317079191416 5.1588666732167966e-17 -4.8212452818638565e-17 5.1588666732167966e-17 -4.8212452818638565e-17 -0.8978844769152807 0.44023115077697605
12661725333.333334 -0.8943624882089295 0.447342977685556 5.119015555315216e-17 -4.8615372039284323e-17 5.119015555315216e-17 -4.8615372039284323e-17 -0.8943627657739969 0.44734242275569547
12662342666.666666 -0.8907844523043508 0.45442607708260396 5.0788502956798776e-17 -4.9015003079397276e-17 5.0788502956798776e-17 -4.9015003079397276e-17 -0.8907847342505579 0.454425524399776
12662960000.0 -0.8871503213539312 0.4614805600688549 5.038373602890696e-17 -4.94113214913546e-17 5.038373602890696e-17 -4.94113214913546e-17 -0.8871506076630963 0.4614800096676423
12663577333.333334 -0.8834603242085297 0.46850598240493 4.9975882045168664e-17 -4.9804303050289146e-17 4.9975882045168664e-17 -4.9804303050289146e-17 -0.8834606148621983 0.46850543431976854
12664194666.666666 -0.8797146932370451 0.47550190168147577 4.956496846933388e-17 -5.019392375556703e-17 4.956496846933388e-17 -5.019392375556703e-17 -0.8797149882164919 0.4755013559466528
12664812000.0 -0.8759136643117876 0.48246787734702684 4.9151022951378625e-17 -5.0580159832236196e-17 4.9151022951378625e-17 -5.0580159832236196e-17 -0.8759139635980162 0.4824673339966778
12665429333.333334 -0.87205747679362 0.4894034707357448 4.8734073325645926e-17 -5.096298773247512e-17 4.8734073325645926e-17 -5.096298773247512e-17 -0.8720577803673644 0.4894029298038518
12666046666.666666 -0.8681463735169017 0.49630824509502003 4.8314147608991804e-17 -5.134238413701144e-17 4.8314147608991804e-17 -5.134238413701144e-17 -0.8681466813586288 0.49630770661540996
12666664000.0 -0.8641806007741281 0.503181765613099 4.7891273998896184e-17 -5.171832595654657e-17 4.7891273998896184e-17 -5.171832595654657e-17 -0.8641809128640351 0.5031812296194393
12667281333.333334 -0.8601604083005537 0.510023599446215 4.746548087159325e-17 -5.209079033313867e-17 4.746548087159325e-17 -5.209079033313867e-17 -0.8601607246185758 0.5100230659720156
12667898666.666666 -0.8560860492583494 0.5168333157460718 4.7036796780169625e-17 -5.245975464158832e-17 4.7036796780169625e-17 -5.245975464158832e-17 -0.856086369784156 0.5168327848246798
12668516000.0 -0.8519577802206514 0.5236104856869724 4.660525045265205e-17 -5.2825196490809e-17 4.660525045265205e-17 -5.2825196490809e-17 -0.8519581049336489 0.5236099573515707
12669133333.333334 -0.8477758611555399 0.5303546824926052 4.617087079010592e-17 -5.318709372516356e-17 4.617087079010592e-17 -5.318709372516356e-17 -0.8477761900348721 0.5303541567762101
12669750666.666666 -0.8435405554095311 0.5370654814631353 4.573368686469277e-17 -5.3545424425810957e-17 4.573368686469277e-17 -5.3545424425810957e-17 -0.8435408884340831 0.5370649583985961
