! Parameters = {f0=12700.012000; bw=77.238000; Q=6100.000000; N=10; m_0_1=1.348243; m_1_1=1.458903; m_1_2=1.183055; m_2_2=1.458254; m_2_3=0.820018; m_2_8=0.004476; m_2_9=0.041180; m_3_3=1.456317; m_3_4=0.708547; m_3_7=0.005076; m_3_8=-0.092012; m_3_9=0.004476; m_4_4=1.453392; m_4_5=0.544882; m_4_6=0.008593; m_4_7=-0.112561; m_4_8=0.005076; m_5_5=1.453774; m_5_6=0.952237; m_5_7=0.008593; m_6_6=1.453773; m_6_7=0.545224; m_7_7=1.453406; m_7_8=0.708665; m_8_8=1.456315; m_8_9=0.820331; m_9_9=1.458249; m_9_10=1.184133; m_10_10=1.458893; m_10_11=1.349038}
!
! Created with skrf (http://scikit-rf.org).
# Hz S RI R 50.0 
!freq ReS11 ImS11 ReS21 ImS21 ReS12 ImS12 ReS22 ImS22
12607400000.0 -0.813708184838418 -0.5812735930065711 1.4916153480594003e-16 5.1472479923473415e-17 1.4916153480594003e-16 5.1472479923473415e-17 -0.8137077720271125 -0.5812741708888105
12608017333.333334 -0.821102187563392 -0.5707812169110105 1.4978499250122143e-16 4.953066515822221e-17 1.4978499250122143e-16 4.953066515822221e-17 -0.8211017822234435 -0.570781800015808
12608634666.666666 -0.8283609044783463 -0.5601947982011423 1.5038318572509347e-16 4.758133698515901e-17 1.5038318572509347e-16 4.758133698515901e-17 -0.8283605066758041 -0.5601953864319182
12609252000.0 -0.8354831396282919 -0.5495160811083273 1.509560244578075e-16 4.5624823928178653e-17 1.509560244578075e-16 4.5624823928178653e-17 -0.8354827494279579 -0.5495166743676675
12609869333.333334 -0.8424677195450806 -0.5387468250712136 1.5150342294914633e-16 4.3661455582464565e-17 1.5150342294914633e-16 4.3661455582464565e-17 -0.8424673370104969 -0.5387474232608842
12610486666.666666 -0.8493134934407202 -0.5278888044458995 1.5202529973107686e-16 4.169156255901493e-17 1.5202529973107686e-16 4.169156255901493e-17 -0.8493131186341606 -0.5278894074668644
12611104000.0 -0.856019333397284 -0.5169438082131083 1.5252157762968363e-16 3.971547642901196e-17 1.5252157762968363e-16 3.971547642901196e-17 -0.8560189663797427 -0.5169444159655447
12611721333.333334 -0.8625841345523234 -0.5059136396841061 1.5299218377635922e-16 3.7733529668139564e-17 1.5299218377635922e-16 3.7733529668139564e-17 -0.8625837753835053 -0.5059142520674221
12612338666.666666 -0.8690068152812109 -0.4948001162031071 1.5343704961830225e-16 3.574605560065027e-17 1.5343704961830225e-16 3.574605560065027e-17 -0.8690064640195216 -0.4948007331159571
12612956000.0 -0.8752863173753374 -0.48360506884783744 1.5385611092826782e-16 3.375338834339892e-17 1.5385611092826782e-16 3.375338834339892e-17 -0.8752859740778745 -0.48360569018813976
12613573333.333334 -0.881421606216215 -0.47233034212829184 1.5424930781359607e-16 3.175586274975782e-17 1.5424930781359607e-16 3.175586274975782e-17 -0.8814212709387587 -0.47233096779324557
12614190666.666666 -0.8874116709462229 -0.4609777936823357 1.5461658472452147e-16 2.97538143533958e-17 1.5461658472452147e-16 2.97538143533958e-17 -0.8874113437432268 -0.4609784235684375
12614808000.0 -0.8932555246350165 -0.4495492939698851 1.5495789046175294e-16 2.7747579311956494e-17 1.5495789046175294e-16 2.7747579311956494e-17 -0.893255205559598 -0.44954992797294613
12615425333.333334 -0.8989522044421642 -0.4380467259646785 1.5527317818330937e-16 2.573749435074264e-17 1.5527317818330937e-16 2.573749435074264e-17 -0.8989518935460968 -0.43804736397984184
12616042666.666666 -0.9045007717757845 -0.4264719848440349 1.5556240541064893e-16 2.3723896706195625e-17 1.5556240541064893e-16 2.3723896706195625e-17 -0.9045004691094888 -0.426472626765793
12616660000.0 -0.909900312447191 -0.41482697767660326 1.558255340340431e-16 2.17071240694528e-17 1.558255340340431e-16 2.17071240694528e-17 -0.9099000180597271 -0.41482762339881507
12617277333.333334 -0.9151499368215148 -0.40311362310815 1.5606253031724153e-16 1.9687514529709663e-17 1.5606253031724153e-16 1.9687514529709663e-17 -0.9151496507605735 -0.4031142725240589
12617894666.666666 -0.9202487799642797 -0.39133385104544105 1.5627336490138436e-16 1.7665406517679324e-17 1.5627336490138436e-16 1.7665406517679324e-17 -0.920248502276177 -0.3913345040476928
12618512000.0 -0.9251960017839153 -0.3794896023382697 1.5645801280820063e-16 1.5641138748875212e-17 1.5645801280820063e-16 1.5641138748875212e-17 -0.9251957325135816 -0.37949025881892906
12619129333.333334 -0.9299907871701651 -0.3675828284596773 1.5661645344245855e-16 1.3615050167001648e-17 1.5661645344245855e-16 1.3615050167001648e-17 -0.9299905263611409 -0.36758348831024695
12619746666.666666 -0.9346323461283905 -0.35561549118442776 1.567486705936921e-16 1.1587479887248471e-17 1.567486705936921e-16 1.1587479887248471e-17 -0.9346320938228155 -0.355616154295865
12620364000.0 -0.9391199139097253 -0.34358956226578163 1.5685465243719654e-16 9.558767139534593e-18 1.5685465243719654e-16 9.558767139534593e-18 -0.9391196701483372 -0.3435902285285183
12620981333.333334 -0.9434527511370828 -0.33150702311062963 1.5693439153428044e-16 7.529251211923964e-18 1.5693439153428044e-16 7.529251211923964e-18 -0.9434525159592061 -0.33150769241458844
12621598666.666666 -0.947630143926972 -0.31936986445303184 1.5698788483179548e-16 5.49927139388455e-18 1.5698788483179548e-16 5.49927139388455e-18 -0.9476299173705137 -0.31937053668764553
12622216000.0 -0.9516514040071208 -0.30718008602622293 1.5701513366093223e-16 3.4691669196139193e-18 1.5701513366093223e-16 3.4691669196139193e-18 -0.9516511861085635 -0.30718076108045206
12622833333.333334 -0.9555158688298913 -0.2949396962330787 1.5701614373528014e-16 1.4392769114675045e-18 1.5701614373528014e-16 1.4392769114675045e-18 -0.9555156596242873 -0.29494037399543005
12623450666.666666 -0.9592229016813737 -0.2826507118154262 1.5699092514816111e-16 -5.90059676652567e-19 1.5699092514816111e-16 -5.90059676652567e-19 -0.9592227012023414 -0.2826513921739718
12624068000.0 -0.9627718917863844 -0.2703151575214936 1.5693949236923113e-16 -2.6185041158494936e-18 1.5693949236923113e-16 -2.6185041158494936e-18 -0.9627717000660994 -0.270315840363888
12624685333.333334 -0.966162254409096 -0.25793506577225017 1.568618642403508e-16 -4.645717958688404e-18 1.568618642403508e-16 -4.645717958688404e-18 -0.966162071478289 -0.25793575098575056
12625302666.666666 -0.9693934309492406 -0.24551247632709464 1.5675806397073236e-16 -6.671363095575045e-18 1.5675806397073236e-16 -6.671363095575045e-18 -0.9693932568371901 -0.24551316379857768
12625920000.0 -0.9724648890343591 -0.233049435946955 1.5662811913135253e-16 -8.69510181114509e-18 1.5662811913135253e-16 -8.69510181114509e-18 -0.9724647237688887 -0.23305012556293697
12626537333.333334 -0.9753761226073044 -0.2205479980578889 1.5647206164864625e-16 -1.0716596840440874e-17 1.5647206164864625e-16 -1.0716596840440874e-17 -0.9753759662147774 -0.2205486897045437
12627154666.666666 -0.9781266520097738 -0.20801022241215197 1.562899277974718e-16 -1.2735511425080047e-17 1.562899277974718e-16 -1.2735511425080047e-17 -0.9781265045150891 -0.20801091597533017
12627772000.0 -0.9807160240612677 -0.1954381747491061 1.5608175819334986e-16 -1.4751509369317535e-17 1.5608175819334986e-16 -1.4751509369317535e-17 -0.9807158854878546 -0.19543887011435337
12628389333.333334 -0.9831438121337585 -0.1828339264548661 1.5584759778399086e-16 -1.6764255095902968e-17 1.5584759778399086e-16 -1.6764255095902968e-17 -0.9831436825035769 -0.18283462350744303
12629006666.666666 -0.9854096162220288 -0.1701995542207933 1.5558749584008876e-16 -1.8773413701937093e-17 1.5558749584008876e-16 -1.8773413701937093e-17 -0.9854094955555603 -0.17020025284569304
12629624000.0 -0.987513063009507 -0.1575371397016708 1.5530150594540688e-16 -2.077865101450519e-17 1.5530150594540688e-16 -2.077865101450519e-17 -0.9875129513257567 -0.15753783978363914
12630241333.333334 -0.9894538059298321 -0.14484876917244918 1.54989685986146e-16 -2.2779633646175744e-17 1.54989685986146e-16 -2.2779633646175744e-17 -0.9894537032463214 -0.1448494705960029
12630858666.666666 -0.9912315252238969 -0.1321365331848454 1.546520981395955e-16 -2.4776029050381718e-17 1.546520981395955e-16 -2.4776029050381718e-17 -0.9912314315566649 -0.1321372358342918
12631476000.0 -0.9928459279926262 -0.11940252622228271 1.5428880886206758e-16 -2.676750557664823e-17 1.5428880886206758e-16 -2.676750557664823e-17 -0.9928458433562233 -0.11940322998173819
12632093333.333334 -0.9942967482451285 -0.1066488463555324 1.5389988887613715e-16 -2.875373252557017e-17 1.5389988887613715e-16 -2.875373252557017e-17 -0.9942966726526161 -0.10664955110894185
12632710666.666666 -0.9955837469425732 -0.0938775948966957 1.534854131571607e-16 -3.0734380203688615e-17 1.534854131571607e-16 -3.0734380203688615e-17 -0.9955836804055218 -0.09387830052785162
12633328000.0 -0.9967067120376013 -0.08109087605270604 1.530454609190906e-16 -3.270911997816878e-17 1.530454609190906e-16 -3.270911997816878e-17 -0.9967066545660886 -0.08109158244526775
12633945333.333334 -0.9976654585092077 -0.06829079657914595 1.5258011559959415e-16 -3.4677624331244517e-17 1.5258011559959415e-16 -3.4677624331244517e-17 -0.9976654101118159 -0.06829150361665856
12634562666.666666 -0.9984598283932543 -0.055479465432852725 1.5208946484447676e-16 -3.6639566914447156e-17 1.5208946484447676e-16 -3.6639566914447156e-17 -0.9984597890770708 -0.05548017299876657
12635180000.0 -0.9990896908084932 -0.042658993424500836 1.5157360049138792e-16 -3.859462260270434e-17 1.5157360049138792e-16 -3.859462260270434e-17 -0.9990896605791084 -0.04265970140219058
12635797333.333334 -0.9995549419781281 -0.029831492870822002 1.5103261855286216e-16 -4.0542467548092284e-17 1.5103261855286216e-16 -4.0542467548092284e-17 -0.9995549208396352 -0.029832201143605838
12636414666.666666 -0.9998555052469164 -0.01699907724657743 1.504666191986493e-16 -4.2482779233440434e-17 1.504666191986493e-16 -4.2482779233440434e-17 -0.9998554932019091 -0.016999785697736323
12637032000.0 -0.9999913310937937 -0.004163860836338953 1.4987570673735616e-16 -4.441523652569252e-17 1.4987570673735616e-16 -4.441523652569252e-17 -0.9999913281433686 -0.004164569349135899
12637649333.333334 -0.9999623971400372 0.008672041613862987 1.492599895974281e-16 -4.633951972893014e-17 1.492599895974281e-16 -4.633951972893014e-17 -0.9999624032837919 0.008671333156163741
12638266666.666666 -0.9997687081529507 0.021506515244967505 1.486195803074141e-16 -4.825531063726395e-17 1.486195803074141e-16 -4.825531063726395e-17 -0.9997687233889849 0.02150580695908124
12638884000.0 -0.9994102960450802 0.03433744543333009 1.4795459547559525e-16 -5.016229258731903e-17 1.4795459547559525e-16 -5.016229258731903e-17 -0.999410320369996 0.03433673743593239
12639501333.333334 -0.9988872198689531 0.04716271813918734 1.4726515576889746e-16 -5.2060150510577876e-17 1.4726515576889746e-16 -5.2060150510577876e-17 -0.9988872532778544 0.047162010546894825
12640118666.666666 -0.9981995658073632 0.0599802202546281 1.465513858911831e-16 -5.394857098529368e-17 1.465513858911831e-16 -5.394857098529368e-17 -0.9981996082938597 0.05997951318397933
12640736000.0 -0.9973474471591266 0.0727878399526599 1.4581341456080987e-16 -5.582724228829164e-17 1.4581341456080987e-16 -5.582724228829164e-17 -0.9973474987153323 0.07278713352009611
12641353333.333334 -0.9963310043204904 0.08558346703379435 1.4505137448762647e-16 -5.769585444620953e-17 1.4505137448762647e-16 -5.769585444620953e-17 -0.9963310649370246 0.08558276135564016
12641970666.666666 -0.9951504047619276 0.09836499327491742 1.442654023491953e-16 -5.955409928672397e-17 1.442654023491953e-16 -5.955409928672397e-17 -0.9951504744279183 0.09836428846736185
12642588000.0 -0.9938058430005807 0.1111303127760757 1.4345563876646216e-16 -6.140167048919973e-17 1.4345563876646216e-16 -6.140167048919973e-17 -0.9938059217036678 0.1111296089551531
12643205333.333334 -0.992297540568213 0.12387732230750396 1.4262222827870822e-16 -6.323826363518335e-17 1.4262222827870822e-16 -6.323826363518335e-17 -0.9922976282945483 0.12387661958907492
12643822666.666666 -0.9906257459746842 0.1366039216563823 1.41765319317894e-16 -6.506357625846874e-17 1.41765319317894e-16 -6.506357625846874e-17 -0.9906258427089324 0.13660322015611404
12644440000.0 -0.9887907346670298 0.14930801397258597 1.408850641823606e-16 -6.687730789482592e-17 1.408850641823606e-16 -6.687730789482592e-17 -0.9887908403923747 0.1493073138059341
12645057333.333334 -0.9867928089840923 0.16198750611416715 1.3998161900987878e-16 -6.867916013141693e-17 1.3998161900987878e-16 -6.867916013141693e-17 -0.9867929236822373 0.1619868073963561
12645674666.666666 -0.9846322981066612 0.17464030899250388 1.3905514375008381e-16 -7.046883665580881e-17 1.3905514375008381e-16 -7.046883665580881e-17 -0.9846324217578337 0.17463961183850826
12646292000.0 -0.9823095580032712 0.18726433791627634 1.3810580213626273e-16 -7.224604330466502e-17 1.3810580213626273e-16 -7.224604330466502e-17 -0.9823096905862252 0.18726364244080174
12646909333.333334 -0.97982497137154 0.19985751293499857 1.371337616565642e-16 -7.401048811197197e-17 1.371337616565642e-16 -7.401048811197197e-17 -0.9798251128635612 0.19985681925246318
12647526666.666666 -0.9771789475751336 0.2124177591816593 1.361391935245368e-16 -7.576188135699021e-17 1.361391935245368e-16 -7.576188135699021e-17 -0.97717909795204 0.21241706740617436
12648144000.0 -0.9743719225762636 0.22494300721480068 1.3512227264909981e-16 -7.749993561172506e-17 1.3512227264909981e-16 -7.749993561172506e-17 -0.9743720818124142 0.2249423174601524
12648761333.333334 -0.971404358863921 0.23743119335920435 1.3408317760388218e-16 -7.922436578805139e-17 1.3408317760388218e-16 -7.922436578805139e-17 -0.9714045269322161 0.23743050573883484
12649378666.666666 -0.9682767453776803 0.24988026004590677 1.3302209059600806e-16 -8.093488918434441e-17 1.3302209059600806e-16 -8.093488918434441e-17 -0.9682769222495674 0.2498795746728952
12649996000.0 -0.9649895974270705 0.2622881561514817 1.3193919743419912e-16 -8.263122553184646e-17 1.3193919743419912e-16 -8.263122553184646e-17 -0.9649897830725509 0.2622874731385262
12650613333.333334 -0.9615434566067134 0.27465283733582035 1.3083468749636825e-16 -8.431309704047221e-17 1.3083468749636825e-16 -8.431309704047221e-17 -0.9615436509943458 0.27465215679521937
12651230666.666666 -0.9579388907071534 0.2869722663787412 1.2970875369663737e-16 -8.598022844417612e-17 1.2970875369663737e-16 -8.598022844417612e-17 -0.9579390938040586 0.2869715884223747
12651848000.0 -0.954176493621151 0.29924441351619135 1.285615924516621e-16 -8.763234704605896e-17 1.285615924516621e-16 -8.763234704605896e-17 -0.9541767053930179 0.29924373825550243
12652465333.333334 -0.950256885245969 0.3114672567741796 1.273934036465482e-16 -8.926918276277539e-17 1.273934036465482e-16 -8.926918276277539e-17 -0.9502571056570625 0.3114665843201571
12653082666.666666 -0.9461807113812513 0.32363878230192406 1.2620439060008258e-16 -9.089046816867362e-17 1.2620439060008258e-16 -9.089046816867362e-17 -0.9461809403944141 0.32363811276508275
12653700000.0 -0.9419486436224377 0.33575698470419457 1.249947600294309e-16 -9.249593853942794e-17 1.249947600294309e-16 -9.249593853942794e-17 -0.9419488811991003 0.3357563181945584
12654317333.333334 -0.9375613792503832 0.34781986737091664 1.2376472201432965e-16 -9.408533189513998e-17 1.2376472201432965e-16 -9.408533189513998e-17 -0.937561625350569 0.3478192039979999
12654934666.666666 -0.9330196411161944 0.3598254428069405 1.225144899606576e-16 -9.565838904306422e-17 1.225144899606576e-16 -9.565838904306422e-17 -0.9330198956985257 0.35982478267972995
12655552000.0 -0.928324177522339 0.37177173295891414 1.2124428056351746e-16 -9.721485361978005e-17 1.2124428056351746e-16 -9.721485361978005e-17 -0.9283244405440464 0.37177107618585165
12656169333.333334 -0.9234757620992634 0.3836567695414583 1.1995431376978021e-16 -9.875447213288387e-17 1.1995431376978021e-16 -9.875447213288387e-17 -0.923476033516188 0.3836561162304214
12656786666.666666 -0.9184751936779391 0.3954785943614073 1.186448127400774e-16 -1.0027699400221188e-16 1.186448127400774e-16 -1.0027699400221188e-16 -0.9184754734445469 0.395477944619694
12657404000.0 -0.9133232961582558 0.4072352596404471 1.173160038102664e-16 -1.0178217160056779e-16 1.173160038102664e-16 -1.0178217160056779e-16 -0.9133235842276395 0.407234613574756
12658021333.333334 -0.908020918373243 0.4189248283360816 1.159681164524304e-16 -1.0326976029387967e-16 1.159681164524304e-16 -1.0326976029387967e-16 -0.9080212146971328 0.4189241860524958
12658638666.666666 -0.9025689339493395 0.430545374460527 1.146013832353273e-16 -1.0473951848089758e-16 1.146013832353273e-16 -1.0473951848089758e-16 -0.9025692384781105 0.4305447360644961
12659256000.0 -0.8969682411622136 0.44209498339855446 1.1321603978430375e-16 -1.0619120763239923e-16 1.1321603978430375e-16 -1.0619120763239923e-16 -0.8969685538448932 0.442094348994877
12659873333.333334 -0.8912197627889725 0.4535717522224786 1.1181232474082846e-16 -1.0762459232974412e-16 1.1181232474082846e-16 -1.0762459232974412e-16 -0.8912200835732507 0.4535711219152857
12660490666.666666 -0.885324445956139 0.46497379000569317 1.1039047972142613e-16 -1.0903944030301877e-16 1.1039047972142613e-16 -1.0903944030301877e-16 -0.8853247747883748 0.46497316389842996
12661108000.0 -0.8792832619833346 0.4762992181347241 1.0895074927615694e-16 -1.1043552246860526e-16 1.0895074927615694e-16 -1.1043552246860526e-16 -0.8792835988085679 0.47629859633013466
12661725333.333334 -0.873097206223614 0.487546170618048 1.0749338084668096e-16 -1.1181261296614933e-16 1.0749338084668096e-16 -1.1181261296614933e-16 -0.8730975509855722 0.487545553218157
12662342666.666666 -0.8667672978991778 0.4987127943940881 1.0601862472376108e-16 -1.1317048919506781e-16 1.0601862472376108e-16 -1.1317048919506781e-16 -0.866767650540287 0.4987121815001851
12662960000.0 -0.8602945799335777 0.5097972496362765 1.045267340044082e-16 -1.1450893185039995e-16 1.045267340044082e-16 -1.1450893185039995e-16 -0.8602949403949705 0.5097966413488979
12663577333.333334 -0.8536801187798543 0.5207977100562342 1.030179645484723e-16 -1.1582772495819108e-16 1.030179645484723e-16 -1.1582772495819108e-16 -0.8536804870013815 0.5207971064751485
12664194666.666666 -0.8469250042448281 0.5317123632046744 1.0149257493489286e-16 -1.1712665591021091e-16 1.0149257493489286e-16 -1.1712665591021091e-16 -0.8469253801650681 0.5317117644288654
12664812000.0 -0.8400303493095453 0.5425394107700258 9.99508264174075e-17 -1.1840551549819088e-16 9.99508264174075e-17 -1.1840551549819088e-16 -0.8400307328658128 0.5425388168976742
12665429333.333334 -0.8329972899458935 0.5532770688747186 9.839298287992983e-17 -1.1966409794739207e-16 9.839298287992983e-17 -1.1966409794739207e-16 -0.8329976810742528 0.5532764800031899
12666046666.666666 -0.8258269849294455 0.5639235683691046 9.681931079144052e-17 -1.2090220094964654e-16 9.681931079144052e-17 -1.2090220094964654e-16 -0.8258273835647189 0.5639229845949295
12666664000.0 -0.8185206156485337 0.5744771551229415 9.523007916046201e-17 -1.2211962569580393e-16 9.523007916046201e-17 -1.2211962569580393e-16 -0.8185210217243134 0.5744765765418022
12667281333.333334 -0.8110793859096045 0.5849360903144057 9.362555948919694e-17 -1.2331617690752796e-16 9.362555948919694e-17 -1.2331617690752796e-16 -0.8110797993582627 0.5849355170211187
12667898666.666666 -0.8035045217389104 0.5952986507165369 9.200602572717098e-17 -1.244916628685667e-16 9.200602572717098e-17 -1.244916628685667e-16 -0.8035049424916116 0.595298082805039
12668516000.0 -0.7957972711803394 0.6055631289813875 9.037175422455383e-17 -1.25645895455361e-16 9.037175422455383e-17 -1.25645895455361e-16 -0.7957976991670525 0.6055625665447201
12669133333.333334 -0.7879589040901267 0.6157278339208724 8.872302368509985e-17 -1.2677869016704406e-16 8.872302368509985e-17 -1.2677869016704406e-16 -0.787959339239634 0.6157272770511649
12669750666.666666 -0.7799907119272897 0.6257910907858651 8.706011511864082e-17 -1.2788986615487352e-16 8.706011511864082e-17 -1.2788986615487352e-16 -0.7799911541672012 0.6257905395743212
