! Parameters = {f0=12700.012000; bw=77.238000; Q=6100.000000; N=10; m_0_1=1.234529; m_1_1=-0.246803; m_1_2=1.069341; m_2_2=-0.247452; m_2_3=0.706304; m_2_8=-0.001210; m_2_9=0.035494; m_3_3=-0.249389; m_3_4=0.594833; m_3_7=-0.000610; m_3_8=-0.097698; m_3_9=-0.001210; m_4_4=-0.252314; m_4_5=0.431168; m_4_6=0.002907; m_4_7=-0.118247; m_4_8=-0.000610; m_5_5=-0.251932; m_5_6=0.838523; m_5_7=0.002907; m_6_6=-0.251933; m_6_7=0.431510; m_7_7=-0.252300; m_7_8=0.594951; m_8_8=-0.249391; m_8_9=0.706617; m_9_9=-0.247457; m_9_10=1.070419; m_10_10=-0.246813; m_10_11=1.235324}
!
! Created with skrf (http://scikit-rf.org).
# Hz S RI R 50.0 
!freq ReS11 ImS11 ReS21 ImS21 ReS12 ImS12 ReS22 ImS22
12607400000.0 -0.9792847484620795 -0.2024879784811806 9.29572688808134e-17 -7.83723892926315e-18 9.29572688808134e-17 -7.83723892926315e-18 -0.9792846167461323 -0.20248861549285693
12608017333.333334 -0.9811592095010423 -0.19320094619624187 9.285988171659072e-17 -8.724111644739576e-18 9.285988171659072e-17 -8.724111644739576e-18 -0.9811590838323395 -0.19320158439598073
12608634666.666666 -0.9829455991645418 -0.1838965716996756 9.27540395632168e-17 -9.609839094757375e-18 9.27540395632168e-17 -9.609839094757375e-18 -0.9829454795537707 -0.18389721103007703
12609252000.0 -0.9846437571017127 -0.17457569017608746 9.263975541074531e-17 -1.0494340734643911e-17 9.263975541074531e-17 -1.0494340734643911e-17 -0.9846436435590168 -0.17457633057965571
12609869333.333334 -0.9862535308816021 -0.1652391382917674 9.251704301593817e-17 -1.137753616334401e-17 9.251704301593817e-17 -1.137753616334401e-17 -0.9862534234165787 -0.16523977971091589
12610486666.666666 -0.9877747760068288 -0.1558877541197282 9.238591690071019e-17 -1.2259345130699643e-17 9.238591690071019e-17 -1.2259345130699643e-17 -0.9877746746285282 -0.15588839649678482
12611104000.0 -0.9892073559266014 -0.1465223770641695 9.224639235049723e-17 -1.31396875447548e-17 9.224639235049723e-17 -1.31396875447548e-17 -0.9892072606435276 -0.14652302034138195
12611721333.333334 -0.9905511420489174 -0.1371438477855239 9.209848541256613e-17 -1.401848347897769e-17 9.209848541256613e-17 -1.401848347897769e-17 -0.9905510528690253 -0.13714449190506459
12612338666.666666 -0.9918060137521416 -0.12775300812474394 9.194221289424519e-17 -1.4895653179527714e-17 9.194221289424519e-17 -1.4895653179527714e-17 -0.9918059306828388 -0.12775365302871539
12612956000.0 -0.9929718583958477 -0.11835070102762343 9.177759236109012e-17 -1.5771117072477637e-17 9.177759236109012e-17 -1.5771117072477637e-17 -0.9929717814439925 -0.11835134665806354
12613573333.333334 -0.9940485713308762 -0.10893777046955579 9.16046421349861e-17 -1.6644795770993172e-17 9.16046421349861e-17 -1.6644795770993172e-17 -0.9940485005027762 -0.10893841676844274
12614190666.666666 -0.9950360559087753 -0.09951506137938111 9.142338129217182e-17 -1.7516610082541967e-17 9.142338129217182e-17 -1.7516610082541967e-17 -0.995035991210189 -0.09951570828863893
12614808000.0 -0.9959342234904582 -0.0900834195637132 9.12338296612033e-17 -1.838648101604315e-17 9.12338296612033e-17 -1.838648101604315e-17 -0.9959341649265925 -0.09008406702521668
12615425333.333334 -0.99674299345416 -0.08064369163098885 9.103600782084603e-17 -1.925432978901109e-17 9.103600782084603e-17 -1.925432978901109e-17 -0.9967429410296714 -0.08064433958656905
12616042666.666666 -0.9974622932026773 -0.07119672491547473 9.082993709790054e-17 -2.0120077834674858e-17 9.082993709790054e-17 -2.0120077834674858e-17 -0.9974622469216705 -0.07119737330692395
12616660000.0 -0.9980920581698827 -0.06174336740120797 9.061563956496089e-17 -2.0983646809072556e-17 9.061563956496089e-17 -2.0983646809072556e-17 -0.9980920180359109 -0.06174401617028517
12617277333.333334 -0.9986322318265238 -0.05228446764585098 9.039313803810191e-17 -2.1844958598137865e-17 9.039313803810191e-17 -2.1844958598137865e-17 -0.9986321978425866 -0.05228511673428677
12617894666.666666 -0.9990827656852862 -0.0428208747046642 9.016245607450988e-17 -2.2703935324721888e-17 9.016245607450988e-17 -2.2703935324721888e-17 -0.9990827378538332 -0.0428215240541664
12618512000.0 -0.9994436193051679 -0.03335343805398093 8.992361797002919e-17 -2.3560499355657032e-17 8.992361797002919e-17 -2.3560499355657032e-17 -0.9994435976280946 -0.03335408760623954
12619129333.333334 -0.9997147602950823 -0.02388300751535321 8.967664875666264e-17 -2.4414573308719257e-17 8.967664875666264e-17 -2.4414573308719257e-17 -0.9997147447737333 -0.02388365721204579
12619746666.666666 -0.9998961643167893 -0.014410433178986054 8.942157419998884e-17 -2.526608005962849e-17 8.942157419998884e-17 -2.526608005962849e-17 -0.9998961549519539 -0.014411082961782845
12620364000.0 -0.9999878150870648 -0.004936565327430807 8.915842079651928e-17 -2.611494274899703e-17 8.915842079651928e-17 -2.611494274899703e-17 -0.9999878118789822 -0.004937215138000075
12620981333.333334 -0.9999897043791677 0.004537745640482458 8.88872157709974e-17 -2.696108478922839e-17 8.88872157709974e-17 -2.696108478922839e-17 -0.9999897073275235 0.004537095860469245
12621598666.666666 -0.9999018320235806 0.014011649286263179 8.860798707361787e-17 -2.7804429871436806e-17 8.860798707361787e-17 -2.7804429871436806e-17 -0.9999018411275071 0.014010999595126097
12622216000.0 -0.9997242059080185 0.0234842952079557 8.83207633771913e-17 -2.8644901972300323e-17 8.83207633771913e-17 -2.8644901972300323e-17 -0.9997242211660976 0.023483645664001167
12622833333.333334 -0.9994568419767283 0.03295483311653048 8.802557407423945e-17 -2.948242536090311e-17 8.802557407423945e-17 -2.948242536090311e-17 -0.9994568633869879 0.03295418377804598
12623450666.666666 -0.9990997642290527 0.042422412912094434 8.77224492740303e-17 -3.03169246055331e-17 8.77224492740303e-17 -3.03169246055331e-17 -0.9990997917889692 0.04242176383734331
12624068000.0 -0.9986530047172786 0.0518861847603403 8.741141979954124e-17 -3.1148324580472225e-17 8.741141979954124e-17 -3.1148324580472225e-17 -0.9986530384237768 0.051885536007556514
12624685333.333334 -0.9981166035437528 0.061345299168858135 8.709251718436155e-17 -3.1976550472746027e-17 8.709251718436155e-17 -3.1976550472746027e-17 -0.9981166433932064 0.06134465079624109
12625302666.666666 -0.9974906088572979 0.07079890706310414 8.67657736695411e-17 -3.280152778881468e-17 8.67657736695411e-17 -3.280152778881468e-17 -0.9974906548455296 0.07079825912881342
12625920000.0 -0.9967750768488696 0.0802461598630416 8.64312222003529e-17 -3.362318236129417e-17 8.64312222003529e-17 -3.362318236129417e-17 -0.99677512897115 0.08024551242519165
12626537333.333334 -0.9959700717465301 0.08968620955891396 8.608889642301936e-17 -3.444144035557351e-17 8.608889642301936e-17 -3.444144035557351e-17 -0.9959701299975824 0.08968556267556921
12627154666.666666 -0.9950756658096837 0.09911820878753548 8.573883068135735e-17 -3.5256228276448123e-17 8.573883068135735e-17 -3.5256228276448123e-17 -0.9950757301836787 0.09911756251670466
12627772000.0 -0.9940919393225627 0.10854131090852151 8.538106001335957e-17 -3.6067472974719383e-17 8.538106001335957e-17 -3.6067472974719383e-17 -0.9940920098131245 0.10854066530815289
12628389333.333334 -0.9930189805870673 0.11795467007988976 8.50156201477353e-17 -3.687510165371164e-17 8.50156201477353e-17 -3.687510165371164e-17 -0.993019057187271 0.11795402520786573
12629006666.666666 -0.9918568859147904 0.12735744133440888 8.464254750035946e-17 -3.767904187582192e-17 8.464254750035946e-17 -3.767904187582192e-17 -0.9918569686171632 0.1273567972485408
12629624000.0 -0.9906057596184101 0.13674878065513438 8.426187917068312e-17 -3.847922156898401e-17 8.426187917068312e-17 -3.847922156898401e-17 -0.9906058484149316 0.13674813741315728
12630241333.333334 -0.9892657140023025 0.14612784505133883 8.387365293807457e-17 -3.9275569033112845e-17 8.387365293807457e-17 -3.9275569033112845e-17 -0.9892658088844067 0.14612720271090648
12630858666.666666 -0.9878368693524882 0.1554937926340123 8.347790725810336e-17 -4.0068012946508465e-17 8.347790725810336e-17 -4.0068012946508465e-17 -0.9878369703110637 0.1554931512526918
12631476000.0 -0.9863193539257867 0.16484578269174147 8.30746812587488e-17 -4.0856482372250594e-17 8.30746812587488e-17 -4.0856482372250594e-17 -0.986319460951178 0.16484514232700834
12632093333.333334 -0.9847133039383603 0.17418297576580877 8.266401473657592e-17 -4.1640906764501474e-17 8.266401473657592e-17 -4.1640906764501474e-17 -0.9847134170203676 0.17418233647504164
12632710666.666666 -0.9830188635534634 0.18350453372571357 8.22459481528298e-17 -4.242121597481552e-17 8.22459481528298e-17 -4.242121597481552e-17 -0.9830189826813451 0.18350389556618904
12633328000.0 -0.9812361848684731 0.19280961984454387 8.182052262947057e-17 -4.3197340258407175e-17 8.182052262947057e-17 -4.3197340258407175e-17 -0.9812363100309458 0.19280898287343143
12633945333.333334 -0.9793654279012841 0.20209739887383188 8.138777994516801e-17 -4.3969210280347345e-17 8.138777994516801e-17 -4.3969210280347345e-17 -0.9793655590865236 0.20209676314818878
12634562666.666666 -0.9774067605759184 0.21136703711866756 8.094776253121965e-17 -4.473675712175225e-17 8.094776253121965e-17 -4.473675712175225e-17 -0.9774068977715604 0.21136640269543355
12635180000.0 -0.9753603587074566 0.22061770251250531 8.05005134674184e-17 -4.549991228591792e-17 8.05005134674184e-17 -4.549991228591792e-17 -0.9753605019006001 0.22061706944849793
12635797333.333334 -0.9732264059862519 0.22984856469188022 8.004607647786042e-17 -4.6258607704418466e-17 8.004607647786042e-17 -4.6258607704418466e-17 -0.973226555163458 0.2298479330437893
12636414666.666666 -0.9710050939614658 0.23905879507083289 7.958449592670176e-17 -4.70127757431513e-17 7.958449592670176e-17 -4.70127757431513e-17 -0.9710052491087603 0.2390581648952157
12637032000.0 -0.9686966220238373 0.2482475669154515 7.911581681384522e-17 -4.776234920836304e-17 7.911581681384522e-17 -4.776234920836304e-17 -0.9686967831267101 0.24824693826872749
12637649333.333334 -0.9663011973878064 0.2574140554179705 7.864008477058393e-17 -4.850726135261015e-17 7.864008477058393e-17 -4.850726135261015e-17 -0.9663013644312158 0.25741342835641645
12638266666.666666 -0.9638190350729132 0.2665574377708358 7.81573460551826e-17 -4.924744588068788e-17 7.81573460551826e-17 -4.924744588068788e-17 -0.9638192080412856 0.2665568123505808
12638884000.0 -0.9612503578844931 0.2756768932405615 7.76676475484041e-17 -4.998283695551313e-17 7.76676475484041e-17 -4.998283695551313e-17 -0.9612505367617246 0.275676269517582
12639501333.333334 -0.9585953963936718 0.28477160324142875 7.717103674897963e-17 -5.0713369203965384e-17 7.717103674897963e-17 -5.0713369203965384e-17 -0.9585955811631286 0.28477098127154293
12640118666.666666 -0.9558543889167151 0.29384075140880034 7.666756176903485e-17 -5.1438977722668054e-17 7.666756176903485e-17 -5.1438977722668054e-17 -0.9558545795612369 0.2938401312476638
12640736000.0 -0.9530275814935062 0.30288352367283483 7.615727132942821e-17 -5.215959808377159e-17 7.615727132942821e-17 -5.215959808377159e-17 -0.9530277779954086 0.3028829053759359
12641353333.333334 -0.9501152278656618 0.31189910833090817 7.564021475509626e-17 -5.2875166340605307e-17 7.564021475509626e-17 -5.2875166340605307e-17 -0.9501154302067344 0.31189849195356156
12641970666.666666 -0.9471175894535775 0.32088669612104354 7.511644197027874e-17 -5.3585619033377214e-17 7.511644197027874e-17 -5.3585619033377214e-17 -0.947117797615088 0.32088608171838673
12642588000.0 -0.9440349353330466 0.3298454802942817 7.458600349373039e-17 -5.4290893194771563e-17 7.458600349373039e-17 -5.4290893194771563e-17 -0.9440351492957423 0.32984486792126944
12643205333.333334 -0.9408675422110999 0.3387746566871242 7.404895043387853e-17 -5.499092635550118e-17 7.404895043387853e-17 -5.499092635550118e-17 -0.9408677619552092 0.33877404639852376
12643822666.666666 -0.93761569440113 0.3476734237938245 7.350533448390892e-17 -5.568565654983988e-17 7.350533448390892e-17 -5.568565654983988e-17 -0.9376159199063655 0.34767281564421104
12644440000.0 -0.9342796837974185 0.35654098283819946 7.295520791682171e-17 -5.637502232107715e-17 7.295520791682171e-17 -5.637502232107715e-17 -0.9342799150429761 0.35654037688195034
12645057333.333334 -0.9308598098489241 0.3653765378453555 7.239862358042549e-17 -5.705896272693878e-17 7.239862358042549e-17 -5.705896272693878e-17 -0.9308600468134868 0.365375934136646
12645674666.666666 -0.9273563795324068 0.3741792957131394 7.183563489228262e-17 -5.773741734495667e-17 7.183563489228262e-17 -5.773741734495667e-17 -0.9273566221941466 0.3741786943059379
12646292000.0 -0.9237697073247962 0.38294846628351203 7.126629583459171e-17 -5.841032627780242e-17 7.126629583459171e-17 -5.841032627780242e-17 -0.9237699556613765 0.38294786723157515
12646909333.333334 -0.9201001151751029 0.3916832624131334 7.069066094905543e-17 -5.907763015853132e-17 7.069066094905543e-17 -5.907763015853132e-17 -0.9201003691636797 0.39168266577000105
12647526666.666666 -0.9163479324754135 0.400382900044282 7.01087853316594e-17 -5.97392701558215e-17 7.01087853316594e-17 -5.97392701558215e-17 -0.9163481920926363 0.40038230586327234
12648144000.0 -0.9125134960313277 0.40904659827520573 6.952072462742146e-17 -6.039518797914018e-17 6.952072462742146e-17 -6.039518797914018e-17 -0.9125137612533453 0.40904600660941126
12648761333.333334 -0.9085971500317781 0.4176735794301144 6.892653502509786e-17 -6.104532588385263e-17 6.892653502509786e-17 -6.104532588385263e-17 -0.9085974208342371 0.41767299033239647
12649378666.666666 -0.9045992460181309 0.42626306912898676 6.832627325183535e-17 -6.168962667628731e-17 6.832627325183535e-17 -6.168962667628731e-17 -0.9045995223761796 0.42626248265197075
12649996000.0 -0.9005201428525862 0.43481429635718327 6.771999656776692e-17 -6.232803371875815e-17 6.771999656776692e-17 -6.232803371875815e-17 -0.900520424740877 0.4348137125532547
12650613333.333334 -0.8963602066859502 0.44332649353467984 6.710776276057516e-17 -6.296049093451848e-17 6.710776276057516e-17 -6.296049093451848e-17 -0.8963604940786418 0.4433259124559789
12651230666.666666 -0.8921198109248955 0.45179889658471256 6.64896301400116e-17 -6.358694281266049e-17 6.64896301400116e-17 -6.358694281266049e-17 -0.8921201037956545 0.45179831828312983
12651848000.0 -0.8877993361982631 0.4602307450027192 6.586565753234482e-17 -6.420733441298676e-17 6.586565753234482e-17 -6.420733441298676e-17 -0.8877996345202681 0.46023016952989115
12652465333.333334 -0.8833991703230268 0.46862128192435026 6.523590427479827e-17 -6.482161137079246e-17 6.523590427479827e-17 -6.482161137079246e-17 -0.8833994740689688 0.46862070933165434
12653082666.666666 -0.8789197082694831 0.476969754193409 6.460043020992751e-17 -6.542971990161028e-17 6.460043020992751e-17 -6.542971990161028e-17 -0.8789200174115688 0.47696918453195875
12653700000.0 -0.874361352125661 0.48527541242970496 6.395929567993392e-17 -6.6031606805918e-17 6.395929567993392e-17 -6.6031606805918e-17 -0.8743616666356158 0.4852748457503461
12654317333.333334 -0.8697245110614209 0.493537511095972 6.331256152098089e-17 -6.662721947374764e-17 6.331256152098089e-17 -6.662721947374764e-17 -0.869724830910491 0.4935369474492778
12654934666.666666 -0.8650096012915912 0.5017553085650392 6.266028905742327e-17 -6.721650588928057e-17 6.266028905742327e-17 -6.721650588928057e-17 -0.865009926450547 0.5017547480013055
12655552000.0 -0.8602170460386026 0.5099280671863987 6.200254009600344e-17 -6.779941463537665e-17 6.200254009600344e-17 -6.779941463537665e-17 -0.8602173764777399 0.50992750975564
12656169333.333334 -0.8553472754946289 0.5180550533521986 6.133937692004294e-17 -6.837589489801436e-17 6.133937692004294e-17 -6.837589489801436e-17 -0.8553476111837741 0.5180544991041438
12656786666.666666 -0.8504007267828319 0.5261355375633412 6.067086228353627e-17 -6.894589647072454e-17 6.067086228353627e-17 -6.894589647072454e-17 -0.8504010676913408 0.5261349865474274
12657404000.0 -0.8453778439181887 0.5341687944948376 5.999705940524296e-17 -6.950936975893185e-17 5.999705940524296e-17 -6.950936975893185e-17 -0.845378190014954 0.5341682467602082
12658021333.333334 -0.8402790777676141 0.5421541030609678 5.931803196272368e-17 -7.006626578425266e-17 5.931803196272368e-17 -7.006626578425266e-17 -0.8402794290210633 0.542153558656466
12658638666.666666 -0.8351048860095593 0.5500907464798841 5.86338440863511e-17 -7.06165361887233e-17 5.86338440863511e-17 -7.06165361887233e-17 -0.835105242387662 0.55009020545405
12659256000.0 -0.8298557330927798 0.557978012338192 5.794456035325083e-17 -7.116013323899434e-17 5.794456035325083e-17 -7.116013323899434e-17 -0.829856094563049 0.5579774747392576
12659873333.333334 -0.8245320901947832 0.5658151926546828 5.725024578124316e-17 -7.169700983043548e-17 5.725024578124316e-17 -7.169700983043548e-17 -0.8245324567242767 0.5658146585305678
12660490666.666666 -0.8191344351795375 0.5736015839438865 5.655096582272804e-17 -7.222711949119586e-17 5.655096582272804e-17 -7.222711949119586e-17 -0.8191348067348627 0.5736010533421936
12661108000.0 -0.8136632525544122 0.5813364872794485 5.584678635851226e-17 -7.275041638622084e-17 5.584678635851226e-17 -7.275041638622084e-17 -0.8136636291017295 0.5813359602474609
12661725333.333334 -0.8081190334269208 0.5890192083565466 5.513777369164975e-17 -7.326685532117108e-17 5.513777369164975e-17 -7.326685532117108e-17 -0.8081194149319451 0.5890186849412212
12662342666.666666 -0.8025022754604533 0.5966490575544636 5.442399454119333e-17 -7.377639174632075e-17 5.442399454119333e-17 -7.377639174632075e-17 -0.802502661888457 0.5966485378024281
12662960000.0 -0.7968134828296868 0.6042253499983762 5.370551603594462e-17 -7.427898176037049e-17 5.370551603594462e-17 -7.427898176037049e-17 -0.7968138741455051 0.6042248339559253
12663577333.333334 -0.7910531661753147 0.611747405620853 5.298240570815636e-17 -7.477458211420885e-17 5.298240570815636e-17 -7.477458211420885e-17 -0.7910535623433486 0.611746893333945
12664194666.666666 -0.785221842558212 0.6192145492229014 5.2254731487202016e-17 -7.526315021461092e-17 5.2254731487202016e-17 -7.526315021461092e-17 -0.7852222435424279 0.6192140407371518
12664812000.0 -0.779320035413018 0.626626110534573 5.152256169321212e-17 -7.574464412787596e-17 5.152256169321212e-17 -7.574464412787596e-17 -0.7793204411769549 0.6266256058952517
12665429333.333334 -0.7733482745011369 0.6339814242751511 5.078596503067486e-17 -7.621902258340457e-17 5.078596503067486e-17 -7.621902258340457e-17 -0.773348685007908 0.6339809235271786
12666046666.666666 -0.7673070958632734 0.6412798302127584 5.004501058201718e-17 -7.668624497720523e-17 5.004501058201718e-17 -7.668624497720523e-17 -0.7673075110755704 0.6412793334007019
12666664000.0 -0.7611970417711189 0.6485206732238626 4.9299767801118925e-17 -7.714627137536135e-17 4.9299767801118925e-17 -7.714627137536135e-17 -0.7611974616512142 0.6485201803919309
12667281333.333334 -0.7550186606789294 0.6557033033517757 4.855030650685256e-17 -7.759906251739924e-17 4.855030650685256e-17 -7.759906251739924e-17 -0.75501908518868 0.655702814543817
12667898666.666666 -0.7487725071741118 0.6628270758652138 4.779669687652823e-17 -7.804457981963345e-17 4.779669687652823e-17 -7.804457981963345e-17 -0.7487729362749638 0.6628265911247102
12668516000.0 -0.7424591419274421 0.6698913513161681 4.7039009439352686e-17 -7.848278537842131e-17 4.7039009439352686e-17 -7.848278537842131e-17 -0.7424595755804327 0.6698908706862327
12669133333.333334 -0.7360791316429065 0.6768954955971113 4.627731506985661e-17 -7.891364197335578e-17 4.627731506985661e-17 -7.891364197335578e-17 -0.7360795698086681 0.6768950191204842
12669750666.666666 -0.729633049006646 0.6838388799981324 4.551168498126172e-17 -7.933711307041335e-17 4.551168498126172e-17 -7.933711307041335e-17 -0.7296334916454096 0.6838384077171761
12670368000.0 -0.7231214726356223 0.6907208812632804 4.474219071884828e-17 -7.975316282502028e-17 4.474219071884828e-17 -7.975316282502028e-17 -0.7231219197072221 0.6907204132199775
