! Parameters = {f0=12700.012000; bw=77.238000; Q=6100.000000; N=10; m_0_1=1.215911; m_1_1=-0.526082; m_1_2=1.050723; m_2_2=-0.526731; m_2_3=0.687686; m_2_8=-0.002141; m_2_9=0.034563; m_3_3=-0.528668; m_3_4=0.576215; m_3_7=-0.001541; m_3_8=-0.098629; m_3_9=-0.002141; m_4_4=-0.531593; m_4_5=0.412550; m_4_6=0.001976; m_4_7=-0.119178; m_4_8=-0.001541; m_5_5=-0.531211; m_5_6=0.819905; m_5_7=0.001976; m_6_6=-0.531212; m_6_7=0.412892; m_7_7=-0.531579; m_7_8=0.576333; m_8_8=-0.528670; m_8_9=0.687999; m_9_9=-0.526736; m_9_10=1.051801; m_10_10=-0.526092; m_10_11=1.216706}
!
! Created with skrf (http://scikit-rf.org).
# Hz S RI R 50.0 
!freq ReS11 ImS11 ReS21 ImS21 ReS12 ImS12 ReS22 ImS22
12607400000.0 -0.44082513164555776 0.8975930053813445 1.427193766155229e-17 -8.389240371170023e-17 1.427193766155229e-17 -8.389240371170023e-17 -0.44082570674152105 0.8975927229404641
12608017333.333334 -0.43279762685621237 0.9014911059946563 1.351263091616375e-17 -8.400116686499619e-17 1.351263091616375e-17 -8.400116686499619e-17 -0.4327982044214426 0.9014908287106498
12608634666.666666 -0.4247356557878611 0.9053174154418403 1.2752523805635478e-17 -8.410306319694216e-17 1.2752523805635478e-17 -8.410306319694216e-17 -0.42473623577612346 0.9053171433362829
12609252000.0 -0.4166398604638318 0.9090716290108923 1.1991678379704506e-17 -8.419808712115925e-17 1.1991678379704506e-17 -8.419808712115925e-17 -0.41664044282870344 0.9090713621049453
12609869333.333334 -0.40851088560105436 0.9127534477312478 1.1230156723752947e-17 -8.428623361150498e-17 1.1230156723752947e-17 -8.428623361150498e-17 -0.4085114702959278 0.9127531860456569
12610486666.666666 -0.4003493785588493 0.9163625783975369 1.0468020953765906e-17 -8.436749820226078e-17 1.0468020953765906e-17 -8.436749820226078e-17 -0.4003499655369355 0.9163623219526287
12611104000.0 -0.3921559892870603 0.919898733593066 9.705333211250319e-18 -8.4441876988278e-17 9.705333211250319e-18 -8.4441876988278e-17 -0.39215657850139357 0.9198984824087487
12611721333.333334 -0.3839313702747646 0.9233616317125052 8.942155658213853e-18 -8.450936662507185e-17 8.942155658213853e-18 -8.450936662507185e-17 -0.3839319616782059 0.923361385808267
12612338666.666666 -0.37567617649789614 0.9267509969844977 8.178550472086373e-18 -8.456996432887564e-17 8.178550472086373e-18 -8.456996432887564e-17 -0.3756767700431361 0.9267507563794029
12612956000.0 -0.3673910653671857 0.9300665594935682 7.414579840666218e-18 -8.46236678766472e-17 7.414579840666218e-18 -8.46236678766472e-17 -0.36739166100674947 0.9300663242062579
12613573333.333334 -0.3590766966760211 0.9333080552015367 6.650305957089249e-18 -8.467047560602787e-17 6.650305957089249e-18 -8.467047560602787e-17 -0.3590772943622718 0.9333078252502272
12614190666.666666 -0.35073373254763984 0.9364752259686528 5.8857910147537486e-18 -8.471038641526024e-17 5.8857910147537486e-18 -8.471038641526024e-17 -0.35073433223278194 0.9364750013711329
12614808000.0 -0.34236283738253104 0.9395678195740959 5.1210972022833175e-18 -8.474339976305643e-17 5.1210972022833175e-18 -8.474339976305643e-17 -0.3423634390186145 0.9395676003477266
12615425333.333334 -0.33396467780550015 0.9425855897360766 4.3562866984777844e-18 -8.476951566842356e-17 4.3562866984777844e-18 -8.476951566842356e-17 -0.33396528134442466 0.9425853758977897
12616042666.666666 -0.3255399226125804 0.9455282961314451 3.5914216672668026e-18 -8.478873471044255e-17 3.5914216672668026e-18 -8.478873471044255e-17 -0.3255405280060987 0.945528087697742
12616660000.0 -0.31708924271777394 0.9483957044148329 2.826564252678713e-18 -8.480105802800128e-17 2.826564252678713e-18 -8.480105802800128e-17 -0.31708984991749556 0.9483955014017822
12617277333.333334 -0.3086133110995678 0.9511875862373321 2.061776573786498e-18 -8.480648731948417e-17 2.061776573786498e-18 -8.480648731948417e-17 -0.30861392005696314 0.9511873886605688
12617894666.666666 -0.300112802747583 0.9539037192645962 1.297120719696268e-18 -8.480502484241416e-17 1.297120719696268e-18 -8.480502484241416e-17 -0.30011341341398806 0.9539035271393237
12618512000.0 -0.2915883946083645 0.9565438871947045 5.326587444895473e-19 -8.479667341305133e-17 5.326587444895473e-19 -8.479667341305133e-17 -0.29158900693498324 0.9565437005356884
12619129333.333334 -0.28304076553195545 0.9591078797752227 -2.315473377669561e-19 -8.478143640594516e-17 -2.315473377669561e-19 -8.478143640594516e-17 -0.2830413794698646 0.9591076985967918
12619746666.666666 -0.274470596217541 0.961595492820046 -9.954355580642282e-19 -8.475931775344238e-17 -9.954355580642282e-19 -8.475931775344238e-17 -0.27447121171769323 0.9615953171360907
12620364000.0 -0.2658785691592369 0.9640065282256525 -1.758943997464082e-18 -8.473032194514884e-17 -1.758943997464082e-18 -8.473032194514884e-17 -0.26587918617246636 0.9640063580496268
12620981333.333334 -0.25726536859198695 0.9663407939868149 -2.5220107920846033e-18 -8.46944540273479e-17 -2.5220107920846033e-18 -8.46944540273479e-17 -0.25726598706901127 0.9663406293317309
12621598666.666666 -0.2486316804367979 0.9685981042119652 -3.284574138124928e-18 -8.465171960237203e-17 -3.284574138124928e-18 -8.465171960237203e-17 -0.24863230032822317 0.9685979450903941
12622216000.0 -0.23997819224625316 0.97077827913796 -4.046572296847058e-18 -8.460212482793085e-17 -4.046572296847058e-18 -8.460212482793085e-17 -0.2399788135025779 0.9707781255620324
12622833333.333334 -0.23130559314970373 0.9728811451444117 -4.80794359956729e-18 -8.454567641639361e-17 -4.80794359956729e-18 -8.454567641639361e-17 -0.23130621572132246 0.9728809971258143
12623450666.666666 -0.22261457379847138 0.9749065347674947 -5.568626452625613e-18 -8.448238163402812e-17 -5.568626452625613e-18 -8.448238163402812e-17 -0.22261519763567852 0.9749063923174703
12624068000.0 -0.21390582631082047 0.9768542867132871 -6.328559342368658e-18 -8.441224830019319e-17 -6.328559342368658e-18 -8.441224830019319e-17 -0.21390645136381486 0.9768541498426355
12624685333.333334 -0.20518004421664607 0.9787242458706602 -7.087680840114576e-18 -8.433528478648679e-17 -7.087680840114576e-18 -8.433528478648679e-17 -0.2051806704355348 0.978724114589736
12625302666.666666 -0.19643792240263377 0.980516263323549 -7.845929607085193e-18 -8.425150001585309e-17 -7.845929607085193e-18 -8.425150001585309e-17 -0.19643854973743535 0.980516137642258
12625920000.0 -0.18768015705647487 0.9822301963628979 -8.603244399376728e-18 -8.416090346163899e-17 -8.603244399376728e-18 -8.416090346163899e-17 -0.18768078545712405 0.9822300762907002
12626537333.333334 -0.17890744561181549 0.9838659084979485 -9.35956407287552e-18 -8.40635051466125e-17 -9.35956407287552e-18 -8.40635051466125e-17 -0.17890807502816747 0.9838657940438593
12627154666.666666 -0.1701204866925498 0.9854232694671514 -1.0114827588187593e-17 -8.395931564193348e-17 -1.0114827588187593e-17 -8.395931564193348e-17 -0.17012111707438327 0.9854231606397336
12627772000.0 -0.1613199800570144 0.9869021552485555 -1.0868974015569615e-17 -8.384834606607827e-17 -1.0868974015569615e-17 -8.384834606607827e-17 -0.16132061135403641 0.9869020520559263
12628389333.333334 -0.15250662654265565 0.9883024480696266 -1.1621942539799179e-17 -8.373060808372832e-17 -1.1621942539799179e-17 -8.373060808372832e-17 -0.1525072587045053 0.9883023505194526
12629006666.666666 -0.1436811280097691 0.9896240364166985 -1.237367246510273e-17 -8.360611390460381e-17 -1.237367246510273e-17 -8.360611390460381e-17 -0.14368176098602123 0.9896239445161954
12629624000.0 -0.1348441872860265 0.9908668150437835 -1.3124103220010174e-17 -8.347487628226362e-17 -1.3124103220010174e-17 -8.347487628226362e-17 -0.13484482102619627 0.9908667287997168
12630241333.333334 -0.12599650811016855 0.9920306849810053 -1.3873174362237792e-17 -8.333690851285481e-17 -1.3873174362237792e-17 -8.333690851285481e-17 -0.12599714256371533 0.9920306043996913
12630858666.666666 -0.11713879507624403 0.9931155535424488 -1.4620825583530427e-17 -8.31922244338237e-17 -1.4620825583530427e-17 -8.31922244338237e-17 -0.11713943019257511 0.9931154786297497
12631476000.0 -0.10827175357715935 0.9941213343335735 -1.536699671453094e-17 -8.304083842257596e-17 -1.536699671453094e-17 -8.304083842257596e-17 -0.10827238930563436 0.9941212650949015
12632093333.333334 -0.09939608974887154 0.9950479472580576 -1.6111627729579962e-17 -8.288276539510413e-17 -1.6111627729579962e-17 -8.288276539510413e-17 -0.09939672603880605 0.99504788369837
12632710666.666666 -0.09051251041398439 0.9958953185241901 -1.6854658751546874e-17 -8.271802080456352e-17 -1.6854658751546874e-17 -8.271802080456352e-17 -0.09051314721465452 0.9958952606479943
12633328000.0 -0.0816217230253191 0.9966633806507674 -1.7596030056644406e-17 -8.2546620639805e-17 -1.7596030056644406e-17 -8.2546620639805e-17 -0.08162236028596517 0.9966633284621172
12633945333.333334 -0.07272443560982982 0.99735207247244 -1.833568207919844e-17 -8.236858142387169e-17 -1.833568207919844e-17 -8.236858142387169e-17 -0.07272507327966035 0.9973520259749342
12634562666.666666 -0.06382135671207749 0.9979613391445926 -1.907355541642418e-17 -8.218392021244809e-17 -1.907355541642418e-17 -8.218392021244809e-17 -0.06382199474027357 0.9979612983413789
12635180000.0 -0.05491319533780453 0.9984911321477177 -1.9809590833196732e-17 -8.199265459226501e-17 -1.9809590833196732e-17 -8.199265459226501e-17 -0.054913833673523586 0.9984910970414885
12635797333.333334 -0.04600066089755733 0.9989414092912693 -2.0543729266787232e-17 -8.179480267946523e-17 -2.0543729266787232e-17 -8.179480267946523e-17 -0.04600129948993724 0.9989413798842628
12636414666.666666 -0.03708446315013493 0.9993121347170284 -2.1275911831583515e-17 -8.15903831179283e-17 -2.1275911831583515e-17 -8.15903831179283e-17 -0.03708510194829818 0.9993121110110307
12637032000.0 -0.028165312146009945 0.9996032789019641 -2.2006079823815136e-17 -8.137941507754664e-17 -2.2006079823815136e-17 -8.137941507754664e-17 -0.028165951099067523 0.9996032608983042
12637649333.333334 -0.019243918170867902 0.9998148186605718 -2.2734174726238798e-17 -8.116191825246635e-17 -2.2734174726238798e-17 -8.116191825246635e-17 -0.019244557227923526 0.9998148063601273
12638266666.666666 -0.01032099168901483 0.9999467371467315 -2.3460138212818338e-17 -8.093791285928294e-17 -2.3460138212818338e-17 -8.093791285928294e-17 -0.010321630799168851 0.999946730549925
12638884000.0 -0.001397243286798489 0.9999990238550418 -2.418391215338501e-17 -8.070741963519577e-17 -2.418391215338501e-17 -8.070741963519577e-17 -0.0013978823991520175 0.9999990229618413
12639501333.333334 0.007526616384008229 0.9999716746216604 -2.4905438618282393e-17 -8.047045983612053e-17 -2.4905438618282393e-17 -8.047045983612053e-17 0.007525977320349288 0.9999716794315792
12640118666.666666 0.016449876662630255 0.9998646916246331 -2.56246598829772e-17 -8.022705523476523e-17 -2.56246598829772e-17 -8.022705523476523e-17 0.016449237698551156 0.9998647021367317
12640736000.0 0.025371826936339322 0.9996780833837224 -2.634151843270176e-17 -7.997722811864892e-17 -2.634151843270176e-17 -7.997722811864892e-17 0.02537118812271238 0.9996780995966056
12641353333.333334 0.03429175669639054 0.9994118647597271 -2.705595696698671e-17 -7.97210012881092e-17 -2.705595696698671e-17 -7.97210012881092e-17 0.034291118084071176 0.999411886671548
12641970666.666666 0.04320895559508781 0.999066056953303 -2.7767918404276714e-17 -7.9458398054235e-17 -2.7767918404276714e-17 -7.9458398054235e-17 0.04320831723491045 0.9990660845617606
12642588000.0 0.05212271350223928 0.9986406875032693 -2.847734588645621e-17 -7.918944223678203e-17 -2.847734588645621e-17 -7.918944223678203e-17 0.05212207544501323 0.9986407208056077
12643205333.333334 0.06103232056162406 0.9981357902844191 -2.918418278338267e-17 -7.891415816203916e-17 -2.918418278338267e-17 -7.891415816203916e-17 0.0610316828581296 0.9981358292774304
12643822666.666666 0.06993706724766437 0.9975514055048166 -2.988837269739472e-17 -7.863257066065523e-17 -2.988837269739472e-17 -7.863257066065523e-17 0.06993642994864864 0.9975514501848398
12644440000.0 0.07883624442178729 0.9968875797026002 -3.058985946780215e-17 -7.834470506542566e-17 -3.058985946780215e-17 -7.834470506542566e-17 0.07883560757796024 0.9968876300655221
12645057333.333334 0.08772914338892614 0.9961443657422772 -3.128858717534593e-17 -7.805058720904221e-17 -3.128858717534593e-17 -7.805058720904221e-17 0.08772850705095665 0.9961444217835332
12645674666.666666 0.09661505595395868 0.9953218228105184 -3.1984500146645885e-17 -7.775024342180016e-17 -3.1984500146645885e-17 -7.775024342180016e-17 0.09661442017247021 0.9953218845250901
12646292000.0 0.10549327447830228 0.9944200164114179 -3.2677542958639583e-17 -7.744370052925921e-17 -3.2677542958639583e-17 -7.744370052925921e-17 0.10549263930386919 0.9944200837938376
12646909333.333334 0.11436309193590012 0.9934390183613178 -3.336766044295549e-17 -7.713098584988496e-17 -3.336766044295549e-17 -7.713098584988496e-17 0.11436245741904345 0.9934390914056666
12647526666.666666 0.12322380196983712 0.9923789067830582 -3.405479769031418e-17 -7.681212719262916e-17 -3.405479769031418e-17 -7.681212719262916e-17 0.12322316816102052 0.9923789854829658
12648144000.0 0.13207469894844942 0.9912397660997646 -3.4738900054882445e-17 -7.648715285448116e-17 -3.4738900054882445e-17 -7.648715285448116e-17 0.13207406589807524 0.9912398504484118
12648761333.333334 0.14091507802157507 0.9900216870281243 -3.541991315859809e-17 -7.615609161798426e-17 -3.541991315859809e-17 -7.615609161798426e-17 0.14091444577998055 0.9900217770182431
12649378666.666666 0.14974423517657276 0.9887247665711744 -3.609778289548e-17 -7.581897274870968e-17 -3.609778289548e-17 -7.581897274870968e-17 0.14974360379402568 0.9887248621950481
12649996000.0 0.15856146729455528 0.9873491080105542 -3.6772455435925016e-17 -7.547582599268677e-17 -3.6772455435925016e-17 -7.547582599268677e-17 0.15856083682125016 0.9873492092600186
12650613333.333334 0.1673660722062989 0.9858948208982917 -3.744387723096367e-17 -7.512668157380377e-17 -3.744387723096367e-17 -7.512668157380377e-17 0.16736544269235298 0.9858949277647352
12651230666.666666 0.17615734874804911 0.984362021048099 -3.811199501648933e-17 -7.477157019117192e-17 -3.811199501648933e-17 -7.477157019117192e-17 0.17615672024349813 0.9843621335224618
12651848000.0 0.18493459681763846 0.9827508305260987 -3.877675581749433e-17 -7.441052301643557e-17 -3.877675581749433e-17 -7.441052301643557e-17 0.1849339693724332 0.9827509485988785
12652465333.333334 0.19369711742998832 0.9810613776411513 -3.943810695223033e-17 -7.404357169107157e-17 -3.943810695223033e-17 -7.404357169107157e-17 0.19369649109398995 0.9810615013023978
12653082666.666666 0.2024442127728008 0.979293796934628 -4.0095996036383493e-17 -7.367074832363085e-17 -4.0095996036383493e-17 -7.367074832363085e-17 0.20244358759577782 0.9792939261739498
12653700000.0 0.21117518626229814 0.97744822916967 -4.075037098722326e-17 -7.329208548694172e-17 -4.075037098722326e-17 -7.329208548694172e-17 0.2111745622939215 0.9774483639762305
12654317333.333334 0.21988934259847182 0.975524821320017 -4.140118002768609e-17 -7.29076162153003e-17 -4.140118002768609e-17 -7.29076162153003e-17 0.21988871988831168 0.9755249616825391
12654934666.666666 0.22858598782062142 0.9735237265582746 -4.204837169048007e-17 -7.25173740015962e-17 -4.204837169048007e-17 -7.25173740015962e-17 0.22858536641814262 0.9735238724650376
12655552000.0 0.2372644293626457 0.9714451042437026 -4.269189482214224e-17 -7.212139279441474e-17 -4.269189482214224e-17 -7.212139279441474e-17 0.23726380931720423 0.9714452556825469
12656169333.333334 0.24592397610794653 0.9692891199095848 -4.333169858705053e-17 -7.171970699511397e-17 -4.333169858705053e-17 -7.171970699511397e-17 0.2459233574687856 0.9692892768679117
12656786666.666666 0.25456393844474434 0.967055945249984 -4.396773247144703e-17 -7.131235145484297e-17 -4.396773247144703e-17 -7.131235145484297e-17 0.2545633212609902 0.9670561077147556
12657404000.0 0.2631836283208565 0.9647457581060979 -4.459994628740308e-17 -7.08993614715432e-17 -4.459994628740308e-17 -7.08993614715432e-17 0.26318301264151495 0.9647459260638396
12658021333.333334 0.271782359298547 0.9623587424520831 -4.5228290176770506e-17 -7.048077278690605e-17 -4.5228290176770506e-17 -7.048077278690605e-17 0.27178174517249915 0.9623589158888848
12658638666.666666 0.28035944660905454 0.9598950883804462 -4.5852714615090587e-17 -7.005662158330455e-17 -4.5852714615090587e-17 -7.005662158330455e-17 0.28035883408505297 0.959895267281962
12659256000.0 0.2889142072074254 0.9573549920868152 -4.6473170415504295e-17 -6.962694448067112e-17 -4.6473170415504295e-17 -6.962694448067112e-17 0.28891359633409025 0.9573551764382648
12659873333.333334 0.2974459598265528 0.954738655854418 -4.708960873259566e-17 -6.919177853336549e-17 -4.708960873259566e-17 -6.919177853336549e-17 0.29744535065236866 0.9547388456405913
12660490666.666666 0.3059540250315964 0.9520462880379325 -4.770198106622626e-17 -6.875116122699628e-17 -4.770198106622626e-17 -6.875116122699628e-17 0.30595341760490713 0.9520464832431853
12661108000.0 0.3144377252742494 0.9492781030468339 -4.8310239265349335e-17 -6.830513047520096e-17 -4.8310239265349335e-17 -6.830513047520096e-17 0.3144371196432554 0.9492783036550937
12661725333.333334 0.32289638494634554 0.9464343213284377 -4.891433553176726e-17 -6.785372461641223e-17 -4.891433553176726e-17 -6.785372461641223e-17 0.32289578115909934 0.9464345273232028
12662342666.666666 0.33132933043395896 0.9435151693502464 -4.95142224238878e-17 -6.739698241057026e-17 -4.95142224238878e-17 -6.739698241057026e-17 0.3313287285383615 0.9435153807145867
12662960000.0 0.33973589017091266 0.9405208795819566 -5.0109852860428493e-17 -6.693494303581688e-17 -5.0109852860428493e-17 -6.693494303581688e-17 0.3397352902147098 0.9405210962985179
12663577333.333334 0.3481153946922868 0.9374516904769409 -5.07011801241006e-17 -6.646764608515093e-17 -5.07011801241006e-17 -6.646764608515093e-17 0.34811479672306517 0.9374519125279432
12664194666.666666 0.35646717668773165 0.9343078464532544 -5.128815786525934e-17 -6.599513156305174e-17 -5.128815786525934e-17 -6.599513156305174e-17 0.35646658075291515 0.9343080738204957
12664812000.0 0.36479057105461027 0.9310895978741737 -5.187074010552369e-17 -6.551743988207155e-17 -5.187074010552369e-17 -6.551743988207155e-17 0.3647899772014563 0.9310898305390305
12665429333.333334 0.3730849149510171 0.9277972010282373 -5.244888124136576e-17 -6.503461185939355e-17 -5.244888124136576e-17 -6.503461185939355e-17 0.37308432322661234 0.9277974389716648
12666046666.666666 0.3813495478483266 0.9244309181089286 -5.302253604765784e-17 -6.454668871336833e-17 -5.302253604765784e-17 -6.454668871336833e-17 0.38134895829958354 0.9244311613114637
12666664000.0 0.38958381158424266 0.9209910171936168 -5.359165968121633e-17 -6.405371205999445e-17 -5.359165968121633e-17 -6.405371205999445e-17 0.38958322425789665 0.9209912656353809
12667281333.333334 0.3977870504147396 0.917477772222402 -5.415620768426787e-17 -6.355572390940623e-17 -5.415620768426787e-17 -6.355572390940623e-17 0.39778646535734374 0.9174780258831
12667898666.666666 0.4059586110665704 0.9138914629761791 -5.4716135987926446e-17 -6.305276666229446e-17 -5.4716135987926446e-17 -6.305276666229446e-17 0.4059580283244932 0.9138917218351031
12668516000.0 0.4140978427892918 0.9102323750543566 -5.5271400915619035e-17 -6.254488310631139e-17 -5.5271400915619035e-17 -6.254488310631139e-17 0.4140972624087123 0.9102326390903863
12669133333.333334 0.42220409740685166 0.906500799852215 -5.582195918646288e-17 -6.203211641246105e-17 -5.582195918646288e-17 -6.203211641246105e-17 0.4222035194337568 0.9065010690438201
12669750666.666666 0.4302767293694681 0.902697034537586 -5.636776791864388e-17 -6.151451013142713e-17 -5.636776791864388e-17 -6.151451013142713e-17 0.4302761538496487 0.9026973088628283
12670368000.0 0.4383150958049351 0.8988213820272356 -5.690878463272857e-17 -6.099210818990247e-17 -5.690878463272857e-17 -6.099210818990247e-17 0.43831452278398153 0.8988216614637686
