! Parameters = {f0=12700.012000; bw=77.238000; Q=6100.000000; N=10; m_0_1=1.315611; m_1_1=0.969413; m_1_2=1.150423; m_2_2=0.968764; m_2_3=0.787386; m_2_8=0.002844; m_2_9=0.039548; m_3_3=0.966827; m_3_4=0.675915; m_3_7=0.003444; m_3_8=-0.093644; m_3_9=0.002844; m_4_4=0.963902; m_4_5=0.512250; m_4_6=0.006961; m_4_7=-0.114193; m_4_8=0.003444; m_5_5=0.964284; m_5_6=0.919605; m_5_7=0.006961; m_6_6=0.964283; m_6_7=0.512592; m_7_7=0.963916; m_7_8=0.676033; m_8_8=0.966825; m_8_9=0.787699; m_9_9=0.968759; m_9_10=1.151501; m_10_10=0.969403; m_10_11=1.316406}
!
! Created with skrf (http://scikit-rf.org).
# Hz S RI R 50.0 
!freq ReS11 ImS11 ReS21 ImS21 ReS12 ImS12 ReS22 ImS22
12607400000.0 -0.08538061208326604 -0.9963484084797335 4.9802860849773034e-17 1.2708443625193328e-16 4.9802860849773034e-17 1.2708443625193328e-16 -0.08537992155812134 -0.9963484676530293
12608017333.333334 -0.09720228564040917 -0.9952646460445032 5.130914446794885e-17 1.264549532548099e-16 5.130914446794885e-17 1.264549532548099e-16 -0.09720159590013802 -0.9952647134075824
12608634666.666666 -0.10901026081623341 -0.9940406244397598 5.280749897619695e-17 1.2580762853115433e-16 5.280749897619695e-17 1.2580762853115433e-16 -0.1090095719579568 -0.9940406999823265
12609252000.0 -0.12080287355408541 -0.9926765161626854 5.4297713182338405e-17 1.251425616488014e-16 5.4297713182338405e-17 1.251425616488014e-16 -0.1208021856747907 -0.9926765998732942
12609869333.333334 -0.13257846196228848 -0.9911725134523882 5.577957714098196e-17 1.2445985467376618e-16 5.577957714098196e-17 1.2445985467376618e-16 -0.1325777751588155 -0.9911726053184429
12610486666.666666 -0.1443353665482344 -0.9895288282628242 5.725288218302281e-17 1.2375961215468675e-16 5.725288218302281e-17 1.2375961215468675e-16 -0.14433468091726187 -0.9895289282705803
12611104000.0 -0.15607193045258788 -0.9877456922328812 5.871742094503867e-17 1.2304194110687519e-16 5.871742094503867e-17 1.2304194110687519e-16 -0.15607124609061993 -0.9877458003674489
12611721333.333334 -0.1677864996822755 -0.985823356653808 6.017298739836511e-17 1.2230695099608063e-16 6.017298739836511e-17 1.2230695099608063e-16 -0.16778581668562784 -0.9858234728991531
12612338666.666666 -0.17947742334402716 -0.9837620924337348 6.161937687807018e-17 1.2155475372185966e-16 6.161937687807018e-17 1.2155475372185966e-16 -0.17947674180881387 -0.983762216772683
12612956000.0 -0.19114305387691766 -0.9815621900595076 6.305638611168706e-17 1.207854636006212e-16 6.305638611168706e-17 1.207854636006212e-16 -0.19114237389903738 -0.9815623224737448
12613573333.333334 -0.2027817472843282 -0.9792239595557933 6.448381324768935e-17 1.1999919734835887e-16 6.448381324768935e-17 1.1999919734835887e-16 -0.20278106895945064 -0.979224100025869
12614190666.666666 -0.2143918633659364 -0.9767477304413318 6.590145788385102e-17 1.1919607406299465e-16 6.590145788385102e-17 1.1919607406299465e-16 -0.21439118678948926 -0.9767478789466633
12614808000.0 -0.22597176594861315 -0.9741338516825476 6.73091210953022e-17 1.1837621520643302e-16 6.73091210953022e-17 1.1837621520643302e-16 -0.22597109121576814 -0.9741340082014209
12615425333.333334 -0.2375198231171976 -0.9713826916443311 6.870660546240095e-17 1.175397445862657e-16 6.870660546240095e-17 1.175397445862657e-16 -0.2375191503228573 -0.9713828561539052
12616042666.666666 -0.24903440744436592 -0.9684946380381491 7.009371509837186e-17 1.1668678833715092e-16 7.009371509837186e-17 1.1668678833715092e-16 -0.24903373668315057 -0.9684948105144592
12616660000.0 -0.26051389622000604 -0.9654700978673975 7.147025567671439e-17 1.1581747490186734e-16 7.147025567671439e-17 1.1581747490186734e-16 -0.26051322758624035 -0.9654702782853603
12617277333.333334 -0.271956671679957 -0.9623094973700351 7.28360344583846e-17 1.149319350120419e-16 7.28360344583846e-17 1.149319350120419e-16 -0.27195600526765634 -0.962309685703448
12617894666.666666 -0.28336112123374707 -0.9590132819585787 7.419086031870288e-17 1.140303016685802e-16 7.419086031870288e-17 1.140303016685802e-16 -0.28336045713660446 -0.9590134781801273
12618512000.0 -0.29472563769231525 -0.9555819161572014 7.553454377410506e-17 1.1311271012172568e-16 7.553454377410506e-17 1.1311271012172568e-16 -0.29472497600368863 -0.9555821202384628
12619129333.333334 -0.3060486194940164 -0.9520158835364138 7.686689700853507e-17 1.1217929785087947e-16 7.686689700853507e-17 1.1217929785087947e-16 -0.306047960306915 -0.9520160954478596
12619746666.666666 -0.3173284709306228 -0.9483156866448242 7.81877338996826e-17 1.1123020454404747e-16 7.81877338996826e-17 1.1123020454404747e-16 -0.31732781433769425 -0.9483159063558264
12620364000.0 -0.3285636023722277 -0.9444818469383073 7.949687004493556e-17 1.1026557207700006e-16 7.949687004493556e-17 1.1026557207700006e-16 -0.32856294846574524 -0.9444820744171414
12620981333.333334 -0.33975243049091686 -0.940514904706633 8.079412278703291e-17 1.0928554449216009e-16 8.079412278703291e-17 1.0928554449216009e-16 -0.33975177936276585 -0.9405151399204827
12621598666.666666 -0.35089337848433105 -0.9364154189971796 8.207931123954918e-17 1.0829026797712321e-16 8.207931123954918e-17 1.0829026797712321e-16 -0.3508927302259968 -0.9364156619121431
12622216000.0 -0.3619848762976387 -0.9321839675362341 8.33522563120372e-17 1.0727989084293696e-16 8.33522563120372e-17 1.0727989084293696e-16 -0.3619842310001925 -0.932184218117326
12622833333.333334 -0.3730253608449029 -0.9278211466475317 8.461278073494467e-17 1.0625456350205438e-16 8.461278073494467e-17 1.0625456350205438e-16 -0.37302471859899056 -0.9278214048586909
12623450666.666666 -0.38401327622915216 -0.9233275711683063 8.58607090842246e-17 1.0521443844602514e-16 8.58607090842246e-17 1.0521443844602514e-16 -0.38401263712498 -0.9233278369723991
12624068000.0 -0.3949470739619373 -0.9187038743625254 8.709586780572935e-17 1.0415967022285214e-16 8.709586780572935e-17 1.0415967022285214e-16 -0.39494643808926067 -0.9187041477213528
12624685333.333334 -0.40582521318147385 -0.9139507078316763 8.831808523928476e-17 1.0309041541409568e-16 8.831808523928476e-17 1.0309041541409568e-16 -0.40582458062958365 -0.9139509887059777
12625302666.666666 -0.4166461608695568 -0.9090687414230404 8.952719164246875e-17 1.0200683261171333e-16 8.952719164246875e-17 1.0200683261171333e-16 -0.41664553172726687 -0.9090690297724996
12625920000.0 -0.4274083920680181 -0.9040586631351099 9.072301921417426e-17 1.0090908239455873e-16 9.072301921417426e-17 1.0090908239455873e-16 -0.4274077664236542 -0.904058958918363
12626537333.333334 -0.4381103900931699 -0.8989211790208431 9.190540211780583e-17 9.979732730467818e-17 9.190540211780583e-17 9.979732730467818e-17 -0.43810976803455487 -0.8989214821954805
12627154666.666666 -0.4487506467498528 -0.893657013088019 9.307417650422926e-17 9.867173182329735e-17 9.307417650422926e-17 9.867173182329735e-17 -0.448750028364297 -0.8936573236105959
12627772000.0 -0.45932766254403395 -0.8882669071971814 9.422918053445576e-17 9.753246234651297e-17 9.422918053445576e-17 9.753246234651297e-17 -0.4593270479183207 -0.88826722502322
12628389333.333334 -0.4698399468937903 -0.8827516209572491 9.537025440194586e-17 9.637968716080015e-17 9.537025440194586e-17 9.637968716080015e-17 -0.46983933611416523 -0.8827519460412486
12629006666.666666 -0.4802860183397807 -0.8771119316182687 9.649724035470874e-17 9.521357641816802e-17 9.649724035470874e-17 9.521357641816802e-17 -0.4802854114919383 -0.8771122639137082
12629624000.0 -0.49066440475364165 -0.8713486339620702 9.760998271702489e-17 9.403430211113151e-17 9.760998271702489e-17 9.403430211113151e-17 -0.49066380192271425 -0.8713489734214175
12630241333.333334 -0.5009736435457512 -0.8654625401901028 9.870832791091201e-17 9.284203804738017e-17 9.870832791091201e-17 9.284203804738017e-17 -0.5009730448162973 -0.8654628867648222
12630858666.666666 -0.5112122818710991 -0.8594544798091145 9.979212447723551e-17 9.163695982424821e-17 9.979212447723551e-17 9.163695982424821e-17 -0.5112116873270902 -0.8594548334496703
12631476000.0 -0.5213788768343486 -0.8533252995140628 1.0086122309659345e-16 9.041924480284497e-17 1.0086122309659345e-16 9.041924480284497e-17 -0.5213782865591587 -0.8533256601699298
12632093333.333334 -0.5314719956927645 -0.847075863069041 1.0191547660976031e-16 8.918907208208239e-17 1.0191547660976031e-16 8.918907208208239e-17 -0.5314714097691582 -0.8470762306887113
12632710666.666666 -0.5414902160584182 -0.8407070511853802 1.0295474003792837e-16 8.794662247233971e-17 1.0295474003792837e-16 8.794662247233971e-17 -0.5414896345685383 -0.8407074257163679
12633328000.0 -0.5514321260986618 -0.8342197613975119 1.0397887060258408e-16 8.669207846894065e-17 1.0397887060258408e-16 8.669207846894065e-17 -0.5514315491240175 -0.8342201427863617
12633945333.333334 -0.5612963247348974 -0.8276149079366003 1.049877277450434e-16 8.542562422542479e-17 1.049877277450434e-16 8.542562422542479e-17 -0.5612957523563554 -0.8276152961288982
12634562666.666666 -0.5710814218401526 -0.8208934216016355 1.0598117314569671e-16 8.414744552655106e-17 1.0598117314569671e-16 8.414744552655106e-17 -0.5710808541379232 -0.8208938165420128
12635180000.0 -0.5807860384349803 -0.814056249628251 1.0695907074289891e-16 8.285772976111089e-17 1.0695907074289891e-16 8.285772976111089e-17 -0.5807854754886066 -0.814056651260393
12635797333.333334 -0.5904088068817247 -0.8071043555552833 1.0792128675155859e-16 8.15566658944869e-17 1.0792128675155859e-16 8.15566658944869e-17 -0.5904082487700728 -0.8071047638219391
12636414666.666666 -0.5999483710773073 -0.8000387190889556 1.0886768968135864e-16 8.024444444104235e-17 1.0886768968135864e-16 8.024444444104235e-17 -0.5999478178785531 -0.8000391339319436
12637032000.0 -0.6094033866443793 -0.7928603359647722 1.0979815035467876e-16 7.892125743625065e-17 1.0979815035467876e-16 7.892125743625065e-17 -0.6094028384360001 -0.7928607573249908
12637649333.333334 -0.6187725211207377 -0.7855702178072291 1.1071254192414414e-16 7.758729840866813e-17 1.1071254192414414e-16 7.758729840866813e-17 -0.6187719779794987 -0.7855706456246636
12638266666.666666 -0.6280544541470331 -0.7781693919872995 1.1161073988986796e-16 7.624276235165753e-17 1.1161073988986796e-16 7.624276235165753e-17 -0.6280539161489788 -0.7781698262010311
12638884000.0 -0.6372478776529822 -0.7706589014775483 1.1249262211632636e-16 7.488784569494725e-17 1.1249262211632636e-16 7.488784569494725e-17 -0.6372473448734247 -0.7706593420257634
12639501333.333334 -0.6463514960416382 -0.7630398047051986 1.1335806884890278e-16 7.352274627597774e-17 1.1335806884890278e-16 7.352274627597774e-17 -0.6463509685551473 -0.7630402515251964
12640118666.666666 -0.6553640263718706 -0.7553131754030658 1.1420696273006851e-16 7.214766331108368e-17 1.1420696273006851e-16 7.214766331108368e-17 -0.6553635042522619 -0.7553136284312676
12640736000.0 -0.6642841985395282 -0.7474801024579238 1.1503918881526058e-16 7.076279736641505e-17 1.1503918881526058e-16 7.076279736641505e-17 -0.6642836818598551 -0.7474805616298839
12641353333.333334 -0.6731107554558322 -0.739541689757575 1.158546345883186e-16 6.936835032882408e-17 1.158546345883186e-16 6.936835032882408e-17 -0.6731102442883738 -0.7395421550079869
12641970666.666666 -0.6818424532251112 -0.731499056034779 1.1665318997667817e-16 6.796452537639442e-17 1.1665318997667817e-16 6.796452537639442e-17 -0.6818419476413626 -0.7314995272974859
12642588000.0 -0.6904780613197984 -0.7233533347098535 1.1743474736612673e-16 6.655152694893135e-17 1.1743474736612673e-16 6.655152694893135e-17 -0.6904775613904602 -0.7233538119178573
12643205333.333334 -0.699016362753888 -0.7151056737309083 1.1819920161523513e-16 6.512956071823146e-17 1.1819920161523513e-16 6.512956071823146e-17 -0.699015868548859 -0.7151061568163816
12643822666.666666 -0.7074561542545275 -0.7067572354119944 1.1894645006943232e-16 6.369883355817998e-17 1.1894645006943232e-16 6.369883355817998e-17 -0.7074556658428919 -0.7067577243062871
12644440000.0 -0.7157962464315023 -0.6983091962693766 1.19676392574705e-16 6.225955351471552e-17 1.19676392574705e-16 6.225955351471552e-17 -0.7157957638815212 -0.6983096909030267
12645057333.333334 -0.7240354639447981 -0.6897627468557964 1.2038893149093628e-16 6.081192977563543e-17 1.2038893149093628e-16 6.081192977563543e-17 -0.7240349873238993 -0.6897632471585392
12645674666.666666 -0.732172645670355 -0.6811190915925682 1.2108397170489616e-16 5.935617264021933e-17 1.2108397170489616e-16 5.935617264021933e-17 -0.7321721750451258 -0.6811195974933488
12646292000.0 -0.7402066448637783 -0.6723794485997617 1.2176142064285823e-16 5.789249348871492e-17 1.2176142064285823e-16 5.789249348871492e-17 -0.7402061802999541 -0.6723799600267425
12646909333.333334 -0.7481363293216357 -0.6635450495248693 1.2242118828282588e-16 5.642110475173406e-17 1.2242118828282588e-16 5.642110475173406e-17 -0.7481358708840897 -0.6635455664054399
12647526666.666666 -0.755960581541321 -0.654617139368899 1.2306318716642355e-16 5.4942219879433587e-17 1.2306318716642355e-16 5.4942219879433587e-17 -0.7559601292940588 -0.6546176616296887
12648144000.0 -0.763678298878444 -0.6455969763110243 1.236873324103991e-16 5.345605331060088e-17 1.236873324103991e-16 5.345605331060088e-17 -0.7636778528845926 -0.645597503877912
12648761333.333334 -0.7712883937021675 -0.6364858315313402 1.2429354171775098e-16 5.1962820441617316e-17 1.2429354171775098e-16 5.1962820441617316e-17 -0.771287954023965 -0.6364863643294625
12649378666.666666 -0.778789793548501 -0.6272849890316965 1.248817353884803e-16 5.0462737595300565e-17 1.248817353884803e-16 5.0462737595300565e-17 -0.7787893602472902 -0.6272855269854614
12649996000.0 -0.7861814412714578 -0.6179957454547279 1.2545183632998866e-16 4.8956021989573356e-17 1.2545183632998866e-16 4.8956021989573356e-17 -0.7861810144076777 -0.6179962884878243
12650613333.333334 -0.7934622951920908 -0.6086194099010569 1.2600377006707456e-16 4.744289170607676e-17 1.2600377006707456e-16 4.744289170607676e-17 -0.7934618748252664 -0.6086199579364651
12651230666.666666 -0.8006313292451477 -0.5991573037449832 1.2653746475155015e-16 4.592356565867971e-17 1.2653746475155015e-16 4.592356565867971e-17 -0.8006309154338835 -0.5991578567049864
12651848000.0 -0.807687533123867 -0.5896107604480223 1.2705285117151694e-16 4.4398263561777784e-17 1.2705285117151694e-16 4.4398263561777784e-17 -0.8076871259258361 -0.589611318254216
12652465333.333334 -0.8146299124222088 -0.5799811253711596 1.2754986276020217e-16 4.2867205898647736e-17 1.2754986276020217e-16 4.2867205898647736e-17 -0.8146295118941492 -0.579981687944466
12653082666.666666 -0.8214574887749402 -0.5702697555853551 1.2802843560446052e-16 4.133061388958283e-17 1.2802843560446052e-16 4.133061388958283e-17 -0.8214570949726434 -0.5702703228460315
12653700000.0 -0.82816929999577 -0.5604780196799214 1.284885084528815e-16 3.978870945995574e-17 1.284885084528815e-16 3.978870945995574e-17 -0.8281689129740749 -0.5604785915475727
12654317333.333334 -0.8347644002126544 -0.5506072975700724 1.2893002272349507e-16 3.8241715208255605e-17 1.2893002272349507e-16 3.8241715208255605e-17 -0.8347640200254374 -0.5506078739636611
12654934666.666666 -0.841241860001271 -0.5406589803021993 1.2935292251111275e-16 3.6689854373979294e-17 1.2935292251111275e-16 3.6689854373979294e-17 -0.841241486701441 -0.5406595611400584
12655552000.0 -0.8476007665160138 -0.5306344698578094 1.2975715459428746e-16 3.513335080542123e-17 1.2975715459428746e-16 3.513335080542123e-17 -0.8476004001555046 -0.5306350550576543
12656169333.333334 -0.8538402236184378 -0.5205351789562622 1.3014266844185305e-16 3.3572428927513896e-17 1.3014266844185305e-16 3.3572428927513896e-17 -0.8538398642482006 -0.5205357684352018
12656786666.666666 -0.8599593520037955 -0.5103625308552968 1.3050941621912103e-16 3.200731370943643e-17 1.3050941621912103e-16 3.200731370943643e-17 -0.8599589996737906 -0.5103631245298442
12657404000.0 -0.8659572893248139 -0.5001179591506711 1.308573527936581e-16 3.043823063227229e-17 1.308573527936581e-16 3.043823063227229e-17 -0.8659569440840046 -0.5001185569367568
12658021333.333334 -0.8718331903132814 -0.48980290757403433 1.311864357406888e-16 2.886540565655459e-17 1.311864357406888e-16 2.886540565655459e-17 -0.8718328522096274 -0.4898035093870172
12658638666.666666 -0.8775862268990428 -0.4794188297896881 1.314966253480987e-16 2.72890651898042e-17 1.314966253480987e-16 2.72890651898042e-17 -0.8775858959794935 -0.47941943554436844
12659256000.0 -0.8832155883269209 -0.4689671891893329 1.3178788462106635e-16 2.570943605392282e-17 1.3178788462106635e-16 2.570943605392282e-17 -0.8832152646374091 -0.46896779879996364
12659873333.333334 -0.8887204812707887 -0.45844945868615605 1.3206017928628346e-16 2.4126745452648336e-17 1.3206017928628346e-16 2.4126745452648336e-17 -0.8887201648562238 -0.45845007206645516
12660490666.666666 -0.8941001299453915 -0.44786712050723937 1.3231347779579502e-16 2.2541220938915753e-17 1.3231347779579502e-16 2.2541220938915753e-17 -0.8940998208496528 -0.4478677375704018
12661108000.0 -0.8993537762158141 -0.43722166598439344 1.325477513304537e-16 2.095309038214705e-17 1.325477513304537e-16 2.095309038214705e-17 -0.8993534744817454 -0.4372222866431037
12661725333.333334 -0.9044806797040919 -0.4265145953444461 1.3276297380296803e-16 1.9362581935595102e-17 1.3276297380296803e-16 1.9362581935595102e-17 -0.9044803853734961 -0.4265152195108909
12662342666.666666 -0.9094801178937687 -0.4157474174973904 1.3295912186057184e-16 1.7769924003584492e-17 1.3295912186057184e-16 1.7769924003584492e-17 -0.9094798310074013 -0.4157480450832705
12662960000.0 -0.9143513862316012 -0.40492164982396645 1.331361748872972e-16 1.6175345208751736e-17 1.331361748872972e-16 1.6175345208751736e-17 -0.9143511068291635 -0.4049222807405089
12663577333.333334 -0.9190937982268741 -0.3940388179617707 1.3329411500585336e-16 1.457907435928219e-17 1.3329411500585336e-16 1.457907435928219e-17 -0.9190935263470112 -0.3940394521197429
12664194666.666666 -0.9237066855481614 -0.3831004555902304 1.3343292707911598e-16 1.298134041611813e-17 1.3343292707911598e-16 1.298134041611813e-17 -0.9237064212284528 -0.383101092899951
12664812000.0 -0.9281893981174598 -0.372108104214568 1.335525987112228e-16 1.1382372460161499e-17 1.335525987112228e-16 1.1382372460161499e-17 -0.928189141394416 -0.37210874458591997
12665429333.333334 -0.9325413042018845 -0.3610633129483815 1.3365312024827777e-16 9.782399659464734e-18 1.3365312024827777e-16 9.782399659464734e-18 -0.9325410551109422 -0.36106395629082555
12666046666.666666 -0.9367617905025987 -0.34996763829556915 1.3373448477866073e-16 8.181651236463741e-18 1.3373448477866073e-16 8.181651236463741e-18 -0.936761549078116 -0.34996828451815615
12666664000.0 -0.9408502622413775 -0.33882264393063266 1.3379668813295022e-16 6.5803564351170015e-18 1.3379668813295022e-16 6.5803564351170015e-18 -0.9408500285166286 -0.3388232929420165
12667281333.333334 -0.9448061432442473 -0.3276299004787927 1.3383972888344703e-16 4.978744488187499e-18 1.3383972888344703e-16 4.978744488187499e-18 -0.9448059172514188 -0.32763055218724335
12667898666.666666 -0.9486288760228446 -0.31639098529422044 1.3386360834331184e-16 3.3770445844286993e-18 1.3386360834331184e-16 3.3770445844286993e-18 -0.9486286577930293 -0.31639163960763633
12668516000.0 -0.9523179218529345 -0.30510748223785106 1.3386833056530852e-16 1.7754858358276693e-18 1.3386833056530852e-16 1.7754858358276693e-18 -0.9523177114161294 -0.30510813906377293
12669133333.333334 -0.9558727608502646 -0.29378098145439274 1.338539023401566e-16 1.7429724492518526e-19 1.338539023401566e-16 1.7429724492518526e-19 -0.955872558235364 -0.2937816407000158
12669750666.666666 -0.9592928920439155 -0.2824130791479627 1.3382033319449385e-16 -1.4262923279461005e-18 1.3382033319449385e-16 -1.4262923279461005e-18 -0.9592926972787108 -0.28241374072015085
12670368000.0 -0.962577833446877 -0.271005377357221 1.337676353884472e-16 -3.0260541972990853e-18 1.337676353884472e-16 -3.0260541972990853e-18 -0.9625776465580488 -0.27100604116251886
