! Parameters = {f0=12700.012000; bw=77.238000; Q=6100.000000; N=10; m_0_1=1.248143; m_1_1=-0.042599; m_1_2=1.082955; m_2_2=-0.043248; m_2_3=0.719918; m_2_8=-0.000529; m_2_9=0.036175; m_3_3=-0.045185; m_3_4=0.608447; m_3_7=0.000071; m_3_8=-0.097017; m_3_9=-0.000529; m_4_4=-0.048110; m_4_5=0.444782; m_4_6=0.003588; m_4_7=-0.117566; m_4_8=0.000071; m_5_5=-0.047728; m_5_6=0.852137; m_5_7=0.003588; m_6_6=-0.047729; m_6_7=0.445124; m_7_7=-0.048096; m_7_8=0.608565; m_8_8=-0.045187; m_8_9=0.720231; m_9_9=-0.043253; m_9_10=1.084033; m_10_10=-0.042609; m_10_11=1.248938}
!
! Created with skrf (http://scikit-rf.org).
# Hz S RI R 50.0 
!freq ReS11 ImS11 ReS21 ImS21 ReS12 ImS12 ReS22 ImS22
12607400000.0 0.16583671092093427 0.9861532260814019 -4.376187445380359e-17 -8.953647676432787e-17 -4.376187445380359e-17 -8.953647676432787e-17 0.16583606239169774 0.9861533351412684
12608017333.333334 0.17556850288596748 0.9844672167188756 -4.464321672744826e-17 -8.907848090813713e-17 -4.464321672744826e-17 -8.907848090813713e-17 0.17556785549720846 0.9844673321730593
12608634666.666666 0.18528316807046022 0.9826851721836467 -4.551977989643129e-17 -8.861181719273455e-17 -4.551977989643129e-17 -8.861181719273455e-17 0.18528252188521688 0.9826852940202593
12609252000.0 0.19497975880492815 0.9808072663149481 -4.6391478789530694e-17 -8.813653535276835e-17 -4.6391478789530694e-17 -8.813653535276835e-17 0.19497911388611536 0.9808073945214802
12609869333.333334 0.20465732918308616 0.9788336823033186 -4.7258228751818e-17 -8.765268595902231e-17 -4.7258228751818e-17 -8.765268595902231e-17 0.2046566855934889 0.9788338168666411
12610486666.666666 0.21431493515398262 0.9767646126727634 -4.811994565283663e-17 -8.716032041308079e-17 -4.811994565283663e-17 -8.716032041308079e-17 0.21431429295624993 0.9767647535791266
12611104000.0 0.22395163461439707 0.974600259261903 -4.897654589478947e-17 -8.665949094187764e-17 -4.897654589478947e-17 -8.665949094187764e-17 0.2239509938710364 0.9746004064969419
12611721333.333334 0.23356648750035477 0.9723408332043739 -4.982794642058418e-17 -8.615025059221423e-17 -4.982794642058418e-17 -8.615025059221423e-17 0.23356584827372534 0.9723409867531062
12612338666.666666 0.2431585558791075 0.9699865549081678 -5.0674064721892783e-17 -8.563265322515715e-17 -5.0674064721892783e-17 -8.563265322515715e-17 0.24315791823141478 0.9699867147549982
12612956000.0 0.25272690404065623 0.9675376540341228 -5.151481884712643e-17 -8.510675351037267e-17 -5.151481884712643e-17 -8.510675351037267e-17 0.25272626803394516 0.9675378201628418
12613573333.333334 0.26227059858867197 0.9649943694736101 -5.235012740933077e-17 -8.457260692039737e-17 -5.235012740933077e-17 -8.457260692039737e-17 0.2622699642848216 0.9649945418673973
12614190666.666666 0.27178870853198905 0.962356949325116 -5.31799095940673e-17 -8.40302697248021e-17 -5.31799095940673e-17 -8.40302697248021e-17 0.27178807599270643 0.9623571279665425
12614808000.0 0.28128030537517706 0.9596256508701075 -5.4004085167199094e-17 -8.347979898430224e-17 -5.4004085167199094e-17 -8.347979898430224e-17 0.2812796746619909 0.9596258357411362
12615425333.333334 0.2907444632091698 0.9568007405479162 -5.482257448263016e-17 -8.292125254478248e-17 -5.482257448263016e-17 -8.292125254478248e-17 0.29074383438342477 0.9568009316299042
12616042666.666666 0.3001802588015892 0.9538824939297503 -5.563529848998141e-17 -8.235468903124776e-17 -5.563529848998141e-17 -8.235468903124776e-17 0.3001796319244398 0.9538826912034507
12616660000.0 0.3095867716868057 0.9508711956918092 -5.64421787422035e-17 -8.178016784169848e-17 -5.64421787422035e-17 -8.178016784169848e-17 0.30958614681921026 0.9508713991373724
12617277333.333334 0.318963084255785 0.9477671395874971 -5.724313740313277e-17 -8.119774914092936e-17 -5.724313740313277e-17 -8.119774914092936e-17 0.3189624614585 0.9477673491844739
12617894666.666666 0.32830828184535843 0.9445706284188484 -5.803809725495722e-17 -8.060749385427156e-17 -5.803809725495722e-17 -8.060749385427156e-17 0.3283076611789322 0.9445708441461913
12618512000.0 0.3376214528279059 0.9412819740068347 -5.88269817056784e-17 -8.000946366121965e-17 -5.88269817056784e-17 -8.000946366121965e-17 0.3376208343526735 0.9412821958429012
12619129333.333334 0.34690168869980254 0.937901497161112 -5.960971479642798e-17 -7.940372098904378e-17 -5.960971479642798e-17 -7.940372098904378e-17 0.3469010724758791 0.9379017250836649
12619746666.666666 0.35614808417033805 0.9344295276486227 -6.038622120878506e-17 -7.879032900628213e-17 -6.038622120878506e-17 -7.879032900628213e-17 0.35614747025761306 0.9344297616348335
12620364000.0 0.3653597372500277 0.930866404161425 -6.115642627200125e-17 -7.816935161618026e-17 -6.115642627200125e-17 -7.816935161618026e-17 0.36535912570815965 0.9308666441878763
12620981333.333334 0.3745357493383625 0.9272124742837436 -6.192025597013958e-17 -7.754085345007619e-17 -6.192025597013958e-17 -7.754085345007619e-17 0.37453514022677287 0.9272127203264313
12621598666.666666 0.3836752253117341 0.9234680944579629 -6.267763694918719e-17 -7.690489986068254e-17 -6.267763694918719e-17 -7.690489986068254e-17 0.3836746186896013 0.923468346492298
12622216000.0 0.3927772736106211 0.9196336299499044 -6.342849652406665e-17 -7.626155691532616e-17 -6.342849652406665e-17 -7.626155691532616e-17 0.39277666953687496 0.9196338879507162
12622833333.333334 0.40184100632664016 0.9157094548131647 -6.417276268559348e-17 -7.56108913891068e-17 -6.417276268559348e-17 -7.56108913891068e-17 0.40184040485995604 0.9157097187547022
12623450666.666666 0.4108655392889532 0.911695951852715 -6.4910364107353e-17 -7.495297075799763e-17 -6.4910364107353e-17 -7.495297075799763e-17 0.41086494048774663 0.9116962217086512
12624068000.0 0.41984999215080526 0.9075935125874353 -6.564123015251545e-17 -7.42878631918713e-17 -6.564123015251545e-17 -7.42878631918713e-17 0.41984939607322597 0.9075937883308682
12624685333.333334 0.4287934884753239 0.9034025372119524 -6.636529088059252e-17 -7.361563754744886e-17 -6.636529088059252e-17 -7.361563754744886e-17 0.42879289517925023 0.9034028188154085
12625302666.666666 0.43769515582078355 0.8991234345577089 -6.708247705407793e-17 -7.293636336122236e-17 -6.708247705407793e-17 -7.293636336122236e-17 0.43769456536381707 0.8991237219931466
12625920000.0 0.44655412582609894 0.8947566220529017 -6.779272014507854e-17 -7.22501108422564e-17 -6.779272014507854e-17 -7.22501108422564e-17 0.44655353826555844 0.894756915291712
12626537333.333334 0.4553695342951751 0.8903025256819312 -6.849595234180997e-17 -7.155695086498271e-17 -6.849595234180997e-17 -7.155695086498271e-17 0.4553689496880913 0.8903028246949428
12627154666.666666 0.46414052128136396 0.8857615799437762 -6.919210655506038e-17 -7.085695496189347e-17 -6.919210655506038e-17 -7.085695496189347e-17 0.46413993968447387 0.8857618847012569
12627772000.0 0.4728662311715283 0.8811342278095119 -6.988111642457863e-17 -7.015019531617117e-17 -6.988111642457863e-17 -7.015019531617117e-17 0.47286565264127006 0.8811345382811726
12628389333.333334 0.48154581276905517 0.8764209206793397 -7.0562916325349e-17 -6.943674475429732e-17 -7.0562916325349e-17 -6.943674475429732e-17 0.4815452373615615 0.8764212368343357
12629006666.666666 0.49017841937741513 0.8716221183382677 -7.123744137384698e-17 -6.871667673854169e-17 -7.123744137384698e-17 -6.871667673854169e-17 0.4901778471485102 0.8716224401452053
12629624000.0 0.49876320888238573 0.8667382889114662 -7.190462743416835e-17 -6.799006535944391e-17 -7.190462743416835e-17 -6.799006535944391e-17 0.49876263988757663 0.8667386163384012
12630241333.333334 0.5072993438343709 0.861769908818501 -7.256441112411461e-17 -6.725698532820114e-17 -7.256441112411461e-17 -6.725698532820114e-17 0.5072987781288444 0.8617702418329447
12630858666.666666 0.5157859915299493 0.8567174627269463 -7.321672982117865e-17 -6.651751196902205e-17 -7.321672982117865e-17 -6.651751196902205e-17 0.5157854291685664 0.8567178012958692
12631476000.0 0.5242223240933747 0.8515814435049481 -7.386152166848604e-17 -6.577172121138509e-17 -7.386152166848604e-17 -6.577172121138509e-17 0.5242217651306635 0.8515817875947802
12632093333.333334 0.5326075185570386 0.8463623521733139 -7.449872558060398e-17 -6.501968958230053e-17 -7.449872558060398e-17 -6.501968958230053e-17 0.532606963047192 0.8463627017499517
12632710666.666666 0.5409407569418053 0.8410606978566157 -7.512828124932582e-17 -6.426149419845565e-17 -7.512828124932582e-17 -6.426149419845565e-17 0.5409402049386732 0.8410610528854232
12633328000.0 0.5492212263370693 0.8356769977333564 -7.57501291493548e-17 -6.349721275832695e-17 -7.57501291493548e-17 -6.349721275832695e-17 0.5492206778941547 0.8356773581791694
12633945333.333334 0.5574481189797412 0.8302117769857149 -7.636421054389235e-17 -6.272692353425736e-17 -7.636421054389235e-17 -6.272692353425736e-17 0.5574475741501942 0.8302121428128441
12634562666.666666 0.5656206323331907 0.824665568748224 -7.697046749016925e-17 -6.195070536445196e-17 -7.697046749016925e-17 -6.195070536445196e-17 0.5656200911698038 0.8246659399204583
12635180000.0 0.5737379691655096 0.8190389140557773 -7.756884284488482e-17 -6.116863764493297e-17 -7.756884284488482e-17 -6.116863764493297e-17 0.5737374317207129 0.8190392905363886
12635797333.333334 0.5817993376273055 0.8133323617908356 -7.815928026956849e-17 -6.038080032143872e-17 -7.815928026956849e-17 -6.038080032143872e-17 0.5817988039531611 0.8133327435425811
12636414666.666666 0.5898039513288549 0.8075464686299487 -7.874172423585071e-17 -5.958727388128214e-17 -7.874172423585071e-17 -5.958727388128214e-17 0.5898034214770514 0.8075468556150746
12637032000.0 0.597751029416954 0.8016817989893515 -7.931612003066837e-17 -5.878813934513628e-17 -7.931612003066837e-17 -5.878813934513628e-17 0.5977505034388029 0.8016821911695979
12637649333.333334 0.6056397966510212 0.7957389249699558 -7.98824137613717e-17 -5.798347825879015e-17 -7.98824137613717e-17 -5.798347825879015e-17 0.6056392745974513 0.7957393223065601
12638266666.666666 0.6134694834786553 0.7897184263015913 -8.044055236074877e-17 -5.717337268485625e-17 -8.044055236074877e-17 -5.717337268485625e-17 0.6134689654002072 0.7897188287552915
12638884000.0 0.6212393261108424 0.7836208902863533 -8.099048359198027e-17 -5.635790519440916e-17 -8.099048359198027e-17 -5.635790519440916e-17 0.621238812057664 0.7836212978173915
12639501333.333334 0.6289485665963924 0.7774469117413567 -8.153215605349471e-17 -5.553715885859727e-17 -8.153215605349471e-17 -5.553715885859727e-17 0.628948056618234 0.7774473243094844
12640118666.666666 0.6365964528957712 0.7711970929408078 -8.206551918373727e-17 -5.471121724021359e-17 -8.206551918373727e-17 -5.471121724021359e-17 0.6365959470419807 0.7711975105052882
12640736000.0 0.6441822389548107 0.7648720435569578 -8.259052326588448e-17 -5.388016438517128e-17 -8.259052326588448e-17 -5.388016438517128e-17 0.6441817372743297 0.7648724660765718
12641353333.333334 0.6517051847769646 0.758472380601069 -8.310711943241326e-17 -5.3044084814029085e-17 -8.310711943241326e-17 -5.3044084814029085e-17 0.6517046873183219 0.7584728080341175
12641970666.666666 0.6591645564959506 0.7519987283628393 -8.361525966965086e-17 -5.220306351336631e-17 -8.361525966965086e-17 -5.220306351336631e-17 0.6591640633072584 0.7519991606671478
12642588000.0 0.6665596264471454 0.7454517183496686 -8.411489682219282e-17 -5.135718592718883e-17 -8.411489682219282e-17 -5.135718592718883e-17 0.6665591375760953 0.7454521554825921
12643205333.333334 0.6738896732385037 0.7388319892251107 -8.460598459724968e-17 -5.050653794826645e-17 -8.460598459724968e-17 -5.050653794826645e-17 0.6738891887323614 0.7388324311435377
12643822666.666666 0.6811539818211446 0.732140186746385 -8.508847756891109e-17 -4.9651205909422285e-17 -8.508847756891109e-17 -4.9651205909422285e-17 0.6811535017267453 0.7321406334067406
12644440000.0 0.688351843558911 0.7253769637015486 -8.55623311823101e-17 -4.879127657480062e-17 -8.55623311823101e-17 -4.879127657480062e-17 0.688351367922656 0.7253774150598011
12645057333.333334 0.6954825562975456 0.7185429798457859 -8.602750175770218e-17 -4.7926837131093795e-17 -8.602750175770218e-17 -4.7926837131093795e-17 0.6954820851653947 0.7185434358574472
12645674666.666666 0.7025454244331808 0.7116389018370428 -8.648394649446719e-17 -4.7057975178708095e-17 -8.648394649446719e-17 -4.7057975178708095e-17 0.7025449578506511 0.7116393624571771
12646292000.0 0.7095397589803409 0.7046654031708595 -8.693162347501824e-17 -4.6184778722899197e-17 -8.693162347501824e-17 -4.6184778722899197e-17 0.7095392969925017 0.7046658683540852
12646909333.333334 0.7164648776388886 0.6976231641149273 -8.737049166860195e-17 -4.530733616490817e-17 -8.737049166860195e-17 -4.530733616490817e-17 0.7164644202903562 0.6976236338154225
12647526666.666666 0.7233201048607859 0.6905128716425298 -8.780051093503827e-17 -4.44257362930073e-17 -8.780051093503827e-17 -4.44257362930073e-17 0.7233196521957191 0.6905133458140359
12648144000.0 0.7301047719159905 0.6833352193655249 -8.822164202835531e-17 -4.3540068273537937e-17 -8.822164202835531e-17 -4.3540068273537937e-17 0.7301043239780884 0.6833356979613526
12648761333.333334 0.7368182169575368 0.6760909074668491 -8.863384660033119e-17 -4.265042164192212e-17 -8.863384660033119e-17 -4.265042164192212e-17 0.736817773790032 0.6760913904398812
12649378666.666666 0.7434597850862142 0.6687806426320891 -8.903708720394995e-17 -4.175688629363104e-17 -8.903708720394995e-17 -4.175688629363104e-17 0.7434593467318705 0.668781129934787
12649996000.0 0.7500288284144756 0.6614051379805269 -8.943132729677308e-17 -4.085955247510869e-17 -8.943132729677308e-17 -4.085955247510869e-17 0.7500283949155825 0.6614056295649334
12650613333.333334 0.7565247061295947 0.6539651129956106 -8.981653124421065e-17 -3.9958510774681596e-17 -8.981653124421065e-17 -3.9958510774681596e-17 0.756524277527964 0.6539656088133556
12651230666.666666 0.7629467845561066 0.6464612934548581 -9.019266432269561e-17 -3.905385211345405e-17 -9.019266432269561e-17 -3.905385211345405e-17 0.7629463608930691 0.6464617934571641
12651848000.0 0.7692944372178107 0.638894411358843 -9.055969272279254e-17 -3.814566773611213e-17 -9.055969272279254e-17 -3.814566773611213e-17 0.7692940185342108 0.6388949154965284
12652465333.333334 0.7755670448987305 0.6312652048599566 -9.091758355218235e-17 -3.723404920177353e-17 -9.091758355218235e-17 -3.723404920177353e-17 0.7755666312349221 0.6312657130834408
12653082666.666666 0.7817639957034489 0.6235744181904905 -9.126630483857085e-17 -3.631908837477404e-17 -9.126630483857085e-17 -3.631908837477404e-17 0.7817635870992948 0.6235749304498011
12653700000.0 0.7878846851170912 0.6158228015896886 -9.160582553251323e-17 -3.5400877415403803e-17 -9.160582553251323e-17 -3.5400877415403803e-17 0.7878842816119541 0.6158233178344622
12654317333.333334 0.7939285160639671 0.6080111112309523 -9.193611551012201e-17 -3.447950877068017e-17 -9.193611551012201e-17 -3.447950877068017e-17 0.7939281176967107 0.6080116314104432
12654934666.666666 0.7998948989660168 0.6001401091478367 -9.225714557570604e-17 -3.355507516503334e-17 -9.225714557570604e-17 -3.355507516503334e-17 0.7998945057749978 0.600140633210919
12655552000.0 0.8057832518003167 0.5922105631597072 -9.256888746430572e-17 -3.262766959099379e-17 -9.256888746430572e-17 -3.262766959099379e-17 0.805782863823385 0.5922110910548828
12656169333.333334 0.8115930001557097 0.5842232467970488 -9.28713138441275e-17 -3.1697385299880905e-17 -9.28713138441275e-17 -3.1697385299880905e-17 0.8115926174302012 0.5842237784724492
12656786666.666666 0.817323577289002 0.5761789392257755 -9.316439831890189e-17 -3.0764315792419247e-17 -9.316439831890189e-17 -3.0764315792419247e-17 0.8173231998517383 0.57617947462917
12657404000.0 0.8229744241801696 0.5680784251713391 -9.344811543013395e-17 -2.982855480937337e-17 -9.344811543013395e-17 -2.982855480937337e-17 0.8229740520674522 0.5680789642501375
12658021333.333334 0.8285449895869386 0.5599224948421082 -9.372244065926697e-17 -2.889019632214118e-17 -9.372244065926697e-17 -2.889019632214118e-17 0.8285446228345456 0.559923037543367
12658638666.666666 0.8340347300984127 0.5517119438524943 -9.398735042974235e-17 -2.794933452336026e-17 -9.398735042974235e-17 -2.794933452336026e-17 0.8340343687415969 0.5517124901229223
12659256000.0 0.8394431101883436 0.5434475731449644 -9.424282210898534e-17 -2.7006063817429097e-17 -9.424282210898534e-17 -2.7006063817429097e-17 0.8394427542618272 0.543448122930927
12659873333.333334 0.844769602267158 0.5351301889122119 -9.448883401027238e-17 -2.606047881108819e-17 -9.448883401027238e-17 -2.606047881108819e-17 0.8447692518051303 0.5351307421597369
12660490666.666666 0.8500136867334473 0.5267606025184924 -9.472536539451673e-17 -2.5112674303947957e-17 -9.472536539451673e-17 -2.5112674303947957e-17 0.8500133417695616 0.5267611591732755
12661108000.0 0.8551748520248048 0.5183396304202339 -9.495239647196367e-17 -2.4162745278976243e-17 -9.495239647196367e-17 -2.4162745278976243e-17 0.855174512592175 0.5183401904276438
12661725333.333334 0.8602525946675182 0.5098680940867286 -9.516990840377559e-17 -2.3210786893036552e-17 -9.516990840377559e-17 -2.3210786893036552e-17 0.8602522607987151 0.5098686573918121
12662342666.666666 0.8652464193258487 0.5013468199197317 -9.537788330353786e-17 -2.2256894467344866e-17 -9.537788330353786e-17 -2.2256894467344866e-17 0.8652460910528975 0.5013473864672194
12662960000.0 0.8701558388502889 0.4927766391729429 -9.557630423866003e-17 -2.13011634779574e-17 -9.557630423866003e-17 -2.13011634779574e-17 0.870155516204665 0.4927772089072542
12663577333.333334 0.8749803743250438 0.4841583878709902 -9.576515523168495e-17 -2.0343689546230234e-17 -9.576515523168495e-17 -2.0343689546230234e-17 0.8749800573376719 0.48415896073623943
12664194666.666666 0.8797195551148363 0.4754929067277297 -9.594442126150243e-17 -1.938456842927113e-17 -9.594442126150243e-17 -1.938456842927113e-17 0.8797192438160845 0.47549348266773067
12664812000.0 0.8843729189107569 0.4667810410643298 -9.611408826446775e-17 -1.8423896010378755e-17 -9.611408826446775e-17 -1.8423896010378755e-17 0.8843726133304364 0.4667816200226024
12665429333.333334 0.888940011775392 0.458023640726761 -9.627414313542273e-17 -1.7461768289484096e-17 -9.627414313542273e-17 -1.7461768289484096e-17 0.8889397119427543 0.4580242226465365
12666046666.666666 0.8934203881870412 0.4492215600030205 -9.642457372862368e-17 -1.649828137357311e-17 -9.642457372862368e-17 -1.649828137357311e-17 0.8934200941307733 0.4492221448272464
12666664000.0 0.8978136110833193 0.4403756575395156 -9.65653688585758e-17 -1.5533531467085944e-17 -9.65653688585758e-17 -1.5533531467085944e-17 0.8978133228315417 0.4403762452108616
12667281333.333334 0.9021192519036118 0.43148679625765884 -9.669651830076342e-17 -1.456761486236517e-17 -9.669651830076342e-17 -1.456761486236517e-17 0.9021189694838764 0.43148738671852266
12667898666.666666 0.9063368906310221 0.4225558432694099 -9.681801279229481e-17 -1.3600627930035866e-17 -9.681801279229481e-17 -1.3600627930035866e-17 0.9063366140703091 0.4225564364619226
12668516000.0 0.9104661158332913 0.4135836697927888 -9.692984403244587e-17 -1.2632667109409023e-17 -9.692984403244587e-17 -1.2632667109409023e-17 0.9104658451580073 0.4135842656588211
12669133333.333334 0.9145065247029017 0.4045711510669682 -9.703200468310681e-17 -1.1663828898906926e-17 -9.703200468310681e-17 -1.1663828898906926e-17 0.9145062599388766 0.4045717495481354
12669750666.666666 0.9184577230964392 0.39551916626673633 -9.712448836913796e-17 -1.0694209846433767e-17 -9.712448836913796e-17 -1.0694209846433767e-17 0.9184574642689236 0.39551976730440436
12670368000.0 0.9223193255730084 0.38642859841681243 -9.720728967862623e-17 -9.723906539783889e-18 -9.720728967862623e-17 -9.723906539783889e-18 0.9223190727066701 0.3864292019521032
12670985333.333334 0.9260909554317951 0.3773003343057833 -9.728040416304599e-17 -8.753015597046976e-18 -9.728040416304599e-17 -8.753015597046976e-18 0.9260907085507198 0.3773009402795814
