! Parameters = {f0=12700.012000; bw=77.238000; Q=6100.000000; N=10; m_0_1=1.305400; m_1_1=0.816260; m_1_2=1.140212; m_2_2=0.815611; m_2_3=0.777175; m_2_8=0.002334; m_2_9=0.039038; m_3_3=0.813674; m_3_4=0.665704; m_3_7=0.002934; m_3_8=-0.094154; m_3_9=0.002334; m_4_4=0.810749; m_4_5=0.502039; m_4_6=0.006451; m_4_7=-0.114703; m_4_8=0.002934; m_5_5=0.811131; m_5_6=0.909394; m_5_7=0.006451; m_6_6=0.811130; m_6_7=0.502381; m_7_7=0.810763; m_7_8=0.665822; m_8_8=0.813672; m_8_9=0.777488; m_9_9=0.815606; m_9_10=1.141290; m_10_10=0.816250; m_10_11=1.306195}
!
! Created with skrf (http://scikit-rf.org).
# Hz S RI R 50.0 
!freq ReS11 ImS11 ReS21 ImS21 ReS12 ImS12 ReS22 ImS22
12607400000.0 -0.19896925109129532 -0.9800057332077106 6.113848789717383e-17 1.150894534639866e-16 6.113848789717383e-17 1.150894534639866e-16 -0.1989685771449678 -0.9800058700378891
12608017333.333334 -0.21029383488867714 -0.977638227059288 6.246380091161992e-17 1.143464912532303e-16 6.246380091161992e-17 1.143464912532303e-16 -0.21029316260338665 -0.9776383716702608
12608634666.666666 -0.22159027058369873 -0.9751398627799283 6.378010529639276e-17 1.135882787506481e-16 6.378010529639276e-17 1.135882787506481e-16 -0.22158960004926462 -0.9751400151515781
12609252000.0 -0.23285704613393676 -0.9725109747789953 6.508722570100482e-17 1.1281492496479164e-16 6.508722570100482e-17 1.1281492496479164e-16 -0.23285637743993515 -0.9725111348901687
12609869333.333334 -0.2440926534671284 -0.9697519149365939 6.638498809151994e-17 1.1202654091884132e-16 6.638498809151994e-17 1.1202654091884132e-16 -0.24409198670288018 -0.9697520827651026
12610486666.666666 -0.2552955886827251 -0.9668630525565424 6.767321977364681e-17 1.1122323963475562e-16 6.767321977364681e-17 1.1122323963475562e-16 -0.2552949239372843 -0.9668632280791682
12611104000.0 -0.2664643522536055 -0.96384477431684 6.895174941572277e-17 1.1040513611710406e-16 6.895174941572277e-17 1.1040513611710406e-16 -0.26646368961574723 -0.9638449575093375
12611721333.333334 -0.277597449226376 -0.9606974842180153 7.02204070714103e-17 1.0957234733669722e-16 7.02204070714103e-17 1.0957234733669722e-16 -0.2775967887845843 -0.9606976750551133
12612338666.666666 -0.2886933894217472 -0.9574216035289769 7.147902420227063e-17 1.0872499221390739e-16 7.147902420227063e-17 1.0872499221390739e-16 -0.2886927312642041 -0.9574218019843854
12612956000.0 -0.29975068763399526 -0.9540175707306239 7.272743370012151e-17 1.0786319160174081e-16 7.272743370012151e-17 1.0786319160174081e-16 -0.29975003184856785 -0.9540177767770347
12613573333.333334 -0.3107678638294867 -0.9504858414572364 7.396546990913434e-17 1.069870682686939e-16 7.396546990913434e-17 1.069870682686939e-16 -0.3107672105037165 -0.9504860550663288
12614190666.666666 -0.3217434433451637 -0.9468268884353741 7.51929686478135e-17 1.0609674688129524e-16 7.51929686478135e-17 1.0609674688129524e-16 -0.3217427925662537 -0.9468271095778162
12614808000.0 -0.33267595708562947 -0.9430412014206881 7.640976723070618e-17 1.0519235398643864e-16 7.640976723070618e-17 1.0519235398643864e-16 -0.3326753089404342 -0.9430414300661453
12615425333.333334 -0.3435639417199265 -0.9391292871323317 7.761570448992131e-17 1.0427401799345258e-16 7.761570448992131e-17 1.0427401799345258e-16 -0.3435632962949388 -0.9391295232494659
12616042666.666666 -0.35440593987737606 -0.9350916691851375 7.881062079642861e-17 1.0334186915592871e-16 7.881062079642861e-17 1.0334186915592871e-16 -0.354405297258717 -0.935091912741616
12616660000.0 -0.3652005003426512 -0.9309288880195368 7.999435808115447e-17 1.0239603955329523e-16 7.999435808115447e-17 1.0239603955329523e-16 -0.36519986061605675 -0.9309291389820311
12617277333.333334 -0.3759461782500477 -0.9266415008292032 8.116675985583122e-17 1.0143666307216947e-16 8.116675985583122e-17 1.0143666307216947e-16 -0.375945541500859 -0.9266417591633991
12617894666.666666 -0.38664153527672473 -0.9222300814865403 8.232767123363594e-17 1.0046387538746434e-16 8.232767123363594e-17 1.0046387538746434e-16 -0.3866409015898764 -0.9222303471571409
12618512000.0 -0.3972851398356213 -0.9176952204657077 8.347693894963424e-17 9.947781394323242e-17 8.347693894963424e-17 9.947781394323242e-17 -0.3972845092956292 -0.9176954934364363
12619129333.333334 -0.40787556726654906 -0.9130375247637988 8.461441138092849e-17 9.847861793333486e-17 8.461441138092849e-17 9.847861793333486e-17 -0.4078749399574997 -0.9130378049974051
12619746666.666666 -0.41841140002725297 -0.908257617819442 8.573993856663882e-17 9.746642828182407e-17 8.573993856663882e-17 9.746642828182407e-17 -0.4184107760327925 -0.9082579052777081
12620364000.0 -0.4288912278831244 -0.9033561394293618 8.685337222763729e-17 9.644138762311218e-17 8.685337222763729e-17 9.644138762311218e-17 -0.4288906072864464 -0.9033564340731053
12620981333.333334 -0.43931364809572826 -0.8983337456628443 8.795456578599306e-17 9.540364028196052e-17 8.795456578599306e-17 9.540364028196052e-17 -0.4393130309795647 -0.8983340474519271
12621598666.666666 -0.4496772656108229 -0.8931911087738096 8.904337438425894e-17 9.435333225317685e-17 8.904337438425894e-17 9.435333225317685e-17 -0.4496766520574306 -0.893191417667139
12622216000.0 -0.4599806932449322 -0.8879289171108943 9.011965490446145e-17 9.329061118114225e-17 9.011965490446145e-17 9.329061118114225e-17 -0.4599800833360838 -0.8879292330664322
12622833333.333334 -0.47022255187117606 -0.8825478750252439 9.118326598686902e-17 9.221562633910237e-17 9.118326598686902e-17 9.221562633910237e-17 -0.4702219456881481 -0.8825481980000104
12623450666.666666 -0.48040147060361477 -0.8770487027763616 9.223406804849631e-17 9.112852860826405e-17 9.223406804849631e-17 9.112852860826405e-17 -0.48040086822717754 -0.8770490327264421
12624068000.0 -0.4905160869809721 -0.8714321364355859 9.327192330139515e-17 9.002947045664435e-17 9.327192330139515e-17 9.002947045664435e-17 -0.49051548849137794 -0.8714324733161359
12624685333.333334 -0.5005650471489999 -0.8656989277875615 9.429669577065899e-17 8.891860591774916e-17 9.429669577065899e-17 8.891860591774916e-17 -0.5005644526259738 -0.8656992715528142
12625302666.666666 -0.5105470060414219 -0.859849844229767 9.530825131217191e-17 8.779609056905109e-17 9.530825131217191e-17 8.779609056905109e-17 -0.5105464155641495 -0.8598501948330374
12625920000.0 -0.5204606275604644 -0.853885668669513 9.630645763015155e-17 8.666208151021131e-17 9.630645763015155e-17 8.666208151021131e-17 -0.5204600412075825 -0.8538860260632064
12626537333.333334 -0.5303045847551066 -0.8478071994194954 9.729118429436532e-17 8.55167373411799e-17 9.729118429436532e-17 8.55167373411799e-17 -0.5303040026046925 -0.8478075635551129
12627154666.666666 -0.5400775599990633 -0.8416152500907242 9.826230275713248e-17 8.436021814004835e-17 9.826230275713248e-17 8.436021814004835e-17 -0.5400769821286235 -0.8416156209188688
12627772000.0 -0.5497782451672675 -0.8353106494835406 9.921968637007617e-17 8.319268544069637e-17 9.921968637007617e-17 8.319268544069637e-17 -0.5497776716537284 -0.8353110269539241
12628389333.333334 -0.5594053418105089 -0.8288942414769704 1.0016321040053897e-16 8.201430221033313e-17 1.0016321040053897e-16 8.201430221033313e-17 -0.5594047727302067 -0.8288946255384216
12629006666.666666 -0.5689575613296887 -0.8223668849154783 1.0109275204782437e-16 8.082523282674327e-17 1.0109275204782437e-16 8.082523282674327e-17 -0.5689569967583583 -0.8223672755159481
12629624000.0 -0.5784336251480131 -0.8157294534941977 1.020081904590943e-16 7.962564305544066e-17 1.020081904590943e-16 7.962564305544066e-17 -0.5784330651607789 -0.8157298505807673
12630241333.333334 -0.5878322648822749 -0.8089828356418884 1.0290940674505123e-16 7.841570002657375e-17 1.0290940674505123e-16 7.841570002657375e-17 -0.5878317095536394 -0.8089832391607753
12630858666.666666 -0.5971522225124652 -0.8021279344021365 1.0379628399528473e-16 7.719557221173646e-17 1.0379628399528473e-16 7.719557221173646e-17 -0.5971516719163018 -0.8021283442987039
12631476000.0 -0.6063922505505077 -0.7951656673122299 1.0466870729343552e-16 7.59654294004819e-17 1.0466870729343552e-16 7.59654294004819e-17 -0.6063917047600481 -0.7951660835309922
12632093333.333334 -0.6155511122067998 -0.7880969662806645 1.0552656373197611e-16 7.472544267681161e-17 1.0552656373197611e-16 7.472544267681161e-17 -0.6155505712946251 -0.788097388765294
12632710666.666666 -0.6246275815559869 -0.780922777462236 1.0636974242678843e-16 7.347578439539403e-17 1.0636974242678843e-16 7.347578439539403e-17 -0.6246270455940193 -0.7809232061555743
12633328000.0 -0.6336204437011458 -0.773644061131331 1.0719813453144338e-16 7.221662815764318e-17 1.0719813453144338e-16 7.221662815764318e-17 -0.6336199127606362 -0.7736444959753918
12633945333.333334 -0.642528494936194 -0.7662617915535422 1.0801163325118148e-16 7.094814878766183e-17 1.0801163325118148e-16 7.094814878766183e-17 -0.6425279690877165 -0.766262232489524
12634562666.666666 -0.651350542907102 -0.7587769568551994 1.0881013385661746e-16 6.967052230801556e-17 1.0881013385661746e-16 6.967052230801556e-17 -0.651350022220541 -0.7587774038234898
12635180000.0 -0.6600854067715543 -0.7511905588910497 1.0959353369716794e-16 6.838392591534198e-17 1.0959353369716794e-16 6.838392591534198e-17 -0.6600848913160954 -0.751191011831234
12635797333.333334 -0.6687319173568931 -0.7435036131102439 1.1036173221418398e-16 6.708853795581806e-17 1.1036173221418398e-16 6.708853795581806e-17 -0.6687314072010179 -0.7435040719611165
12636414666.666666 -0.6772889173166254 -0.7357171484204299 1.1111463095378798e-16 6.57845379004945e-17 1.1111463095378798e-16 6.57845379004945e-17 -0.6772884125280966 -0.7357176131199971
12637032000.0 -0.6857552612854302 -0.727832207049926 1.1185213357943796e-16 6.447210632045484e-17 1.1185213357943796e-16 6.447210632045484e-17 -0.685754761931287 -0.7278326775354195
12637649333.333334 -0.6941298160323899 -0.7198498444083012 1.125741458841788e-16 6.315142486186987e-17 1.125741458841788e-16 6.315142486186987e-17 -0.6941293221789377 -0.7198503206161841
12638266666.666666 -0.7024114606126919 -0.7117711289450843 1.1328057580261815e-16 6.182267622088396e-17 1.1328057580261815e-16 6.182267622088396e-17 -0.7024109723254929 -0.7117716108110592
12638884000.0 -0.7105990865176701 -0.7035971420067508 1.1397133342258588e-16 6.048604411840338e-17 1.1397133342258588e-16 6.048604411840338e-17 -0.7105986038615353 -0.7035976294657703
12639501333.333334 -0.718691597823199 -0.695328977691964 1.1464633099651754e-16 5.914171327472063e-17 1.1464633099651754e-16 5.914171327472063e-17 -0.7186911208621797 -0.6953294706782377
12640118666.666666 -0.726687911336248 -0.6869677427052713 1.1530548295251667e-16 5.778986938405474e-17 1.1530548295251667e-16 5.778986938405474e-17 -0.7266874401336263 -0.686968241152276
12640736000.0 -0.73458695674026 -0.6785145562085598 1.1594870590516339e-16 5.643069908887379e-17 1.1594870590516339e-16 5.643069908887379e-17 -0.7345864913585413 -0.6785150600490472
12641353333.333334 -0.742387676737825 -0.6699705496718709 1.1657591866593342e-16 5.50643899542836e-17 1.1657591866593342e-16 5.50643899542836e-17 -0.7423872172387308 -0.6699710588378787
12641970666.666666 -0.7500890271926945 -0.6613368667214394 1.171870422534256e-16 5.369113044207001e-17 1.171870422534256e-16 5.369113044207001e-17 -0.7500885736371513 -0.6613373811442981
12642588000.0 -0.7576899772693214 -0.6526146629868427 1.1778199990319648e-16 5.2311109884814145e-17 1.1778199990319648e-16 5.2311109884814145e-17 -0.7576895297174541 -0.6526151825971852
12643205333.333334 -0.7651895095708412 -0.6438051059463186 1.1836071707733164e-16 5.092451845981415e-17 1.1836071707733164e-16 5.092451845981415e-17 -0.7651890680819668 -0.6438056306740922
12643822666.666666 -0.772586620275401 -0.634909374770327 1.1892312147371232e-16 4.9531547162894664e-17 1.1892312147371232e-16 4.9531547162894664e-17 -0.7725861849080187 -0.6349099045448
12644440000.0 -0.7798803192703186 -0.6259286601639527 1.1946914303494944e-16 4.8132387782176465e-17 1.1946914303494944e-16 4.8132387782176465e-17 -0.7798798900821017 -0.6259291949137242
12645057333.333334 -0.7870696302847016 -0.6168641642074189 1.1999871395703192e-16 4.672723287169464e-17 1.1999871395703192e-16 4.672723287169464e-17 -0.7870692073324923 -0.6168647038604307
12645674666.666666 -0.7941535910201092 -0.6077171001952136 1.2051176869765717e-16 4.5316275724943267e-17 1.2051176869765717e-16 4.5316275724943267e-17 -0.7941531743599083 -0.607717644678757
12646292000.0 -0.801131253279475 -0.5984886924735277 1.2100824398426076e-16 4.389971034830249e-17 1.2100824398426076e-16 4.389971034830249e-17 -0.8011308429664356 -0.5984892417142543
12646909333.333334 -0.8080016830937982 -0.589180176276667 1.2148807882171062e-16 4.247773143444808e-17 1.2148807882171062e-16 4.247773143444808e-17 -0.8080012791822193 -0.5891807302005999
12647526666.666666 -0.814763960847316 -0.5797927975615147 1.219512144997148e-16 4.10505343356021e-17 1.219512144997148e-16 4.10505343356021e-17 -0.8147635633906344 -0.5797933560940569
12648144000.0 -0.8214171814006413 -0.5703278128406859 1.223975945999094e-16 3.961831503672525e-17 1.223975945999094e-16 3.961831503672525e-17 -0.8214167904514244 -0.570328375906631
12648761333.333334 -0.8279604542117491 -0.560786489014571 1.2282716500261664e-16 3.8181270128678773e-17 1.2282716500261664e-16 3.8181270128678773e-17 -0.8279600698216876 -0.5607870565381128
12649378666.666666 -0.8343929034552457 -0.5511701032016707 1.2323987389330541e-16 3.673959678126611e-17 1.2323987389330541e-16 3.673959678126611e-17 -0.8343925256751488 -0.5511706751064145
12649996000.0 -0.8407136681396647 -0.5414799425675572 1.2363567176873429e-16 3.529349271620601e-17 1.2363567176873429e-16 3.529349271620601e-17 -0.840713297019451 -0.5414805187765288
12650613333.333334 -0.8469219022226602 -0.5317173041526545 1.2401451144277204e-16 3.384315618006603e-17 1.2401451144277204e-16 3.384315618006603e-17 -0.846921537811352 -0.5317178845883114
12651230666.666666 -0.8530167747241911 -0.5218834946987249 1.2437634805189878e-16 3.2388785917142246e-17 1.2437634805189878e-16 3.2388785917142246e-17 -0.8530164170699092 -0.5218840792829665
12651848000.0 -0.8589974698378867 -0.5119798304737437 1.2472113906040767e-16 3.0930581142214944e-17 1.2472113906040767e-16 3.0930581142214944e-17 -0.8589971189878417 -0.511980419127922
12652465333.333334 -0.8648631870401798 -0.5020076370958108 1.2504884426526098e-16 2.9468741513353386e-17 1.2504884426526098e-16 2.9468741513353386e-17 -0.8648628430406663 -0.5020082297407394
12653082666.666666 -0.8706131411972983 -0.4919682493559813 1.2535942580064586e-16 2.800346710460399e-17 1.2535942580064586e-16 2.800346710460399e-17 -0.8706128040936906 -0.49196884591194917
12653700000.0 -0.8762465626707049 -0.4818630110390194 1.2565284814221377e-16 2.6534958378614736e-17 1.2565284814221377e-16 2.6534958378614736e-17 -0.8762462325074506 -0.481863611425799
12654317333.333334 -0.8817626974197559 -0.4716932747441411 1.2592907811098192e-16 2.5063416159299253e-17 1.2592907811098192e-16 2.5063416159299253e-17 -0.8817623742403683 -0.4716938788810001
12654934666.666666 -0.8871608071028428 -0.4614604017035996 1.2618808487693298e-16 2.3589041604380636e-17 1.2618808487693298e-16 2.3589041604380636e-17 -0.8871604909498965 -0.4614610095093116
12655552000.0 -0.8924401691762041 -0.45116576160050514 1.2642983996228843e-16 2.2112036177918168e-17 1.2642983996228843e-16 2.2112036177918168e-17 -0.8924398600913288 -0.4511663729933606
12656169333.333334 -0.8976000769905176 -0.4408107323857169 1.2665431724445093e-16 2.0632601622871638e-17 1.2665431724445093e-16 2.0632601622871638e-17 -0.8975997750143935 -0.4408113472835343
12656786666.666666 -0.902639839885609 -0.4303967000931781 1.2686149295864295e-16 1.9150939933534146e-17 1.2686149295864295e-16 1.9150939933534146e-17 -0.9026395450579611 -0.43039731841331486
12657404000.0 -0.9075587832828795 -0.41992505865441554 1.2705134570021187e-16 1.7667253328013493e-17 1.2705134570021187e-16 1.7667253328013493e-17 -0.9075584956424714 -0.4199256803137789
12658021333.333334 -0.9123562487755495 -0.4093972097120633 1.2722385642661811e-16 1.6181744220665014e-17 1.2722385642661811e-16 1.6181744220665014e-17 -0.912355968360179 -0.4093978346271215
12658638666.666666 -0.9170315942167782 -0.39881456243227764 1.2737900845909844e-16 1.469461519453753e-17 1.2737900845909844e-16 1.469461519453753e-17 -0.9170313210632731 -0.3988151905190719
12659256000.0 -0.9215841938057221 -0.3881785333158865 1.2751678748401557e-16 1.3206068973734715e-17 1.2751678748401557e-16 1.3206068973734715e-17 -0.921583927949934 -0.3881791644900409
12659873333.333334 -0.9260134381711902 -0.37749054600901916 1.2763718155387398e-16 1.1716308395873013e-17 1.2763718155387398e-16 1.1716308395873013e-17 -0.9260131796479907 -0.3774911801857534
12660490666.666666 -0.9303187344532049 -0.3667520311125798 1.277401810880225e-16 1.02255363844662e-17 1.277401810880225e-16 1.02255363844662e-17 -0.9303184832964818 -0.36675266820672026
12661108000.0 -0.934499506382506 -0.3559644259903901 1.2782577887303493e-16 8.733955921290768e-18 1.2782577887303493e-16 8.733955921290768e-18 -0.934499262625157 -0.3559650659163805
12661725333.333334 -0.9385551943574719 -0.3451291745773232 1.2789397006276317e-16 7.241770018841337e-18 1.2789397006276317e-16 7.241770018841337e-18 -0.9385549580314003 -0.3451298172492363
12662342666.666666 -0.94248525551918 -0.33424772718563495 1.2794475217807575e-16 5.749181692683679e-18 1.2794475217807575e-16 5.749181692683679e-18 -0.942485026655293 -0.3342483725171852
12662960000.0 -0.9462891638240076 -0.32332154031099714 1.2797812510626935e-16 4.2563939339125396e-18 1.2797812510626935e-16 4.2563939339125396e-18 -0.9462889424522103 -0.323322188215551
12663577333.333334 -0.9499664101140561 -0.3123520764375172 1.2799409110016232e-16 2.763609681565429e-18 1.2799409110016232e-16 2.763609681565429e-18 -0.949966196263247 -0.3123527268281051
12664194666.666666 -0.953516502185297 -0.3013408038419819 1.2799265477686638e-16 1.2710317950760174e-18 1.2799265477686638e-16 1.2710317950760174e-18 -0.9535162958833664 -0.3013414566313103
12664812000.0 -0.9569389648534503 -0.29028919639735457 1.2797382311623703e-16 -2.2113697325092816e-19 1.2797382311623703e-16 -2.2113697325092816e-19 -0.9569387661272745 -0.2902898514978171
12665429333.333334 -0.9602333400176288 -0.27919873337535944 1.2793760545900422e-16 -1.7126940057611091e-18 1.2793760545900422e-16 -1.7126940057611091e-18 -0.960233148893067 -0.27919939069904887
12666046666.666666 -0.9633991867215623 -0.2680708992487775 1.2788401350458403e-16 -3.2034368468850915e-18 1.2788401350458403e-16 -3.2034368468850915e-18 -0.9633990032234555 -0.26807155870749805
12666664000.0 -0.9664360812127458 -0.25690718349234054 1.278130613085675e-16 -4.693163230634492e-18 1.278130613085675e-16 -4.693163230634492e-18 -0.9664359053649108 -0.25690784499761893
12667281333.333334 -0.9693436169990376 -0.24570908038377176 1.277247652798951e-16 -6.181671107952673e-18 1.277247652798951e-16 -6.181671107952673e-18 -0.9693434488242654 -0.24570974384686964
12667898666.666666 -0.9721214049031486 -0.23447808880350174 1.2761914417770892e-16 -7.66875867411252e-18 1.2761914417770892e-16 -7.66875867411252e-18 -0.9721212444232008 -0.23447875413542732
12668516000.0 -0.9747690731147307 -0.2232157120340407 1.2749621910788654e-16 -9.154224396052113e-18 1.2749621910788654e-16 -9.154224396052113e-18 -0.9747689203503362 -0.22321637914556045
12669133333.333334 -0.9772862672400743 -0.2119234575590374 1.2735601351926293e-16 -1.0637867039594015e-17 1.2735601351926293e-16 -1.0637867039594015e-17 -0.9772861222109287 -0.2119241263606887
12669750666.666666 -0.9796726503496404 -0.2006028368611149 1.271985531995278e-16 -1.2119485696718418e-17 1.271985531995278e-16 -1.2119485696718418e-17 -0.9796725130744004 -0.2006035072632173
12670368000.0 -0.9819279030230896 -0.18925536521983197 1.2702386627081228e-16 -1.3598879812712556e-17 1.2702386627081228e-16 -1.3598879812712556e-17 -0.981927773519375 -0.18925603713250003
