! Parameters = {f0=12700.012000; bw=77.238000; Q=6100.000000; N=10; m_0_1=1.298794; m_1_1=0.717161; m_1_2=1.133606; m_2_2=0.716512; m_2_3=0.770569; m_2_8=0.002003; m_2_9=0.038707; m_3_3=0.714575; m_3_4=0.659098; m_3_7=0.002603; m_3_8=-0.094485; m_3_9=0.002003; m_4_4=0.711650; m_4_5=0.495433; m_4_6=0.006120; m_4_7=-0.115034; m_4_8=0.002603; m_5_5=0.712032; m_5_6=0.902788; m_5_7=0.006120; m_6_6=0.712031; m_6_7=0.495775; m_7_7=0.711664; m_7_8=0.659216; m_8_8=0.714573; m_8_9=0.770882; m_9_9=0.716507; m_9_10=1.134684; m_10_10=0.717151; m_10_11=1.299589}
!
! Created with skrf (http://scikit-rf.org).
# Hz S RI R 50.0 
!freq ReS11 ImS11 ReS21 ImS21 ReS12 ImS12 ReS22 ImS22
12607400000.0 -0.6047052094147921 0.7964493767380485 4.4707370724048465e-17 -1.1827760893140634e-16 4.4707370724048465e-17 -1.1827760893140634e-16 -0.6047057543677188 0.7964489629815482
12608017333.333334 -0.5956073407697011 0.8032757282658678 4.3340175777921116e-17 -1.18759041777807e-16 4.3340175777921116e-17 -1.18759041777807e-16 -0.5956078903665027 0.8032753207543346
12608634666.666666 -0.5864324182329349 0.8099981597789515 4.196782136361672e-17 -1.1922468132632608e-16 4.196782136361672e-17 -1.1922468132632608e-16 -0.586432972402059 0.8099977585644917
12609252000.0 -0.5771816287669272 0.8166158015944666 4.0590489800764385e-17 -1.1967447258608505e-16 4.0590489800764385e-17 -1.1967447258608505e-16 -0.5771821874362372 0.8166154067283667
12609869333.333334 -0.567856169148991 0.8231277975862858 3.9208363991397556e-17 -1.201083626695754e-16 3.9208363991397556e-17 -1.201083626695754e-16 -0.5678567322457738 0.8231274091190055
12610486666.666666 -0.5584572458166983 0.8295333052955995 3.782162739571718e-17 -1.2052630079877736e-16 3.782162739571718e-17 -1.2052630079877736e-16 -0.5584578132676773 0.8295329232767673
12611104000.0 -0.5489860747114114 0.8358314960401846 3.643046400773952e-17 -1.2092823831101453e-16 3.643046400773952e-17 -1.2092823831101453e-16 -0.5489866464427516 0.8358311205185868
12611721333.333334 -0.5394438811213903 0.8420215550213114 3.503505833096929e-17 -1.2131412866450263e-16 3.503505833096929e-17 -1.2131412866450263e-16 -0.5394444570587117 0.842021186044892
12612338666.666666 -0.5298318995230251 0.8481026814293414 3.3635595353932824e-17 -1.2168392744364224e-16 3.3635595353932824e-17 -1.2168392744364224e-16 -0.5298324795914106 0.8481023190451918
12612956000.0 -0.5201513734211262 0.8540740885473186 3.2232260525688016e-17 -1.220375923640204e-16 3.2232260525688016e-17 -1.220375923640204e-16 -0.5201519575451309 0.8540737328016729
12613573333.333334 -0.5104035551882674 0.8599350038526126 3.082523973133215e-17 -1.2237508327711834e-16 3.082523973133215e-17 -1.2237508327711834e-16 -0.5104041432919307 0.8599346547908424
12614190666.666666 -0.5005897059025056 0.8656846691170285 2.9414719267361255e-17 -1.2269636217476307e-16 2.9414719267361255e-17 -1.2269636217476307e-16 -0.500590297909358 0.865684326783635
12614808000.0 -0.4907110951844474 0.8713223405047613 2.8000885817071884e-17 -1.230013931932733e-16 2.8000885817071884e-17 -1.230013931932733e-16 -0.490711691017523 0.8713220049433726
12615425333.333334 -0.4807690010328314 0.8768472886687327 2.6583926425883562e-17 -1.2329014261733204e-16 2.6583926425883562e-17 -1.2329014261733204e-16 -0.4807696006146761 0.8768469599220948
12616042666.666666 -0.4707647096592887 0.8822587988448859 2.5164028476630395e-17 -1.235625788835746e-16 2.5164028476630395e-17 -1.235625788835746e-16 -0.47076531291197143 0.8822584769548598
12616660000.0 -0.46069951532192077 0.8875561709446688 2.3741379664817756e-17 -1.2381867258389107e-16 2.3741379664817756e-17 -1.2381867258389107e-16 -0.46070012216704337 0.8875558559522251
12617277333.333334 -0.4505747201578375 0.8927387196456211 2.2316167973840853e-17 -1.2405839646844708e-16 2.2316167973840853e-17 -1.2405839646844708e-16 -0.4505753305165439 0.8927384115908323
12617894666.666666 -0.440391634014823 0.8978057744799649 2.0888581650217328e-17 -1.24281725448412e-16 2.0888581650217328e-17 -1.24281725448412e-16 -0.4403922478078119 0.897805473402005
12618512000.0 -0.43015157428157913 0.9027566799215034 1.945880917868208e-17 -1.244886365984215e-16 1.945880917868208e-17 -1.244886365984215e-16 -0.4301521914291111 0.9027563858586372
12619129333.333334 -0.4198558657177491 0.9075907954701915 1.8027039257437246e-17 -1.2467910915872582e-16 1.8027039257437246e-17 -1.2467910915872582e-16 -0.41985648613965987 0.9075905084597747
12619746666.666666 -0.40950584028212866 0.9123074957352062 1.6593460773210523e-17 -1.2485312453708129e-16 1.6593460773210523e-17 -1.2485312453708129e-16 -0.4095064638978376 0.9123072158136779
12620364000.0 -0.39910283696044796 0.9169061705157941 1.515826277639038e-17 -1.2501066631033993e-16 1.515826277639038e-17 -1.2501066631033993e-16 -0.39910346368896893 0.9169058977186716
12620981333.333334 -0.38864820159235497 0.9213862248801229 1.3721634456160462e-17 -1.2515172022575553e-16 1.3721634456160462e-17 -1.2515172022575553e-16 -0.38864883135230766 0.9213859592420001
12621598666.666666 -0.3781432866970458 0.925747079242366 1.2283765115561389e-17 -1.2527627420201068e-16 1.2283765115561389e-17 -1.2527627420201068e-16 -0.3781439194066656 0.9257468207969072
12622216000.0 -0.36758945129839105 0.9299881694376346 1.084484414660061e-17 -1.2538431832995088e-16 1.084484414660061e-17 -1.2538431832995088e-16 -0.3675900868755396 0.9299879182175695
12622833333.333334 -0.35698806074917233 0.9341089467949443 9.405061005332073e-18 -1.2547584487303873e-16 9.405061005332073e-18 -1.2547584487303873e-16 -0.35698869911134845 0.9341087028320653
12623450666.666666 -0.34634048655439326 0.9381088782082183 7.96460518697621e-18 -1.2555084826751707e-16 7.96460518697621e-18 -1.2555084826751707e-16 -0.3463411276187432 0.9381086415333747
12624068000.0 -0.3356481061938208 0.9419874462052654 6.523666200976906e-18 -1.2560932512229324e-16 6.523666200976906e-18 -1.2560932512229324e-16 -0.3356487498771497 0.9419872168483621
12624685333.333334 -0.3249123029437266 0.9457441490147432 5.082433546116186e-18 -1.2565127421853294e-16 5.082433546116186e-18 -1.2565127421853294e-16 -0.324912949162509 0.9457439270047348
12625302666.666666 -0.3141344656981995 0.9493785006309772 3.641096685661553e-18 -1.2567669650897032e-16 3.641096685661553e-18 -1.2567669650897032e-16 -0.3141351143685903 0.9493782859958664
12625920000.0 -0.3033159887890357 0.9528900308769878 2.1998450224419457e-18 -1.2568559511693446e-16 2.1998450224419457e-18 -1.2568559511693446e-16 -0.3033166398268803 0.9528898236438184
12626537333.333334 -0.2924582718058359 0.9562782854651463 7.588678740414211e-19 -1.256779753350899e-16 7.588678740414211e-19 -1.256779753350899e-16 -0.29245892512668226 0.9562780856600042
12627154666.666666 -0.2815627194146198 0.9595428260560653 -6.816455520362983e-19 -1.2565384462389304e-16 -6.816455520362983e-19 -1.2565384462389304e-16 -0.28156337493372824 0.9595426337040709
12627772000.0 -0.27063074117604585 0.9626832303153099 -2.121506183236231e-18 -1.2561321260976457e-16 -2.121506183236231e-18 -1.2561321260976457e-16 -0.27063139880840115 0.9626830454406186
12628389333.333334 -0.2596637513634117 0.965699091967936 -3.560525106632426e-18 -1.2555609108297914e-16 -3.560525106632426e-18 -1.2555609108297914e-16 -0.25966441102373333 0.965698914593733
12629006666.666666 -0.24866316877927913 0.9685900208511667 -4.998513593770412e-18 -1.2548249399526878e-16 -4.998513593770412e-18 -1.2548249399526878e-16 -0.24866383038203257 0.9685898509996644
12629624000.0 -0.23763041657222445 0.9713556429647833 -6.435283125325799e-18 -1.2539243745714696e-16 -6.435283125325799e-18 -1.2539243745714696e-16 -0.2376310800316321 0.9713554806572186
12630241333.333334 -0.22656692205253243 0.9739956005195591 -7.870645415807868e-18 -1.2528593973494814e-16 -7.870645415807868e-18 -1.2528593973494814e-16 -0.22656758728258541 0.9739954457761927
12630858666.666666 -0.21547411650782242 0.9765095519834861 -9.30441243817644e-18 -1.251630212475867e-16 -9.30441243817644e-18 -1.251630212475867e-16 -0.21547478342229065 0.9765094048235959
12631476000.0 -0.2043534350174105 0.9788971721260624 -1.0736396448475667e-17 -1.2502370456303062e-16 -1.0736396448475667e-17 -1.2502370456303062e-16 -0.20435410352985448 0.9788970325679436
12632093333.333334 -0.19320631626712373 0.9811581520602601 -1.2166410010339222e-17 -1.2486801439450085e-16 -1.2166410010339222e-17 -1.2486801439450085e-16 -0.19320698629090616 0.981158020121225
12632710666.666666 -0.1820342023629845 0.9832921992825369 -1.3594266019491862e-17 -1.2469597759638728e-16 -1.3594266019491862e-17 -1.2469597759638728e-16 -0.18203487381128064 0.9832920749789084
12633328000.0 -0.1708385386445039 0.9852990377106975 -1.5019777728250794e-17 -1.2450762315987834e-16 -1.5019777728250794e-17 -1.2450762315987834e-16 -0.17083921143031341 0.9852989210578103
12633945333.333334 -0.15962077349794912 0.9871784077195638 -1.644275876983244e-17 -1.243029822083264e-16 -1.644275876983244e-17 -1.243029822083264e-16 -0.15962144753410692 0.9871782987317602
12634562666.666666 -0.14838235816879772 0.9889300661745927 -1.7863023182737996e-17 -1.2408208799232144e-16 -1.7863023182737996e-17 -1.2408208799232144e-16 -0.14838303336798567 0.9889299648652233
12635180000.0 -0.13712474657412965 0.9905537864633078 -1.928038543499813e-17 -1.238449758844942e-16 -1.928038543499813e-17 -1.238449758844942e-16 -0.13712542284888787 0.990553692844729
12635797333.333334 -0.1258493951143378 0.9920493585246516 -2.0694660448380267e-17 -1.2359168337404023e-16 -2.0694660448380267e-17 -1.2359168337404023e-16 -0.12585007237707538 0.9920492726082217
12636414666.666666 -0.11455776248493645 0.9934165888761178 -2.2105663622505562e-17 -1.2332225006097122e-16 -2.2105663622505562e-17 -1.2332225006097122e-16 -0.1145584406479436 0.9934165106721994
12637032000.0 -0.10325130948765393 0.99465530063882 -2.3513210858928967e-17 -1.230367176500856e-16 -2.3513210858928967e-17 -1.230367176500856e-16 -0.10325198846311283 0.9946552301567761
12637649333.333334 -0.09193149884153173 0.9957653335603557 -2.4917118585112264e-17 -1.2273512994467017e-16 -2.4917118585112264e-17 -1.2273512994467017e-16 -0.09193217854152806 0.99576527080855
12638266666.666666 -0.08059979499377727 0.9967465440355323 -2.6317203778318753e-17 -1.2241753283992914e-16 -2.6317203778318753e-17 -1.2241753283992914e-16 -0.08060047533031159 0.996746489021328
12638884000.0 -0.06925766393013846 0.9975988051249639 -2.7713283989457913e-17 -1.2208397431613486e-16 -2.7713283989457913e-17 -1.2208397431613486e-16 -0.06925834481513753 0.9975987578547216
12639501333.333334 -0.0579065729853332 0.9983220065714821 -2.910517736681382e-17 -1.217345044315133e-16 -2.910517736681382e-17 -1.217345044315133e-16 -0.05790725433066147 0.9983219670505608
12640118666.666666 -0.04654799065336194 0.998916054814392 -3.049270267967924e-17 -1.2136917531486194e-16 -3.049270267967924e-17 -1.2136917531486194e-16 -0.046548672370832905 0.9989160230471474
12640736000.0 -0.0351833863970742 0.9993808730016049 -3.187567934197127e-17 -1.2098804115788047e-16 -3.187567934197127e-17 -1.2098804115788047e-16 -0.03518406839846181 0.9993808489913885
12641353333.333334 -0.023814230458716328 0.9997164009995407 -3.325392743561527e-17 -1.2059115820726832e-16 -3.325392743561527e-17 -1.2059115820726832e-16 -0.023814912655766494 0.9997163847487018
12641970666.666666 -0.012441993669243605 0.999922595400939 -3.4627267733986924e-17 -1.20178584756516e-16 -3.4627267733986924e-17 -1.20178584756516e-16 -0.012442675973685481 0.9999225869108221
12642588000.0 -0.0010681472581516708 0.9999994295304634 -3.5995521725151e-17 -1.19750381137457e-16 -3.5995521725151e-17 -1.19750381137457e-16 -0.0010688295817091573 0.9999994288014078
12643205333.333334 0.010305837336771503 0.9999468934481494 -3.7358511635014826e-17 -1.1930660971155242e-16 -3.7358511635014826e-17 -1.1930660971155242e-16 0.010305155082368348 0.9999469004794929
12643822666.666666 0.02167848865994803 0.9997649939506967 -3.871606045043986e-17 -1.1884733486089132e-16 -3.871606045043986e-17 -1.1884733486089132e-16 0.021677806562951596 0.9997650087407718
12644440000.0 0.03304833542823065 0.999453754570585 -4.006799194212953e-17 -1.1837262297896628e-16 -4.006799194212953e-17 -1.1837262297896628e-16 0.03304765357686433 0.9994537771167205
12645057333.333334 0.04441390672129984 0.9990132155730309 -4.141413068750981e-17 -1.1788254246115456e-16 -4.141413068750981e-17 -1.1788254246115456e-16 0.04441322520374668 0.9990132458715534
12645674666.666666 0.055773732171815395 0.9984434339507885 -4.2754302093437834e-17 -1.1737716369495954e-16 -4.2754302093437834e-17 -1.1737716369495954e-16 0.055773051076206615 0.9984434719970214
12646292000.0 0.06712634215614906 0.9977444834167473 -4.4088332418835596e-17 -1.1685655904997707e-16 -4.4088332418835596e-17 -1.1685655904997707e-16 0.06712566157055268 0.9977445292050123
12646909333.333334 0.07847026798374394 0.9969164543944375 -4.54160487971338e-17 -1.1632080286763375e-16 -4.54160487971338e-17 -1.1632080286763375e-16 0.07846958799615342 0.9969165079180552
12647526666.666666 0.08980404208771534 0.995959454006299 -4.6737279258667963e-17 -1.1576997145063968e-16 -4.6737279258667963e-17 -1.1576997145063968e-16 0.08980336278603819 0.9959595152575907
12648144000.0 0.10112619821453979 0.9948736060598304 -4.8051852752911634e-17 -1.1520414305220248e-16 -4.8051852752911634e-17 -1.1520414305220248e-16 0.10112551968658628 0.9948736750301184
12648761333.333334 0.11243527161366004 0.9936590510315798 -4.93595991705736e-17 -1.1462339786499153e-16 -4.93595991705736e-17 -1.1462339786499153e-16 0.11243459394713168 0.9936591277111881
12649378666.666666 0.12372979922698006 0.9923159460489729 -5.0660349365560193e-17 -1.1402781800985478e-16 -5.0660349365560193e-17 -1.1402781800985478e-16 0.12372912250945851 0.9923160304272303
12649996000.0 0.13500831987831116 0.9908444648699677 -5.1953935176850584e-17 -1.1341748752426377e-16 -5.1953935176850584e-17 -1.1341748752426377e-16 0.13500764419724656 0.9908445569352067
12650613333.333334 0.14626937446220664 0.9892447978605958 -5.324018945017632e-17 -1.1279249235053842e-16 -5.324018945017632e-17 -1.1279249235053842e-16 0.14626869990490676 0.9892448976001567
12651230666.666666 0.1575115061327841 0.9875171519703335 -5.4518946059572905e-17 -1.1215292032382028e-16 -5.4518946059572905e-17 -1.1215292032382028e-16 0.15751083278640257 0.987517259370564
12651848000.0 0.16873326049236564 0.9856617507052977 -5.57900399288296e-17 -1.1149886115978162e-16 -5.57900399288296e-17 -1.1149886115978162e-16 0.16873258844389105 0.9856618657515569
12652465333.333334 0.17993318577940925 0.9836788340993667 -5.705330705273572e-17 -1.1083040644212106e-16 -5.705330705273572e-17 -1.1083040644212106e-16 0.1799325151156539 0.983678956776026
12653082666.666666 0.1911098330563242 0.9815686586831311 -5.830858451818762e-17 -1.1014764960981399e-16 -5.830858451818762e-17 -1.1014764960981399e-16 0.19110916386391263 0.9815687889735756
12653700000.0 0.20226175639722757 0.9793314974506462 -5.955571052522551e-17 -1.0945068594408129e-16 -5.955571052522551e-17 -1.0945068594408129e-16 0.20226108876258592 0.9793316353372796
12654317333.333334 0.21338751307450202 0.9769676398242144 -6.079452440776276e-17 -1.0873961255520307e-16 -6.079452440776276e-17 -1.0873961255520307e-16 0.21338684708384592 0.9769677852884568
12654934666.666666 0.22448566374588796 0.9744773916168531 -6.202486665431108e-17 -1.08014528369015e-16 -6.202486665431108e-17 -1.08014528369015e-16 0.2244849994852122 0.9744775446391473
12655552000.0 0.23555477264057914 0.9718610749927493 -6.324657892846434e-17 -1.072755341132146e-16 -6.324657892846434e-17 -1.072755341132146e-16 0.2355541101956464 0.9718612355525629
12656169333.333334 0.24659340774474794 0.9691190284256364 -6.445950408921248e-17 -1.0652273230344367e-16 -6.445950408921248e-17 -1.0652273230344367e-16 0.24659274720107768 0.9691191965014635
12656786666.666666 0.2576001409870821 0.9662516066549396 -6.56634862111441e-17 -1.0575622722910739e-16 -6.56634862111441e-17 -1.0575622722910739e-16 0.25759948242993946 0.966251782224304
12657404000.0 0.2685735484233964 0.9632591806399161 -6.685837060443701e-17 -1.0497612493899444e-16 -6.685837060443701e-17 -1.0497612493899444e-16 0.26857289193778117 0.9632593636793749
12658021333.333334 0.2795122104209304 0.9601421375116406 -6.804400383470206e-17 -1.0418253322665614e-16 -6.804400383470206e-17 -1.0418253322665614e-16 0.27951155609156614 0.9601423279967863
12658638666.666666 0.290414711841762 0.9569008805229954 -6.922023374261911e-17 -1.033755616155854e-16 -6.922023374261911e-17 -1.033755616155854e-16 0.2904140597530849 0.9569010784284593
12659256000.0 0.3012796422263201 0.9535358289963716 -7.038690946347194e-17 -1.0255532134412626e-16 -7.038690946347194e-17 -1.0255532134412626e-16 0.3012789924624686 0.9535360342958291
12659873333.333334 0.31210559597550175 0.9500474182695272 -7.154388144641936e-17 -1.0172192535021939e-16 -7.154388144641936e-17 -1.0172192535021939e-16 0.3121049486203052 0.950047630935699
12660490666.666666 0.3228911725325434 0.9464360996392616 -7.26910014736286e-17 -1.0087548825590508e-16 -7.26910014736286e-17 -1.0087548825590508e-16 0.32289052766951093 0.9464363196439166
12661108000.0 0.3336349765644798 0.9427023403029386 -7.382812267925083e-17 -1.0001612635159029e-16 -7.382812267925083e-17 -1.0001612635159029e-16 0.33363433427679096 0.9427025676169017
12661725333.333334 0.3443356181423098 0.9388466232981671 -7.495509956814387e-17 -9.914395758015402e-17 -7.495509956814387e-17 -9.914395758015402e-17 0.3443349785128024 0.9388468578913199
12662342666.666666 0.35499171292100046 0.9348694474402462 -7.607178803447817e-17 -9.825910152078859e-17 -7.607178803447817e-17 -9.825910152078859e-17 0.3549910760321603 0.9348696892815308
12662960000.0 0.3656018823186049 0.9307713272576186 -7.717804538011079e-17 -9.73616793726643e-17 -7.717804538011079e-17 -9.73616793726643e-17 0.3656012482525554 0.9307715763150431
12663577333.333334 0.376164753694532 0.9265527929253407 -7.827373033277054e-17 -9.645181393838611e-17 -7.827373033277054e-17 -9.645181393838611e-17 0.3761641225330228 0.9265530491659814
12664194666.666666 0.3866789605271492 0.922214390196478 -7.93587030640733e-17 -9.552962960722586e-17 -7.93587030640733e-17 -9.552962960722586e-17 0.3866783323515469 0.9222146535864867
12664812000.0 0.39714314259057165 0.9177566803315035 -8.043282520731344e-17 -9.459525233817521e-17 -8.043282520731344e-17 -9.459525233817521e-17 0.3971425174818488 0.9177569508361111
12665429333.333334 0.40755594613068735 0.9131802400256681 -8.149595987507271e-17 -9.364880964278546e-17 -8.149595987507271e-17 -9.364880964278546e-17 0.40755532416941154 0.9131805176091873
12666046666.666666 0.417916024040058 0.9084856613344912 -8.254797167660919e-17 -9.269043056782637e-17 -8.254797167660919e-17 -9.269043056782637e-17 0.4179154053063812 0.9084859459603214
12666664000.0 0.428222036032635 0.9036735515969705 -8.358872673508494e-17 -9.17202456777123e-17 -8.358872673508494e-17 -9.17202456777123e-17 0.42822142060628515 0.9036738432276064
12667281333.333334 0.43847264881668835 0.8987445333572238 -8.461809270452326e-17 -9.073838703679565e-17 -8.461809270452326e-17 -9.073838703679565e-17 0.43847203677695695 0.8987448319542559
12667898666.666666 0.4486665362675787 0.8936992442838196 -8.563593878662049e-17 -8.974498819141291e-17 -8.563593878662049e-17 -8.974498819141291e-17 0.4486659276933117 0.8936995498079414
12668516000.0 0.458802379599316 0.8885383370872764 -8.664213574732353e-17 -8.874018415176334e-17 -8.664213574732353e-17 -8.874018415176334e-17 0.4588017745689031 0.8885386494982884
12669133333.333334 0.46887886753494357 0.8832624794357369 -8.763655593316241e-17 -8.772411137363912e-17 -8.763655593316241e-17 -8.772411137363912e-17 0.4688782661263088 0.8832627986925542
12669750666.666666 0.4788946964764575 0.8778723538684533 -8.861907328743967e-17 -8.669690773989926e-17 -8.861907328743967e-17 -8.669690773989926e-17 0.4788940987670483 0.877872679929108
