! Parameters = {f0=12700.012000; bw=77.238000; Q=6100.000000; N=10; m_0_1=1.191286; m_1_1=-0.895451; m_1_2=1.026098; m_2_2=-0.896100; m_2_3=0.663061; m_2_8=-0.003372; m_2_9=0.033332; m_3_3=-0.898037; m_3_4=0.551590; m_3_7=-0.002772; m_3_8=-0.099860; m_3_9=-0.003372; m_4_4=-0.900962; m_4_5=0.387925; m_4_6=0.000745; m_4_7=-0.120409; m_4_8=-0.002772; m_5_5=-0.900580; m_5_6=0.795280; m_5_7=0.000745; m_6_6=-0.900581; m_6_7=0.388267; m_7_7=-0.900948; m_7_8=0.551708; m_8_8=-0.898039; m_8_9=0.663374; m_9_9=-0.896105; m_9_10=1.027176; m_10_10=-0.895461; m_10_11=1.192081}
!
! Created with skrf (http://scikit-rf.org).
# Hz S RI R 50.0 
!freq ReS11 ImS11 ReS21 ImS21 ReS12 ImS12 ReS22 ImS22
12607400000.0 -0.3660876203491307 -0.9305803856878538 4.6241616828664695e-17 5.92371947099046e-17 4.6241616828664695e-17 5.92371947099046e-17 -0.36608703615288873 -0.9305806155087469
12608017333.333334 -0.3737022413756175 -0.9275487236747648 4.672163061139329e-17 5.88405432333204e-17 4.672163061139329e-17 5.88405432333204e-17 -0.3737016591110942 -0.9275489582644467
12608634666.666666 -0.3812917595394374 -0.9244547550351849 4.719824891920312e-17 5.844000769699049e-17 4.719824891920312e-17 5.844000769699049e-17 -0.381291179245555 -0.9244549943774324
12609252000.0 -0.3888556650266614 -0.9212986876016469 4.7671440371297747e-17 5.803561711162985e-17 4.7671440371297747e-17 5.803561711162985e-17 -0.38885508674220504 -0.9212989316799173
12609869333.333334 -0.3963934497438774 -0.918080733378058 4.814117383429683e-17 5.762740074109169e-17 4.814117383429683e-17 5.762740074109169e-17 -0.39639287350749364 -0.9180809821754922
12610486666.666666 -0.4039046073522172 -0.9148011085255063 4.8607418424268564e-17 5.721538810026681e-17 4.8607418424268564e-17 5.721538810026681e-17 -0.40390403320241164 -0.9148013620249316
12611104000.0 -0.4113886333015528 -0.9114600333476647 4.9070143508767993e-17 5.67996089529453e-17 4.9070143508767993e-17 5.67996089529453e-17 -0.4113880612766863 -0.9114602915315916
12611721333.333334 -0.4188450248641779 -0.9080577322760769 4.952931870881713e-17 5.638009330969705e-17 4.952931870881713e-17 5.638009330969705e-17 -0.41884445500246603 -0.9080579951267057
12612338666.666666 -0.42627328116873686 -0.9045944338550199 4.998491390090569e-17 5.595687142570274e-17 4.998491390090569e-17 5.595687142570274e-17 -0.42627271350824514 -0.9045947013542375
12612956000.0 -0.4336729032338927 -0.9010703707261328 5.0436899218956907e-17 5.552997379858227e-17 5.0436899218956907e-17 5.552997379858227e-17 -0.43367233781253595 -0.9010706428555171
12613573333.333334 -0.44104339400161574 -0.8974857796129034 5.088524505626144e-17 5.5099431166221267e-17 5.088524505626144e-17 5.5099431166221267e-17 -0.44104283085715323 -0.8974860563537201
12614190666.666666 -0.4483842583708271 -0.8938409013046383 5.132992206742233e-17 5.466527450455403e-17 5.132992206742233e-17 5.466527450455403e-17 -0.4483836975408634 -0.8938411826378491
12614808000.0 -0.45569500323053164 -0.8901359806403579 5.177090117025895e-17 5.42275350253512e-17 5.177090117025895e-17 5.42275350253512e-17 -0.4556944447525104 -0.8901362665466147
12615425333.333334 -0.4629751374929888 -0.8863712664923159 5.220815354769449e-17 5.378624417399111e-17 5.220815354769449e-17 5.378624417399111e-17 -0.46297458140419373 -0.8863715569519682
12616042666.666666 -0.470224172126604 -0.8825470117493431 5.2641650649637983e-17 5.334143362720259e-17 5.2641650649637983e-17 5.334143362720259e-17 -0.47022361846415306 -0.8825473067424335
12616660000.0 -0.4774416201889254 -0.8786634732997713 5.3071364194831866e-17 5.289313529080737e-17 5.3071364194831866e-17 5.289313529080737e-17 -0.47744106898977123 -0.8786637728060428
12617277333.333334 -0.4846269968592816 -0.8747209120142254 5.34972661726897e-17 5.244138129743894e-17 5.34972661726897e-17 5.244138129743894e-17 -0.484626448160207 -0.8747212160131174
12617894666.666666 -0.49177981947124677 -0.8707195927281483 5.3919328845104134e-17 5.198620400425729e-17 5.3919328845104134e-17 5.198620400425729e-17 -0.4917792733088632 -0.8707199011988017
12618512000.0 -0.4988996075453375 -0.8666597842238638 5.4337524748259085e-17 5.1527635990624774e-17 5.4337524748259085e-17 5.1527635990624774e-17 -0.4988990639560822 -0.8666600971451205
12619129333.333334 -0.5059858828209399 -0.8625417592127119 5.475182669438563e-17 5.106571005580581e-17 5.475182669438563e-17 5.106571005580581e-17 -0.5059853418410746 -0.8625420765631182
12619746666.666666 -0.5130381692887105 -0.8583657943165809 5.5162207773533515e-17 5.060045921661575e-17 5.5162207773533515e-17 5.060045921661575e-17 -0.5130376309543171 -0.8583661160743861
12620364000.0 -0.5200559932224493 -0.8541321700493757 5.556864135530813e-17 5.0131916705070795e-17 5.556864135530813e-17 5.0131916705070795e-17 -0.52005545756943 -0.854132496192538
12620981333.333334 -0.5270388832108526 -0.8498411707982271 5.597110109057625e-17 4.966011596603688e-17 5.597110109057625e-17 4.966011596603688e-17 -0.5270383502749239 -0.8498415013044085
12621598666.666666 -0.5339863701893213 -0.8454930848042916 5.636956091317217e-17 4.9185090654843095e-17 5.636956091317217e-17 4.9185090654843095e-17 -0.5339858400060152 -0.845493419650866
12622216000.0 -0.540897987471375 -0.8410882041434539 5.676399504157586e-17 4.870687463488879e-17 5.676399504157586e-17 4.870687463488879e-17 -0.5408974600760343 -0.8410885433075042
12622833333.333334 -0.5477732707800478 -0.8366268247066745 5.715437798056753e-17 4.8225501975242853e-17 5.715437798056753e-17 4.8225501975242853e-17 -0.5477727462078252 -0.8366271681649969
12623450666.666666 -0.5546117582789805 -0.832109246180177 5.754068452286025e-17 4.774100694823107e-17 5.754068452286025e-17 4.774100694823107e-17 -0.5546112365648355 -0.8321095939092814
12624068000.0 -0.5614129906035633 -0.8275357720252392 5.792288975072303e-17 4.725342402699774e-17 5.792288975072303e-17 4.725342402699774e-17 -0.5614124717822597 -0.8275361240013505
12624685333.333334 -0.5681765108918146 -0.8229067094577903 5.830096903757795e-17 4.6762787883060506e-17 5.830096903757795e-17 4.6762787883060506e-17 -0.5681759949979192 -0.8229070656568513
12625302666.666666 -0.57490186481486 -0.8182223694279209 5.867489804956251e-17 4.626913338387159e-17 5.867489804956251e-17 4.626913338387159e-17 -0.5749013518827388 -0.8182227298255924
12625920000.0 -0.5815886006077073 -0.8134830665988154 5.904465274710356e-17 4.5772495590323995e-17 5.904465274710356e-17 4.5772495590323995e-17 -0.5815880906715246 -0.8134834311704792
12626537333.333334 -0.5882362690994081 -0.8086891193257476 5.941020938643313e-17 4.5272909754294616e-17 5.941020938643313e-17 4.5272909754294616e-17 -0.5882357621931227 -0.8086894880465061
12627154666.666666 -0.5948444237432756 -0.8038408496346617 5.977154452111046e-17 4.477041131613974e-17 5.977154452111046e-17 4.477041131613974e-17 -0.5948439199006407 -0.8038412224793429
12627772000.0 -0.6014126206470428 -0.7989385832004245 6.012863500351629e-17 4.4265035902186835e-17 6.012863500351629e-17 4.4265035902186835e-17 -0.6014121199016017 -0.7989389601435807
12628389333.333334 -0.6079404186023574 -0.7939826493251825 6.048145798631375e-17 4.375681932223178e-17 6.048145798631375e-17 4.375681932223178e-17 -0.6079399209874429 -0.7939830303410939
12629006666.666666 -0.6144273791147643 -0.7889733809159898 6.082999092391189e-17 4.3245797566992e-17 6.082999092391189e-17 4.3245797566992e-17 -0.6144268846634945 -0.788973765978665
12629624000.0 -0.6208730664329299 -0.7839111144626129 6.117421157388162e-17 4.2732006805584175e-17 6.117421157388162e-17 4.2732006805584175e-17 -0.6208725751782088 -0.7839115035457925
12630241333.333334 -0.6272770475779627 -0.7787961900148973 6.151409799837011e-17 4.2215483382963024e-17 6.151409799837011e-17 4.2215483382963024e-17 -0.6272765595524746 -0.7787965830920525
12630858666.666666 -0.6336388923724948 -0.7736289511599231 6.184962856547956e-17 4.1696263817370255e-17 6.184962856547956e-17 4.1696263817370255e-17 -0.6336384076087052 -0.7736293482042608
12631476000.0 -0.6399581734697363 -0.7684097449988021 6.2180781950644e-17 4.117438479774236e-17 6.2180781950644e-17 4.117438479774236e-17 -0.6399576919998876 -0.7684101459832644
12632093333.333334 -0.6462344663819133 -0.7631389221235734 6.250753713795701e-17 4.064988318115043e-17 6.250753713795701e-17 4.064988318115043e-17 -0.6462339882380242 -0.7631393270208414
12632710666.666666 -0.6524673495089176 -0.7578168365935487 6.282987342149909e-17 4.012279599019534e-17 6.282987342149909e-17 4.012279599019534e-17 -0.6524668747227799 -0.757817245376043
12633328000.0 -0.658656404166734 -0.7524438459114358 6.31477704066439e-17 3.959316041039312e-17 6.31477704066439e-17 3.959316041039312e-17 -0.6586559327699111 -0.7524442585513186
12633945333.333334 -0.66480121461537 -0.7470203109994894 6.346120801132069e-17 3.906101378758374e-17 6.346120801132069e-17 3.906101378758374e-17 -0.6648007466391941 -0.7470207274686663
12634562666.666666 -0.67090136808691 -0.7415465961751535 6.377016646728177e-17 3.8526393625286924e-17 6.377016646728177e-17 3.8526393625286924e-17 -0.6709009035624813 -0.7415470164452767
12635180000.0 -0.67695645481314 -0.7360230691266879 6.407462632133061e-17 3.7989337582077314e-17 6.407462632133061e-17 3.7989337582077314e-17 -0.676955993771323 -0.7360234931691555
12635797333.333334 -0.6829660680532175 -0.7304501008883321 6.437456843653473e-17 3.744988346893676e-17 6.437456843653473e-17 3.744988346893676e-17 -0.6829656105246391 -0.7304505286742918
12636414666.666666 -0.6889298041208245 -0.7248280658155338 6.466997399341078e-17 3.690806924660875e-17 6.466997399341078e-17 3.690806924660875e-17 -0.6889293501358749 -0.7248284973158865
12637032000.0 -0.6948472624114367 -0.7191573415596739 6.496082449109769e-17 3.636393302292494e-17 6.496082449109769e-17 3.636393302292494e-17 -0.6948468120002635 -0.7191577767450723
12637649333.333334 -0.7007180454291445 -0.7134383090427688 6.524710174849674e-17 3.581751305014103e-17 6.524710174849674e-17 3.581751305014103e-17 -0.7007175986216527 -0.7134387478836215
12638266666.666666 -0.7065417588133766 -0.7076713524318662 6.552878790539494e-17 3.526884772225475e-17 6.552878790539494e-17 3.526884772225475e-17 -0.7065413156392263 -0.707671794898339
12638884000.0 -0.7123180113653907 -0.7018568591132384 6.580586542356461e-17 3.4717975572316844e-17 6.580586542356461e-17 3.4717975572316844e-17 -0.7123175718539954 -0.7018573051752567
12639501333.333334 -0.7180464150745732 -0.6959952196663416 6.607831708784145e-17 3.416493526973169e-17 6.607831708784145e-17 3.416493526973169e-17 -0.7180459792550965 -0.695995669293592
12640118666.666666 -0.7237265851444001 -0.6900868278376788 6.634612600717465e-17 3.360976561756118e-17 6.634612600717465e-17 3.360976561756118e-17 -0.7237261530457557 -0.6900872809996115
12640736000.0 -0.729358140018527 -0.6841320805141071 6.66092756156696e-17 3.305250554978789e-17 6.66092756156696e-17 3.305250554978789e-17 -0.729357711669375 -0.6841325371799375
12641353333.333334 -0.7349407014060599 -0.6781313776965452 6.686774967358094e-17 3.249319412862773e-17 6.686774967358094e-17 3.249319412862773e-17 -0.7349402768348068 -0.6781318378352569
12641970666.666666 -0.7404738943073055 -0.6720851224727553 6.712153226831446e-17 3.193187054176802e-17 6.712153226831446e-17 3.193187054176802e-17 -0.7404734735421007 -0.6720855860531015
12642588000.0 -0.745957347038781 -0.6659937209904522 6.737060781538268e-17 3.136857409964762e-17 6.737060781538268e-17 3.136857409964762e-17 -0.7459569301075158 -0.6659941879809582
12643205333.333334 -0.751390691258204 -0.6598575824300001 6.76149610593464e-17 3.0803344232710636e-17 6.76149610593464e-17 3.0803344232710636e-17 -0.7513902781885087 -0.6598580527989646
12643822666.666666 -0.7567735619893259 -0.6536771189768188 6.785457707473608e-17 3.023622048864716e-17 6.785457707473608e-17 3.023622048864716e-17 -0.7567731528085697 -0.6536775926923172
12644440000.0 -0.7621055976462833 -0.64745274579389 6.808944126694247e-17 2.966724252964443e-17 6.808944126694247e-17 2.966724252964443e-17 -0.7621051923815709 -0.647453222823776
12645057333.333334 -0.7673864400580165 -0.6411848809937192 6.831953937308938e-17 2.909645012961972e-17 6.831953937308938e-17 2.909645012961972e-17 -0.7673860387361878 -0.6411853613056273
12645674666.666666 -0.7726157344922567 -0.6348739456103365 6.854485746288242e-17 2.8523883171448385e-17 6.854485746288242e-17 2.8523883171448385e-17 -0.772615337139883 -0.6348744291716831
12646292000.0 -0.7777931296794973 -0.6285203635708374 6.876538193944012e-17 2.7949581644171976e-17 6.876538193944012e-17 2.7949581644171976e-17 -0.7777927363228817 -0.6285208503488249
12646909333.333334 -0.7829182778363567 -0.622124561667194 6.898109954008705e-17 2.73735856402373e-17 6.898109954008705e-17 2.73735856402373e-17 -0.7829178885015304 -0.6221250516288109
12647526666.666666 -0.7879908346891202 -0.615686969527364 6.919199733713756e-17 2.6795935352694217e-17 6.919199733713756e-17 2.6795935352694217e-17 -0.7879904494018418 -0.6156874626393886
12648144000.0 -0.7930104594968451 -0.6092080195864524 6.939806273865553e-17 2.6216671072389492e-17 6.939806273865553e-17 2.6216671072389492e-17 -0.7930100782826001 -0.609208515815455
12648761333.333334 -0.7979768150741823 -0.6026881470577544 6.9599283489181e-17 2.563583318518075e-17 6.9599283489181e-17 2.563583318518075e-17 -0.7979764379581789 -0.6026886463700989
12649378666.666666 -0.8028895678140412 -0.596127789903497 6.979564767043998e-17 2.5053462169127177e-17 6.979564767043998e-17 2.5053462169127177e-17 -0.80288919482121 -0.5961282922653433
12649996000.0 -0.8077483877100186 -0.5895273888053976 6.998714370203442e-17 2.446959859166718e-17 6.998714370203442e-17 2.446959859166718e-17 -0.8077480188650117 -0.5895278941827045
12650613333.333334 -0.8125529483786182 -0.5828873871349947 7.017376034210181e-17 2.388428310680668e-17 7.017376034210181e-17 2.388428310680668e-17 -0.8125525837058051 -0.5828878954935209
12651230666.666666 -0.8173029270810358 -0.5762082309240453 7.035548668795191e-17 2.329755645230481e-17 7.035548668795191e-17 2.329755645230481e-17 -0.8173025666045048 -0.5762087422293538
12651848000.0 -0.8219980047450262 -0.5694903688343131 7.053231217668857e-17 2.2709459446826826e-17 7.053231217668857e-17 2.2709459446826826e-17 -0.8219976484885815 -0.5694908830517723
12652465333.333334 -0.8266378659861857 -0.5627342521276367 7.070422658579575e-17 2.2120032987130684e-17 7.070422658579575e-17 2.2120032987130684e-17 -0.8266375139733452 -0.562734769222422
12653082666.666666 -0.8312221991291395 -0.5559403346356183 7.087122003370678e-17 2.1529318045229413e-17 7.087122003370678e-17 2.1529318045229413e-17 -0.8312218513831334 -0.5559408545727155
12653700000.0 -0.8357506962286363 -0.5491090727289024 7.10332829803522e-17 2.093735566553905e-17 7.10332829803522e-17 2.093735566553905e-17 -0.8357503527724068 -0.54910959547311
12654317333.333334 -0.84022305309003 -0.5422409252868278 7.119040622767682e-17 2.0344186962051447e-17 7.119040622767682e-17 2.0344186962051447e-17 -0.8402227139462279 -0.5422414508027587
12654934666.666666 -0.8446389692898059 -0.5353363536664593 7.134258092013995e-17 1.974985311547459e-17 7.134258092013995e-17 1.974985311547459e-17 -0.8446386344807914 -0.5353368819185444
12655552000.0 -0.8489981481958562 -0.5283958216714558 7.148979854519002e-17 1.9154395370379943e-17 7.148979854519002e-17 1.9154395370379943e-17 -0.8489978177436952 -0.5283963526239455
12656169333.333334 -0.8533002969872042 -0.5214197955212252 7.163205093370957e-17 1.8557855032366665e-17 7.163205093370957e-17 1.8557855032366665e-17 -0.8532999709136677 -0.5214203291381911
12656786666.666666 -0.8575451266738413 -0.5144087438193402 7.176933026044709e-17 1.7960273465184223e-17 7.176933026044709e-17 1.7960273465184223e-17 -0.8575448050004051 -0.5144092800646801
12657404000.0 -0.8617323521160672 -0.5073631375221864 7.190162904441672e-17 1.7361692087882547e-17 7.190162904441672e-17 1.7361692087882547e-17 -0.8617320348639086 -0.5073636763596236
12658021333.333334 -0.8658616920436685 -0.5002834499072721 7.202894014927822e-17 1.676215237194536e-17 7.202894014927822e-17 1.676215237194536e-17 -0.8658613792336659 -0.5002839913003603
12658638666.666666 -0.8699328690747582 -0.49317015654153895 7.215125678369001e-17 1.6161695838433214e-17 7.215125678369001e-17 1.6161695838433214e-17 -0.8699325607274901 -0.4931707004536632
12659256000.0 -0.8739456097344938 -0.48602373524926695 7.226857250164327e-17 1.556036405510382e-17 7.226857250164327e-17 1.556036405510382e-17 -0.8739453058702372 -0.4860242816436472
12659873333.333334 -0.8778996444734045 -0.4788446660800521 7.23808812027677e-17 1.495819863354867e-17 7.23808812027677e-17 1.495819863354867e-17 -0.8778993451121313 -0.47884521491974424
12660490666.666666 -0.8817947076854407 -0.47163343127665813 7.2488177132614e-17 1.4355241226329986e-17 7.2488177132614e-17 1.4355241226329986e-17 -0.8817944128468211 -0.4716339825245587
12661108000.0 -0.88563053772597 -0.4643905152423502 7.259045488291739e-17 1.3751533524084887e-17 7.259045488291739e-17 1.3751533524084887e-17 -0.8856302474293664 -0.4643910688611963
12661725333.333334 -0.88940687692916 -0.45711640450870394 7.268770939182872e-17 1.3147117252679822e-17 7.268770939182872e-17 1.3147117252679822e-17 -0.889406591193629 -0.45711696046107797
12662342666.666666 -0.8931234716254352 -0.44981158770264923 7.277993594413016e-17 1.254203417031194e-17 7.277993594413016e-17 1.254203417031194e-17 -0.8931231904697244 -0.44981214595097996
12662960000.0 -0.8967800721584497 -0.44247655551377196 7.286713017142187e-17 1.1936326064642492e-17 7.286713017142187e-17 1.1936326064642492e-17 -0.8967797956009989 -0.4424771160203383
12663577333.333334 -0.900376432901886 -0.4351118006613034 7.294928805228677e-17 1.1330034749916982e-17 7.294928805228677e-17 1.1330034749916982e-17 -0.9003761609608227 -0.43511236338823567
12664194666.666666 -0.9039123122759009 -0.42771781786112323 7.302640591243072e-17 1.072320206408653e-17 7.302640591243072e-17 1.072320206408653e-17 -0.903912044969041 -0.4277183827704064
12664812000.0 -0.9073874727634288 -0.42029510379237506 7.309848042479945e-17 1.011586986592892e-17 7.309848042479945e-17 1.011586986592892e-17 -0.9073872101082764 -0.4202956708458516
12665429333.333334 -0.9108016809261017 -0.41284415706417993 7.31655086096716e-17 9.508080032167122e-18 7.31655086096716e-17 9.508080032167122e-18 -0.9108014229398451 -0.41284472622355145
12666046666.666666 -0.9141547074198796 -0.40536547818224544 7.322748783472659e-17 8.899874454598207e-18 7.322748783472659e-17 8.899874454598207e-18 -0.9141544541193926 -0.4053660494090761
12666664000.0 -0.9174463270105866 -0.39785956951496104 7.328441581509121e-17 8.291295037199324e-18 7.328441581509121e-17 8.291295037199324e-18 -0.9174460784124265 -0.3978601427706799
12667281333.333334 -0.9206763185888786 -0.3903269352600151 7.333629061335932e-17 7.682383693265384e-18 7.333629061335932e-17 7.682383693265384e-18 -0.9206760747092858 -0.3903275105059188
12667898666.666666 -0.9238444651852223 -0.3827680814102407 7.338311063959052e-17 7.0731823425179e-18 7.338311063959052e-17 7.0731823425179e-18 -0.9238442260401182 -0.38276865860749587
12668516000.0 -0.9269505539844235 -0.3751835157197299 7.342487465128363e-17 6.463732908224988e-18 7.342487465128363e-17 6.463732908224988e-18 -0.9269503195894094 -0.3751840948293757
12669133333.333334 -0.9299943763398902 -0.36757374766980533 7.346158175332517e-17 5.8540773143431534e-18 7.346158175332517e-17 5.8540773143431534e-18 -0.9299941467102477 -0.3675743286527564
12669750666.666666 -0.9329757277877125 -0.359939288434638 7.349323139791664e-17 5.2442574826204e-18 7.349323139791664e-17 5.2442574826204e-18 -0.9329755029384023 -0.3599398712516877
12670368000.0 -0.935894408060368 -0.35228065084699167 7.35198233844764e-17 4.634315329729936e-18 7.35198233844764e-17 4.634315329729936e-18 -0.9358941880060261 -0.3522812354588125
12670985333.333334 -0.9387502211001376 -0.3445983493638491 7.354135785951751e-17 4.0242927644032145e-18 7.354135785951751e-17 4.0242927644032145e-18 -0.9387500058550782 -0.34459893573099803
