! Parameters = {f0=12700.012000; bw=77.238000; Q=6100.000000; N=10; m_0_1=1.322618; m_1_1=1.074519; m_1_2=1.157430; m_2_2=1.073870; m_2_3=0.794393; m_2_8=0.003195; m_2_9=0.039899; m_3_3=1.071933; m_3_4=0.682922; m_3_7=0.003795; m_3_8=-0.093293; m_3_9=0.003195; m_4_4=1.069008; m_4_5=0.519257; m_4_6=0.007312; m_4_7=-0.113842; m_4_8=0.003795; m_5_5=1.069390; m_5_6=0.926612; m_5_7=0.007312; m_6_6=1.069389; m_6_7=0.519599; m_7_7=1.069022; m_7_8=0.683040; m_8_8=1.071931; m_8_9=0.794706; m_9_9=1.073865; m_9_10=1.158508; m_10_10=1.074509; m_10_11=1.323413}
!
! Created with skrf (http://scikit-rf.org).
# Hz S RI R 50.0 
!freq ReS11 ImS11 ReS21 ImS21 ReS12 ImS12 ReS22 ImS22
12607400000.0 0.9234909046660384 0.38362031880351494 -1.4007745317000704e-16 -1.4862187549451542e-17 -1.4007745317000704e-16 -1.4862187549451542e-17 0.9234906373845361 0.38362096223083514
12608017333.333334 0.9280569726972665 0.3724382572021757 -1.4022044970560353e-16 -1.3154209965244895e-17 -1.4022044970560353e-16 -1.3154209965244895e-17 0.9280567132193874 0.3724389037791783
12608634666.666666 0.9324876488354588 0.3612018615250021 -1.4034263236686084e-16 -1.1444953840989013e-17 -1.4034263236686084e-16 -1.1444953840989013e-17 0.9324873971982919 0.36120251115705576
12609252000.0 0.9367822867005265 0.34991277102149354 -1.4044399121859734e-16 -9.734672678550071e-18 -1.4044399121859734e-16 -9.734672678550071e-18 0.936782042940014 0.349913423613531
12609869333.333334 0.9409402597586843 0.3385726326286105 -1.4052451941142803e-16 -8.023620032231985e-18 -1.4052451941142803e-16 -8.023620032231985e-18 0.9409400239096135 0.3385732880851412
12610486666.666666 0.9449609614137814 0.32718310073069246 -1.4058421318157002e-16 -6.31204947124293e-18 -1.4058421318157002e-16 -6.31204947124293e-18 0.9449607335097845 0.327183758955818
12611104000.0 0.9488438050959431 0.3157458369177034 -1.4062307185019126e-16 -4.600214542146303e-18 -1.4062307185019126e-16 -4.600214542146303e-18 0.9488435851694881 0.3157464978151305
12611721333.333334 0.9525882243469438 0.30426250974338925 -1.4064109782230244e-16 -2.8883687313937786e-18 -1.4064109782230244e-16 -2.8883687313937786e-18 0.9525880124293337 0.3042631732164445
12612338666.666666 0.9561936729030144 0.29273479448137346 -1.406382965851952e-16 -1.17676542778594e-18 -1.406382965851952e-16 -1.17676542778594e-18 0.95619346902438 0.29273546043301724
12612956000.0 0.959659624774469 0.28116437288094326 -1.406146767064218e-16 5.343421149579969e-19 -1.406146767064218e-16 5.343421149579969e-19 0.9596594289637653 0.28116504121378366
12613573333.333334 0.962985574322393 0.26955293292186705 -1.405702498313232e-16 2.2447008156197794e-18 -1.405702498313232e-16 2.2447008156197794e-18 0.9629853866073949 0.2695536035381742
12614190666.666666 0.9661710363325132 0.25790216856778536 -1.4050503068009966e-16 3.954057802877556e-18 -1.4050503068009966e-16 3.954057802877556e-18 0.9661708567398132 0.2579028413695063
12614808000.0 0.969215546085893 0.24621377951941065 -1.4041903704442997e-16 5.6621604526356386e-18 -1.4041903704442997e-16 5.6621604526356386e-18 0.9692153746408946 0.2462144544081829
12615425333.333334 0.9721186594267938 0.23448947096631514 -1.4031228978363516e-16 7.368756425327005e-18 -1.4031228978363516e-16 7.368756425327005e-18 0.9721184961537103 0.23449014784348146
12616042666.666666 0.974879952827422 0.22273095333835766 -1.4018481282039276e-16 9.073593703115239e-18 -1.4018481282039276e-16 9.073593703115239e-18 0.9748797977492719 0.22273163210498034
12616660000.0 0.9774990234497373 0.2109399420560704 -1.40036633135996e-16 1.0776420627094111e-17 -1.40036633135996e-16 1.0776420627094111e-17 0.9774988765883424 0.21094062261294605
12617277333.333334 0.9799754892042501 0.19911815728029084 -1.398677807651658e-16 1.247698593436372e-17 -1.398677807651658e-16 1.247698593436372e-17 0.9799753505802308 0.1991188395279644
12617894666.666666 0.9823089888056921 0.1872673236615157 -1.3967828879041196e-16 1.417503879504947e-17 -1.3967828879041196e-16 1.417503879504947e-17 0.9823088584384642 0.18726800750029512
12618512000.0 0.9844991818258124 0.17538917008787944 -1.3946819333594006e-16 1.5870328849306056e-17 -1.3946819333594006e-16 1.5870328849306056e-17 0.9844990597335862 0.17538985541785046
12619129333.333334 0.9865457487429525 0.16348542943337716 -1.3923753356112337e-16 1.7562606244102428e-17 -1.3923753356112337e-16 1.7562606244102428e-17 0.9865456349427297 0.16348611615441774
12619746666.666666 0.9884483909887336 0.15155783830469738 -1.3898635165351528e-16 1.925162167004833e-17 -1.3898635165351528e-16 1.925162167004833e-17 0.9884482854963037 0.15155852631649228
12620364000.0 0.9902068309915926 0.13960813678792713 -1.3871469282141934e-16 2.0937126398086212e-17 -1.3871469282141934e-16 2.0937126398086212e-17 0.9902067338215327 0.13960882598998273
12620981333.333334 0.991820812217235 0.12763806819500506 -1.384226052860269e-16 2.261887231600798e-17 -1.384226052860269e-16 2.261887231600798e-17 0.9918207233829065 0.12763875848666398
12621598666.666666 0.9932900992061152 0.11564937880902897 -1.3811014027309185e-16 2.4296611965000326e-17 -1.3811014027309185e-16 2.4296611965000326e-17 0.9932900187196616 0.11565007008948458
12622216000.0 0.9946144776077575 0.10364381762969122 -1.3777735200418201e-16 2.597009857596077e-17 -1.3777735200418201e-16 2.597009857596077e-17 0.9946144054801037 0.1036445097980026
12622833333.333334 0.995793754212046 0.09162313611795268 -1.3742429768748097e-16 2.763908610576456e-17 -1.3742429768748097e-16 2.763908610576456e-17 0.9957936904528969 0.09162382907305927
12623450666.666666 0.9968277569773821 0.07958908794080881 -1.3705103750815457e-16 2.9303329273386206e-17 -1.3705103750815457e-16 2.9303329273386206e-17 0.9968277015952208 0.07958978158154517
12624068000.0 0.997716335055811 0.06754342871522599 -1.3665763461828198e-16 3.0962583595890295e-17 -1.3665763461828198e-16 3.0962583595890295e-17 0.9977162880578975 0.06754412294033652
12624685333.333334 0.9984593588150289 0.0554879157519048 -1.3624415512634178e-16 3.261660542433288e-17 -1.3624415512634178e-16 3.261660542433288e-17 0.9984593202073985 0.05548861046005851
12625302666.666666 0.9990567198572627 0.04342430779939274 -1.3581066808629014e-16 3.426515197942085e-17 -1.3581066808629014e-16 3.426515197942085e-17 0.9990566896447276 0.043425002889198164
12625920000.0 0.9995083310351257 0.03135436478685233 -1.3535724548616812e-16 3.590798138718718e-17 -1.3535724548616812e-16 3.590798138718718e-17 0.999508309221273 0.03135506015687222
12626537333.333334 0.9998141264642979 0.01927984756790545 -1.3488396223632168e-16 3.754485271434837e-17 -1.3488396223632168e-16 3.754485271434837e-17 0.9998141130514887 0.019280543116671597
12627154666.666666 0.9999740615331558 0.00720251766349157 -1.34390896157166e-16 3.917552600362488e-17 -1.34390896157166e-16 3.917552600362488e-17 0.9999740565225254 0.0072032132895195914
12627772000.0 0.9999881129092779 -0.004875862995372097 -1.338781279665203e-16 4.079976230890243e-17 -1.338781279665203e-16 4.079976230890243e-17 0.9999881163007356 -0.004875167393567921
12628389333.333334 0.9998562785428445 -0.016953532324065834 -1.3334574126655392e-16 4.2417323730119906e-17 -1.3334574126655392e-16 4.2417323730119906e-17 0.9998562903350737 -0.016952836847957762
12629006666.666666 0.9995785776669384 -0.02902872834194504 -1.327938225302656e-16 4.4027973448133135e-17 -1.327938225302656e-16 4.4027973448133135e-17 0.9995785978573978 -0.029028033092977062
12629624000.0 0.9991550507947375 -0.0410996894291637 -1.3222246108757463e-16 4.563147575930652e-17 -1.3222246108757463e-16 4.563147575930652e-17 0.9991550793796626 -0.04109899450873685
12630241333.333334 0.9985857597136102 -0.05316465458367288 -1.3163174911098449e-16 4.722759610995629e-17 -1.3163174911098449e-16 4.722759610995629e-17 0.9985857966880086 -0.053163960093130194
12630858666.666666 0.9978707874760999 -0.06522186367804349 -1.3102178160083717e-16 4.881610113059943e-17 -1.3102178160083717e-16 4.881610113059943e-17 0.9978708328337585 -0.0652211697186555
12631476000.0 0.9970102383877926 -0.07726955771664434 -1.303926563701293e-16 5.0396758670076626e-17 -1.303926563701293e-16 5.0396758670076626e-17 0.9970102921212755 -0.07726886438959421
12632093333.333334 0.9960042379921272 -0.08930597909171832 -1.2974447402896503e-16 5.196933782935924e-17 -1.2974447402896503e-16 5.196933782935924e-17 0.9960043000927776 -0.08930528649808706
12632710666.666666 0.994852933052072 -0.10132937184005114 -1.2907733796856265e-16 5.353360899526204e-17 -1.2907733796856265e-16 5.353360899526204e-17 0.9948530035100118 -0.10132868008080277
12633328000.0 0.9935564915286839 -0.11333798189937012 -1.2839135434485484e-16 5.5089343873947976e-17 -1.2839135434485484e-16 5.5089343873947976e-17 0.9935565703328185 -0.11333729107533723
12633945333.333334 0.99211510255665 -0.12533005736381583 -1.2768663206172355e-16 5.663631552413677e-17 -1.2768663206172355e-16 5.663631552413677e-17 0.9921151896946686 -0.12532936757568483
12634562666.666666 0.9905289764166728 -0.13730384873974968 -1.269632827537905e-16 5.817429839020675e-17 -1.269632827537905e-16 5.817429839020675e-17 0.9905290718750486 -0.1373031600880457
12635180000.0 0.9887983445047829 -0.14925760920103887 -1.2622142076884472e-16 5.970306833499839e-17 -1.2622142076884472e-16 5.970306833499839e-17 0.9887984482687782 -0.14925692178611177
12635797333.333334 0.9869234592985996 -0.16118959484375586 -1.2546116314984617e-16 6.12224026724603e-17 -1.2546116314984617e-16 6.12224026724603e-17 0.9869235713522658 -0.16118890876576514
12636414666.666666 0.9849045943205069 -0.17309806494056457 -1.2468262961657125e-16 6.273208019999595e-17 -1.2468262961657125e-16 6.273208019999595e-17 0.9849047146466866 -0.1730973802994647
12637032000.0 0.9827420440977035 -0.18498128219492224 -1.238859425468356e-16 6.423188123064985e-17 -1.238859425468356e-16 6.423188123064985e-17 0.9827421726780367 -0.1849805990904488
12637649333.333334 0.9804361241192857 -0.1968375129942499 -1.2307122695734677e-16 6.572158762502067e-17 -1.2307122695734677e-16 6.572158762502067e-17 0.9804362609342085 -0.19683683152590428
12638266666.666666 0.9779871707902039 -0.20866502766295658 -1.2223861048418334e-16 6.720098282291992e-17 -1.2223861048418334e-16 6.720098282291992e-17 0.977987315818953 -0.20866434792999172
12638884000.0 0.9753955413821611 -0.22046210071486008 -1.2138822336287798e-16 6.866985187481169e-17 -1.2138822336287798e-16 6.866985187481169e-17 0.9753956946027783 -0.22046142281626635
12639501333.333334 0.9726616139815284 -0.23222701110477564 -1.20520198408122e-16 7.012798147300571e-17 -1.20520198408122e-16 7.012798147300571e-17 0.9726617753708607 -0.23222633513926574
12640118666.666666 0.9697857874342019 -0.2439580424795115 -1.1963467099312979e-16 7.157515998253676e-17 -1.1963467099312979e-16 7.157515998253676e-17 0.969785956967908 -0.24395736854550676
12640736000.0 0.966768481287291 -0.2556534834287883 -1.1873177902855796e-16 7.301117747191054e-17 -1.1873177902855796e-16 7.301117747191054e-17 0.9667686589398449 -0.25565281162440423
12641353333.333334 0.9636101357281183 -0.2673116277340852 -1.1781166294117002e-16 7.443582574339919e-17 -1.1781166294117002e-16 7.443582574339919e-17 0.9636103214728106 -0.26731095815711675
12641970666.666666 0.9603112115198336 -0.27893077461821675 -1.168744656520239e-16 7.584889836325442e-17 -1.168744656520239e-16 7.584889836325442e-17 0.9603114053287778 -0.27893010736612467
12642588000.0 0.9568721899342405 -0.29050922899326187 -1.1592033255436219e-16 7.725019069154269e-17 -1.1592033255436219e-16 7.725019069154269e-17 0.9568723917783762 -0.2905085641631582
12643205333.333334 0.9532935726816363 -0.30204530170769256 -1.1494941149114468e-16 7.863949991170772e-17 -1.1494941149114468e-16 7.863949991170772e-17 0.9532937825307333 -0.3020446393963262
12643822666.666666 0.9495758818375171 -0.31353730979312616 -1.1396185273218747e-16 8.001662505991065e-17 -1.1396185273218747e-16 8.001662505991065e-17 0.9495760996601816 -0.31353665009686954
12644440000.0 0.9457196597665158 -0.3249835767095237 -1.1295780895100476e-16 8.138136705400584e-17 -1.1295780895100476e-16 8.138136705400584e-17 0.9457198855301928 -0.32498291972435805
12645057333.333334 0.9417254690432365 -0.33638243258991185 -1.1193743520126698e-16 8.273352872228302e-17 -1.1193743520126698e-16 8.273352872228302e-17 0.9417257027142164 -0.33638177841141387
12645674666.666666 0.9375938923702005 -0.3477322144839422 -1.1090088889293093e-16 8.407291483189232e-17 -1.1090088889293093e-16 8.407291483189232e-17 0.9375941339136238 -0.3477315632072698
12646292000.0 0.9333255324927326 -0.35903126660078954 -1.0984832976800009e-16 8.539933211701244e-17 -1.0984832976800009e-16 8.539933211701244e-17 0.9333257818725941 -0.35903061832066785
12646909333.333334 0.9289210121112184 -0.37027794055017516 -1.0877991987602323e-16 8.671258930661945e-17 -1.0877991987602323e-16 8.671258930661945e-17 0.928921269290374 -0.3702772953608831
12647526666.666666 0.9243809737900874 -0.38147059558332796 -1.0769582354917034e-16 8.80124971520688e-17 -1.0769582354917034e-16 8.80124971520688e-17 0.9243812387302581 -0.38146995357868424
12648144000.0 0.9197060798641571 -0.3926075988321082 -1.0659620737704489e-16 8.929886845428237e-17 -1.0659620737704489e-16 8.929886845428237e-17 0.9197063525259358 -0.3926069601054579
12648761333.333334 0.9148970123419657 -0.40368732554732895 -1.0548124018114094e-16 9.057151809066269e-17 -1.0548124018114094e-16 9.057151809066269e-17 0.9148972926848226 -0.4036866901915296
12649378666.666666 0.909954472806352 -0.4147081593356021 -1.0435109298900791e-16 9.183026304165603e-17 -1.0435109298900791e-16 9.183026304165603e-17 0.9099547607886418 -0.41470752744301115
12649996000.0 0.9048791823120084 -0.42566849239538856 -1.0320593900805983e-16 9.307492241703847e-17 -1.0320593900805983e-16 9.307492241703847e-17 0.9048794778909729 -0.42566786405784784
12650613333.333334 0.8996718812803335 -0.43656672575142036 -1.0204595359909304e-16 9.430531748185284e-17 -1.0204595359909304e-16 9.430531748185284e-17 0.8996721844121144 -0.43656610106024607
12651230666.666666 0.8943333293914283 -0.4474012694879779 -1.0087131424952291e-16 9.552127168198794e-17 -1.0087131424952291e-16 9.552127168198794e-17 0.8943336400310662 -0.44740064853394385
12651848000.0 0.888864305473219 -0.4581705429809101 -9.968220054625368e-17 9.672261066949115e-17 -9.968220054625368e-17 9.672261066949115e-17 0.8888646235746661 -0.45816992585423716
12652465333.333334 0.8832656073878546 -0.46887297512820447 -9.847879414830037e-17 9.790916232749034e-17 -9.847879414830037e-17 9.790916232749034e-17 0.8832659329039778 -0.46887236191854553
12653082666.666666 0.8775380519153978 -0.4795070045790139 -9.72612787591178e-17 9.908075679477392e-17 -9.72612787591178e-17 9.908075679477392e-17 0.8775383847979873 -0.47950639537544215
12653700000.0 0.8716824746344826 -0.49007107996179056 -9.602984009856754e-17 1.0023722649009619e-16 -9.602984009856754e-17 1.0023722649009619e-16 0.8716828148342578 -0.49007047485278543
12654317333.333334 0.8656997298006281 -0.5005636601102106 -9.478466587470795e-17 1.0137840613602905e-16 -9.478466587470795e-17 1.0137840613602905e-16 0.8657000772672478 -0.5005630591836469
12654934666.666666 0.8595906902214245 -0.5109832142883604 -9.352594575520437e-17 1.0250413278255641e-16 -9.352594575520437e-17 1.0250413278255641e-16 0.8595910449034917 -0.5109826176314937
12655552000.0 0.8533562471292955 -0.5213282224138782 -9.225387133848819e-17 1.0361424583028712e-16 -9.225387133848819e-17 1.0361424583028712e-16 0.8533566089743647 -0.5213276301133323
12656169333.333334 0.8469973100514936 -0.5315971752796896 -9.096863612469507e-17 1.0470858705326378e-16 -9.096863612469507e-17 1.0470858705326378e-16 0.8469976790060791 -0.5315965874214439
12656786666.666666 0.8405148066773671 -0.5417885747742544 -8.967043548625058e-17 1.0578700062148577e-16 -8.967043548625058e-17 1.0578700062148577e-16 0.8405151826869536 -0.5417879914436335
12657404000.0 0.8339096827230577 -0.551900934100079 -8.835946663823413e-17 1.0684933312302834e-16 -8.835946663823413e-17 1.0684933312302834e-16 0.833910065732104 -0.5519003553817374
12658021333.333334 0.8271829017934466 -0.5619327779907342 -8.703592860848823e-17 1.0789543358579119e-16 -8.703592860848823e-17 1.0789543358579119e-16 0.8271832917453967 -0.5619322039686458
12658638666.666666 0.8203354452417551 -0.571882642925822 -8.570002220746603e-17 1.0892515349888383e-16 -8.570002220746603e-17 1.0892515349888383e-16 0.8203358420790453 -0.571882073683267
12659256000.0 0.8133683120261674 -0.5817490773447886 -8.435194999778247e-17 1.0993834683367057e-16 -8.435194999778247e-17 1.0993834683367057e-16 0.8133687156902369 -0.5817485129643434
12659873333.333334 0.8062825185641952 -0.5915306418585506 -8.299191626358959e-17 1.109348700643853e-16 -8.299191626358959e-17 1.109348700643853e-16 0.8062829289954903 -0.5915300824220721
12660490666.666666 0.7990790985845053 -0.6012259094593184 -8.162012697968188e-17 1.1191458218838995e-16 -8.162012697968188e-17 1.1191458218838995e-16 0.7990795157224929 -0.6012253550479357
12661108000.0 0.7917591029758156 -0.6108334657291962 -8.023678978031532e-17 1.1287734474608636e-16 -8.023678978031532e-17 1.1287734474608636e-16 0.7917595267589896 -0.6108329164232972
12661725333.333334 0.7843235996339365 -0.6203519090460458 -7.884211392788582e-17 1.1382302184037736e-16 -7.884211392788582e-17 1.1382302184037736e-16 0.7843240299998272 -0.6203513649252655
12662342666.666666 0.7767736733057232 -0.6297798507883081 -7.743631028127913e-17 1.147514801558113e-16 -7.743631028127913e-17 1.147514801558113e-16 0.7767741101909066 -0.6297793119315174
12662960000.0 0.769110425430944 -0.6391159155374262 -7.601959126408406e-17 1.156625889772765e-16 -7.601959126408406e-17 1.156625889772765e-16 0.7691108687710516 -0.6391153820227206
12663577333.333334 0.7613349739815068 -0.6483587412786136 -7.459217083251887e-17 1.1655622020835087e-16 -7.459217083251887e-17 1.1655622020835087e-16 0.7613354237112355 -0.648358213183302
12664194666.666666 0.7534484532984875 -0.6575069795994012 -7.315426444319834e-17 1.1743224838921883e-16 -7.315426444319834e-17 1.1743224838921883e-16 0.7534489093516068 -0.6575064569999933
12664812000.0 0.7454520139264957 -0.6665592958865275 -7.170608902063937e-17 1.182905507142266e-16 -7.170608902063937e-17 1.182905507142266e-16 0.7454524762358602 -0.6665587788587249
12665429333.333334 0.7373468224459352 -0.6755143695205109 -7.024786292460757e-17 1.1913100704900673e-16 -7.024786292460757e-17 1.1913100704900673e-16 0.7373472909434939 -0.6755138581391954
12666046666.666666 0.729134061302858 -0.6843708940682748 -6.877980591725238e-17 1.1995349994721189e-16 -6.877980591725238e-17 1.1995349994721189e-16 0.7291345359196632 -0.6843703884074964
12666664000.0 0.7208149286361879 -0.6931275774740296 -6.730213912999169e-17 1.2075791466687298e-16 -6.730213912999169e-17 1.2075791466687298e-16 0.7208154093024058 -0.6931270776069968
12667281333.333334 0.7123906381033129 -0.7017831422473502 -6.581508503032349e-17 1.2154413918628632e-16 -6.581508503032349e-17 1.2154413918628632e-16 0.712391124748234 -0.7017826482464187
12667898666.666666 0.7038624187027778 -0.7103363256498184 -6.431886738833999e-17 1.2231206421955553e-16 -6.431886738833999e-17 1.2231206421955553e-16 0.7038629112548276 -0.7103358375864819
12668516000.0 0.6952315145949257 -0.7187858798792973 -6.281371124309535e-17 1.230615832317021e-16 -6.281371124309535e-17 1.230615832317021e-16 0.6952320129816746 -0.7187853978241756
12669133333.333334 0.686499184920691 -0.7271305722516684 -6.129984286886588e-17 1.2379259245332987e-16 -6.129984286886588e-17 1.2379259245332987e-16 0.6864996890688652 -0.7271300962744983
12669750666.666666 0.6776667036176444 -0.7353691853809252 -5.977748974112115e-17 1.2450499089493456e-16 -5.977748974112115e-17 1.2450499089493456e-16 0.6776672134531389 -0.7353687155505516
12670368000.0 0.6687353592341639 -0.7435005173567562 -5.824688050243295e-17 1.2519868036074615e-16 -5.824688050243295e-17 1.2519868036074615e-16 0.6687358746820484 -0.7435000537411179
