! Parameters = {f0=12700.012000; bw=77.238000; Q=6100.000000; N=10; m_0_1=1.241937; m_1_1=-0.135692; m_1_2=1.076749; m_2_2=-0.136341; m_2_3=0.713712; m_2_8=-0.000839; m_2_9=0.035865; m_3_3=-0.138278; m_3_4=0.602241; m_3_7=-0.000239; m_3_8=-0.097327; m_3_9=-0.000839; m_4_4=-0.141203; m_4_5=0.438576; m_4_6=0.003278; m_4_7=-0.117876; m_4_8=-0.000239; m_5_5=-0.140821; m_5_6=0.845931; m_5_7=0.003278; m_6_6=-0.140822; m_6_7=0.438918; m_7_7=-0.141189; m_7_8=0.602359; m_8_8=-0.138280; m_8_9=0.714025; m_9_9=-0.136346; m_9_10=1.077827; m_10_10=-0.135702; m_10_11=1.242732}
!
! Created with skrf (http://scikit-rf.org).
# Hz S RI R 50.0 
!freq ReS11 ImS11 ReS21 ImS21 ReS12 ImS12 ReS22 ImS22
12607400000.0 0.4270238733900886 -0.9042403505455594 -1.475754564639914e-17 9.558026652689368e-17 -1.475754564639914e-17 9.558026652689368e-17 0.42702446510359854 -0.9042400711109949
12608017333.333334 0.4182388497993515 -0.9083370874946957 -1.3819179782990087e-17 9.570130363993224e-17 -1.3819179782990087e-17 9.570130363993224e-17 0.41823944416456715 -0.9083368138222437
12608634666.666666 0.40941452853322385 -0.9123484771871708 -1.2879858966774452e-17 9.581313501096405e-17 -1.2879858966774452e-17 9.581313501096405e-17 0.4094151254940416 -0.9123482093019799
12609252000.0 0.40055173872401695 -0.9162741427133024 -1.193967344405923e-17 9.591575354572949e-17 -1.193967344405923e-17 9.591575354572949e-17 0.4005523382240955 -0.9162738806399763
12609869333.333334 0.39165131311849005 -0.9201137152180662 -1.0998713508522055e-17 9.600915303403583e-17 -1.0998713508522055e-17 9.600915303403583e-17 0.39165191510125436 -0.9201134589806581
12610486666.666666 0.38271408799983914 -0.9238668339356512 -1.0057069492567991e-17 9.609332815000427e-17 -1.0057069492567991e-17 9.609332815000427e-17 0.3827146924084861 -0.9238665835576636
12611104000.0 0.37374090310867486 -0.9275331462235427 -9.114831758644886e-18 9.616827445223549e-17 -9.114831758644886e-18 9.616827445223549e-17 0.3737415098861803 -0.927532901727928
12611721333.333334 0.3647326015645944 -0.9311123075954661 -8.172090690627722e-18 9.62339883838852e-17 -8.172090690627722e-18 9.62339883838852e-17 0.36473321065371633 -0.9311120690046195
12612338666.666666 0.35569002978667197 -0.93460398175387 -7.228936685138556e-18 9.62904672726597e-17 -7.228936685138556e-18 9.62904672726597e-17 0.35569064112995663 -0.9346037490896297
12612956000.0 0.34661403741392743 -0.9380078406215206 -6.285460142893288e-18 9.633770933072538e-17 -6.285460142893288e-18 9.633770933072538e-17 0.34661465095371546 -0.9380076139051672
12613573333.333334 0.3375054772257084 -0.94132356437225 -5.341751460089786e-18 9.637571365453121e-17 -5.341751460089786e-18 9.637571365453121e-17 0.3375060929041396 -0.9413233436245025
12614190666.666666 0.32836520506140404 -0.9445508414610692 -4.397901019720367e-18 9.640448022455163e-17 -4.397901019720367e-18 9.640448022455163e-17 0.32836582282042254 -0.9445506267020832
12614808000.0 0.3191940797400017 -0.9476893686534447 -3.4539991829574094e-18 9.64240099049404e-17 -3.4539991829574094e-18 9.64240099049404e-17 0.3191946995213623 -0.9476891599028124
12615425333.333334 0.30999296297947476 -0.9507388510537679 -2.510136280514344e-18 9.64343044431032e-17 -2.510136280514344e-18 9.64343044431032e-17 0.30999358472474764 -0.9507386483305135
12616042666.666666 0.30076271931578696 -0.9536990021330654 -1.5664026040183405e-18 9.643536646918379e-17 -1.5664026040183405e-18 9.643536646918379e-17 0.3007633429663639 -0.9536988054556472
12616660000.0 0.2915042160216625 -0.9565695437559296 -6.228883973901782e-19 9.642719949546751e-17 -6.228883973901782e-19 9.642719949546751e-17 0.29150484151876155 -0.9565693531422342
12617277333.333334 0.28221832302504135 -0.9593502062066623 3.203161517734654e-19 9.640980791569988e-17 3.203161517734654e-19 9.640980791569988e-17 0.28221895030971317 -0.9593500216740054
12617894666.666666 0.2729059128275864 -0.9620407282145458 1.2631209207788192e-18 9.638319700432151e-17 1.2631209207788192e-18 9.638319700432151e-17 0.27290654184071933 -0.9620405497796706
12618512000.0 0.2635678604222406 -0.9646408569785305 2.205435860475489e-18 9.634737291561852e-17 2.205435860475489e-18 9.634737291561852e-17 0.2635684911045665 -0.9646406846576051
12619129333.333334 0.2542050432115033 -0.9671503481908436 3.14717100379064e-18 9.630234268279032e-17 3.14717100379064e-18 9.630234268279032e-17 0.2542056755036026 -0.9671501819994599
12619746666.666666 0.24481834092468885 -0.9695689660600297 4.088236474331423e-18 9.624811421693247e-17 4.088236474331423e-18 9.624811421693247e-17 0.24481897476699707 -0.9695688060132026
12620364000.0 0.23540863553526725 -0.9718964833331046 5.028542494945215e-18 9.61846963059361e-17 5.028542494945215e-18 9.61846963059361e-17 0.23540927086807986 -0.9718963294452705
12620981333.333334 0.2259768111782416 -0.9741326813168443 5.967999396242434e-18 9.611209861330563e-17 5.967999396242434e-18 9.611209861330563e-17 0.22597744794172003 -0.9741325336018595
12621598666.666666 0.2165237540667718 -0.9762773498984101 6.906517625157683e-18 9.603033167689091e-17 6.906517625157683e-18 9.603033167689091e-17 0.2165243922009488 -0.9762772083695493
12622216000.0 0.20705035240915481 -0.9783302875650307 7.844007753458078e-18 9.593940690753704e-17 7.844007753458078e-18 9.593940690753704e-17 0.2070509918539401 -0.978330152234986
12622833333.333334 0.19755749632514644 -0.9802913014229855 8.780380486241863e-18 9.583933658765245e-17 8.780380486241863e-18 9.583933658765245e-17 0.1975581370203326 -0.9802911723038653
12623450666.666666 0.18804607776254875 -0.9821602072156824 9.71554667043188e-18 9.573013386969308e-17 9.71554667043188e-18 9.573013386969308e-17 0.1880467196478167 -0.9821600843190107
12624068000.0 0.1785169904132354 -0.9839368293410055 1.0649417303249314e-17 9.56118127745633e-17 1.0649417303249314e-17 9.56118127745633e-17 0.17851763342816035 -0.9839367126777209
12624685333.333334 0.16897112962915262 -0.9856210008678185 1.1581903540672532e-17 9.548438818993462e-17 1.1581903540672532e-17 9.548438818993462e-17 0.1689717737132092 -0.9856208904482712
12625302666.666666 0.15940939233844253 -0.9872125635515988 1.2512916705844874e-17 9.534787586848621e-17 1.2512916705844874e-17 9.534787586848621e-17 0.15941003743101137 -0.9872124593855544
12625920000.0 0.14983267696086192 -0.9887113678493703 1.3442368297530933e-17 9.52022924260546e-17 1.3442368297530933e-17 9.52022924260546e-17 0.14983332300123436 -0.9887112699460036
12626537333.333334 0.14024188332358956 -0.9901172729337089 1.4370169998476894e-17 9.504765533971185e-17 1.4370169998476894e-17 9.504765533971185e-17 0.14024253025097397 -0.9901171813016052
12627154666.666666 0.13063791257662302 -0.9914301467059866 1.5296233683790695e-17 9.488398294575664e-17 1.5296233683790695e-17 9.488398294575664e-17 0.13063856033015056 -0.991430061353143
12627772000.0 0.12102166710790989 -0.9926498658088124 1.6220471429327306e-17 9.471129443761903e-17 1.6220471429327306e-17 9.471129443761903e-17 0.12102231562663983 -0.992649786742634
12628389333.333334 0.1113940504589534 -0.9937763156375685 1.7142795519970842e-17 9.4529609863698e-17 1.7142795519970842e-17 9.4529609863698e-17 0.11139469968187914 -0.9937762428648691
12629006666.666666 0.1017559672394647 -0.9948093903512335 1.8063118457984835e-17 9.43389501251018e-17 1.8063118457984835e-17 9.43389501251018e-17 0.10175661710551948 -0.9948093238782354
12629624000.0 0.09210832304278942 -0.9957489928822808 1.898135297126599e-17 9.413933697332123e-17 1.898135297126599e-17 9.413933697332123e-17 0.09210897349085202 -0.9957489327146138
12630241333.333334 0.08245202436047919 -0.9965950349458357 1.989741202161869e-17 9.393079300781347e-17 1.989741202161869e-17 9.393079300781347e-17 0.08245267532937962 -0.9965949810885358
12630858666.666666 0.07278797849740032 -0.9973474370479397 2.0811208812971873e-17 9.37133416735128e-17 2.0811208812971873e-17 9.37133416735128e-17 0.07278862992592572 -0.9973473895054508
12631476000.0 0.06311709348614412 -0.9980061284930533 2.1722656799617402e-17 9.348700725825029e-17 2.1722656799617402e-17 9.348700725825029e-17 0.06311774531304447 -0.9980060872692255
12632093333.333334 0.053440278002076444 -0.9985710473906667 2.2631669694344227e-17 9.325181489011193e-17 2.2631669694344227e-17 9.325181489011193e-17 0.0534409301660701 -0.9985710124887545
12632710666.666666 0.04375844127776006 -0.9990421406611296 2.353816147662173e-17 9.300779053469967e-17 2.353816147662173e-17 9.300779053469967e-17 0.04375909371753991 -0.9990421120837957
12633328000.0 0.03407249301749528 -0.9994193640406436 2.444204640072497e-17 9.275496099231936e-17 2.444204640072497e-17 9.275496099231936e-17 0.03407314567173415 -0.9994193417899541
12633945333.333334 0.024383343311928964 -0.9997026820854111 2.5343239003806877e-17 9.249335389509708e-17 2.5343239003806877e-17 9.249335389509708e-17 0.024383996119285548 -0.9997026661628379
12634562666.666666 0.01469190255251431 -0.9998920681749701 2.6241654113974465e-17 9.222299770400753e-17 2.6241654113974465e-17 9.222299770400753e-17 0.014692555451638955 -0.9998920585813914
12635180000.0 0.004999081345970553 -0.9999875045146953 2.7137206858318405e-17 9.194392170582914e-17 2.7137206858318405e-17 9.194392170582914e-17 0.004999734275510951 -0.9999875012503939
12635797333.333334 -0.004694209571305978 -0.9999889821374698 2.802981267091579e-17 9.165615601001897e-17 2.802981267091579e-17 9.165615601001897e-17 -0.004693556672698989 -0.9999889852021333
12636414666.666666 -0.0143870594187293 -0.9998965009045265 2.891938730079043e-17 9.13597315455145e-17 2.891938730079043e-17 9.13597315455145e-17 -0.014386406612395972 -0.9998965102972484
12637032000.0 -0.024078557457157396 -0.999710069505461 2.980584681985257e-17 9.105468005745335e-17 2.980584681985257e-17 9.105468005745335e-17 -0.024077904804423355 -0.999710085224742
12637649333.333334 -0.03376779307452214 -0.999429705457421 3.068910763080481e-17 9.074103410381671e-17 3.068910763080481e-17 9.074103410381671e-17 -0.033767140636692554 -0.9994297275011653
12638266666.666666 -0.043453855871304944 -0.9990554351034521 3.1569086475000274e-17 9.041882705200032e-17 3.1569086475000274e-17 9.041882705200032e-17 -0.0434532037096588 -0.9990554634689705
12638884000.0 -0.05313583574610619 -0.9985872936100257 3.2445700440275665e-17 9.008809307530593e-17 3.2445700440275665e-17 9.008809307530593e-17 -0.05313518392189053 -0.9985873282940353
12639501333.333334 -0.06281282298118662 -0.9980253249637333 3.3318866968748155e-17 8.974886714935727e-17 3.3318866968748155e-17 8.974886714935727e-17 -0.06281217155561088 -0.9980253659623589
12640118666.666666 -0.07248390832777443 -0.9973695819671676 3.418850386455764e-17 8.94011850484476e-17 3.418850386455764e-17 8.94011850484476e-17 -0.0724832573620045 -0.9973696292759398
12640736000.0 -0.0821481830919797 -0.9966201262339218 3.5054529301629294e-17 8.904508334178866e-17 3.5054529301629294e-17 8.904508334178866e-17 -0.08214753264713238 -0.9966201798477794
12641353333.333334 -0.09180473921938181 -0.9957770281828622 3.591686183128443e-17 8.868059938973153e-17 3.591686183128443e-17 8.868059938973153e-17 -0.09180408935651897 -0.9957770880961523
12641970666.666666 -0.1014526693811155 -0.9948403670314547 3.67754203899508e-17 8.830777133985666e-17 3.67754203899508e-17 8.830777133985666e-17 -0.10145202016123826 -0.9948404332379316
12642588000.0 -0.1110910670587259 -0.9938102307883461 3.7630124306729774e-17 8.792663812303219e-17 3.7630124306729774e-17 8.792663812303219e-17 -0.1110904185427693 -0.9938103032811767
12643205333.333334 -0.12071902662940286 -0.9926867162451011 3.848089331096337e-17 8.753723944938277e-17 3.848089331096337e-17 8.753723944938277e-17 -0.12071837887822959 -0.9926867950168596
12643822666.666666 -0.13033564345118495 -0.9914699289670853 3.9327647539764895e-17 8.713961580418277e-17 3.9327647539764895e-17 8.713961580418277e-17 -0.13033499652557998 -0.9914700140097578
12644440000.0 -0.13994001394784727 -0.9901599832835651 4.0170307545485425e-17 8.673380844368718e-17 4.0170307545485425e-17 8.673380844368718e-17 -0.1399393679085119 -0.9901600745885476
12645057333.333334 -0.14953123569371626 -0.9887570022769714 4.1008794303152294e-17 8.631985939088343e-17 4.1008794303152294e-17 8.631985939088343e-17 -0.14953059060126303 -0.9887570998350754
12645674666.666666 -0.15910840749863195 -0.9872611177713232 4.184302921786479e-17 8.589781143117242e-17 4.184302921786479e-17 8.589781143117242e-17 -0.15910776341357818 -0.9872612215727714
12646292000.0 -0.16867062949270614 -0.9856724703198152 4.267293413214979e-17 8.546770810797404e-17 4.267293413214979e-17 8.546770810797404e-17 -0.16866998647546871 -0.985672580354246
12646909333.333334 -0.17821700321053816 -0.9839912091916709 4.349843133324933e-17 8.502959371827629e-17 4.349843133324933e-17 8.502959371827629e-17 -0.1782163613214277 -0.9839913254481374
12647526666.666666 -0.187746631675915 -0.9822174923580724 4.4319443560393744e-17 8.45835133080964e-17 4.4319443560393744e-17 8.45835133080964e-17 -0.1877459909751302 -0.9822176148250438
12648144000.0 -0.19725861948609025 -0.9803514864773107 4.513589401201427e-17 8.412951266788029e-17 4.513589401201427e-17 8.412951266788029e-17 -0.19725798003371248 -0.9803516151426749
12648761333.333334 -0.20675207289569356 -0.9783933668791743 4.5947706352899503e-17 8.366763832783752e-17 4.5947706352899503e-17 8.366763832783752e-17 -0.20675143475168065 -0.9783935017302361
12649378666.666666 -0.21622609990087308 -0.9763433175484375 4.675480472131411e-17 8.319793755320254e-17 4.675480472131411e-17 8.319793755320254e-17 -0.21622546312505464 -0.9763434585719247
12649996000.0 -0.22567981032313764 -0.9742015311075758 4.755711373608118e-17 8.272045833942064e-17 4.755711373608118e-17 8.272045833942064e-17 -0.2256791749752084 -0.9742016782896352
12650613333.333334 -0.23511231589294002 -0.9719682087986679 4.835455850359922e-17 8.223524940727501e-17 4.835455850359922e-17 8.223524940727501e-17 -0.23511168203245492 -0.9719683621248698
12651230666.666666 -0.2445227303330295 -0.9696435604645204 4.914706462479611e-17 8.174236019795534e-17 4.914706462479611e-17 8.174236019795534e-17 -0.24452209801939803 -0.9696437199198601
12651848000.0 -0.25391016944203004 -0.9672278045288771 4.993455820208871e-17 8.12418408680255e-17 4.993455820208871e-17 8.12418408680255e-17 -0.2539095387345104 -0.967227970097774
12652465333.333334 -0.2632737511771603 -0.9647211679759802 5.071696584622445e-17 8.07337422843656e-17 5.071696584622445e-17 8.07337422843656e-17 -0.263273122134854 -0.9647213396422817
12653082666.666666 -0.27261259573727703 -0.9621238863292071 5.14942146831044e-17 8.021811601902872e-17 5.14942146831044e-17 8.021811601902872e-17 -0.2726119684191234 -0.9621240640761891
12653700000.0 -0.28192582564570406 -0.9594362036288915 5.226623236057451e-17 7.969501434401847e-17 5.226623236057451e-17 7.969501434401847e-17 -0.2819252001104751 -0.9594363874392616
12654317333.333334 -0.2912125658323258 -0.9566583724094964 5.303294705510993e-17 7.91644902260373e-17 5.303294705510993e-17 7.91644902260373e-17 -0.2912119421386194 -0.9566585622653913
12654934666.666666 -0.3004719437160797 -0.9537906536758018 5.379428747850066e-17 7.862659732113503e-17 5.379428747850066e-17 7.862659732113503e-17 -0.3004713219223159 -0.9537908495587951
12655552000.0 -0.30970308928697304 -0.9508333168783785 5.455018288446242e-17 7.808138996930583e-17 5.455018288446242e-17 7.808138996930583e-17 -0.30970246945138696 -0.9508335187694767
12656169333.333334 -0.31890513518747354 -0.9477866398883724 5.530056307516276e-17 7.752892318904504e-17 5.530056307516276e-17 7.752892318904504e-17 -0.31890451736811154 -0.9477868477680224
12656786666.666666 -0.3280772167944434 -0.9446509089712687 5.604535840775625e-17 7.696925267179736e-17 5.604535840775625e-17 7.696925267179736e-17 -0.3280766010491557 -0.9446511228193534
12657404000.0 -0.33721847230013213 -0.9414264187600629 5.67844998008084e-17 7.640243477638183e-17 5.67844998008084e-17 7.640243477638183e-17 -0.3372178586865692 -0.9414266385559087
12658021333.333334 -0.34632804279323454 -0.9381134722275558 5.751791874069026e-17 7.582852652333667e-17 5.751791874069026e-17 7.582852652333667e-17 -0.34632743136884037 -0.9381136979499305
12658638666.666666 -0.3554050723394595 -0.9347123806579307 5.824554728789893e-17 7.524758558921596e-17 5.824554728789893e-17 7.524758558921596e-17 -0.3554044631614675 -0.9347126122850495
12659256000.0 -0.3644487080622481 -0.931223463617402 5.896731808335244e-17 7.46596703008009e-17 5.896731808335244e-17 7.46596703008009e-17 -0.3644481011876746 -0.9312237011269262
12659873333.333334 -0.3734581002225622 -0.9276470489243137 5.968316435458852e-17 7.406483962928086e-17 5.968316435458852e-17 7.406483962928086e-17 -0.3734574957082014 -0.9276472922933537
12660490666.666666 -0.3824324022988866 -0.9239834726182802 6.039301992191383e-17 7.346315318436941e-17 6.039301992191383e-17 7.346315318436941e-17 -0.38243180020130585 -0.9239837218233992
12661108000.0 -0.39137077106692525 -0.9202330789285463 6.109681920453509e-17 7.285467120832613e-17 6.109681920453509e-17 7.285467120832613e-17 -0.3913701714424594 -0.9202333339457618
12661725333.333334 -0.40027236667849 -0.9163962202417867 6.179449722656075e-17 7.223945456998009e-17 6.179449722656075e-17 7.223945456998009e-17 -0.40027176958323524 -0.9163964810465703
12662342666.666666 -0.40913635274069887 -0.9124732570688696 6.248598962300368e-17 7.161756475864244e-17 6.248598962300368e-17 7.161756475864244e-17 -0.4091357582305091 -0.9124735236361535
12662960000.0 -0.4179618963944606 -0.9084645580110323 6.31712326456887e-17 7.098906387799265e-17 6.31712326456887e-17 7.098906387799265e-17 -0.41796130452494096 -0.908464830315209
12663577333.333334 -0.4267481683926509 -0.904370499725279 6.385016316911097e-17 7.03540146398976e-17 6.385016316911097e-17 7.03540146398976e-17 -0.4267475792191536 -0.9043707777402056
12664194666.666666 -0.4354943431781856 -0.9001914668889243 6.45227186962303e-17 6.971248035817646e-17 6.45227186962303e-17 6.971248035817646e-17 -0.4354937567558037 -0.9001917505879226
12664812000.0 -0.444199598961485 -0.8959278521634922 6.518883736420556e-17 6.906452494230908e-17 6.518883736420556e-17 6.906452494230908e-17 -0.44419901534504774 -0.8959281415193533
12665429333.333334 -0.4528631177977403 -0.8915800561577986 6.584845795005758e-17 6.841021289109635e-17 6.584845795005758e-17 6.841021289109635e-17 -0.45286253704180784 -0.8915803511427838
12666046666.666666 -0.46148408566364163 -0.8871484873903731 6.650151987627763e-17 6.77496092862609e-17 6.650151987627763e-17 6.77496092862609e-17 -0.4614835078225002 -0.8871487879762185
12666664000.0 -0.4700616925341407 -0.8826335622509334 6.714796321638215e-17 6.708277978598115e-17 6.714796321638215e-17 6.708277978598115e-17 -0.4700611176617978 -0.882633868408852
12667281333.333334 -0.4785951324582346 -0.8780357049614321 6.778772870036605e-17 6.640979061841247e-17 6.778772870036605e-17 6.640979061841247e-17 -0.47859456060841277 -0.878036016662115
12667898666.666666 -0.4870836036348418 -0.8733553475361162 6.842075772013388e-17 6.573070857511137e-17 6.842075772013388e-17 6.573070857511137e-17 -0.487083034860975 -0.8733556647497372
12668516000.0 -0.49552630848829077 -0.868592929740854 6.904699233484711e-17 6.504560100442787e-17 6.904699233484711e-17 6.504560100442787e-17 -0.4955257428435185 -0.8685932524370724
12669133333.333334 -0.5039224537429358 -0.8637488990519945 6.96663752761891e-17 6.435453580486524e-17 6.96663752761891e-17 6.435453580486524e-17 -0.5039218912800983 -0.8637492271999566
12669750666.666666 -0.5122712504979643 -0.8588237106141658 7.027884995359973e-17 6.365758141834947e-17 7.027884995359973e-17 6.365758141834947e-17 -0.5122706912695983 -0.8588240441825097
12670368000.0 -0.5205719143014264 -0.8538178271975714 7.088436045940949e-17 6.295480682348806e-17 7.088436045940949e-17 6.295480682348806e-17 -0.5205713583597587 -0.8538181661544274
