! Parameters = {f0=12700.012000; bw=77.238000; Q=6100.000000; N=10; m_0_1=1.255150; m_1_1=0.062507; m_1_2=1.089962; m_2_2=0.061858; m_2_3=0.726925; m_2_8=-0.000179; m_2_9=0.036525; m_3_3=0.059921; m_3_4=0.615454; m_3_7=0.000421; m_3_8=-0.096667; m_3_9=-0.000179; m_4_4=0.056996; m_4_5=0.451789; m_4_6=0.003938; m_4_7=-0.117216; m_4_8=0.000421; m_5_5=0.057378; m_5_6=0.859144; m_5_7=0.003938; m_6_6=0.057377; m_6_7=0.452131; m_7_7=0.057010; m_7_8=0.615572; m_8_8=0.059919; m_8_9=0.727238; m_9_9=0.061853; m_9_10=1.091040; m_10_10=0.062497; m_10_11=1.255945}
!
! Created with skrf (http://scikit-rf.org).
# Hz S RI R 50.0 
!freq ReS11 ImS11 ReS21 ImS21 ReS12 ImS12 ReS22 ImS22
12607400000.0 -0.951539862260808 -0.30752543070209815 1.0303845161363627e-16 2.533429806216948e-18 1.0303845161363627e-16 2.533429806216948e-18 -0.9515396588895508 -0.30752605996920873
12608017333.333334 -0.954592500955088 -0.2979146809409338 1.0303870869840853e-16 1.4848534761253732e-18 1.0303870869840853e-16 1.4848534761253732e-18 -0.9545923039492056 -0.2979153121958914
12608634666.666666 -0.9575480718013843 -0.28827363769390807 1.0302830219696371e-16 4.365341303145006e-19 1.0302830219696371e-16 4.365341303145006e-19 -0.9575478811802849 -0.28827427087233165
12609252000.0 -0.9604062742622284 -0.2786032813115692 1.0300723736242493e-16 -6.114198612934248e-19 1.0300723736242493e-16 -6.114198612934248e-19 -0.9604060900446689 -0.2786039163488888
12609869333.333334 -0.9631668177010411 -0.2689045951252552 1.0297552054848082e-16 -1.6589002090065709e-18 1.0297552054848082e-16 -1.6589002090065709e-18 -0.9631666399051263 -0.2689052319567183
12610486666.666666 -0.9658294214117132 -0.25917856534702244 1.0293315920829822e-16 -2.7057987145415702e-18 1.0293315920829822e-16 -2.7057987145415702e-18 -0.965829250054894 -0.2591792039077005
12611104000.0 -0.9683938146471749 -0.24942618096928101 1.0288016189331952e-16 -3.752007282187711e-18 1.0288016189331952e-16 -3.752007282187711e-18 -0.9683936497462414 -0.24942682119407514
12611721333.333334 -0.9708597366468706 -0.2396484336643908 1.0281653825194935e-16 -4.797417929929856e-18 1.0281653825194935e-16 -4.797417929929856e-18 -0.9708595782179601 -0.23964907548804038
12612338666.666666 -0.9732269366633042 -0.22984631768377195 1.0274229902812657e-16 -5.841922800578629e-18 1.0274229902812657e-16 -5.841922800578629e-18 -0.9732267847218906 -0.22984696104085942
12612956000.0 -0.9754951739875772 -0.2200208297565802 1.0265745605978269e-16 -6.8854141729008296e-18 1.0265745605978269e-16 -6.8854141729008296e-18 -0.9754950285484765 -0.22002147458153914
12613573333.333334 -0.9776642179737691 -0.21017296898879892 1.0256202227719243e-16 -7.927784472658504e-18 1.0256202227719243e-16 -7.927784472658504e-18 -0.9776640790511322 -0.21017361521591962
12614190666.666666 -0.979733848062469 -0.20030373676128402 1.0245601170120501e-16 -8.968926283730561e-18 1.0245601170120501e-16 -8.968926283730561e-18 -0.9797337156697845 -0.20030438432472097
12614808000.0 -0.9817038538031941 -0.19041413662799425 1.0233943944136945e-16 -1.0008732359123304e-17 1.0233943944136945e-16 -1.0008732359123304e-17 -0.9817037279532836 -0.190414785461772
12615425333.333334 -0.983574034875749 -0.18050517421411055 1.0221232169394385e-16 -1.104709563202328e-17 1.0221232169394385e-16 -1.104709563202328e-17 -0.9835739155807692 -0.18050582425213146
12616042666.666666 -0.9853442011106449 -0.17057785711355736 1.0207467573979665e-16 -1.2083909226777653e-17 1.0207467573979665e-16 -1.2083909226777653e-17 -0.985344088382084 -0.17057850828960752
12616660000.0 -0.9870141725083911 -0.16063319478676755 1.019265199421924e-16 -1.3119066469897077e-17 1.019265199421924e-16 -1.3119066469897077e-17 -0.9870140663570691 -0.16063384703452405
12617277333.333334 -0.9885837792578465 -0.1506721984577845 1.0176787374447048e-16 -1.4152460900992636e-17 1.0176787374447048e-16 -1.4152460900992636e-17 -0.9885836796939127 -0.1506728517108217
12617894666.666666 -0.9900528617534224 -0.14069588101179917 1.0159875766761261e-16 -1.5183986283698198e-17 1.0159875766761261e-16 -1.5183986283698198e-17 -0.9900527687863566 -0.14069653520359596
12618512000.0 -0.9914212706113997 -0.1307052568916221 1.0141919330769219e-16 -1.6213536616611418e-17 1.0141919330769219e-16 -1.6213536616611418e-17 -0.9914211842500092 -0.1307059119555683
12619129333.333334 -0.9926888666850282 -0.12070134199511949 1.0122920333322945e-16 -1.7241006144105267e-17 1.0122920333322945e-16 -1.7241006144105267e-17 -0.9926887869374472 -0.12070199786452268
12619746666.666666 -0.9938555210787283 -0.1106851535715459 1.0102881148241865e-16 -1.826628936722226e-17 1.0102881148241865e-16 -1.826628936722226e-17 -0.9938554479524196 -0.11068581017963851
12620364000.0 -0.9949211151612096 -0.10065771011802056 1.0081804256025768e-16 -1.928928105446298e-17 1.0081804256025768e-16 -1.928928105446298e-17 -0.9949210486629599 -0.10065836739796623
12620981333.333334 -0.9958855405774752 -0.09062003127641244 1.0059692243556612e-16 -2.0309876252563026e-17 1.0059692243556612e-16 -2.0309876252563026e-17 -0.9958854807133982 -0.09062068916131315
12621598666.666666 -0.9967486992599017 -0.08057313772914998 1.003654780378919e-16 -2.132797029724542e-17 1.003654780378919e-16 -2.132797029724542e-17 -0.9967486460354361 -0.08057379615205278
12622216000.0 -0.9975105034381733 -0.07051805109580027 1.0012373735430929e-16 -2.234345882394183e-17 1.0012373735430929e-16 -2.234345882394183e-17 -0.9975104568580803 -0.07051870998970391
12622833333.333334 -0.998170875648225 -0.06045579382890207 9.987172942611348e-17 -2.3356237778452796e-17 9.987172942611348e-17 -2.3356237778452796e-17 -0.9981708357165917 -0.060456453126764134
12623450666.666666 -0.9987297487401049 -0.05038738911030992 9.96094843454028e-17 -2.4366203427600524e-17 9.96094843454028e-17 -2.4366203427600524e-17 -0.9987297154603412 -0.05038804874505337
12624068000.0 -0.9991870658848145 -0.040313860746924696 9.933703325155628e-17 -2.5373252369823985e-17 9.933703325155628e-17 -2.5373252369823985e-17 -0.9991870392596534 -0.0403145206514448
12624685333.333334 -0.9995427805800903 -0.030236233066473973 9.905440832759696e-17 -2.6377281545769757e-17 9.905440832759696e-17 -2.6377281545769757e-17 -0.9995427606115874 -0.030236893173645172
12625302666.666666 -0.9997968566551109 -0.020155530813835944 9.876164279646825e-17 -2.7378188248767186e-17 9.876164279646825e-17 -2.7378188248767186e-17 -0.9997968433446474 -0.020156191056518658
12625920000.0 -0.9999492682742036 -0.01007277904618496 9.845877091717335e-17 -2.8375870135378314e-17 9.845877091717335e-17 -2.8375870135378314e-17 -0.9999492616224807 -0.010073439357232346
12626537333.333334 -0.9999999999394471 1.0996970616683477e-05 9.814582798084271e-17 -2.937022523578248e-17 9.814582798084271e-17 -2.937022523578248e-17 -0.9999999999464905 1.033665835181827e-05
12627154666.666666 -0.9999490464922645 0.01009477186667068 9.782285030667351e-17 -3.0361151964202645e-17 9.782285030667351e-17 -3.0361151964202645e-17 -0.9999490531574218 0.010094111620329096
12627772000.0 -0.9997964131139345 0.020177520272279214 9.748987523776245e-17 -3.134854912928717e-17 9.748987523776245e-17 -3.134854912928717e-17 -0.9997964264358783 0.02017686015898842
12628389333.333334 -0.9995421153250801 0.030258216921897226 9.714694113686206e-17 -3.233231594436413e-17 9.714694113686206e-17 -3.233231594436413e-17 -0.9995421353018036 0.03025755700876461
12629006666.666666 -0.9991861789840708 0.040335836758898076 9.679408738199244e-17 -3.3312352037771e-17 9.679408738199244e-17 -3.3312352037771e-17 -0.9991862056128932 0.04033517711300416
12629624000.0 -0.9987286402844122 0.05040935503929519 9.643135436198946e-17 -3.4288557463021904e-17 9.643135436198946e-17 -3.4288557463021904e-17 -0.9987286735619745 0.05040869572768667
12630241333.333334 -0.9981695457510487 0.06047774743634077 9.605878347191849e-17 -3.526083270901753e-17 9.605878347191849e-17 -3.526083270901753e-17 -0.9981695856733181 0.06047708852602394
12630858666.666666 -0.997508952235654 0.07053999014428738 9.567641710841317e-17 -3.622907871012925e-17 9.567641710841317e-17 -3.622907871012925e-17 -0.9975089987979217 0.0705393317022211
12631476000.0 -0.9967469269108181 0.08059505998303271 9.528429866487917e-17 -3.7193196856323334e-17 9.528429866487917e-17 -3.7193196856323334e-17 -0.9967469801077002 0.08059440207612163
12632093333.333334 -0.9958835472632522 0.0906419345015944 9.48824725266383e-17 -3.815308900312542e-17 9.48824725266383e-17 -3.815308900312542e-17 -0.995883607088691 0.09064127719668232
12632710666.666666 -0.9949189010858941 0.10067959208233353 9.447098406593494e-17 -3.9108657481627686e-17 9.447098406593494e-17 -3.9108657481627686e-17 -0.9949189675331594 0.10067893544619651
12633328000.0 -0.9938530864689626 0.11070701204506452 9.404987963686032e-17 -4.005980510839698e-17 9.404987963686032e-17 -4.005980510839698e-17 -0.9938531595306503 0.11070635614440398
12633945333.333334 -0.992686211790018 0.12072317475038963 9.361920657017527e-17 -4.1006435195334274e-17 9.361920657017527e-17 -4.1006435195334274e-17 -0.9926862914580533 0.12072251965182587
12634562666.666666 -0.9914183957029107 0.13072706170374934 9.317901316803656e-17 -4.194845155947383e-17 9.317901316803656e-17 -4.194845155947383e-17 -0.9914184819685475 0.13072640747381448
12635180000.0 -0.9900497671257438 0.14071765565873387 9.272934869861296e-17 -4.288575853275287e-17 9.272934869861296e-17 -4.288575853275287e-17 -0.9900498599795654 0.1407170023638651
12635797333.333334 -0.9885804652277279 0.15069394072077505 9.227026339061973e-17 -4.3818260971686774e-17 9.227026339061973e-17 -4.3818260971686774e-17 -0.9885805646596503 0.1506932884273084
12636414666.666666 -0.9870106394150846 0.16065490245011127 9.180180842774377e-17 -4.4745864267015966e-17 9.180180842774377e-17 -4.4745864267015966e-17 -0.9870107454143527 0.16065425122427388
12637032000.0 -0.9853404493157855 0.17059952796533287 9.132403594297833e-17 -4.566847435327726e-17 9.132403594297833e-17 -4.566847435327726e-17 -0.9853405618709814 0.17059887787323738
12637649333.333334 -0.9835700647633764 0.18052680604606927 9.083699901285459e-17 -4.658599771833128e-17 9.083699901285459e-17 -4.658599771833128e-17 -0.9835701838624145 0.18052615715370626
12638266666.666666 -0.9816996657796886 0.1904357272359272 9.034075165159126e-17 -4.7498341412802955e-17 9.034075165159126e-17 -4.7498341412802955e-17 -0.981699791409819 0.19043507960915892
12638884000.0 -0.9797294425565125 0.20032528394522042 8.983534880513712e-17 -4.8405413059483364e-17 8.983534880513712e-17 -4.8405413059483364e-17 -0.9797295747043241 0.20032463764977412
12639501333.333334 -0.9776595954362965 0.21019447055326004 8.932084634511834e-17 -4.9307120862671213e-17 8.932084634511834e-17 -4.9307120862671213e-17 -0.9776597340877149 0.21019382565472094
12640118666.666666 -0.9754903348917607 0.22004228351066643 8.879730106271632e-17 -5.020337361740738e-17 8.879730106271632e-17 -5.020337361740738e-17 -0.9754904800320533 0.22004164007447172
12640736000.0 -0.9732218815044483 0.229867721441638 8.826477066239941e-17 -5.109408071873805e-17 8.826477066239941e-17 -5.109408071873805e-17 -0.9732220331182222 0.22986707953306912
12641353333.333334 -0.9708544659423909 0.2396697852453309 8.77233137556447e-17 -5.197915217077168e-17 8.77233137556447e-17 -5.197915217077168e-17 -0.9708546240135992 0.23966914492950844
12641970666.666666 -0.9683883289365782 0.24944747819781526 8.717298985447845e-17 -5.2858498595822106e-17 8.717298985447845e-17 -5.2858498595822106e-17 -0.9683884934485171 0.24944683953969085
12642588000.0 -0.9658237212564847 0.25919980605336973 8.661385936499547e-17 -5.3732031243366676e-17 8.661385936499547e-17 -5.3732031243366676e-17 -0.9658238921917972 0.2591991691177203
12643205333.333334 -0.9631609036846215 0.2689257771453891 8.604598358074868e-17 -5.459966199900343e-17 8.604598358074868e-17 -5.459966199900343e-17 -0.9631610810252996 0.2689251419968102
12643822666.666666 -0.9604001469899326 0.2786244024875526 8.546942467606831e-17 -5.546130339330648e-17 8.546942467606831e-17 -5.546130339330648e-17 -0.9604003307173182 0.2786237691904515
12644440000.0 -0.957541731900345 0.28829469587405765 8.488424569928274e-17 -5.631686861062882e-17 8.488424569928274e-17 -5.631686861062882e-17 -0.9575419219951351 0.28829406449264794
12645057333.333334 -0.9545859490742064 0.29793567398001597 8.429051056586694e-17 -5.716627149780955e-17 8.429051056586694e-17 -5.716627149780955e-17 -0.9545861455164482 0.29793504457830877
12645674666.666666 -0.9515330990706903 0.3075463564615206 8.368828405148018e-17 -5.800942657284567e-17 8.368828405148018e-17 -5.800942657284567e-17 -0.9515333018397911 0.3075457291033209
12646292000.0 -0.948383492319244 0.31712576605533566 8.307763178493118e-17 -5.884624903346879e-17 8.307763178493118e-17 -5.884624903346879e-17 -0.9483837013939679 0.3171251408042334
12646909333.333334 -0.945137449088058 0.32667292867813075 8.245862024106587e-17 -5.96766547656396e-17 8.245862024106587e-17 -5.96766547656396e-17 -0.9451376644465317 0.32667230559749627
12647526666.666666 -0.9417952994514884 0.336186873525588 8.183131673355739e-17 -6.050056035198372e-17 8.183131673355739e-17 -6.050056035198372e-17 -0.9417955210711998 0.33618625267856406
12648144000.0 -0.9383573832564241 0.34566663317130425 8.119578940760442e-17 -6.131788308016425e-17 8.119578940760442e-17 -6.131788308016425e-17 -0.9383576111142281 0.34566601462080077
12648761333.333334 -0.9348240500878331 0.35511124366486935 8.055210723257683e-17 -6.212854095113593e-17 8.055210723257683e-17 -6.212854095113593e-17 -0.9348242841599514 0.35511062747355615
12649378666.666666 -0.9311956592331887 0.36451974462996656 7.990033999455557e-17 -6.293245268735547e-17 7.990033999455557e-17 -6.293245268735547e-17 -0.9311958994952154 0.3645191308602682
12649996000.0 -0.9274725796458567 0.3738911793622421 7.924055828878084e-17 -6.372953774092438e-17 7.924055828878084e-17 -6.372953774092438e-17 -0.9274728260727574 0.3738905680763303
12650613333.333334 -0.9236551899076765 0.38322459492632044 7.857283351205243e-17 -6.451971630161289e-17 7.857283351205243e-17 -6.451971630161289e-17 -0.9236554424737927 0.3832239861861085
12651230666.666666 -0.9197438781904254 0.39251904225281126 7.789723785502518e-17 -6.530290930483629e-17 7.789723785502518e-17 -6.530290930483629e-17 -0.9197441368694768 0.3925184361199473
12651848000.0 -0.9157390422163256 0.40177357623486715 7.721384429442803e-17 -6.60790384395458e-17 7.721384429442803e-17 -6.60790384395458e-17 -0.9157393069814137 0.4017729727707287
12652465333.333334 -0.911641089217612 0.410987255824261 7.652272658521096e-17 -6.684802615603228e-17 7.652272658521096e-17 -6.684802615603228e-17 -0.91164136004122 0.4109866550899473
12653082666.666666 -0.9074504358951991 0.4201591441268924 7.58239592526279e-17 -6.760979567363291e-17 7.58239592526279e-17 -6.760979567363291e-17 -0.9074507127491999 0.4201585461832205
12653700000.0 -0.9031675083761672 0.4292883084983979 7.511761758419316e-17 -6.836427098841144e-17 7.511761758419316e-17 -6.836427098841144e-17 -0.9031677912318214 0.4292877134058943
12654317333.333334 -0.8987927421705517 0.4383738206386976 7.440377762163929e-17 -6.911137688066941e-17 7.440377762163929e-17 -6.911137688066941e-17 -0.8987930309985135 0.43837322845759347
12654934666.666666 -0.89432658212703 0.44741475668647074 7.368251615272252e-17 -6.985103892245848e-17 7.368251615272252e-17 -6.985103892245848e-17 -0.8943268768973484 0.4474141674766949
12655552000.0 -0.8897694823875808 0.45641019731329946 7.295391070300453e-17 -7.058318348495255e-17 7.295391070300453e-17 -7.058318348495255e-17 -0.8897697830697038 0.4564096111344731
12656169333.333334 -0.8851219063415245 0.46535922781672107 7.221803952754862e-17 -7.130773774575007e-17 7.221803952754862e-17 -7.130773774575007e-17 -0.8851222129043012 0.46535864472815075
12656786666.666666 -0.8803843265781688 0.4742609382136938 7.147498160253626e-17 -7.202462969609531e-17 7.147498160253626e-17 -7.202462969609531e-17 -0.8803846389898551 0.47426035827436724
12657404000.0 -0.8755572248389268 0.48311442333280286 7.07248166168113e-17 -7.273378814801533e-17 7.07248166168113e-17 -7.273378814801533e-17 -0.8755575430671854 0.4831138466013806
12658021333.333334 -0.870641091968193 0.4919187829065503 6.996762496336932e-17 -7.343514274135255e-17 6.996762496336932e-17 -7.343514274135255e-17 -0.8706414159800994 0.491918209441362
12658638666.666666 -0.8656364278636001 0.5006731216626035 6.920348773077237e-17 -7.412862395071576e-17 6.920348773077237e-17 -7.412862395071576e-17 -0.8656367576256446 0.5006725515216406
12659256000.0 -0.8605437414250035 0.5093765494151508 6.843248669446477e-17 -7.48141630923691e-17 6.843248669446477e-17 -7.48141630923691e-17 -0.8605440769030954 0.5093759826560612
12659873333.333334 -0.8553635505028192 0.518028181155273 6.765470430807018e-17 -7.549169233098622e-17 6.765470430807018e-17 -7.549169233098622e-17 -0.8553638916622889 0.5180276178353547
12660490666.666666 -0.8500963818454662 0.5266271371407636 6.687022369460324e-17 -7.616114468633227e-17 6.687022369460324e-17 -7.616114468633227e-17 -0.8500967286510712 0.5266265773169598
12661108000.0 -0.8447427710455419 0.5351725429860247 6.607912863758454e-17 -7.682245403988088e-17 6.607912863758454e-17 -7.682245403988088e-17 -0.8447431234614677 0.5351719867149173
12661725333.333334 -0.8393032624856861 0.5436635297504454 6.528150357214142e-17 -7.747555514129659e-17 6.528150357214142e-17 -7.747555514129659e-17 -0.8393036204755521 0.5436629770882498
12662342666.666666 -0.833778409282939 0.5520992340272179 6.44774335760112e-17 -7.812038361485218e-17 6.44774335760112e-17 -7.812038361485218e-17 -0.8337787728098018 0.5520986850297772
12662960000.0 -0.8281687732326826 0.5604787980308467 6.366700436048441e-17 -7.875687596575203e-17 6.366700436048441e-17 -7.875687596575203e-17 -0.8281691422590384 0.5604782527536255
12663577333.333334 -0.8224749247514501 0.5688013696844663 6.285030226130786e-17 -7.938496958634317e-17 6.285030226130786e-17 -7.938496958634317e-17 -0.8224752992392406 0.5688008281825462
12664194666.666666 -0.816697442818878 0.5770661027065571 6.20274142294931e-17 -8.000460276225933e-17 6.20274142294931e-17 -8.000460276225933e-17 -0.8166978227294918 0.5770655650346295
12664812000.0 -0.8108369149189408 0.5852721566968334 6.119842782210113e-17 -8.06157146784417e-17 6.119842782210113e-17 -8.06157146784417e-17 -0.8108373002132209 0.5852716229091959
12665429333.333334 -0.804893936980071 0.5934186972219112 6.036343119292925e-17 -8.121824542509454e-17 6.036343119292925e-17 -8.121824542509454e-17 -0.8048943276183147 0.5934181673724602
12666046666.666666 -0.7988691133147731 0.6015048958998561 5.952251308319028e-17 -8.181213600350611e-17 5.952251308319028e-17 -8.181213600350611e-17 -0.7988695092567402 0.6015043700420832
12666664000.0 -0.7927630565578585 0.6095299304848543 5.867576281206068e-17 -8.23973283318284e-17 5.867576281206068e-17 -8.23973283318284e-17 -0.792763457762772 0.6095294086718398
12667281333.333334 -0.7865763876045013 0.617492984950341 5.782327026726798e-17 -8.297376525069003e-17 5.782327026726798e-17 -8.297376525069003e-17 -0.7865767940310546 0.6174924672347489
12667898666.666666 -0.7803097355468879 0.6253932495722792 5.696512589552991e-17 -8.354139052877926e-17 5.696512589552991e-17 -8.354139052877926e-17 -0.7803101471532456 0.6253927360063511
12668516000.0 -0.7739637376101854 0.6332299210115558 5.610142069299946e-17 -8.410014886828427e-17 5.610142069299946e-17 -8.410014886828427e-17 -0.773964154353991 0.6332294116471071
12669133333.333334 -0.7675390390880331 0.6410022023953176 5.5232246195641705e-17 -8.464998591024807e-17 5.5232246195641705e-17 -8.464998591024807e-17 -0.7675394609264111 0.6410016972837309
12669750666.666666 -0.761036293276604 0.6487093033983989 5.435769446955068e-17 -8.519084823982813e-17 5.435769446955068e-17 -8.519084823982813e-17 -0.7610367201661652 0.6487088025906196
12670368000.0 -0.7544561614083888 0.6563504403234204 5.347785810121015e-17 -8.572268339145906e-17 5.347785810121015e-17 -8.572268339145906e-17 -0.7544565933052353 0.6563499438699515
