! Parameters = {f0=12700.012000; bw=77.238000; Q=6100.000000; N=10; m_0_1=1.170666; m_1_1=-1.204761; m_1_2=1.005478; m_2_2=-1.205410; m_2_3=0.642441; m_2_8=-0.004403; m_2_9=0.032301; m_3_3=-1.207347; m_3_4=0.530970; m_3_7=-0.003803; m_3_8=-0.100891; m_3_9=-0.004403; m_4_4=-1.210272; m_4_5=0.367305; m_4_6=-0.000286; m_4_7=-0.121440; m_4_8=-0.003803; m_5_5=-1.209890; m_5_6=0.774660; m_5_7=-0.000286; m_6_6=-1.209891; m_6_7=0.367647; m_7_7=-1.210258; m_7_8=0.531088; m_8_8=-1.207349; m_8_9=0.642754; m_9_9=-1.205415; m_9_10=1.006556; m_10_10=-1.204771; m_10_11=1.171461}
!
! Created with skrf (http://scikit-rf.org).
# Hz S RI R 50.0 
!freq ReS11 ImS11 ReS21 ImS21 ReS12 ImS12 ReS22 ImS22
12607400000.0 -0.4648754215348585 -0.8853761022597332 4.7092141924680865e-17 4.841937661415339e-17 4.7092141924680865e-17 4.841937661415339e-17 -0.46487487530653987 -0.8853763890620637
12608017333.333334 -0.47157876413430894 -0.8818239445702343 4.745307549326169e-17 4.804710615945484e-17 4.745307549326169e-17 4.804710615945484e-17 -0.47157822012411776 -0.8818242354939099
12608634666.666666 -0.4782549661354839 -0.8782210355978711 4.78110715852148e-17 4.7672150431410903e-17 4.78110715852148e-17 4.7672150431410903e-17 -0.4782544243745107 -0.8782213306257458
12609252000.0 -0.48490364330542396 -0.8745675826995741 4.8166110263836335e-17 4.729453256844122e-17 4.8166110263836335e-17 4.729453256844122e-17 -0.4849031038246264 -0.8745678818142666
12609869333.333334 -0.49152441299539534 -0.8708637961411536 4.8518171774376256e-17 4.691427585666481e-17 4.8518171774376256e-17 4.691427585666481e-17 -0.49152387582559787 -0.8708640993250509
12610486666.666666 -0.49811689416261734 -0.8671098890853677 4.8867236545133755e-17 4.653140372846721e-17 4.8867236545133755e-17 4.653140372846721e-17 -0.49811635933450665 -0.8671101963206213
12611104000.0 -0.5046807073926578 -0.8633060775793819 4.921328518854151e-17 4.6145939761059504e-17 4.921328518854151e-17 4.6145939761059504e-17 -0.5046801749367842 -0.8633063888479148
12611721333.333334 -0.5112154749207302 -0.8594525805426517 4.955629850222729e-17 4.5757907675042415e-17 4.955629850222729e-17 4.5757907675042415e-17 -0.5112149448675042 -0.8594528958261552
12612338666.666666 -0.5177208206538774 -0.8555496197540651 4.989625747007413e-17 4.536733133295076e-17 4.989625747007413e-17 4.536733133295076e-17 -0.5177202930335688 -0.8555499390340028
12612956000.0 -0.5241963701924203 -0.8515974198392937 5.023314326327708e-17 4.4974234737781824e-17 5.023314326327708e-17 4.4974234737781824e-17 -0.5241958450351543 -0.851597743096898
12613573333.333334 -0.5306417508514782 -0.8475962082578756 5.0566937241356666e-17 4.457864203155179e-17 5.0566937241356666e-17 4.457864203155179e-17 -0.5306412281872371 -0.8475965354741549
12614190666.666666 -0.5370565916824961 -0.8435462152900871 5.089762095320509e-17 4.4180577493794165e-17 5.089762095320509e-17 4.4180577493794165e-17 -0.5370560715411151 -0.8435465464458227
12614808000.0 -0.5434405234945422 -0.839447674023716 5.1225176138081976e-17 4.3780065540095634e-17 5.1225176138081976e-17 4.3780065540095634e-17 -0.5434400059057083 -0.839448009099464
12615425333.333334 -0.5497931788756523 -0.8353008203405853 5.154958472662587e-17 4.337713072059233e-17 5.154958472662587e-17 4.337713072059233e-17 -0.5497926638689024 -0.8353011593166779
12616042666.666666 -0.5561141922138068 -0.8311058929030851 5.187082884183319e-17 4.297179771848372e-17 5.187082884183319e-17 4.297179771848372e-17 -0.556113679818527 -0.831106235759633
12616660000.0 -0.5624031997181661 -0.8268631331403149 5.218889080004495e-17 4.256409134851572e-17 5.218889080004495e-17 4.256409134851572e-17 -0.5624026899635889 -0.8268634798572068
12617277333.333334 -0.5686598394398383 -0.8225727852342956 5.25037531119036e-17 4.215403655547886e-17 5.25037531119036e-17 4.215403655547886e-17 -0.5686593323550415 -0.8225731357912003
12617894666.666666 -0.5748837512927842 -0.8182350961058719 5.281539848331015e-17 4.1741658412684524e-17 5.281539848331015e-17 4.1741658412684524e-17 -0.5748832469066892 -0.8182354504822388
12618512000.0 -0.5810745770746101 -0.8138503154004513 5.3123809816369124e-17 4.132698212043402e-17 5.3123809816369124e-17 4.132698212043402e-17 -0.5810740754159796 -0.813850673575512
12619129333.333334 -0.587231960487041 -0.809418695473731 5.3428970210311415e-17 4.091003300449473e-17 5.3428970210311415e-17 4.091003300449473e-17 -0.5872314615844793 -0.8094190574265016
12619746666.666666 -0.593355547156502 -0.8049404913771322 5.373086296241535e-17 4.049083651455543e-17 5.373086296241535e-17 4.049083651455543e-17 -0.5933550510384503 -0.804940857086412
12620364000.0 -0.5994449846545763 -0.8004159608430638 5.4029471568915784e-17 4.0069418222675097e-17 5.4029471568915784e-17 4.0069418222675097e-17 -0.5994444913493144 -0.8004163302874396
12620981333.333334 -0.6054999225181545 -0.795845364270194 5.432477972589111e-17 3.9645803821739e-17 5.432477972589111e-17 3.9645803821739e-17 -0.605499432053797 -0.7958457374280389
12621598666.666666 -0.6115200122696733 -0.7912289647084138 5.461677133014799e-17 3.922001912389429e-17 5.461677133014799e-17 3.922001912389429e-17 -0.6115195246741676 -0.7912293415578884
12622216000.0 -0.6175049074372362 -0.7865670278436417 5.490543048009414e-17 3.879209005897922e-17 5.490543048009414e-17 3.879209005897922e-17 -0.6175044227383629 -0.7865674083626979
12622833333.333334 -0.6234542635744212 -0.7818598219826407 5.5190741476588806e-17 3.836204267296003e-17 5.5190741476588806e-17 3.836204267296003e-17 -0.6234537817997912 -0.78186020614902
12623450666.666666 -0.6293677382801933 -0.7771076180375047 5.547268882379113e-17 3.792990312634766e-17 5.547268882379113e-17 3.792990312634766e-17 -0.6293672594572466 -0.7771080058287422
12624068000.0 -0.6352449912185454 -0.7723106895101218 5.575125722999479e-17 3.7495697692609774e-17 5.575125722999479e-17 3.7495697692609774e-17 -0.6352445153745497 -0.7723110809035458
12624685333.333334 -0.6410856841382819 -0.767469312476271 5.602643160844705e-17 3.7059452756581396e-17 5.602643160844705e-17 3.7059452756581396e-17 -0.6410852113003305 -0.7674697074490042
12625302666.666666 -0.6468894808921143 -0.7625837655700397 5.629819707814867e-17 3.66211948128812e-17 5.629819707814867e-17 3.66211948128812e-17 -0.6468890110871243 -0.7625841640990009
12625920000.0 -0.6526560474563993 -0.7576543299674607 5.65665389646677e-17 3.618095046427984e-17 5.65665389646677e-17 3.618095046427984e-17 -0.6526555807111113 -0.7576547320293671
12626537333.333334 -0.6583850519501019 -0.7526812893705491 5.683144280090107e-17 3.5738746420125546e-17 5.683144280090107e-17 3.5738746420125546e-17 -0.6583845882910783 -0.752681694941917
12627154666.666666 -0.6640761646539858 -0.7476649299909037 5.709289432785952e-17 3.5294609494707613e-17 5.709289432785952e-17 3.5294609494707613e-17 -0.6640757041076081 -0.747665339048049
12627772000.0 -0.6697290580296703 -0.7426055405331556 5.735087949542313e-17 3.484856660563996e-17 5.735087949542313e-17 3.484856660563996e-17 -0.6697286006221388 -0.7426059530521969
12628389333.333334 -0.6753434067382297 -0.7375034121785824 5.760538446308115e-17 3.440064477224615e-17 5.760538446308115e-17 3.440064477224615e-17 -0.675342952495561 -0.7375038281354401
12629006666.666666 -0.6809188876592961 -0.7323588385680052 5.785639560067117e-17 3.395087111391743e-17 5.785639560067117e-17 3.395087111391743e-17 -0.680918436607322 -0.7323592579384048
12629624000.0 -0.6864551799092764 -0.7271721157852342 5.81038994890967e-17 3.349927284848226e-17 5.81038994890967e-17 3.349927284848226e-17 -0.6864547320736425 -0.7271725385447071
12630241333.333334 -0.6919519648601143 -0.7219435423397582 5.834788292103232e-17 3.3045877290568885e-17 5.834788292103232e-17 3.3045877290568885e-17 -0.6919515202662796 -0.7219439684636437
12630858666.666666 -0.6974089261573581 -0.7166734191498182 5.858833290162063e-17 3.2590711849956327e-17 5.858833290162063e-17 3.2590711849956327e-17 -0.6974084848305924 -0.7166738486132647
12631476000.0 -0.7028257497386575 -0.7113620495248154 5.882523664915619e-17 3.2133804029918396e-17 5.882523664915619e-17 3.2133804029918396e-17 -0.7028253117040383 -0.7113624823027792
12632093333.333334 -0.7082021238516085 -0.7060097391480666 5.905858159575073e-17 3.167518142557687e-17 5.905858159575073e-17 3.167518142557687e-17 -0.7082016891340243 -0.7060101752153193
12632710666.666666 -0.7135377390717847 -0.7006167960591404 5.928835538798723e-17 3.12148717222443e-17 5.928835538798723e-17 3.12148717222443e-17 -0.7135373076959286 -0.700617235390264
12633328000.0 -0.7188322883206003 -0.6951835306360624 5.951454588757477e-17 3.075290269373712e-17 5.951454588757477e-17 3.075290269373712e-17 -0.7188318603109703 -0.6951839732054536
12633945333.333334 -0.7240854668828424 -0.6897102555775921 5.973714117196403e-17 3.028930220073491e-17 5.973714117196403e-17 3.028930220073491e-17 -0.7240850422637422 -0.6897107013594653
12634562666.666666 -0.7292969724243715 -0.6841972858850698 5.995612953497613e-17 2.982409818908429e-17 5.995612953497613e-17 2.982409818908429e-17 -0.7292965512199066 -0.6841977348534566
12635180000.0 -0.7344665050093623 -0.6786449388444473 6.017149948739937e-17 2.9357318688135907e-17 6.017149948739937e-17 2.9357318688135907e-17 -0.7344660872434388 -0.6786453909731978
12635797333.333334 -0.7395937671177383 -0.6730535340078404 6.038323975758841e-17 2.888899180904649e-17 6.038323975758841e-17 2.888899180904649e-17 -0.7395933528140629 -0.6730539892706263
12636414666.666666 -0.744678463662068 -0.6674233931753915 6.059133929203256e-17 2.84191457431125e-17 6.059133929203256e-17 2.84191457431125e-17 -0.7446780528441449 -0.6674238515457055
12637032000.0 -0.749720302004813 -0.6617548403764523 6.079578725593305e-17 2.7947808760055484e-17 6.079578725593305e-17 2.7947808760055484e-17 -0.7497198946959442 -0.6617553018276118
12637649333.333334 -0.7547189919749419 -0.6560482018511888 6.099657303374497e-17 2.747500920634762e-17 6.099657303374497e-17 2.747500920634762e-17 -0.7547185881982255 -0.656048666356337
12638266666.666666 -0.7596742458848026 -0.6503038060316173 6.119368622972449e-17 2.7000775503497924e-17 6.119368622972449e-17 2.7000775503497924e-17 -0.7596738456631301 -0.6503042735637228
12638884000.0 -0.7645857785465452 -0.6445219835228465 6.138711666844863e-17 2.6525136146361636e-17 6.138711666844863e-17 2.6525136146361636e-17 -0.7645853819026023 -0.6445224540547075
12639501333.333334 -0.769453307288612 -0.6387030670839688 6.157685439533166e-17 2.6048119701427446e-17 6.157685439533166e-17 2.6048119701427446e-17 -0.7694529142448758 -0.638703540588213
12640118666.666666 -0.7742765519719496 -0.6328473916089719 6.176288967712257e-17 2.556975480511313e-17 6.176288967712257e-17 2.556975480511313e-17 -0.7742761625506884 -0.6328478680580593
12640736000.0 -0.7790552350062973 -0.6269552941072698 6.194521300239765e-17 2.5090070162036527e-17 6.194521300239765e-17 2.5090070162036527e-17 -0.779054849229568 -0.626955773473493
12641353333.333334 -0.7837890813658716 -0.6210271136846571 6.212381508202295e-17 2.460909454332763e-17 6.212381508202295e-17 2.460909454332763e-17 -0.7837886992555184 -0.6210275959401426
12641970666.666666 -0.7884778186054274 -0.6150631915235044 6.229868684962266e-17 2.4126856784885737e-17 6.229868684962266e-17 2.4126856784885737e-17 -0.7884774401830841 -0.6150636766402174
12642588000.0 -0.7931211768759063 -0.6090638708631703 6.24698194620249e-17 2.364338578566038e-17 6.24698194620249e-17 2.364338578566038e-17 -0.793120802162991 -0.609064358812913
12643205333.333334 -0.7977188889398591 -0.603029496980379 6.26372042996901e-17 2.315871050593792e-17 6.26372042996901e-17 2.315871050593792e-17 -0.7977185179575728 -0.6030299877347925
12643822666.666666 -0.8022706901869457 -0.5969604171691901 6.280083296713898e-17 2.2672859965591394e-17 6.280083296713898e-17 2.2672859965591394e-17 -0.8022703229562751 -0.5969609106997587
12644440000.0 -0.8067763186491325 -0.590856980721058 6.29606972933507e-17 2.218586324237216e-17 6.29606972933507e-17 2.218586324237216e-17 -0.806775955190845 -0.5908574769991074
12645057333.333334 -0.8112355150156659 -0.5847195389048648 6.31167893321623e-17 2.1697749470159624e-17 6.31167893321623e-17 2.1697749470159624e-17 -0.8112351553503103 -0.5847200379015663
12645674666.666666 -0.8156480226481343 -0.5785484449465228 6.326910136264319e-17 2.120854783723851e-17 6.326910136264319e-17 2.120854783723851e-17 -0.815647666796038 -0.5785489466328931
12646292000.0 -0.8200135875952151 -0.572344054008665 6.341762588947097e-17 2.0718287584532517e-17 6.341762588947097e-17 2.0718287584532517e-17 -0.8200132355764862 -0.5723445583555703
12646909333.333334 -0.824331958607216 -0.5661067231703241 6.356235564327209e-17 2.022699800390028e-17 6.356235564327209e-17 2.022699800390028e-17 -0.8243316104417374 -0.5661072301484786
12647526666.666666 -0.8286028871505594 -0.5598368114063312 6.370328358097186e-17 1.9734708436358696e-17 6.370328358097186e-17 1.9734708436358696e-17 -0.8286025428579922 -0.559837320986302
12648144000.0 -0.8328261274222056 -0.5535346795664954 6.384040288611573e-17 1.9241448270352818e-17 6.384040288611573e-17 1.9241448270352818e-17 -0.8328257870219862 -0.5535351917187022
12648761333.333334 -0.8370014363636045 -0.5472006903551159 6.397370696918381e-17 1.874724694000001e-17 6.397370696918381e-17 1.874724694000001e-17 -0.8370010998749416 -0.547201205049833
12649378666.666666 -0.8411285736748086 -0.5408352083099183 6.410318946788649e-17 1.8252133923354158e-17 6.410318946788649e-17 1.8252133923354158e-17 -0.8411282411166867 -0.5408357255172773
12649996000.0 -0.8452073018282645 -0.5344385997811493 6.422884424745671e-17 1.775613874062946e-17 6.422884424745671e-17 1.775613874062946e-17 -0.8452069732194378 -0.5344391194711398
12650613333.333334 -0.8492373860825508 -0.5280112329103686 6.435066540091629e-17 1.725929095246625e-17 6.435066540091629e-17 1.725929095246625e-17 -0.849237061441545 -0.5280117550528397
12651230666.666666 -0.8532185944957251 -0.5215534776095266 6.446864724933764e-17 1.6761620158167996e-17 6.446864724933764e-17 1.6761620158167996e-17 -0.853218273840836 -0.52155400217419
12651848000.0 -0.8571506979388681 -0.515065705539363 6.458278434208875e-17 1.6263155993939852e-17 6.458278434208875e-17 1.6263155993939852e-17 -0.8571503812881608 -0.5150662324957939
12652465333.333334 -0.8610334701091814 -0.5085482900881606 6.469307145706544e-17 1.5763928131131758e-17 6.469307145706544e-17 1.5763928131131758e-17 -0.8610331574804878 -0.508548819405799
12653082666.666666 -0.8648666875429084 -0.5020016063504267 6.479950360090585e-17 1.526396627449084e-17 6.479950360090585e-17 1.526396627449084e-17 -0.8648663789538275 -0.50200213799858
12653700000.0 -0.8686501296284556 -0.49542603110486455 6.490207600920095e-17 1.4763300160375853e-17 6.490207600920095e-17 1.4763300160375853e-17 -0.868649825096353 -0.49542656505270943
12654317333.333334 -0.8723835786187761 -0.48882194279323066 6.500078414668064e-17 1.4261959555016547e-17 6.500078414668064e-17 1.4261959555016547e-17 -0.8723832781607814 -0.4888224790098137
12654934666.666666 -0.8760668196441561 -0.48218972149810946 6.509562370739439e-17 1.3759974252734965e-17 6.509562370739439e-17 1.3759974252734965e-17 -0.8760665232771631 -0.4821902599523503
12655552000.0 -0.8796996407244674 -0.4755297489212365 6.518659061487388e-17 1.3257374074186136e-17 6.518659061487388e-17 1.3257374074186136e-17 -0.8796993484651321 -0.47553028958192856
12656169333.333334 -0.8832818327813537 -0.46884240836155533 6.527368102228298e-17 1.2754188864596144e-17 6.527368102228298e-17 1.2754188864596144e-17 -0.8832815446460955 -0.4688429511973687
12656786666.666666 -0.8868131896503078 -0.4621280846930837 6.535689131255541e-17 1.2250448491990041e-17 6.535689131255541e-17 1.2250448491990041e-17 -0.8868129056553062 -0.46212862967256596
12657404000.0 -0.8902935080925072 -0.4553871643428128 6.543621809851754e-17 1.1746182845428507e-17 6.543621809851754e-17 1.1746182845428507e-17 -0.890293228253702 -0.4553877114343913
12658021333.333334 -0.8937225878065765 -0.4486200352683403 6.5511658222999e-17 1.1241421833232676e-17 6.5511658222999e-17 1.1241421833232676e-17 -0.8937223121396671 -0.448620584440324
12658638666.666666 -0.8971002314399625 -0.4418270869358481 6.558320875892705e-17 1.0736195381229173e-17 6.558320875892705e-17 1.0736195381229173e-17 -0.897099959960406 -0.441827638156429
12659256000.0 -0.9004262446005188 -0.435008710297228 6.565086700941099e-17 1.0230533430966621e-17 6.565086700941099e-17 1.0230533430966621e-17 -0.9004259773235314 -0.43500926353448416
12659873333.333334 -0.9037004358674819 -0.42816529776801643 6.571463050780949e-17 9.724465937960152e-18 6.571463050780949e-17 9.724465937960152e-18 -0.9037001728080349 -0.4281658529899123
12660490666.666666 -0.9069226168025863 -0.4212972432046046 6.577449701778656e-17 9.218022869916912e-18 6.577449701778656e-17 9.218022869916912e-18 -0.9069223579754072 -0.4212978003789935
12661108000.0 -0.9100926019609352 -0.4144049418815197 6.58304645333542e-17 8.711234204961644e-18 6.58304645333542e-17 8.711234204961644e-18 -0.9100923473805065 -0.41440550097614604
12661725333.333334 -0.9132102089015982 -0.40748879046883035 6.588253127889914e-17 8.204129929879156e-18 6.588253127889914e-17 8.204129929879156e-18 -0.9132099585821567 -0.4074893514513308
12662342666.666666 -0.9162752581981621 -0.4005491870092138 6.593069570919816e-17 7.696740038340113e-18 6.593069570919816e-17 7.696740038340113e-18 -0.9162750121536988 -0.4005497498471202
12662960000.0 -0.9192875734490336 -0.3935865308951003 6.597495650941984e-17 7.189094529127125e-18 6.597495650941984e-17 7.189094529127125e-18 -0.9192873316932902 -0.39358709555584004
12663577333.333334 -0.9222469812876335 -0.3866012228455808 6.601531259511056e-17 6.681223404379948e-18 6.601531259511056e-17 6.681223404379948e-18 -0.9222467438341057 -0.38660178929648026
12664194666.666666 -0.9251533113923025 -0.3795936648835302 6.605176311217016e-17 6.173156667813084e-18 6.605176311217016e-17 6.173156667813084e-18 -0.9251530782542355 -0.37959423309181545
12664812000.0 -0.9280063964961835 -0.37256426031225687 6.608430743681089e-17 5.6649243229639645e-18 6.608430743681089e-17 5.6649243229639645e-18 -0.9280061676865747 -0.3725648302450567
12665429333.333334 -0.9308060723967818 -0.36551341369247903 6.611294517550568e-17 5.1565563714099336e-18 6.611294517550568e-17 5.1565563714099336e-18 -0.930805847928376 -0.3655139853168253
12666046666.666666 -0.9335521779654379 -0.35844153081895863 6.613767616491968e-17 4.6480828110273515e-18 6.613767616491968e-17 4.6480828110273515e-18 -0.9335519578507306 -0.35844210410178995
12666664000.0 -0.9362445551566406 -0.3513490186970712 6.615850047183261e-17 4.139533634191488e-18 6.615850047183261e-17 4.139533634191488e-18 -0.9362443394078752 -0.35134959360523343
12667281333.333334 -0.9388830490170554 -0.344236285519537 6.61754183930425e-17 3.630938826054473e-18 6.61754183930425e-17 3.630938826054473e-18 -0.9388828376462222 -0.3442368620197858
12667898666.666666 -0.9414675076944763 -0.3371037406428517 6.618843045526031e-17 3.122328362749166e-18 6.618843045526031e-17 3.122328362749166e-18 -0.9414673007133117 -0.3371043187018541
12668516000.0 -0.9439977824465915 -0.32995179456364465 6.619753741498863e-17 2.613732209643141e-18 6.619753741498863e-17 2.613732209643141e-18 -0.9439975798665812 -0.32995237414798195
12669133333.333334 -0.9464737276494887 -0.32278085889521524 6.620274025838737e-17 2.1051803195808134e-18 6.620274025838737e-17 2.1051803195808134e-18 -0.9464735294818614 -0.3227814399713837
12669750666.666666 -0.9488952008060653 -0.3155913463437636 6.620404020112658e-17 1.5967026311213684e-18 6.620404020112658e-17 1.5967026311213684e-18 -0.9488950070617951 -0.3155919288781768
12670368000.0 -0.9512620625542617 -0.308383670684529 6.62014386882251e-17 1.0883290667744141e-18 6.62014386882251e-17 1.0883290667744141e-18 -0.9512618732440674 -0.30838425464352004
