! Parameters = {f0=12700.012000; bw=77.238000; Q=6100.000000; N=10; m_0_1=1.350846; m_1_1=1.497942; m_1_2=1.185658; m_2_2=1.497293; m_2_3=0.822621; m_2_8=0.004606; m_2_9=0.041310; m_3_3=1.495356; m_3_4=0.711150; m_3_7=0.005206; m_3_8=-0.091882; m_3_9=0.004606; m_4_4=1.492431; m_4_5=0.547485; m_4_6=0.008723; m_4_7=-0.112431; m_4_8=0.005206; m_5_5=1.492813; m_5_6=0.954840; m_5_7=0.008723; m_6_6=1.492812; m_6_7=0.547827; m_7_7=1.492445; m_7_8=0.711268; m_8_8=1.495354; m_8_9=0.822934; m_9_9=1.497288; m_9_10=1.186736; m_10_10=1.497932; m_10_11=1.351641}
!
! Created with skrf (http://scikit-rf.org).
# Hz S RI R 50.0 
!freq ReS11 ImS11 ReS21 ImS21 ReS12 ImS12 ReS22 ImS22
12607400000.0 -0.5800265741567385 0.8145975529497972 5.183029368413099e-17 -1.5094782808036513e-16 5.183029368413099e-17 -1.5094782808036513e-16 -0.5800271537832613 0.8145971402318382
12608017333.333334 -0.5694596408505517 0.8220192926216274 4.9853634558419575e-17 -1.5157924684839084e-16 4.9853634558419575e-17 -1.5157924684839084e-16 -0.5694602257293819 0.8220188874424001
12608634666.666666 -0.5587977545369193 0.8293039669049567 4.786932228887769e-17 -1.52184796016145e-16 4.786932228887769e-17 -1.52184796016145e-16 -0.5587983445700233 0.82930356933128
12609252000.0 -0.548042693003341 0.8364503611365386 4.587769525457999e-17 -1.5276438336447314e-16 4.587769525457999e-17 -1.5276438336447314e-16 -0.5480432880918362 0.8364499712339579
12609869333.333334 -0.5371962495735187 0.8434572837102937 4.387909293831905e-17 -1.5331792109781147e-16 4.387909293831905e-17 -1.5331792109781147e-16 -0.5371968496176879 0.8434569015430672
12610486666.666666 -0.5262602328085694 0.8503235662758444 4.1873855868782375e-17 -1.538453258573001e-16 4.1873855868782375e-17 -1.538453258573001e-16 -0.5262608377078801 0.850323191906936
12611104000.0 -0.5152364662049378 0.8570480639336682 3.986232556256554e-17 -1.5434651873314014e-16 3.986232556256554e-17 -1.5434651873314014e-16 -0.5152370758580571 0.8570476974247341
12611721333.333334 -0.5041267878910116 0.8636296554255717 3.78448444661727e-17 -1.5482142527616086e-16 3.78448444661727e-17 -1.5482142527616086e-16 -0.5041274021958249 0.8636292968369528
12612338666.666666 -0.4929330503201008 0.8700672433219865 3.582175589767273e-17 -1.552699755086843e-16 3.582175589767273e-17 -1.552699755086843e-16 -0.4929336691737267 0.8700668927126962
12612956000.0 -0.4816571199617951 0.8763597542048066 3.3793403988405525e-17 -1.556921039345819e-16 3.3793403988405525e-17 -1.556921039345819e-16 -0.4816577432606045 0.8763594116325228
12613573333.333334 -0.4703008769906455 0.8825061388464269 3.176013362452208e-17 -1.560877495485879e-16 3.176013362452208e-17 -1.560877495485879e-16 -0.4703015046302785 0.8825058043674818
12614190666.666666 -0.458866214972862 0.8885053723845906 2.972229038838393e-17 -1.5645685584485522e-16 2.972229038838393e-17 -1.5645685584485522e-16 -0.45886684684824425 0.8885050460539603
12614808000.0 -0.44735504055027286 0.8943564544934327 2.7680220499912426e-17 -1.567993708247395e-16 2.7680220499912426e-17 -1.567993708247395e-16 -0.44735567655563524 0.8943561363647313
12615425333.333334 -0.4357692731226102 0.9000584095501761 2.5634270757799764e-17 -1.5711524700382813e-16 2.5634270757799764e-17 -1.5711524700382813e-16 -0.43576991315150443 0.9000580996756433
12616042666.666666 -0.42411084452741155 0.9056102867978284 2.3584788480743244e-17 -1.5740444141818652e-16 2.3584788480743244e-17 -1.5740444141818652e-16 -0.42411148847272967 0.9056099852283241
12616660000.0 -0.41238169871790364 0.9110111605037209 2.1532121448480903e-17 -1.57666915629861e-16 2.1532121448480903e-17 -1.57666915629861e-16 -0.4123823464718946 0.9110108672887139
12617277333.333334 -0.4005837914388089 0.9162601301138829 1.947661784290623e-17 -1.5790263573159276e-16 1.947661784290623e-17 -1.5790263573159276e-16 -0.40058444289309714 0.9162598453014444
12617894666.666666 -0.3887190899005014 0.9213563204030932 1.741862618904881e-17 -1.5811157235077994e-16 1.741862618904881e-17 -1.5811157235077994e-16 -0.38871974494610534 0.9213560440398894
12618512000.0 -0.3767895724504162 0.9262988816210638 1.5358495296019566e-17 -1.5829370065266831e-16 1.5358495296019566e-17 -1.5829370065266831e-16 -0.37679023097776637 0.9262986137523479
12619129333.333334 -0.3647972282439066 0.9310869896338173 1.3296574198012323e-17 -1.5844900034276719e-16 1.3296574198012323e-17 -1.5844900034276719e-16 -0.3647978901428634 0.9310867303034212
12619746666.666666 -0.3527440569119915 0.9357198460613467 1.123321209520938e-17 -1.585774556685054e-16 1.123321209520938e-17 -1.585774556685054e-16 -0.3527447220718639 0.9357195953116745
12620364000.0 -0.34063206822814135 0.94019667841065 9.168758294682107e-18 -1.5867905542011788e-16 9.168758294682107e-18 -1.5867905542011788e-16 -0.34063273653770565 0.940196436282671
12620981333.333334 -0.3284632817733249 0.944516740204481 7.103562151377727e-18 -1.5875379293075934e-16 7.103562151377727e-18 -1.5875379293075934e-16 -0.32846395312084276 0.9445165067377221
12621598666.666666 -0.316239726598939 0.9486793111059334 5.037973009039963e-18 -1.58801666075855e-16 5.037973009039963e-18 -1.58801666075855e-16 -0.31624040087217714 0.9486790863384758
12622216000.0 -0.3039634408886947 0.9526836970384798 2.972340141154683e-18 -1.5882267727168462e-16 2.972340141154683e-18 -1.5882267727168462e-16 -0.30396411797494244 0.9526834810069484
12622833333.333334 -0.291636471618656 0.9565292303017308 9.070126920116919e-19 -1.5881683347319538e-16 9.070126920116919e-19 -1.5881683347319538e-16 -0.2916371514047448 0.9565290230412913
12623450666.666666 -0.2792608742161413 0.960215269682709 -1.1576603822788087e-18 -1.5878414617105325e-16 -1.1576603822788087e-18 -1.5878414617105325e-16 -0.2792615565884636 0.9602150712270607
12624068000.0 -0.2668387122167252 0.963741200562849 -3.2213303726607712e-18 -1.5872463138792708e-16 -3.2213303726607712e-18 -1.5872463138792708e-16 -0.2668393970612533 0.9637410109442205
12624685333.333334 -0.25437205692010273 0.967106435020488 -5.2836488759961996e-18 -1.5863830967400763e-16 -5.2836488759961996e-18 -1.5863830967400763e-16 -0.254372744122408 0.9671062542696314
12625302666.666666 -0.24186298704526524 0.9703104119287514 -7.344267853755148e-18 -1.5852520610176688e-16 -7.344267853755148e-18 -1.5852520610176688e-16 -0.24186367649053717 0.970310240074937
12625920000.0 -0.22931358838306587 0.9733525970493334 -9.402839690756379e-18 -1.5838535025994943e-16 -9.402839690756379e-18 -1.5838535025994943e-16 -0.2293142799561312 0.9733524341203459
12626537333.333334 -0.21672595344920104 0.9762324831213806 -1.1459017253687367e-17 -1.5821877624680958e-16 -1.1459017253687367e-17 -1.5821877624680958e-16 -0.2167266470345426 0.9762323291435119
12627154666.666666 -0.20410218113491338 0.9789495899461697 -1.3512453949565134e-17 -1.5802552266258736e-16 -1.3512453949565134e-17 -1.5802552266258736e-16 -0.2041028766166902 0.9789494449442185
12627772000.0 -0.19144437635696218 0.9815034644671888 -1.556280378417275e-17 -1.5780563260121943e-16 -1.556280378417275e-17 -1.5780563260121943e-16 -0.19144507361902854 0.9815033284644562
12628389333.333334 -0.17875464970681149 0.9838936808456465 -1.760972142019214e-17 -1.575591536413086e-16 -1.760972142019214e-17 -1.575591536413086e-16 -0.17875534863273587 0.9838935538639281
12629006666.666666 -0.16603511709864877 0.9861198405314834 -1.9652862235373702e-17 -1.5728613783632354e-16 -1.9652862235373702e-17 -1.5728613783632354e-16 -0.16603581757173363 0.986119722591069
12629624000.0 -0.15328789941657306 0.98818157232983 -2.1691882380463763e-17 -1.5698664170405638e-16 -2.1691882380463763e-17 -1.5698664170405638e-16 -0.15328860131987446 0.9881814634495013
12630241333.333334 -0.1405151221608977 0.9900785324629104 -2.372643883698778e-17 -1.566607262153297e-16 -2.372643883698778e-17 -1.566607262153297e-16 -0.1405158253772444 0.9900784326599346
12630858666.666666 -0.1277189150940203 0.9918104046273196 -2.5756189474906436e-17 -1.5630845678195122e-16 -2.5756189474906436e-17 -1.5630845678195122e-16 -0.12771961950603417 0.9918103139174521
12631476000.0 -0.11490141188468324 0.9933769000468591 -2.778079311010766e-17 -1.559299032439199e-16 -2.778079311010766e-17 -1.559299032439199e-16 -0.11490211737479773 0.993376818444335
12632093333.333334 -0.1020647497529315 0.9947777575205791 -2.9799909561645405e-17 -1.555251398559008e-16 -2.9799909561645405e-17 -1.555251398559008e-16 -0.10206545620341201 0.9947776850381147
12632710666.666666 -0.08921106911341144 0.9960127434663896 -3.181319970882232e-17 -1.550942452729552e-16 -3.181319970882232e-17 -1.550942452729552e-16 -0.08921177640637461 0.9960126801151782
12633328000.0 -0.07634251321818886 0.9970816519600249 -3.382032554815021e-17 -1.5463730253551526e-16 -3.382032554815021e-17 -1.5463730253551526e-16 -0.07634322123562255 0.9970815977497378
12633945333.333334 -0.06346122779983115 0.9979843047693383 -3.582095024997582e-17 -1.5415439905364876e-16 -3.582095024997582e-17 -1.5415439905364876e-16 -0.06346193642361389 0.997984259708121
12634562666.666666 -0.050569360713566755 0.9987205513840306 -3.7814738214921844e-17 -1.5364562659058521e-16 -3.7814738214921844e-17 -1.5364562659058521e-16 -0.05057006982548754 0.998720515478503
12635180000.0 -0.03766906157886325 0.9992902690407672 -3.9801355130176714e-17 -1.531110812454948e-16 -3.9801355130176714e-17 -1.531110812454948e-16 -0.037669771060641184 0.9992902422960208
12635797333.333334 -0.02476248142116478 0.9996933627436305 -4.1780468025422445e-17 -1.5255086343556993e-16 -4.1780468025422445e-17 -1.5255086343556993e-16 -0.024763191154468893 0.9996933451632299
12636414666.666666 -0.011851772313395691 0.9999297652799586 -4.3751745328609996e-17 -1.5196507787736126e-16 -4.3751745328609996e-17 -1.5196507787736126e-16 -0.011852482179864643 0.9999297568659394
12637032000.0 0.0010609129832218254 0.9999994372315629 -4.571485692143302e-17 -1.5135383356740538e-16 -4.571485692143302e-17 -1.5135383356740538e-16 0.0010602031019600246 0.9999994379844337
12637649333.333334 0.013973421377896932 0.9999023669812953 -4.7669474194534246e-17 -1.5071724376213713e-16 -4.7669474194534246e-17 -1.5071724376213713e-16 0.013972711600205178 0.9999023769000344
12638266666.666666 0.026883599809338233 0.9996385707149825 -4.9615270102478363e-17 -1.500554259570765e-16 -4.9615270102478363e-17 -1.500554259570765e-16 0.026882890253550597 0.9996385897970411
12638884000.0 0.0397892956047601 0.9992080924187301 -5.155191921834493e-17 -1.4936850186533764e-16 -5.155191921834493e-17 -1.4936850186533764e-16 0.039788586389162106 0.9992081206600322
12639501333.333334 0.05268835683888117 0.9986110038715873 -5.3479097788163214e-17 -1.486565973953891e-16 -5.3479097788163214e-17 -1.486565973953891e-16 0.05268764808169003 0.9986110412665288
12640118666.666666 0.06557863269245731 0.9978474046335883 -5.5396483784856154e-17 -1.4791984262817787e-16 -5.5396483784856154e-17 -1.4791984262817787e-16 0.06557792451180235 0.9978474511750409
12640736000.0 0.07845797381153868 0.9969174220291213 -5.730375696214178e-17 -1.4715837179345982e-16 -5.730375696214178e-17 -1.4715837179345982e-16 0.07845726632544144 0.9969174777084312
12641353333.333334 0.09132423266506327 0.9958212111257417 -5.920059890776796e-17 -1.4637232324556748e-16 -5.920059890776796e-17 -1.4637232324556748e-16 0.09132352599141799 0.9958212759327326
12641970666.666666 0.10417526390356541 0.9945589547082788 -6.108669309676003e-17 -1.455618394383585e-16 -6.108669309676003e-17 -1.455618394383585e-16 0.10417455816011943 0.9945590286312547
12642588000.0 0.11700892471666899 0.9931308632483687 -6.296172494406944e-17 -1.4472706689958214e-16 -6.296172494406944e-17 -1.4472706689958214e-16 0.11700822002100307 0.9931309462741141
12643205333.333334 0.12982307519015915 0.99153717486939 -6.482538185700844e-17 -1.4386815620451615e-16 -6.482538185700844e-17 -1.4386815620451615e-16 0.12982237165966784 0.9915372669831732
12643822666.666666 0.1426155786633609 0.9897781553066911 -6.667735328730934e-17 -1.4298526194893355e-16 -6.667735328730934e-17 -1.4298526194893355e-16 0.14261487641523293 0.9897782564922655
12644440000.0 0.15538430208490225 0.9878540978633376 -6.851733078278614e-17 -1.4207854272141716e-16 -6.851733078278614e-17 -1.4207854272141716e-16 0.15538360123610137 0.9878542081029477
12645057333.333334 0.1681271163684984 0.985765323361202 -7.034500803863002e-17 -1.411481610750061e-16 -7.034500803863002e-17 -1.411481610750061e-16 0.16812641703574316 0.9857654426355817
12645674666.666666 0.18084189674795983 0.9835121800874664 -7.216008094831424e-17 -1.4019428349818875e-16 -7.216008094831424e-17 -1.4019428349818875e-16 0.18084119904770518 0.9835123083758481
12646292000.0 0.1935265231318735 0.9810950437364824 -7.396224765419504e-17 -1.3921708038519578e-16 -7.396224765419504e-17 -1.3921708038519578e-16 0.1935258271802903 0.9810951810165952
12646909333.333334 0.20617888045638255 0.9785143173472496 -7.575120859756204e-17 -1.3821672600572437e-16 -7.575120859756204e-17 -1.3821672600572437e-16 0.2061781863693392 0.9785144635953272
12647526666.666666 0.218796859038474 0.9757704312361082 -7.752666656838363e-17 -1.3719339847396457e-16 -7.752666656838363e-17 -1.3719339847396457e-16 0.21879616693151632 0.9757705864268899
12648144000.0 0.23137835492747108 0.9728638429250314 -7.928832675466728e-17 -1.3614727971697086e-16 -7.928832675466728e-17 -1.3614727971697086e-16 0.231377664915804 0.9728640070317701
12648761333.333334 0.2439212702559073 0.9697950370653305 -8.103589679124614e-17 -1.3507855544248323e-16 -8.103589679124614e-17 -1.3507855544248323e-16 0.24392058245437484 0.969795210059794
12649378666.666666 0.25642351358938525 0.966564525356831 -8.276908680829126e-17 -1.3398741510603802e-16 -8.276908680829126e-17 -1.3398741510603802e-16 0.2564228281124516 0.9665647072093072
12649996000.0 0.26888300027508605 0.9631728464626016 -8.448760947930273e-17 -1.3287405187749784e-16 -8.448760947930273e-17 -1.3287405187749784e-16 0.2688823172368168 0.9631730371419052
12650613333.333334 0.28129765278975405 0.9596205659190382 -8.61911800686698e-17 -1.3173866260696127e-16 -8.61911800686698e-17 -1.3173866260696127e-16 0.28129697230379747 0.9596207653925161
12651230666.666666 0.2936654010856165 0.9559082760417056 -8.787951647876702e-17 -1.3058144779006833e-16 -8.787951647876702e-17 -1.3058144779006833e-16 0.29366472326518317 0.9559084842752391
12651848000.0 0.3059841829361457 0.9520365958263902 -8.955233929661458e-17 -1.2940261153268218e-16 -8.955233929661458e-17 -1.2940261153268218e-16 0.3059835078939916 0.9520368127844054
12652465333.333334 0.31825194427942993 0.9480061708460366 -9.120937184003905e-17 -1.2820236151499658e-16 -9.120937184003905e-17 -1.2820236151499658e-16 0.3182512721278368 0.9480063964915086
12653082666.666666 0.3304666395606756 0.9438176731431114 -9.285034020330969e-17 -1.2698090895508328e-16 -9.285034020330969e-17 -1.2698090895508328e-16 0.33046597041143183 0.9438179074375692
12653700000.0 0.34262623207382437 0.9394718011173597 -9.447497330243423e-17 -1.257384685717527e-16 -9.447497330243423e-17 -1.257384685717527e-16 0.3426255660382073 0.9394720440208956
12654317333.333334 0.35472869430040643 0.9349692794096129 -9.608300291978581e-17 -1.2447525854696288e-16 -9.608300291978581e-17 -1.2447525854696288e-16 0.3547280314891632 0.9349695308808865
12654934666.666666 0.36677200824820383 0.9303108587807527 -9.767416374832993e-17 -1.2319150048758498e-16 -9.767416374832993e-17 -1.2319150048758498e-16 0.36677134877153317 0.9303111187769992
12655552000.0 0.3787541657874666 0.9254973159866227 -9.924819343537551e-17 -1.2188741938657475e-16 -9.924819343537551e-17 -1.2188741938657475e-16 0.37875350975500055 0.9254975844636603
12656169333.333334 0.39067316898585935 0.9205294536484683 -1.0080483262563669e-16 -1.2056324358372837e-16 -1.0080483262563669e-16 -1.2056324358372837e-16 0.3906725165066453 0.9205297305607065
12656786666.666666 0.4025270304413917 0.9154081001191968 -1.0234382500401368e-16 -1.1921920472569057e-16 -1.0234382500401368e-16 -1.1921920472569057e-16 0.4025263816238731 0.9154083854196406
12657404000.0 0.41431377361411525 0.910134109345119 -1.038649173376359e-16 -1.1785553772558917e-16 -1.038649173376359e-16 -1.1785553772558917e-16 0.4143131285661157 0.9101344029853826
12658021333.333334 0.4260314331555409 0.9047083607236304 -1.0536785951748522e-16 -1.1647248072203733e-16 -1.0536785951748522e-16 -1.1647248072203733e-16 0.42603079198424376 0.9047086626539396
12658638666.666666 0.43767805523613723 0.8991317589566699 -1.0685240459942765e-16 -1.1507027503764704e-16 -1.0685240459942765e-16 -1.1507027503764704e-16 0.43767741804807 0.8991320691258747
12659256000.0 0.44925169787163377 0.8934052338996319 -1.0831830884472668e-16 -1.1364916513699032e-16 -1.0831830884472668e-16 -1.1364916513699032e-16 0.4492510647726491 0.8934055522552131
12659873333.333334 0.46075043124636716 0.8875297404065338 -1.09765331759973e-16 -1.1220939858407017e-16 -1.09765331759973e-16 -1.1220939858407017e-16 0.4607498023416254 0.8875300668946123
12660490666.666666 0.47217233803506664 0.881506258170809 -1.1119323613641283e-16 -1.1075122599932271e-16 -1.1119323613641283e-16 -1.1075122599932271e-16 0.4721717134290188 0.8815065927361554
12661108000.0 0.48351551372305795 0.8753357915616892 -1.1260178808883329e-16 -1.0927490101599435e-16 -1.1260178808883329e-16 -1.0927490101599435e-16 0.4835148935194283 0.8753361341477327
12661725333.333334 0.49477806692312165 0.8690193694571029 -1.1399075709371227e-16 -1.0778068023618418e-16 -1.1399075709371227e-16 -1.0778068023618418e-16 0.49477745122489 0.8690197200059406
12662342666.666666 0.5059581196914192 0.8625580450718233 -1.1535991602691704e-16 -1.0626882318626797e-16 -1.1535991602691704e-16 -1.0626882318626797e-16 0.5059575086008042 0.8625584035242302
12662960000.0 0.5170538078404238 0.8559528957819588 -1.167090412007152e-16 -1.0473959227194882e-16 -1.167090412007152e-16 -1.0473959227194882e-16 0.517053201458866 0.8559532620773984
12663577333.333334 0.528063281249614 0.8492050229453978 -1.1803791240025226e-16 -1.031932527327746e-16 -1.1803791240025226e-16 -1.031932527327746e-16 0.528062679677759 0.8492053970220317
12664194666.666666 0.5389847041742613 0.8423155517179929 -1.1934631291942645e-16 -1.0163007259619256e-16 -1.1934631291942645e-16 -1.0163007259619256e-16 0.5389841075119429 0.8423159335126912
12664812000.0 0.549816255551329 0.8352856308660636 -1.2063402959609877e-16 -1.0005032263121847e-16 -1.2063402959609877e-16 -1.0005032263121847e-16 0.5498156638975528 0.8352860203144163
12665429333.333334 0.5605561293032182 0.8281164325747898 -1.219008528467837e-16 -9.845427630155286e-17 -1.219008528467837e-16 -9.845427630155286e-17 0.5605555427561447 0.8281168296111161
12666046666.666666 0.5712025346386802 0.8208091522529154 -1.2314657670060084e-16 -9.684220971840293e-17 -1.2314657670060084e-16 -9.684220971840293e-17 0.5712019532956092 0.8208095568102767
12666664000.0 0.581753696351936 0.8133650083330751 -1.2437099883275063e-16 -9.521440159269715e-17 -1.2437099883275063e-16 -9.521440159269715e-17 0.5817531203092897 0.813365420343284
12667281333.333334 0.592207855118019 0.8057852420690754 -1.2557392059722028e-16 -9.357113318705184e-17 -1.2557392059722028e-16 -9.357113318705184e-17 0.5922072844713279 0.8057856614627106
12667898666.666666 0.6025632677866475 0.798071117328575 -1.2675514705893426e-16 -9.191268826722866e-17 -1.2675514705893426e-16 -9.191268826722866e-17 0.6025627026305312 0.798071544034989
12668516000.0 0.6128182076726437 0.7902239203825022 -1.2791448702528966e-16 -9.023935305315089e-17 -1.2791448702528966e-16 -9.023935305315089e-17 0.6128176481007989 0.7902243543298366
12669133333.333334 0.622970964843895 0.7822449596905493 -1.2905175307691666e-16 -8.855141616970442e-17 -1.2905175307691666e-16 -8.855141616970442e-17 0.6229704109490769 0.7822454008057443
12669750666.666666 0.6330198464065138 0.7741355656829593 -1.3016676159797127e-16 -8.684916859689866e-17 -1.3016676159797127e-16 -8.684916859689866e-17 0.633019298280523 0.7741360138917687
