! Parameters = {f0=12700.012000; bw=77.238000; Q=6100.000000; N=10; m_0_1=1.305000; m_1_1=0.810254; m_1_2=1.139812; m_2_2=0.809605; m_2_3=0.776775; m_2_8=0.002314; m_2_9=0.039018; m_3_3=0.807668; m_3_4=0.665304; m_3_7=0.002914; m_3_8=-0.094174; m_3_9=0.002314; m_4_4=0.804743; m_4_5=0.501639; m_4_6=0.006431; m_4_7=-0.114723; m_4_8=0.002914; m_5_5=0.805125; m_5_6=0.908994; m_5_7=0.006431; m_6_6=0.805124; m_6_7=0.501981; m_7_7=0.804757; m_7_8=0.665422; m_8_8=0.807666; m_8_9=0.777088; m_9_9=0.809600; m_9_10=1.140890; m_10_10=0.810244; m_10_11=1.305795}
!
! Created with skrf (http://scikit-rf.org).
# Hz S RI R 50.0 
!freq ReS11 ImS11 ReS21 ImS21 ReS12 ImS12 ReS22 ImS22
12607400000.0 0.04157860833142494 -0.999135235755919 3.173148179470648e-17 1.2615369900139532e-16 3.173148179470648e-17 1.2615369900139532e-16 0.041579295222978103 -0.9991352071709685
12608017333.333334 0.03002844388356797 -0.9995490445984856 3.319202315586208e-17 1.2575096821585207e-16 3.319202315586208e-17 1.2575096821585207e-16 0.030029131025969564 -0.9995490239551226
12608634666.666666 0.018474268312854574 -0.9998293361419832 3.4647490514996485e-17 1.253313385717106e-16 3.4647490514996485e-17 1.253313385717106e-16 0.018474955614297753 -0.999829323442188
12609252000.0 0.00691762499759528 -0.9999760729458516 3.609768847083236e-17 1.2489487359590298e-16 3.609768847083236e-17 1.2489487359590298e-16 0.006918312366260927 -0.9999760681905425
12609869333.333334 -0.004639942354294371 -0.9999892354094433 3.7542422413143213e-17 1.2444163907334088e-16 3.7542422413143213e-17 1.2444163907334088e-16 -0.00463925501022535 -0.9999892385984778
12610486666.666666 -0.016196889911356416 -0.9998688217746432 3.898149854879381e-17 1.2397170303712409e-16 3.898149854879381e-17 1.2397170303712409e-16 -0.01619620268369085 -0.9998688329068179
12611104000.0 -0.0277516739251243 -0.9996148481261009 4.0414723927772245e-17 1.2348513575841156e-16 4.0414723927772245e-17 1.2348513575841156e-16 -0.027750986905644485 -0.999614867199151
12611721333.333334 -0.03930275093593512 -0.9992273483890846 4.1841906468921315e-17 1.2298200973604903e-16 4.1841906468921315e-17 1.2298200973604903e-16 -0.03930206421638655 -0.9992273753996855
12612338666.666666 -0.05084857797938541 -0.99870637432495 4.326285498571485e-17 1.2246239968584417e-16 4.326285498571485e-17 1.2246239968584417e-16 -0.05084789165146458 -0.9987064092687172
12612956000.0 -0.06238761279246469 -0.9980519955242164 4.4677379211810394e-17 1.2192638252957304e-16 4.4677379211810394e-17 1.2192638252957304e-16 -0.06238692694780673 -0.9980520383957053
12613573333.333334 -0.07391831401919827 -0.9972642993972926 4.608528982645814e-17 1.213740373836988e-16 4.608528982645814e-17 1.213740373836988e-16 -0.07391762874936482 -0.9972643501900007
12614190666.666666 -0.08543914141699178 -0.9963433911627761 4.748639847983321e-17 1.2080544554777255e-16 4.748639847983321e-17 1.2080544554777255e-16 -0.08543845681345881 -0.9963434498691442
12614808000.0 -0.09694855606211769 -0.9952893938334135 4.888051781817485e-17 1.2022069049256276e-16 4.888051781817485e-17 1.2022069049256276e-16 -0.09694787221626318 -0.9952894604448258
12615425333.333334 -0.10844502055533763 -0.9941024481996635 5.0267461508801513e-17 1.196198578478871e-16 5.0267461508801513e-17 1.196198578478871e-16 -0.10844433755842943 -0.9941025227064496
12616042666.666666 -0.11992699922726446 -0.9927827128108933 5.164704426497421e-17 1.1900303539015796e-16 5.164704426497421e-17 1.1900303539015796e-16 -0.11992631717044801 -0.9927827952023275
12616660000.0 -0.13139295834349307 -0.991330363954196 5.3019081870608327e-17 1.183703130296413e-16 5.3019081870608327e-17 1.183703130296413e-16 -0.13139227731777942 -0.991330454218502
12617277333.333334 -0.14284136630950098 -0.9897455956308411 5.43833912048373e-17 1.1772178279742829e-16 5.43833912048373e-17 1.1772178279742829e-16 -0.14284068640575454 -0.9897456937551921
12617894666.666666 -0.1542706938750945 -0.9880286195303809 5.573979026637827e-17 1.1705753883214374e-16 5.573979026637827e-17 1.1705753883214374e-16 -0.15427001518402092 -0.9880287255009015
12618512000.0 -0.16567941433901942 -0.9861796650023226 5.7088098197843e-17 1.1637767736632326e-16 5.7088098197843e-17 1.1637767736632326e-16 -0.16567873695115348 -0.9861797788040901
12619129333.333334 -0.17706600375238812 -0.9841989790255691 5.842813530971775e-17 1.1568229671259091e-16 5.842813530971775e-17 1.1568229671259091e-16 -0.1770653277580818 -0.9841991006426173
12619746666.666666 -0.1884289411226952 -0.982086826175362 5.975972310433861e-17 1.149714972494831e-16 5.975972310433861e-17 1.149714972494831e-16 -0.18842826661210502 -0.9820869555906803
12620364000.0 -0.19976670861687285 -0.9798434885879455 6.108268429960871e-17 1.1424538140703768e-16 6.108268429960871e-17 1.1424538140703768e-16 -0.19976603567994927 -0.9798436257834875
12620981333.333334 -0.21107779176381916 -0.9774692659229365 6.239684285253308e-17 1.135040536521187e-16 6.239684285253308e-17 1.135040536521187e-16 -0.2110771204902928 -0.9774694108796141
12621598666.666666 -0.2223606796569738 -0.974964475323231 6.370202398263387e-17 1.1274762047343772e-16 6.370202398263387e-17 1.1274762047343772e-16 -0.2223600101363447 -0.9749646280209237
12622216000.0 -0.23361386515600327 -0.9723294513726751 6.499805419513737e-17 1.1197619036633455e-16 6.499805419513737e-17 1.1197619036633455e-16 -0.23361319747752868 -0.97232961179023
12622833333.333334 -0.2448358450882034 -0.9695645460513496 6.628476130399961e-17 1.1118987381727816e-16 6.628476130399961e-17 1.1118987381727816e-16 -0.2448351793408856 -0.9695647141665845
12623450666.666666 -0.2560251204490691 -0.96667012868861 6.75619744547271e-17 1.1038878328811636e-16 6.75619744547271e-17 1.1038878328811636e-16 -0.2560244567216437 -0.9666703044783168
12624068000.0 -0.2671801966028038 -0.9636465859136851 6.882952414703611e-17 1.0957303320004553e-16 6.882952414703611e-17 1.0957303320004553e-16 -0.26717953498372804 -0.9636467693536328
12624685333.333334 -0.27829958348202233 -0.9604943216040105 7.008724225730975e-17 1.0874273991732663e-16 7.008724225730975e-17 1.0874273991732663e-16 -0.27829892405946294 -0.9604945126689478
12625302666.666666 -0.2893817957862704 -0.9572137568314237 7.133496206080775e-17 1.0789802173077918e-16 7.133496206080775e-17 1.0789802173077918e-16 -0.2893811386480926 -0.9572139554950854
12625920000.0 -0.3004253531811121 -0.9538053298057307 7.257251825380388e-17 1.0703899884093715e-16 7.257251825380388e-17 1.0703899884093715e-16 -0.3004246984148672 -0.9538055360408383
12626537333.333334 -0.31142878049534883 -0.9502694958163147 7.379974697535608e-17 1.0616579334106206e-16 7.379974697535608e-17 1.0616579334106206e-16 -0.3114281281882629 -0.9502697095945811
12627154666.666666 -0.32239060791826335 -0.9466067271712726 7.501648582901115e-17 1.0527852919981542e-16 7.501648582901115e-17 1.0527852919981542e-16 -0.32238995815722465 -0.9466069484634041
12627772000.0 -0.33330937119613707 -0.942817513134249 7.62225739042517e-17 1.0437733224371401e-16 7.62225739042517e-17 1.0437733224371401e-16 -0.33330872406768647 -0.9428177419099546
12628389333.333334 -0.3441836118273354 -0.9389023598592698 7.741785179769353e-17 1.0346233013937307e-16 7.741785179769353e-17 1.0346233013937307e-16 -0.3441829674176526 -0.9389025960872583
12629006666.666666 -0.3550118772577974 -0.9348617903228843 7.860216163415183e-17 1.0253365237544387e-16 7.860216163415183e-17 1.0253365237544387e-16 -0.3550112356526917 -0.9348620339708762
12629624000.0 -0.3657927210745316 -0.9306963442545074 7.977534708741686e-17 1.0159143024437046e-16 7.977534708741686e-17 1.0159143024437046e-16 -0.36579208235942823 -0.9306965952892315
12630241333.333334 -0.3765247031990094 -0.926406578064249 8.093725340086019e-17 1.0063579682386989e-16 8.093725340086019e-17 1.0063579682386989e-16 -0.3765240674589402 -0.9264068364514535
12630858666.666666 -0.3872063900795036 -0.9219930647686094 8.208772740778589e-17 9.966688695820546e-17 8.208772740778589e-17 9.966688695820546e-17 -0.3872057573990938 -0.921993330473062
12631476000.0 -0.39783635488276037 -0.9174563939138541 8.32266175516067e-17 9.868483723918839e-17 8.32266175516067e-17 9.868483723918839e-17 -0.39783572534621875 -0.9174566668993488
12632093333.333334 -0.40841317768427704 -0.9127971714973958 8.435377390572871e-17 9.768978598700353e-17 8.435377390572871e-17 9.768978598700353e-17 -0.40841255137538424 -0.9127974517267584
12632710666.666666 -0.41893544565813184 -0.9080160198867848 8.546904819324724e-17 9.668187323077599e-17 8.546904819324724e-17 9.668187323077599e-17 -0.4189348226602289 -0.9080163073218764
12633328000.0 -0.4294017532658327 -0.9031135777365129 8.657229380643569e-17 9.566124068889122e-17 8.657229380643569e-17 9.566124068889122e-17 -0.4294011336618109 -0.9031138723382374
12633945333.333334 -0.4398107024438336 -0.8980904999028085 8.766336582593444e-17 9.462803174915216e-17 8.766336582593444e-17 9.462803174915216e-17 -0.4398100863161225 -0.8980908016311154
12634562666.666666 -0.45016090279043924 -0.8929474573560934 8.874212103975579e-17 9.358239144867147e-17 8.874212103975579e-17 9.358239144867147e-17 -0.4501602902209957 -0.8929477661699833
12635180000.0 -0.4604509717514028 -0.8876851370914147 8.980841796203047e-17 9.252446645356535e-17 8.980841796203047e-17 9.252446645356535e-17 -0.46045036282170093 -0.8876854529489474
12635797333.333334 -0.47067953480478364 -0.8823042420365925 9.086211685151873e-17 9.145440503842953e-17 9.086211685151873e-17 9.145440503842953e-17 -0.47067892959580343 -0.8823045648948913
12636414666.666666 -0.4808452256443493 -0.8768054909584274 9.190307972986397e-17 9.037235706561752e-17 9.190307972986397e-17 9.037235706561752e-17 -0.4808446242365652 -0.8768058207736825
12637032000.0 -0.49094668636225897 -0.8711896183665946 9.293117039962701e-17 8.927847396428678e-17 9.293117039962701e-17 8.927847396428678e-17 -0.49094608883563023 -0.8711899550940726
12637649333.333334 -0.5009825676303495 -0.8654573744155843 9.394625446204501e-17 8.817290870926552e-17 9.394625446204501e-17 8.817290870926552e-17 -0.5009819740643094 -0.8654577180096336
12638266666.666666 -0.510951528880401 -0.8596095248044866 9.494819933455377e-17 8.705581579970653e-17 9.494819933455377e-17 8.705581579970653e-17 -0.5109509393538458 -0.8596098752185417
12638884000.0 -0.5208522384832059 -0.8536468506747091 9.593687426805336e-17 8.592735123754405e-17 9.593687426805336e-17 8.592735123754405e-17 -0.5208516530744846 -0.8536472078612987
12639501333.333334 -0.5306833739264923 -0.8475701485056026 9.691215036392339e-17 8.478767250575035e-17 9.691215036392339e-17 8.478767250575035e-17 -0.5306827927133967 -0.8475705124163561
12640118666.666666 -0.5404436219913191 -0.8413802300082402 9.787390059075061e-17 8.36369385464365e-17 9.787390059075061e-17 8.36369385464365e-17 -0.5404430450510723 -0.8413806005938925
12640736000.0 -0.5501316789281386 -0.8350779220165749 9.882199980088595e-17 8.247530973865739e-17 9.882199980088595e-17 8.247530973865739e-17 -0.5501311063373864 -0.8350782992269753
12641353333.333334 -0.5597462506300408 -0.8286640663775804 9.975632474658706e-17 8.130294787621272e-17 9.975632474658706e-17 8.130294787621272e-17 -0.5597456824648389 -0.8286644501616961
12641970666.666666 -0.5692860528063769 -0.8221395198382995 1.0067675409606092e-16 8.012001614506829e-17 1.0067675409606092e-16 8.012001614506829e-17 -0.5692854891421845 -0.8221399101442273
12642588000.0 -0.57874981115396 -0.8155051539316414 1.0158316844913098e-16 7.892667910072998e-17 1.0158316844913098e-16 7.892667910072998e-17 -0.5787492520656263 -0.8155055507066107
12643205333.333334 -0.5881362615273276 -0.8087618548599304 1.0247545035267551e-16 7.772310264539254e-17 1.0247545035267551e-16 7.772310264539254e-17 -0.5881357070890836 -0.8087622580503112
12643822666.666666 -0.5974441501076948 -0.8019105233764611 1.0335348431580046e-16 7.650945400490895e-17 1.0335348431580046e-16 7.650945400490895e-17 -0.5974436003931441 -0.8019109329277735
12644440000.0 -0.606672233570324 -0.794952074665265 1.0421715682472053e-16 7.528590170561569e-17 1.0421715682472053e-16 7.528590170561569e-17 -0.6066716886524309 -0.7949524905221835
12645057333.333334 -0.6158192792506494 -0.7878874382188272 1.0506635635737964e-16 7.405261555097316e-17 1.0506635635737964e-16 7.405261555097316e-17 -0.6158187392017307 -0.7878878603251895
12645674666.666666 -0.624884065308843 -0.7807175577139969 1.0590097339779347e-16 7.280976659804502e-17 1.0590097339779347e-16 7.280976659804502e-17 -0.6248835302005589 -0.7807179860128122
12646292000.0 -0.6338653808933197 -0.7734433908857079 1.0672090045013078e-16 7.155752713379264e-17 1.0672090045013078e-16 7.155752713379264e-17 -0.6338648507966623 -0.773443825319163
12646909333.333334 -0.6427620263020943 -0.7660659093993413 1.0752603205246407e-16 7.029607065128737e-17 1.0752603205246407e-16 7.029607065128737e-17 -0.6427615012873805 -0.7660663499088101
12647526666.666666 -0.6515728131432863 -0.7585860987207447 1.0831626479030502e-16 6.90255718256723e-17 1.0831626479030502e-16 6.90255718256723e-17 -0.6515722932801459 -0.7585865452467939
12648144000.0 -0.6602965644938322 -0.7510049579846044 1.0909149730982319e-16 6.77462064900207e-17 1.0909149730982319e-16 6.77462064900207e-17 -0.6602960498512015 -0.7510054104670048
12648761333.333334 -0.6689321150566135 -0.7433234998610635 1.098516303307677e-16 6.645815161106923e-17 1.098516303307677e-16 6.645815161106923e-17 -0.6689316057027245 -0.7433239582387948
12649378666.666666 -0.6774783113161145 -0.7355427504204503 1.1059656665911874e-16 6.516158526478246e-17 1.1059656665911874e-16 6.516158526478246e-17 -0.6774778073184857 -0.7355432146317112
12649996000.0 -0.6859340116926326 -0.7276637489961052 1.113262111994695e-16 6.38566866117451e-17 1.113262111994695e-16 6.38566866117451e-17 -0.6859335131180606 -0.7276642189783209
12650613333.333334 -0.6942980866946192 -0.7196875480456815 1.1204047096708697e-16 6.254363587246966e-17 1.1204047096708697e-16 6.254363587246966e-17 -0.6942975936091705 -0.7196880237355135
12651230666.666666 -0.7025694190696019 -0.711615213010527 1.1273925509968983e-16 6.12226143025582e-17 1.1273925509968983e-16 6.12226143025582e-17 -0.7025689315386018 -0.7116156943438792
12651848000.0 -0.710746903953539 -0.7034478221732403 1.1342247486895657e-16 5.989380416769152e-17 1.1342247486895657e-16 5.989380416769152e-17 -0.7107464220415662 -0.7034483090852705
12652465333.333334 -0.7188294490182461 -0.695186466513798 1.140900436917068e-16 5.855738871855213e-17 1.140900436917068e-16 5.855738871855213e-17 -0.7188289727891224 -0.6951869589389246
12653082666.666666 -0.7268159746173085 -0.6868322495638268 1.147418771408039e-16 5.721355216559504e-17 1.147418771408039e-16 5.721355216559504e-17 -0.7268155041340891 -0.6868327474357381
12653700000.0 -0.7347054139304938 -0.6783862872589912 1.153778929557761e-16 5.58624796536651e-17 1.153778929557761e-16 5.58624796536651e-17 -0.7347049492554609 -0.6783867905106539
12654317333.333334 -0.7424967131059779 -0.669849707790213 1.1599801105310288e-16 5.450435723657278e-17 1.1599801105310288e-16 5.450435723657278e-17 -0.742496254300633 -0.6698502163538838
12654934666.666666 -0.7501888314013186 -0.6612236514527737 1.166021535362321e-16 5.3139371851498294e-17 1.166021535362321e-16 5.3139371851498294e-17 -0.7501883785263714 -0.661224165260004
12655552000.0 -0.7577807413224829 -0.6525092704939631 1.1719024470530355e-16 5.1767711293264996e-17 1.1719024470530355e-16 5.1767711293264996e-17 -0.7577802944378458 -0.6525097894756118
12656169333.333334 -0.7652714287608585 -0.6437077289594475 1.177622110665216e-16 5.0389564188620095e-17 1.177622110665216e-16 5.0389564188620095e-17 -0.7652709879256381 -0.6437082530456888
12656786666.666666 -0.7726598931290163 -0.6348202025374379 1.1831798134128983e-16 4.900511997026616e-17 1.1831798134128983e-16 4.900511997026616e-17 -0.772659458401505 -0.6348207316577712
12657404000.0 -0.7799451474941929 -0.6258478784018335 1.1885748647499578e-16 4.7614568850896464e-17 1.1885748647499578e-16 4.7614568850896464e-17 -0.7799447189318635 -0.6258484124850935
12658021333.333334 -0.787126218710186 -0.6167919550535824 1.1938065964551032e-16 4.6218101797091664e-17 1.1938065964551032e-16 4.6218101797091664e-17 -0.7871257963696788 -0.6167924940279459
12658638666.666666 -0.7942021475472466 -0.6076536421606936 1.1988743627137025e-16 4.4815910503151414e-17 1.1988743627137025e-16 4.4815910503151414e-17 -0.794201731484369 -0.6076541859536931
12659256000.0 -0.8011719888203961 -0.5984341603964353 1.203777540196725e-16 4.340818736478633e-17 1.203777540196725e-16 4.340818736478633e-17 -0.8011715790901087 -0.5984347089349653
12659873333.333334 -0.8080348115155317 -0.5891347412764527 1.2085155281363758e-16 4.1995125452790186e-17 1.2085155281363758e-16 4.1995125452790186e-17 -0.8080344081719459 -0.5891352944867824
12660490666.666666 -0.814789698913716 -0.5797566269943888 1.2130877483987456e-16 4.057691848659993e-17 1.2130877483987456e-16 4.057691848659993e-17 -0.8147893020100835 -0.5797571848021691
12661108000.0 -0.8214357487139734 -0.5703010702554653 1.2174936455534837e-16 3.9153760807743745e-17 1.2174936455534837e-16 3.9153760807743745e-17 -0.821435358302681 -0.570301632585741
12661725333.333334 -0.8279720731533566 -0.5607693341097993 1.2217326869401037e-16 3.772584735329445e-17 1.2217326869401037e-16 3.772584735329445e-17 -0.8279716892859191 -0.5607699008870186
12662342666.666666 -0.8343977991258941 -0.5511626917831784 1.2258043627313989e-16 3.6293373629183324e-17 1.2258043627313989e-16 3.6293373629183324e-17 -0.8343974218529472 -0.5511632629312027
12662960000.0 -0.8407120682990527 -0.5414824265072178 1.2297081859936719e-16 3.48565356834681e-17 1.2297081859936719e-16 3.48565356834681e-17 -0.8407116976703458 -0.541483001949332
12663577333.333334 -0.8469140372284231 -0.5317298313479024 1.233443692743795e-16 3.341553007955164e-17 1.233443692743795e-16 3.341553007955164e-17 -0.8469136732928142 -0.5317304110068257
12664194666.666666 -0.8530028774703875 -0.5219062090328633 1.2370104420031773e-16 3.1970553869327394e-17 1.2370104420031773e-16 3.1970553869327394e-17 -0.853002520275835 -0.5219067928307587
12664812000.0 -0.8589777756927789 -0.5120128717773619 1.2404080158485868e-16 3.0521804566272617e-17 1.2404080158485868e-16 3.0521804566272617e-17 -0.8589774252863371 -0.512013459635848
12665429333.333334 -0.864837933783555 -0.5020511411089593 1.2436360194598265e-16 2.906948011848574e-17 1.2436360194598265e-16 2.906948011848574e-17 -0.8648375902113657 -0.5020517329491189
12666046666.666666 -0.8705825689572602 -0.492022347691233 1.2466940811642246e-16 2.761377888169694e-17 1.2466940811642246e-16 2.761377888169694e-17 -0.8705822322645494 -0.49202294343362596
12666664000.0 -0.8762109138599088 -0.4819278311454933 1.2495818524780832e-16 2.6154899592176972e-17 1.2495818524780832e-16 2.6154899592176972e-17 -0.8762105840909781 -0.48192843071016506
12667281333.333334 -0.8817222166710835 -0.47176893987252594 1.2522990081447809e-16 2.4693041339693736e-17 1.2522990081447809e-16 2.4693041339693736e-17 -0.8817218938693054 -0.47176954317901926
12667898666.666666 -0.8871157412046596 -0.46154703087195936 1.2548452461698944e-16 2.322840354034638e-17 1.2548452461698944e-16 2.322840354034638e-17 -0.887115425412473 -0.46154763783932595
12668516000.0 -0.8923907670070731 -0.4512634695611234 1.2572202878530703e-16 2.1761185909401028e-17 1.2572202878530703e-16 2.1761185909401028e-17 -0.8923904582659749 -0.4512640801079329
12669133333.333334 -0.8975465894534457 -0.4409196295928589 1.259423877816674e-16 2.0291588434128843e-17 1.259423877816674e-16 2.0291588434128843e-17 -0.8975462878039872 -0.44092024363721094
12669750666.666666 -0.9025825198418435 -0.43051689267177906 1.2614557840313966e-16 1.8819811346546387e-17 1.2614557840313966e-16 1.8819811346546387e-17 -0.902582225323626 -0.43051751013131456
12670368000.0 -0.9074978854852299 -0.4200566483697789 1.2633157978385626e-16 1.734605509620124e-17 1.2633157978385626e-16 1.734605509620124e-17 -0.9074975981368977 -0.42005726916169045
