! Parameters = {f0=12700.012000; bw=77.238000; Q=6100.000000; N=10; m_0_1=1.177472; m_1_1=-1.102659; m_1_2=1.012284; m_2_2=-1.103308; m_2_3=0.649247; m_2_8=-0.004063; m_2_9=0.032641; m_3_3=-1.105245; m_3_4=0.537776; m_3_7=-0.003463; m_3_8=-0.100551; m_3_9=-0.004063; m_4_4=-1.108170; m_4_5=0.374111; m_4_6=0.000054; m_4_7=-0.121100; m_4_8=-0.003463; m_5_5=-1.107788; m_5_6=0.781466; m_5_7=0.000054; m_6_6=-1.107789; m_6_7=0.374453; m_7_7=-1.108156; m_7_8=0.537894; m_8_8=-1.105247; m_8_9=0.649560; m_9_9=-1.103313; m_9_10=1.013362; m_10_10=-1.102669; m_10_11=1.178267}
!
! Created with skrf (http://scikit-rf.org).
# Hz S RI R 50.0 
!freq ReS11 ImS11 ReS21 ImS21 ReS12 ImS12 ReS22 ImS22
12607400000.0 0.9932038876613323 0.11638744577600706 -6.895852340930702e-17 1.1933576158777327e-17 -6.895852340930702e-17 1.1933576158777327e-17 0.9932038154403624 0.11638806207921394
12608017333.333334 0.9940801391639924 0.10864933004646772 -6.884890473064708e-17 1.2473893051532132e-17 -6.884890473064708e-17 1.2473893051532132e-17 0.9940800717479812 0.10864994686319927
12608634666.666666 0.9948961034320594 0.1009046251444989 -6.873505677427449e-17 1.3013224268130552e-17 -6.873505677427449e-17 1.3013224268130552e-17 0.994896040824627 0.10090524243729933
12609252000.0 0.9956517309804132 0.09315380075742889 -6.861698825929447e-17 1.3551536738432468e-17 -6.861698825929447e-17 1.3551536738432468e-17 0.9956516731848837 0.0931544184888167
12609869333.333334 0.9963469759831267 0.08539732694368027 -6.849470816312967e-17 1.408879746842526e-17 -6.849470816312967e-17 1.408879746842526e-17 0.9963469230025349 0.08539794507615132
12610486666.666666 0.996981796276242 0.07763567410440507 -6.836822572086246e-17 1.4624973542241456e-17 -6.836822572086246e-17 1.4624973542241456e-17 0.9969817481133283 0.0776362926004345
12611104000.0 0.9975561533603482 0.06986931295464484 -6.823755042455808e-17 1.5160032124182227e-17 -6.823755042455808e-17 1.5160032124182227e-17 0.9975561100175614 0.06986993177668933
12611721333.333334 0.9980700124028845 0.062098714495179924 -6.810269202258133e-17 1.5693940460696462e-17 -6.810269202258133e-17 1.5693940460696462e-17 0.9980699738823818 0.062099333605680276
12612338666.666666 0.998523342240281 0.05432434998365398 -6.796366051888751e-17 1.622666588239852e-17 -6.796366051888751e-17 1.622666588239852e-17 0.9985233085439263 0.054324969345037014
12612956000.0 0.998916115379835 0.046546690906106664 -6.782046617230184e-17 1.67581758060605e-17 -6.782046617230184e-17 1.67581758060605e-17 0.9989160865091987 0.04654731048078768
12613573333.333334 0.9992483080013758 0.0387662089484652 -6.767311949578818e-17 1.7288437736581204e-17 -6.767311949578818e-17 1.7288437736581204e-17 0.9992482839577372 0.03876682869885032
12614190666.666666 0.9995198999587194 0.03098337596776817 -6.752163125569274e-17 1.7817419268985364e-17 -6.752163125569274e-17 1.7817419268985364e-17 0.9995198807430632 0.03098399585625648
12614808000.0 0.9997308747808827 0.023198663963662568 -6.736601247097994e-17 1.8345088090387682e-17 -6.736601247097994e-17 1.8345088090387682e-17 0.9997308603939021 0.023199283952648468
12615425333.333334 0.9998812196730859 0.015412545049750445 -6.720627441244994e-17 1.8871411981961903e-17 -6.720627441244994e-17 1.8871411981961903e-17 0.9998812101151806 0.015413165101625936
12616042666.666666 0.9999709255175255 0.007625491424956996 -6.704242860194066e-17 1.939635882090328e-17 -6.704242860194066e-17 1.939635882090328e-17 0.9999709207888026 0.00762611150211394
12616660000.0 0.99999998687393 -0.00016202465513497018 -6.687448681151739e-17 1.9919896582374816e-17 -6.687448681151739e-17 1.9919896582374816e-17 0.9999999869742032 -0.00016140459030256055
12617277333.333334 0.9999684019798876 -0.007949530906840275 -6.670246106264111e-17 2.044199334146754e-17 -6.670246106264111e-17 2.044199334146754e-17 0.9999684069086783 -0.007948910891933959
12617894666.666666 0.9998761727509561 -0.015736555047042043 -6.652636362533108e-17 2.0962617275123603e-17 -6.652636362533108e-17 2.0962617275123603e-17 0.999876182507493 -0.015735935119656676
12618512000.0 0.9997233047805432 -0.023522624822032857 -6.634620701729918e-17 2.1481736664091804e-17 -6.634620701729918e-17 2.1481736664091804e-17 0.9997233193637621 -0.023522005019754304
12619129333.333334 0.9995098073395696 -0.031307268035785665 -6.616200400308569e-17 2.199931989482701e-17 -6.616200400308569e-17 2.199931989482701e-17 0.9995098267481142 -0.03130664839618855
12619746666.666666 0.9992356933759082 -0.03909001257887502 -6.597376759316554e-17 2.251533546142763e-17 -6.597376759316554e-17 2.251533546142763e-17 0.9992357176081287 -0.03908939313952037
12620364000.0 0.9989009795135901 -0.04687038645710849 -6.578151104304457e-17 2.3029751967546348e-17 -6.578151104304457e-17 2.3029751967546348e-17 0.9989010085675456 -0.046869767255541574
12620981333.333334 0.9985056860518116 -0.05464791781989592 -6.55852478523485e-17 2.3542538128277115e-17 -6.55852478523485e-17 2.3542538128277115e-17 0.9985057199252676 -0.054647298893643864
12621598666.666666 0.9980498369636868 -0.06242213498917761 -6.538499176388351e-17 2.4053662772069514e-17 -6.538499176388351e-17 2.4053662772069514e-17 0.9980498756541183 -0.06242151637574724
12622216000.0 0.9975334598948082 -0.0701925664877745 -6.518075676269254e-17 2.4563094842607655e-17 -6.518075676269254e-17 2.4563094842607655e-17 0.9975335033993977 -0.07019194822464996
12622833333.333334 0.9969565861615585 -0.07795874106820842 -6.497255707509195e-17 2.507080340069398e-17 -6.497255707509195e-17 2.507080340069398e-17 0.9969566344771958 -0.0779581231928489
12623450666.666666 0.9963192507492196 -0.08572018774105442 -6.476040716769765e-17 2.557675762611614e-17 -6.476040716769765e-17 2.557675762611614e-17 0.996319303872505 -0.08571957029089201
12624068000.0 0.9956214923098493 -0.0934764358036751 -6.454432174643308e-17 2.608092681951281e-17 -6.454432174643308e-17 2.608092681951281e-17 0.9956215502370895 -0.0934758188161123
12624685333.333334 0.9948633531599212 -0.10122701486879442 -6.4324315755519e-17 2.65832804042425e-17 -6.4324315755519e-17 2.65832804042425e-17 0.9948634158871349 -0.10122639838120227
12625302666.666666 0.9940448792777953 -0.10897145489274258 -6.410040437646427e-17 2.708378792820554e-17 -6.410040437646427e-17 2.708378792820554e-17 0.9940449468007093 -0.10897083894245808
12625920000.0 0.9931661203008847 -0.11670928620438678 -6.387260302701935e-17 2.7582419065712308e-17 -6.387260302701935e-17 2.7582419065712308e-17 0.993166192614934 -0.11670867082871046
12626537333.333334 0.9922271295226812 -0.12444003953321837 -6.36409273601393e-17 2.8079143619288446e-17 -6.36409273601393e-17 2.8079143619288446e-17 0.9922272066230122 -0.12443942476941248
12627154666.666666 0.9912279638895108 -0.1321632460380112 -6.340539326291663e-17 2.857393152150769e-17 -6.340539326291663e-17 2.857393152150769e-17 0.9912280457709797 -0.1321626319232972
12627772000.0 0.9901686839970658 -0.13987843733531077 -6.316601685549942e-17 2.906675283681565e-17 -6.316601685549942e-17 2.906675283681565e-17 0.9901687706542396 -0.13987782390686712
12628389333.333334 0.9890493540867624 -0.14758514552761468 -6.2922814490013e-17 2.955757776330911e-17 -6.2922814490013e-17 2.955757776330911e-17 0.9890494455139192 -0.1475845328225746
12629006666.666666 0.9878700420418018 -0.15528290323205862 -6.267580274944247e-17 3.0046376634558064e-17 -6.267580274944247e-17 3.0046376634558064e-17 0.987870138232931 -0.15528229128750792
12629624000.0 0.9866308193830934 -0.1629712436084802 -6.242499844652292e-17 3.0533119921374036e-17 -6.242499844652292e-17 3.0533119921374036e-17 0.9866309203318953 -0.16297063246145474
12630241333.333334 0.9853317612648886 -0.17064970038789873 -6.217041862260558e-17 3.1017778233590613e-17 -6.217041862260558e-17 3.1017778233590613e-17 0.985331866964777 -0.17064909007538265
12630858666.666666 0.9839729464702589 -0.17831780790062607 -6.191208054651211e-17 3.150032232183123e-17 -6.191208054651211e-17 3.150032232183123e-17 0.9839730569143581 -0.17831719845954896
12631476000.0 0.9825544574062561 -0.1859751011048145 -6.16500017133686e-17 3.1980723079279616e-17 -6.16500017133686e-17 3.1980723079279616e-17 0.9825545725874045 -0.18597449257204962
12632093333.333334 0.9810763800989827 -0.19362111561429607 -6.138419984344339e-17 3.245895154340743e-17 -6.138419984344339e-17 3.245895154340743e-17 0.981076500009733 -0.1936205080266582
12632710666.666666 0.9795388041883419 -0.20125538772694268 -6.111469288095496e-17 3.2934978897723994e-17 -6.111469288095496e-17 3.2934978897723994e-17 0.9795389288209594 -0.20125478112118536
12633328000.0 0.9779418229225915 -0.2088774544528145 -6.084149899286742e-17 3.3408776473514267e-17 -6.084149899286742e-17 3.3408776473514267e-17 0.9779419522690568 -0.20887684886562846
12633945333.333334 0.9762855331527074 -0.21648685354215577 -6.056463656768535e-17 3.3880315751542725e-17 -6.056463656768535e-17 3.3880315751542725e-17 0.9762856672047159 -0.21648624901016625
12634562666.666666 0.9745700353265028 -0.22408312351345552 -6.028412421422252e-17 3.434956836377161e-17 -6.028412421422252e-17 3.434956836377161e-17 0.9745701740754659 -0.22408252007322038
12635180000.0 0.9727954334825399 -0.2316658036814362 -5.99999807603634e-17 3.4816506095058904e-17 -5.99999807603634e-17 3.4816506095058904e-17 0.9727955769195833 -0.23166520136944302
12635797333.333334 0.9709618352438072 -0.23923443418501786 -5.97122252518087e-17 3.528110088484924e-17 -5.97122252518087e-17 3.528110088484924e-17 0.9709619833597745 -0.2392338330376827
12636414666.666666 0.9690693518112266 -0.24678855601509875 -5.942087695081413e-17 3.574332482884648e-17 -5.942087695081413e-17 3.574332482884648e-17 0.9690695045966782 -0.24678795606876325
12637032000.0 0.9671180979568637 -0.2543277110425567 -5.912595533490403e-17 3.62031501806942e-17 -5.912595533490403e-17 3.62031501806942e-17 0.9671182554020783 -0.25432711233348637
12637649333.333334 0.9651081920169903 -0.26185144204595084 -5.882748009558808e-17 3.666054935362075e-17 -5.882748009558808e-17 3.666054935362075e-17 0.9651083541119644 -0.2618508446103324
12638266666.666666 0.9630397558849288 -0.2693592927391678 -5.852547113704976e-17 3.7115494922098793e-17 -5.852547113704976e-17 3.7115494922098793e-17 0.9630399226193775 -0.2693586966131072
12638884000.0 0.9609129150036161 -0.27685080779925814 -5.821994857483332e-17 3.756795962347591e-17 -5.821994857483332e-17 3.756795962347591e-17 0.9609130863669753 -0.2768502130187785
12639501333.333334 0.9587277983580164 -0.2843255328939679 -5.791093273451197e-17 3.8017916359604234e-17 -5.791093273451197e-17 3.8017916359604234e-17 0.958727974339442 -0.28432493949500726
12640118666.666666 0.9564845384673423 -0.2917830147091563 -5.759844415035236e-17 3.84653381984464e-17 -5.759844415035236e-17 3.84653381984464e-17 0.9564847190557104 -0.29178242272756516
12640736000.0 0.9541832713768847 -0.29922280097672227 -5.728250356394222e-17 3.8910198375706345e-17 -5.728250356394222e-17 3.8910198375706345e-17 0.954183456560794 -0.2992222104482621
12641353333.333334 0.9518241366499613 -0.3066444405013809 -5.696313192285044e-17 3.935247029638402e-17 -5.696313192285044e-17 3.935247029638402e-17 0.9518243264177327 -0.3066438514617211
12641970666.666666 0.9494072773592778 -0.3140474831885969 -5.664035037922409e-17 3.9792127536391935e-17 -5.664035037922409e-17 3.9792127536391935e-17 0.9494074716989561 -0.3140468956733137
12642588000.0 0.9469328400783271 -0.321431480071637 -5.631418028840871e-17 4.022914384411046e-17 -5.631418028840871e-17 4.022914384411046e-17 0.9469330389776793 -0.3214308941162101
12643205333.333334 0.9444009748725245 -0.3287959833387171 -5.598464320754262e-17 4.0663493141951133e-17 -5.598464320754262e-17 4.0663493141951133e-17 0.9444011783190442 -0.3287953989785285
12643822666.666666 0.9418118352900221 -0.3361405463604303 -5.565176089414151e-17 4.1095149527905146e-17 -5.565176089414151e-17 4.1095149527905146e-17 0.9418120432709273 -0.33613996363076165
12644440000.0 0.9391655783524733 -0.34346472371659037 -5.5315555304670565e-17 4.1524087277082494e-17 -5.5315555304670565e-17 4.1524087277082494e-17 0.9391657908547079 -0.34346414265262104
12645057333.333334 0.9364623645454928 -0.35076807122329884 -5.497604859310841e-17 4.1950280843232343e-17 -5.497604859310841e-17 4.1950280843232343e-17 0.9364625815557295 -0.3507674918601041
12645674666.666666 0.9337023578089301 -0.3580501459598846 -5.463326310949615e-17 4.2373704860259155e-17 -5.463326310949615e-17 4.2373704860259155e-17 0.9337025793135671 -0.35804956833243234
12646292000.0 0.9308857255268477 -0.3653105062959491 -5.428722139846618e-17 4.2794334143735303e-17 -5.428722139846618e-17 4.2794334143735303e-17 0.9308859515120147 -0.36530993043909954
12646909333.333334 0.9280126385175105 -0.37254871191780703 -5.3937946197784577e-17 4.3212143692371516e-17 -5.3937946197784577e-17 4.3212143692371516e-17 0.928012868969065 -0.37254813786630897
12647526666.666666 0.925083271022907 -0.3797643238554792 -5.3585460436853645e-17 4.36271086895106e-17 -5.3585460436853645e-17 4.36271086895106e-17 0.9250835059264364 -0.37976375164396825
12648144000.0 0.9220978006982347 -0.3869569045091822 -5.3229787235216957e-17 4.4039204504592336e-17 -5.3229787235216957e-17 4.4039204504592336e-17 0.9220980400390607 -0.38695633417218017
12648761333.333334 0.9190564086011093 -0.3941260176759216 -5.2870949901056626e-17 4.444840669460159e-17 -5.2870949901056626e-17 4.444840669460159e-17 0.9190566523642835 -0.39412544924783227
12649378666.666666 0.915959279180622 -0.40127122857583886 -5.250897192967484e-17 4.4854691005510636e-17 -5.250897192967484e-17 4.4854691005510636e-17 0.9159595273509313 -0.40127066209094786
12649996000.0 0.9128066002660946 -0.40839210387873925 -5.2143877001957764e-17 4.525803337371628e-17 -5.2143877001957764e-17 4.525803337371628e-17 0.9128068528280573 -0.4083915393712096
12650613333.333334 0.9095985630557119 -0.41548821173028927 -5.1775688982838786e-17 4.56584099274529e-17 -5.1775688982838786e-17 4.56584099274529e-17 0.9095988199935834 -0.41548764923416165
12651230666.666666 0.9063353621049801 -0.4225591217781061 -5.1404431919751103e-17 4.6055796988193055e-17 -5.1404431919751103e-17 4.6055796988193055e-17 0.9063356234027521 -0.422558561327296
12651848000.0 0.9030171953148082 -0.4296044051981149 -5.10301300410578e-17 4.645017107204878e-17 -5.10301300410578e-17 4.645017107204878e-17 0.9030174609562094 -0.42960384682641034
12652465333.333334 0.8996442639196136 -0.43662363472032323 -5.0652807754483096e-17 4.6841508891147024e-17 -5.0652807754483096e-17 4.6841508891147024e-17 0.8996445338881099 -0.43662307846138254
12653082666.666666 0.8962167724751032 -0.4436163846547583 -5.0272489645534624e-17 4.722978735499132e-17 -5.0272489645534624e-17 4.722978735499132e-17 0.896217046753901 -0.4436158305421087
12653700000.0 0.8927349288457993 -0.45058223091743876 -4.988920047589483e-17 4.761498357183158e-17 -4.988920047589483e-17 4.761498357183158e-17 0.8927352074178443 -0.4505816789844738
12654317333.333334 0.8891989441925279 -0.45752075105588796 -4.950296518183636e-17 4.7997074849986204e-17 -4.950296518183636e-17 4.7997074849986204e-17 0.8891992270405085 -0.45752020133586635
12654934666.666666 0.885609032959542 -0.4644315242749086 -4.911380887259412e-17 4.8376038699184515e-17 -4.911380887259412e-17 4.8376038699184515e-17 0.8856093200658873 -0.4644309768009511
12655552000.0 0.8819654128614979 -0.4713141314621255 -4.8721756828741176e-17 4.875185283188259e-17 -4.8721756828741176e-17 4.875185283188259e-17 0.8819657042083817 -0.4713135862672135
12656169333.333334 0.8782683048703724 -0.47816815521317735 -4.8326834500567185e-17 4.912449516455334e-17 -4.8326834500567185e-17 4.912449516455334e-17 0.8782686004397127 -0.4781676123301509
12656786666.666666 0.8745179332019285 -0.4849931798572818 -4.79290675064203e-17 4.94939438189897e-17 -4.79290675064203e-17 4.94939438189897e-17 0.8745182329753891 -0.4849926393188377
12657404000.0 0.870714525302171 -0.4917887914823443 -4.7528481631060463e-17 4.9860177123573994e-17 -4.7528481631060463e-17 4.9860177123573994e-17 0.8707148292611627 -0.49178825332103393
12658021333.333334 0.8668583118335954 -0.4985545779599859 -4.712510282399304e-17 5.022317361454348e-17 -4.712510282399304e-17 5.022317361454348e-17 0.866858619959276 -0.49855404220821276
12658638666.666666 0.8629495266611126 -0.5052901289706849 -4.6718957197801655e-17 5.0582912037234736e-17 -4.6718957197801655e-17 5.0582912037234736e-17 0.8629498389343908 -0.5052895956607041
12659256000.0 0.8589884068379265 -0.5119950360285648 -4.63100710264569e-17 5.093937134732743e-17 -4.63100710264569e-17 5.093937134732743e-17 0.8589887232394597 -0.5119945051924795
12659873333.333334 0.8549751925911234 -0.5186688925062126 -4.589847074362903e-17 5.129253071206318e-17 -4.589847074362903e-17 5.129253071206318e-17 0.8549755131013218 -0.5186683641759736
12660490666.666666 0.8509101273071813 -0.5253112936592214 -4.548418294099263e-17 5.164236951144918e-17 -4.548418294099263e-17 5.164236951144918e-17 0.8509104519062078 -0.525310767866624
12661108000.0 0.8467934575170466 -0.5319218366510027 -4.5067234366500255e-17 5.1988867339467745e-17 -4.5067234366500255e-17 5.1988867339467745e-17 0.8467937861848163 -0.5319213134276846
12661725333.333334 0.8426254328813844 -0.5385001205768745 -4.4647651922683954e-17 5.2332004005239903e-17 -4.4647651922683954e-17 5.2332004005239903e-17 0.8426257655975702 -0.5384995999543155
12662342666.666666 0.8384063061752846 -0.5450457464886465 -4.422546266491087e-17 5.26717595342074e-17 -4.422546266491087e-17 5.26717595342074e-17 0.8384066429193132 -0.5450452284981646
12662960000.0 0.8341363332729786 -0.5515583174187112 -4.3800693799653657e-17 5.3008114169280075e-17 -4.3800693799653657e-17 5.3008114169280075e-17 0.8341366740240374 -0.5515578020914632
12663577333.333334 0.8298157731323805 -0.5580374384040542 -4.3373372682743535e-17 5.334104837197731e-17 -4.3373372682743535e-17 5.334104837197731e-17 0.8298161178694141 -0.5580369257710313
12664194666.666666 0.8254448877792814 -0.5644827165103453 -4.294352681761587e-17 5.3670542823553784e-17 -4.294352681761587e-17 5.3670542823553784e-17 0.825445236480995 -0.5644822066023724
12664812000.0 0.821023942291523 -0.5708937608556746 -4.2511183853546347e-17 5.399657842611304e-17 -4.2511183853546347e-17 5.399657842611304e-17 0.8210242949363831 -0.5708932537034083
12665429333.333334 0.8165532047828893 -0.5772701826343047 -4.2076371583884107e-17 5.431913630370113e-17 -4.2076371583884107e-17 5.431913630370113e-17 0.816553561349126 -0.5772696782682317
12666046666.666666 0.8120329463869289 -0.5836115951401356 -4.163911794427163e-17 5.4638197803392265e-17 -4.163911794427163e-17 5.4638197803392265e-17 0.8120333068525373 -0.5836110935905711
12666664000.0 0.807463441240331 -0.5899176137904103 -4.119945101084581e-17 5.495374449636565e-17 -4.119945101084581e-17 5.495374449636565e-17 0.8074638055830715 -0.5899171150874956
12667281333.333334 0.8028449664665325 -0.5961878561487165 -4.0757398998463454e-17 5.5265758178945996e-17 -4.0757398998463454e-17 5.5265758178945996e-17 0.8028453346639309 -0.5961873603224163
12667898666.666666 0.7981778021587241 -0.6024219419484302 -4.0312990258881956e-17 5.557422087365556e-17 -4.0312990258881956e-17 5.557422087365556e-17 0.7981781741880771 -0.6024214490285336
12668516000.0 0.7934622313629367 -0.60861949311569 -3.9866253278948336e-17 5.587911483024038e-17 -3.9866253278948336e-17 5.587911483024038e-17 0.7934626072013088 -0.6086190031318048
12669133333.333334 0.7886985400609218 -0.6147801337922527 -3.941721667879489e-17 5.618042252667205e-17 -3.941721667879489e-17 5.618042252667205e-17 0.7886989196851499 -0.6147796467738077
12669750666.666666 0.7838870171527087 -0.620903490358429 -3.8965909209996995e-17 5.647812667015635e-17 -3.8965909209996995e-17 5.647812667015635e-17 0.7838874005394016 -0.6209030063346689
12670368000.0 0.7790279544391315 -0.6269891914556684 -3.8512359753745596e-17 5.67722101981111e-17 -3.8512359753745596e-17 5.67722101981111e-17 0.7790283415646733 -0.6269887104556546
