! Parameters = {f0=12700.012000; bw=77.238000; Q=6100.000000; N=10; m_0_1=1.190085; m_1_1=-0.913469; m_1_2=1.024897; m_2_2=-0.914118; m_2_3=0.661860; m_2_8=-0.003432; m_2_9=0.033272; m_3_3=-0.916055; m_3_4=0.550389; m_3_7=-0.002832; m_3_8=-0.099920; m_3_9=-0.003432; m_4_4=-0.918980; m_4_5=0.386724; m_4_6=0.000685; m_4_7=-0.120469; m_4_8=-0.002832; m_5_5=-0.918598; m_5_6=0.794079; m_5_7=0.000685; m_6_6=-0.918599; m_6_7=0.387066; m_7_7=-0.918966; m_7_8=0.550507; m_8_8=-0.916057; m_8_9=0.662173; m_9_9=-0.914123; m_9_10=1.025975; m_10_10=-0.913479; m_10_11=1.190880}
!
! Created with skrf (http://scikit-rf.org).
# Hz S RI R 50.0 
!freq ReS11 ImS11 ReS21 ImS21 ReS12 ImS12 ReS22 ImS22
12607400000.0 0.3437324770118242 -0.9390676143106848 -4.693258548063081e-18 7.454041509109355e-17 -4.693258548063081e-18 7.454041509109355e-17 0.34373306594353076 -0.9390673987403164
12608017333.333334 0.3360579008546294 -0.9418413280765638 -4.0774127332851436e-18 7.456198647698073e-17 -4.0774127332851436e-18 7.456198647698073e-17 0.33605849149693295 -0.9418411173295897
12608634666.666666 0.3283609457277561 -0.9445523221720533 -3.461530618859532e-18 7.457847447372643e-17 -3.461530618859532e-18 7.457847447372643e-17 0.32836153804115875 -0.9445521162620348
12609252000.0 0.32064212419153215 -0.9472004160650414 -2.845654126213249e-18 7.458987995071281e-17 -2.845654126213249e-18 7.458987995071281e-17 0.32064271813642853 -0.9472002150052159
12609869333.333334 0.3129019502624253 -0.9497854334121029 -2.2298251599647313e-18 7.459620412272015e-17 -2.2298251599647313e-18 7.459620412272015e-17 0.3129025457991051 -0.9497852372153839
12610486666.666666 0.3051409393788143 -0.952307202070246 -1.614085605093397e-18 7.459744854970857e-17 -1.614085605093397e-18 7.459744854970857e-17 0.30514153646746545 -0.9523070107492221
12611104000.0 0.2973596083666644 -0.9547655541083734 -9.984773240755802e-19 7.459361513657695e-17 -9.984773240755802e-19 7.459361513657695e-17 0.29736020696737503 -0.9547653676753072
12611721333.333334 0.2895584754051104 -0.957160325818467 -3.8304215407615447e-19 7.458470613289852e-17 -3.8304215407615447e-19 7.458470613289852e-17 0.289559075477872 -0.9571601442852937
12612338666.666666 0.2817380599919771 -0.9594913577264791 2.3217809590794356e-19 7.457072413263233e-17 2.3217809590794356e-19 7.457072413263233e-17 0.2817386614966872 -0.959491181104808
12612956000.0 0.27389888290904807 -0.9617584946029958 8.471416478778067e-19 7.455167207381232e-17 8.471416478778067e-19 7.455167207381232e-17 0.27389948580551265 -0.9617583229041068
12613573333.333334 0.2660414661876585 -0.9639615854734903 1.4618067576509768e-18 7.452755323821301e-17 1.4618067576509768e-18 7.452755323821301e-17 0.2660420704355949 -0.9639614187083353
12614190666.666666 0.258166333073659 -0.9661004836284605 2.076131717695521e-18 7.449837125099103e-17 2.076131717695521e-18 7.449837125099103e-17 0.25816693863269824 -0.9661003218076604
12614808000.0 0.2502740079927069 -0.9681750466331542 2.690074859949924e-18 7.446413008030478e-17 2.690074859949924e-18 7.446413008030478e-17 0.2502746148223971 -0.9681748897670016
12615425333.333334 0.24236501651531736 -0.9701851363370676 3.3035945586413026e-18 7.442483403690998e-17 3.3035945586413026e-18 7.442483403690998e-17 0.24236562457512556 -0.970184984435522
12616042666.666666 0.23443988532186308 -0.9721306188831395 3.9166492330996395e-18 7.438048777373228e-17 3.9166492330996395e-18 7.438048777373228e-17 0.23444049457117863 -0.9721304719558305
12616660000.0 0.22649914216750214 -0.9740113647166698 4.529197350567868e-18 7.433109628541716e-17 4.529197350567868e-18 7.433109628541716e-17 0.2264997525656392 -0.9740112227728948
12617277333.333334 0.2185433158470331 -0.9758272485939451 5.141197429009677e-18 7.427666490785611e-17 5.141197429009677e-18 7.427666490785611e-17 0.21854392735323291 -0.975827111642667
12617894666.666666 0.21057293615970837 -0.9775781495905708 5.752608039900146e-18 7.421719931769097e-17 5.752608039900146e-18 7.421719931769097e-17 0.21057354873314293 -0.9775780176404215
12618512000.0 0.20258853387381584 -0.9792639511095583 6.3633878110432584e-18 7.415270553179297e-17 6.3633878110432584e-18 7.415270553179297e-17 0.20258914747358975 -0.9792638241688342
12619129333.333334 0.1945906406916103 -0.9808845408890255 6.973495429342332e-18 7.4083189906722e-17 6.973495429342332e-18 7.4083189906722e-17 0.19459125527676385 -0.9808844189656896
12619746666.666666 0.18657978921365662 -0.9824398110097289 7.582889643594843e-18 7.400865913816069e-17 7.582889643594843e-18 7.400865913816069e-17 0.18658040474316884 -0.9824396941114096
12620364000.0 0.1785565129033622 -0.9839296579022496 8.191529267281936e-18 7.392912026032537e-17 8.191529267281936e-18 7.392912026032537e-17 0.17855712933615264 -0.9839295460362383
12620981333.333334 0.17052134605170222 -0.9853539823538346 8.79937318132301e-18 7.384458064535751e-17 8.79937318132301e-18 7.384458064535751e-17 0.17052196334663494 -0.9853538755270893
12621598666.666666 0.16247482374136252 -0.9867126895150676 9.406380336866699e-18 7.375504800268792e-17 9.406380336866699e-18 7.375504800268792e-17 0.16247544185724774 -0.9867125877342081
12622216000.0 0.15441748181124526 -0.9880056889061514 1.0012509758044424e-17 7.366053037838151e-17 1.0012509758044424e-17 7.366053037838151e-17 0.1544181007068428 -0.9880055921774616
12622833333.333334 0.1463498568207306 -0.9892328944229452 1.0617720544730529e-17 7.356103615445805e-17 1.0617720544730529e-17 7.356103615445805e-17 0.14635047645475222 -0.9892328027523716
12623450666.666666 0.1382724860140579 -0.99039422434268 1.1221971875294134e-17 7.345657404819101e-17 1.1221971875294134e-17 7.345657404819101e-17 0.13827310634517037 -0.9903941377358324
12624068000.0 0.13018590728440887 -0.9914896013294243 1.1825223009342409e-17 7.334715311138356e-17 1.1825223009342409e-17 7.334715311138356e-17 0.13018652827123672 -0.9914895197915751
12624685333.333334 0.12209065913808817 -0.992518952439233 1.242743329046977e-17 7.323278272962034e-17 1.242743329046977e-17 7.323278272962034e-17 0.12209128073921599 -0.9925188759753152
12625302666.666666 0.11398728065883107 -0.9934822091249805 1.3028562148967091e-17 7.311347262150305e-17 1.3028562148967091e-17 7.311347262150305e-17 0.11398790283280674 -0.9934821377395889
12625920000.0 0.10587631147165097 -0.9943793072409561 1.3628569104577859e-17 7.298923283785303e-17 1.3628569104577859e-17 7.298923283785303e-17 0.10587693417698844 -0.9943792409383491
12626537333.333334 0.09775829170718699 -0.9952101870471074 1.4227413769187e-17 7.286007376090332e-17 1.4227413769187e-17 7.286007376090332e-17 0.09775891490236867 -0.9952101258312018
12627154666.666666 0.0896337619655939 -0.9959747932130315 1.4825055849544057e-17 7.272600610346117e-17 1.4825055849544057e-17 7.272600610346117e-17 0.08963438560907375 -0.995974737087407
12627772000.0 0.08150326328037222 -0.9966730748216773 1.542145514997641e-17 7.258704090804729e-17 1.542145514997641e-17 7.258704090804729e-17 0.08150388733057831 -0.9966730237895723
12628389333.333334 0.07336733708273564 -0.997304985372696 1.6016571575064142e-17 7.244318954602072e-17 1.6016571575064142e-17 7.244318954602072e-17 0.07336796149807324 -0.9973049394370123
12629006666.666666 0.06522652516513128 -0.9978704827855808 1.661036513234599e-17 7.229446371667265e-17 1.661036513234599e-17 7.229446371667265e-17 0.06522714990398518 -0.9978704419488775
12629624000.0 0.05708136964547145 -0.9983695294024373 1.7202795934984486e-17 7.214087544630584e-17 1.7202795934984486e-17 7.214087544630584e-17 0.057081994666209036 -0.998369493666935
12630241333.333334 0.04893241293086274 -0.9988020919905053 1.7793824204447407e-17 7.198243708728647e-17 1.7793824204447407e-17 7.198243708728647e-17 0.048933038191836815 -0.9988020613580859
12630858666.666666 0.04078019768165622 -0.9991681417443667 1.838341027315837e-17 7.181916131707979e-17 1.838341027315837e-17 7.181916131707979e-17 0.04078082314120754 -0.999168116216571
12631476000.0 0.03262526677502605 -0.999467654287873 1.8971514587173482e-17 7.16510611372548e-17 1.8971514587173482e-17 7.16510611372548e-17 0.03262589239148626 -0.9994676338659018
12632093333.333334 0.02446816326907358 -0.9997006096757586 1.95580977088003e-17 7.147814987248043e-17 1.95580977088003e-17 7.147814987248043e-17 0.02446878900076792 -0.999700594360472
12632710666.666666 0.016309430366663647 -0.9998669923949691 2.014312031924671e-17 7.130044116948999e-17 2.014312031924671e-17 7.130044116948999e-17 0.016310056171913802 -0.999866982186888
12633328000.0 0.00814961137899564 -0.9999667913657014 2.072654322125626e-17 7.111794899602448e-17 2.072654322125626e-17 7.111794899602448e-17 0.00815023721612246 -0.999966786265007
12633945333.333334 -1.0750310292845363e-05 -0.9999999999421378 2.1308327341716342e-17 7.093068763976043e-17 2.1308327341716342e-17 7.093068763976043e-17 -1.0124482966574041e-05 -0.9999999999486703
12634562666.666666 -0.008171111281453508 -0.9999666159128872 2.1888433734264695e-17 7.073867170721346e-17 2.1888433734264695e-17 7.073867170721346e-17 -0.008170485505600261 -0.9999666210261461
12635180000.0 -0.0163309281147866 -0.9998666415011331 2.2466823581894607e-17 7.054191612261879e-17 2.2466823581894607e-17 7.054191612261879e-17 -0.01633030243207135 -0.9998666517202793
12635797333.333334 -0.02448965742685709 -0.9997000833644867 2.3043458199544065e-17 7.034043612679189e-17 2.3043458199544065e-17 7.034043612679189e-17 -0.024489031878934538 -0.9997000986883406
12636414666.666666 -0.03264675590656631 -0.999466952594544 2.3618299036667012e-17 7.013424727597098e-17 2.3618299036667012e-17 7.013424727597098e-17 -0.03264613053507811 -0.9994669730215862
12637032000.0 -0.040801680351502924 -0.9991672647161435 2.41913076798144e-17 6.992336544063171e-17 2.41913076798144e-17 6.992336544063171e-17 -0.04080105519807494 -0.9991672902445159
12637649333.333334 -0.04895388770400268 -0.9988010396863384 2.4762445855185016e-17 6.9707806804288e-17 2.4762445855185016e-17 6.9707806804288e-17 -0.04895326281024214 -0.998801070313842
12638266666.666666 -0.057102835087340195 -0.9983683018930611 2.533167543117369e-17 6.948758786226875e-17 2.533167543117369e-17 6.948758786226875e-17 -0.05710221049483303 -0.9983683376171588
12638884000.0 -0.0652479798418524 -0.9978690801535055 2.5898958420916845e-17 6.926272542047164e-17 2.5898958420916845e-17 6.926272542047164e-17 -0.0652473555921604 -0.9978691209713204
12639501333.333334 -0.07338877956121738 -0.9973034077121976 2.6464256984809395e-17 6.903323659410233e-17 2.6464256984809395e-17 6.903323659410233e-17 -0.07338815569587534 -0.9973034536205133
12640118666.666666 -0.08152469212823418 -0.9966713222388022 2.702753343301663e-17 6.879913880639131e-17 2.702753343301663e-17 6.879913880639131e-17 -0.08152406868874747 -0.9966713732340656
12640736000.0 -0.08965517575149116 -0.9959728658255783 2.758875022800809e-17 6.856044978727692e-17 2.758875022800809e-17 6.856044978727692e-17 -0.08965455277933253 -0.9959729219038955
12641353333.333334 -0.09777968900073639 -0.9952080849846253 2.8147869987004145e-17 6.831718757209882e-17 2.8147869987004145e-17 6.831718757209882e-17 -0.09777906653734351 -0.9952081461417663
12641970666.666666 -0.1058976908435282 -0.9943770306447427 2.8704855484498515e-17 6.806937050023528e-17 2.8704855484498515e-17 6.806937050023528e-17 -0.10589706893030076 -0.9943770968761382
12642588000.0 -0.11400864068098038 -0.9934797581480573 2.925966965470906e-17 6.781701721374527e-17 2.925966965470906e-17 6.781701721374527e-17 -0.11400801935927751 -0.9934798294488019
12643205333.333334 -0.1221119983837907 -0.99251632724634 2.981227559403799e-17 6.756014665598176e-17 2.981227559403799e-17 6.756014665598176e-17 -0.12211137769492807 -0.9925164036111909
12643822666.666666 -0.13020722432832252 -0.9914868020970125 3.0362636563523814e-17 6.729877807018283e-17 3.0362636563523814e-17 6.729877807018283e-17 -0.1302066043135695 -0.9914868835203896
12644440000.0 -0.13829377943239804 -0.990391251258889 3.091071599127377e-17 6.703293099804724e-17 3.091071599127377e-17 6.703293099804724e-17 -0.13829316013297535 -0.9903913377348776
12645057333.333334 -0.14637112519119844 -0.9892297476876185 3.145647747487603e-17 6.676262527829285e-17 3.145647747487603e-17 6.676262527829285e-17 -0.14637050664827472 -0.9892298392099649
12645674666.666666 -0.15443872371323536 -0.9880023687308004 3.1999884783816704e-17 6.648788104518819e-17 3.1999884783816704e-17 6.648788104518819e-17 -0.15443810596792537 -0.988002465292919
12646292000.0 -0.16249603775620014 -0.9867091961228401 3.2540901861887984e-17 6.62087187270622e-17 3.2540901861887984e-17 6.62087187270622e-17 -0.1624954208495611 -0.9867092977178077
12646909333.333334 -0.17054253076248613 -0.9853503159795363 3.307949282954751e-17 6.592515904481204e-17 3.307949282954751e-17 6.592515904481204e-17 -0.17054191473551564 -0.9853504226000969
12647526666.666666 -0.17857766689517293 -0.9839258187923123 3.3615621986308216e-17 6.563722301037035e-17 3.3615621986308216e-17 6.563722301037035e-17 -0.1785770517888058 -0.9839259304308751
12648144000.0 -0.18660091107368046 -0.9824357994221904 3.414925381309446e-17 6.534493192516377e-17 3.414925381309446e-17 6.534493192516377e-17 -0.1866002969287865 -0.9824359160708316
12648761333.333334 -0.19461172900928966 -0.9808803570934946 3.468035297457714e-17 6.504830737855564e-17 3.468035297457714e-17 6.504830737855564e-17 -0.19461111586667032 -0.9808804787439571
12649378666.666666 -0.20260958724072206 -0.9792595953872452 3.5208884321512735e-17 6.474737124626214e-17 3.5208884321512735e-17 6.474737124626214e-17 -0.2026089751411084 -0.9792597220309405
12649996000.0 -0.21059395316980414 -0.9775736222342332 3.5734812893058796e-17 6.444214568875304e-17 3.5734812893058796e-17 6.444214568875304e-17 -0.21059334215385386 -0.9775737538622417
12650613333.333334 -0.21856429509685107 -0.9758225499078517 3.625810391908e-17 6.413265314963297e-17 3.625810391908e-17 6.413265314963297e-17 -0.21856368520514538 -0.9758226865109212
12651230666.666666 -0.2265200822559621 -0.9740064950166392 3.677872282242908e-17 6.381891635400949e-17 3.677872282242908e-17 6.381891635400949e-17 -0.22651947352900342 -0.9740066365851868
12651848000.0 -0.23446078485064345 -0.9721255784964549 3.7296635221241106e-17 6.350095830682747e-17 3.7296635221241106e-17 6.350095830682747e-17 -0.2344601773288529 -0.9721257250205697
12652465333.333334 -0.24238587408881163 -0.9701799256024878 3.7811806931179e-17 6.317880229120451e-17 3.7811806931179e-17 6.317880229120451e-17 -0.2423852678125262 -0.9701800770719297
12653082666.666666 -0.25029482221811844 -0.9681696659008927 3.8324203967681484e-17 6.285247186673954e-17 3.8324203967681484e-17 6.285247186673954e-17 -0.25029421722758827 -0.9681698223050932
12653700000.0 -0.25818710256120486 -0.9660949332601307 3.883379254821201e-17 6.25219908677923e-17 3.883379254821201e-17 6.25219908677923e-17 -0.25818649889658996 -0.966095094588192
12654317333.333334 -0.2660621895504982 -0.963955865842125 3.934053909445979e-17 6.21873834017667e-17 3.934053909445979e-17 6.21873834017667e-17 -0.2660615872518671 -0.9639560320828244
12654934666.666666 -0.2739195587634606 -0.9617526060930006 3.9844410234550576e-17 6.184867384736014e-17 3.9844410234550576e-17 6.184867384736014e-17 -0.2739189578707864 -0.9617527772347882
12655552000.0 -0.28175868695750816 -0.9594853007335901 4.034537280524243e-17 6.150588685279489e-17 4.034537280524243e-17 6.150588685279489e-17 -0.28175808751066717 -0.9594854767645927
12656169333.333334 -0.28957905210461177 -0.9571541007497386 4.084339385408254e-17 6.115904733404881e-17 4.084339385408254e-17 6.115904733404881e-17 -0.28957845414337957 -0.9571542816577572
12656786666.666666 -0.29738013342633224 -0.9547591613821692 4.1338440641582886e-17 6.080818047304418e-17 4.1338440641582886e-17 6.080818047304418e-17 -0.2973795369903816 -0.9547593471546809
12657404000.0 -0.30516141142836345 -0.9523006421161829 4.183048064335525e-17 6.045331171583767e-17 4.183048064335525e-17 6.045331171583767e-17 -0.30516081655726207 -0.9523008327403433
12658021333.333334 -0.3129223679351826 -0.949778706671025 4.231948155224237e-17 6.009446677078402e-17 4.231948155224237e-17 6.009446677078402e-17 -0.31292177466838944 -0.9497789021336659
12658638666.666666 -0.32066248612441955 -0.9471935229890207 4.280541128042191e-17 5.973167160669186e-17 4.280541128042191e-17 5.973167160669186e-17 -0.3206618945012838 -0.9471937232766555
12659256000.0 -0.3283812505615459 -0.9445452632243102 4.328823796151822e-17 5.936495245094475e-17 4.328823796151822e-17 5.936495245094475e-17 -0.328380660621303 -0.9445454683231314
12659873333.333334 -0.33607814723392715 -0.9418341037314677 4.3767929952674524e-17 5.899433578762278e-17 4.3767929952674524e-17 5.899433578762278e-17 -0.3360775590156966 -0.941834313627348
12660490666.666666 -0.3437526635851615 -0.9390602250537252 4.424445583660765e-17 5.861984835560898e-17 4.424445583660765e-17 5.861984835560898e-17 -0.3437520771279444 -0.93906043973222
12661108000.0 -0.3514042885493185 -0.9362238119109091 4.4717784423679985e-17 5.824151714665389e-17 4.4717784423679985e-17 5.824151714665389e-17 -0.351403703891995 -0.9362240313572567
12661725333.333334 -0.35903251258470537 -0.9333250531872374 4.5187884753906766e-17 5.785936940346022e-17 4.5187884753906766e-17 5.785936940346022e-17 -0.3590319297660317 -0.9333252773863598
12662342666.666666 -0.36663682770806544 -0.930364141918643 4.565472609899016e-17 5.747343261771835e-17 4.565472609899016e-17 5.747343261771835e-17 -0.36663624676667184 -0.9303643708551476
12662960000.0 -0.37421672752827245 -0.9273412752799676 4.6118277964310445e-17 5.708373452814599e-17 4.6118277964310445e-17 5.708373452814599e-17 -0.3742161485026605 -0.9273415089381479
12663577333.333334 -0.38177170728008036 -0.9242566545718239 4.657851009091021e-17 5.66903031185041e-17 4.657851009091021e-17 5.66903031185041e-17 -0.3817711302086199 -0.9242568929356597
12664194666.666666 -0.38930126385773484 -0.9211104852071856 4.703539245745863e-17 5.629316661559947e-17 4.703539245745863e-17 5.629316661559947e-17 -0.3893006887786625 -0.9211107282603462
12664812000.0 -0.39680489584847844 -0.9179029766977141 4.7488895282207024e-17 5.589235348726538e-17 4.7488895282207024e-17 5.589235348726538e-17 -0.3968043227998941 -0.9179032244235577
12665429333.333334 -0.40428210356596617 -0.9146343426397916 4.7938989024912373e-17 5.548789244033769e-17 4.7938989024912373e-17 5.548789244033769e-17 -0.4042815325858306 -0.9146345950213661
12666046666.666666 -0.4117323890834105 -0.911304800700355 4.8385644388750996e-17 5.507981241861145e-17 4.8385644388750996e-17 5.507981241861145e-17 -0.4117318202095433 -0.9113050577204007
12666664000.0 -0.4191552562669997 -0.9079145726022857 4.8828832322231234e-17 5.4668142600765867e-17 4.8828832322231234e-17 5.4668142600765867e-17 -0.4191546895370767 -0.9079148342432364
12667281333.333334 -0.426550210808678 -0.9044638841097626 4.926852402105198e-17 5.425291239830817e-17 4.926852402105198e-17 5.425291239830817e-17 -0.426549646260228 -0.9044641503537442
12667898666.666666 -0.4339167602591654 -0.900952965013178 4.9704690929980497e-17 5.383415145346846e-17 4.9704690929980497e-17 5.383415145346846e-17 -0.4339161979295688 -0.900953235842013
12668516000.0 -0.441254414060854 -0.8973820491137875 5.013730474469707e-17 5.341188963709388e-17 5.013730474469707e-17 5.341188963709388e-17 -0.44125385398733935 -0.8973823245089942
12669133333.333334 -0.44856268358021906 -0.8937513742082631 5.0566337413607086e-17 5.2986157046542384e-17 5.0566337413607086e-17 5.2986157046542384e-17 -0.448562125799862 -0.8937516541510594
12669750666.666666 -0.455841082140616 -0.8900611820727377 5.0991761139671277e-17 5.255698400352766e-17 5.0991761139671277e-17 5.255698400352766e-17 -0.4558405266903351 -0.8900614665440384
12670368000.0 -0.4630891250545843 -0.8863117184467474 5.141354838218161e-17 5.212440105198368e-17 5.141354838218161e-17 5.212440105198368e-17 -0.4630885719711394 -0.8863120074271684
