! Parameters = {f0=12700.012000; bw=77.238000; Q=6100.000000; N=10; m_0_1=1.174469; m_1_1=-1.147704; m_1_2=1.009281; m_2_2=-1.148353; m_2_3=0.646244; m_2_8=-0.004213; m_2_9=0.032491; m_3_3=-1.150290; m_3_4=0.534773; m_3_7=-0.003613; m_3_8=-0.100701; m_3_9=-0.004213; m_4_4=-1.153215; m_4_5=0.371108; m_4_6=-0.000096; m_4_7=-0.121250; m_4_8=-0.003613; m_5_5=-1.152833; m_5_6=0.778463; m_5_7=-0.000096; m_6_6=-1.152834; m_6_7=0.371450; m_7_7=-1.153201; m_7_8=0.534891; m_8_8=-1.150292; m_8_9=0.646557; m_9_9=-1.148358; m_9_10=1.010359; m_10_10=-1.147714; m_10_11=1.175264}
!
! Created with skrf (http://scikit-rf.org).
# Hz S RI R 50.0 
!freq ReS11 ImS11 ReS21 ImS21 ReS12 ImS12 ReS22 ImS22
12607400000.0 -0.3523495349534165 0.9358684764527331 4.9613156389408025e-18 -6.871969183449292e-17 4.9613156389408025e-18 -6.871969183449292e-17 -0.3523501142025382 0.9358682583682958
12608017333.333334 -0.34513408727497613 0.938553387826563 4.425148969343674e-18 -6.874277608163538e-17 4.425148969343674e-18 -6.874277608163538e-17 -0.3451346681574572 0.9385531742185369
12608634666.666666 -0.3378981830061985 0.9411826697942116 3.888923883814381e-18 -6.87616812284097e-17 3.888923883814381e-18 -6.87616812284097e-17 -0.33789876548745085 0.9411824606748183
12609252000.0 -0.330642251029578 0.9437561665143933 3.3526729233193357e-18 -6.877640776550695e-17 3.3526729233193357e-18 -6.877640776550695e-17 -0.33064283507492237 0.943755961895588
12609869333.333334 -0.32336672141457284 0.9462737254523343 2.816428617643603e-18 -6.878695643674772e-17 2.816428617643603e-18 -6.878695643674772e-17 -0.3233673069892406 0.9462735253458038
12610486666.666666 -0.31607202539235457 0.948735197388726 2.2802234834336152e-18 -6.879332823893758e-17 2.2802234834336152e-18 -6.879332823893758e-17 -0.31607261246148977 0.9487350018058881
12611104000.0 -0.3087585953299261 0.9511404364286802 1.7440900222101455e-18 -6.879552442170776e-17 1.7440900222101455e-18 -6.879552442170776e-17 -0.3087591838585877 0.951140245380684
12611721333.333334 -0.3014268647048725 0.9534893000102524 1.2080607184319044e-18 -6.879354648734042e-17 1.2080607184319044e-18 -6.879354648734042e-17 -0.30142745465803605 0.9534891135079763
12612338666.666666 -0.2940772680793967 0.9557816489129766 6.7216803751395515e-19 -6.878739619057851e-17 6.7216803751395515e-19 -6.878739619057851e-17 -0.2940778594219575 0.9557814669670304
12612956000.0 -0.2867102410745642 0.9580173472661203 1.36444423867637e-19 -6.877707553842058e-17 1.36444423867637e-19 -6.877707553842058e-17 -0.2867108337713381 0.9580171698868413
12613573333.333334 -0.2793262203447259 0.9601962625566599 -3.990777010398831e-19 -6.876258678990048e-17 -3.990777010398831e-19 -6.876258678990048e-17 -0.27932681436045204 0.960196089754114
12614190666.666666 -0.27192564355136567 0.9623182656372183 -9.34365940661053e-19 -6.874393245585161e-17 -9.34365940661053e-19 -6.874393245585161e-17 -0.27192623885070855 0.9623180974211992
12614808000.0 -0.26450894933729596 0.9643832307336795 -1.4693879253117711e-18 -6.872111529865619e-17 -1.4693879253117711e-18 -6.872111529865619e-17 -0.2645095458848471 0.9643830671137072
12615425333.333334 -0.2570765773006306 0.9663910354526482 -2.0041113141265125e-18 -6.86941383319792e-17 -2.0041113141265125e-18 -6.86941383319792e-17 -0.2570771750609116 0.9663908764379714
12616042666.666666 -0.24962896796873071 0.9683415607887107 -2.5385037969992362e-18 -6.866300482048793e-17 -2.5385037969992362e-18 -6.866300482048793e-17 -0.2496295669061942 0.968341406388302
12616660000.0 -0.24216656277206444 0.9702346911314872 -3.0725330965411755e-18 -6.862771827955498e-17 -3.0725330965411755e-18 -6.862771827955498e-17 -0.24216716285109738 0.9702345413540475
12617277333.333334 -0.23468980401815523 0.9720703142724652 -3.606166970018328e-18 -6.85882824749477e-17 -3.606166970018328e-18 -6.85882824749477e-17 -0.2346904052030799 0.9720701691264182
12617894666.666666 -0.22719913486519852 0.9738483214116848 -4.139373211284133e-18 -6.854470142250202e-17 -4.139373211284133e-18 -6.854470142250202e-17 -0.22719973712027522 0.9738481809051793
12618512000.0 -0.21969499929587802 0.9755686071641673 -4.6721196527384085e-18 -6.849697938778006e-17 -4.6721196527384085e-18 -6.849697938778006e-17 -0.21969560258530757 0.9755684713050784
12619129333.333334 -0.21217784209113452 0.9772310695661487 -5.204374167234505e-18 -6.844512088571575e-17 -5.204374167234505e-18 -6.844512088571575e-17 -0.21217844637905947 0.9772309383620732
12619746666.666666 -0.20464810880366313 0.9788356100811476 -5.736104670029963e-18 -6.838913068024202e-17 -5.736104670029963e-18 -6.838913068024202e-17 -0.2046487140541706 0.9788354835394065
12620364000.0 -0.19710624573147786 0.9803821336058155 -6.267279120714385e-18 -6.83290137839046e-17 -6.267279120714385e-18 -6.83290137839046e-17 -0.19710685190860117 0.9803820117334516
12620981333.333334 -0.18955269989170823 0.9818705484755176 -6.797865525116392e-18 -6.826477545746263e-17 -6.797865525116392e-18 -6.826477545746263e-17 -0.1895533069594295 0.9818704312792975
12621598666.666666 -0.1819879189938263 0.9833007664698256 -7.32783193724393e-18 -6.819642120947081e-17 -7.32783193724393e-18 -6.819642120947081e-17 -0.18198852691607845 0.983300653956238
12622216000.0 -0.17441235141324937 0.9846727028177183 -7.857146461191747e-18 -6.812395679584932e-17 -7.857146461191747e-18 -6.812395679584932e-17 -0.17441296015391813 0.9846725949929737
12622833333.333334 -0.16682644616470838 0.9859862762026166 -8.385777253058729e-18 -6.804738821943808e-17 -8.385777253058729e-18 -6.804738821943808e-17 -0.16682705568763462 0.9859861730726474
12623450666.666666 -0.15923065287574595 0.9872414087671837 -8.91369252284968e-18 -6.796672172953708e-17 -8.91369252284968e-18 -6.796672172953708e-17 -0.15923126314472738 0.9872413103376415
12624068000.0 -0.15162542175992633 0.9884380261179626 -9.440860536390508e-18 -6.788196382143017e-17 -9.440860536390508e-18 -6.788196382143017e-17 -0.1516260327387204 0.9884379323942226
12624685333.333334 -0.14401120359012246 0.9895760573297907 -9.967249617231505e-18 -6.779312123589443e-17 -9.967249617231505e-18 -6.779312123589443e-17 -0.14401181524244797 0.9895759683169476
12625302666.666666 -0.13638844967205088 0.9906554349499649 -1.0492828148525252e-17 -6.7700200958699e-17 -1.0492828148525252e-17 -6.7700200958699e-17 -0.13638906196159 0.9906553506528327
12625920000.0 -0.12875761181721254 0.991676095002283 -1.1017564574948276e-17 -6.760321022008087e-17 -1.1017564574948276e-17 -6.760321022008087e-17 -0.1287582247076136 0.9916760154253973
12626537333.333334 -0.12111914231633922 0.9926379769908085 -1.1541427404562451e-17 -6.750215649421584e-17 -1.1541427404562451e-17 -6.750215649421584e-17 -0.12111975577121822 0.9926379021384232
12627154666.666666 -0.11347349391252842 0.9935410239034584 -1.2064385210710299e-17 -6.739704749866798e-17 -1.2064385210710299e-17 -6.739704749866798e-17 -0.11347410789547176 0.9935409537795492
12627772000.0 -0.10582111977421202 0.9943851822154134 -1.2586406633905484e-17 -6.728789119382458e-17 -1.2586406633905484e-17 -6.728789119382458e-17 -0.10582173424877807 0.9943851168236733
12628389333.333334 -0.09816247346869073 0.9951704018922372 -1.3107460383680334e-17 -6.717469578232389e-17 -1.3107460383680334e-17 -6.717469578232389e-17 -0.09816308839841247 0.9951703412360795
12629006666.666666 -0.09049800893482748 0.9958966363928954 -1.3627515240485695e-17 -6.705746970845721e-17 -1.3627515240485695e-17 -6.705746970845721e-17 -0.09049862428321424 0.99589658047545
12629624000.0 -0.08282818045645184 0.996563842672472 -1.4146540057526624e-17 -6.693622165756822e-17 -1.4146540057526624e-17 -6.693622165756822e-17 -0.08282879618699207 0.9965637914965919
12630241333.333334 -0.07515344263526536 0.9971719811847494 -1.4664503762642562e-17 -6.681096055542838e-17 -1.4664503762642562e-17 -6.681096055542838e-17 -0.07515405871142819 0.9971719347530035
12630858666.666666 -0.06747425036406574 0.9977210158845298 -1.5181375360151728e-17 -6.668169556760375e-17 -1.5181375360151728e-17 -6.668169556760375e-17 -0.06747486674930343 0.997720974199206
12631476000.0 -0.05979105879947331 0.9982109142297965 -1.5697123932703386e-17 -6.654843609880458e-17 -1.5697123932703386e-17 -6.654843609880458e-17 -0.0597916754572235 0.9982108772929029
12632093333.333334 -0.05210432333532192 0.9986416471836219 -1.621171864311351e-17 -6.641119179222424e-17 -1.621171864311351e-17 -6.641119179222424e-17 -0.05210494022900945 0.9986416149968819
12632710666.666666 -0.04441449957549658 0.9990131892158924 -1.67251287362136e-17 -6.626997252885857e-17 -1.67251287362136e-17 -6.626997252885857e-17 -0.044415116668536016 0.9990131617807491
12633328000.0 -0.03672204330675912 0.9993255183048342 -1.7237323540674845e-17 -6.612478842681541e-17 -1.7237323540674845e-17 -6.612478842681541e-17 -0.03672266056255682 0.9993254956224503
12633945333.333334 -0.029027410472102156 0.9995786159383038 -1.7748272470836227e-17 -6.597564984060912e-17 -1.7748272470836227e-17 -6.597564984060912e-17 -0.029028027854058332 0.9995785980095582
12634562666.666666 -0.021331057143412064 0.9997724671148905 -1.8257945028524474e-17 -6.582256736043974e-17 -1.8257945028524474e-17 -6.582256736043974e-17 -0.021331674614923076 0.9997724539403818
12635180000.0 -0.013633439494579272 0.9999070603448094 -1.876631080486831e-17 -6.566555181145971e-17 -1.876631080486831e-17 -6.566555181145971e-17 -0.013634057019039723 0.9999070519248534
12635797333.333334 -0.005935013774403141 0.999982387650577 -1.927333948210826e-17 -6.550461425302506e-17 -1.927333948210826e-17 -6.550461425302506e-17 -0.005935631315208086 0.9999823839852078
12636414666.666666 0.0017637637203367998 0.9999984445674845 -1.9779000835390987e-17 -6.533976597793595e-17 -1.9779000835390987e-17 -6.533976597793595e-17 0.001763146199789694 0.9999984456564558
12637032000.0 0.009462436672096734 0.9999552301438684 -2.0283264734575892e-17 -6.517101851165764e-17 -2.0283264734575892e-17 -6.517101851165764e-17 0.00946181920840503 0.9999552359866503
12637649333.333334 0.017160548769501485 0.9998527469411581 -2.078610114601663e-17 -6.499838361153317e-17 -2.078610114601663e-17 -6.499838361153317e-17 0.017159931399255795 0.9998527575369397
12638266666.666666 0.024857643734419173 0.9996910010337308 -2.1287480134345493e-17 -6.482187326597989e-17 -2.1287480134345493e-17 -6.482187326597989e-17 0.024857026494201 0.9996910163814198
12638884000.0 0.03255326534900546 0.9994700020085485 -2.17873718642492e-17 -6.464149969367241e-17 -2.17873718642492e-17 -6.464149969367241e-17 0.03255264827538502 0.9994700221067708
12639501333.333334 0.04024695748277261 0.9991897629645885 -2.22857466022397e-17 -6.445727534271136e-17 -2.22857466022397e-17 -6.445727534271136e-17 0.040246340612306676 0.999189787811689
12640118666.666666 0.04793826411948309 0.9988503005120746 -2.2782574718405542e-17 -6.426921288978369e-17 -2.2782574718405542e-17 -6.426921288978369e-17 0.04793764748871281 0.9988503301061163
12640736000.0 0.05562672938449049 0.9984516347714766 -2.3277826688196048e-17 -6.407732523929371e-17 -2.3277826688196048e-17 -6.407732523929371e-17 0.05562611302993932 0.9984516691102432
12641353333.333334 0.06331189757136264 0.9979937893723405 -2.377147309412606e-17 -6.3881625522509e-17 -2.377147309412606e-17 -6.3881625522509e-17 0.06331128152953396 0.9979938284533316
12641970666.666666 0.07099331316923234 0.9974767914518639 -2.4263484627554827e-17 -6.368212709666103e-17 -2.4263484627554827e-17 -6.368212709666103e-17 0.07099269747660754 0.9974768352723009
12642588000.0 0.07867052088954093 0.9969006716533091 -2.4753832090401742e-17 -6.347884354405458e-17 -2.4753832090401742e-17 -6.347884354405458e-17 0.07866990558257707 0.9969007202101311
12643205333.333334 0.08634306569319412 0.9962654641241716 -2.524248639687626e-17 -6.327178867115531e-17 -2.524248639687626e-17 -6.327178867115531e-17 0.08634245080832188 0.9962655174140386
12643822666.666666 0.09401049281753258 0.9955712065141574 -2.5729418575196667e-17 -6.306097650766501e-17 -2.5729418575196667e-17 -6.306097650766501e-17 0.09400987839115407 0.9955712645334487
12644440000.0 0.10167234780317307 0.9948179399729582 -2.6214599769303223e-17 -6.284642130558385e-17 -2.6214599769303223e-17 -6.284642130558385e-17 0.10167173387165968 0.9948180027177733
12645057333.333334 0.10932817652097347 0.9940057091478142 -2.6698001240554636e-17 -6.262813753826257e-17 -2.6698001240554636e-17 -6.262813753826257e-17 0.10932756312066365 0.9940057766139725
12645674666.666666 0.11697752519894963 0.9931345621808658 -2.717959436943462e-17 -6.240613989943467e-17 -2.717959436943462e-17 -6.240613989943467e-17 0.11697691236614682 0.9931346343639076
12646292000.0 0.1246199404493685 0.9922045507062773 -2.7659350657234227e-17 -6.21804433022413e-17 -2.7659350657234227e-17 -6.21804433022413e-17 0.12461932822033911 0.9922046276014643
12646909333.333334 0.1322549692952546 0.991215729847222 -2.8137241727726864e-17 -6.195106287824506e-17 -2.8137241727726864e-17 -6.195106287824506e-17 0.13225435770622554 0.9912158114495365
12647526666.666666 0.1398821591975203 0.9901681582125778 -2.861323932884877e-17 -6.171801397642314e-17 -2.861323932884877e-17 -6.171801397642314e-17 0.13988154828467717 0.9901682445167241
12648144000.0 0.14750105808176067 0.9890618978934591 -2.908731533436277e-17 -6.148131216215224e-17 -2.908731533436277e-17 -6.148131216215224e-17 0.1475004478812451 0.9890619888938617
12648761333.333334 0.15511121436493486 0.9878970144595465 -2.95594417455067e-17 -6.124097321618401e-17 -2.95594417455067e-17 -6.124097321618401e-17 0.15511060491284315 0.9878971101503544
12649378666.666666 0.16271217698213356 0.986673576955208 -3.002959069264052e-17 -6.099701313360477e-17 -3.002959069264052e-17 -6.099701313360477e-17 0.16271156831451403 0.9866736773302919
12649996000.0 0.170303495413482 0.9853916578953773 -3.0497734436893574e-17 -6.074944812277799e-17 -3.0497734436893574e-17 -6.074944812277799e-17 0.17030288756633283 0.9853917629483303
12650613333.333334 0.17788471971061856 0.9840513332612909 -3.096384537178938e-17 -6.049829460428128e-17 -3.096384537178938e-17 -6.049829460428128e-17 0.17788411271988594 0.9840514429854308
12651230666.666666 0.18545540052356027 0.9826526824959549 -3.1427896024860296e-17 -6.02435692098321e-17 -3.1427896024860296e-17 -6.02435692098321e-17 0.18545479442513602 0.9826527968843219
12651848000.0 0.1930150891272239 0.9811957884994513 -3.188985905927702e-17 -5.998528878118817e-17 -3.188985905927702e-17 -5.998528878118817e-17 0.19301448395694346 0.9811959075448107
12652465333.333334 0.2005633374480789 0.9796807376240171 -3.234970727543722e-17 -5.9723470369053e-17 -3.234970727543722e-17 -5.9723470369053e-17 0.20056273324171928 0.9796808613188587
12653082666.666666 0.20809969809056572 0.9781076196689529 -3.280741361256037e-17 -5.945813123196125e-17 -3.280741361256037e-17 -5.945813123196125e-17 0.2080990948838433 0.9781077480054917
12653700000.0 0.21562372436392027 0.9764765278752388 -3.326295115029032e-17 -5.918928883514184e-17 -3.326295115029032e-17 -5.918928883514184e-17 0.21562312219248858 0.9764766608454155
12654317333.333334 0.22313497030825988 0.974787558920087 -3.371629311024855e-17 -5.891696084939249e-17 -3.371629311024855e-17 -5.891696084939249e-17 0.22313436920770777 0.9747876965155685
12654934666.666666 0.23063299072129453 0.9730408129111553 -3.416741285761838e-17 -5.864116514991867e-17 -3.416741285761838e-17 -5.864116514991867e-17 0.2306323907271438 0.9730409551233351
12655552000.0 0.23811734118471373 0.9712363933806092 -3.461628390270297e-17 -5.836191981517052e-17 -3.461628390270297e-17 -5.836191981517052e-17 0.23811674233241722 0.971236540200608
12656169333.333334 0.2455875780902791 0.9693744072790456 -3.506287990245935e-17 -5.807924312567692e-17 -3.506287990245935e-17 -5.807924312567692e-17 0.24558698041521865 0.9693745586977126
12656786666.666666 0.25304325866639477 0.9674549649690899 -3.550717466205409e-17 -5.779315356284865e-17 -3.550717466205409e-17 -5.779315356284865e-17 0.2530426622038786 0.9674551209770008
12657404000.0 0.2604839410042115 0.9654781802188819 -3.594914213638472e-17 -5.750366980778488e-17 -3.594914213638472e-17 -5.750366980778488e-17 0.2604833457894731 0.9654783408063442
12658021333.333334 0.26790918408387626 0.9634441701953269 -3.6388756431603127e-17 -5.721081074006123e-17 -3.6388756431603127e-17 -5.721081074006123e-17 0.267908590152071 0.963444335352375
12658638666.666666 0.2753185478005601 0.9613530554571722 -3.682599180661927e-17 -5.691459543651226e-17 -3.682599180661927e-17 -5.691459543651226e-17 0.2753179551867645 0.9613532251735717
12659256000.0 0.28271159299071025 0.9592049599478232 -3.7260822674611225e-17 -5.661504316999184e-17 -3.7260822674611225e-17 -5.661504316999184e-17 0.2827110017299192 0.9592051342130712
12659873333.333334 0.29008788145799674 0.9570000109880156 -3.7693223604510914e-17 -5.631217340813203e-17 -3.7693223604510914e-17 -5.631217340813203e-17 0.2900872915851212 0.9570001897913387
12660490666.666666 0.29744697599917613 0.9547383392683024 -3.812316932247825e-17 -5.600600581209159e-17 -3.812316932247825e-17 -5.600600581209159e-17 0.2974463875490418 0.9547385225986619
12661108000.0 0.30478844043030445 0.9524200788412187 -3.855063471338877e-17 -5.569656023527674e-17 -3.855063471338877e-17 -5.569656023527674e-17 0.304787853437649 0.9524202666873066
12661725333.333334 0.3121118396122104 0.9500453671134512 -3.89755948222719e-17 -5.5383856722078594e-17 -3.89755948222719e-17 -5.5383856722078594e-17 0.31211125411168206 0.950045559463694
12662342666.666666 0.319416739476585 0.9476143448376027 -3.939802485577799e-17 -5.5067915506571437e-17 -3.939802485577799e-17 -5.5067915506571437e-17 0.31941615550273966 0.9476145416801599
12662960000.0 0.3267027070515731 0.9451271561038889 -3.981790018361019e-17 -5.474875701121824e-17 -3.981790018361019e-17 -5.474875701121824e-17 0.3267021246388736 0.9451273574266569
12663577333.333334 0.33396931048746514 0.9425839483315945 -4.023519633995489e-17 -5.4426401845558144e-17 -4.023519633995489e-17 -5.4426401845558144e-17 0.3339687296702777 0.942584154122204
12664194666.666666 0.3412161190822913 0.9399848722603306 -4.06498890249005e-17 -5.410087080488468e-17 -4.06498890249005e-17 -5.410087080488468e-17 0.3412155398948848 0.9399850825061491
12664812000.0 0.348442703307352 0.9373300819411032 -4.106195410584537e-17 -5.37721848689129e-17 -4.106195410584537e-17 -5.37721848689129e-17 0.3484421257838948 0.9373302966292351
12665429333.333334 0.35564863483270104 0.9346197347271703 -4.147136761889648e-17 -5.3440365200434717e-17 -4.147136761889648e-17 -5.3440365200434717e-17 0.3556480590072602 0.9346199538444587
12666046666.666666 0.36283348655242936 0.9318539912647575 -4.187810577024867e-17 -5.3105433143971215e-17 -4.187810577024867e-17 -5.3105433143971215e-17 0.36283291245896726 0.9318542147977831
12666664000.0 0.36999683261016375 0.9290330154834636 -4.22821449375765e-17 -5.276741022439455e-17 -4.22821449375765e-17 -5.276741022439455e-17 0.36999626028253746 0.9290332434185476
12667281333.333334 0.37713824842409766 0.9261569745866269 -4.268346167137838e-17 -5.242631814557045e-17 -4.268346167137838e-17 -5.242631814557045e-17 0.3771376778960562 0.9261572069098315
12667898666.666666 0.3842573107123158 0.9232260390413557 -4.3082032696345106e-17 -5.208217878896069e-17 -4.3082032696345106e-17 -5.208217878896069e-17 0.38425674201749765 0.9232262757384825
12668516000.0 0.39135359751790566 0.920240382568405 -4.347783491270231e-17 -5.173501421222761e-17 -4.347783491270231e-17 -5.173501421222761e-17 0.39135303068983823 0.9202406236249998
12669133333.333334 0.398426688233735 0.9172001821319863 -4.387084539752907e-17 -5.1384846647840007e-17 -4.387084539752907e-17 -5.1384846647840007e-17 0.3984261233058314 0.9172004275333369
12669750666.666666 0.40547616362764216 0.914105617929165 -4.426104140609262e-17 -5.1031698501645056e-17 -4.426104140609262e-17 -5.1031698501645056e-17 0.4054756006331995 0.9141058676603033
