! Parameters = {f0=12700.012000; bw=77.238000; Q=6100.000000; N=10; m_0_1=1.305200; m_1_1=0.813257; m_1_2=1.140012; m_2_2=0.812608; m_2_3=0.776975; m_2_8=0.002324; m_2_9=0.039028; m_3_3=0.810671; m_3_4=0.665504; m_3_7=0.002924; m_3_8=-0.094164; m_3_9=0.002324; m_4_4=0.807746; m_4_5=0.501839; m_4_6=0.006441; m_4_7=-0.114713; m_4_8=0.002924; m_5_5=0.808128; m_5_6=0.909194; m_5_7=0.006441; m_6_6=0.808127; m_6_7=0.502181; m_7_7=0.807760; m_7_8=0.665622; m_8_8=0.810669; m_8_9=0.777288; m_9_9=0.812603; m_9_10=1.141090; m_10_10=0.813247; m_10_11=1.305995}
!
! Created with skrf (http://scikit-rf.org).
# Hz S RI R 50.0 
!freq ReS11 ImS11 ReS21 ImS21 ReS12 ImS12 ReS22 ImS22
12607400000.0 -0.07927444781336311 -0.9968528286179965 4.67632171283626e-17 1.215143864936073e-16 4.67632171283626e-17 1.215143864936073e-16 -0.07927376238614181 -0.9968528831261705
12608017333.333334 -0.09079605598401785 -0.9958695076251507 4.816649248377123e-17 1.209375673863424e-16 4.816649248377123e-17 1.209375673863424e-16 -0.09079537126644013 -0.9958695700524257
12608634666.666666 -0.10230552341410262 -0.9947530245637757 4.956267852022701e-17 1.2034455379503283e-16 4.956267852022701e-17 1.2034455379503283e-16 -0.10230483949765096 -0.9947530949010276
12609252000.0 -0.1138013111223834 -0.993503528723799 5.0951588472788317e-17 1.1973543256659414e-16 5.0951588472788317e-17 1.1973543256659414e-16 -0.11380062809842438 -0.993503606960849
12609869333.333334 -0.12528188195685983 -0.9921211871808611 5.233303663728636e-17 1.1911029270033645e-16 5.233303663728636e-17 1.1911029270033645e-16 -0.12528119991663172 -0.9921212733064755
12610486666.666666 -0.13674570080002246 -0.990606184774012 5.370683839509643e-17 1.1846922533505072e-16 5.370683839509643e-17 1.1846922533505072e-16 -0.13674501983462317 -0.9906062787759028
12611104000.0 -0.14819123477468438 -0.9889587240809238 5.5072810237805805e-17 1.1781232373578476e-16 5.5072810237805805e-17 1.1781232373578476e-16 -0.148190554975059 -0.9889588259457508
12611721333.333334 -0.1596169534483842 -0.9871790253908708 5.643076979163749e-17 1.1713968328037476e-16 5.643076979163749e-17 1.1713968328037476e-16 -0.15961627490531322 -0.9871791351042449
12612338666.666666 -0.17102132903830966 -0.9852673266752453 5.778053584178775e-17 1.1645140144566008e-16 5.778053584178775e-17 1.1645140144566008e-16 -0.1710206518423965 -0.9852674442217277
12612956000.0 -0.18240283661552698 -0.9832238835557354 5.912192835658254e-17 1.157475777934225e-16 5.912192835658254e-17 1.157475777934225e-16 -0.1824021608571863 -0.9832240089188435
12613573333.333334 -0.19375995430888673 -0.9810489692701543 6.045476851138547e-17 1.1502831395609058e-16 6.045476851138547e-17 1.1502831395609058e-16 -0.19375928007833193 -0.9810491024323603
12614190666.666666 -0.20509116350851886 -0.9787428746358958 6.17788787124608e-17 1.142937136221014e-16 6.17788787124608e-17 1.142937136221014e-16 -0.20509049089575024 -0.9787430155786315
12614808000.0 -0.216394949068893 -0.9763059080110521 6.309408262055818e-17 1.1354388252104233e-16 6.309408262055818e-17 1.1354388252104233e-16 -0.21639427816368614 -0.9763060567147122
12615425333.333334 -0.22766979951141592 -0.9737383952531837 6.440020517437353e-17 1.127789284084923e-16 6.440020517437353e-17 1.127789284084923e-16 -0.2276691304033088 -0.973738551697125
12616042666.666666 -0.23891420722653683 -0.9710406796757431 6.569707261378841e-17 1.1199896105061478e-16 6.569707261378841e-17 1.1199896105061478e-16 -0.23891354000481863 -0.9710408438382906
12616660000.0 -0.25012666867533706 -0.9682131220021715 6.698451250295609e-17 1.1120409220846683e-16 6.698451250295609e-17 1.1120409220846683e-16 -0.25012600342903596 -0.9682132938606202
12617277333.333334 -0.26130568459062964 -0.9652561003176493 6.826235375318575e-17 1.1039443562204996e-16 6.826235375318575e-17 1.1039443562204996e-16 -0.261305021408501 -0.9652562798482669
12617894666.666666 -0.2724497601771584 -0.9621700100186152 6.953042664561969e-17 1.095701069941094e-16 6.953042664561969e-17 1.095701069941094e-16 -0.2724490991476729 -0.9621701971966471
12618512000.0 -0.2835574053120766 -0.9589552637597312 7.078856285376506e-17 1.0873122397364046e-16 7.078856285376506e-17 1.0873122397364046e-16 -0.28355674652340856 -0.9589554585594017
12619129333.333334 -0.2946271347434318 -0.9556122913989176 7.203659546575109e-17 1.07877906139189e-16 7.203659546575109e-17 1.07877906139189e-16 -0.29462647828344707 -0.9556124937934347
12619746666.666666 -0.30565746828931145 -0.9521415399397208 7.327435900645891e-17 1.0701027498184636e-16 7.327435900645891e-17 1.0701027498184636e-16 -0.30565681424555613 -0.9521417499012799
12620364000.0 -0.3166469310357632 -0.9485434734715357 7.450168945941739e-17 1.0612845388801255e-16 7.450168945941739e-17 1.0612845388801255e-16 -0.3166462794954519 -0.9485436909713236
12620981333.333334 -0.3275940535335254 -0.9448185731077089 7.571842428846535e-17 1.0523256812192833e-16 7.571842428846535e-17 1.0523256812192833e-16 -0.3275934045835289 -0.9448187981159062
12621598666.666666 -0.338497371995054 -0.9409673369210307 7.692440245926151e-17 1.0432274480791821e-16 7.692440245926151e-17 1.0432274480791821e-16 -0.3384967257218887 -0.9409675694068175
12622216000.0 -0.34935542848998136 -0.9369902798772219 7.811946446053707e-17 1.0339911291242053e-16 7.811946446053707e-17 1.0339911291242053e-16 -0.34935478497979766 -0.9369905198087829
12622833333.333334 -0.36016677114011825 -0.9328879337660639 7.930345232515483e-17 1.0246180322575964e-16 7.930345232515483e-17 1.0246180322575964e-16 -0.36016613047868773 -0.9328881811105886
12623450666.666666 -0.3709299543135883 -0.9286608471302823 8.047620965093202e-17 1.0151094834369056e-16 8.047620965093202e-17 1.0151094834369056e-16 -0.37092931658629413 -0.9286611018539747
12624068000.0 -0.38164353881813184 -0.9243095851922056 8.163758162126979e-17 1.0054668264868617e-16 8.163758162126979e-17 1.0054668264868617e-16 -0.38164290410995644 -0.9243098472602858
12624685333.333334 -0.39230609209354583 -0.9198347297781839 8.27874150255465e-17 9.95691422909972e-17 8.27874150255465e-17 9.95691422909972e-17 -0.3923054604890592 -0.9198349991548928
12625302666.666666 -0.4029161884032373 -0.9152368792407904 8.392555827925269e-17 9.85784651695093e-17 8.392555827925269e-17 9.85784651695093e-17 -0.40291555998658646 -0.9152371558893956
12625920000.0 -0.4134724090248657 -0.9105166483788143 8.505186144398345e-17 9.757479091229585e-17 8.505186144398345e-17 9.757479091229585e-17 -0.41347178387976297 -0.9105169322616145
12626537333.333334 -0.42397334244009655 -0.9056746683550262 8.616617624707711e-17 9.655826085704903e-17 8.616617624707711e-17 9.655826085704903e-17 -0.42397272064980923 -0.9056749594333573
12627154666.666666 -0.4344175845230864 -0.900711586611908 8.726835610112984e-17 9.552901803119443e-17 8.726835610112984e-17 9.552901803119443e-17 -0.4344169661704246 -0.9007118848461466
12627772000.0 -0.44480373872879897 -0.8956280667848106 8.835825612324573e-17 9.448720713180183e-17 8.835825612324573e-17 9.448720713180183e-17 -0.44480312389610505 -0.8956283721343807
12628389333.333334 -0.4551304162789732 -0.8904247886135829 8.943573315396973e-17 9.34329745053554e-17 8.943573315396973e-17 9.34329745053554e-17 -0.45512980504811107 -0.8904251010369613
12629006666.666666 -0.465396236348591 -0.8851024478513103 9.050064577612066e-17 9.236646812717388e-17 9.050064577612066e-17 9.236646812717388e-17 -0.465395628800935 -0.8851027673060327
12629624000.0 -0.47559982624995156 -0.879661756171558 9.15528543332441e-17 9.128783758074618e-17 9.15528543332441e-17 9.128783758074618e-17 -0.475599222466376 -0.8796620826142237
12630241333.333334 -0.4857398216165258 -0.8741034410730578 9.259222094790718e-17 9.019723403677366e-17 9.259222094790718e-17 9.019723403677366e-17 -0.4857392216773924 -0.8741037744593345
12630858666.666666 -0.4958148665850883 -0.8684282457825894 9.361860953969764e-17 8.909481023205144e-17 9.361860953969764e-17 8.909481023205144e-17 -0.49581427057023864 -0.8684285860672234
12631476000.0 -0.5058236139775658 -0.8626369291553014 9.463188584301737e-17 8.798072044809742e-17 9.463188584301737e-17 8.798072044809742e-17 -0.505823021966308 -0.8626372762921192
12632093333.333334 -0.5157647254804792 -0.8567302655736289 9.5631917424563e-17 8.685512048964479e-17 9.5631917424563e-17 8.685512048964479e-17 -0.5157641375515785 -0.856730619515546
12632710666.666666 -0.5256368718244381 -0.8507090448434379 9.661857370059804e-17 8.57181676628848e-17 9.661857370059804e-17 8.57181676628848e-17 -0.5256362880561061 -0.8507094055424642
12633328000.0 -0.5354387329616375 -0.84457407208856 9.759172595396514e-17 8.457002075351721e-17 9.759172595396514e-17 8.457002075351721e-17 -0.535438153431522 -0.8445744394958069
12633945333.333334 -0.5451689982424159 -0.838326167643105 9.855124735080306e-17 8.341084000464595e-17 9.855124735080306e-17 8.341084000464595e-17 -0.545168423027591 -0.8383265417087925
12634562666.666666 -0.5548263665905102 -0.8319661669417745 9.949701295703731e-17 8.224078709444869e-17 9.949701295703731e-17 8.224078709444869e-17 -0.5548257957674645 -0.8319665476152359
12635180000.0 -0.5644095466770236 -0.8254949204081464 1.0042889975459044e-16 8.106002511367545e-17 1.0042889975459044e-16 8.106002511367545e-17 -0.5644089803216517 -0.8254953076378373
12635797333.333334 -0.5739172570930995 -0.818913293340967 1.0134678665733163e-16 7.986871854295967e-17 1.0134678665733163e-16 7.986871854295967e-17 -0.5739166952806911 -0.8189136870744711
12636414666.666666 -0.5833482265212618 -0.8122221657984431 1.0225055452674651e-16 7.866703322996373e-17 1.0225055452674651e-16 7.866703322996373e-17 -0.5833476693264918 -0.81222256598248
12637032000.0 -0.5927011939054094 -0.80542243248057 1.0314008618735837e-16 7.745513636631856e-17 1.0314008618735837e-16 7.745513636631856e-17 -0.5927006414023279 -0.8054228390610014
12637649333.333334 -0.6019749086194357 -0.7985150026094923 1.0401526644185547e-16 7.623319646441941e-17 1.0401526644185547e-16 7.623319646441941e-17 -0.6019743608814587 -0.7985154155313308
12638266666.666666 -0.6111681306344577 -0.7915007998079325 1.0487598208595441e-16 7.50013833340366e-17 1.0487598208595441e-16 7.50013833340366e-17 -0.6111675877343565 -0.791501219015348
12638884000.0 -0.6202796306846242 -0.7843807619756873 1.0572212192298571e-16 7.375986805876257e-17 1.0572212192298571e-16 7.375986805876257e-17 -0.6202790926945166 -0.7843811874120145
12639501333.333334 -0.6293081904315316 -0.777155841164181 1.0655357677820248e-16 7.25088229722917e-17 1.0655357677820248e-16 7.25088229722917e-17 -0.6293076574228708 -0.7771562727719267
12640118666.666666 -0.6382526026268664 -0.7698270034493772 1.0737023951279389e-16 7.124842163456495e-17 1.0737023951279389e-16 7.124842163456495e-17 -0.6382520746704333 -0.7698274411702292
12640736000.0 -0.6471116712745366 -0.7623952288020244 1.0817200503767208e-16 6.997883880767077e-17 1.0817200503767208e-16 6.997883880767077e-17 -0.6471111484404302 -0.7623956725768595
12641353333.333334 -0.6558842117895427 -0.7548615109574902 1.0895877032686697e-16 6.870025043176215e-17 1.0895877032686697e-16 6.870025043176215e-17 -0.6558836941471697 -0.7548619607263811
12641970666.666666 -0.6645690511572901 -0.7472268572821203 1.0973043443076377e-16 6.74128336006223e-17 1.0973043443076377e-16 6.74128336006223e-17 -0.6645685387753562 -0.7472273129843436
12642588000.0 -0.6731650280900018 -0.7394922886389018 1.1048689848896142e-16 6.611676653722887e-17 1.1048689848896142e-16 6.611676653722887e-17 -0.6731645210365031 -0.7394927502129479
12643205333.333334 -0.6816709931820465 -0.731658839250929 1.1122806574288566e-16 6.481222856910621e-17 1.1122806574288566e-16 6.481222856910621e-17 -0.6816704915242597 -0.7316593066345081
12643822666.666666 -0.6900858090637946 -0.7237275565629532 1.1195384154809532e-16 6.349940010356176e-17 1.1195384154809532e-16 6.349940010356176e-17 -0.6900853128682682 -0.7237280296930051
12644440000.0 -0.6984083505534925 -0.7156995011015196 1.1266413338630082e-16 6.217846260278362e-17 1.1266413338630082e-16 6.217846260278362e-17 -0.6984078598860388 -0.7156999799142223
12645057333.333334 -0.7066375048077209 -0.7075757463331637 1.1335885087709003e-16 6.084959855880059e-17 1.1335885087709003e-16 6.084959855880059e-17 -0.7066370197334053 -0.7075762307639405
12645674666.666666 -0.7147721714703982 -0.6993573785206723 1.1403790578936021e-16 5.951299146831296e-17 1.1403790578936021e-16 5.951299146831296e-17 -0.7147716920535339 -0.6993578685042033
12646292000.0 -0.7228112628197536 -0.6910454965779954 1.1470121205246442e-16 5.816882580737311e-17 1.1470121205246442e-16 5.816882580737311e-17 -0.7228107891238901 -0.6910459920482241
12646909333.333334 -0.730753703913809 -0.6826412119232642 1.1534868576702813e-16 5.681728700600908e-17 1.1534868576702813e-16 5.681728700600908e-17 -0.7307532360017248 -0.6826417128134069
12647526666.666666 -0.7385984327340797 -0.6741456483302223 1.1598024521550479e-16 5.545856142265325e-17 1.1598024521550479e-16 5.545856142265325e-17 -0.7385979706677733 -0.6741461545727765
12648144000.0 -0.7463444003277304 -0.6655599417777909 1.1659581087241227e-16 5.409283631849053e-17 1.1659581087241227e-16 5.409283631849053e-17 -0.7463439441684128 -0.665560453304545
12648761333.333334 -0.7539905709476439 -0.6568852402983807 1.1719530541426409e-16 5.2720299831704635e-17 1.1719530541426409e-16 5.2720299831704635e-17 -0.7539901207557312 -0.6568857570404248
12649378666.666666 -0.761535922190921 -0.6481227038243895 1.1777865372920477e-16 5.1341140951602125e-17 1.1777865372920477e-16 5.1341140951602125e-17 -0.7615354780260256 -0.6481232257121226
12649996000.0 -0.7689794451357774 -0.6392735040328882 1.1834578292634738e-16 4.995554949261402e-17 1.1834578292634738e-16 4.995554949261402e-17 -0.7689790070566983 -0.6392740309960264
12650613333.333334 -0.7763201444763318 -0.6303388241890728 1.1889662234479459e-16 4.8563716068222366e-17 1.1889662234479459e-16 4.8563716068222366e-17 -0.7763197125410501 -0.6303393561566624
12651230666.666666 -0.7835570386555557 -0.6213198589882275 1.194311035623536e-16 4.7165832064792504e-17 1.194311035623536e-16 4.7165832064792504e-17 -0.7835566129212256 -0.621320395888652
12651848000.0 -0.7906891599968794 -0.6122178143955338 1.1994916040396143e-16 4.57620896152626e-17 1.1994916040396143e-16 4.57620896152626e-17 -0.7906887405198194 -0.6122183561565239
12652465333.333334 -0.7977155548332582 -0.603033907485211 1.2045072894977706e-16 4.4352681572806985e-17 1.2045072894977706e-16 4.4352681572806985e-17 -0.797715141668945 -0.6030344540338546
12653082666.666666 -0.8046352836347004 -0.5937693662777833 1.2093574754297598e-16 4.293780148438507e-17 1.2093574754297598e-16 4.293780148438507e-17 -0.8046348768377618 -0.5937699175405357
12653700000.0 -0.8114474211342363 -0.5844254295754184 1.2140415679725273e-16 4.151764356415097e-17 1.2140415679725273e-16 4.151764356415097e-17 -0.8114470207584427 -0.5844259854781114
12654317333.333334 -0.8181510564511304 -0.5750033467969682 1.2185589960396623e-16 4.009240266691753e-17 1.2185589960396623e-16 4.009240266691753e-17 -0.8181506625493893 -0.5750039072648208
12654934666.666666 -0.8247452932131825 -0.5655043778102132 1.2229092113902437e-16 3.866227426139551e-17 1.2229092113902437e-16 3.866227426139551e-17 -0.8247449058375297 -0.5655049427678411
12655552000.0 -0.8312292496762204 -0.5559297927639097 1.2270916886943118e-16 3.7227454403428555e-17 1.2270916886943118e-16 3.7227454403428555e-17 -0.831228868877814 -0.555930362135335
12656169333.333334 -0.8376020588421649 -0.5462808719177178 1.2311059255950783e-16 3.578813970920453e-17 1.2311059255950783e-16 3.578813970920453e-17 -0.8376016846712797 -0.5462814456263813
12656786666.666666 -0.8438628685749306 -0.5365589054710626 1.2349514427682917e-16 3.434452732830382e-17 1.2349514427682917e-16 3.434452732830382e-17 -0.8438625010809498 -0.5365594834398315
12657404000.0 -0.8500108417143659 -0.5267651933906132 1.238627783978243e-16 3.2896814916755357e-17 1.238627783978243e-16 3.2896814916755357e-17 -0.850010480945775 -0.5267657755417934
12658021333.333334 -0.8560451561882236 -0.5169010452364116 1.2421345161306923e-16 3.1445200610006324e-17 1.2421345161306923e-16 3.1445200610006324e-17 -0.8560448021926044 -0.5169016314917568
12658638666.666666 -0.8619650051219363 -0.506967779987007 1.2454712293225867e-16 2.99898829958625e-17 1.2454712293225867e-16 2.99898829958625e-17 -0.8619646579459606 -0.5069683702677303
12659256000.0 -0.8677695969468034 -0.49696672586260565 1.2486375368887212e-16 2.8531061087324215e-17 1.2486375368887212e-16 2.8531061087324215e-17 -0.8677692566362247 -0.4969673200893885
12659873333.333334 -0.8734581555055636 -0.4868992201479016 1.25163307544508e-16 2.7068934295442705e-17 1.25163307544508e-16 2.7068934295442705e-17 -0.8734578221052158 -0.4868998182409071
12660490666.666666 -0.8790299201561924 -0.47676660901327145 1.2544575049290825e-16 2.5603702402101343e-17 1.2544575049290825e-16 2.5603702402101343e-17 -0.8790295937099799 -0.47676721089215274
12661108000.0 -0.8844841458738831 -0.4665702473342723 1.2571105086367025e-16 2.413556553272109e-17 1.2571105086367025e-16 2.413556553272109e-17 -0.884483826424776 -0.46657085291818423
12661725333.333334 -0.8898201033502807 -0.4563114985111713 1.259591793256252e-16 2.266472412901597e-17 1.259591793256252e-16 2.266472412901597e-17 -0.8898197909403105 -0.4563121077187817
12662342666.666666 -0.8950370790913068 -0.44599173428609395 1.2619010888991382e-16 2.1191378921626776e-17 1.2619010888991382e-16 2.1191378921626776e-17 -0.8950367737615578 -0.44599234703559304
12662960000.0 -0.9001343755124204 -0.43561233455984777 1.2640381491273236e-16 1.9715730902783404e-17 1.2640381491273236e-16 1.9715730902783404e-17 -0.9001340773030277 -0.4356129507689614
12663577333.333334 -0.9051113110319277 -0.4251746872073636 1.266002750977637e-16 1.8237981298921026e-17 1.266002750977637e-16 1.8237981298921026e-17 -0.9051110199820713 -0.4251753067933627
12664194666.666666 -0.9099672201621192 -0.41468018789211525 1.2677946949828787e-16 1.67583315432786e-17 1.2677946949828787e-16 1.67583315432786e-17 -0.9099669363100157 -0.4146808107718266
12664812000.0 -0.9147014535982515 -0.4041302398794988 1.2694138051897334e-16 1.5276983248480104e-17 1.2694138051897334e-16 1.5276983248480104e-17 -0.9147011769811517 -0.4041308659693173
12665429333.333334 -0.9193133783053705 -0.393526253849196 1.2708599291734828e-16 1.3794138179098417e-17 1.2708599291734828e-16 1.3794138179098417e-17 -0.9193131089595563 -0.39352688306509603
12666046666.666666 -0.9238023776029582 -0.3828696477065471 1.2721329380495037e-16 1.230999822423469e-17 1.2721329380495037e-16 1.230999822423469e-17 -0.9238021155637349 -0.3828702799640929
12666664000.0 -0.9281678512473923 -0.37216184639295585 1.2732327264816333e-16 1.0824765370011816e-17 1.2732327264816333e-16 1.0824765370011816e-17 -0.9281675965490833 -0.37216248160731286
12667281333.333334 -0.9324092155122027 -0.36140428169535366 1.2741592126872083e-16 9.338641672210252e-18 1.2741592126872083e-16 9.338641672210252e-18 -0.9324089681881479 -0.3614049197813005
12667898666.666666 -0.9365259032661287 -0.35059839205474985 1.2749123384390477e-16 7.851829228749451e-18 1.2749123384390477e-16 7.851829228749451e-18 -0.9365256633486798 -0.3505990329266902
12668516000.0 -0.9405173640489533 -0.3397456223738925 1.275492069064156e-16 6.364530152246594e-18 1.275492069064156e-16 6.364530152246594e-18 -0.9405171315694661 -0.3397462659458647
12669133333.333334 -0.9443830641451028 -0.3288474238240616 1.27589839343923e-16 4.87694654263127e-18 1.27589839343923e-16 4.87694654263127e-18 -0.9443828391339376 -0.3288480700097521
12669750666.666666 -0.9481224866550158 -0.3179052536510286 1.276131323983011e-16 3.3892804596709584e-18 1.276131323983011e-16 3.3892804596709584e-18 -0.9481222691415302 -0.3179059023637825
12670368000.0 -0.9517351315642767 -0.3069205749801469 1.2761908966454174e-16 1.9017338955816224e-18 1.2761908966454174e-16 1.9017338955816224e-18 -0.9517349215768237 -0.30692122613298023
