! Parameters = {f0=12700.012000; bw=77.238000; Q=6100.000000; N=10; m_0_1=1.334029; m_1_1=1.245690; m_1_2=1.168841; m_2_2=1.245041; m_2_3=0.805804; m_2_8=0.003765; m_2_9=0.040469; m_3_3=1.243104; m_3_4=0.694333; m_3_7=0.004365; m_3_8=-0.092723; m_3_9=0.003765; m_4_4=1.240179; m_4_5=0.530668; m_4_6=0.007882; m_4_7=-0.113272; m_4_8=0.004365; m_5_5=1.240561; m_5_6=0.938023; m_5_7=0.007882; m_6_6=1.240560; m_6_7=0.531010; m_7_7=1.240193; m_7_8=0.694451; m_8_8=1.243102; m_8_9=0.806117; m_9_9=1.245036; m_9_10=1.169919; m_10_10=1.245680; m_10_11=1.334824}
!
! Created with skrf (http://scikit-rf.org).
# Hz S RI R 50.0 
!freq ReS11 ImS11 ReS21 ImS21 ReS12 ImS12 ReS22 ImS22
12607400000.0 0.9765143557495055 -0.21545234511356162 -1.2970226112843008e-16 7.172882599999453e-17 -1.2970226112843008e-16 7.172882599999453e-17 0.976514507152696 -0.2154516588938986
12608017333.333334 0.9737641432312024 -0.22755964791018612 -1.28769993259501e-16 7.333067724593e-17 -1.28769993259501e-16 7.333067724593e-17 0.9737643031346517 -0.22755896365665737
12608634666.666666 0.9708638245327955 -0.23963187228196248 -1.2781795611556735e-16 7.492043540269562e-17 -1.2781795611556735e-16 7.492043540269562e-17 0.9708639929110235 -0.23963119009984832
12609252000.0 0.9678138467398197 -0.2516671572900983 -1.26846306278446e-16 7.649785666344549e-17 -1.26846306278446e-16 7.649785666344549e-17 0.9678140235660418 -0.25166647728434943
12609869333.333334 0.9646146800078094 -0.2636636476900774 -1.2585520333450604e-16 7.80626992453049e-17 -1.2585520333450604e-16 7.80626992453049e-17 0.9646148652539431 -0.263662969965299
12610486666.666666 0.9612668174898946 -0.2756194942174005 -1.2484480984855827e-16 7.961472342635491e-17 -1.2484480984855827e-16 7.961472342635491e-17 0.9612670111265612 -0.2756188188778356
12611104000.0 0.9577707752606501 -0.2875328538731151 -1.238152913372519e-16 8.115369158233624e-17 -1.238152913372519e-16 8.115369158233624e-17 0.9577709772571806 -0.2875321810226293
12611721333.333334 0.9541270922366826 -0.2994018902074231 -1.227668162420911e-16 8.267936822290633e-17 -1.227668162420911e-16 8.267936822290633e-17 0.9541273025611228 -0.2994012199494879
12612338666.666666 0.9503363300934693 -0.31122477360307 -1.216995559019242e-16 8.419152002766688e-17 -1.216995559019242e-16 8.419152002766688e-17 0.9503365487125829 -0.3112241060407468
12612956000.0 0.9463990731787617 -0.3229996815574074 -1.2061368452503851e-16 8.568991588176871e-17 -1.2061368452503851e-16 8.568991588176871e-17 0.946399300058039 -0.3229990167933325
12613573333.333334 0.942315928422627 -0.3347247989629818 -1.1950937916082792e-16 8.717432691114469e-17 -1.1950937916082792e-16 8.717432691114469e-17 0.9423161635262876 -0.33472413709935006
12614190666.666666 0.9380875252437451 -0.34639831838776647 -1.1838681967098263e-16 8.864452651743968e-17 -1.1838681967098263e-16 8.864452651743968e-17 0.9380877685347445 -0.3463976595263156
12614808000.0 0.9337145154524638 -0.3580184403535343 -1.1724618870028628e-16 9.01002904125243e-17 -1.1724618870028628e-16 9.01002904125243e-17 0.9337147668924992 -0.3580177845955293
12615425333.333334 0.9291975731502938 -0.36958337361332905 -1.1608767164698654e-16 9.154139665263685e-17 -1.1608767164698654e-16 9.154139665263685e-17 0.9291978326998114 -0.36958272105954704
12616042666.666666 0.9245373946260393 -0.38109133542748136 -1.1491145663272411e-16 9.296762567217606e-17 -1.1491145663272411e-16 9.296762567217606e-17 0.9245376622442363 -0.3810906861781949
12616660000.0 0.919734698248398 -0.3925405518385765 -1.1371773447207366e-16 9.437876031707546e-17 -1.1371773447207366e-16 9.437876031707546e-17 0.9197349738932346 -0.3925399059935399
12617277333.333334 0.9147902243552468 -0.40392925794485823 -1.1250669864165728e-16 9.577458587781064e-17 -1.1250669864165728e-16 9.577458587781064e-17 0.914790507983448 -0.40392861560329035
12617894666.666666 0.9097047351396197 -0.41525569817205393 -1.1127854524888973e-16 9.715489012197045e-17 -1.1127854524888973e-16 9.715489012197045e-17 0.9097050267066863 -0.415255059432625
12618512000.0 0.904479014531965 -0.4265181265445709 -1.1003347300023668e-16 9.851946332652964e-17 -1.1003347300023668e-16 9.851946332652964e-17 0.9044793139921768 -0.4265174915053854
12619129333.333334 0.8991138680796259 -0.4377148069539116 -1.0877168316921708e-16 9.986809830955851e-17 -1.0877168316921708e-16 9.986809830955851e-17 0.8991141753860507 -0.43771417571249405
12619746666.666666 0.8936101228224165 -0.4488440134268386 -1.0749337956388095e-16 1.0120059046167745e-16 -1.0749337956388095e-16 1.0120059046167745e-16 0.893610437926918 -0.4488433860801192
12620364000.0 0.8879686271651941 -0.4599040303913057 -1.0619876849397642e-16 1.0251673777701532e-16 -1.0619876849397642e-16 1.0251673777701532e-16 0.8879689500184388 -0.45990340703560467
12620981333.333334 0.8821902507471622 -0.47089315294073397 -1.0488805873774444e-16 1.0381634088374349e-16 -1.0488805873774444e-16 1.0381634088374349e-16 0.8821905812986266 -0.47089253367174677
12621598666.666666 0.8762758843077437 -0.48180968709697913 -1.035614615083038e-16 1.0509920307422571e-16 -1.035614615083038e-16 1.0509920307422571e-16 0.8762762225057222 -0.4818090720097617
12622216000.0 0.870226439549255 -0.4926519500714813 -1.022191904196826e-16 1.063651303347245e-16 -1.022191904196826e-16 1.063651303347245e-16 0.8702267853408695 -0.4926513392604363
12622833333.333334 0.8640428489963811 -0.5034182705246434 -1.00861461452497e-16 1.07613931374666e-16 -1.00861461452497e-16 1.07613931374666e-16 0.8640432023275877 -0.503417664083505
12623450666.666666 0.8577260658525249 -0.5141069888232963 -9.948849291927643e-17 1.0884541765546518e-16 -9.948849291927643e-17 1.0884541765546518e-16 0.8577264266681224 -0.5141063868451153
12624068000.0 0.8512770638527153 -0.5247164572968026 -9.810050542941429e-17 1.1005940341893298e-16 -9.810050542941429e-17 1.1005940341893298e-16 0.8512774320963549 -0.5247158598739334
12624685333.333334 0.8446968371135448 -0.5352450404909701 -9.669772185378064e-17 1.1125570571522754e-16 -9.669772185378064e-17 1.1125570571522754e-16 0.8446972127277383 -0.5352444477150562
12625302666.666666 0.8379863999800624 -0.5456911154199424 -9.528036728904824e-17 1.1243414443031394e-16 -9.528036728904824e-17 1.1243414443031394e-16 0.8379867829061911 -0.5456905273819017
12625920000.0 0.8311467868691846 -0.5560530718167429 -9.384866902157147e-17 1.1359454231306352e-16 -9.384866902157147e-17 1.1359454231306352e-16 0.831147177047508 -0.5560524886067535
12626537333.333334 0.8241790521104378 -0.5663293123811852 -9.240285649106004e-17 1.1473672500179379e-16 -9.240285649106004e-17 1.1473672500179379e-16 0.8241794494801036 -0.5663287340886732
12627154666.666666 0.8170842697834061 -0.5765182530261503 -9.094316125386871e-17 1.1586052105039667e-16 -9.094316125386871e-17 1.1586052105039667e-16 0.817084674282459 -0.5765176797397745
12627772000.0 0.8098635335519663 -0.586618323122053 -8.946981694592138e-17 1.169657619540403e-16 -8.946981694592138e-17 1.169657619540403e-16 0.8098639451173594 -0.5866177549296919
12628389333.333334 0.8025179564959921 -0.5966279657385348 -8.798305924547276e-17 1.18052282174284e-16 -8.798305924547276e-17 1.18052282174284e-16 0.8025183750635951 -0.596627402727274
12629006666.666666 0.7950486709395095 -0.6065456378848383 -8.648312583538665e-17 1.1911991916385878e-16 -8.648312583538665e-17 1.1911991916385878e-16 0.7950490964441181 -0.6065450801409549
12629624000.0 0.7874568282763114 -0.6163698107474258 -8.497025636525586e-17 1.2016851339086433e-16 -8.497025636525586e-17 1.2016851339086433e-16 0.7874572606516593 -0.6163692583563773
12630241333.333334 0.7797435987924414 -0.6260989699256966 -8.344469241314835e-17 1.211979083625443e-16 -8.344469241314835e-17 1.211979083625443e-16 0.779744037971209 -0.6260984229721067
12630858666.666666 0.771910171485793 -0.6357316156654318 -8.190667744713281e-17 1.2220795064853304e-16 -8.190667744713281e-17 1.2220795064853304e-16 0.7719106173996193 -0.6357310742330784
12631476000.0 0.7639577538826798 -0.6452662630901578 -8.035645678640882e-17 1.2319848990369074e-16 -8.035645678640882e-17 1.2319848990369074e-16 0.7639582064621728 -0.6452657272619596
12632093333.333334 0.7558875718519854 -0.6547014424296899 -7.879427756233384e-17 1.2416937889033443e-16 -7.879427756233384e-17 1.2416937889033443e-16 0.7558880310267311 -0.654700912287693
12632710666.666666 0.7477008694159758 -0.66403569924696 -7.722038867902842e-17 1.2512047350007586e-16 -7.722038867902842e-17 1.2512047350007586e-16 0.747701335114552 -0.6640351748723272
12633328000.0 0.739398908558516 -0.6732675946622418 -7.563504077377936e-17 1.260516327751226e-16 -7.563504077377936e-17 1.260516327751226e-16 0.7393993807085009 -0.6732670761352378
12633945333.333334 0.7309829690306793 -0.6823957055747781 -7.403848617721554e-17 1.269627189290608e-16 -7.403848617721554e-17 1.269627189290608e-16 0.7309834475586633 -0.6823951929747584
12634562666.666666 0.7224543481533819 -0.6914186248822631 -7.243097887318522e-17 1.2785359736716496e-16 -7.243097887318522e-17 1.2785359736716496e-16 0.7224548329849799 -0.6914181182876619
12635180000.0 0.7138143606173982 -0.7003349616977443 -7.081277445843022e-17 1.287241367061781e-16 -7.081277445843022e-17 1.287241367061781e-16 0.7138148516772622 -0.7003344611860639
12635797333.333334 0.7050643382807632 -0.7091433415639714 -6.918413010197999e-17 1.2957420879360615e-16 -6.918413010197999e-17 1.2957420879360615e-16 0.7050648354925908 -0.7091428472117673
12636414666.666666 0.6962056299634228 -0.7178424066653062 -6.754530450437073e-17 1.3040368872647026e-16 -6.754530450437073e-17 1.3040368872647026e-16 0.6962061332499716 -0.7178419185481781
12637032000.0 0.6872396012392546 -0.7264308160370935 -6.58965578565822e-17 1.3121245486957488e-16 -6.58965578565822e-17 1.3121245486957488e-16 0.6872401105223522 -0.726430334229671
12637649333.333334 0.678167634225702 -0.7349072457722271 -6.423815179881678e-17 1.320003888732276e-16 -6.423815179881678e-17 1.320003888732276e-16 0.6781681494262616 -0.7349067703481623
12638266666.666666 0.6689911273705834 -0.7432703892253761 -6.257034937901282e-17 1.3276737569046738e-16 -6.257034937901282e-17 1.3276737569046738e-16 0.6689916484086117 -0.7432699202573284
12638884000.0 0.6597114952365966 -0.7515189572143199 -6.089341501119075e-17 1.335133035937501e-16 -6.089341501119075e-17 1.335133035937501e-16 0.6597120220312096 -0.7515184947739472
12639501333.333334 0.6503301682832051 -0.7596516782187379 -5.920761443360278e-17 1.342380641911102e-16 -5.920761443360278e-17 1.342380641911102e-16 0.6503307007526382 -0.7596512223766835
12640118666.666666 0.6408485926463638 -0.767667298576005 -5.751321466666534e-17 1.3494155244180671e-16 -5.751321466666534e-17 1.3494155244180671e-16 0.6408491307079869 -0.76766684940189
12640736000.0 0.6312682299150173 -0.7755645826749485 -5.581048397069904e-17 1.3562366667144105e-16 -5.581048397069904e-17 1.3562366667144105e-16 0.6312687734853459 -0.7755641402373591
12641353333.333334 0.6215905569066177 -0.783342313145618 -5.4099691803588416e-17 1.362843085865042e-16 -5.4099691803588416e-17 1.362843085865042e-16 0.6215911059013263 -0.7833418775120944
12641970666.666666 0.6118170654387765 -0.7909992910475272 -5.238110877811266e-17 1.3692338328845442e-16 -5.238110877811266e-17 1.3692338328845442e-16 0.6118176197727114 -0.7909988622845548
12642588000.0 0.6019492620996043 -0.7985343360542169 -5.0655006619267046e-17 1.3754079928719627e-16 -5.0655006619267046e-17 1.3754079928719627e-16 0.601949821686798 -0.7985339142272159
12643205333.333334 0.5919886680155406 -0.8059462866351536 -4.892165812131105e-17 1.3813646851406778e-16 -4.892165812131105e-17 1.3813646851406778e-16 0.5919892327692237 -0.8059458718084684
12643822666.666666 0.5819368186165307 -0.8132340002350359 -4.71813371047125e-17 1.3871030633426897e-16 -4.71813371047125e-17 1.3871030633426897e-16 0.5819373884491459 -0.8132335924719255
12644440000.0 0.5717952633997696 -0.8203963534495963 -4.5434318372979435e-17 1.3926223155873776e-16 -4.5434318372979435e-17 1.3926223155873776e-16 0.5717958382229857 -0.8203959528122253
12645057333.333334 0.5615655656905515 -0.8274322421989955 -4.368087766931684e-17 1.3979216645549898e-16 -4.368087766931684e-17 1.3979216645549898e-16 0.5615661454152765 -0.8274318487484239
12645674666.666666 0.5512493024014914 -0.8343405818978699 -4.1921291633160484e-17 1.4030003676046339e-16 -4.1921291633160484e-17 1.4030003676046339e-16 0.5512498869378859 -0.8343401956940432
12646292000.0 0.5408480637891118 -0.8411203076227419 -4.0155837756532093e-17 1.4078577168769838e-16 -4.0155837756532093e-17 1.4078577168769838e-16 0.540848653046604 -0.8411199287244834
12646909333.333334 0.5303634532091073 -0.847770374275911 -3.8384794340437724e-17 1.4124930393910278e-16 -3.8384794340437724e-17 1.4124930393910278e-16 0.5303640470964068 -0.8477700027409123
12647526666.666666 0.5197970868689256 -0.8542897567467281 -3.660844045097345e-17 1.416905697135881e-16 -3.660844045097345e-17 1.416905697135881e-16 0.5197976852940375 -0.854289392631541
12648144000.0 0.5091505935786516 -0.8606774500696026 -3.482705587541579e-17 1.4210950871568176e-16 -3.482705587541579e-17 1.4210950871568176e-16 0.5091511964488888 -0.860677093429627
12648761333.333334 0.4984256144999946 -0.8669324695788647 -3.304092107824151e-17 1.4250606416357524e-16 -3.304092107824151e-17 1.4250606416357524e-16 0.4984262217219962 -0.8669321204683457
12649378666.666666 0.48762380289340634 -0.873053851060505 -3.125031715702633e-17 1.428801827966281e-16 -3.125031715702633e-17 1.428801827966281e-16 0.4876244143731481 -0.8730535095325204
12649996000.0 0.47674682386295725 -0.8790406509009632 -2.9455525798221393e-17 1.432318148823279e-16 -2.9455525798221393e-17 1.432318148823279e-16 0.4767474395057685 -0.8790403170074167
12650613333.333334 0.4657963540998063 -0.8848919462324959 -2.765682923291957e-17 1.435609142226797e-16 -2.765682923291957e-17 1.435609142226797e-16 0.465796973810384 -0.8848916200241107
12651230666.666666 0.45477408162391564 -0.8906068350753492 -2.585451019256263e-17 1.4386743816004258e-16 -2.585451019256263e-17 1.4386743816004258e-16 0.45477470530633884 -0.8906065166016579
12651848000.0 0.4436817055234402 -0.8961844364770113 -2.4048851864472843e-17 1.4415134758243004e-16 -2.4048851864472843e-17 1.4415134758243004e-16 0.44368233308118477 -0.8961841257863492
12652465333.333334 0.4325209356931367 -0.9016238906478359 -2.2240137847486004e-17 1.4441260692822564e-16 -2.2240137847486004e-17 1.4441260692822564e-16 0.43252156702909134 -0.9016235877873348
12653082666.666666 0.4212934925707621 -0.9069243590935991 -2.0428652107456e-17 1.4465118419035914e-16 -2.0428652107456e-17 1.4465118419035914e-16 0.4212941275872423 -0.9069240641091793
12653700000.0 0.41000110687158337 -0.9120850247448883 -1.8614678932686116e-17 1.4486705091992735e-16 -1.8614678932686116e-17 1.4486705091992735e-16 0.41000174547034657 -0.9120847376812506
12654317333.333334 0.39864551932204995 -0.9171050920828325 -1.6798502889401537e-17 1.4506018222924847e-16 -1.6798502889401537e-17 1.4506018222924847e-16 0.39864616140431114 -0.917104812983453
12654934666.666666 0.38722848039104807 -0.9219837872619265 -1.4980408777154373e-17 1.4523055679436239e-16 -1.4980408777154373e-17 1.4523055679436239e-16 0.3872291258574954 -0.9219835161690506
12655552000.0 0.3757517500201678 -0.926720358229271 -1.3160681584209963e-17 1.4537815685697546e-16 -1.3160681584209963e-17 1.4537815685697546e-16 0.37575239877097666 -0.9267200951839033
12656169333.333334 0.3642170973526147 -0.9313140748404063 -1.1339606442962146e-17 1.4550296822584135e-16 -1.1339606442962146e-17 1.4550296822584135e-16 0.36421774928746486 -0.93131381988231
12656786666.666666 0.3526263004602103 -0.9357642289719952 -9.517468585260837e-18 1.4560498027759244e-16 -9.517468585260837e-18 1.4560498027759244e-16 0.35262695547829964 -0.9357639821396803
12657404000.0 0.3409811460695357 -0.9400701346308756 -7.694553297824114e-18 1.45684185957005e-16 -7.694553297824114e-18 1.45684185957005e-16 0.34098180406959727 -0.9400698959615976
12658021333.333334 0.32928342928629706 -0.9442311280598951 -5.8711458776095565e-18 1.457405817767115e-16 -5.8711458776095565e-18 1.457405817767115e-16 0.3292840901666142 -0.9442308975896474
12658638666.666666 0.3175349533188486 -0.9482465678401393 -4.047531587259336e-18 1.4577416781635318e-16 -4.047531587259336e-18 1.4577416781635318e-16 0.31753561697727006 -0.9482463456036466
12659256000.0 0.3057375291999319 -0.952115834989908 -2.223995610443735e-18 1.4578494772117778e-16 -2.223995610443735e-18 1.4578494772117778e-16 0.3057381955338885 -0.9521156210206237
12659873333.333334 0.29389297550771815 -0.9558383330600563 -4.008230073919108e-19 1.4577292870007742e-16 -4.008230073919108e-19 1.4577292870007742e-16 0.2938936444142387 -0.9558381273901576
12660490666.666666 0.28200311808558565 -0.9594134882259129 1.4217013296153166e-18 1.4573812152307366e-16 1.4217013296153166e-18 1.4573812152307366e-16 0.2820037894613121 -0.9594132908862928
12661108000.0 0.27006978976022855 -0.9628407493758626 3.2432927207919007e-18 1.4568054051824344e-16 3.2432927207919007e-18 1.4568054051824344e-16 0.2700704635014321 -0.962840560396127
12661725333.333334 0.2580948300596154 -0.9661195881961537 5.063666743143635e-18 1.4560020356809484e-16 5.063666743143635e-18 1.4560020356809484e-16 0.25809550606221315 -0.9661194076046173
12662342666.666666 0.24608008492907135 -0.9692494992524414 6.8825392749148535e-18 1.4549713210538337e-16 6.8825392749148535e-18 1.4549713210538337e-16 0.24608076308864188 -0.9692493270761241
12662960000.0 0.23402740644697081 -0.972230000067634 8.699626539838238e-18 1.4537135110837904e-16 8.699626539838238e-18 1.4537135110837904e-16 0.23402808665877017 -0.9722298363322546
12663577333.333334 0.22193865253904674 -0.9750606311963168 1.0514645151363057e-17 1.452228890955797e-16 1.0514645151363057e-17 1.452228890955797e-16 0.22193933469802507 -0.9750604759262911
12664194666.666666 0.20981568669210027 -0.9777409562955467 1.2327312156796965e-17 1.4505177811987286e-16 1.2327312156796965e-17 1.4505177811987286e-16 0.20981637069291778 -0.9777408095139832
12664812000.0 0.19766037766671593 -0.9802705621921219 1.413734508136281e-17 1.448580537621484e-16 1.413734508136281e-17 1.448580537621484e-16 0.19766106340375927 -0.9802704239208189
12665429333.333334 0.18547459920913575 -0.9826490589462841 1.5944461972171792e-17 1.446417551243607e-16 1.5944461972171792e-17 1.446417551243607e-16 0.18547528657653423 -0.9826489292057258
12666046666.666666 0.17326022976267166 -0.9848760799117793 1.774838144205679e-17 1.4440292482204795e-16 1.774838144205679e-17 1.4440292482204795e-16 0.17326091865431345 -0.9848759587211328
12666664000.0 0.16101915217766746 -0.9869512817924664 1.954882271338241e-17 1.4414160897629603e-16 1.954882271338241e-17 1.4414160897629603e-16 0.16101984248721637 -0.9869511691695794
12667281333.333334 0.14875325342176013 -0.9888743446951427 2.1345505661660542e-17 1.4385785720516765e-16 2.1345505661660542e-17 1.4385785720516765e-16 0.14875394504267161 -0.9888742406565402
12667898666.666666 0.13646442428869546 -0.9906449721789146 2.3138150859087863e-17 1.435517226145824e-16 2.3138150859087863e-17 1.435517226145824e-16 0.13646511711423306 -0.990644876739796
12668516000.0 0.12415455910683149 -0.992262891300887 2.4926479617957395e-17 1.4322326178865512e-16 2.4926479617957395e-17 1.4322326178865512e-16 0.12415525303008386 -0.9922628044751265
12669133333.333334 0.11182555544749422 -0.9937278526581942 2.671021403389698e-17 1.4287253477950308e-16 2.671021403389698e-17 1.4287253477950308e-16 0.11182625036139104 -0.9937277744583366
12669750666.666666 0.0994793138320153 -0.9950396304265062 2.848907702904959e-17 1.4249960509649847e-16 2.848907702904959e-17 1.4249960509649847e-16 0.09948000962934396 -0.9950395608637644
12670368000.0 0.08711773743896226 -0.9961980223948058 3.026279239502645e-17 1.4210453969500076e-16 3.026279239502645e-17 1.4210453969500076e-16 0.08711843401238441 -0.9961979614790614
