! Parameters = {f0=12700.012000; bw=77.238000; Q=6100.000000; N=10; m_0_1=1.221717; m_1_1=-0.438995; m_1_2=1.056529; m_2_2=-0.439644; m_2_3=0.693492; m_2_8=-0.001850; m_2_9=0.034854; m_3_3=-0.441581; m_3_4=0.582021; m_3_7=-0.001250; m_3_8=-0.098338; m_3_9=-0.001850; m_4_4=-0.444506; m_4_5=0.418356; m_4_6=0.002267; m_4_7=-0.118887; m_4_8=-0.001250; m_5_5=-0.444124; m_5_6=0.825711; m_5_7=0.002267; m_6_6=-0.444125; m_6_7=0.418698; m_7_7=-0.444492; m_7_8=0.582139; m_8_8=-0.441583; m_8_9=0.693805; m_9_9=-0.439649; m_9_10=1.057607; m_10_10=-0.439005; m_10_11=1.222512}
!
! Created with skrf (http://scikit-rf.org).
# Hz S RI R 50.0 
!freq ReS11 ImS11 ReS21 ImS21 ReS12 ImS12 ReS22 ImS22
12607400000.0 0.09048502956463822 -0.9958978157544699 1.7177800683884705e-17 8.58869694550882e-17 1.7177800683884705e-17 8.58869694550882e-17 0.09048567068197161 -0.9958977575037862
12608017333.333334 0.08142315709517763 -0.9966796222901768 1.796235416260609e-17 8.57087943522055e-17 1.796235416260609e-17 8.57087943522055e-17 0.08142379868438898 -0.996679569875715
12608634666.666666 0.07235454859176817 -0.9973789747623106 1.87450850185093e-17 8.552345845322529e-17 1.87450850185093e-17 8.552345845322529e-17 0.07235519059973586 -0.9973789281878338
12609252000.0 0.06327995428906862 -0.9979958153143781 1.9525927947615966e-17 8.533098019471808e-17 1.9525927947615966e-17 8.533098019471808e-17 0.06328059666264177 -0.9979957745831673
12609869333.333334 0.054200124916934614 -0.9985300929159947 2.0304817830718853e-17 8.513137860830515e-17 2.0304817830718853e-17 8.513137860830515e-17 0.05420076760293727 -0.9985300580308484
12610486666.666666 0.045115811638396695 -0.9989817633671025 2.1081689738801843e-17 8.492467331882077e-17 2.1081689738801843e-17 8.492467331882077e-17 0.04511645458363223 -0.998981734330333
12611104000.0 0.03602776598731887 -0.9993507893016348 2.1856478938458483e-17 8.471088454242025e-17 2.1856478938458483e-17 8.471088454242025e-17 0.03602840913857445 -0.9993507661150715
12611721333.333334 0.02693673980645224 -0.9996371401905972 2.2629120897231836e-17 8.449003308465474e-17 2.2629120897231836e-17 8.449003308465474e-17 0.02693738311050322 -0.9996371228555863
12612338666.666666 0.017843485185037335 -0.999840792344605 2.3399551289014632e-17 8.426214033847642e-17 2.3399551289014632e-17 8.426214033847642e-17 0.017844128588651607 -0.9998407808620071
12612956000.0 0.008748754396669728 -0.9999617289158332 2.416770599938178e-17 8.402722828220711e-17 2.416770599938178e-17 8.402722828220711e-17 0.008749397846612168 -0.9999617232860261
12613573333.333334 -0.0003467001628492686 -0.9999999398994157 2.4933521130895898e-17 8.37853194774611e-17 2.4933521130895898e-17 8.37853194774611e-17 -0.0003460567198124056 -0.9999999401222899
12614190666.666666 -0.009442126037956319 -0.9999554221342671 2.56969330084236e-17 8.353643706701074e-17 2.56969330084236e-17 8.353643706701074e-17 -0.009441482655052987 -0.9999554282092332
12614808000.0 -0.018536770775348398 -0.9998281793033535 2.645787818441889e-17 8.328060477260695e-17 2.645787818441889e-17 8.328060477260695e-17 -0.01853612750579638 -0.9998281912293361
12615425333.333334 -0.02762988198643127 -0.9996182219333798 2.7216293444178262e-17 8.301784689275426e-17 2.7216293444178262e-17 8.301784689275426e-17 -0.027629238883433754 -0.9996182397088195
12616042666.666666 -0.036720707409478436 -0.9993255673939224 2.797211581107166e-17 8.274818830043858e-17 2.797211581107166e-17 8.274818830043858e-17 -0.03672006452621959 -0.9993255910167749
12616660000.0 -0.045808494971779405 -0.9989502398959901 2.872528255177278e-17 8.247165444080107e-17 2.872528255177278e-17 8.247165444080107e-17 -0.04580785236142013 -0.9989502693637312
12617277333.333334 -0.05489249285205692 -0.998492270490024 2.947573118144542e-17 8.218827132877116e-17 2.947573118144542e-17 8.218827132877116e-17 -0.05489185056773021 -0.9984923057996427
12617894666.666666 -0.06397194954243662 -0.9979516970633279 3.022339946890691e-17 8.189806554665286e-17 3.022339946890691e-17 8.189806554665286e-17 -0.06397130763724335 -0.9979517382113314
12618512000.0 -0.0730461139108457 -0.9973285643369291 3.0968225441791566e-17 8.160106424165565e-17 3.0968225441791566e-17 8.160106424165565e-17 -0.07304547243785021 -0.9973286113193426
12619129333.333334 -0.08211423526292606 -0.9966229238618893 3.1710147391655476e-17 8.129729512339211e-17 3.1710147391655476e-17 8.129729512339211e-17 -0.08211359427515169 -0.9966229766742547
12619746666.666666 -0.09117556340433684 -0.9958348340150277 3.2449103879091605e-17 8.098678646131505e-17 3.2449103879091605e-17 8.098678646131505e-17 -0.0911749229547617 -0.9958348926524065
12620364000.0 -0.10022934870273202 -0.9949643599940969 3.3185033738797143e-17 8.066956708211797e-17 3.3185033738797143e-17 8.066956708211797e-17 -0.10022870884428439 -0.9949644244510678
12620981333.333334 -0.10927484214969153 -0.9940115738123962 3.3917876084616025e-17 8.034566636708978e-17 3.3917876084616025e-17 8.034566636708978e-17 -0.10927420293524569 -0.9940116440830579
12621598666.666666 -0.11831129542288396 -0.9929765542927969 3.464757031457639e-17 8.001511424941493e-17 3.464757031457639e-17 8.001511424941493e-17 -0.11831065690525573 -0.9929766303707672
12622216000.0 -0.1273379609477483 -0.9918593870612441 3.537405611588151e-17 7.967794121143697e-17 3.537405611588151e-17 7.967794121143697e-17 -0.1273373231796907 -0.9918594689396615
12622833333.333334 -0.1363540919595654 -0.9906601645396463 3.609727346987666e-17 7.93341782818754e-17 3.609727346987666e-17 7.93341782818754e-17 -0.13635345499376433 -0.9906602522111704
12623450666.666666 -0.14535894256503973 -0.989378985938255 3.681716265699872e-17 7.898385703299486e-17 3.681716265699872e-17 7.898385703299486e-17 -0.14535830645410958 -0.9893790793950666
12624068000.0 -0.1543517678040628 -0.9880159572474513 3.753366426169802e-17 7.862700957772795e-17 3.753366426169802e-17 7.862700957772795e-17 -0.15435113260054184 -0.9880160564812529
12624685333.333334 -0.1633318237115389 -0.9865711912289449 3.8246719177323935e-17 7.826366856675875e-17 3.8246719177323935e-17 7.826366856675875e-17 -0.16333118946788558 -0.9865712962309627
12625302666.666666 -0.17229836737856805 -0.9850448074065049 3.8956268610978336e-17 7.78938671855644e-17 3.8956268610978336e-17 7.78938671855644e-17 -0.172297734147156 -0.985044918167488
12625920000.0 -0.18125065701424142 -0.9834369320560125 3.966225408837568e-17 7.751763915139461e-17 3.966225408837568e-17 7.751763915139461e-17 -0.18125002484735575 -0.9834370485662363
12626537333.333334 -0.19018795200678634 -0.9817476981950606 4.036461745861067e-17 7.713501871024035e-17 4.036461745861067e-17 7.713501871024035e-17 -0.1901873209566187 -0.9817478204443242
12627154666.666666 -0.19910951298491913 -0.9799772455719298 4.106330089896074e-17 7.674604063372674e-17 4.106330089896074e-17 7.674604063372674e-17 -0.1991088831035634 -0.979977373549557
12627772000.0 -0.2080146018790951 -0.9781257206540054 4.17582469196363e-17 7.635074021597263e-17 4.17582469196363e-17 7.635074021597263e-17 -0.20801397321854428 -0.9781258543488521
12628389333.333334 -0.216902481982348 -0.9761932766157198 4.244939836847159e-17 7.594915327042611e-17 4.244939836847159e-17 7.594915327042611e-17 -0.21690185459448796 -0.9761934160161645
12629006666.666666 -0.22577241801156708 -0.9741800733257927 4.313669843563413e-17 7.554131612662791e-17 4.313669843563413e-17 7.554131612662791e-17 -0.22577179194817426 -0.9741802184197474
12629624000.0 -0.23462367616794064 -0.9720862773341054 4.382009065826998e-17 7.512726562695395e-17 4.382009065826998e-17 7.512726562695395e-17 -0.23462305148067636 -0.9720864281090101
12630241333.333334 -0.24345552419799232 -0.9699120618578356 4.4499518925133995e-17 7.470703912330398e-17 4.4499518925133995e-17 7.470703912330398e-17 -0.2434549009383991 -0.9699122183006622
12630858666.666666 -0.2522672314538853 -0.9676576067672027 4.517492748116415e-17 7.428067447376585e-17 4.517492748116415e-17 7.428067447376585e-17 -0.25226660967338244 -0.967657768864455
12631476000.0 -0.2610580689542239 -0.9653230985704883 4.584626093207826e-17 7.384821003920335e-17 4.584626093207826e-17 7.384821003920335e-17 -0.2610574487041038 -0.9653232663082053
12632093333.333334 -0.2698273094438961 -0.9629087303987358 4.651346424886734e-17 7.340968467984817e-17 4.651346424886734e-17 7.340968467984817e-17 -0.2698266907753187 -0.9629089037624887
12632710666.666666 -0.27857422745456617 -0.9604147019896819 4.717648277230882e-17 7.296513775181794e-17 4.717648277230882e-17 7.296513775181794e-17 -0.2785736104185563 -0.9604148809645798
12633328000.0 -0.28729809936474715 -0.957841219671215 4.7835262217431793e-17 7.251460910360291e-17 4.7835262217431793e-17 7.251460910360291e-17 -0.2872974840121894 -0.9578414042419044
12633945333.333334 -0.29599820345933714 -0.9551884963444035 4.848974867794124e-17 7.205813907251831e-17 4.848974867794124e-17 7.205813907251831e-17 -0.29599758984097174 -0.955188686495068
12634562666.666666 -0.3046738199896258 -0.952456751465791 4.9139888630618533e-17 7.159576848110974e-17 4.9139888630618533e-17 7.159576848110974e-17 -0.30467320815604454 -0.9524569471801553
12635180000.0 -0.31332423123272884 -0.9496462110292746 4.978562893967585e-17 7.112753863352763e-17 4.978562893967585e-17 7.112753863352763e-17 -0.31332362123437124 -0.949646412290605
12635797333.333334 -0.321948721550911 -0.9467571075474274 5.042691686109852e-17 7.065349131184698e-17 5.042691686109852e-17 7.065349131184698e-17 -0.3219481134380598 -0.9467573143385329
12636414666.666666 -0.33054657745084437 -0.9437896800322466 5.106370004692248e-17 7.017366877236965e-17 5.106370004692248e-17 7.017366877236965e-17 -0.3305459712736211 -0.9437898923354793
12637032000.0 -0.33911708764271403 -0.9407441739753485 5.169592654950834e-17 6.96881137418647e-17 5.169592654950834e-17 6.96881137418647e-17 -0.3391164834510756 -0.940744391772608
12637649333.333334 -0.3476595430988756 -0.937620841327729 5.232354482574877e-17 6.919686941379441e-17 5.232354482574877e-17 6.919686941379441e-17 -0.3476589409426093 -0.9376210646004606
12638266666.666666 -0.35617323711269855 -0.9344199404788506 5.294650374126942e-17 6.869997944448011e-17 5.294650374126942e-17 6.869997944448011e-17 -0.3561726370414189 -0.9344201692080492
12638884000.0 -0.36465746535695187 -0.9311417362352953 5.3564752574574284e-17 6.819748794924535e-17 5.3564752574574284e-17 6.819748794924535e-17 -0.3646568674200959 -0.9311419704015066
12639501333.333334 -0.37311152594201863 -0.9277864997988797 5.417824102115634e-17 6.768943949852026e-17 5.417824102115634e-17 6.768943949852026e-17 -0.3731109301888415 -0.9277867393822001
12640118666.666666 -0.3815347194739624 -0.924354508744217 5.478691919757586e-17 6.717587911390658e-17 5.478691919757586e-17 6.717587911390658e-17 -0.381534125953535 -0.9243547537242991
12640736000.0 -0.38992634911273066 -0.9208460469956168 5.5390737645523774e-17 6.665685226418664e-17 5.5390737645523774e-17 6.665685226418664e-17 -0.38992575787393347 -0.9208462973516673
12641353333.333334 -0.39828572062909273 -0.9172614048038875 5.59896473357839e-17 6.61324048613506e-17 5.59896473357839e-17 6.61324048613506e-17 -0.398285131720613 -0.9172616605146707
12641970666.666666 -0.4066121424627817 -0.913600878722029 5.658359967223034e-17 6.560258325652518e-17 5.658359967223034e-17 6.560258325652518e-17 -0.406611555933109 -0.9136011397658683
12642588000.0 -0.4149049257793646 -0.9098647715808418 5.717254649574799e-17 6.506743423590123e-17 5.717254649574799e-17 6.506743423590123e-17 -0.4149043416767871 -0.9098650379356212
12643205333.333334 -0.4231633845271787 -0.9060533924638994 5.775644008811791e-17 6.452700501662259e-17 5.775644008811791e-17 6.452700501662259e-17 -0.42316280289977903 -0.9060536641070662
12643822666.666666 -0.4313868354943457 -0.9021670566818609 5.83352331758698e-17 6.398134324263533e-17 5.83352331758698e-17 6.398134324263533e-17 -0.43138625638999717 -0.9021673335904272
12644440000.0 -0.4395745983650858 -0.898206085746478 5.890887893409573e-17 6.343049698050295e-17 5.890887893409573e-17 6.343049698050295e-17 -0.4395740218314486 -0.8982063678970232
12645057333.333334 -0.44772599577595085 -0.8941708073440279 5.947733099021863e-17 6.287451471519237e-17 5.947733099021863e-17 6.287451471519237e-17 -0.4477254218604669 -0.8941710947126978
12645674666.666666 -0.4558403533720127 -0.8900615553081239 6.004054342771994e-17 6.23134453458281e-17 6.004054342771994e-17 6.23134453458281e-17 -0.45583978212190346 -0.8900618478706368
12646292000.0 -0.463916999862754 -0.885878669592049 6.059847078985527e-17 6.174733818138573e-17 6.059847078985527e-17 6.174733818138573e-17 -0.46391643132501603 -0.8858789673236963
12646909333.333334 -0.47195526707719876 -0.8816224962408388 6.115106808327743e-17 6.117624293640444e-17 6.115106808327743e-17 6.117624293640444e-17 -0.47195470129859923 -0.8816227991164858
12647526666.666666 -0.4799544900195922 -0.8772933873624434 6.16982907816693e-17 6.060020972661616e-17 6.16982907816693e-17 6.060020972661616e-17 -0.47995392704666573 -0.8772936953565329
12648144000.0 -0.4879140069243145 -0.8728917010986512 6.224009482930669e-17 6.001928906457303e-17 6.224009482930669e-17 6.001928906457303e-17 -0.48791344680335896 -0.8728920141852045
12648761333.333334 -0.4958331593104521 -0.8684178015955528 6.277643664459214e-17 5.943353185523029e-17 6.277643664459214e-17 5.943353185523029e-17 -0.49583260208752467 -0.8684181197481725
12649378666.666666 -0.503711292036424 -0.8638720589733374 6.330727312353892e-17 5.884298939150694e-17 6.330727312353892e-17 5.884298939150694e-17 -0.5037107377573382 -0.8638723821652103
12649996000.0 -0.5115477533542298 -0.859254849295643 6.383256164322156e-17 5.824771334980638e-17 6.383256164322156e-17 5.824771334980638e-17 -0.5115472020645504 -0.859255177499541
12650613333.333334 -0.5193418949632179 -0.8545665545385281 6.435226006518657e-17 5.764775578550468e-17 6.435226006518657e-17 5.764775578550468e-17 -0.519341346708259 -0.8545668877268118
12651230666.666666 -0.5270930720637729 -0.8498075625588488 6.486632673880274e-17 5.704316912842897e-17 6.486632673880274e-17 5.704316912842897e-17 -0.5270925268885923 -0.8498079007034685
12651848000.0 -0.5348006434107996 -0.8449782670620775 6.537472050460097e-17 5.643400617826853e-17 6.537472050460097e-17 5.643400617826853e-17 -0.5348001013601963 -0.8449786101345769
12652465333.333334 -0.5424639713666051 -0.8400790675698383 6.587740069753212e-17 5.582032010000363e-17 6.587740069753212e-17 5.582032010000363e-17 -0.5424634324851147 -0.8400794155413552
12653082666.666666 -0.5500824219535534 -0.8351103693869152 6.637432715021174e-17 5.520216441926977e-17 6.637432715021174e-17 5.520216441926977e-17 -0.5500818862854461 -0.8351107222281863
12653700000.0 -0.5576553649068986 -0.8300725835674808 6.686546019612302e-17 5.4579593017690934e-17 6.686546019612302e-17 5.4579593017690934e-17 -0.5576548324961729 -0.8300729412488413
12654317333.333334 -0.565182173726516 -0.8249661268813457 6.735076067273883e-17 5.3952660128230495e-17 6.735076067273883e-17 5.3952660128230495e-17 -0.5651816446168985 -0.8249664893727354
12654934666.666666 -0.5726622257289041 -0.8197914217793791 6.783018992465163e-17 5.332142033045166e-17 6.783018992465163e-17 5.332142033045166e-17 -0.5726616999638426 -0.8197917890503411
12655552000.0 -0.5800949020988344 -0.8145488963584578 6.830370980662786e-17 5.2685928545788223e-17 6.830370980662786e-17 5.2685928545788223e-17 -0.5800943797214969 -0.8145492683781439
12656169333.333334 -0.587479587940266 -0.8092389843262452 6.877128268661429e-17 5.2046240032794737e-17 6.877128268661429e-17 5.2046240032794737e-17 -0.587479068993535 -0.8092393610634164
12656786666.666666 -0.5948156723273793 -0.8038621249651995 6.923287144871937e-17 5.1402410382344714e-17 6.923287144871937e-17 5.1402410382344714e-17 -0.5948151568538499 -0.8038625063882301
12657404000.0 -0.6021025483551387 -0.7984187630962122 6.968843949614225e-17 5.0754495512812334e-17 6.968843949614225e-17 5.0754495512812334e-17 -0.6021020363971149 -0.7984191491730925
12658021333.333334 -0.6093396131894779 -0.7929093490418279 7.013795075405404e-17 5.010255166523245e-17 7.013795075405404e-17 5.010255166523245e-17 -0.609339104788968 -0.7929097397401652
12658638666.666666 -0.6165262681169913 -0.7873343385891247 7.058136967242401e-17 4.9446635398449234e-17 7.058136967242401e-17 4.9446635398449234e-17 -0.6165257633157054 -0.7873347338761478
12659256000.0 -0.6236619185948252 -0.7816941929517329 7.101866122883459e-17 4.8786803584192034e-17 7.101866122883459e-17 4.8786803584192034e-17 -0.6236614174341717 -0.7816945927942941
12659873333.333334 -0.6307459742995921 -0.7759893787318849 7.144979093121105e-17 4.8123113402182623e-17 7.144979093121105e-17 4.8123113402182623e-17 -0.630745476820675 -0.7759897830964637
12660490666.666666 -0.6377778491761458 -0.7702203678818728 7.187472482051878e-17 4.745562233520101e-17 7.187472482051878e-17 4.745562233520101e-17 -0.6377773554197593 -0.770220776734577
12661108000.0 -0.6447569614864149 -0.7643876376647147 7.229342947343951e-17 4.678438816408816e-17 7.229342947343951e-17 4.678438816408816e-17 -0.6447564714930423 -0.7643880509712848
12661725333.333334 -0.6516827338571564 -0.7584916706149785 7.270587200495638e-17 4.61094689627956e-17 7.270587200495638e-17 4.61094689627956e-17 -0.6516822476669646 -0.7584920883407884
12662342666.666666 -0.6585545933278963 -0.7525329544987165 7.31120200709333e-17 4.543092309334841e-17 7.31120200709333e-17 4.543092309334841e-17 -0.6585541109807349 -0.7525333766087798
12662960000.0 -0.6653719713983521 -0.7465119822730967 7.351184187061886e-17 4.4748809200830986e-17 7.351184187061886e-17 4.4748809200830986e-17 -0.6653714929337483 -0.7465124087320667
12663577333.333334 -0.6721343040754196 -0.7404292520456558 7.3905306149125e-17 4.4063186208318557e-17 7.3905306149125e-17 4.4063186208318557e-17 -0.6721338295325756 -0.7404296828178297
12664194666.666666 -0.6788410319197683 -0.7342852670331489 7.429238219984446e-17 4.337411331180699e-17 7.429238219984446e-17 4.337411331180699e-17 -0.6788405613375581 -0.7342857020824709
12664812000.0 -0.6854916000922497 -0.7280805355198048 7.467303986682228e-17 4.2681649975122307e-17 7.467303986682228e-17 4.2681649975122307e-17 -0.6854911335092162 -0.7280809748098686
12665429333.333334 -0.6920854583997561 -0.721815570815314 7.504724954709206e-17 4.1985855924788517e-17 7.504724954709206e-17 4.1985855924788517e-17 -0.6920849958541072 -0.7218160143093659
12666046666.666666 -0.6986220613405726 -0.7154908912125205 7.541498219294529e-17 4.1286791144909035e-17 7.541498219294529e-17 4.1286791144909035e-17 -0.6986216028701788 -0.7154913388734628
12666664000.0 -0.7051008681498557 -0.7091070199442098 7.57762093141785e-17 4.058451587198125e-17 7.57762093141785e-17 4.058451587198125e-17 -0.7051004137922461 -0.7091074717346034
12667281333.333334 -0.7115213428440196 -0.7026644851401566 7.613090298025719e-17 3.987909058975872e-17 7.613090298025719e-17 3.987909058975872e-17 -0.7115208926363804 -0.7026649410222251
12667898666.666666 -0.717882954265224 -0.6961638197832973 7.647903582247098e-17 3.917057602402132e-17 7.647903582247098e-17 3.917057602402132e-17 -0.717882508244394 -0.6961642797189294
12668516000.0 -0.7241851761254348 -0.6896055616655149 7.682058103601767e-17 3.845903313736755e-17 7.682058103601767e-17 3.845903313736755e-17 -0.724184734327903 -0.6896060256162669
12669133333.333334 -0.7304274870497216 -0.6829902533433891 7.715551238203041e-17 3.774452312400904e-17 7.715551238203041e-17 3.774452312400904e-17 -0.7304270495116231 -0.6829907212704891
12669750666.666666 -0.7366093706195322 -0.6763184420931714 7.748380418958668e-17 3.702710740448647e-17 7.748380418958668e-17 3.702710740448647e-17 -0.7366089373766478 -0.6763189139575233
12670368000.0 -0.7427303154154534 -0.6695906798654672 7.780543135764221e-17 3.63068476204206e-17 7.780543135764221e-17 3.63068476204206e-17 -0.7427298865032045 -0.6695911556276527
