! Parameters = {f0=12700.012000; bw=77.238000; Q=6100.000000; N=10; m_0_1=1.196491; m_1_1=-0.817373; m_1_2=1.031303; m_2_2=-0.818022; m_2_3=0.668266; m_2_8=-0.003112; m_2_9=0.033592; m_3_3=-0.819959; m_3_4=0.556795; m_3_7=-0.002512; m_3_8=-0.099600; m_3_9=-0.003112; m_4_4=-0.822884; m_4_5=0.393130; m_4_6=0.001005; m_4_7=-0.120149; m_4_8=-0.002512; m_5_5=-0.822502; m_5_6=0.800485; m_5_7=0.001005; m_6_6=-0.822503; m_6_7=0.393472; m_7_7=-0.822870; m_7_8=0.556913; m_8_8=-0.819961; m_8_9=0.668579; m_9_9=-0.818027; m_9_10=1.032381; m_10_10=-0.817383; m_10_11=1.197286}
!
! Created with skrf (http://scikit-rf.org).
# Hz S RI R 50.0 
!freq ReS11 ImS11 ReS21 ImS21 ReS12 ImS12 ReS22 ImS22
12607400000.0 0.3689370896801398 0.9294543688951019 -4.767221137270968e-17 -6.068558730330611e-17 -4.767221137270968e-17 -6.068558730330611e-17 0.3689365036497125 0.9294546015134728
12608017333.333334 0.3766849357767789 0.9263414376776461 -4.817316771430554e-17 -6.026934092185504e-17 -4.817316771430554e-17 -6.026934092185504e-17 0.37668435173768655 0.9263416751694818
12608634666.666666 0.3844065196010425 0.9231639224363445 -4.867049679107689e-17 -5.984896500394067e-17 -4.867049679107689e-17 -5.984896500394067e-17 0.3844059375938069 0.9231641647846114
12609252000.0 0.3921013028082989 0.9199220447058966 -4.91641646120536e-17 -5.942449109963326e-17 -4.91641646120536e-17 -5.942449109963326e-17 0.3921007228732965 0.9199222918932234
12609869333.333334 0.3997687489224424 0.9166160305083196 -4.9654137460213225e-17 -5.899595103835315e-17 -4.9654137460213225e-17 -5.899595103835315e-17 0.39976817109990087 0.9166162825169991
12610486666.666666 0.40740832337326843 0.9132461103372005 -5.0140381894754765e-17 -5.856337692651176e-17 -5.0140381894754765e-17 -5.856337692651176e-17 0.4074077477032644 0.9132463671491915
12611104000.0 0.4150194935338746 0.9098125191415698 -5.0622864753393464e-17 -5.812680114509807e-17 -5.0622864753393464e-17 -5.812680114509807e-17 0.41501892005633095 0.9098127807384989
12611721333.333334 0.4226017287575359 0.9063154963096383 -5.110155315459381e-17 -5.768625634728275e-17 -5.110155315459381e-17 -5.768625634728275e-17 0.4226011575122183 0.9063157626727986
12612338666.666666 0.4301545004149332 0.902755285651999 -5.1576414499806013e-17 -5.724177545598183e-17 -5.1576414499806013e-17 -5.724177545598183e-17 0.4301539314414485 0.902755556762355
12612956000.0 0.43767728193098454 0.899132135384644 -5.204741647567992e-17 -5.67933916614036e-17 -5.204741647567992e-17 -5.67933916614036e-17 0.4376767152687764 0.8991324112228292
12613573333.333334 0.44516954882142645 0.8954462981117133 -5.2514527056243456e-17 -5.634113841859102e-17 -5.2514527056243456e-17 -5.634113841859102e-17 0.44516898450977405 0.8954465786580348
12614190666.666666 0.4526307787294858 0.8916980308078408 -5.2977714505075415e-17 -5.588504944493103e-17 -5.2977714505075415e-17 -5.588504944493103e-17 0.45263021680750143 0.8916983160422802
12614808000.0 0.46006045146224783 0.8878875948002629 -5.343694737744917e-17 -5.542515871765382e-17 -5.343694737744917e-17 -5.542515871765382e-17 0.4600598919688715 0.887887884702474
12615425333.333334 0.4674580490270212 0.884015255750541 -5.3892194522454674e-17 -5.496150047131474e-17 -5.3892194522454674e-17 -5.496150047131474e-17 0.4674574920010212 0.8840155502998569
12616042666.666666 0.4748230556673044 0.8800812836361245 -5.4343425085106504e-17 -5.4494109195250954e-17 -5.4343425085106504e-17 -5.4494109195250954e-17 0.47482250114727276 0.8800815828115552
12616660000.0 0.4821549578988424 0.8760859527314714 -5.479060850841448e-17 -5.402301963103649e-17 -5.479060850841448e-17 -5.402301963103649e-17 0.4821544059231929 0.8760862565117071
12617277333.333334 0.4894532445454032 0.8720295415889426 -5.523371453544783e-17 -5.354826676990492e-17 -5.523371453544783e-17 -5.354826676990492e-17 0.4894526951523686 0.8720298499523546
12617894666.666666 0.496717406774391 0.8679123330193937 -5.567271321136797e-17 -5.306988585016464e-17 -5.567271321136797e-17 -5.306988585016464e-17 0.4967168600020203 0.8679126459440359
12618512000.0 0.5039469381324457 0.8637346140723875 -5.610757488544948e-17 -5.2587912354586374e-17 -5.610757488544948e-17 -5.2587912354586374e-17 0.5039463940186009 0.863734931535997
12619129333.333334 0.5111413345805049 0.8594966760163205 -5.653827021305618e-17 -5.2102382007798307e-17 -5.653827021305618e-17 -5.2102382007798307e-17 0.5111407931628592 0.8594969979963207
12619746666.666666 0.5183000945291436 0.8551988143180066 -5.696477015762164e-17 -5.161333077363622e-17 -5.696477015762164e-17 -5.161333077363622e-17 0.5182995558451786 0.8551991407915085
12620364000.0 0.5254227188736417 0.8508413286220143 -5.738704599260091e-17 -5.1120794852484075e-17 -5.738704599260091e-17 -5.1120794852484075e-17 0.5254221829606448 0.8508416595658177
12620981333.333334 0.5325087110284137 0.8464245227299957 -5.780506930337134e-17 -5.0624810678629347e-17 -5.780506930337134e-17 -5.0624810678629347e-17 0.532508177923476 0.8464248581205915
12621598666.666666 0.5395575769619751 0.8419487045793029 -5.821881198915194e-17 -5.0125414917557743e-17 -5.821881198915194e-17 -5.0125414917557743e-17 0.5395570467019876 0.8419490443928739
12622216000.0 0.5465688252312121 0.8374141862216189 -5.862824626487719e-17 -4.9622644463256375e-17 -5.862824626487719e-17 -4.9622644463256375e-17 0.5465682978528642 0.837414530434042
12622833333.333334 0.5535419670157915 0.8328212838011123 -5.903334466304506e-17 -4.9116536435505404e-17 -5.903334466304506e-17 -4.9116536435505404e-17 0.5535414425555675 0.8328216323879594
12623450666.666666 0.5604765161519999 0.8281703175325478 -5.943408003554651e-17 -4.8607128177149926e-17 -5.943408003554651e-17 -4.8607128177149926e-17 0.5604759946461783 0.8281706704690894
12624068000.0 0.5673719891668565 0.8234616116788257 -5.983042555548336e-17 -4.809445725134161e-17 -5.983042555548336e-17 -4.809445725134161e-17 0.5673714706515052 0.8234619689400308
12624685333.333334 0.5742279053117919 0.8186954945283835 -6.022235471894476e-17 -4.757856143878749e-17 -6.022235471894476e-17 -4.757856143878749e-17 0.5742273898227679 0.8186958560889229
12625302666.666666 0.5810437865960297 0.8138722983724109 -6.060984134675925e-17 -4.7059478734986864e-17 -6.060984134675925e-17 -4.7059478734986864e-17 0.5810432741689744 0.813872664206657
12625920000.0 0.5878191578201168 0.8089923594815287 -6.099285958624778e-17 -4.6537247347420505e-17 -6.099285958624778e-17 -4.6537247347420505e-17 0.5878186484904553 0.8089927295635594
12626537333.333334 0.594553546608803 0.8040560180825317 -6.137138391292291e-17 -4.601190569276631e-17 -6.137138391292291e-17 -4.601190569276631e-17 0.5945530404117403 0.8040563923861302
12627154666.666666 0.6012464834441805 0.7990636183345167 -6.174538913217683e-17 -4.5483492394083395e-17 -6.174538913217683e-17 -4.5483492394083395e-17 0.6012459804147006 0.7990639968331753
12627772000.0 0.6078975016984185 0.7940155083048852 -6.211485038095669e-17 -4.4952046277966786e-17 -6.211485038095669e-17 -4.4952046277966786e-17 0.6078970018712807 0.7940158909718064
12628389333.333334 0.6145061376660682 0.7889120399452498 -6.247974312939066e-17 -4.4417606371724426e-17 -6.247974312939066e-17 -4.4417606371724426e-17 0.6145056410758056 0.7889124267533482
12629006666.666666 0.62107193059671 0.7837535690666542 -6.284004318241433e-17 -4.388021190050495e-17 -6.284004318241433e-17 -4.388021190050495e-17 0.6210714372776268 0.7837539599885582
12629624000.0 0.6275944227268068 0.7785404553149761 -6.319572668135295e-17 -4.3339902284441475e-17 -6.319572668135295e-17 -4.3339902284441475e-17 0.6275939327129747 0.7785408503230293
12630241333.333334 0.6340731593118404 0.7732730621456734 -6.354677010549293e-17 -4.279671713576284e-17 -6.354677010549293e-17 -4.279671713576284e-17 0.6340726726370982 0.7732734612119383
12630858666.666666 0.6405076886577514 0.7679517567986611 -6.389315027362098e-17 -4.225069625590303e-17 -6.389315027362098e-17 -4.225069625590303e-17 0.640507205355702 0.7679521598949196
12631476000.0 0.6468975621527401 0.7625769102724551 -6.423484434554693e-17 -4.17018796325855e-17 -6.423484434554693e-17 -4.17018796325855e-17 0.6468970822567482 0.7625773173702121
12632093333.333334 0.6532423342983255 0.7571488972984904 -6.45718298235841e-17 -4.115030743692295e-17 -6.45718298235841e-17 -4.115030743692295e-17 0.6532418578415132 0.7571493083689715
12632710666.666666 0.6595415627403991 0.7516680963149868 -6.490408455402717e-17 -4.059602002047034e-17 -6.490408455402717e-17 -4.059602002047034e-17 0.6595410897556481 0.7516685113291467
12633328000.0 0.6657948083002693 0.7461348894404086 -6.523158672859279e-17 -4.0039057912284405e-17 -6.523158672859279e-17 -4.0039057912284405e-17 0.6657943388202149 0.7461353083689288
12633945333.333334 0.6720016350050388 0.7405496624470231 -6.555431488583081e-17 -3.947946181597922e-17 -6.555431488583081e-17 -3.947946181597922e-17 0.6720011690620676 0.7405500852603139
12634562666.666666 0.6781616101181901 0.7349128047338324 -6.587224791251967e-17 -3.891727260675578e-17 -6.587224791251967e-17 -3.891727260675578e-17 0.6781611477444411 0.7349132314020381
12635180000.0 0.6842743041696139 0.7292247092995641 -6.618536504503609e-17 -3.835253132842044e-17 -6.618536504503609e-17 -3.835253132842044e-17 0.6842738453969733 0.7292251397925628
12635797333.333334 0.6903392909856524 0.7234857727151728 -6.649364587069022e-17 -3.7785279190407213e-17 -6.649364587069022e-17 -3.7785279190407213e-17 0.6903388358457515 0.7234862070025775
12636414666.666666 0.6963561477186877 0.7176963950963064 -6.679707032904052e-17 -3.7215557564782505e-17 -6.679707032904052e-17 -3.7215557564782505e-17 0.6963556962429018 0.7176968331474695
12637032000.0 0.7023244548768292 0.7118569800752175 -6.709561871319315e-17 -3.664340798322012e-17 -6.709561871319315e-17 -3.664340798322012e-17 0.7023240070962761 0.7118574218592325
12637649333.333334 0.708243796352956 0.7059679347728173 -6.738927167105556e-17 -3.606887213400218e-17 -6.738927167105556e-17 -3.606887213400218e-17 0.7082433522984919 0.7059683802585197
12638266666.666666 0.7141137594538282 0.7000296697701924 -6.767801020658038e-17 -3.54919918589817e-17 -6.767801020658038e-17 -3.54919918589817e-17 0.7141133191560465 0.7000301189261633
12638884000.0 0.7199339349288195 0.6940425990800204 -6.796181568097608e-17 -3.491280915054863e-17 -6.796181568097608e-17 -3.491280915054863e-17 0.7199334984180495 0.6940430518745879
12639501333.333334 0.7257039169985506 0.6880071401176027 -6.824066981389863e-17 -3.433136614857295e-17 -6.824066981389863e-17 -3.433136614857295e-17 0.7257034843048545 0.6880075965188446
12640118666.666666 0.7314233033829441 0.6819237136720102 -6.851455468460103e-17 -3.374770513737152e-17 -6.851455468460103e-17 -3.374770513737152e-17 0.7314228745361133 0.6819241736477545
12640736000.0 0.7370916953296375 0.6757927438763492 -6.878345273308572e-17 -3.316186854260514e-17 -6.878345273308572e-17 -3.316186854260514e-17 0.7370912703591944 0.6757932073941797
12641353333.333334 0.7427086976413818 0.6696146581786321 -6.904734676119415e-17 -3.257389892824548e-17 -6.904734676119415e-17 -3.257389892824548e-17 0.7427082765765749 0.669615125205888
12641970666.666666 0.748273918703883 0.6633898873116617 -6.930621993370289e-17 -3.198383899346227e-17 -6.930621993370289e-17 -3.198383899346227e-17 0.7482735015736859 0.6633903578154409
12642588000.0 0.7537869705129879 0.6571188652631249 -6.956005577937345e-17 -3.139173156954556e-17 -6.956005577937345e-17 -3.139173156954556e-17 0.7537865573460966 0.657119339210286
12643205333.333334 0.7592474687017374 0.650802029245337 -6.98088381919863e-17 -3.0797619616798236e-17 -6.98088381919863e-17 -3.0797619616798236e-17 0.75924705952657 0.6508025066025027
12643822666.666666 0.7646550325672212 0.644439819664696 -7.005255143134212e-17 -3.0201546221432026e-17 -7.005255143134212e-17 -3.0201546221432026e-17 0.7646546274119136 0.6444403003982534
12644440000.0 0.7700092850970988 0.6380326800909959 -7.029118012423841e-17 -2.9603554592454196e-17 -7.029118012423841e-17 -2.9603554592454196e-17 0.7700088839895042 0.6380331641671005
12645057333.333334 0.7753098529957941 0.6315810572266128 -7.052470926541946e-17 -2.900368805854658e-17 -7.052470926541946e-17 -2.900368805854658e-17 0.77530945596348 0.6315815446111894
12645674666.666666 0.7805563667105954 0.6250854008752722 -7.075312421850382e-17 -2.840199006492731e-17 -7.075312421850382e-17 -2.840199006492731e-17 0.7805559737808446 0.6250858915340205
12646292000.0 0.7857484604575108 0.6185461639105815 -7.097641071688219e-17 -2.7798504170211334e-17 -7.097641071688219e-17 -2.7798504170211334e-17 0.7857480716573161 0.6185466578089747
12646909333.333334 0.7908857722466074 0.6119638022446519 -7.119455486458087e-17 -2.719327404328654e-17 -7.119455486458087e-17 -2.719327404328654e-17 0.790885387602671 0.6119642993479408
12647526666.666666 0.795967943907322 0.605338774796225 -7.140754313711594e-17 -2.6586343460136706e-17 -7.140754313711594e-17 -2.6586343460136706e-17 0.7959675634460539 0.6053392750694407
12648144000.0 0.8009946211134825 0.598671543458609 -7.161536238230489e-17 -2.597775630069827e-17 -7.161536238230489e-17 -2.597775630069827e-17 0.8009942448609987 0.598672046866565
12648761333.333334 0.8059654534079091 0.5919625730676116 -7.181799982105763e-17 -2.5367556545697216e-17 -7.181799982105763e-17 -2.5367556545697216e-17 0.8059650813900296 0.5919630795749062
12649378666.666666 0.8108800942269178 0.5852123313690418 -7.201544304813897e-17 -2.475578827348383e-17 -7.201544304813897e-17 -2.475578827348383e-17 0.8108797264691647 0.5852128409400609
12649996000.0 0.8157382009244623 0.5784212889861207 -7.220768003291131e-17 -2.414249565683923e-17 -7.220768003291131e-17 -2.414249565683923e-17 0.8157378374520586 0.5784218015850399
12650613333.333334 0.8205394347960269 0.5715899193866707 -7.239469912003867e-17 -2.3527722959813387e-17 -7.239469912003867e-17 -2.3527722959813387e-17 0.8205390756338937 0.5715904349774578
12651230666.666666 0.8252834611022221 0.5647186988501286 -7.257648903016902e-17 -2.2911514534541504e-17 -7.257648903016902e-17 -2.2911514534541504e-17 0.8252831062749779 0.5647192173965465
12651848000.0 0.8299699490921862 0.557808106434245 -7.275303886059844e-17 -2.22939148180264e-17 -7.275303886059844e-17 -2.22939148180264e-17 0.8299695986241459 0.5578086278998547
12652465333.333334 0.8345985720265678 0.5508586239418041 -7.292433808589043e-17 -2.167496832897395e-17 -7.292433808589043e-17 -2.167496832897395e-17 0.834598225941739 0.5508591482899661
12653082666.666666 0.8391690072002732 0.5438707358870789 -7.309037655848045e-17 -2.105471966458482e-17 -7.309037655848045e-17 -2.105471966458482e-17 0.8391686655223548 0.5438712630809559
12653700000.0 0.8436809359651832 0.5368449294617187 -7.325114450925518e-17 -2.0433213497333298e-17 -7.325114450925518e-17 -2.0433213497333298e-17 0.8436805987175664 0.5368454594642793
12654317333.333334 0.848134043752059 0.5297816945012583 -7.340663254809421e-17 -1.9810494571779626e-17 -7.340663254809421e-17 -1.9810494571779626e-17 0.8481337109578237 0.5297822272752795
12654934666.666666 0.8525280200926931 0.5226815234506351 -7.355683166439264e-17 -1.91866077013492e-17 -7.355683166439264e-17 -1.91866077013492e-17 0.852527691774605 0.5226820589587029
12655552000.0 0.8568625586415185 0.5155449113299007 -7.370173322755579e-17 -1.856159776511023e-17 -7.370173322755579e-17 -1.856159776511023e-17 0.8568622348220295 0.5155454495344145
12656169333.333334 0.8611373571968934 0.5083723556998292 -7.384132898746202e-17 -1.793550970456688e-17 -7.384132898746202e-17 -1.793550970456688e-17 0.861137037898141 0.5083728965630051
12656786666.666666 0.8653521177222339 0.5011643566271333 -7.397561107490333e-17 -1.730838852042812e-17 -7.397561107490333e-17 -1.730838852042812e-17 0.8653518029660369 0.5011649001110049
12657404000.0 0.8695065463667738 0.4939214166496223 -7.410457200199639e-17 -1.6680279269384313e-17 -7.410457200199639e-17 -1.6680279269384313e-17 0.8695062361746322 0.493921962716044
12658021333.333334 0.8736003534860525 0.4866440407411647 -7.422820466256623e-17 -1.6051227060878745e-17 -7.422820466256623e-17 -1.6051227060878745e-17 0.8736000478791468 0.4866445893518151
12658638666.666666 0.8776332536620973 0.4793327362765084 -7.434650233250316e-17 -1.5421277053879018e-17 -7.434650233250316e-17 -1.5421277053879018e-17 0.8776329526612862 0.47933328739289266
12659256000.0 0.8816049657233757 0.4719880129958067 -7.445945867009344e-17 -1.4790474453635415e-17 -7.445945867009344e-17 -1.4790474453635415e-17 0.881604669349194 0.47198856657925853
12659873333.333334 0.885515212764329 0.46461038296920265 -7.4567067716319e-17 -1.4158864508458458e-17 -7.4567067716319e-17 -1.4158864508458458e-17 0.8855149210369876 0.46461093898088773
12660490666.666666 0.8893637221646554 0.45720036056118085 -7.466932389513372e-17 -1.3526492506475692e-17 -7.466932389513372e-17 -1.3526492506475692e-17 0.8893634351040391 0.45720091896209936
12661108000.0 0.8931502256084993 0.44975846239435174 -7.476622201371187e-17 -1.2893403772384591e-17 -7.476622201371187e-17 -1.2893403772384591e-17 0.8931499432341655 0.4497590231453411
12661725333.333334 0.8968744591028955 0.44228520731393833 -7.485775726266463e-17 -1.225964366423617e-17 -7.485775726266463e-17 -1.225964366423617e-17 0.8968741814340733 0.44228577037567596
12662342666.666666 0.9005361629963716 0.4347811163512231 -7.49439252162374e-17 -1.1625257570164205e-17 -7.49439252162374e-17 -1.1625257570164205e-17 0.9005358900519609 0.4347816816842296
12662960000.0 0.9041350819969621 0.42724671268740083 -7.502472183247141e-17 -1.0990290905166837e-17 -7.502472183247141e-17 -1.0990290905166837e-17 0.9041348137955302 0.4272472802520418
12663577333.333334 0.9076709651900643 0.41968252161697267 -7.510014345334337e-17 -1.0354789107853421e-17 -7.510014345334337e-17 -1.0354789107853421e-17 0.9076707017498468 0.41968309137346205
12664194666.666666 0.9111435660558633 0.41208907051127824 -7.517018680487555e-17 -9.718797637205953e-18 -7.517018680487555e-17 -9.718797637205953e-18 0.9111433073947612 0.4120896424196809
12664812000.0 0.9145526424865645 0.40446688878162407 -7.523484899721977e-17 -9.082361969327378e-18 -7.523484899721977e-17 -9.082361969327378e-18 0.9145523886221449 0.40446746280185913
12665429333.333334 0.917897956803264 0.3968165078424001 -7.52941275247123e-17 -8.44552759420931e-18 -7.52941275247123e-17 -8.44552759420931e-18 0.9178977077527581 0.3968170839342433
12666046666.666666 0.9211792757725072 0.389138461074055 -7.534802026590197e-17 -7.80834001249139e-18 -7.534802026590197e-17 -7.80834001249139e-18 0.9211790315528086 0.3891390391971416
12666664000.0 0.9243963706226039 0.38143328378577834 -7.53965254835532e-17 -7.17084473219976e-18 -7.53965254835532e-17 -7.17084473219976e-18 0.9243961312502675 0.3814338638996058
12667281333.333334 0.9275490170594586 0.373701513178468 -7.543964182461809e-17 -6.533087265527009e-18 -7.543964182461809e-17 -6.533087265527009e-18 0.9275487825507 0.373702095242399
12667898666.666666 0.9306369952823498 0.3659436883069351 -7.547736832018327e-17 -5.89511312558303e-18 -7.547736832018327e-17 -5.89511312558303e-18 0.930636765653044 0.3659442722802004
12668516000.0 0.9336600899991886 0.35816035004247915 -7.55097043853898e-17 -5.256967823149252e-18 -7.55097043853898e-17 -5.256967823149252e-18 0.9336598652648688 0.35816093588418024
12669133333.333334 0.9366180904414758 0.3503520410353104 -7.553664981932417e-17 -4.61869686345361e-18 -7.553664981932417e-17 -4.61869686345361e-18 0.9366178706173321 0.3503526287044226
12669750666.666666 0.9395107903790828 0.34251930567650646 -7.555820480488333e-17 -3.98034574292569e-18 -7.555820480488333e-17 -3.98034574292569e-18 0.939510575479962 0.3425198951318816
12670368000.0 0.9423379881346253 0.3346626900600556 -7.557436990861198e-17 -3.341959945964506e-18 -7.557436990861198e-17 -3.341959945964506e-18 0.942337778175029 0.3346632812604249
12670985333.333334 0.9450994865974357 0.3267827419450236 -7.558514608051269e-17 -2.703584941706258e-18 -7.558514608051269e-17 -2.703584941706258e-18 0.9450992815915215 0.32678333484900146
