! Parameters = {f0=12700.012000; bw=77.238000; Q=6100.000000; N=10; m_0_1=1.336431; m_1_1=1.281726; m_1_2=1.171243; m_2_2=1.281077; m_2_3=0.808206; m_2_8=0.003885; m_2_9=0.040589; m_3_3=1.279140; m_3_4=0.696735; m_3_7=0.004485; m_3_8=-0.092603; m_3_9=0.003885; m_4_4=1.276215; m_4_5=0.533070; m_4_6=0.008002; m_4_7=-0.113152; m_4_8=0.004485; m_5_5=1.276597; m_5_6=0.940425; m_5_7=0.008002; m_6_6=1.276596; m_6_7=0.533412; m_7_7=1.276229; m_7_8=0.696853; m_8_8=1.279138; m_8_9=0.808519; m_9_9=1.281072; m_9_10=1.172321; m_10_10=1.281716; m_10_11=1.337226}
!
! Created with skrf (http://scikit-rf.org).
# Hz S RI R 50.0 
!freq ReS11 ImS11 ReS21 ImS21 ReS12 ImS12 ReS22 ImS22
12607400000.0 -0.09758288309242286 -0.9952274016159199 5.636276324890335e-17 1.387929210186655e-16 5.636276324890335e-17 1.387929210186655e-16 -0.09758218246777738 -0.9952274703125061
12608017333.333334 -0.11000219304158108 -0.9939313444729706 5.809227762020598e-17 1.3804613969368817e-16 5.809227762020598e-17 1.3804613969368817e-16 -0.11000149336358984 -0.9939314219087677
12608634666.666666 -0.12240435155337838 -0.9924803145254829 5.981192812393122e-17 1.3727782022354302e-16 5.981192812393122e-17 1.3727782022354302e-16 -0.12240365293103636 -0.9924804006875615
12609252000.0 -0.1347874248953246 -0.9908745380167415 6.15214467106244e-17 1.3648809252852523e-16 6.15214467106244e-17 1.3648809252852523e-16 -0.13478672743745174 -0.9908746328908143
12609869333.333334 -0.14714948231089842 -0.9891142653179353 6.322056703768494e-17 1.3567708986271057e-16 6.322056703768494e-17 1.3567708986271057e-16 -0.1471487861261223 -0.9891143688883575
12610486666.666666 -0.1594885963199692 -0.9871997708892014 6.490902451074015e-17 1.3484494879161338e-16 6.490902451074015e-17 1.3484494879161338e-16 -0.15948790151670816 -0.9871998831389726
12611104000.0 -0.1718028430201715 -0.9851313532367099 6.658655632484968e-17 1.3399180916927206e-16 6.658655632484968e-17 1.3399180916927206e-16 -0.17180214970661833 -0.985131474147481
12611721333.333334 -0.1840903023859803 -0.9829093348662652 6.825290150528888e-17 1.3311781411488372e-16 6.825290150528888e-17 1.3311781411488372e-16 -0.18408961067008453 -0.9829094644183364
12612338666.666666 -0.1963490585689194 -0.9805340622328751 6.990780094813334e-17 1.3222310998887858e-16 6.990780094813334e-17 1.3222310998887858e-16 -0.19634836855837118 -0.980534200405203
12612956000.0 -0.20857720019566348 -0.9780059056868434 7.155099746049307e-17 1.3130784636850887e-16 7.155099746049307e-17 1.3130784636850887e-16 -0.20857651199787636 -0.978006052457041
12613573333.333334 -0.22077282066633674 -0.9753252594159727 7.318223580036254e-17 1.3037217602297719e-16 7.318223580036254e-17 1.3037217602297719e-16 -0.22077213438843113 -0.9753254147603152
12614190666.666666 -0.23293401845173267 -0.9724925413841147 7.480126271625103e-17 1.2941625488801274e-16 7.480126271625103e-17 1.2941625488801274e-16 -0.23293333420051923 -0.972492705277543
12614808000.0 -0.24505889738974293 -0.9695081932660132 7.640782698644541e-17 1.2844024203997705e-16 7.640782698644541e-17 1.2844024203997705e-16 -0.24505821527170596 -0.9695083656821386
12615425333.333334 -0.25714556698122615 -0.9663726803783872 7.800167945791436e-17 1.2744429966949563e-16 7.800167945791436e-17 1.2744429966949563e-16 -0.25714488710250705 -0.9663728612894941
12616042666.666666 -0.26919214268444175 -0.9630864916074588 7.958257308486362e-17 1.2642859305461302e-16 7.958257308486362e-17 1.2642859305461302e-16 -0.269191465150822 -0.9630866809845094
12616660000.0 -0.281196746209106 -0.9596501393326716 8.115026296700863e-17 1.2539329053343115e-16 8.115026296700863e-17 1.2539329053343115e-16 -0.2811960711259915 -0.9596503371453118
12617277333.333334 -0.2931575058091987 -0.9560641593468163 8.270450638742699e-17 1.243385634763128e-16 8.270450638742699e-17 1.243385634763128e-16 -0.29315683328160275 -0.9560643655633793
12617894666.666666 -0.30507255657480314 -0.9523291107724883 8.424506285005265e-17 1.2326458625761967e-16 8.424506285005265e-17 1.2326458625761967e-16 -0.30507188670733054 -0.9523293253600008
12618512000.0 -0.3169400407228821 -0.9484455759749122 8.577169411687397e-17 1.2217153622693764e-16 8.577169411687397e-17 1.2217153622693764e-16 -0.3169393736197125 -0.9484457988990984
12619129333.333334 -0.32875810788694043 -0.9444141604711377 8.72841642446556e-17 1.210595936799158e-16 8.72841642446556e-17 1.210595936799158e-16 -0.3287574436518125 -0.9444143916964257
12619746666.666666 -0.3405249154054796 -0.9402354928356487 8.878223962138779e-17 1.199289418285783e-16 8.878223962138779e-17 1.199289418285783e-16 -0.3405242541416748 -0.9402357323251764
12620364000.0 -0.3522386286095183 -0.9359102246022805 9.026568900228297e-17 1.1877976677123466e-16 9.026568900228297e-17 1.1877976677123466e-16 -0.3522379704198442 -0.9359104723178995
12620981333.333334 -0.36389742110832873 -0.9314390301627438 9.173428354538522e-17 1.1761225746194783e-16 9.173428354538522e-17 1.1761225746194783e-16 -0.3638967660951041 -0.9314392860650283
12621598666.666666 -0.3754994750744222 -0.9268226066614026 9.318779684684722e-17 1.1642660567951652e-16 9.318779684684722e-17 1.1642660567951652e-16 -0.3754988233394608 -0.9268228707096546
12622216000.0 -0.3870429815269296 -0.9220616738865954 9.462600497574561e-17 1.1522300599606758e-16 9.462600497574561e-17 1.1522300599606758e-16 -0.387042333171523 -0.9220619460388487
12622833333.333334 -0.39852614061365255 -0.9171569741583997 9.604868650850069e-17 1.1400165574521656e-16 9.604868650850069e-17 1.1400165574521656e-16 -0.3985254957385568 -0.9171572543714313
12623450666.666666 -0.40994716189169955 -0.9121092722129001 9.745562256291213e-17 1.1276275498978228e-16 9.745562256291213e-17 1.1276275498978228e-16 -0.4099465205971173 -0.9121095604422323
12624068000.0 -0.4213042646065937 -0.9069193550829657 9.884659683177273e-17 1.1150650648908722e-16 9.884659683177273e-17 1.1150650648908722e-16 -0.42130362699216023 -0.9069196512828772
12624685333.333334 -0.43259567797018755 -0.9015880319754239 1.0022139561606763e-16 1.102331156658386e-16 1.0022139561606763e-16 1.102331156658386e-16 -0.4325950441349545 -0.9015883360989546
12625302666.666666 -0.44381964143619473 -0.8961161341451523 1.0157980785768011e-16 1.0894279057266443e-16 1.0157980785768011e-16 1.0894279057266443e-16 -0.4438190114786144 -0.8961164461441105
12625920000.0 -0.4549744049754113 -0.8905045147651274 1.0292162517179185e-16 1.0763574185813267e-16 1.0292162517179185e-16 1.0763574185813267e-16 -0.4549737789933225 -0.8905048345900994
12626537333.333334 -0.46605822934806673 -0.8847540487936465 1.0424664187873009e-16 1.0631218273248264e-16 1.0424664187873009e-16 1.0631218273248264e-16 -0.466057607438678 -0.884754376394002
12627154666.666666 -0.47706938637500684 -0.8788656328379101 1.0555465503544317e-16 1.0497232893290182e-16 1.0555465503544317e-16 1.0497232893290182e-16 -0.47706876863488334 -0.8788659681618134
12627772000.0 -0.4880061592076524 -0.8728401850139579 1.0684546446652893e-16 1.036163986884144e-16 1.0684546446652893e-16 1.036163986884144e-16 -0.48800554573269933 -0.8728405280083732
12628389333.333334 -0.4988668425949383 -0.866678644803922 1.0811887279475035e-16 1.0224461268445827e-16 1.0811887279475035e-16 1.0224461268445827e-16 -0.49886623348038617 -0.8666789954146221
12629006666.666666 -0.5096497431498906 -0.8603819729091579 1.0937468547120732e-16 1.008571940269706e-16 1.0937468547120732e-16 1.008571940269706e-16 -0.5096491384902816 -0.860382331080735
12629624000.0 -0.5203531796133111 -0.8539511511006486 1.106127108049332e-16 9.94543682062277e-17 1.106127108049332e-16 9.94543682062277e-17 -0.5203525795024824 -0.8539515167765196
12630241333.333334 -0.5309754831159147 -0.8473871820659236 1.118327599920922e-16 9.803636306025473e-17 1.118327599920922e-16 9.803636306025473e-17 -0.5309748876469861 -0.8473875551883422
12630858666.666666 -0.5415149974384486 -0.8406910892527898 1.1303464714469854e-16 9.660340873789193e-17 1.1303464714469854e-16 9.660340873789193e-17 -0.541514406703807 -0.8406914697628549
12631476000.0 -0.5519700792703577 -0.8338639167094831 1.142181893188991e-16 9.515573766146258e-17 1.142181893188991e-16 9.515573766146258e-17 -0.551969493361643 -0.8338643045471469
12632093333.333334 -0.5623390984655755 -0.82690672892215 1.153832065426781e-16 9.369358448922062e-17 1.153832065426781e-16 9.369358448922062e-17 -0.5623385174736651 -0.8269071240262268
12632710666.666666 -0.5726204382966973 -0.8198206106488801 1.1652952184318391e-16 9.221718607733616e-17 1.1652952184318391e-16 9.221718607733616e-17 -0.572619862311695 -0.8198210129570606
12633328000.0 -0.5828124957074861 -0.8126066667502904 1.1765696127353843e-16 9.072678144158713e-17 1.1765696127353843e-16 9.072678144158713e-17 -0.5828119248187045 -0.8126070761991446
12633945333.333334 -0.592913681562343 -0.8052660220175655 1.1876535393913596e-16 8.922261171875046e-17 1.1876535393913596e-16 8.922261171875046e-17 -0.5929131158582928 -0.8052664385425589
12634562666.666666 -0.6029224208942784 -0.7977998209969644 1.198545320234767e-16 8.770492012764095e-17 1.198545320234767e-16 8.770492012764095e-17 -0.6029218604626525 -0.7978002445324643
12635180000.0 -0.6128371531506118 -0.7902092278112545 1.209243308134723e-16 8.61739519298758e-17 1.209243308134723e-16 8.61739519298758e-17 -0.6128365980782727 -0.7902096582905419
12635797333.333334 -0.6226563324360632 -0.7824954259783731 1.2197458872430636e-16 8.462995439025757e-17 1.2197458872430636e-16 8.462995439025757e-17 -0.6226557828090299 -0.7824958633336535
12636414666.666666 -0.6323784277537923 -0.7746596182269004 1.2300514732371657e-16 8.307317673695811e-17 1.2300514732371657e-16 8.307317673695811e-17 -0.6323778836572254 -0.7746600623893128
12637032000.0 -0.6420019232442875 -0.7667030263083888 1.2401585135584687e-16 8.150387012129741e-17 1.2401585135584687e-16 8.150387012129741e-17 -0.6420013847624779 -0.7667034772080185
12637649333.333334 -0.6515253184217142 -0.7586268908068645 1.2500654876451136e-16 7.992228757734556e-17 1.2500654876451136e-16 7.992228757734556e-17 -0.6515247856380686 -0.758627348372753
12638266666.666666 -0.6609471284076496 -0.7504324709455785 1.2597709071601489e-16 7.832868398113803e-17 1.2597709071601489e-16 7.832868398113803e-17 -0.6609466014046793 -0.7504329351057356
12638884000.0 -0.6702658841627829 -0.7421210443905284 1.2692733162140766e-16 7.672331600968555e-17 1.2692733162140766e-16 7.672331600968555e-17 -0.6702653630220884 -0.7421215150719412
12639501333.333334 -0.6794801327159159 -0.7336939070512759 1.2785712915822378e-16 7.510644209970888e-17 1.2785712915822378e-16 7.510644209970888e-17 -0.6794796175181769 -0.7336943841799236
12640118666.666666 -0.6885884373904739 -0.7251523728789346 1.2876634429170591e-16 7.347832240609826e-17 1.2876634429170591e-16 7.347832240609826e-17 -0.6885879282154355 -0.7251528563797981
12640736000.0 -0.6975893780287143 -0.7164977736611025 1.2965484129554822e-16 7.183921876002755e-17 1.2965484129554822e-16 7.183921876002755e-17 -0.6975888749551737 -0.7164982634581754
12641353333.333334 -0.706481551212743 -0.7077314588146008 1.3052248777196541e-16 7.01893946270778e-17 1.3052248777196541e-16 7.01893946270778e-17 -0.7064810543185391 -0.7077319548309029
12641970666.666666 -0.7152635704837466 -0.6988547951746826 1.3136915467141316e-16 6.852911506478795e-17 1.3136915467141316e-16 6.852911506478795e-17 -0.7152630798457486 -0.6988552973322735
12642588000.0 -0.723934066557925 -0.6898691667821593 1.32194716311624e-16 6.68586466802356e-17 1.32194716311624e-16 6.68586466802356e-17 -0.7239335822520174 -0.6898696750021464
12643205333.333334 -0.7324916875401462 -0.6807759746674341 1.3299905039619234e-16 6.517825758722663e-17 1.3299905039619234e-16 6.517825758722663e-17 -0.7324912096412192 -0.6807764888699878
12643822666.666666 -0.7409350991346496 -0.671576636632137 1.3378203803256868e-16 6.348821736335222e-17 1.3378203803256868e-16 6.348821736335222e-17 -0.7409346277165881 -0.6715771567365035
12644440000.0 -0.7492629848530533 -0.6622725870281049 1.3454356374953367e-16 6.178879700678728e-17 1.3454356374953367e-16 6.178879700678728e-17 -0.7492625199887243 -0.6622731129526184
12645057333.333334 -0.7574740462195844 -0.6528652765337856 1.3528351551410535e-16 6.008026889291846e-17 1.3528351551410535e-16 6.008026889291846e-17 -0.7574735879808259 -0.6528658081958801
12645674666.666666 -0.7655670029736868 -0.6433561719278774 1.3600178474791076e-16 5.836290673074121e-17 1.3600178474791076e-16 5.836290673074121e-17 -0.7655665514312963 -0.6433567092441005
12646292000.0 -0.7735405932696688 -0.6337467558605836 1.366982663430246e-16 5.66369855190164e-17 1.366982663430246e-16 5.66369855190164e-17 -0.7735401484933933 -0.6337472987466095
12646909333.333334 -0.7813935738731225 -0.6240385266228312 1.3737285867719036e-16 5.4902781502387185e-17 1.3737285867719036e-16 5.4902781502387185e-17 -0.7813931359316475 -0.6240390749934747
12647526666.666666 -0.789124720355098 -0.6142329979122702 1.3802546362854466e-16 5.3160572127177045e-17 1.3802546362854466e-16 5.3160572127177045e-17 -0.7891242893160357 -0.6142335516814975
12648144000.0 -0.79673282728297 -0.6043316985972939 1.3865598658977958e-16 5.1410635997014067e-17 1.3865598658977958e-16 5.1410635997014067e-17 -0.7967324032128515 -0.6043322576782403
12648761333.333334 -0.8042167084082185 -0.5943361724788895 1.3926433648169e-16 4.9653252828430944e-17 1.3926433648169e-16 4.9653252828430944e-17 -0.8042162913724806 -0.594336736783869
12649378666.666666 -0.8115751968515236 -0.5842479780497467 1.398504257662168e-16 4.788870340615778e-17 1.398504257662168e-16 4.788870340615778e-17 -0.8115747869145007 -0.5842485474902683
12649996000.0 -0.8188071452846698 -0.5740686882513057 1.4041417045890397e-16 4.611726953830971e-17 1.4041417045890397e-16 4.611726953830971e-17 -0.8188067425095835 -0.574069262738086
12650613333.333334 -0.8259114261094411 -0.5637998902285075 1.4095549014078322e-16 4.4339234011454505e-17 1.4095549014078322e-16 4.4339234011454505e-17 -0.8259110305583884 -0.5638004696714843
12651230666.666666 -0.8328869316333932 -0.5534431850823692 1.4147430796968734e-16 4.2554880545551235e-17 1.4147430796968734e-16 4.2554880545551235e-17 -0.8328865433673417 -0.5534437693907183
12651848000.0 -0.8397325742427024 -0.5430001876201612 1.4197055069101715e-16 4.0764493748686855e-17 1.4197055069101715e-16 4.0764493748686855e-17 -0.8397321933214761 -0.5430007767023068
12652465333.333334 -0.8464472865715768 -0.5324725261038561 1.424441486479139e-16 3.8968359071762116e-17 1.424441486479139e-16 3.8968359071762116e-17 -0.8464469130538482 -0.5324731198674879
12653082666.666666 -0.8530300216686569 -0.5218618419963065 1.4289503579086054e-16 3.716676276306235e-17 1.4289503579086054e-16 3.716676276306235e-17 -0.8530296556119401 -0.5218624403483932
12653700000.0 -0.8594797531605265 -0.5111697897048754 1.4332314968673022e-16 3.5359991822638635e-17 1.4332314968673022e-16 3.5359991822638635e-17 -0.8594793946211664 -0.51117039255168
12654317333.333334 -0.8657954754114427 -0.500398036323965 1.4372843152722895e-16 3.3548333956710143e-17 1.4372843152722895e-16 3.3548333956710143e-17 -0.865795124444606 -0.5003986435710579
12654934666.666666 -0.8719762036802543 -0.48954826137489127 1.4411082613679127e-16 3.1732077531850125e-17 1.4411082613679127e-16 3.1732077531850125e-17 -0.8719758603399217 -0.48954887292716653
12655552000.0 -0.8780209742740501 -0.47862215654381646 1.444702819798788e-16 2.9911511529167016e-17 1.444702819798788e-16 2.9911511529167016e-17 -0.8780206386130093 -0.4786227723055065
12656169333.333334 -0.8839288446981438 -0.4676214254184796 1.448067511677032e-16 2.8086925498406785e-17 1.448067511677032e-16 2.8086925498406785e-17 -0.8839285167679791 -0.46762204529316964
12656786666.666666 -0.8896988938032988 -0.4565477832220775 1.4512018946438319e-16 2.625860951190894e-17 1.4512018946438319e-16 2.625860951190894e-17 -0.8896985736543833 -0.45654840711272027
12657404000.0 -0.895330221929191 -0.44540295654612727 1.45410556292506e-16 2.4426854118580297e-17 1.45410556292506e-16 2.4426854118580297e-17 -0.8953299096106815 -0.4454035843550598
12658021333.333334 -0.9008219510448396 -0.43418868308095626 1.4567781473811833e-16 2.2591950297762005e-17 1.4567781473811833e-16 2.2591950297762005e-17 -0.9008216466046659 -0.4341893147099135
12658638666.666666 -0.9061732248852271 -0.42290671134532043 1.4592193155512697e-16 2.075418941309598e-17 1.4592193155512697e-16 2.075418941309598e-17 -0.9061729283700872 -0.42290734669545216
12659256000.0 -0.9113832090851607 -0.4115588004130647 1.4614287716913186e-16 1.891386316626594e-17 1.4614287716913186e-16 1.891386316626594e-17 -0.9113829205405117 -0.41155943938494954
12659873333.333334 -0.9164510913090917 -0.4001467196394114 1.463406256806656e-16 1.7071263550777548e-17 1.463406256806656e-16 1.7071263550777548e-17 -0.9164508107791437 -0.40014736213307306
12660490666.666666 -0.9213760813778751 -0.38867224838488035 1.46515154867851e-16 1.5226682805710468e-17 1.46515154867851e-16 1.5226682805710468e-17 -0.9213758089055842 -0.38867289429980345
12661108000.0 -0.9261574113920596 -0.3771371757376428 1.466664461884872e-16 1.3380413369366625e-17 1.466664461884872e-16 1.3380413369366625e-17 -0.9261571470191224 -0.37713782497278836
12661725333.333334 -0.9307943358513971 -0.36554330023509174 1.4679448478153875e-16 1.1532747833029764e-17 1.4679448478153875e-16 1.1532747833029764e-17 -0.930794079618243 -0.36554395268891293
12662342666.666666 -0.9352861317713013 -0.3538924295828919 1.468992594680549e-16 9.683978894593919e-18 1.468992594680549e-16 9.683978894593919e-18 -0.935285883717086 -0.3538930851533499
12662960000.0 -0.9396320987954437 -0.34218638037343996 1.469807627514985e-16 7.834399312276496e-18 1.469807627514985e-16 7.834399312276496e-18 -0.9396318589580438 -0.3421870389580197
12663577333.333334 -0.9438315593050527 -0.33042697780235586 1.470389908174944e-16 5.984301858339917e-18 1.470389908174944e-16 5.984301858339917e-18 -0.9438313277210617 -0.33042763929808333
12664194666.666666 -0.9478838585244524 -0.3186160553842225 1.4707394353299967e-16 4.1339792727497226e-18 1.4707394353299967e-16 4.1339792727497226e-18 -0.9478836352291717 -0.3186167196876787
12664812000.0 -0.9517883646232295 -0.3067554546664904 1.4708562444488725e-16 2.2837242169519028e-18 1.4708562444488725e-16 2.2837242169519028e-18 -0.9517881496506652 -0.30675612167382915
12665429333.333334 -0.9555444688147291 -0.29484702494239995 1.4707404077795114e-16 4.33829227630537e-19 1.4707404077795114e-16 4.33829227630537e-19 -0.955544262197587 -0.29484769454936377
12666046666.666666 -0.959151585450961 -0.28289262296269563 1.4703920343233145e-16 -1.41541332948009e-18 1.4703920343233145e-16 -1.41541332948009e-18 -0.9591513872206419 -0.282893295064632
12666664000.0 -0.9626091521139944 -0.2708941126458507 1.4698112698035717e-16 -3.2637113058094143e-18 1.4698112698035717e-16 -3.2637113058094143e-18 -0.9626089623005863 -0.2708947871377281
12667281333.333334 -0.9659166297034856 -0.2588533647879922 1.468998296628127e-16 -5.110772815940848e-18 1.468998296628127e-16 -5.110772815940848e-18 -0.9659164483357625 -0.25885404156441655
12667898666.666666 -0.9690735025208841 -0.24677225677071776 1.467953333846235e-16 -6.956306283743065e-18 1.467953333846235e-16 -6.956306283743065e-18 -0.9690733296262999 -0.24677293572594916
12668516000.0 -0.9720792783498129 -0.23465267226842848 1.4666766370996447e-16 -8.800020488309055e-18 1.4666766370996447e-16 -8.800020488309055e-18 -0.9720791139544983 -0.23465335329639786
12669133333.333334 -0.9749334885327466 -0.2224965009549042 1.465168498567957e-16 -1.0641624609829617e-17 1.465168498567957e-16 -1.0641624609829617e-17 -0.974933332661505 -0.2224971839492296
12669750666.666666 -0.9776356880441427 -0.21030563820844755 1.4634292469081518e-16 -1.2480828275468856e-17 1.4634292469081518e-16 -1.2480828275468856e-17 -0.9776355407204458 -0.2103063230624508
12670368000.0 -0.9801854555598125 -0.19808198481641287 1.4614592471884607e-16 -1.4317341605034528e-17 1.4614592471884607e-16 -1.4317341605034528e-17 -0.980185316805797 -0.1980826714231363
