! Parameters = {f0=12700.012000; bw=77.238000; Q=6100.000000; N=10; m_0_1=1.304399; m_1_1=0.801245; m_1_2=1.139211; m_2_2=0.800596; m_2_3=0.776174; m_2_8=0.002284; m_2_9=0.038988; m_3_3=0.798659; m_3_4=0.664703; m_3_7=0.002884; m_3_8=-0.094204; m_3_9=0.002284; m_4_4=0.795734; m_4_5=0.501038; m_4_6=0.006401; m_4_7=-0.114753; m_4_8=0.002884; m_5_5=0.796116; m_5_6=0.908393; m_5_7=0.006401; m_6_6=0.796115; m_6_7=0.501380; m_7_7=0.795748; m_7_8=0.664821; m_8_8=0.798657; m_8_9=0.776487; m_9_9=0.800591; m_9_10=1.140289; m_10_10=0.801235; m_10_11=1.305194}
!
! Created with skrf (http://scikit-rf.org).
# Hz S RI R 50.0 
!freq ReS11 ImS11 ReS21 ImS21 ReS12 ImS12 ReS22 ImS22
12607400000.0 0.393499900364146 -0.9193246588736871 -1.5069624597902633e-17 1.2884931416807492e-16 -1.5069624597902633e-17 1.2884931416807492e-16 0.3935005320971102 -0.9193243884718302
12608017333.333334 0.3828650353561087 -0.9238042891768689 -1.3567648768576126e-17 1.289905737936065e-16 -1.3567648768576126e-17 1.289905737936065e-16 0.38286567013626804 -0.9238040260958597
12608634666.666666 0.3721791851934481 -0.9281608988254972 -1.2064426403145625e-17 1.291143354276704e-16 -1.2064426403145625e-17 1.291143354276704e-16 0.37217982293597635 -0.9281606430996514
12609252000.0 0.3614437728834712 -0.9323939076611213 -1.0560161233321563e-17 1.2922058918908486e-16 -1.0560161233321563e-17 1.2922058918908486e-16 0.36144441350315576 -0.9323936593237714
12609869333.333334 0.35066022803362623 -0.9365027519848618 -9.055057052019109e-18 1.293093275673572e-16 -9.055057052019109e-18 1.293093275673572e-16 0.3506608714448802 -0.9365025110683532
12610486666.666666 0.3398299866610479 -0.9404868846325113 -7.54931768577721e-18 1.293805454227727e-16 -7.54931768577721e-18 1.293805454227727e-16 0.3398306327779204 -0.940486651168198
12611104000.0 0.3289544910012451 -0.9443457750474274 -6.043146967183677e-18 1.2943423998616017e-16 -6.043146967183677e-18 1.2943423998616017e-16 0.3289551397374339 -0.9443455490656683
12611721333.333334 0.3180351893162027 -0.9480789093511263 -4.536748707343554e-18 1.294704108583384e-16 -4.536748707343554e-18 1.294704108583384e-16 0.3180358405850654 -0.9480786908812816
12612338666.666666 0.3070735357014681 -0.9516857904117374 -3.0303266683315894e-18 1.2948906000924183e-16 -3.0303266683315894e-18 1.2948906000924183e-16 0.307074189416033 -0.9516855794821629
12612956000.0 0.2960709898922953 -0.9551659379102725 -1.5240845356401149e-18 1.2949019177672753e-16 -1.5240845356401149e-18 1.2949019177672753e-16 0.29607164596527363 -0.9551657345483174
12613573333.333334 0.2850290170697161 -0.9585188884044409 -1.8225890740042442e-20 1.29473812865061e-16 -1.8225890740042442e-20 1.29473812865061e-16 0.28502967541351404 -0.9585186926364453
12614190666.666666 0.27394908766493853 -0.9617441953905213 1.4870458164584712e-18 1.2943993234308435e-16 1.4870458164584712e-18 1.2943993234308435e-16 0.2739497481916681 -0.9617440072418103
12614808000.0 0.26283267716388575 -0.9648414293627113 2.991527295024788e-18 1.293885616420644e-16 2.991527295024788e-18 1.293885616420644e-16 0.2628333397853766 -0.9648412488575921
12615425333.333334 0.25168126591046347 -0.9678101778703928 4.4950154404164265e-18 1.2931971455322325e-16 4.4950154404164265e-18 1.2931971455322325e-16 0.25168193053827576 -0.9678100050321553
12616042666.666666 0.2404963389096466 -0.9706500455730015 5.997307361884872e-18 1.2923340722494995e-16 5.997307361884872e-18 1.2923340722494995e-16 0.24049700545508157 -0.9706498804239108
12616660000.0 0.22927938562950473 -0.9733606542927296 7.498200409786634e-18 1.291296581596961e-16 7.498200409786634e-18 1.291296581596961e-16 0.2292800540036168 -0.9733604968540244
12617277333.333334 0.21803189980304552 -0.9759416430648347 8.997492202913458e-18 1.2900848821055214e-16 8.997492202913458e-18 1.2900848821055214e-16 0.21803256991665437 -0.9759414933567246
12617894666.666666 0.20675537922921622 -0.9783926681857331 1.0494980655694876e-17 1.288699205775118e-16 1.0494980655694876e-17 1.288699205775118e-16 0.2067560509929187 -0.978392526227397
12618512000.0 0.195451325573362 -0.9807134032587853 1.1990464005467401e-17 1.2871398080341238e-16 1.1990464005467401e-17 1.2871398080341238e-16 0.19545199889754428 -0.9807132690683699
12619129333.333334 0.1841212441674203 -0.9829035392377306 1.3483740839539332e-17 1.2854069676957287e-16 1.3483740839539332e-17 1.2854069676957287e-16 0.18412191896226876 -0.9829034128323423
12619746666.666666 0.17276664380940265 -0.9849627844678449 1.4974610122343937e-17 1.2835009869110336e-16 1.4974610122343937e-17 1.2835009869110336e-16 0.1727673199849175 -0.9849626658635564
12620364000.0 0.16138903656224993 -0.9868908647248305 1.646287122243606e-17 1.2814221911191108e-16 1.646287122243606e-17 1.2814221911191108e-16 0.16138971402825592 -0.9868907539366717
12620981333.333334 0.14998993755294956 -0.988687523251243 1.7948323939449135e-17 1.2791709289939118e-16 1.7948323939449135e-17 1.2791709289939118e-16 0.1499906162191084 -0.988687420293202
12621598666.666666 0.13857086477026576 -0.9903525207907717 1.943076853099434e-17 1.276747572388038e-16 1.943076853099434e-17 1.276747572388038e-16 0.13857154454608822 -0.9903524256757925
12622216000.0 0.1271333388629577 -0.99188563562004 2.09100057394908e-17 1.2741525162733904e-16 2.09100057394908e-17 1.2741525162733904e-16 0.1271340196578158 -0.9918855483600216
12622833333.333334 0.11567888293699746 -0.9932866635781752 2.2385836818887306e-17 1.271386178678775e-16 2.2385836818887306e-17 1.271386178678775e-16 0.1156795646601361 -0.9932865841839683
12623450666.666666 0.10420902235307983 -0.9945554180939489 2.3858063561340637e-17 1.2684490006243599e-16 2.3858063561340637e-17 1.2684490006243599e-16 0.10420970491362945 -0.9945553465753573
12624068000.0 0.09272528452312759 -0.9956917302106714 2.532648832378535e-17 1.2653414460530863e-16 2.532648832378535e-17 1.2653414460530863e-16 0.09272596783011579 -0.995691666576447
12624685333.333334 0.0812291987070869 -0.9966954486086608 2.6790914054459996e-17 1.262064001758926e-16 2.6790914054459996e-17 1.262064001758926e-16 0.08122988266945098 -0.9966953928665073
12625302666.666666 0.06972229580933705 -0.9975664396253966 2.825114431924628e-17 1.2586171773122871e-16 2.825114431924628e-17 1.2586171773122871e-16 0.06972298033593587 -0.9975663917819654
12625920000.0 0.05820610817462515 -0.9983045872733329 2.970698332806118e-17 1.2550015049820433e-16 2.970698332806118e-17 1.2550015049820433e-16 0.0582067931742513 -0.9983045473342215
12626537333.333334 0.04668216938417776 -0.9989097932553276 3.1158235960990873e-17 1.2512175396548942e-16 3.1158235960990873e-17 1.2512175396548942e-16 0.04668285476556985 -0.9989097612250822
12627154666.666666 0.03515201405153503 -0.9993819769777395 3.2604707794448926e-17 1.2472658587514114e-16 3.2604707794448926e-17 1.2472658587514114e-16 0.03515269972338969 -0.999381952859852
12627772000.0 0.023617177617792227 -0.9997210755611704 3.4046205127194076e-17 1.243147062139144e-16 3.4046205127194076e-17 1.243147062139144e-16 0.023617863488776366 -0.9997210593580792
12628389333.333334 0.012079196147753928 -0.9999270438488191 3.548253500616971e-17 1.2388617720429214e-16 3.548253500616971e-17 1.2388617720429214e-16 0.012079882126516847 -0.9999270355619072
12629006666.666666 0.0005396061247268411 -0.9999998544125112 3.6913505252369906e-17 1.2344106329517938e-16 3.6913505252369906e-17 1.2344106329517938e-16 0.0005402921199124398 -0.9999998540421092
12629624000.0 -0.01100005575354991 -0.9999394975563438 3.8338924486446195e-17 1.2297943115234058e-16 3.8338924486446195e-17 1.2297943115234058e-16 -0.010999369833290994 -0.9999395051017262
12630241333.333334 -0.02253825277994071 -0.9997459813179754 3.9758602154312126e-17 1.2250134964850682e-16 3.9758602154312126e-17 1.2250134964850682e-16 -0.022537567025938936 -0.9997459967773642
12630858666.666666 -0.03407344844215501 -0.999419331467565 4.117234855252857e-17 1.2200688985322e-16 4.117234855252857e-17 1.2200688985322e-16 -0.03407276294570977 -0.9994193548381278
12631476000.0 -0.04560410662790051 -0.9989595915043241 4.2579974853678694e-17 1.2149612502234491e-16 4.2579974853678694e-17 1.2149612502234491e-16 -0.04560342148026796 -0.9989596227821761
12632093333.333334 -0.057128691828875144 -0.9983668226507412 4.3981293131479583e-17 1.2096913058733707e-16 4.3981293131479583e-17 1.2096913058733707e-16 -0.05712800712125611 -0.9983668618309446
12632710666.666666 -0.06864566934550263 -0.997641103844425 4.537611638586272e-17 1.20425984144186e-16 4.537611638586272e-17 1.20425984144186e-16 -0.06864498516903042 -0.9976411509209904
12633328000.0 -0.08015350549150288 -0.9967825317275769 4.676425856791195e-17 1.1986676544207115e-16 4.676425856791195e-17 1.1986676544207115e-16 -0.08015282193723118 -0.996782586693464
12633945333.333334 -0.09165066779781703 -0.9957912206341394 4.8145534604601806e-17 1.1929155637175509e-16 4.8145534604601806e-17 1.1929155637175509e-16 -0.09164998495670773 -0.9957912834812576
12634562666.666666 -0.10313562521673919 -0.9946673025745688 4.9519760423438866e-17 1.187004409536754e-16 4.9519760423438866e-17 1.187004409536754e-16 -0.10313494317965032 -0.9946673732937785
12635180000.0 -0.11460684832597191 -0.9934109272182393 5.088675297696812e-17 1.1809350532574855e-16 5.088675297696812e-17 1.1809350532574855e-16 -0.11460616718364577 -0.9934110057993562
12635797333.333334 -0.1260628095321262 -0.9920222618735337 5.2246330267107686e-17 1.174708377309021e-16 5.2246330267107686e-17 1.174708377309021e-16 -0.12606212937517677 -0.9920223483053243
12636414666.666666 -0.13750198327411833 -0.9905014914655601 5.35983113693187e-17 1.168325285043333e-16 5.35983113693187e-17 1.168325285043333e-16 -0.13750130419301976 -0.9905015857357489
12637032000.0 -0.14892284622657942 -0.9888488185114996 5.4942516456667736e-17 1.161786700604697e-16 5.4942516456667736e-17 1.161786700604697e-16 -0.1489221683116537 -0.9888489206067678
12637649333.333334 -0.16032387750240248 -0.9870644630936776 5.627876682370125e-17 1.1550935687966638e-16 5.627876682370125e-17 1.1550935687966638e-16 -0.16032320084380738 -0.9870645729996649
12638266666.666666 -0.17170355885552793 -0.9851486628302148 5.760688491014249e-17 1.1482468549463766e-16 5.760688491014249e-17 1.1482468549463766e-16 -0.1717028835432454 -0.9851487805315243
12638884000.0 -0.18306037488290083 -0.9831016728434278 5.892669432446772e-17 1.1412475447659616e-16 5.892669432446772e-17 1.1412475447659616e-16 -0.1830597010067244 -0.9831017983236234
12639501333.333334 -0.19439281322652424 -0.980923765725804 6.023801986728502e-17 1.1340966442113558e-16 6.023801986728502e-17 1.1340966442113558e-16 -0.19439214087604767 -0.9809238989674178
12640118666.666666 -0.20569936477446576 -0.9786152315037798 6.154068755452112e-17 1.1267951793385876e-16 6.154068755452112e-17 1.1267951793385876e-16 -0.2056986940390708 -0.9786153724883104
12640736000.0 -0.21697852386249084 -0.9761763775989822 6.283452464053697e-17 1.119344196156827e-16 6.283452464053697e-17 1.119344196156827e-16 -0.21697785483133553 -0.9761765263069002
12641353333.333334 -0.22822878847367709 -0.9736075287874745 6.411935964089163e-17 1.111744760479778e-16 6.411935964089163e-17 1.111744760479778e-16 -0.22822812123568395 -0.9736076851982242
12641970666.666666 -0.2394486604392413 -0.9709090271563386 6.539502235512112e-17 1.1039979577733613e-16 6.539502235512112e-17 1.1039979577733613e-16 -0.2394479950830852 -0.9709091912483397
12642588000.0 -0.2506366456375463 -0.968081232058227 6.666134388918486e-17 1.0961048930016403e-16 6.666134388918486e-17 1.0961048930016403e-16 -0.25063598225164285 -0.9680814038088783
12643205333.333334 -0.2617912541932908 -0.9651245200634574 6.791815667781327e-17 1.0880666904696898e-16 6.791815667781327e-17 1.0880666904696898e-16 -0.2617905928657849 -0.9651246994491414
12643822666.666666 -0.27291100067593993 -0.9620392849098587 6.91652945066252e-17 1.0798844936641436e-16 6.91652945066252e-17 1.0798844936641436e-16 -0.27291034149469334 -0.962039471905942
12644440000.0 -0.28399440429734296 -0.9588259374503864 7.040259253407653e-17 1.0715594650910882e-16 7.040259253407653e-17 1.0715594650910882e-16 -0.2839937473499236 -0.9588261320312259
12645057333.333334 -0.2950399891090101 -0.9554849055983935 7.162988731318396e-17 1.0630927861116405e-16 7.162988731318396e-17 1.0630927861116405e-16 -0.2950393344826794 -0.9554851077373379
12645674666.666666 -0.30604628419874186 -0.9520166342706202 7.284701681309748e-17 1.0544856567747449e-16 7.284701681309748e-17 1.0544856567747449e-16 -0.3060456319804437 -0.952016843940014
12646292000.0 -0.3170118238865056 -0.9484215853279421 7.40538204404452e-17 1.0457392956476849e-16 7.40538204404452e-17 1.0457392956476849e-16 -0.31701117416285546 -0.9484218024991319
12646909333.333334 -0.3279351479194824 -0.9447002375139123 7.525013906046458e-17 1.0368549396442503e-16 7.525013906046458e-17 1.0368549396442503e-16 -0.3279345007767544 -0.944700462157247
12647526666.666666 -0.3388148016665787 -0.9408530863909902 7.643581501794853e-17 1.0278338438503416e-16 7.643581501794853e-17 1.0278338438503416e-16 -0.338814157190695 -0.940853318475826
12648144000.0 -0.3496493363123234 -0.9368806442744814 7.761069215799519e-17 1.0186772813470995e-16 7.761069215799519e-17 1.0186772813470995e-16 -0.3496486945888426 -0.9368808837691871
12648761333.333334 -0.3604373090494812 -0.9327834401644274 7.877461584650852e-17 1.0093865430319492e-16 7.877461584650852e-17 1.0093865430319492e-16 -0.36043667016358727 -0.9327836870363891
12649378666.666666 -0.3711772832714022 -0.9285620196750866 7.992743299050091e-17 9.999629374372102e-17 7.992743299050091e-17 9.999629374372102e-17 -0.371176647307893 -0.9285622738907106
12649996000.0 -0.3818678287632518 -0.9242169449623042 8.106899205820455e-17 9.904077905461822e-17 8.106899205820455e-17 9.904077905461822e-17 -0.38186719580652734 -0.9242172064870218
12650613333.333334 -0.39250752189259824 -0.9197487946485964 8.219914309894403e-17 9.80722445607102e-17 8.219914309894403e-17 9.80722445607102e-17 -0.3925068920266505 -0.91974906344687
12651230666.666666 -0.40309494579868155 -0.9151581637462304 8.331773776275694e-17 9.709082629450986e-17 8.331773776275694e-17 9.709082629450986e-17 -0.40309431910708243 -0.9151584397815566
12651848000.0 -0.4136286905815632 -0.9104456635777868 8.442462931986839e-17 9.609666197712572e-17 8.442462931986839e-17 9.609666197712572e-17 -0.41362806714745337 -0.9104459468127016
12652465333.333334 -0.42410735348943396 -0.9056119216949409 8.551967267985836e-17 9.508989099901572e-17 8.551967267985836e-17 9.508989099901572e-17 -0.424106733395513 -0.9056122120910266
12653082666.666666 -0.4345295391056258 -0.9006575817948065 8.66027244106259e-17 9.407065440050269e-17 8.66027244106259e-17 9.407065440050269e-17 -0.4345289224341399 -0.9006578793126945
12653700000.0 -0.4448938595344846 -0.8955833036341877 8.767364275717455e-17 9.303909485202423e-17 8.767364275717455e-17 9.303909485202423e-17 -0.4448932463672169 -0.8955836082335665
12654317333.333334 -0.4551989345860405 -0.8903897629417968 8.873228766006015e-17 9.199535663426713e-17 8.873228766006015e-17 9.199535663426713e-17 -0.4551983250042987 -0.8903900745814141
12654934666.666666 -0.46544339195985474 -0.8850776513282436 8.977852077370829e-17 9.0939585617992e-17 8.977852077370829e-17 9.0939585617992e-17 -0.46544278604446165 -0.8850779699659148
12655552000.0 -0.47562586742796764 -0.8796476761938313 9.081220548442407e-17 8.987192924371576e-17 9.081220548442407e-17 8.987192924371576e-17 -0.47562526525925003 -0.8796480017864435
12656169333.333334 -0.48574500501614143 -0.8741005606345782 9.183320692817987e-17 8.879253650117288e-17 9.183320692817987e-17 8.879253650117288e-17 -0.48574440667391877 -0.8741008931380964
12656786666.666666 -0.49579945718488233 -0.8684370433456825 9.2841392008167e-17 8.770155790856743e-17 9.2841392008167e-17 8.770155790856743e-17 -0.4957988627484576 -0.8684373827151565
12657404000.0 -0.5057878850085663 -0.8626578785233322 9.383662941210411e-17 8.659914549162361e-17 9.383662941210411e-17 8.659914549162361e-17 -0.5057872945567141 -0.8626582247129014
12658021333.333334 -0.5157089583539859 -0.8567638357641277 9.481878962927502e-17 8.548545276246444e-17 9.481878962927502e-17 8.548545276246444e-17 -0.515708371964943 -0.8567641887270285
12658638666.666666 -0.5255613560571637 -0.8507556999627859 9.578774496733949e-17 8.436063469827471e-17 9.578774496733949e-17 8.436063469827471e-17 -0.5255607738086179 -0.8507560596513566
12659256000.0 -0.5353437660997266 -0.844634271207354 9.674336956888804e-17 8.322484771977564e-17 9.674336956888804e-17 8.322484771977564e-17 -0.5353431880688059 -0.8446346375730409
12659873333.333334 -0.5450548857832078 -0.8384003646729111 9.768553942773564e-17 8.207824966952175e-17 9.768553942773564e-17 8.207824966952175e-17 -0.5450543120464734 -0.8384007376662791
12660490666.666666 -0.5546934219027244 -0.8320548105129022 9.861413240494302e-17 8.09209997900336e-17 9.861413240494302e-17 8.09209997900336e-17 -0.5546928525361563 -0.8320551900836366
12661108000.0 -0.564258090919232 -0.8255984537485518 9.952902824463882e-17 7.975325870167688e-17 9.952902824463882e-17 7.975325870167688e-17 -0.5642575259982217 -0.8255988398454673
12661725333.333334 -0.5737476191303086 -0.8190321541564276 1.0043010858948976e-16 7.85751883804765e-17 1.0043010858948976e-16 7.85751883804765e-17 -0.5737470587296478 -0.8190325467274747
12662342666.666666 -0.5831607428398431 -0.8123567861539025 1.0131725699600123e-16 7.738695213564008e-17 1.0131725699600123e-16 7.738695213564008e-17 -0.5831601870337153 -0.8123571851461755
12662960000.0 -0.5924962085263878 -0.8055732386826607 1.021903589494813e-16 7.61887145870013e-17 1.021903589494813e-16 7.61887145870013e-17 -0.592495657388356 -0.8055736440424025
12663577333.333334 -0.6017527730099224 -0.7986824150904318 1.030493018787848e-16 7.498064164223443e-17 1.030493018787848e-16 7.498064164223443e-17 -0.6017522266129216 -0.7986828267630438
12664194666.666666 -0.6109292036175908 -0.791685233010564 1.038939751707651e-16 7.376290047393582e-17 1.038939751707651e-16 7.376290047393582e-17 -0.6109286620339182 -0.7916856509406127
12664812000.0 -0.6200242783476718 -0.784582624239961 1.0472427018445538e-16 7.253565949654296e-17 1.0472427018445538e-16 7.253565949654296e-17 -0.6200237416489754 -0.784583048371184
12665429333.333334 -0.6290367860325093 -0.7773755346148384 1.0554008026500128e-16 7.129908834306272e-17 1.0554008026500128e-16 7.129908834306272e-17 -0.6290362542897806 -0.7773759648901537
12666046666.666666 -0.6379655264995144 -0.770064923885002 1.0634130075727634e-16 7.005335784170639e-17 1.0634130075727634e-16 7.005335784170639e-17 -0.6379649997830772 -0.7700653602465142
12666664000.0 -0.6468093107314054 -0.7626517655856963 1.0712782901928627e-16 6.87986399922758e-17 1.0712782901928627e-16 6.87986399922758e-17 -0.6468087891109086 -0.7626522079747068
12667281333.333334 -0.6555669610240679 -0.7551370469083643 1.0789956443521495e-16 6.753510794252491e-17 1.0789956443521495e-16 6.753510794252491e-17 -0.6555664445684736 -0.755137495265376
12667898666.666666 -0.6642373111437745 -0.7475217685688521 1.086564084282695e-16 6.626293596425346e-17 1.086564084282695e-16 6.626293596425346e-17 -0.664236799921352 -0.7475222228335807
12668516000.0 -0.6728192064823191 -0.7398069446742971 1.0939826447319392e-16 6.498229942933712e-17 1.0939826447319392e-16 6.498229942933712e-17 -0.6728187005606325 -0.739807404785676
12669133333.333334 -0.6813115042107489 -0.7319936025880975 1.1012503810851577e-16 6.369337478559797e-17 1.1012503810851577e-16 6.369337478559797e-17 -0.6813110036566516 -0.7319940684842887
12669750666.666666 -0.6897130734315994 -0.7240827827930684 1.1083663694851298e-16 6.239633953252848e-17 1.1083663694851298e-16 6.239633953252848e-17 -0.6897125783112217 -0.724083254411468
12670368000.0 -0.6980227953295693 -0.7160755387527983 1.1153297069489926e-16 6.109137219687692e-17 1.1153297069489926e-16 6.109137219687692e-17 -0.6980223057083128 -0.7160760160300482
