! Parameters = {f0=12700.012000; bw=77.238000; Q=6100.000000; N=10; m_0_1=1.316812; m_1_1=0.987431; m_1_2=1.151624; m_2_2=0.986782; m_2_3=0.788587; m_2_8=0.002904; m_2_9=0.039608; m_3_3=0.984845; m_3_4=0.677116; m_3_7=0.003504; m_3_8=-0.093584; m_3_9=0.002904; m_4_4=0.981920; m_4_5=0.513451; m_4_6=0.007021; m_4_7=-0.114133; m_4_8=0.003504; m_5_5=0.982302; m_5_6=0.920806; m_5_7=0.007021; m_6_6=0.982301; m_6_7=0.513793; m_7_7=0.981934; m_7_8=0.677234; m_8_8=0.984843; m_8_9=0.788900; m_9_9=0.986777; m_9_10=1.152702; m_10_10=0.987421; m_10_11=1.317607}
!
! Created with skrf (http://scikit-rf.org).
# Hz S RI R 50.0 
!freq ReS11 ImS11 ReS21 ImS21 ReS12 ImS12 ReS22 ImS22
12607400000.0 -0.7250965339606145 -0.6886472365718994 1.2225476706828006e-16 6.234949139649236e-17 1.2225476706828006e-16 6.234949139649236e-17 -0.7250960562552131 -0.6886477395613431
12608017333.333334 -0.7332445452445316 -0.679965026210136 1.2296978469995364e-16 6.086661145637876e-17 1.2296978469995364e-16 6.086661145637876e-17 -0.7332440735849508 -0.6799655348268452
12608634666.666666 -0.7412886038134411 -0.6711864166206946 1.2366682808011751e-16 5.937555398950461e-17 1.2366682808011751e-16 5.937555398950461e-17 -0.741288138265954 -0.6711869307920154
12609252000.0 -0.7492275692542409 -0.6623126523547562 1.24345803961988e-16 5.787653671953071e-17 1.24345803961988e-16 5.787653671953071e-17 -0.7492271098842463 -0.6623131720072537
12609869333.333334 -0.7570603160530657 -0.6533449914535523 1.250066217343532e-16 5.636977842991076e-17 1.250066217343532e-16 5.636977842991076e-17 -0.7570598629250812 -0.653345516513022
12610486666.666666 -0.7647857337546131 -0.6442847052702937 1.2564919343357613e-16 5.485549893200473e-17 1.2564919343357613e-16 5.485549893200473e-17 -0.7647852869322641 -0.6442852356617711
12611104000.0 -0.7724027271199222 -0.6351330782895169 1.2627343375522214e-16 5.33339190330312e-17 1.2627343375522214e-16 5.33339190330312e-17 -0.7724022866659356 -0.6351336139372906
12611721333.333334 -0.7799102162812458 -0.6258914079454615 1.2687926006526179e-16 5.1805260503979123e-17 1.2687926006526179e-16 5.1805260503979123e-17 -0.7799097822574382 -0.6258919487730807
12612338666.666666 -0.7873071368954516 -0.6165610044377586 1.2746659241093635e-16 5.026974604727096e-17 1.2746659241093635e-16 5.026974604727096e-17 -0.7873067093627233 -0.6165615503680474
12612956000.0 -0.7945924402948594 -0.6071431905457487 1.2803535353119602e-16 4.8727599264395e-17 1.2803535353119602e-16 4.8727599264395e-17 -0.7945920193131835 -0.6071437415008138
12613573333.333334 -0.8017650936357018 -0.597639301441217 1.2858546886675818e-16 4.717904462339549e-17 1.2858546886675818e-16 4.717904462339549e-17 -0.8017646792641169 -0.5976398573424612
12614190666.666666 -0.8088240800448467 -0.5880506844987247 1.2911686656977605e-16 4.562430742624008e-17 1.2911686656977605e-16 4.562430742624008e-17 -0.8088236723414494 -0.5880512452668576
12614808000.0 -0.8157683987637376 -0.5783786991048837 1.296294775131147e-16 4.40636137760801e-17 1.296294775131147e-16 4.40636137760801e-17 -0.8157679977856731 -0.5783792646599324
12615425333.333334 -0.8225970652904077 -0.5686247164654538 1.3012323529922617e-16 4.2497190544423036e-17 1.3012323529922617e-16 4.2497190544423036e-17 -0.8225966710938623 -0.5686252867267746
12616042666.666666 -0.8293091115190017 -0.5587901194110126 1.3059807626862734e-16 4.0925265338210964e-17 1.3059807626862734e-16 4.0925265338210964e-17 -0.8293087241591938 -0.5587906942973021
12616660000.0 -0.8359035858769764 -0.5488763022009813 1.310539395079924e-16 3.9348066466773095e-17 1.310539395079924e-16 3.9348066466773095e-17 -0.8359032054081506 -0.5488768816302885
12617277333.333334 -0.8423795534601346 -0.5388846703257708 1.3149076685783683e-16 3.776582290871968e-17 1.3149076685783683e-16 3.776582290871968e-17 -0.8423791799355539 -0.5388852542155095
12617894666.666666 -0.848736096164965 -0.5288166403078345 1.3190850291979682e-16 3.61787642787751e-17 1.3190850291979682e-16 3.61787642787751e-17 -0.8487357296369026 -0.5288172285747939
12618512000.0 -0.8549723128190932 -0.5186736395003908 1.3230709506353518e-16 3.458712079443516e-17 1.3230709506353518e-16 3.458712079443516e-17 -0.8549719533388246 -0.5186742320607473
12619129333.333334 -0.8610873193087073 -0.5084571058855943 1.3268649343320658e-16 3.299112324270085e-17 1.3268649343320658e-16 3.299112324270085e-17 -0.8610869669265048 -0.5084577026549245
12619746666.666666 -0.8670802487041587 -0.4981684878702646 1.3304665095355953e-16 3.1391002946596544e-17 1.3304665095355953e-16 3.1391002946596544e-17 -0.8670799034692819 -0.49816908876355576
12620364000.0 -0.8729502513828117 -0.4878092440806099 1.3338752333561586e-16 2.9786991731699403e-17 1.3338752333561586e-16 2.9786991731699403e-17 -0.8729499133435048 -0.4878098490122745
12620981333.333334 -0.8786964951493361 -0.47738084315573837 1.3370906908194096e-16 2.817932189264392e-17 1.3370906908194096e-16 2.817932189264392e-17 -0.8786961643528163 -0.47738145203962346
12621598666.666666 -0.8843181653539187 -0.46688476353902364 1.340112494915349e-16 2.6568226159462137e-17 1.340112494915349e-16 2.6568226159462137e-17 -0.8843178418463726 -0.46688537628842497
12622216000.0 -0.8898144650075828 -0.45632249326882973 1.342940286642941e-16 2.495393766398824e-17 1.342940286642941e-16 2.495393766398824e-17 -0.8898141488341592 -0.4563231097965034
12622833333.333334 -0.8951846148953064 -0.4456955297672978 1.345573735050868e-16 2.3336689906130984e-17 1.345573735050868e-16 2.3336689906130984e-17 -0.8951843061001108 -0.44569614998547324
12623450666.666666 -0.9004278536863435 -0.43500537962836144 1.348012537274084e-16 2.1716716720190495e-17 1.348012537274084e-16 2.1716716720190495e-17 -0.9004275523124302 -0.4350060034487531
12624068000.0 -0.9055434380423083 -0.42425355840384993 1.350256418566467e-16 2.0094252241048256e-17 1.350256418566467e-16 2.0094252241048256e-17 -0.9055431441316739 -0.4242541857376697
12624685333.333334 -0.9105306427225254 -0.4134415903886736 1.3523051323293154e-16 1.8469530870380487e-17 1.3523051323293154e-16 1.8469530870380487e-17 -0.9105303563161082 -0.41344222114664547
12625302666.666666 -0.9153887606867046 -0.40257100840506427 1.3541584601357528e-16 1.6842787242889086e-17 1.3541584601357528e-16 1.6842787242889086e-17 -0.9153884818243722 -0.40257164249743443
12625920000.0 -0.9201171031954282 -0.39164335358469243 1.3558162117512249e-16 1.5214256192381183e-17 1.3558162117512249e-16 1.5214256192381183e-17 -0.9201168319159757 -0.3916439909212434
12626537333.333334 -0.9247149999075548 -0.3806601751507261 1.35727822514976e-16 1.3584172717979727e-17 1.35727822514976e-16 1.3584172717979727e-17 -0.9247147362486985 -0.3806608156407895
12627154666.666666 -0.92918179897536 -0.3696230301979639 1.3585443665262595e-16 1.1952771950246478e-17 1.3585443665262595e-16 1.1952771950246478e-17 -0.9291815429737315 -0.3696236737504326
12627772000.0 -0.9335168671370305 -0.35853348347187086 1.3596145303047521e-16 1.0320289117260662e-17 1.3596145303047521e-16 1.0320289117260662e-17 -0.9335166188281738 -0.35853412999521334
12628389333.333334 -0.9377195898062647 -0.34739310714719324 1.3604886391424724e-16 8.686959510832062e-18 1.3604886391424724e-16 8.686959510832062e-18 -0.9377193492246287 -0.3473937565494653
12629006666.666666 -0.9417893711595768 -0.3362034806046189 1.3611666439300079e-16 7.05301845254816e-18 1.3611666439300079e-16 7.05301845254816e-18 -0.9417891383385119 -0.3362041327934773
12629624000.0 -0.945725634220616 -0.32496619020726575 1.3616485237872885e-16 5.4187012599693885e-18 1.3616485237872885e-16 5.4187012599693885e-18 -0.9457254091923695 -0.32496684508998125
12630241333.333334 -0.9495278209420945 -0.31368282907543554 1.3619342860555612e-16 3.7842432127724786e-18 1.3619342860555612e-16 3.7842432127724786e-18 -0.9495276037378055 -0.31368348655890604
12630858666.666666 -0.95319539228477 -0.30235499686113115 1.3620239662853075e-16 2.1498795189240952e-18 1.3620239662853075e-16 2.1498795189240952e-18 -0.9531951829344658 -0.3023556568518952
12631476000.0 -0.9567278282940366 -0.2909842995207602 1.3619176282201017e-16 5.15845280847008e-19 1.3619176282201017e-16 5.15845280847008e-19 -0.9567276268266278 -0.2909849619250098
12632093333.333334 -0.9601246281734542 -0.27957234908802503 1.3616153637764134e-16 -1.1176245382962735e-18 1.3616153637764134e-16 -1.1176245382962735e-18 -0.9601244346167317 -0.27957301381161925
12632710666.666666 -0.9633853103558638 -0.2681207634450321 1.3611172930193917e-16 -2.750295148375711e-18 1.3611172930193917e-16 -2.750295148375711e-18 -0.9633851247364933 -0.2681214303935105
12633328000.0 -0.9665094125716662 -0.25663116609286657 1.360423564134573e-16 -4.381931966023956e-18 1.360423564134573e-16 -4.381931966023956e-18 -0.9665092349151858 -0.2566318351714623
12633945333.333334 -0.9694964919142677 -0.24510518592175587 1.3595343533955933e-16 -6.012300648250163e-18 1.3595343533955933e-16 -6.012300648250163e-18 -0.969496322245086 -0.24510585703540994
12634562666.666666 -0.9723461249029666 -0.23354445697981274 1.358449865127846e-16 -7.641167126079575e-18 1.358449865127846e-16 -7.641167126079575e-18 -0.9723459632443551 -0.23354513003318636
12635180000.0 -0.9750579075429183 -0.22195061824162074 1.3571703316681422e-16 -9.268297638094194e-18 1.3571703316681422e-16 -9.268297638094194e-18 -0.9750577539170118 -0.22195129313910972
12635797333.333334 -0.9776314553824749 -0.21032531337562768 1.3556960133203286e-16 -1.0893458763966287e-17 1.3556960133203286e-16 -1.0893458763966287e-17 -0.9776313098102674 -0.21032599002137572
12636414666.666666 -0.9800664035676118 -0.19867019051145365 1.354027198306947e-16 -1.2516417457852575e-17 1.354027198306947e-16 -1.2516417457852575e-17 -0.9800662660689544 -0.19867086880936624
12637032000.0 -0.9823624068937429 -0.1869869020058464 1.3521642027168348e-16 -1.4136941081821788e-17 1.3521642027168348e-16 -1.4136941081821788e-17 -0.9823622774873375 -0.1869875818596036
12637649333.333334 -0.9845191398545808 -0.1752771042087571 1.350107370448804e-16 -1.5754797439110257e-17 1.350107370448804e-16 -1.5754797439110257e-17 -0.9845190185579835 -0.1752777855218285
12638266666.666666 -0.9865362966883391 -0.16354245722829744 1.3478570731512872e-16 -1.7369754807378135e-17 1.3478570731512872e-16 -1.7369754807378135e-17 -0.9865361835179524 -0.1635431399039546
12638884000.0 -0.9884135914210549 -0.15178462469546639 1.34541371015805e-16 -1.8981581971842017e-17 1.34541371015805e-16 -1.8981581971842017e-17 -0.9884134863921287 -0.15178530863679754
12639501333.333334 -0.9901507579071288 -0.14000527352835312 1.3427777084199494e-16 -2.0590048258325557e-17 1.3427777084199494e-16 -2.0590048258325557e-17 -0.9901506610337583 -0.1400059586382766
12640118666.666666 -0.9917475498670585 -0.128206073695817 1.3399495224327402e-16 -2.2194923566227146e-17 1.3399495224327402e-16 -2.2194923566227146e-17 -0.9917474611621793 -0.1282067598770946
12640736000.0 -0.9932037409223983 -0.11638869798036755 1.336929634160854e-16 -2.37959784014415e-17 1.336929634160854e-16 -2.37959784014415e-17 -0.9932036603977873 -0.11638938513561885
12641353333.333334 -0.994519124627759 -0.10455482174174566 1.3337185529575324e-16 -2.539298390902928e-17 1.3337185529575324e-16 -2.539298390902928e-17 -0.9945190522940335 -0.10455550977346179
12641970666.666666 -0.9956935145001609 -0.09270612267875833 1.3303168154806686e-16 -2.6985711905990753e-17 1.3303168154806686e-16 -2.6985711905990753e-17 -0.9956934503667759 -0.09270681148931569
12642588000.0 -0.996726744045443 -0.08084428059165535 1.3267249856050875e-16 -2.857393491375569e-17 1.3267249856050875e-16 -2.857393491375569e-17 -0.9967266881206888 -0.08084497008332929
12643205333.333334 -0.9976186667818581 -0.06897097714401026 1.322943654330752e-16 -3.015742619065763e-17 1.322943654330752e-16 -3.015742619065763e-17 -0.9976186190728618 -0.06897166721898926
12643822666.666666 -0.9983691562608505 -0.05708789562428185 1.318973439687148e-16 -3.17359597642629e-17 1.318973439687148e-16 -3.17359597642629e-17 -0.9983691167735737 -0.057088586184681225
12644440000.0 -0.9989781060849802 -0.04519672070711584 1.3148149866339076e-16 -3.330931046354274e-17 1.3148149866339076e-16 -3.330931046354274e-17 -0.9989780748242177 -0.04519741165499162
12645057333.333334 -0.999445429923 -0.03329913821470587 1.3104689669574597e-16 -3.4877253950977644e-17 1.3104689669574597e-16 -3.4877253950977644e-17 -0.9994454068923794 -0.033299829452068705
12645674666.666666 -0.9997710615221026 -0.021396834877594348 1.3059360791640036e-16 -3.6439566754469454e-17 1.3059360791640036e-16 -3.6439566754469454e-17 -0.9997710467240878 -0.02139752630642351
12646292000.0 -0.9999549547173191 -0.009491498095429584 1.3012170483684497e-16 -3.7996026299201903e-17 1.3012170483684497e-16 -3.7996026299201903e-17 -0.9999549481532024 -0.009492189617686655
12646909333.333334 -0.9999970834380464 0.002415184301832321 1.2963126261799613e-16 -3.954641093922642e-17 1.2963126261799613e-16 -3.954641093922642e-17 -0.9999970851079553 0.0024144927841893765
12647526666.666666 -0.999897441711759 0.014321524293553382 1.2912235905833204e-16 -4.1090499989042576e-17 1.2912235905833204e-16 -4.1090499989042576e-17 -0.9998974516146523 0.014320832878556376
12648144000.0 -0.9996560436648473 0.026225833907754372 1.2859507458167797e-16 -4.262807375494665e-17 1.2859507458167797e-16 -4.262807375494665e-17 -0.9996560617985176 0.026225142693410985
12648761333.333334 -0.9992729235206143 0.03812642546024945 1.2804949222461605e-16 -4.415891356623643e-17 1.2804949222461605e-16 -4.415891356623643e-17 -0.9992729498816886 0.038125734544529395
12649378666.666666 -0.9987481355944345 0.050021611793825554 1.2748569762352624e-16 -4.568280180625355e-17 1.2748569762352624e-16 -4.568280180625355e-17 -0.9987481701783726 0.050020921274646635
12649996000.0 -0.9980817542860382 0.061909706517772924 1.2690377900124523e-16 -4.719952194329806e-17 1.2690377900124523e-16 -4.719952194329806e-17 -0.9980817970871342 0.061909016492987134
12650613333.333334 -0.9972738740689736 0.07378902424665365 1.2630382715336678e-16 -4.8708858561349445e-17 1.2630382715336678e-16 -4.8708858561349445e-17 -0.9972739250803583 0.07378833481403337
12651230666.666666 -0.9963246094772168 0.0856578808393257 1.2568593543419352e-16 -5.021059739057584e-17 1.2568593543419352e-16 -5.021059739057584e-17 -0.9963246686908571 0.08565719209654982
12651848000.0 -0.9952340950889125 0.09751459363790313 1.250501997422872e-16 -5.170452533776697e-17 1.250501997422872e-16 -5.170452533776697e-17 -0.9952341624956148 0.09751390568254333
12652465333.333334 -0.9940024855073254 0.10935748170596822 1.243967185056986e-16 -5.3190430516481876e-17 1.243967185056986e-16 -5.3190430516481876e-17 -0.9940025610967338 0.10935679463547485
12653082666.666666 -0.9926299553389053 0.12118486606707747 1.237255926668288e-16 -5.4668102277044266e-17 1.237255926668288e-16 -5.4668102277044266e-17 -0.9926300390995054 0.121184179978766
12653700000.0 -0.9911166991685235 0.13299506994284774 1.2303692566690368e-16 -5.613733123641463e-17 1.2303692566690368e-16 -5.613733123641463e-17 -0.9911167910876445 0.132994384933885
12654317333.333334 -0.9894629315319081 0.14478641899050534 1.2233082343014812e-16 -5.759790930775304e-17 1.2233082343014812e-16 -5.759790930775304e-17 -0.9894630315957232 0.14478573515789564
12654934666.666666 -0.9876688868852245 0.15655724154031592 1.2160739434756943e-16 -5.904962972986744e-17 1.2160739434756943e-16 -5.904962972986744e-17 -0.9876689950787542 0.1565565589808874
12655552000.0 -0.9857348195718031 0.1683058688327747 1.208667492603953e-16 -6.049228709645687e-17 1.208667492603953e-16 -6.049228709645687e-17 -0.9857349358789161 0.1683051876431654
12656169333.333334 -0.9836610037861346 0.18003063525485097 1.201090014431951e-16 -6.19256773850856e-17 1.201090014431951e-16 -6.19256773850856e-17 -0.9836611281895506 0.18002995553149528
12656786666.666666 -0.9814477335349655 0.19172987857632018 1.1933426658662598e-16 -6.334959798601287e-17 1.1933426658662598e-16 -6.334959798601287e-17 -0.9814478660162598 0.19172920041543548
12657404000.0 -0.9790953225956072 0.2034019401854755 1.1854266277984635e-16 -6.476384773079065e-17 1.1854266277984635e-16 -6.476384773079065e-17 -0.97909546313521 0.2034012636830481
12658021333.333334 -0.9766041044714798 0.2150451653241028 1.177343104926058e-16 -6.616822692061593e-17 1.177343104926058e-16 -6.616822692061593e-17 -0.976604253048682 0.21504449057587455
12658638666.666666 -0.9739744323448263 0.22665790332213376 1.169093325569856e-16 -6.756253735448793e-17 1.169093325569856e-16 -6.756253735448793e-17 -0.9739745889377813 0.22665723042358865
12659256000.0 -0.9712066790265924 0.23823850783185613 1.160678541487961e-16 -6.894658235715504e-17 1.160678541487961e-16 -6.894658235715504e-17 -0.9712068436123198 0.23823783687820654
12659873333.333334 -0.9683012369036512 0.2497853370609855 1.1521000276868107e-16 -7.032016680676835e-17 1.1521000276868107e-16 -7.032016680676835e-17 -0.9683014094580392 0.24978466814715886
12660490666.666666 -0.965258517883131 0.261296754005618 1.1433590822286122e-16 -7.168309716236153e-17 1.1433590822286122e-16 -7.168309716236153e-17 -0.9652586983809405 0.2612960872262434
12661108000.0 -0.9620789533340002 0.2727711266823641 1.1344570260354922e-16 -7.303518149109397e-17 1.1344570260354922e-16 -7.303518149109397e-17 -0.9620791417488681 0.2727704621317584
12661725333.333334 -0.9587629940259569 0.284206828359551 1.125395202690943e-16 -7.43762294951756e-17 1.125395202690943e-16 -7.43762294951756e-17 -0.958763190330401 0.2842061661317063
12662342666.666666 -0.9553111100655018 0.29560223778792916 1.1161749782373578e-16 -7.570605253865852e-17 1.1161749782373578e-16 -7.570605253865852e-17 -0.9553113142309242 0.29560157797649905
12662960000.0 -0.9517237908292736 0.3069557394305719 1.1067977409710627e-16 -7.702446367387946e-17 1.1067977409710627e-16 -7.702446367387946e-17 -0.9517240028259648 0.30695508212885836
12663577333.333334 -0.9480015448946858 0.3182657236918573 1.0972649012337638e-16 -7.83312776677198e-17 1.0972649012337638e-16 -7.83312776677198e-17 -0.9480017646918288 0.3182650689927974
12664194666.666666 -0.9441448999678506 0.32953058714558037 1.0875778912012693e-16 -7.962631102755446e-17 1.0875778912012693e-16 -7.962631102755446e-17 -0.9441451275335253 0.32952993514173284
12664812000.0 -0.9401544028087029 0.3407487327624608 1.0777381646688254e-16 -8.090938202698775e-17 1.0777381646688254e-16 -8.090938202698775e-17 -0.940154638109893 0.34074808354599423
12665429333.333334 -0.9360306191535536 0.3519185701363688 1.0677471968336294e-16 -8.21803107312971e-17 1.0677471968336294e-16 -8.21803107312971e-17 -0.9360308621561472 0.3519179237990467
12666046666.666666 -0.9317741336348634 0.3630385157098503 1.0576064840744868e-16 -8.343891902259091e-17 1.0576064840744868e-16 -8.343891902259091e-17 -0.9317743843036603 0.3630378723430191
12666664000.0 -0.9273855496982785 0.3741069929988423 1.0473175437279008e-16 -8.468503062477415e-17 1.0473175437279008e-16 -8.468503062477415e-17 -0.9273858079969949 0.3741063526934185
12667281333.333334 -0.9228654895172389 0.38512243281574665 1.0368819138621812e-16 -8.591847112811885e-17 1.0368819138621812e-16 -8.591847112811885e-17 -0.9228657554085159 0.3851217956622049
12667898666.666666 -0.9182145939046613 0.3960832734922176 1.0263011530477332e-16 -8.713906801367387e-17 1.0263011530477332e-16 -8.713906801367387e-17 -0.9182148673500641 0.39608263958057566
12668516000.0 -0.9134335222220514 0.4069879611006062 1.0155768401249502e-16 -8.834665067733189e-17 1.0155768401249502e-16 -8.834665067733189e-17 -0.9134338031820799 0.40698733052041436
12669133333.333334 -0.9085229522861572 0.4178349496739785 1.0047105739695346e-16 -8.954105045358827e-17 1.0047105739695346e-16 -8.954105045358827e-17 -0.9085232407202486 0.4178343225143056
12669750666.666666 -0.9034835802727922 0.4286227014254701 9.93703973254307e-17 -9.072210063909067e-17 9.93703973254307e-17 -9.072210063909067e-17 -0.903483876139329 0.42862207777489136
