! Parameters = {f0=12700.012000; bw=77.238000; Q=6100.000000; N=10; m_0_1=1.163659; m_1_1=-1.309866; m_1_2=0.998471; m_2_2=-1.310515; m_2_3=0.635434; m_2_8=-0.004753; m_2_9=0.031951; m_3_3=-1.312452; m_3_4=0.523963; m_3_7=-0.004153; m_3_8=-0.101241; m_3_9=-0.004753; m_4_4=-1.315377; m_4_5=0.360298; m_4_6=-0.000636; m_4_7=-0.121790; m_4_8=-0.004153; m_5_5=-1.314995; m_5_6=0.767653; m_5_7=-0.000636; m_6_6=-1.314996; m_6_7=0.360640; m_7_7=-1.315363; m_7_8=0.524081; m_8_8=-1.312454; m_8_9=0.635747; m_9_9=-1.310520; m_9_10=0.999549; m_10_10=-1.309876; m_10_11=1.164454}
!
! Created with skrf (http://scikit-rf.org).
# Hz S RI R 50.0 
!freq ReS11 ImS11 ReS21 ImS21 ReS12 ImS12 ReS22 ImS22
12607400000.0 -0.5713132536307202 0.8207320916265738 2.0484822696073097e-17 -6.179509684239847e-17 2.0484822696073097e-17 -6.179509684239847e-17 -0.5713137569561115 0.8207317412605319
12608017333.333334 -0.5652413933389113 0.8249255525537671 2.001885371157633e-17 -6.193421670660886e-17 2.001885371157633e-17 -6.193421670660886e-17 -0.5652418992112264 0.8249252059283542
12608634666.666666 -0.559138754184265 0.8290740941370198 1.955195046066037e-17 -6.206982693818269e-17 1.955195046066037e-17 -6.206982693818269e-17 -0.5591392625757099 0.8290737512707437
12609252000.0 -0.5530056684714355 0.8331774904774568 1.908413934761891e-17 -6.220192134934075e-17 1.908413934761891e-17 -6.220192134934075e-17 -0.5530061793540818 0.8331771513886183
12609869333.333334 -0.5468424701628765 0.8372355181345418 1.8615446816999398e-17 -6.233049395073526e-17 1.8615446816999398e-17 -6.233049395073526e-17 -0.5468429835086629 0.837235182841235
12610486666.666666 -0.5406494948608698 0.8412479561381049 1.8145899352141795e-17 -6.245553895169746e-17 1.8145899352141795e-17 -6.245553895169746e-17 -0.5406500106416027 0.8412476246582137
12611104000.0 -0.5344270797889624 0.8452145860005577 1.7675523473659107e-17 -6.25770507604906e-17 1.7675523473659107e-17 -6.25770507604906e-17 -0.5344275979763199 0.8452142583517585
12611721333.333334 -0.5281755637739425 0.8491351917285784 1.720434573796969e-17 -6.269502398453681e-17 1.720434573796969e-17 -6.269502398453681e-17 -0.5281760843394734 0.8491348679283363
12612338666.666666 -0.5218952872271472 0.8530095598350264 1.6732392735792602e-17 -6.280945343064262e-17 1.6732392735792602e-17 -6.280945343064262e-17 -0.5218958101422737 0.8530092399005954
12612956000.0 -0.5155865921259257 0.8568374793505625 1.6259691090641473e-17 -6.292033410521278e-17 1.6259691090641473e-17 -6.292033410521278e-17 -0.5155871173619454 0.8568371632989848
12613573333.333334 -0.5092498219952374 0.8606187418350073 1.578626745734949e-17 -6.302766121444521e-17 1.578626745734949e-17 -6.302766121444521e-17 -0.5092503495233236 0.8606184296831114
12614190666.666666 -0.5028853218886766 0.8643531413888502 1.5312148520560867e-17 -6.313143016452237e-17 1.5312148520560867e-17 -6.313143016452237e-17 -0.5028858516798814 0.8643528331532511
12614808000.0 -0.4964934383699056 0.8680404746643329 1.4837360993221306e-17 -6.323163656179173e-17 1.4837360993221306e-17 -6.323163656179173e-17 -0.4964939703951602 0.8680401703614304
12615425333.333334 -0.49007451949361014 0.8716805408766216 1.4361931615103326e-17 -6.332827621292615e-17 1.4361931615103326e-17 -6.332827621292615e-17 -0.49007505372372684 0.8716802405226
12616042666.666666 -0.4836289147866449 0.8752731418146817 1.3885887151276842e-17 -6.342134512508588e-17 1.3885887151276842e-17 -6.342134512508588e-17 -0.48362945119231965 0.8752728454255093
12616660000.0 -0.47715697522897804 0.8788180818520881 1.3409254390636378e-17 -6.351083950605599e-17 1.3409254390636378e-17 -6.351083950605599e-17 -0.47715751378079047 0.878817789443515
12617277333.333334 -0.47065905323455337 0.8823151679576902 1.2932060144370042e-17 -6.359675576438561e-17 1.2932060144370042e-17 -6.359675576438561e-17 -0.4706595939029686 0.8823148795452472
12617894666.666666 -0.4641355026322235 0.885764209706051 1.2454331244485439e-17 -6.367909050950322e-17 1.2454331244485439e-17 -6.367909050950322e-17 -0.464136045387596 0.8857639253050527
12618512000.0 -0.4575866786462122 0.8891650192879721 1.1976094542277288e-17 -6.375784055183296e-17 1.1976094542277288e-17 -6.375784055183296e-17 -0.45758722345878444 0.8891647389135111
12619129333.333334 -0.45101293787711855 0.8925174115205275 1.1497376906848792e-17 -6.383300290288865e-17 1.1497376906848792e-17 -6.383300290288865e-17 -0.45101348471702385 0.8925171351874754
12619746666.666666 -0.44441463828222405 0.8958212038572942 1.1018205223596388e-17 -6.390457477536382e-17 1.1018205223596388e-17 -6.390457477536382e-17 -0.4444151871194889 0.8958209315803026
12620364000.0 -0.43779213915610155 0.8990762163982405 1.0538606392694149e-17 -6.397255358321001e-17 1.0538606392694149e-17 -6.397255358321001e-17 -0.4377926899606465 0.8990759481917381
12620981333.333334 -0.43114580111112794 0.9022822718994848 1.0058607327610702e-17 -6.403693694169868e-17 1.0058607327610702e-17 -6.403693694169868e-17 -0.43114635385276895 0.9022820077776764
12621598666.666666 -0.42447598605769316 0.9054391957830193 9.578234953593179e-18 -6.409772266747675e-17 9.578234953593179e-18 -6.409772266747675e-17 -0.424476540706144 0.9054389357598871
12622216000.0 -0.4177830571845969 0.9085468161461708 9.097516206151192e-18 -6.415490877861146e-17 9.097516206151192e-18 -6.415490877861146e-17 -0.41778361370947037 0.9085465602354718
12622833333.333334 -0.41106737893921996 0.9116049637709811 8.616478029573544e-18 -6.420849349461853e-17 8.616478029573544e-18 -6.420849349461853e-17 -0.41106793731002983 0.9116047119862476
12623450666.666666 -0.40432931700778235 0.9146134721333768 8.135147375412271e-18 -6.425847523648436e-17 8.135147375412271e-18 -6.425847523648436e-17 -0.4043298771939449 0.9146132244879148
12624068000.0 -0.397569238295303 0.9175721774122972 7.653551200970526e-18 -6.430485262667612e-17 7.653551200970526e-18 -6.430485262667612e-17 -0.3975698002661384 0.9175719339191859
12624685333.333334 -0.3907875109055917 0.9204809184986208 7.17171646780521e-18 -6.434762448913809e-17 7.17171646780521e-18 -6.434762448913809e-17 -0.39078807463032605 0.9204806791707117
12625302666.666666 -0.3839845041214412 0.9233395370038385 6.689670140233828e-18 -6.438678984927817e-17 6.689670140233828e-18 -6.438678984927817e-17 -0.3839850695692082 0.9233393018537561
12625920000.0 -0.3771605883842323 0.9261478772688047 6.207439183805025e-18 -6.442234793394536e-17 6.207439183805025e-18 -6.442234793394536e-17 -0.37716115552407464 0.9261476463089439
12626537333.333334 -0.3703161352739691 0.9289057863721185 5.72505056382095e-18 -6.445429817139162e-17 5.72505056382095e-18 -6.445429817139162e-17 -0.37031670407484096 0.9289055596146458
12627154666.666666 -0.36345151748899696 0.9316131141384801 5.242531243823644e-18 -6.448264019122652e-17 5.242531243823644e-18 -6.448264019122652e-17 -0.36345208791976463 0.9316128915953318
12627772000.0 -0.3565671088255205 0.9342697131469385 4.7599081840819845e-18 -6.45073738243591e-17 4.7599081840819845e-18 -6.45073738243591e-17 -0.35656768085496426 0.9342694948298185
12628389333.333334 -0.34966328415761944 0.936875438738769 4.2772083401125296e-18 -6.452849910292749e-17 4.2772083401125296e-18 -6.452849910292749e-17 -0.3496638577544363 0.9368752246591522
12629006666.666666 -0.3427404194164402 0.9394301490255117 3.7944586611681336e-18 -6.454601626021901e-17 3.7944586611681336e-18 -6.454601626021901e-17 -0.34274099454924484 0.9394299391946408
12629624000.0 -0.3357988915700162 0.9419337048965812 3.3116860887275207e-18 -6.455992573057922e-17 3.3116860887275207e-18 -6.455992573057922e-17 -0.33579946820734236 0.9419334993254662
12630241333.333334 -0.32883907860258177 0.9443859700269042 2.8289175550188908e-18 -6.457022814930767e-17 2.8289175550188908e-18 -6.457022814930767e-17 -0.3288396567128842 0.9443857687263207
12630858666.666666 -0.32186135949412276 0.9467868108842914 2.3461799815116145e-18 -6.457692435254482e-17 2.3461799815116145e-18 -6.457692435254482e-17 -0.32186193904577964 0.9467866138647839
12631476000.0 -0.3148661141995536 0.9491360967367776 1.8635002774090823e-18 -6.458001537714676e-17 1.8635002774090823e-18 -6.458001537714676e-17 -0.31486669516086735 0.9491359040086546
12632093333.333334 -0.3078537236282151 0.9514336996596733 1.3809053381759038e-18 -6.457950246054874e-17 1.3809053381759038e-18 -6.457950246054874e-17 -0.30785430596741464 0.9514335112330099
12632710666.666666 -0.3008245696230801 0.9536794945425539 8.984220440333774e-19 -6.457538704061796e-17 8.984220440333774e-19 -6.457538704061796e-17 -0.30082515330832216 0.9536793104271882
12633328000.0 -0.2937790349397972 0.9558733590961166 4.1607725846007848e-19 -6.456767075549484e-17 4.1607725846007848e-19 -6.456767075549484e-17 -0.2937796199391688 0.9558731793016533
12633945333.333334 -0.286717503226094 0.9580151738587688 -6.610217329133849e-20 -6.45563554434237e-17 -6.610217329133849e-20 -6.45563554434237e-17 -0.2867180895076134 0.9580149983945747
12634562666.666666 -0.2796403590007501 0.9601048222031715 -5.480894256720929e-19 -6.454144314257186e-17 -5.480894256720929e-19 -6.454144314257186e-17 -0.2796409465323691 0.9601046510783777
12635180000.0 -0.2725479876326867 0.9621421903425845 -1.0298576943502373e-18 -6.45229360908379e-17 -1.0298576943502373e-18 -6.45229360908379e-17 -0.2725485763822918 0.962142023566084
12635797333.333334 -0.26544077531995364 0.9641271673370656 -1.5113801976704811e-18 -6.450083672564886e-17 -1.5113801976704811e-18 -6.450083672564886e-17 -0.26544136525536877 0.9641270049175151
12636414666.666666 -0.25831910906878414 0.966059645099495 -1.9926301781525405e-18 -6.447514768374672e-17 -1.9926301781525405e-18 -6.447514768374672e-17 -0.2583197001577713 0.9660594870453124
12637032000.0 -0.2511833766724646 0.9679395184014701 -2.4735809039655357e-18 -6.444587180096314e-17 -2.4735809039655357e-18 -6.444587180096314e-17 -0.2511839688827265 0.9679393647208354
12637649333.333334 -0.24403396669016514 0.9697666848790565 -2.954205670422386e-18 -6.441301211198348e-17 -2.954205670422386e-18 -6.441301211198348e-17 -0.2440345599893461 0.9697665355799092
12638266666.666666 -0.23687126842586176 0.9715410450383324 -3.4344778014318033e-18 -6.437657185010062e-17 -3.4344778014318033e-18 -6.437657185010062e-17 -0.23687186278155034 0.9715409001283739
12638884000.0 -0.2296956719071121 0.9732625022608196 -3.914370651003064e-18 -6.433655444695622e-17 -3.914370651003064e-18 -6.433655444695622e-17 -0.22969626728684253 0.9732623617475118
12639501333.333334 -0.22250756786378872 0.9749309628087482 -4.393857604693586e-18 -6.429296353227276e-17 -4.393857604693586e-18 -6.429296353227276e-17 -0.22250816423504252 0.9749308266993123
12640118666.666666 -0.21530734770694193 0.9765463358301303 -4.872912081087183e-18 -6.424580293357425e-17 -4.872912081087183e-18 -6.424580293357425e-17 -0.21530794503714984 0.9765462041315468
12640736000.0 -0.20809540350718111 0.9781085333637755 -5.3515075332916826e-18 -6.41950766758924e-17 -5.3515075332916826e-18 -6.41950766758924e-17 -0.20809600176372473 0.978108406082784
12641353333.333334 -0.20087212797371393 0.9796174703439932 -5.829617450342906e-18 -6.414078898147115e-17 -5.829617450342906e-18 -6.414078898147115e-17 -0.20087272712392784 0.9796173474870936
12641970666.666666 -0.1936379144326291 0.9810730646052995 -6.307215358733687e-18 -6.408294426944782e-17 -6.307215358733687e-18 -6.408294426944782e-17 -0.1936385144438023 0.9810729461787489
12642588000.0 -0.1863931568057291 0.9824752368868368 -6.784274823827245e-18 -6.402154715553475e-17 -6.784274823827245e-18 -6.402154715553475e-17 -0.18639375764510707 0.9824751228966513
12643205333.333334 -0.17913824958891364 0.9838239108367276 -7.260769451347964e-18 -6.395660245168189e-17 -7.260769451347964e-18 -6.395660245168189e-17 -0.1791388512236994 0.9838238012886787
12643822666.666666 -0.17187358783069628 0.9851190130162224 -7.736672888807438e-18 -6.388811516573484e-17 -7.736672888807438e-18 -6.388811516573484e-17 -0.17187419022805359 0.9851189079158432
12644440000.0 -0.16459956711080703 0.986360472903688 -8.211958826985887e-18 -6.381609050107621e-17 -8.211958826985887e-18 -6.381609050107621e-17 -0.16460017023786072 0.9863603722562662
12645057333.333334 -0.15731658351862274 0.9875482228984471 -8.686601001356019e-18 -6.374053385626229e-17 -8.686601001356019e-18 -6.374053385626229e-17 -0.15731718734246128 0.9875481267090275
12645674666.666666 -0.1500250336315995 0.9886821983244616 -9.160573193540199e-18 -6.366145082464455e-17 -9.160573193540199e-18 -6.366145082464455e-17 -0.1500256381192768 0.988682106597847
12646292000.0 -0.14272531449348155 0.9897623374338864 -9.63384923276436e-18 -6.357884719397994e-17 -9.63384923276436e-18 -6.357884719397994e-17 -0.14272591961201833 0.9897622501746346
12646909333.333334 -0.13541782359304597 0.9907885814103708 -1.0106402997276289e-17 -6.349272894603616e-17 -1.0106402997276289e-17 -6.349272894603616e-17 -0.13541842930943215 0.9907884986227986
12647526666.666666 -0.12810295884214978 0.9917608743723153 -1.0578208415793027e-17 -6.340310225618054e-17 -1.0578208415793027e-17 -6.340310225618054e-17 -0.12810356512334561 0.9917607960604924
12648144000.0 -0.12078111855420263 0.992679163375886 -1.1049239468941338e-17 -6.330997349295913e-17 -1.1049239468941338e-17 -6.330997349295913e-17 -0.12078172536714102 0.9926790895436396
12648761333.333334 -0.11345270142242142 0.9935433984179086 -1.1519470190680241e-17 -6.32133492176674e-17 -1.1519470190680241e-17 -6.32133492176674e-17 -0.11345330873400956 0.9935433290688223
12649378666.666666 -0.1061181064982338 0.9943535324385804 -1.1988874669720148e-17 -6.311323618391095e-17 -1.1988874669720148e-17 -6.311323618391095e-17 -0.10611871427535488 0.9943534675759916
12649996000.0 -0.09877773316937859 0.9951095213240464 -1.2457427050952648e-17 -6.30096413371524e-17 -1.2457427050952648e-17 -6.30096413371524e-17 -0.09877834137889373 0.9951094609510491
12650613333.333334 -0.09143198113824325 0.9958113239087961 -1.2925101536880233e-17 -6.290257181424746e-17 -1.2925101536880233e-17 -6.290257181424746e-17 -0.09143258974699331 0.9958112680282398
12651230666.666666 -0.08408125040021232 0.9964589019778938 -1.339187238901003e-17 -6.27920349429767e-17 -1.339187238901003e-17 -6.27920349429767e-17 -0.08408185937501962 0.9964588505923827
12651848000.0 -0.0767259412216034 0.9970522202690854 -1.3857713929275878e-17 -6.267803824156047e-17 -1.3857713929275878e-17 -6.267803824156047e-17 -0.0767265505292735 0.9970521733809777
12652465333.333334 -0.06936645411812625 0.9975912464746928 -1.4322600541456442e-17 -6.256058941816306e-17 -1.4322600541456442e-17 -6.256058941816306e-17 -0.06936706372544996 0.9975912040861036
12653082666.666666 -0.06200318983304585 0.9980759512433811 -1.4786506672553815e-17 -6.243969637039492e-17 -1.4786506672553815e-17 -6.243969637039492e-17 -0.06200379970680084 0.9980759133561792
12653700000.0 -0.05463654931519043 0.9985063081817666 -1.5249406834221225e-17 -6.231536718479151e-17 -1.5249406834221225e-17 -6.231536718479151e-17 -0.0546371594221431 0.9985062747975758
12654317333.333334 -0.047266933697345824 0.9988822938558395 -1.5711275604133497e-17 -6.218761013629511e-17 -1.5711275604133497e-17 -6.218761013629511e-17 -0.0472675440042531 0.9988822649760376
12654934666.666666 -0.03989474427424242 0.9992038877922494 -1.6172087627388688e-17 -6.205643368771756e-17 -1.6172087627388688e-17 -6.205643368771756e-17 -0.03989535474785362 0.9992038634179691
12655552000.0 -0.0325203824806752 0.9994710724794202 -1.663181761790534e-17 -6.192184648919227e-17 -1.663181761790534e-17 -6.192184648919227e-17 -0.03252099308773384 0.9994710526115502
12656169333.333334 -0.025144249869900315 0.9996838333684969 -1.7090440359780198e-17 -6.17838573776259e-17 -1.7090440359780198e-17 -6.17838573776259e-17 -0.02514486057714581 0.9996838180076781
12656786666.666666 -0.017766748091485155 0.9998421588741431 -1.7547930708694197e-17 -6.164247537612507e-17 -1.7547930708694197e-17 -6.164247537612507e-17 -0.017767358865654764 0.9998421480207722
12657404000.0 -0.010388278869579751 0.9999460403751697 -1.8004263593257716e-17 -6.149770969342874e-17 -1.8004263593257716e-17 -6.149770969342874e-17 -0.010388889677410336 0.9999460340293985
12658021333.333334 -0.003009243980984966 0.9999954722150076 -1.845941401640742e-17 -6.13495697233146e-17 -1.845941401640742e-17 -6.13495697233146e-17 -0.0030098547892147874 0.9999954703767417
12658638666.666666 0.004369954766611668 0.9999904517020103 -1.8913357056745835e-17 -6.11980650440105e-17 -1.8913357056745835e-17 -6.11980650440105e-17 0.004369343991241124 0.9999904543709102
12659256000.0 0.011748915556685896 0.999930979109606 -1.9366067869911146e-17 -6.10432054175855e-17 -1.9366067869911146e-17 -6.10432054175855e-17 0.011748304847428106 0.9999309862850861
12659873333.333334 0.019127236585671444 0.9998170576762776 -1.981752168994216e-17 -6.088500078933081e-17 -1.981752168994216e-17 -6.088500078933081e-17 0.01912662597577304 0.9998170693575077
12660490666.666666 0.026504516084725607 0.9996486936053922 -2.026769383060368e-17 -6.072346128714205e-17 -2.026769383060368e-17 -6.072346128714205e-17 0.026503905607424588 0.9996487097912975
12661108000.0 0.03388035234191917 0.9994258960648557 -2.071655968675869e-17 -6.0558597220874e-17 -2.071655968675869e-17 -6.0558597220874e-17 0.033879742030443055 0.9994259167541152
12661725333.333334 0.04125434372371288 0.9991486771866228 -2.1164094735683954e-17 -6.03904190817036e-17 -2.1164094735683954e-17 -6.03904190817036e-17 0.041253733611276926 0.9991487023776706
12662342666.666666 0.04862608869714003 0.9988170520660283 -2.1610274538414827e-17 -6.0218937541471e-17 -2.1610274538414827e-17 -6.0218937541471e-17 0.04862547881694535 0.9988170817570529
12662960000.0 0.0559951858515287 0.998431038760968 -2.205507474108479e-17 -6.004416345201044e-17 -2.205507474108479e-17 -6.004416345201044e-17 0.05599457623676066 0.998431072949915
12663577333.333334 0.06336123392041663 0.9979906582909149 -2.249847107622548e-17 -5.986610784448381e-17 -2.249847107622548e-17 -5.986610784448381e-17 0.06336062460424285 0.9979906969754841
12664194666.666666 0.07072383180328778 0.9974959346357819 -2.2940439364112928e-17 -5.968478192868645e-17 -2.2940439364112928e-17 -5.968478192868645e-17 0.07072322281885633 0.9974959778134279
12664812000.0 0.07808257858758322 0.9969468947346022 -2.3380955514053438e-17 -5.950019709236241e-17 -2.3380955514053438e-17 -5.950019709236241e-17 0.07808196996802093 0.9969469424025361
12665429333.333334 0.08543707357044693 0.9963435684840698 -2.381999552571864e-17 -5.931236490049013e-17 -2.381999552571864e-17 -5.931236490049013e-17 0.08543646534885753 0.9963436206392583
12666046666.666666 0.0927869162804319 0.9956859887369217 -2.4257535490424128e-17 -5.912129709457825e-17 -2.4257535490424128e-17 -5.912129709457825e-17 0.09278630848989414 0.9956860453760867
12666664000.0 0.10013170649961795 0.9949741913001192 -2.4693551592436244e-17 -5.892700559193816e-17 -2.4693551592436244e-17 -5.892700559193816e-17 0.10013109917318413 0.9949742524197414
12667281333.333334 0.1074710442850091 0.9942082149329399 -2.512802011027322e-17 -5.872950248494741e-17 -2.512802011027322e-17 -5.872950248494741e-17 0.10747043745570274 0.9942082805292526
12667898666.666666 0.11480452999059351 0.9933881013448318 -2.5560917417966885e-17 -5.852880004031708e-17 -2.5560917417966885e-17 -5.852880004031708e-17 0.11480392369140814 0.9933881714138288
12668516000.0 0.12213176428910617 0.9925138951931517 -2.5992219986368837e-17 -5.832491069832887e-17 -2.5992219986368837e-17 -5.832491069832887e-17 0.12213115855300284 0.9925139697305798
12669133333.333334 0.12945234819354617 0.9915856440807468 -2.642190438440064e-17 -5.811784707208417e-17 -2.642190438440064e-17 -5.811784707208417e-17 0.1294517430534524 0.9915857230821128
12669750666.666666 0.136765883079073 0.9906033985533533 -2.684994728033145e-17 -5.79076219467296e-17 -2.684994728033145e-17 -5.79076219467296e-17 0.13676527856788054 0.9906034820139205
