! Parameters = {f0=12700.012000; bw=77.238000; Q=6100.000000; N=10; m_0_1=1.275370; m_1_1=0.365810; m_1_2=1.110182; m_2_2=0.365161; m_2_3=0.747145; m_2_8=0.000832; m_2_9=0.037536; m_3_3=0.363224; m_3_4=0.635674; m_3_7=0.001432; m_3_8=-0.095656; m_3_9=0.000832; m_4_4=0.360299; m_4_5=0.472009; m_4_6=0.004949; m_4_7=-0.116205; m_4_8=0.001432; m_5_5=0.360681; m_5_6=0.879364; m_5_7=0.004949; m_6_6=0.360680; m_6_7=0.472351; m_7_7=0.360313; m_7_8=0.635792; m_8_8=0.363222; m_8_9=0.747458; m_9_9=0.365156; m_9_10=1.111260; m_10_10=0.365800; m_10_11=1.276165}
!
! Created with skrf (http://scikit-rf.org).
# Hz S RI R 50.0 
!freq ReS11 ImS11 ReS21 ImS21 ReS12 ImS12 ReS22 ImS22
12607400000.0 -0.7880374616848422 -0.6156272890159538 1.0554157148264935e-16 4.156501655090211e-17 1.0554157148264935e-16 4.156501655090211e-17 -0.7880370480255396 -0.6156278185226968
12608017333.333334 -0.7945683317181688 -0.6071747411004736 1.059623587038941e-16 4.0417986599076255e-17 1.059623587038941e-16 4.0417986599076255e-17 -0.7945679237583702 -0.6071752749693738
12608634666.666666 -0.8010085432278048 -0.5986529158668594 1.063706888321742e-16 3.9266717088800294e-17 1.063706888321742e-16 3.9266717088800294e-17 -0.8010081410134956 -0.5986534540365783
12609252000.0 -0.8073573613996247 -0.5900627856369675 1.0676651938489622e-16 3.81113432129309e-17 1.0676651938489622e-16 3.81113432129309e-17 -0.8073569649761333 -0.590063328045684
12609869333.333334 -0.8136140618473736 -0.5814053305259939 1.0714980934566086e-16 3.6952000587340463e-17 1.0714980934566086e-16 3.6952000587340463e-17 -0.8136136712593612 -0.5814058771114079
12610486666.666666 -0.8197779306950942 -0.5726815383309387 1.0752051916843012e-16 3.5788825235066184e-17 1.0752051916843012e-16 3.5788825235066184e-17 -0.8197775459865536 -0.5726820890302808
12611104000.0 -0.8258482646588808 -0.563892404417488 1.0787861078155595e-16 3.4621953570324235e-17 1.0787861078155595e-16 3.4621953570324235e-17 -0.8258478858731281 -0.5638929591675246
12611721333.333334 -0.8318243711268404 -0.5550389316068368 1.0822404759160006e-16 3.3451522382591406e-17 1.0822404759160006e-16 3.3451522382591406e-17 -0.8318239983065113 -0.555039490343878
12612338666.666666 -0.8377055682382334 -0.5461221300611073 1.0855679448700498e-16 3.227766882057622e-17 1.0855679448700498e-16 3.227766882057622e-17 -0.8377052014252805 -0.5461226927210155
12612956000.0 -0.8434911849613834 -0.5371430171679265 1.0887681784159028e-16 3.110053037615735e-17 1.0887681784159028e-16 3.110053037615735e-17 -0.8434908241970693 -0.5371435836861228
12613573333.333334 -0.8491805611699745 -0.5281026174247477 1.0918408551785972e-16 2.9920244868344594e-17 1.0918408551785972e-16 2.9920244868344594e-17 -0.8491802064948676 -0.5281031877362191
12614190666.666666 -0.8547730477186325 -0.5190019623215522 1.0947856687015031e-16 2.8736950427148884e-17 1.0947856687015031e-16 2.8736950427148884e-17 -0.8547726991726027 -0.5190025363608597
12614808000.0 -0.8602680065168694 -0.5098420902233498 1.0976023274760282e-16 2.7550785477441647e-17 1.0976023274760282e-16 2.7550785477441647e-17 -0.8602676641390827 -0.5098426679246346
12615425333.333334 -0.8656648106018555 -0.5006240462517513 1.100290554969548e-16 2.6361888722795198e-17 1.100290554969548e-16 2.6361888722795198e-17 -0.8656644744307713 -0.500624627548744
12616042666.666666 -0.8709628442100487 -0.4913488821655792 1.1028500896515853e-16 2.517039912930062e-17 1.1028500896515853e-16 2.517039912930062e-17 -0.8709625142834142 -0.4913494669916064
12616660000.0 -0.8761615028474025 -0.4820176562409345 1.1052806850183073e-16 2.3976455909333226e-17 1.1052806850183073e-16 2.3976455909333226e-17 -0.8761611792022485 -0.4820182445289267
12617277333.333334 -0.8812601933583102 -0.47263143315050005 1.107582109615208e-16 2.2780198505320854e-17 1.107582109615208e-16 2.2780198505320854e-17 -0.8812598760309477 -0.47263202483299954
12617894666.666666 -0.8862583339933157 -0.46319128384201635 1.10975414705801e-16 2.1581766573510936e-17 1.10975414705801e-16 2.1581766573510936e-17 -0.8862580230193307 -0.4631918788511843
12618512000.0 -0.8911553544755227 -0.4536982854160099 1.111796596051961e-16 2.0381299967636955e-17 1.111796596051961e-16 2.0381299967636955e-17 -0.8911550498897739 -0.4536988836836354
12619129333.333334 -0.8959506960655884 -0.4441535210030527 1.1137092704091414e-16 1.9178938722694795e-17 1.1137092704091414e-16 1.9178938722694795e-17 -0.8959503979022017 -0.4441541224605591
12619746666.666666 -0.9006438116254988 -0.43455807964012694 1.1154919990642414e-16 1.7974823038581203e-17 1.1154919990642414e-16 1.7974823038581203e-17 -0.9006435199178634 -0.43455868421858024
12620364000.0 -0.9052341656810833 -0.4249130561461905 1.1171446260884513e-16 1.6769093263782588e-17 1.1171446260884513e-16 1.6769093263782588e-17 -0.905233880461849 -0.42491366377630774
12620981333.333334 -0.9097212344829612 -0.41521955099756647 1.1186670107015678e-16 1.5561889879081822e-17 1.1186670107015678e-16 1.5561889879081822e-17 -0.9097209557840347 -0.415220161609723
12621598666.666666 -0.9141045060663887 -0.4054786702022028 1.120059027282464e-16 1.4353353481167006e-17 1.120059027282464e-16 1.4353353481167006e-17 -0.9141042339189303 -0.4054792837264413
12622216000.0 -0.918383480309685 -0.3956915251734534 1.1213205653776858e-16 1.3143624766309526e-17 1.1213205653776858e-16 1.3143624766309526e-17 -0.9183832147441034 -0.39569214153949067
12622833333.333334 -0.9225576689912782 -0.3858592326032925 1.1224515297083218e-16 1.1932844514014691e-17 1.1224515297083218e-16 1.1932844514014691e-17 -0.922557410037229 -0.38585985174052784
12623450666.666666 -0.9266265958453371 -0.3759829143350865 1.123451840175129e-16 1.0721153570656401e-17 1.123451840175129e-16 1.0721153570656401e-17 -0.9266263435317181 -0.3759835361726102
12624068000.0 -0.9305897966162425 -0.36606369723527976 1.1243214318618715e-16 9.508692833129573e-18 1.1243214318618715e-16 9.508692833129573e-18 -0.9305895509711917 -0.366064321701881
12624685333.333334 -0.9344468191114809 -0.356102713065005 1.1250602550369255e-16 8.295603232467925e-18 1.1250602550369255e-16 8.295603232467925e-18 -0.9344465801623719 -0.3561033400891797
12625302666.666666 -0.9381972232532094 -0.3461010983510317 1.125668275153083e-16 7.082025717531446e-18 1.125668275153083e-16 7.082025717531446e-18 -0.9381969910266494 -0.3461017278609911
12625920000.0 -0.9418405811285868 -0.33605999425577143 1.126145472845632e-16 5.868101238618086e-18 1.126145472845632e-16 5.868101238618086e-18 -0.9418403556504136 -0.3360606261794502
12626537333.333334 -0.9453764770384308 -0.325980546447527 1.1264918439286648e-16 4.6539707311426314e-18 1.1264918439286648e-16 4.6539707311426314e-18 -0.9453762583337106 -0.3259811807125919
12627154666.666666 -0.9488045075447766 -0.3158639049694281 1.1267073993896165e-16 3.439775099307563e-18 1.1267073993896165e-16 3.439775099307563e-18 -0.9488042956377998 -0.3158645415032854
12627772000.0 -0.952124281516887 -0.30571122410826623 1.1267921653820738e-16 2.2256551997359593e-18 1.1267921653820738e-16 2.2256551997359593e-18 -0.9521240764311651 -0.30571186283807034
12628389333.333334 -0.9553354201758132 -0.29552366226298077 1.1267461832167976e-16 1.0117518252155542e-18 1.1267461832167976e-16 1.0117518252155542e-18 -0.9553352219340788 -0.295524303115643
12629006666.666666 -0.9584375571377242 -0.28530238181216583 1.12656950935101e-16 -2.0179431165552266e-19 1.12656950935101e-16 -2.0179431165552266e-19 -0.9584373657619254 -0.2853030247143622
12629624000.0 -0.9614303384555835 -0.27504854898182257 1.126262215375928e-16 -1.4148425947048334e-18 1.126262215375928e-16 -1.4148425947048334e-18 -0.9614301539668831 -0.27504919386000243
12630241333.333334 -0.9643134226596461 -0.26476333371194355 1.1258243880025448e-16 -2.6272525204938625e-18 1.1258243880025448e-16 -2.6272525204938625e-18 -0.9643132450784212 -0.26476398049233857
12630858666.666666 -0.9670864807963094 -0.2544479095234071 1.125256129045665e-16 -3.8388837145203625e-18 1.125256129045665e-16 -3.8388837145203625e-18 -0.9670863101421449 -0.2544485581320386
12631476000.0 -0.9697491964657885 -0.2441034533835608 1.1245575554061856e-16 -5.049595947501811e-18 1.1245575554061856e-16 -5.049595947501811e-18 -0.9697490327574776 -0.24410410374624872
12632093333.333334 -0.9723012658580605 -0.2337311455725073 1.1237287990516584e-16 -6.2592491515269215e-18 1.1237287990516584e-16 -6.2592491515269215e-18 -0.9723011091136016 -0.23373179761487883
12632710666.666666 -0.9747423977876258 -0.22333216954808116 1.1227700069950958e-16 -7.467703436242898e-18 1.1227700069950958e-16 -7.467703436242898e-18 -0.9747422480242222 -0.2233328231955793
12633328000.0 -0.9770723137267415 -0.21290771181076246 1.1216813412720266e-16 -8.674819105041305e-18 1.1216813412720266e-16 -8.674819105041305e-18 -0.977072170960798 -0.21290836698865426
12633945333.333334 -0.9792907478371228 -0.2024589617686317 1.1204629789158525e-16 -9.880456671141678e-18 1.1204629789158525e-16 -9.880456671141678e-18 -0.9792906120842433 -0.20245961840201673
12634562666.666666 -0.9813974470003431 -0.19198711160135584 1.1191151119314635e-16 -1.1084476873689302e-17 1.1191151119314635e-16 -1.1084476873689302e-17 -0.9813973182753316 -0.19198776961517522
12635180000.0 -0.9833921708466921 -0.18149335612427478 1.1176379472671077e-16 -1.2286740693829984e-17 1.1176379472671077e-16 -1.2286740693829984e-17 -0.9833920491635482 -0.18149401544331942
12635797333.333334 -0.9852746917825884 -0.17097889265213095 1.1160317067845588e-16 -1.3487109370728174e-17 1.1160317067845588e-16 -1.3487109370728174e-17 -0.9852745771545064 -0.1709795532010499
12636414666.666666 -0.9870447950165628 -0.16044492086237427 1.1142966272275882e-16 -1.468544441753311e-17 1.1142966272275882e-16 -1.468544441753311e-17 -0.9870446874559328 -0.160445582565684
12637032000.0 -0.9887022785837617 -0.14989264265833863 1.1124329601886564e-16 -1.5881607637370447e-17 1.1124329601886564e-16 -1.5881607637370447e-17 -0.9887021781021643 -0.1498933054404311
12637649333.333334 -0.990246953369 -0.1393232620319938 1.1104409720739776e-16 -1.7075461139214623e-17 1.1104409720739776e-16 -1.7075461139214623e-17 -0.9902468599772083 -0.13932392581714537
12638266666.666666 -0.9916786431283161 -0.12873798492677013 1.108320944066817e-16 -1.8266867353783105e-17 1.108320944066817e-16 -1.8266867353783105e-17 -0.9916785568362916 -0.12873864963914994
12638884000.0 -0.9929971845091031 -0.11813801909976533 1.1060731720891165e-16 -1.9455689049352098e-17 1.1060731720891165e-16 -1.9455689049352098e-17 -0.9929971053259992 -0.11813868466344445
12639501333.333334 -0.9942024270687446 -0.1075245739839991 1.1036979667614444e-16 -2.0641789347530337e-17 1.1036979667614444e-16 -2.0641789347530337e-17 -0.9942023550028999 -0.10752524032295858
12640118666.666666 -0.9952942332917453 -0.09689886055067279 1.1011956533612368e-16 -2.1825031738992025e-17 1.1011956533612368e-16 -2.1825031738992025e-17 -0.9952941683506875 -0.09689952758881286
12640736000.0 -0.9962724786054968 -0.08626209117035097 1.0985665717792692e-16 -2.300528009920133e-17 1.0985665717792692e-16 -2.300528009920133e-17 -0.996272420795939 -0.08626275883149946
12641353333.333334 -0.9971370513943946 -0.07561547947553697 1.0958110764747172e-16 -2.418239870396131e-17 1.0958110764747172e-16 -2.418239870396131e-17 -0.9971370007222355 -0.07561614768345801
12641970666.666666 -0.9978878530126519 -0.06496024022140809 1.0929295364281777e-16 -2.5356252245081947e-17 1.0929295364281777e-16 -2.5356252245081947e-17 -0.9978878094829765 -0.06496090889981097
12642588000.0 -0.9985247977955202 -0.05429758914758254 1.0899223350933408e-16 -2.6526705845850508e-17 1.0899223350933408e-16 -2.6526705845850508e-17 -0.9985247614125966 -0.054298258220130256
12643205333.333334 -0.9990478130690591 -0.04362874283946296 1.0867898703468139e-16 -2.769362507652662e-17 1.0867898703468139e-16 -2.769362507652662e-17 -0.9990477838363422 -0.04362941222978112
12643822666.666666 -0.9994568391584528 -0.032954918589143296 1.0835325544363484e-16 -2.885687596975777e-17 1.0835325544363484e-16 -2.885687596975777e-17 -0.9994568170785784 -0.032955588220828544
12644440000.0 -0.9997518293947938 -0.02227733425674484 1.0801508139274892e-16 -3.0016325035907433e-17 1.0801508139274892e-16 -3.0016325035907433e-17 -0.9997518144695817 -0.022278004053373802
12645057333.333334 -0.9999327501204162 -0.01159720813148996 1.0766450896484624e-16 -3.11718392783712e-17 1.0766450896484624e-16 -3.11718392783712e-17 -0.9999327423508715 -0.011597878016627948
12645674666.666666 -0.9999995806927405 -0.0009157587926410927 1.0730158366335597e-16 -3.232328620878058e-17 1.0730158366335597e-16 -3.232328620878058e-17 -0.9999995800790517 -0.0009164286898507642
12646292000.0 -0.9999523134866278 0.009765795029792367 1.0692635240646988e-16 -3.347053386220904e-17 1.0692635240646988e-16 -3.347053386220904e-17 -0.9999523200281659 0.009765125196942283
12646909333.333334 -0.9997909538952451 0.02044623459368221 1.0653886352116529e-16 -3.461345081222025e-17 1.0653886352116529e-16 -3.461345081222025e-17 -0.9997909675905648 0.020445564901608166
12647526666.666666 -0.9995155203294535 0.031124341284036156 1.0613916673704451e-16 -3.575190618591779e-17 1.0613916673704451e-16 -3.575190618591779e-17 -0.9995155411762944 0.031123671809131098
12648144000.0 -0.999126044215706 0.041798896752181326 1.0572731318001627e-16 -3.688576967891878e-17 1.0572731318001627e-16 -3.688576967891878e-17 -0.999126072210991 0.04179822757080594
12648761333.333334 -0.998622569992458 0.05246868305457601 1.0530335536582918e-16 -3.801491157021932e-17 1.0530335536582918e-16 -3.801491157021932e-17 -0.9986226051322964 0.05246801424305009
12649378666.666666 -0.9980051551051133 0.06313248279168966 1.0486734719344417e-16 -3.91392027369991e-17 1.0486734719344417e-16 -3.91392027369991e-17 -0.9980051973847973 0.06313181442628327
12649996000.0 -0.997273869999443 0.07378907924724575 1.0441934393823229e-16 -4.0258514669392224e-17 1.0441934393823229e-16 -4.0258514669392224e-17 -0.9972739194134538 0.07378841140417076
12650613333.333334 -0.996428798113574 0.08443725652673469 1.0395940224503498e-16 -4.137271948513064e-17 1.0395940224503498e-16 -4.137271948513064e-17 -0.996428854655576 0.08443658928213578
12651230666.666666 -0.9954700358684561 0.09507579969622963 1.034875801210702e-16 -4.248168994410647e-17 1.034875801210702e-16 -4.248168994410647e-17 -0.9954700995313035 0.09507513312617591
12651848000.0 -0.9943976926568489 0.1057034949212061 1.0300393692865534e-16 -4.358529946292175e-17 1.0300393692865534e-16 -4.358529946292175e-17 -0.9943977634325833 0.10570282910168222
12652465333.333334 -0.9932118908308681 0.1163191296046981 1.0250853337780969e-16 -4.4683422129274047e-17 1.0250853337780969e-16 -4.4683422129274047e-17 -0.99321196871072 0.11631846461159559
12653082666.666666 -0.9919127656880086 0.12692149252585103 1.0200143151869373e-16 -4.577593271628548e-17 1.0200143151869373e-16 -4.577593271628548e-17 -0.9919128506623992 0.12692082843495986
12653700000.0 -0.9905004654556981 0.13750937397817556 1.0148269473386892e-16 -4.6862706696804313e-17 1.0148269473386892e-16 -4.6862706696804313e-17 -0.9905005575142406 0.1375087108651753
12654317333.333334 -0.9889751512744102 0.1480815659073751 1.0095238773045782e-16 -4.7943620257507234e-17 1.0095238773045782e-16 -4.7943620257507234e-17 -0.9889752504059109 0.14808090384782652
12654934666.666666 -0.9873369971792558 0.15863686204937982 1.0041057653210182e-16 -4.9018550313025796e-17 1.0041057653210182e-16 -4.9018550313025796e-17 -0.9873371033717132 0.15863620111871582
12655552000.0 -0.9855861900801288 0.16917405806789323 9.985732847079552e-17 -5.0087374519925195e-17 9.985732847079552e-17 -5.0087374519925195e-17 -0.9855863033207397 0.16917339834141096
12656169333.333334 -0.9837229297403989 0.17969195169174948 9.929271217858657e-17 -5.114997129056643e-17 9.929271217858657e-17 -5.114997129056643e-17 -0.983723050015555 0.179691293244601
12656786666.666666 -0.9817474287541028 0.1901893428521449 9.871679757908738e-17 -5.2206219806954654e-17 9.871679757908738e-17 -5.2206219806954654e-17 -0.9817475560493963 0.1901886857593294
12657404000.0 -0.9796599125216845 0.2006650338196205 9.812965587887549e-17 -5.32560000344251e-17 9.812965587887549e-17 -5.32560000344251e-17 -0.9796600468219062 0.20066437815597474
12658021333.333334 -0.9774606192242729 0.21111782934069023 9.753135955873778e-17 -5.429919273525244e-17 9.753135955873778e-17 -5.429919273525244e-17 -0.9774607605134173 0.21111717518088113
12658638666.666666 -0.9751497997965604 0.22154653677399613 9.692198236476718e-17 -5.533567948217146e-17 9.692198236476718e-17 -5.533567948217146e-17 -0.9751499480578264 0.22154588419251167
12659256000.0 -0.9727277178980677 0.23194996622685787 9.630159929931415e-17 -5.636534267179738e-17 9.630159929931415e-17 -5.636534267179738e-17 -0.9727278731138596 0.23194931529799853
12659873333.333334 -0.9701946498831632 0.2423269306905645 9.567028661180372e-17 -5.738806553793527e-17 9.567028661180372e-17 -5.738806553793527e-17 -0.970194812035094 0.2423262814884351
12660490666.666666 -0.9675508847694919 0.25267624617600487 9.502812178941322e-17 -5.840373216478441e-17 9.502812178941322e-17 -5.840373216478441e-17 -0.9675510538383842 0.25267559877450585
12661108000.0 -0.9647967242049459 0.26299673184894995 9.437518354759272e-17 -5.94122275000655e-17 9.437518354759272e-17 -5.94122275000655e-17 -0.964796900170837 0.26299608632176946
12661725333.333334 -0.9619324824333711 0.2732872101643164 9.371155182047302e-17 -6.041343736800301e-17 9.371155182047302e-17 -6.041343736800301e-17 -0.9619326652755111 0.2732865665849211
12662342666.666666 -0.9589584862585795 0.2835465070010158 9.30373077511081e-17 -6.140724848224304e-17 9.30373077511081e-17 -6.140724848224304e-17 -0.9589586759554374 0.2835458654426433
12662960000.0 -0.9558750750071594 0.2937734517955632 9.235253368160911e-17 -6.239354845862076e-17 9.235253368160911e-17 -6.239354845862076e-17 -0.9558752715364245 0.2937728123312135
12663577333.333334 -0.9526826004896983 0.30396687767585484 9.165731314311515e-17 -6.337222582786048e-17 9.165731314311515e-17 -6.337222582786048e-17 -0.9526828038282814 0.30396624037828146
12664194666.666666 -0.949381426960664 0.3141256215942234 9.095173084565878e-17 -6.434317004812289e-17 9.095173084565878e-17 -6.434317004812289e-17 -0.9493816370847016 0.3141249865359258
12664812000.0 -0.9459719310768686 0.32424852446005753 9.023587266787128e-17 -6.530627151747867e-17 9.023587266787128e-17 -6.530627151747867e-17 -0.9459721479617258 0.32424789171327256
12665429333.333334 -0.9424545018544248 0.3343344312722682 8.950982564657307e-17 -6.626142158624503e-17 8.950982564657307e-17 -6.626142158624503e-17 -0.9424547254746987 0.33433380090896253
12666046666.666666 -0.9388295406244809 0.34438219125072356 8.87736779662459e-17 -6.720851256919233e-17 8.87736779662459e-17 -6.720851256919233e-17 -0.9388297709540006 0.34438156334258413
12666664000.0 -0.9350974609872545 0.35439065796803015 8.80275189483274e-17 -6.81474377576966e-17 8.80275189483274e-17 -6.81474377576966e-17 -0.9350976979990879 0.3543900325864572
12667281333.333334 -0.9312586887650086 0.36435868947988487 8.727143904044426e-17 -6.907809143168914e-17 8.727143904044426e-17 -6.907809143168914e-17 -0.9312589324314634 0.36435806669598353
12667898666.666666 -0.9273136619534007 0.37428514845555616 8.650552980547234e-17 -7.000036887154689e-17 8.650552980547234e-17 -7.000036887154689e-17 -0.9273139122460268 0.37428452834012754
12668516000.0 -0.9232628306714281 0.3841689023078331 8.572988391047302e-17 -7.091416636985904e-17 8.572988391047302e-17 -7.091416636985904e-17 -0.9232630875610239 0.38416828493136795
12669133333.333334 -0.9191066571102555 0.39400882332180526 8.494459511554225e-17 -7.18193812430281e-17 8.494459511554225e-17 -7.18193812430281e-17 -0.9191069205668696 0.3940082087544747
12669750666.666666 -0.9148456154802985 0.4038037887839795 8.414975826249926e-17 -7.271591184279407e-17 8.414975826249926e-17 -7.271591184279407e-17 -0.9148458854732316 0.4038031770956267
