! Parameters = {f0=12700.012000; bw=77.238000; Q=6100.000000; N=10; m_0_1=1.214109; m_1_1=-0.553109; m_1_2=1.048921; m_2_2=-0.553758; m_2_3=0.685884; m_2_8=-0.002231; m_2_9=0.034473; m_3_3=-0.555695; m_3_4=0.574413; m_3_7=-0.001631; m_3_8=-0.098719; m_3_9=-0.002231; m_4_4=-0.558620; m_4_5=0.410748; m_4_6=0.001886; m_4_7=-0.119268; m_4_8=-0.001631; m_5_5=-0.558238; m_5_6=0.818103; m_5_7=0.001886; m_6_6=-0.558239; m_6_7=0.411090; m_7_7=-0.558606; m_7_8=0.574531; m_8_8=-0.555697; m_8_9=0.686197; m_9_9=-0.553763; m_9_10=1.049999; m_10_10=-0.553119; m_10_11=1.214904}
!
! Created with skrf (http://scikit-rf.org).
# Hz S RI R 50.0 
!freq ReS11 ImS11 ReS21 ImS21 ReS12 ImS12 ReS22 ImS22
12607400000.0 -0.9996686503286392 0.025740814865799495 8.021923906754275e-17 -2.6028761194231425e-17 8.021923906754275e-17 -2.6028761194231425e-17 -0.9996686667964523 0.025740175314890815
12608017333.333334 -0.9994009841128426 0.03460741183794998 7.996715643158821e-17 -2.674118089605365e-17 7.996715643158821e-17 -2.674118089605365e-17 -0.9994010062520907 0.034606772489591583
12608634666.666666 -0.9990546768455527 0.04347128561323563 7.970875256388476e-17 -2.7451174715568736e-17 7.970875256388476e-17 -2.7451174715568736e-17 -0.9990547046539392 0.0434706465177144
12609252000.0 -0.9986297557771227 0.05233173870953023 7.944405068079168e-17 -2.8158686616494565e-17 7.944405068079168e-17 -2.8158686616494565e-17 -0.9986297892519049 0.05233109991710827
12609869333.333334 -0.9981262543438806 0.06118807391390389 7.91730744949503e-17 -2.8863660783666795e-17 7.91730744949503e-17 -2.8863660783666795e-17 -0.9981262934818689 0.061187435474814415
12610486666.666666 -0.9975442121655117 0.0700395943372584 7.889584821319472e-17 -2.9566041627409906e-17 7.889584821319472e-17 -2.9566041627409906e-17 -0.9975442569630714 0.07003895630170194
12611104000.0 -0.9968836750419116 0.07888560346964647 7.86123965344051e-17 -3.026577378793758e-17 7.86123965344051e-17 -3.026577378793758e-17 -0.9968837254949652 0.07888496588778701
12611721333.333334 -0.9961446949496188 0.0877254052345686 7.832274464734903e-17 -3.096280213966368e-17 7.832274464734903e-17 -3.096280213966368e-17 -0.9961447510536418 0.08772476815652935
12612338666.666666 -0.995327330037696 0.09655830404408584 7.802691822845518e-17 -3.165707179556881e-17 7.802691822845518e-17 -3.165707179556881e-17 -0.9953273917877201 0.0965576675199455
12612956000.0 -0.9944316446231649 0.10538360485344124 7.772494343956554e-17 -3.234852811150108e-17 7.772494343956554e-17 -3.234852811150108e-17 -0.9944317120137792 0.10538296893323013
12613573333.333334 -0.9934577091859543 0.11420061321566674 7.741684692565404e-17 -3.303711669044722e-17 7.741684692565404e-17 -3.303711669044722e-17 -0.9934577822113042 0.11419997794936268
12614190666.666666 -0.9924056003633374 0.12300863533639778 7.710265581248966e-17 -3.372278338682418e-17 7.710265581248966e-17 -3.372278338682418e-17 -0.9924056790171252 0.12300800077392228
12614808000.0 -0.991275400943907 0.1318069781283815 7.67823977042803e-17 -3.440547431070454e-17 7.67823977042803e-17 -3.440547431070454e-17 -0.9912754852193927 0.13180634431959576
12615425333.333334 -0.9900671998610748 0.1405949492659303 7.645610068126443e-17 -3.508513583205527e-17 7.645610068126443e-17 -3.508513583205527e-17 -0.9900672897510772 0.14059431626063137
12616042666.666666 -0.9887810921860516 0.14937185723956878 7.612379329727561e-17 -3.5761714584929495e-17 7.612379329727561e-17 -3.5761714584929495e-17 -0.9887811876829483 0.14937122508748568
12616660000.0 -0.9874171791203749 0.15813701141036263 7.578550457726469e-17 -3.6435157471648995e-17 7.578550457726469e-17 -3.6435157471648995e-17 -0.987417280216103 0.15813638016115222
12617277333.333334 -0.9859755679879548 0.16688972206420738 7.544126401478929e-17 -3.7105411666952106e-17 7.544126401478929e-17 -3.7105411666952106e-17 -0.9859756746740123 0.16688909176745093
12617894666.666666 -0.9844563722266307 0.17562930046613012 7.50911015694644e-17 -3.7772424622127703e-17 7.50911015694644e-17 -3.7772424622127703e-17 -0.9844564844940745 0.17562867117132858
12618512000.0 -0.9828597113791999 0.18435505891467885 7.473504766436755e-17 -3.843614406913702e-17 7.473504766436755e-17 -3.843614406913702e-17 -0.9828598292186519 0.18435443067125015
12619129333.333334 -0.9811857110840821 0.19306631079570255 7.437313318343078e-17 -3.9096518024671895e-17 7.437313318343078e-17 -3.9096518024671895e-17 -0.981185834485724 0.19306568365297655
12619746666.666666 -0.9794345030653961 0.2017623706365463 7.400538946877557e-17 -3.9753494794226235e-17 7.400538946877557e-17 -3.9753494794226235e-17 -0.979434632018975 0.20176174464376184
12620364000.0 -0.9776062251225638 0.21044255416015772 7.363184831801229e-17 -4.0407022976142804e-17 7.363184831801229e-17 -4.0407022976142804e-17 -0.977606359617388 0.21044192936645778
12620981333.333334 -0.9757010211195303 0.21910617833859608 7.325254198152602e-17 -4.105705146559511e-17 7.325254198152602e-17 -4.105705146559511e-17 -0.9757011611444766 0.21910555479302507
12621598666.666666 -0.9737190409734119 0.22775256144697517 7.28675031596981e-17 -4.1703529458596204e-17 7.28675031596981e-17 -4.1703529458596204e-17 -0.9737191865169208 0.22775193919847417
12622216000.0 -0.9716604406426849 0.23638102311713333 7.247676500011707e-17 -4.234640645593787e-17 7.247676500011707e-17 -4.234640645593787e-17 -0.9716605916927644 0.2363804022145366
12622833333.333334 -0.9695253821149283 0.2449908843911149 7.208036109473514e-17 -4.298563226713941e-17 7.208036109473514e-17 -4.298563226713941e-17 -0.969525538659155 0.24499026488314626
12623450666.666666 -0.9673140333940929 0.2535814677745418 7.167832547700899e-17 -4.362115701433681e-17 7.167832547700899e-17 -4.362115701433681e-17 -0.9673141954196112 0.25358084970981015
12624068000.0 -0.9650265684872721 0.2621520972899514 7.127069261898798e-17 -4.425293113617622e-17 7.127069261898798e-17 -4.425293113617622e-17 -0.965026735980797 0.2621514807169477
12624685333.333334 -0.9626631673909605 0.27070209853018057 7.085749742838084e-17 -4.488090539166001e-17 7.085749742838084e-17 -4.488090539166001e-17 -0.9626633403387787 0.2707014834972736
12625302666.666666 -0.9602240160769933 0.279230798711049 7.043877524558993e-17 -4.550503086396389e-17 7.043877524558993e-17 -4.550503086396389e-17 -0.9602241944649621 0.2792301852664814
12625920000.0 -0.9577093064777822 0.28773752672476516 7.001456184069243e-17 -4.6125258964256354e-17 7.001456184069243e-17 -4.6125258964256354e-17 -0.9577094902913342 0.28773691491665043
12626537333.333334 -0.9551192364713558 0.2962216131922432 6.958489341041846e-17 -4.674154143544459e-17 6.958489341041846e-17 -4.674154143544459e-17 -0.9551194256954963 0.2962210030685607
12627154666.666666 -0.9524540098656904 0.3046823905161013 6.914980657507753e-17 -4.735383035592009e-17 6.914980657507753e-17 -4.735383035592009e-17 -0.9524542044850027 0.3046817821246939
12627772000.0 -0.9497138363826506 0.3131191929332768 6.870933837543911e-17 -4.796207814329566e-17 6.870933837543911e-17 -4.796207814329566e-17 -0.9497140363812931 0.3131185863218457
12628389333.333334 -0.9468989316416275 0.3215313565669511 6.826352626962081e-17 -4.8566237558054695e-17 6.826352626962081e-17 -4.8566237558054695e-17 -0.9468991370033366 0.32153075178305296
12629006666.666666 -0.944009517142391 0.3299182194793578 6.781240812989658e-17 -4.916626170723985e-17 6.781240812989658e-17 -4.916626170723985e-17 -0.9440097278504841 0.3299176165704011
12629624000.0 -0.9410458202477926 0.3382791217234646 6.735602223951769e-17 -4.976210404805076e-17 6.735602223951769e-17 -4.976210404805076e-17 -0.941046036285168 0.3382785207367056
12630241333.333334 -0.9380080741658038 0.34661340539511837 6.689440728946349e-17 -5.035371839146385e-17 6.689440728946349e-17 -5.035371839146385e-17 -0.9380082955149407 0.3466128063776571
12630858666.666666 -0.9348965179312567 0.35492041468454644 6.642760237519248e-17 -5.0941058905780574e-17 6.642760237519248e-17 -5.0941058905780574e-17 -0.9348967445742205 0.3549198176833242
12631476000.0 -0.9317113963868767 0.36319949592841666 6.595564699332876e-17 -5.1524080120189044e-17 6.595564699332876e-17 -5.1524080120189044e-17 -0.9317116283053155 0.3631989009902105
12632093333.333334 -0.9284529601641751 0.3714499976608174 6.547858103836151e-17 -5.210273692823891e-17 6.547858103836151e-17 -5.210273692823891e-17 -0.9284531973393251 0.3714494048322381
12632710666.666666 -0.9251214656636532 0.3796712706647346 6.499644479927118e-17 -5.2676984591340075e-17 6.499644479927118e-17 -5.2676984591340075e-17 -0.9251217080763388 0.37967067999222237
12633328000.0 -0.9217171750346155 0.3878626680231642 6.450927895614146e-17 -5.3246778742209737e-17 6.450927895614146e-17 -5.3246778742209737e-17 -0.921717422665251 0.38786207955298513
12633945333.333334 -0.9182403561545719 0.3960235451699367 6.401712457675496e-17 -5.3812075388271934e-17 6.401712457675496e-17 -5.3812075388271934e-17 -0.9182406089831622 0.3960229589481787
12634562666.666666 -0.914691282608135 0.40415325994048895 6.352002311313773e-17 -5.437283091505119e-17 6.352002311313773e-17 -5.437283091505119e-17 -0.9146915406142788 0.4041526760130589
12635180000.0 -0.9110702336655414 0.41225117262229183 6.301801639809135e-17 -5.492900208951491e-17 6.301801639809135e-17 -5.492900208951491e-17 -0.9110704968284317 0.4122505910349114
12635797333.333334 -0.907377494260595 0.42031664600536994 6.251114664167719e-17 -5.548054606340498e-17 6.251114664167719e-17 -5.548054606340498e-17 -0.9073777625590205 0.4203160668035721
12636414666.666666 -0.9036133549683371 0.42834904543223407 6.199945642769525e-17 -5.602742037651085e-17 6.199945642769525e-17 -5.602742037651085e-17 -0.9036136283806853 0.42834846866135995
12637032000.0 -0.8997781119820886 0.4363477388480285 6.148298871010893e-17 -5.656958295993817e-17 6.148298871010893e-17 -5.656958295993817e-17 -0.8997783904863472 0.4363471645532237
12637649333.333334 -0.8958720670902409 0.44431209685006157 6.096178680946717e-17 -5.710699213931681e-17 6.096178680946717e-17 -5.710699213931681e-17 -0.895872350663998 0.44431152507627175
12638266666.666666 -0.89189552765242 0.4522414927375093 6.043589440927476e-17 -5.76396066380024e-17 6.043589440927476e-17 -5.76396066380024e-17 -0.8918958162728673 0.45224092352947803
12638884000.0 -0.8878488065753527 0.46013530256062946 5.990535555235219e-17 -5.816738558022519e-17 5.990535555235219e-17 -5.816738558022519e-17 -0.8878491002192872 0.46013473596289356
12639501333.333334 -0.8837322222882026 0.4679929051699322 5.93702146371571e-17 -5.869028849421786e-17 5.93702146371571e-17 -5.869028849421786e-17 -0.8837325209320291 0.46799234122681954
12640118666.666666 -0.8795460987176521 0.4758136822648095 5.883051641410022e-17 -5.920827531528783e-17 5.883051641410022e-17 -5.920827531528783e-17 -0.8795464023373829 0.47581312102043394
12640736000.0 -0.8752907652621131 0.48359701844273695 5.828630598178028e-17 -5.972130638890865e-17 5.828630598178028e-17 -5.972130638890865e-17 -0.8752910738333712 0.4835964599409954
12641353333.333334 -0.8709665567661711 0.491342301247022 5.773762878327801e-17 -6.022934247369526e-17 5.773762878327801e-17 -6.022934247369526e-17 -0.8709668702641946 0.4913417455315929
12641970666.666666 -0.8665738134939993 0.4990489212154515 5.718453060233616e-17 -6.073234474442811e-17 5.718453060233616e-17 -6.073234474442811e-17 -0.8665741318936395 0.49904836832978855
12642588000.0 -0.8621128811026324 0.5067162719281452 5.662705755957763e-17 -6.123027479498263e-17 5.662705755957763e-17 -6.123027479498263e-17 -0.8621132043783565 0.5067157219154751
12643205333.333334 -0.857584110614809 0.5143437500551999 5.606525610866183e-17 -6.172309464125811e-17 5.606525610866183e-17 -6.172309464125811e-17 -0.8575844387407051 0.5143432029585201
12643822666.666666 -0.8529878583912679 0.5219307554043137 5.549917303242745e-17 -6.221076672405974e-17 5.549917303242745e-17 -6.221076672405974e-17 -0.8529881913410432 0.5219302112663866
12644440000.0 -0.8483244861028337 0.5294766909677913 5.492885543901627e-17 -6.269325391194132e-17 5.492885543901627e-17 -6.269325391194132e-17 -0.8483248238498197 0.5294761498311435
12645057333.333334 -0.8435943607018597 0.5369809629696953 5.4354350757972136e-17 -6.317051950401235e-17 5.4354350757972136e-17 -6.317051950401235e-17 -0.8435947032190116 0.5369804248766122
12645674666.666666 -0.8387978543933922 0.5444429809124934 5.3775706736299725e-17 -6.364252723272362e-17 5.3775706736299725e-17 -6.364252723272362e-17 -0.8387982016532943 0.5444424459050181
12646292000.0 -0.8339353446058266 0.5518621576236232 5.319297143450449e-17 -6.410924126661192e-17 5.319297143450449e-17 -6.410924126661192e-17 -0.8339356965806921 0.5518616257435508
12646909333.333334 -0.8290072139613133 0.5592379093015248 5.260619322263454e-17 -6.457062621298763e-17 5.260619322263454e-17 -6.457062621298763e-17 -0.829007570622987 0.559237380590401
12647526666.666666 -0.8240138502455573 0.5665696555617253 5.201542077626836e-17 -6.502664712061191e-17 5.201542077626836e-17 -6.502664712061191e-17 -0.8240142115655172 0.5665691300608412
12648144000.0 -0.8189556463772858 0.5738568194825276 5.142070307248125e-17 -6.547726948233562e-17 5.142070307248125e-17 -6.547726948233562e-17 -0.8189560123266472 0.5738562972329188
12648761333.333334 -0.8138330003774598 0.581098827650222 5.08220893858132e-17 -6.592245923768244e-17 5.08220893858132e-17 -6.592245923768244e-17 -0.813833370926976 0.5810983086926639
12649378666.666666 -0.808646315337858 0.5882951102043472 5.0219629284195883e-17 -6.63621827754098e-17 5.0219629284195883e-17 -6.63621827754098e-17 -0.8086466904579246 0.5882945945793527
12649996000.0 -0.803395999389344 0.5954451008825559 4.961337262485987e-17 -6.679640693603177e-17 4.961337262485987e-17 -6.679640693603177e-17 -0.8033963790499977 0.595444588630371
12650613333.333334 -0.7980824656697606 0.6025482370651456 4.900336955021592e-17 -6.722509901430669e-17 4.900336955021592e-17 -6.722509901430669e-17 -0.7980828498406857 0.6025477282257475
12651230666.666666 -0.7927061322915637 0.6096039598191523 4.838967048373647e-17 -6.764822676167287e-17 4.838967048373647e-17 -6.764822676167287e-17 -0.7927065209420905 0.6096034544322451
12651848000.0 -0.7872674223086431 0.6166117139426917 4.7772326125777344e-17 -6.806575838867354e-17 4.7772326125777344e-17 -6.806575838867354e-17 -0.7872678154077551 0.6166112120477052
12652465333.333334 -0.7817667636832433 0.6235709480083779 4.715138744942746e-17 -6.847766256731048e-17 4.715138744942746e-17 -6.847766256731048e-17 -0.781767161199575 0.6235704496444624
12653082666.666666 -0.7762045892523396 0.6304811144066473 4.6526905696301474e-17 -6.888390843338532e-17 4.6526905696301474e-17 -6.888390843338532e-17 -0.7762049911541808 0.6304806196126708
12653700000.0 -0.7705813366932944 0.6373416693892026 4.589893237231229e-17 -6.928446558880246e-17 4.589893237231229e-17 -6.928446558880246e-17 -0.7705817429485953 0.6373411782037505
12654317333.333334 -0.7648974484897426 0.6441520731114052 4.5267519243461305e-17 -6.967930410380881e-17 4.5267519243461305e-17 -6.967930410380881e-17 -0.7648978590661116 0.6441515855727735
12654934666.666666 -0.759153371896554 0.6509117896750161 4.463271833156238e-17 -7.006839451922631e-17 4.463271833156238e-17 -7.006839451922631e-17 -0.759153786761264 0.6509113058212108
12655552000.0 -0.7533495589047118 0.6576202871702763 4.399458190997615e-17 -7.04517078486264e-17 4.399458190997615e-17 -7.04517078486264e-17 -0.7533499780247004 0.6576198070390094
12656169333.333334 -0.747486466205803 0.6642770377176986 4.3353162499324706e-17 -7.08292155804676e-17 4.3353162499324706e-17 -7.08292155804676e-17 -0.7474868895476774 0.6642765613463858
12656786666.666666 -0.7415645551559722 0.6708815175097353 4.2708512863169286e-17 -7.12008896802048e-17 4.2708512863169286e-17 -7.12008896802048e-17 -0.7415649826860097 0.6708810449354925
12657404000.0 -0.7355842917396701 0.6774332068519282 4.2060686003688425e-17 -7.15667025923482e-17 4.2060686003688425e-17 -7.15667025923482e-17 -0.7355847234238229 0.6774327381115697
12658021333.333334 -0.7295461465330286 0.6839315902037635 4.1409735157336966e-17 -7.192662724248488e-17 4.1409735157336966e-17 -7.192662724248488e-17 -0.7295465823369238 0.6839311253337972
12658638666.666666 -0.7234505946668105 0.6903761562192591 4.075571379048192e-17 -7.228063703926477e-17 4.075571379048192e-17 -7.228063703926477e-17 -0.7234510345557555 0.6903756952558855
12659256000.0 -0.7172981157888864 0.6967663977873446 4.0098675595010595e-17 -7.262870587635159e-17 4.0098675595010595e-17 -7.262870587635159e-17 -0.7172985597278712 0.696765940766454
12659873333.333334 -0.711089194026729 0.7031018120715216 3.9438674483949997e-17 -7.297080813432057e-17 3.9438674483949997e-17 -7.297080813432057e-17 -0.7110896419804263 0.7031013590286889
12660490666.666666 -0.7048243179491964 0.7093819005495494 3.8775764587063496e-17 -7.330691868251923e-17 3.8775764587063496e-17 -7.330691868251923e-17 -0.7048247698819684 0.7093814515200344
12661108000.0 -0.6985039805279706 0.7156061690527973 3.8110000246390385e-17 -7.363701288091033e-17 3.8110000246390385e-17 -7.363701288091033e-17 -0.6985044364038691 0.7156057240715402
12661725333.333334 -0.6921286790990056 0.721774127804887 3.7441436011841233e-17 -7.396106658183803e-17 3.7441436011841233e-17 -7.396106658183803e-17 -0.692129138881776 0.7217736869065065
12662342666.666666 -0.6856989153232539 0.7278852914603744 3.677012663671302e-17 -7.427905613178652e-17 3.677012663671302e-17 -7.427905613178652e-17 -0.6856993789763367 0.7278848546791631
12662960000.0 -0.6792151951471677 0.7339391791429561 3.6096127073236374e-17 -7.459095837307577e-17 3.6096127073236374e-17 -7.459095837307577e-17 -0.6792156626337037 0.7339387465128809
12663577333.333334 -0.6726780287629516 0.7399353144832541 3.5419492468074445e-17 -7.489675064553301e-17 3.5419492468074445e-17 -7.489675064553301e-17 -0.6726785000457832 0.7399348860379513
12664194666.666666 -0.6660879305683715 0.7458732256563337 3.474027815783158e-17 -7.519641078811278e-17 3.474027815783158e-17 -7.519641078811278e-17 -0.6660884056100467 0.7458728014291085
12664812000.0 -0.6594454191263672 0.7517524454187628 3.4058539664535424e-17 -7.548991714048182e-17 3.4058539664535424e-17 -7.548991714048182e-17 -0.6594458978891405 0.7517520254425828
12665429333.333334 -0.6527510171240942 0.7575725111455022 3.3374332691116854e-17 -7.577724854455879e-17 3.3374332691116854e-17 -7.577724854455879e-17 -0.6527514995699313 0.7575720954529982
12666046666.666666 -0.6460052513319652 0.7633329648661612 3.2687713116868483e-17 -7.605838434601682e-17 3.2687713116868483e-17 -7.605838434601682e-17 -0.6460057374225471 0.7633325534896254
12666664000.0 -0.6392086525620326 0.7690333533011884 3.199873699287783e-17 -7.633330439575049e-17 3.199873699287783e-17 -7.633330439575049e-17 -0.6392091422587555 0.7690329462725679
12667281333.333334 -0.6323617556263877 0.7746732278973845 3.130746053748966e-17 -7.660198905128438e-17 3.130746053748966e-17 -7.660198905128438e-17 -0.6323622488903687 0.7746728252482824
12667898666.666666 -0.6254650992949491 0.7802521448633123 3.0613940131717565e-17 -7.686441917815682e-17 3.0613940131717565e-17 -7.686441917815682e-17 -0.6254655960870287 0.7802517466249843
12668516000.0 -0.6185192262530229 0.7857696652042518 2.9918232314644205e-17 -7.712057615126188e-17 2.9918232314644205e-17 -7.712057615126188e-17 -0.6185197265337666 0.7857692714076023
12669133333.333334 -0.6115246830588869 0.7912253547565122 2.922039377885236e-17 -7.737044185613415e-17 2.922039377885236e-17 -7.737044185613415e-17 -0.6115251867885912 0.7912249654320946
12669750666.666666 -0.6044820201004284 0.7966187842218786 2.8520481365790543e-17 -7.761399869021281e-17 2.8520481365790543e-17 -7.761399869021281e-17 -0.604482527239122 0.7966183993998913
12670368000.0 -0.5973917915520143 0.8019495292012544 2.781855206117241e-17 -7.785122956404775e-17 2.781855206117241e-17 -7.785122956404775e-17 -0.5973923020594604 0.8019491489115375
