! Parameters = {f0=12700.012000; bw=77.238000; Q=6100.000000; N=10; m_0_1=1.257352; m_1_1=0.095540; m_1_2=1.092164; m_2_2=0.094891; m_2_3=0.729127; m_2_8=-0.000069; m_2_9=0.036635; m_3_3=0.092954; m_3_4=0.617656; m_3_7=0.000531; m_3_8=-0.096557; m_3_9=-0.000069; m_4_4=0.090029; m_4_5=0.453991; m_4_6=0.004048; m_4_7=-0.117106; m_4_8=0.000531; m_5_5=0.090411; m_5_6=0.861346; m_5_7=0.004048; m_6_6=0.090410; m_6_7=0.454333; m_7_7=0.090043; m_7_8=0.617774; m_8_8=0.092952; m_8_9=0.729440; m_9_9=0.094886; m_9_10=1.093242; m_10_10=0.095530; m_10_11=1.258147}
!
! Created with skrf (http://scikit-rf.org).
# Hz S RI R 50.0 
!freq ReS11 ImS11 ReS21 ImS21 ReS12 ImS12 ReS22 ImS22
12607400000.0 -0.5252051280791369 0.8509756597219482 2.7275242541052284e-17 -1.0052582127823995e-16 2.7275242541052284e-17 -1.0052582127823995e-16 -0.5252056918256165 0.8509753117886576
12608017333.333334 -0.5165416337288827 0.8562620747321017 2.6239534551988044e-17 -1.0078004478643317e-16 2.6239534551988044e-17 -1.0078004478643317e-16 -0.5165422009496864 0.8562617325548777
12608634666.666666 -0.5078249343951416 0.8614602927624687 2.5201481782083457e-17 -1.0102360511258357e-16 2.5201481782083457e-17 -1.0102360511258357e-16 -0.5078255050315063 0.8614599563759902
12609252000.0 -0.4990559279182364 0.866569778384577 2.416119393698332e-17 -1.0125648090787751e-16 2.416119393698332e-17 -1.0125648090787751e-16 -0.4990565019110543 0.8665694478229249
12609869333.333334 -0.49023551752614997 0.8715900053096611 2.3118780913555835e-17 -1.0147865195139114e-16 2.3118780913555835e-17 -1.0147865195139114e-16 -0.49023609481597247 0.8715896806063115
12610486666.666666 -0.4813646117417086 0.8765204564427355 2.2074352788319117e-17 -1.0169009915176343e-16 2.2074352788319117e-17 -1.0169009915176343e-16 -0.4813651922687536 0.8765201376305582
12611104000.0 -0.4724441242887069 0.8813606239360279 2.1028019805807416e-17 -1.0189080454876092e-16 2.1028019805807416e-17 -1.0189080454876092e-16 -0.4724447079928647 0.8813603110472831
12611721333.333334 -0.4634749739981388 0.8861100092410945 1.9979892366993566e-17 -1.0208075131470845e-16 1.9979892366993566e-17 -1.0208075131470845e-16 -0.46347556081897856 0.886109702307429
12612338666.666666 -0.4544580847133076 0.8907681231603092 1.8930081017644636e-17 -1.0225992375581215e-16 1.8930081017644636e-17 -1.0225992375581215e-16 -0.4544586745900833 0.8907678222127534
12612956000.0 -0.4453943851946669 0.8953344858972492 1.787869643666686e-17 -1.0242830731336255e-16 1.787869643666686e-17 -1.0242830731336255e-16 -0.4453949780663236 0.8953341909662142
12613573333.333334 -0.436284809024358 0.8998086271060133 1.6825849424496577e-17 -1.0258588856480899e-16 1.6825849424496577e-17 -1.0258588856480899e-16 -0.4362854048295383 0.8998083382212864
12614190666.666666 -0.4271302945098963 0.9041900859397412 1.5771650891412956e-17 -1.0273265522472611e-16 1.5771650891412956e-17 -1.0273265522472611e-16 -0.4271308931869471 0.904189803130486
12614808000.0 -0.41793178458750074 0.9084784110981036 1.4716211845890493e-17 -1.0286859614565333e-16 1.4716211845890493e-17 -1.0286859614565333e-16 -0.4179323860744787 0.9084781343928536
12615425333.333334 -0.4086902267250418 0.9126731608737388 1.3659643382928352e-17 -1.0299370131881788e-16 1.3659643382928352e-17 -1.0299370131881788e-16 -0.4086908309597204 0.9126728903003969
12616042666.666666 -0.39940657282442726 0.9167739031977693 1.2602056672377967e-17 -1.0310796187473733e-16 1.2602056672377967e-17 -1.0310796187473733e-16 -0.39940717974430295 0.9167736387836033
12616660000.0 -0.39008177912355263 0.9207802156843029 1.1543562947267553e-17 -1.0321137008370309e-16 1.1543562947267553e-17 -1.0321137008370309e-16 -0.39008238866585176 0.920779957455944
12617277333.333334 -0.3807168060977809 0.92469168567395 1.0484273492121479e-17 -1.0330391935614398e-16 1.0484273492121479e-17 -1.0330391935614398e-16 -0.38071741819946564 0.92469143365739
12617894666.666666 -0.3713126183611433 0.9285079102762771 9.424299631296556e-18 -1.0338560424286937e-16 9.424299631296556e-18 -1.0338560424286937e-16 -0.3713132329589183 0.9285076644968652
12618512000.0 -0.3618701845666641 0.9322284964114301 8.363752717268675e-18 -1.0345642043519636e-16 8.363752717268675e-18 -1.0345642043519636e-16 -0.3618708015969831 0.93222825689387
12619129333.333334 -0.3523904773070631 0.9358530608504343 7.302744119009356e-18 -1.035163647649508e-16 7.302744119009356e-18 -1.035163647649508e-16 -0.35239109670613594 0.9358528276187837
12619746666.666666 -0.34287447301415486 0.9393812302548381 6.2413852102650905e-18 -1.0356543520435673e-16 6.2413852102650905e-18 -1.0356543520435673e-16 -0.34287509471795313 0.9393810033325036
12620364000.0 -0.33332315185837635 0.9428126412151173 5.179787357899559e-18 -1.0360363086580079e-16 5.179787357899559e-18 -1.0360363086580079e-16 -0.3333237758026409 0.9428124206248546
12620981333.333334 -0.3237374976480424 0.9461469402880351 4.1180619102529994e-18 -1.0363095200147843e-16 4.1180619102529994e-18 -1.0363095200147843e-16 -0.3237381237682894 0.9461467260519448
12621598666.666666 -0.31411849772774414 0.9493837840331437 3.056320185455018e-18 -1.0364740000292307e-16 3.056320185455018e-18 -1.0364740000292307e-16 -0.31411912595927244 0.9493835761726708
12622216000.0 -0.3044671428767841 0.9525228390481115 1.994673459789314e-18 -1.0365297740041329e-16 1.994673459789314e-18 -1.0365297740041329e-16 -0.30446777315468065 0.9525226375840402
12622833333.333334 -0.2947844272070412 0.9555637820030876 9.332329560467385e-19 -1.0364768786226288e-16 9.332329560467385e-19 -1.0364768786226288e-16 -0.2947850594661888 0.9555635869555424
12623450666.666666 -0.285071348060793 0.9585062996739405 -1.278901680938234e-19 -1.0363153619399106e-16 -1.278901680938234e-19 -1.0363153619399106e-16 -0.2850719822358772 0.9585061110623841
12624068000.0 -0.2753289059076892 0.9613500889746157 -1.188584831699719e-18 -1.0360452833737436e-16 -1.188584831699719e-18 -1.0360452833737436e-16 -0.27532954193320447 0.9613499068178454
12624685333.333334 -0.26555810424178117 0.9640948569883246 -2.248740042197351e-18 -1.0356667136937918e-16 -2.248740042197351e-18 -1.0356667136937918e-16 -0.2655587420520374 0.9640946813044698
12625302666.666666 -0.2557599494784057 0.9667403209976461 -3.3082449069241193e-18 -1.0351797350097744e-16 -3.3082449069241193e-18 -1.0351797350097744e-16 -0.25576058900753534 0.9667401518041683
12625920000.0 -0.24593545085011095 0.9692862085137599 -4.366988644768385e-18 -1.0345844407584116e-16 -4.366988644768385e-18 -1.0345844407584116e-16 -0.24593609203207656 0.969286045827452
12626537333.333334 -0.23608562030308855 0.971732257304415 -5.424860597678435e-18 -1.0338809356892218e-16 -5.424860597678435e-18 -1.0338809356892218e-16 -0.23608626307168834 0.9717321011413964
12627154666.666666 -0.226211472392775 0.9740782154209796 -6.4817502422276375e-18 -1.0330693358491206e-16 -6.4817502422276375e-18 -1.0330693358491206e-16 -0.22621211668165056 0.9740780657966974
12627772000.0 -0.21631402417915693 0.9763238412244405 -7.537547201157926e-18 -1.0321497685658262e-16 -7.537547201157926e-18 -1.0321497685658262e-16 -0.21631466992179946 0.9763236981536658
12628389333.333334 -0.2063942951225093 0.9784689034101743 -8.592141254844853e-18 -1.031122372430146e-16 -8.592141254844853e-18 -1.031122372430146e-16 -0.20639494225226718 0.978468766907003
12629006666.666666 -0.1964533069778075 0.9805131810319074 -9.645422352826612e-18 -1.029987297277009e-16 -9.645422352826612e-18 -1.029987297277009e-16 -0.1964539554278922 0.9805130511097561
12629624000.0 -0.18649208368989917 0.9824564635243781 -1.0697280625234726e-17 -1.0287447041654087e-16 -1.0697280625234726e-17 -1.0287447041654087e-16 -0.18649273339339312 0.9824563401959847
12630241333.333334 -0.17651165128784163 0.9842985507250669 -1.1747606394251058e-17 -1.0273947653571191e-16 -1.1747606394251058e-17 -1.0273947653571191e-16 -0.1765123021777046 0.9842984340024898
12630858666.666666 -0.16651303777938628 0.9860392528947862 -1.2796290185505217e-17 -1.0259376642942922e-16 -1.2796290185505217e-17 -1.0259376642942922e-16 -0.1665136897884626 0.9860391427894025
12631476000.0 -0.1564972730447834 0.9876783907372756 -1.3843222739498617e-17 -1.0243735955758218e-16 -1.3843222739498617e-17 -1.0243735955758218e-16 -0.1564979261058083 0.9876782872597779
12632093333.333334 -0.1464653887310377 0.9892157954176094 -1.4888295022917142e-17 -1.0227027649326617e-16 -1.4888295022917142e-17 -1.0227027649326617e-16 -0.1464660427766449 0.9892156985780084
12632710666.666666 -0.13641841814559139 0.9906513085796044 -1.593139824000017e-17 -1.0209253892018791e-16 -1.593139824000017e-17 -1.0209253892018791e-16 -0.13641907310831977 0.9906512183872255
12633328000.0 -0.12635739614958133 0.9919847823621721 -1.6972423843848036e-17 -1.01904169629958e-16 -1.6972423843848036e-17 -1.01904169629958e-16 -0.12635805196188188 0.9919846988256554
12633945333.333334 -0.1162833590516115 0.993216079414496 -1.801126354767316e-17 -1.0170519251927486e-16 -1.801126354767316e-17 -1.0170519251927486e-16 -0.1162840156458543 0.9932160025417949
12634562666.666666 -0.10619734450084212 0.9943450729102035 -1.904780933605705e-17 -1.0149563258698622e-16 -1.904780933605705e-17 -1.0149563258698622e-16 -0.10619800180932334 0.9943450027085843
12635180000.0 -0.09610039138013753 0.9953716465604255 -2.0081953476157214e-17 -1.0127551593104046e-16 -2.0081953476157214e-17 -1.0127551593104046e-16 -0.0961010493350864 0.9953715830364672
12635797333.333334 -0.08599353969903048 0.9962956946257764 -2.1113588528885798e-17 -1.0104486974532208e-16 -2.1113588528885798e-17 -1.0104486974532208e-16 -0.08599419823261631 0.99629563778537
12636414666.666666 -0.07587783048671214 0.997117121927238 -2.2142607360038782e-17 -1.0080372231637718e-16 -2.2142607360038782e-17 -1.0080372231637718e-16 -0.07587848953105111 0.9971170717755832
12637032000.0 -0.06575430568463345 0.9978358438559721 -2.3168903151420304e-17 -1.0055210302001837e-16 -2.3168903151420304e-17 -1.0055210302001837e-16 -0.06575496517179595 0.9978358003975821
12637649333.333334 -0.05562400803926808 0.9984517863820342 -2.419236941188682e-17 -1.0029004231782722e-16 -2.419236941188682e-17 -1.0029004231782722e-16 -0.05562466790128548 0.9984517496207314
12638266666.666666 -0.045487980994791975 0.9989648860619903 -2.5212899988395375e-17 -1.0001757175353407e-16 -2.5212899988395375e-17 -1.0001757175353407e-16 -0.04548864116366363 0.9989648560009062
12638884000.0 -0.035347268585436076 0.9993750900454632 -2.623038907698077e-17 -9.973472394929301e-17 -2.623038907698077e-17 -9.973472394929301e-17 -0.03534792899313638 0.9993750666870389
12639501333.333334 -0.0252029153280334 0.9996823560805678 -2.724473123370902e-17 -9.94415326018417e-17 -2.724473123370902e-17 -9.94415326018417e-17 -0.025203575906518887 0.9996823394265563
12640118666.666666 -0.015055966114573594 0.9998866525182663 -2.8255821385566316e-17 -9.913803247855662e-17 -2.8255821385566316e-17 -9.913803247855662e-17 -0.01505662679578975 0.9998866425697267
12640736000.0 -0.004907466104121892 0.9999879583156318 -2.9263554841366513e-17 -9.882425941337855e-17 -2.9263554841366513e-17 -9.882425941337855e-17 -0.0049081268200103076 0.999987955072933
12641353333.333334 0.005241539384152673 0.9999862630380046 -3.0267827302502306e-17 -9.850025030266277e-17 -3.0267827302502306e-17 -9.850025030266277e-17 0.005240878701647312 0.9999862665008267
12641970666.666666 0.0153900049792727 0.9998815668600796 -3.1268534873777133e-17 -9.816604310088039e-17 -3.1268534873777133e-17 -9.816604310088039e-17 0.015389344398195628 0.9998815770274105
12642588000.0 0.025536885365730178 0.9996738805658801 -3.226557407410375e-17 -9.782167681623755e-17 -3.226557407410375e-17 -9.782167681623755e-17 0.02553622495410958 0.9996738974360193
12643205333.333334 0.03568113539135549 0.9993632255476543 -3.3258841847186234e-17 -9.746719150617672e-17 -3.3258841847186234e-17 -9.746719150617672e-17 0.03568047521719541 0.9993632491182088
12643822666.666666 0.04582171017497032 0.9989496338036616 -3.424823557216126e-17 -9.710262827276622e-17 -3.424823557216126e-17 -9.710262827276622e-17 0.04582105030624369 0.9989496640715488
12644440000.0 0.05595756521389912 0.9984331479348827 -3.523365307416776e-17 -9.672802925799031e-17 -3.523365307416776e-17 -9.672802925799031e-17 0.05595690571854087 0.9984331848963324
12645057333.333334 0.06608765649158406 0.9978138211406363 -3.6214992634868475e-17 -9.634343763893123e-17 -3.6214992634868475e-17 -9.634343763893123e-17 0.06608699743748395 0.9978138647911874
12645674666.666666 0.076210940585121 0.9970917172130958 -3.719215300294443e-17 -9.59488976228361e-17 -3.719215300294443e-17 -9.59488976228361e-17 0.07621028204011664 0.9970917675475983
12646292000.0 0.0863263747729327 0.9962669105307029 -3.8165033404527543e-17 -9.554445444207912e-17 -3.8165033404527543e-17 -9.554445444207912e-17 0.08632571680480282 0.9962669675433211
12646909333.333334 0.09643291714183172 0.9953394860505355 -3.913353355353916e-17 -9.513015434903656e-17 -3.913353355353916e-17 -9.513015434903656e-17 0.09643225981828894 0.9953395497347453
12647526666.666666 0.10652952669451009 0.9943095392995437 -4.009755366203256e-17 -9.47060446108316e-17 -4.009755366203256e-17 -9.47060446108316e-17 0.10652887008319402 0.9943096096481344
12648144000.0 0.11661516345690545 0.9931771763646944 -4.1056994450449647e-17 -9.427217350398737e-17 -4.1056994450449647e-17 -9.427217350398737e-17 0.11661450762537572 0.9931772533697695
12648761333.333334 0.12668878858509458 0.9919425138820644 -4.20117571578124e-17 -9.382859030897989e-17 -4.20117571578124e-17 -9.382859030897989e-17 0.1266881336008239 0.9919425975350427
12649378666.666666 0.13674936447232522 0.9906056790248295 -4.2961743551866854e-17 -9.33753453046839e-17 -4.2961743551866854e-17 -9.33753453046839e-17 0.13674871040269257 0.9906057693164463
12649996000.0 0.1467958548560332 0.989166809490146 -4.390685593918344e-17 -9.29124897627081e-17 -4.390685593918344e-17 -9.29124897627081e-17 0.14679520176831665 0.9891669064104535
12650613333.333334 0.15682722492449483 0.9876260534849765 -4.484699717516262e-17 -9.244007594164502e-17 -4.484699717516262e-17 -9.244007594164502e-17 0.15682657288586493 0.9876261570233456
12651230666.666666 0.1668424414233031 0.9859835697108442 -4.578207067400313e-17 -9.195815708120902e-17 -4.578207067400313e-17 -9.195815708120902e-17 0.16684179050081566 0.9859836798559648
12651848000.0 0.17684047276210346 0.9842395273474361 -4.6711980418617717e-17 -9.146678739626754e-17 -4.6711980418617717e-17 -9.146678739626754e-17 0.17683982302269263 0.9842396440873179
12652465333.333334 0.18682028912048537 0.9823941060352334 -4.763663097044921e-17 -9.096602207079124e-17 -4.763663097044921e-17 -9.096602207079124e-17 0.1868196406309574 0.9823942293572105
12653082666.666666 0.19678086255422578 0.9804474958569904 -4.85559274792433e-17 -9.045591725169551e-17 -4.85559274792433e-17 -9.045591725169551e-17 0.19678021538125104 0.9804476257477173
12653700000.0 0.20672116710133523 0.9783998973181112 -4.9469775692780984e-17 -8.993653004256793e-17 -4.9469775692780984e-17 -8.993653004256793e-17 0.20672052131144256 0.9784000337635693
12654317333.333334 0.21664017888737272 0.9762515213260738 -5.0378081966483397e-17 -8.940791849733265e-17 -5.0378081966483397e-17 -8.940791849733265e-17 0.21663953454694188 0.9762516643115707
12654934666.666666 0.2265368762311868 0.9740025891686552 -5.128075327301073e-17 -8.887014161378384e-17 -5.128075327301073e-17 -8.887014161378384e-17 0.22653623340644138 0.9740027386788246
12655552000.0 0.236410239750148 0.9716533324911235 -5.2177697211766545e-17 -8.832325932703577e-17 -5.2177697211766545e-17 -8.832325932703577e-17 0.23640959850714935 0.9716534885099295
12656169333.333334 0.24625925246490069 0.9692039932724464 -5.306882201831106e-17 -8.776733250289236e-17 -5.306882201831106e-17 -8.776733250289236e-17 0.24625861286954115 0.969204155783186
12656786666.666666 0.25608289990441796 0.9666548238002916 -5.395403657375347e-17 -8.720242293109062e-17 -5.395403657375347e-17 -8.720242293109062e-17 0.256082262022413 0.9666549927855919
12657404000.0 0.2658801702102456 0.9640060866450998 -5.483325041402353e-17 -8.662859331848069e-17 -5.483325041402353e-17 -8.662859331848069e-17 0.2658795341071285 0.964006262086925
12658021333.333334 0.2756500542409466 0.9612580546329855 -5.570637373911314e-17 -8.604590728208685e-17 -5.570637373911314e-17 -8.604590728208685e-17 0.2756494199820606 0.9612582365126355
12658638666.666666 0.28539154567579794 0.958411010817701 -5.657331742220267e-17 -8.545442934210166e-17 -5.657331742220267e-17 -8.545442934210166e-17 0.28539091332629024 0.958411199115815
12659256000.0 0.2951036411187451 0.9554652484513959 -5.743399301876204e-17 -8.485422491475669e-17 -5.743399301876204e-17 -8.485422491475669e-17 0.29510301074355955 0.9554654431479536
12659873333.333334 0.30478534020150716 0.9524210709544805 -5.828831277552831e-17 -8.424536030513447e-17 -5.828831277552831e-17 -8.424536030513447e-17 0.3047847118653783 0.9524212720288049
12660490666.666666 0.31443564568661936 0.949278791884379 -5.913618963942961e-17 -8.3627902699876e-17 -5.913618963942961e-17 -8.3627902699876e-17 0.31443501945406543 0.9492789993151382
12661108000.0 0.3240535635704477 0.9460387349031338 -5.997753726645514e-17 -8.300192015978111e-17 -5.997753726645514e-17 -8.300192015978111e-17 0.32405293950576347 0.9460389486683423
12661725333.333334 0.33363810318508685 0.9427012337442259 -6.081227003039143e-17 -8.236748161236146e-17 -6.081227003039143e-17 -8.236748161236146e-17 0.3336374813523382 0.9427014538212494
12662342666.666666 0.3431882773008611 0.9392666321780502 -6.164030303153823e-17 -8.172465684426239e-17 -6.164030303153823e-17 -8.172465684426239e-17 0.34318765776387705 0.9392668585436049
12662960000.0 0.3527031022277667 0.9357352839765832 -6.24615521053102e-17 -8.107351649362397e-17 -6.24615521053102e-17 -8.107351649362397e-17 0.3527024850501348 0.935735516606743
12663577333.333334 0.36218159791685145 0.9321075528769336 -6.327593383076047e-17 -8.041413204235421e-17 -6.327593383076047e-17 -8.041413204235421e-17 0.36218098316190844 0.9321077917471253
12664194666.666666 0.3716227880611575 0.9283838125438649 -6.408336553904368e-17 -7.97465758083005e-17 -6.408336553904368e-17 -7.97465758083005e-17 0.3716221757919855 0.9283840576288777
12664812000.0 0.3810257001962865 0.9245644465313154 -6.488376532177425e-17 -7.907092093735512e-17 -6.488376532177425e-17 -7.907092093735512e-17 0.3810250904757058 0.9245646978053016
12665429333.333334 0.39038936580059214 0.9206498482428812 -6.567705203931489e-17 -7.838724139546532e-17 -6.567705203931489e-17 -7.838724139546532e-17 0.3903887586911534 0.9206501056793557
12666046666.666666 0.3997128203948064 0.9166404208913428 -6.646314532896628e-17 -7.769561196057458e-17 -6.646314532896628e-17 -7.769561196057458e-17 0.39971221595878587 0.9166406844631904
12666664000.0 0.40899510364169916 0.9125365774570051 -6.724196561310733e-17 -7.699610821445124e-17 -6.724196561310733e-17 -7.699610821445124e-17 0.4089945019410914 0.91253684713648
12667281333.333334 0.4182352594445246 0.9083387406453608 -6.801343410719494e-17 -7.628880653448366e-17 -6.801343410719494e-17 -7.628880653448366e-17 0.4182346605410366 0.9083390164040913
12667898666.666666 0.42743233604591935 0.9040473428433696 -6.877747282773038e-17 -7.557378408534965e-17 -6.877747282773038e-17 -7.557378408534965e-17 0.42743174000096396 0.9040476246523614
12668516000.0 0.43658538612582887 0.8996628260749638 -6.953400460011636e-17 -7.485111881062535e-17 -6.953400460011636e-17 -7.485111881062535e-17 0.43658479300051833 0.8996631139046012
12669133333.333334 0.4456934668988785 0.895185641955615 -7.028295306640767e-17 -7.412088942433398e-17 -7.028295306640767e-17 -7.412088942433398e-17 0.44569287675401903 0.8951859357756662
12669750666.666666 0.4547556402117418 0.8906162516457 -7.102424269301541e-17 -7.33831754023777e-17 -7.102424269301541e-17 -7.33831754023777e-17 0.45475505310782616 0.8906165514253186
