! Parameters = {f0=12700.012000; bw=77.238000; Q=6100.000000; N=10; m_0_1=1.219514; m_1_1=-0.472028; m_1_2=1.054326; m_2_2=-0.472677; m_2_3=0.691289; m_2_8=-0.001961; m_2_9=0.034743; m_3_3=-0.474614; m_3_4=0.579818; m_3_7=-0.001361; m_3_8=-0.098449; m_3_9=-0.001961; m_4_4=-0.477539; m_4_5=0.416153; m_4_6=0.002156; m_4_7=-0.118998; m_4_8=-0.001361; m_5_5=-0.477157; m_5_6=0.823508; m_5_7=0.002156; m_6_6=-0.477158; m_6_7=0.416495; m_7_7=-0.477525; m_7_8=0.579936; m_8_8=-0.474616; m_8_9=0.691602; m_9_9=-0.472682; m_9_10=1.055404; m_10_10=-0.472038; m_10_11=1.220309}
!
! Created with skrf (http://scikit-rf.org).
# Hz S RI R 50.0 
!freq ReS11 ImS11 ReS21 ImS21 ReS12 ImS12 ReS22 ImS22
12607400000.0 0.9888075425864343 -0.14919666123614567 -7.846699282846543e-17 3.6726701836506426e-17 -7.846699282846543e-17 3.6726701836506426e-17 0.9888076384602522 -0.14919602582675215
12608017333.333334 0.9874199279318614 -0.15811984670772558 -7.811351655357246e-17 3.743338423595423e-17 -7.811351655357246e-17 3.743338423595423e-17 0.9874200295347574 -0.1581192122210844
12608634666.666666 0.9859517904529801 -0.1670301377069436 -7.77536819571558e-17 3.8136676488079074e-17 -7.77536819571558e-17 3.8136676488079074e-17 0.985951897776108 -0.16702950419470336
12609252000.0 0.9844032498745799 -0.17592680761101587 -7.738752145054162e-17 3.88365214408457e-17 -7.738752145054162e-17 3.88365214408457e-17 0.9844033629086281 -0.1759261751247407
12609869333.333334 0.9827744324782092 -0.18480913090799791 -7.701506795824499e-17 3.9532862251196106e-17 -7.701506795824499e-17 3.9532862251196106e-17 0.9827745512134027 -0.18480849949916364
12610486666.666666 0.9810654710919182 -0.19367638325575492 -7.663635491504482e-17 4.022564238962888e-17 -7.663635491504482e-17 4.022564238962888e-17 0.9810655955180142 -0.19367575297574366
12611104000.0 0.9792765050793361 -0.20252784154144746 -7.625141626298789e-17 4.0914805644807335e-17 -7.625141626298789e-17 4.0914805644807335e-17 0.9792766351856328 -0.20252721244154498
12611721333.333334 0.9774076803284251 -0.2113627839399443 -7.586028644838804e-17 4.160029612807235e-17 -7.586028644838804e-17 4.160029612807235e-17 0.9774078161037562 -0.2113621560713347
12612338666.666666 0.9754591492395018 -0.22018048997307593 -7.54630004187489e-17 4.228205827799107e-17 -7.54630004187489e-17 4.228205827799107e-17 0.9754592906722406 -0.2201798633868381
12612956000.0 0.9734310707128189 -0.22898024056833258 -7.505959361967026e-17 4.296003686483384e-17 -7.505959361967026e-17 4.296003686483384e-17 0.9734312177908786 -0.22897961531543576
12613573333.333334 0.9713236101356385 -0.23776131811736484 -7.465010199171445e-17 4.3634176995021864e-17 -7.465010199171445e-17 4.3634176995021864e-17 0.9713237628464725 -0.23776069424866453
12614190666.666666 0.9691369393687209 -0.2465230065346154 -7.423456196720943e-17 4.430442411558567e-17 -7.423456196720943e-17 4.430442411558567e-17 0.9691370976993249 -0.24652238410084915
12614808000.0 0.9668712367323137 -0.25526459131568574 -7.381301046704163e-17 4.497072401854239e-17 -7.381301046704163e-17 4.497072401854239e-17 0.966871400669227 -0.25526397036746945
12615425333.333334 0.9645266869916205 -0.2639853595955773 -7.338548489739012e-17 4.5633022845276726e-17 -7.338548489739012e-17 4.5633022845276726e-17 0.9645268565209263 -0.26398474018340073
12616042666.666666 0.9621034813417024 -0.27268460020693347 -7.295202314643011e-17 4.6291267090876424e-17 -7.295202314643011e-17 4.6291267090876424e-17 0.9621036564490288 -0.2726839823811558
12616660000.0 0.9596018173919277 -0.2813616037378691 -7.251266358098979e-17 4.694540360844892e-17 -7.251266358098979e-17 4.694540360844892e-17 0.9596019980624512 -0.281360987548716
12617277333.333334 0.957021899149828 -0.2900156625899617 -7.206744504318104e-17 4.759537961338815e-17 -7.206744504318104e-17 4.759537961338815e-17 0.9570220853682693 -0.2900150480875194
12617894666.666666 0.9543639370045058 -0.2986460710357605 -7.161640684698659e-17 4.824114268761797e-17 -7.161640684698659e-17 4.824114268761797e-17 0.9543641287551383 -0.2986454582699738
12618512000.0 0.951628147709365 -0.30725212527674944 -7.115958877479499e-17 4.888264078382333e-17 -7.115958877479499e-17 4.888264078382333e-17 0.9516283449760113 -0.30725151429741626
12619129333.333334 0.9488147543645958 -0.3158331235001952 -7.06970310739253e-17 4.951982222961109e-17 -7.06970310739253e-17 4.951982222961109e-17 0.9488149571306284 -0.31583251435696236
12619746666.666666 0.9459239863988632 -0.3243883659367596 -7.022877445309381e-17 5.015263573166568e-17 -7.022877445309381e-17 5.015263573166568e-17 0.945924194647211 -0.3243877586791203
12620364000.0 0.9429560795506066 -0.3329171549175377 -6.97548600788462e-17 5.078103037987006e-17 -6.97548600788462e-17 5.078103037987006e-17 0.942956293263751 -0.332916549594826
12620981333.333334 0.9399112758489055 -0.34141879493068256 -6.92753295719654e-17 5.140495565137523e-17 -6.92753295719654e-17 5.140495565137523e-17 0.9399114950088854 -0.34141819159207015
12621598666.666666 0.9367898235936141 -0.3498925926784994 -6.879022500382874e-17 5.2024361414655556e-17 -6.879022500382874e-17 5.2024361414655556e-17 0.9367900481820245 -0.349891991372991
12622216000.0 0.9335919773352138 -0.3583378571336879 -6.829958889273627e-17 5.2639197933520224e-17 -6.829958889273627e-17 5.2639197933520224e-17 0.9335922073332098 -0.35833725791011795
12622833333.333334 0.9303179978539979 -0.3667538995958548 -6.780346420020228e-17 5.3249415871092515e-17 -6.780346420020228e-17 5.3249415871092515e-17 0.9303182332422953 -0.3667533025028833
12623450666.666666 0.9269681521388685 -0.37514003374751853 -6.730189432721125e-17 5.3854966293754024e-17 -6.730189432721125e-17 5.3854966293754024e-17 0.9269683928977456 -0.3751394388336268
12624068000.0 0.9235427133654683 -0.3834955757103144 -6.67949231104399e-17 5.445580067505191e-17 -6.67949231104399e-17 5.445580067505191e-17 0.9235429594747675 -0.38349498302380153
12624685333.333334 0.9200419608739567 -0.3918198441006323 -6.628259481843751e-17 5.505187089958056e-17 -6.628259481843751e-17 5.505187089958056e-17 0.9200422123130843 -0.39181925368961046
12625302666.666666 0.9164661801462912 -0.4001121600850239 -6.576495414778828e-17 5.564312926680645e-17 -6.576495414778828e-17 5.564312926680645e-17 0.9164664368942237 -0.400111571997416
12625920000.0 0.9128156627828117 -0.4083718474359044 -6.524204621921489e-17 5.622952849488725e-17 -6.524204621921489e-17 5.622952849488725e-17 0.9128159248180935 -0.4083712617194384
12626537333.333334 0.9090907064785658 -0.416598232586433 -6.471391657367852e-17 5.681102172441943e-17 -6.471391657367852e-17 5.681102172441943e-17 0.9090909737793118 -0.41659764928863907
12627154666.666666 0.9052916149990359 -0.42479064468544464 -6.418061116842307e-17 5.738756252217499e-17 -6.418061116842307e-17 5.738756252217499e-17 0.9052918875429342 -0.42479006385365115
12627772000.0 0.9014186981552488 -0.43294841565241393 -6.364217637297598e-17 5.795910488481203e-17 -6.364217637297598e-17 5.795910488481203e-17 0.901418975919562 -0.43294783733374326
12628389333.333334 0.8974722717787026 -0.44107088023152446 -6.309865896516624e-17 5.852560324249405e-17 -6.309865896516624e-17 5.852560324249405e-17 0.8974725547402713 -0.44107030447289053
12629006666.666666 0.8934526576953831 -0.4491573760464088 -6.255010612704522e-17 5.908701246254205e-17 -6.255010612704522e-17 5.908701246254205e-17 0.8934529458306235 -0.44915680289451054
12629624000.0 0.8893601836997205 -0.4572072436537258 -6.199656544082904e-17 5.964328785299142e-17 -6.199656544082904e-17 5.964328785299142e-17 0.8893604769846319 -0.4572066731550464
12630241333.333334 0.8851951835277416 -0.4652198265971954 -6.143808488477003e-17 6.019438516615172e-17 -6.143808488477003e-17 6.019438516615172e-17 0.8851954819379052 -0.46521925879799675
12630858666.666666 0.8809579968299558 -0.4731944714609298 -6.087471282903539e-17 6.074026060208982e-17 -6.087471282903539e-17 6.074026060208982e-17 0.8809583003405358 -0.47319390640724857
12631476000.0 0.8766489691434554 -0.48113052792309347 -6.030649803150898e-17 6.128087081211909e-17 -6.030649803150898e-17 6.128087081211909e-17 0.8766492777292036 -0.48112996566073846
12632093333.333334 0.8722684518639929 -0.48902734880846066 -5.973348963360494e-17 6.181617290220878e-17 -5.973348963360494e-17 6.181617290220878e-17 0.8722687654992494 -0.4890267893830084
12632710666.666666 0.867816802217192 -0.4968842901414427 -5.915573715603355e-17 6.234612443637149e-17 -5.915573715603355e-17 6.234612443637149e-17 0.8678171208758885 -0.4968837335982345
12633328000.0 0.8632943832293747 -0.5047007111986782 -5.857329049452095e-17 6.287068344002604e-17 -5.857329049452095e-17 6.287068344002604e-17 0.8632947068850353 -0.5047001575828154
12633945333.333334 0.8587015636980235 -0.5124759745611566 -5.798619991553534e-17 6.33898084032875e-17 -5.798619991553534e-17 6.33898084032875e-17 0.8587018923237671 -0.5124754239174975
12634562666.666666 0.854038718161722 -0.5202094461661761 -5.739451605194791e-17 6.390345828425036e-17 -5.739451605194791e-17 6.390345828425036e-17 0.8540390517302661 -0.5202088985393328
12635180000.0 0.849306226869571 -0.5279004953591251 -5.67982898986939e-17 6.441159251220525e-17 -5.67982898986939e-17 6.441159251220525e-17 0.8493065653532308 -0.5278999507934581
12635797333.333334 0.8445044757501923 -0.5355484949448855 -5.619757280838396e-17 6.491417099083491e-17 -5.619757280838396e-17 6.491417099083491e-17 0.8445048191208854 -0.5355479534845022
12636414666.666666 0.8396338563802538 -0.5431528212389788 -5.559241648690694e-17 6.54111541013517e-17 -5.559241648690694e-17 6.54111541013517e-17 0.8396342046095033 -0.543152282927729
12637032000.0 0.8346947659525431 -0.550712854118429 -5.4982872988976094e-17 6.590250270561964e-17 -5.4982872988976094e-17 6.590250270561964e-17 0.8346951190114791 -0.5507123189999024
12637649333.333334 0.8296876072435746 -0.5582279770723328 -5.4368994713684807e-17 6.63881781492038e-17 -5.4368994713684807e-17 6.63881781492038e-17 0.829687965102934 -0.5582274451898528
12638266666.666666 0.8246127885807562 -0.5656975772521093 -5.3750834400009315e-17 6.686814226440004e-17 -5.3750834400009315e-17 6.686814226440004e-17 0.8246131512108886 -0.565697048648732
12638884000.0 0.819470723809031 -0.5731210455215732 -5.312844512228726e-17 6.734235737322188e-17 -5.312844512228726e-17 6.734235737322188e-17 0.8194710911798992 -0.5731205202400825
12639501333.333334 0.8142618322572045 -0.5804977765064889 -5.250188028568439e-17 6.781078629033276e-17 -5.250188028568439e-17 6.781078629033276e-17 0.8142622043383889 -0.5804972545893952
12640118666.666666 0.8089865387037889 -0.5878271686438974 -5.187119362163121e-17 6.827339232594168e-17 -5.187119362163121e-17 6.827339232594168e-17 0.8089869154644878 -0.5878266501334309
12640736000.0 0.8036452733421253 -0.5951086242314908 -5.1236439183201834e-17 6.873013928867908e-17 -5.1236439183201834e-17 6.873013928867908e-17 0.8036456547511595 -0.5951081091696012
12641353333.333334 0.7982384717456389 -0.6023415494758979 -5.059767134053528e-17 6.918099148838131e-17 -5.059767134053528e-17 6.918099148838131e-17 0.7982388577714514 -0.6023410379042483
12641970666.666666 0.7927665748320627 -0.6095253545414467 -4.995494477616307e-17 6.962591373888264e-17 -4.995494477616307e-17 6.962591373888264e-17 0.7927669654427254 -0.6095248465014133
12642588000.0 0.7872300288275897 -0.6166594535981351 -4.930831448035614e-17 7.006487136073281e-17 -4.930831448035614e-17 7.006487136073281e-17 0.7872304239908011 -0.6166589491307992
12643205333.333334 0.7816292852304761 -0.6237432648693956 -4.8657835746426475e-17 7.049783018388729e-17 -4.8657835746426475e-17 7.049783018388729e-17 0.7816296849135691 -0.623742764015546
12643822666.666666 0.7759648007741757 -0.6307762106796135 -4.80035641660166e-17 7.092475655034486e-17 -4.80035641660166e-17 7.092475655034486e-17 0.7759652049441164 -0.6307757134797392
12644440000.0 0.7702370373901064 -0.6377577175012074 -4.7345555624365066e-17 7.134561731674423e-17 -4.7345555624365066e-17 7.134561731674423e-17 0.7702374460134991 -0.6377572239954955
12645057333.333334 0.764446462170073 -0.6446872160012921 -4.668386629554887e-17 7.176037985691617e-17 -4.668386629554887e-17 7.176037985691617e-17 0.7644468752131617 -0.644686726229625
12645674666.666666 0.7585935473281055 -0.6515641410881963 -4.601855263769386e-17 7.216901206439885e-17 -4.601855263769386e-17 7.216901206439885e-17 0.7585939647567769 -0.6515636550901472
12646292000.0 0.7526787701618568 -0.6583879319576516 -4.5349671388168825e-17 7.257148235490376e-17 -4.5349671388168825e-17 7.257148235490376e-17 0.7526791919416432 -0.6583874497724824
12646909333.333334 0.7467026130138442 -0.665158032138329 -4.467727955877985e-17 7.296775966872621e-17 -4.467727955877985e-17 7.296775966872621e-17 0.7467030391099281 -0.6651575538049883
12647526666.666666 0.7406655632320465 -0.6718738895373105 -4.400143443090785e-17 7.335781347313159e-17 -4.400143443090785e-17 7.335781347313159e-17 0.740665993609259 -0.6718734150944263
12648144000.0 0.7345681131300968 -0.6785349564851674 -4.3322193550636243e-17 7.374161376469113e-17 -4.3322193550636243e-17 7.374161376469113e-17 0.734568547752926 -0.6785344859710493
12648761333.333334 0.7284107599472553 -0.6851406897805012 -4.2639614723885583e-17 7.411913107155639e-17 -4.2639614723885583e-17 7.411913107155639e-17 0.7284111987798451 -0.6851402232331328
12649378666.666666 0.72219400580778 -0.6916905507343223 -4.195375601150154e-17 7.449033645570531e-17 -4.195375601150154e-17 7.449033645570531e-17 0.7221944488139359 -0.6916900881913618
12649996000.0 0.7159183576800019 -0.6981840052139601 -4.12646757243127e-17 7.485520151514814e-17 -4.12646757243127e-17 7.485520151514814e-17 0.7159188048231909 -0.6981835467127341
12650613333.333334 0.709584327334958 -0.7046205236866393 -4.0572432418205575e-17 7.521369838606816e-17 -4.0572432418205575e-17 7.521369838606816e-17 0.709584778578314 -0.7046200692641414
12651230666.666666 0.7031924313047799 -0.7109995812625427 -3.987708488916231e-17 7.556579974492756e-17 -3.987708488916231e-17 7.556579974492756e-17 0.7031928866111066 -0.7109991309554309
12651848000.0 0.6967431908402905 -0.717320657737897 -3.917869216826297e-17 7.591147881053657e-17 -3.917869216826297e-17 7.591147881053657e-17 0.6967436501720632 -0.7173202115824897
12652465333.333334 0.6902371318687958 -0.7235832376370923 -3.847731351669822e-17 7.625070934606192e-17 -3.847731351669822e-17 7.625070934606192e-17 0.6902375951881663 -0.7235827956693663
12653082666.666666 0.6836747849511207 -0.7297868102548019 -3.777300842076717e-17 7.658346566098847e-17 -3.777300842076717e-17 7.658346566098847e-17 0.6836752522199174 -0.7297863725103879
12653700000.0 0.6770566852381724 -0.7359308696977833 -3.706583658681477e-17 7.690972261305614e-17 -3.706583658681477e-17 7.690972261305614e-17 0.6770571564179083 -0.7359304362119663
12654317333.333334 0.6703833724275128 -0.7420149149259426 -3.635585793621883e-17 7.722945561011916e-17 -3.635585793621883e-17 7.722945561011916e-17 0.6703838474793822 -0.7420144857336539
12654934666.666666 0.6636553907192557 -0.7480384497932644 -3.564313260029471e-17 7.754264061198921e-17 -3.564313260029471e-17 7.754264061198921e-17 0.663655869604144 -0.7480380249290846
12655552000.0 0.6568732887716112 -0.7540009830883553 -3.492772091522904e-17 7.784925413221218e-17 -3.492772091522904e-17 7.784925413221218e-17 0.6568737714500933 -0.7540005625865069
12656169333.333334 0.650037619656371 -0.7599020285742876 -3.420968341699828e-17 7.814927323979822e-17 -3.420968341699828e-17 7.814927323979822e-17 0.6500381060887175 -0.7599016124686353
12656786666.666666 0.6431489408135114 -0.7657411050285186 -3.348908083623061e-17 7.844267556092366e-17 -3.348908083623061e-17 7.844267556092366e-17 0.6431494309596896 -0.7657406933525642
12657404000.0 0.6362078140059682 -0.7715177362819258 -3.276597409310678e-17 7.872943928056228e-17 -3.276597409310678e-17 7.872943928056228e-17 0.6362083078256465 -0.7715173290688069
12658021333.333334 0.6292148052736956 -0.7772314512577478 -3.204042429220951e-17 7.900954314408617e-17 -3.204042429220951e-17 7.900954314408617e-17 0.629215302726248 -0.777231048540236
12658638666.666666 0.6221704848876629 -0.7828817840098777 -3.1312492717388734e-17 7.928296645880756e-17 -3.1312492717388734e-17 7.928296645880756e-17 0.6221709859321706 -0.7828813858203738
12659256000.0 0.615075427303039 -0.7884682737611082 -3.0582240826566484e-17 7.954968909549148e-17 -3.0582240826566484e-17 7.954968909549148e-17 0.6150759318982941 -0.7884678801316408
12659873333.333334 0.6079302111126773 -0.793990464940439 -2.9849730246594856e-17 7.980969148979582e-17 -2.9849730246594856e-17 7.980969148979582e-17 0.6079307192171857 -0.7939900759026614
12660490666.666666 0.6007354189998447 -0.7994479072203018 -2.911502276806136e-17 8.006295464367995e-17 -2.911502276806136e-17 8.006295464367995e-17 0.6007359305718311 -0.7994475228054898
12661108000.0 0.5934916376905256 -0.8048401555534219 -2.837818034005987e-17 8.030946012677341e-17 -2.837818034005987e-17 8.030946012677341e-17 0.5934921526879361 -0.8048397757924727
12661725333.333334 0.5861994579058 -0.8101667702089402 -2.7639265065025515e-17 8.054919007766997e-17 -2.7639265065025515e-17 8.054919007766997e-17 0.5861999762863052 -0.8101663951323667
12662342666.666666 0.5788594743135563 -0.8154273168083542 -2.6898339193478998e-17 8.078212720520216e-17 -2.6898339193478998e-17 8.078212720520216e-17 0.5788599960345551 -0.8154269464462855
12662960000.0 0.5714722854800229 -0.8206213663609291 -2.615546511881117e-17 8.100825478965083e-17 -2.615546511881117e-17 8.100825478965083e-17 0.5714728104986457 -0.8206210007431063
12663577333.333334 0.5640384938209754 -0.8257484952986612 -2.5410705372029862e-17 8.122755668391517e-17 -2.5410705372029862e-17 8.122755668391517e-17 0.564039022094089 -0.8257481344544367
12664194666.666666 0.5565587055525211 -0.8308082855108878 -2.466412261652302e-17 8.144001731462744e-17 -2.466412261652302e-17 8.144001731462744e-17 0.5565592370367289 -0.8308079294692199
12664812000.0 0.5490335306417979 -0.8358003243782817 -2.3915779642789568e-17 8.16456216832262e-17 -2.3915779642789568e-17 8.16456216832262e-17 0.5490340652934481 -0.835799973167736
12665429333.333334 0.5414635827571198 -0.8407242048065836 -2.3165739363173464e-17 8.184435536697817e-17 -2.3165739363173464e-17 8.184435536697817e-17 0.5414641205323053 -0.8407238584553288
12666046666.666666 0.5338494792180732 -0.8455795252597067 -2.241406480658968e-17 8.203620451995195e-17 -2.241406480658968e-17 8.203620451995195e-17 0.5338500200726367 -0.8455791837955118
12666664000.0 0.5261918409449365 -0.8503658897926331 -2.1660819113228327e-17 8.222115587394629e-17 -2.1660819113228327e-17 8.222115587394629e-17 0.5261923848344744 -0.8503655532428668
12667281333.333334 0.5184912924082853 -0.8550829080835516 -2.0906065529289432e-17 8.239919673936185e-17 -2.0906065529289432e-17 8.239919673936185e-17 0.51849183928815 -0.8550825764751785
12667898666.666666 0.5107484615779713 -0.8597301954657488 -2.0149867401654425e-17 8.257031500603763e-17 -2.0149867401654425e-17 8.257031500603763e-17 0.5107490114032761 -0.8597298688253276
12668516000.0 0.5029639798718128 -0.8643073729590334 -1.9392288172595824e-17 8.273449914402745e-17 -1.9392288172595824e-17 8.273449914402745e-17 0.5029645325974352 -0.8643070513127159
12669133333.333334 0.49513848210437533 -0.8688140673004866 -1.8633391374479138e-17 8.289173820433028e-17 -1.8633391374479138e-17 8.289173820433028e-17 0.495139037684961 -0.8688137506740149
12669750666.666666 0.4872726064348574 -0.8732499109750992 -1.7873240624428378e-17 8.304202181957767e-17 -1.7873240624428378e-17 8.304202181957767e-17 0.48727316482482386 -0.8732495993938039
12670368000.0 0.4793669943152979 -0.8776145422456014 -1.7111899619005527e-17 8.31853402046685e-17 -1.7111899619005527e-17 8.31853402046685e-17 0.4793675554688366 -0.8776142357343971
