! Parameters = {f0=12700.012000; bw=77.238000; Q=6100.000000; N=10; m_0_1=1.199695; m_1_1=-0.769325; m_1_2=1.034507; m_2_2=-0.769974; m_2_3=0.671470; m_2_8=-0.002952; m_2_9=0.033752; m_3_3=-0.771911; m_3_4=0.559999; m_3_7=-0.002352; m_3_8=-0.099440; m_3_9=-0.002952; m_4_4=-0.774836; m_4_5=0.396334; m_4_6=0.001165; m_4_7=-0.119989; m_4_8=-0.002352; m_5_5=-0.774454; m_5_6=0.803689; m_5_7=0.001165; m_6_6=-0.774455; m_6_7=0.396676; m_7_7=-0.774822; m_7_8=0.560117; m_8_8=-0.771913; m_8_9=0.671783; m_9_9=-0.769979; m_9_10=1.035585; m_10_10=-0.769335; m_10_11=1.200490}
!
! Created with skrf (http://scikit-rf.org).
# Hz S RI R 50.0 
!freq ReS11 ImS11 ReS21 ImS21 ReS12 ImS12 ReS22 ImS22
12607400000.0 0.7369548863753083 -0.6759419320085114 -4.0363851294990335e-17 6.725392966552681e-17 -4.0363851294990335e-17 6.725392966552681e-17 0.7369553137005627 -0.6759414661110432
12608017333.333334 0.731220661295774 -0.6821410004493307 -3.97807025782776e-17 6.758267102725074e-17 -3.97807025782776e-17 6.758267102725074e-17 0.7312210925189161 -0.6821405381996328
12608634666.666666 0.7254342930283746 -0.6882914255591628 -3.919488504295967e-17 6.790636158046435e-17 -3.919488504295967e-17 6.790636158046435e-17 0.725434728118274 -0.6882909669898395
12609252000.0 0.7195961941978007 -0.6943927687525864 -3.86064423883127e-17 6.822497973545752e-17 -3.86064423883127e-17 6.822497973545752e-17 0.7195966331230538 -0.6943923138959758
12609869333.333334 0.7137067811176764 -0.7004445949441597 -3.801541848757995e-17 6.853850428020658e-17 -3.801541848757995e-17 6.853850428020658e-17 0.7137072238466089 -0.7004441438323318
12610486666.666666 0.7077664737609125 -0.706446472579407 -3.742185738471488e-17 6.884691438176803e-17 -3.742185738471488e-17 6.884691438176803e-17 0.7077669202615833 -0.706446025244163
12611104000.0 0.7017756957294801 -0.712397973665877 -3.6825803291100835e-17 6.915018958764976e-17 -3.6825803291100835e-17 6.915018958764976e-17 0.7017761459696811 -0.7123975301387444
12611721333.333334 0.6957348742246031 -0.7182986738032578 -3.622730058228041e-17 6.944830982714484e-17 -3.622730058228041e-17 6.944830982714484e-17 0.6957353281718637 -0.7182982341154905
12612338666.666666 0.6896444400160351 -0.724148152213905 -3.562639379465563e-17 6.974125541264528e-17 -3.562639379465563e-17 6.974125541264528e-17 0.6896448976376226 -0.7241477163964791
12612956000.0 0.683504827411276 -0.7299459917729015 -3.5023127622177986e-17 7.00290070409278e-17 -3.5023127622177986e-17 7.00290070409278e-17 0.6835052886741998 -0.729945559856515
12613573333.333334 0.6773164742249118 -0.73569177903751 -3.44175469130463e-17 7.031154579440219e-17 -3.44175469130463e-17 7.031154579440219e-17 0.6773169390959245 -0.7356913510525797
12614190666.666666 0.6710798217471269 -0.7413851042769118 -3.380969666637456e-17 7.058885314234086e-17 -3.380969666637456e-17 7.058885314234086e-17 0.6710802901927266 -0.7413846802535702
12614808000.0 0.6647953147122736 -0.7470255615013807 -3.319962202886217e-17 7.086091094207395e-17 -3.319962202886217e-17 7.086091094207395e-17 0.6647957866987072 -0.7470251414694755
12615425333.333334 0.6584634012672647 -0.7526127484911402 -3.2587368291442584e-17 7.112770144016132e-17 -3.2587368291442584e-17 7.112770144016132e-17 0.6584638767605305 -0.7526123324802321
12616042666.666666 0.652084532939555 -0.7581462668251057 -3.197298088594518e-17 7.138920727352593e-17 -3.197298088594518e-17 7.138920727352593e-17 0.6520850119054042 -0.7581458548644654
12616660000.0 0.6456591646048777 -0.7636257219093494 -3.1356505381717626e-17 7.164541147057165e-17 -3.1356505381717626e-17 7.164541147057165e-17 0.6456596470088164 -0.7636253140279551
12617277333.333334 0.6391877544549105 -0.7690507230051428 -3.0737987482267935e-17 7.189629745225948e-17 -3.0737987482267935e-17 7.189629745225948e-17 0.6391882402622042 -0.7690503192316801
12617894666.666666 0.6326707639646529 -0.7744208832567897 -3.011747302189032e-17 7.21418490331592e-17 -3.011747302189032e-17 7.21418490331592e-17 0.6326712531403276 -0.7744204836196485
12618512000.0 0.6261086578592074 -0.7797358197194637 -2.9495007962249636e-17 7.238205042248461e-17 -2.9495007962249636e-17 7.238205042248461e-17 0.6261091503680524 -0.7797354242467363
12619129333.333334 0.6195019040810823 -0.7849951533861564 -2.887063838903008e-17 7.2616886225071e-17 -2.887063838903008e-17 7.2616886225071e-17 0.6195023998876523 -0.7849947621056349
12619746666.666666 0.6128509737565347 -0.7901985092149377 -2.824441050849562e-17 7.284634144235506e-17 -2.824441050849562e-17 7.284634144235506e-17 0.6128514728251523 -0.7901981221541116
12620364000.0 0.6061563411619055 -0.7953455161557482 -2.7616370644094825e-17 7.307040147330555e-17 -2.7616370644094825e-17 7.307040147330555e-17 0.6061568434566655 -0.7953451333418055
12620981333.333334 0.5994184836901386 -0.8004358071766022 -2.6986565233056392e-17 7.328905211532593e-17 -2.6986565233056392e-17 7.328905211532593e-17 0.5994189891749078 -0.8004354286364235
12621598666.666666 0.5926378818164416 -0.8054690192899814 -2.6355040822938163e-17 7.350227956514157e-17 -2.6355040822938163e-17 7.350227956514157e-17 0.5926383904548641 -0.8054686450501415
12622216000.0 0.5858150190640722 -0.8104447935786888 -2.572184406821954e-17 7.371007041963993e-17 -2.572184406821954e-17 7.371007041963993e-17 0.5858155308195705 -0.8104444236654528
12622833333.333334 0.5789503819699691 -0.8153627752213549 -2.508702172685398e-17 7.39124116766928e-17 -2.508702172685398e-17 7.39124116766928e-17 0.5789508968057467 -0.8153624096606764
12623450666.666666 0.5720444600499667 -0.8202226135178091 -2.445062065682803e-17 7.410929073594534e-17 -2.445062065682803e-17 7.410929073594534e-17 0.5720449779290112 -0.820222252335329
12624068000.0 0.5650977457639346 -0.8250239619140544 -2.3812687812714196e-17 7.430069539957467e-17 -2.3812687812714196e-17 7.430069539957467e-17 0.5650982666490203 -0.825023605135099
12624685333.333334 0.5581107344805654 -0.8297664780270441 -2.31732702422077e-17 7.448661387302287e-17 -2.31732702422077e-17 7.448661387302287e-17 0.5581112583342566 -0.8297661256766244
12625302666.666666 0.5510839244422178 -0.8344498236689885 -2.2532415082681216e-17 7.466703476569317e-17 -2.2532415082681216e-17 7.466703476569317e-17 0.5510844512268691 -0.8344494757717948
12625920000.0 0.5440178167291694 -0.8390736648716077 -2.1890169557702303e-17 7.484194709162545e-17 -2.1890169557702303e-17 7.484194709162545e-17 0.5440183464069311 -0.8390733214520116
12626537333.333334 0.536912915224149 -0.8436376719097771 -2.1246580973576045e-17 7.501134027013424e-17 -2.1246580973576045e-17 7.501134027013424e-17 0.5369134477569691 -0.8436373329918293
12627154666.666666 0.5297697265761917 -0.8481415193251834 -2.060169671587217e-17 7.51752041264193e-17 -2.060169671587217e-17 7.51752041264193e-17 0.5297702619258182 -0.8481411849326107
12627772000.0 0.5225887601645063 -0.8525848859495265 -1.9955564245926377e-17 7.533352889215251e-17 -1.9955564245926377e-17 7.533352889215251e-17 0.5225892982924898 -0.8525845561057305
12628389333.333334 0.5153705280624192 -0.8569674549272607 -1.9308231097380477e-17 7.548630520602378e-17 -1.9308231097380477e-17 7.548630520602378e-17 0.515371068930116 -0.8569671296553165
12629006666.666666 0.5081155450004212 -0.8612889137384546 -1.8659744872675567e-17 7.563352411426769e-17 -1.8659744872675567e-17 7.563352411426769e-17 0.5081160885689966 -0.8612885930611097
12629624000.0 0.5008243283298769 -0.8655489542208289 -1.801015323957819e-17 7.57751770711516e-17 -1.801015323957819e-17 7.57751770711516e-17 0.5008248745603066 -0.8655486381604999
12630241333.333334 0.49349739798591064 -0.8697472725918595 -1.7359503927666544e-17 7.591125593944269e-17 -1.7359503927666544e-17 7.591125593944269e-17 0.49349794683898485 -0.8697469611706322
12630858666.666666 0.48613527645040683 -0.8738835694704017 -1.6707844724860897e-17 7.60417529908338e-17 -1.6707844724860897e-17 7.60417529908338e-17 0.486135827886732 -0.8738832627100281
12631476000.0 0.4787384887146244 -0.8779575498981028 -1.6055223473882107e-17 7.616666090635509e-17 -1.6055223473882107e-17 7.616666090635509e-17 0.47873904269462797 -0.8779572478200028
12632093333.333334 0.4713075622420122 -0.881968923360305 -1.540168806879178e-17 7.628597277673721e-17 -1.540168806879178e-17 7.628597277673721e-17 0.4713081187259426 -0.8819686259855595
12632710666.666666 0.4638430269303681 -0.8859174038068769 -1.47472864514674e-17 7.639968210275827e-17 -1.47472864514674e-17 7.639968210275827e-17 0.4638435858783 -0.8859171111562316
12633328000.0 0.45634541507407866 -0.8898027096726041 -1.4092066608077378e-17 7.650778279555971e-17 -1.4092066608077378e-17 7.650778279555971e-17 0.45634597644591507 -0.8898024217664657
12633945333.333334 0.4488152613263125 -0.8936245638971866 -1.3436076565604195e-17 7.661026917692249e-17 -1.3436076565604195e-17 7.661026917692249e-17 0.44881582508178647 -0.8936242807556196
12634562666.666666 0.44125310266068996 -0.897382693945096 -1.2779364388316066e-17 7.670713597952331e-17 -1.2779364388316066e-17 7.670713597952331e-17 0.4412536687593694 -0.8973824155878248
12635180000.0 0.4336594783331716 -0.9010768318249255 -1.2121978174250244e-17 7.679837834715811e-17 -1.2121978174250244e-17 7.679837834715811e-17 0.433660046734461 -0.9010765582713309
12635797333.333334 0.4260349298435011 -0.9047067141085484 -1.1463966051712635e-17 7.68839918349322e-17 -1.1463966051712635e-17 7.68839918349322e-17 0.4260355005066451 -0.9047064453776676
12636414666.666666 0.41838000089661703 -0.9082720819498914 -1.0805376175754854e-17 7.69639724094247e-17 -1.0805376175754854e-17 7.69639724094247e-17 0.4183805737807028 -0.9082718180604158
12637032000.0 0.4106952373638809 -0.9117726811033926 -1.0146256724661562e-17 7.703831644882063e-17 -1.0146256724661562e-17 7.703831644882063e-17 0.410695812427841 -0.9117724220736653
12637649333.333334 0.4029811872441776 -0.91520826194212 -9.486655896437537e-18 7.710702074301358e-17 -9.486655896437537e-18 7.710702074301358e-17 0.40298176444679346 -0.915208007790137
12638266666.666666 0.3952384006247333 -0.9185785794756189 -8.826621905283709e-18 7.717008249367939e-17 -8.826621905283709e-18 7.717008249367939e-17 0.39523897992463786 -0.9185783302190265
12638884000.0 0.38746742964204534 -0.9218833933673124 -8.166202978097458e-18 7.72274993143168e-17 -8.166202978097458e-18 7.72274993143168e-17 0.38746801099772554 -0.9218831490234047
12639501333.333334 0.3796688284424045 -0.9251224679516852 -7.505447350938351e-18 7.727926923026264e-17 -7.505447350938351e-18 7.727926923026264e-17 0.37966941181220537 -0.925122228537406
12640118666.666666 0.3718431531424589 -0.9282955722510572 -6.844403265542858e-18 7.73253906786719e-17 -6.844403265542858e-18 7.73253906786719e-17 0.371843738484586 -0.9282953377829978
12640736000.0 0.36399096178931983 -0.9314024799921516 -6.183118965769641e-18 7.736586250847372e-17 -6.183118965769641e-18 7.736586250847372e-17 0.3639915490618416 -0.9314022504865466
12641353333.333334 0.3561128143211885 -0.9344429696220561 -5.521642694134133e-18 7.740068398029114e-17 -5.521642694134133e-18 7.740068398029114e-17 0.35611340348204035 -0.9344427450947865
12641970666.666666 0.34820927252705913 -0.9374168243241746 -4.860022688265283e-18 7.742985476633606e-17 -4.860022688265283e-18 7.742985476633606e-17 0.3482098635340457 -0.9374166047907644
12642588000.0 0.34028090000684186 -0.9403238320336128 -4.19830717741252e-18 7.74533749502715e-17 -4.19830717741252e-18 7.74533749502715e-17 0.34028149281764014 -0.9403236175092279
12643205333.333334 0.3323282621310665 -0.943163785452341 -3.536544378930436e-18 7.747124502704522e-17 -3.536544378930436e-18 7.747124502704522e-17 0.3323288567032294 -0.9431635759517899
12643822666.666666 0.324351926000619 -0.9459364820639559 -2.874782494778927e-18 7.748346590269254e-17 -2.874782494778927e-18 7.748346590269254e-17 0.32435252229157785 -0.9459362776016863
12644440000.0 0.3163524604063563 -0.948641724148105 -2.2130697080258432e-18 7.749003889411e-17 -2.2130697080258432e-18 7.749003889411e-17 0.31635305837342353 -0.9486415247382038
12645057333.333334 0.3083304357884365 -0.95127931879462 -1.5514541793391366e-18 7.749096572879915e-17 -1.5514541793391366e-18 7.749096572879915e-17 0.30833103538881 -0.951279124450814
12645674666.666666 0.30028642419580537 -0.9538490779172244 -8.899840435062538e-19 7.748624854458021e-17 -8.899840435062538e-19 7.748624854458021e-17 0.30028702538657037 -0.9538488886528766
12646292000.0 0.2922209992451322 -0.9563508182670309 -2.287074059083101e-19 7.747588988927671e-17 -2.287074059083101e-19 7.747588988927671e-17 0.2922216019832645 -0.956350634095141
12646909333.333334 0.28413473608017437 -0.9587843614455193 4.323276609251391e-19 7.745989272036918e-17 4.323276609251391e-19 7.745989272036918e-17 0.28413534032254406 -0.9587841823787226
12647526666.666666 0.27602821133065863 -0.961149533917298 1.0930731208302617e-18 7.74382604046209e-17 1.0930731208302617e-18 7.74382604046209e-17 0.27602881703403254 -0.9611493599678649
12648144000.0 0.2679020030711053 -0.963446167022493 1.753480977494862e-18 7.741099671767195e-17 1.753480977494862e-18 7.741099671767195e-17 0.2679026101921499 -0.9634459982023263
12648761333.333334 0.25975669077963226 -0.9656740969887603 2.413503277911429e-18 7.737810584360565e-17 2.413503277911429e-18 7.737810584360565e-17 0.2597572992749179 -0.9656739333093985
12649378666.666666 0.25159285529679926 -0.9678331649429291 3.0730921158675103e-18 7.733959237448439e-17 3.0730921158675103e-18 7.733959237448439e-17 0.2515934651228022 -0.967833006415541
12649996000.0 0.24341107878396726 -0.9699232169223854 3.732199635409293e-18 7.729546130985592e-17 3.732199635409293e-18 7.729546130985592e-17 0.24341168989707318 -0.9699230635577725
12650613333.333334 0.23521194468178502 -0.9719441038860502 4.390778034304585e-18 7.724571805623043e-17 4.390778034304585e-18 7.724571805623043e-17 0.23521255703829202 -0.9719439556946441
12651230666.666666 0.22699603766885892 -0.9738956817249375 5.048779567498356e-18 7.719036842652869e-17 5.048779567498356e-18 7.719036842652869e-17 0.22699665122498094 -0.9738955387168008
12651848000.0 0.21876394361970267 -0.9757778112725247 5.706156550573712e-18 7.712941863949937e-17 5.706156550573712e-18 7.712941863949937e-17 0.21876455833157193 -0.9757776734573484
12652465333.333334 0.21051624956312176 -0.9775903583146268 6.362861363185182e-18 7.706287531910913e-17 6.362861363185182e-18 7.706287531910913e-17 0.2105168653867929 -0.9775902257017319
12653082666.666666 0.20225354364052153 -0.9793331935989387 7.01884645250579e-18 7.69907454939022e-17 7.01884645250579e-18 7.69907454939022e-17 0.20225416053197356 -0.9793330661972719
12653700000.0 0.19397641506360408 -0.9810061928443243 7.674064336667736e-18 7.691303659632968e-17 7.674064336667736e-18 7.691303659632968e-17 0.19397703297874502 -0.9810060706624638
12654317333.333334 0.18568545407265927 -0.9826092367496213 8.328467608177035e-18 7.68297564620531e-17 8.328467608177035e-18 7.68297564620531e-17 0.18568607296732775 -0.982609119795769
12654934666.666666 0.17738125189436238 -0.9841422110021667 8.982008937340968e-18 7.674091332921545e-17 8.982008937340968e-18 7.674091332921545e-17 0.17738187172433167 -0.9841420992841515
12655552000.0 0.16906440069952988 -0.9856050062859626 9.634641075688566e-18 7.664651583768403e-17 9.634641075688566e-18 7.664651583768403e-17 0.16906502142051102 -0.9856048998112408
12656169333.333334 0.16073549356106046 -0.9869975182894464 1.0286316859364289e-17 7.654657302826688e-17 1.0286316859364289e-17 7.654657302826688e-17 0.16073611512870514 -0.986997417065098
12656786666.666666 0.1523951244115304 -0.9883196477129439 1.0936989212535892e-17 7.64410943418967e-17 1.0936989212535892e-17 7.64410943418967e-17 0.15239574678143444 -0.9883195517456752
12657404000.0 0.1440438880008972 -0.9895713002757447 1.1586611150781598e-17 7.633008961878865e-17 1.1586611150781598e-17 7.633008961878865e-17 0.14404451112860342 -0.9895712095718862
12658021333.333334 0.1356823798539469 -0.9907523867228446 1.2235135784484456e-17 7.621356909756661e-17 1.2235135784484456e-17 7.621356909756661e-17 0.1356830036949483 -0.9907523012883495
12658638666.666666 0.1273111962281369 -0.9918628228312645 1.2882516322181621e-17 7.609154341436688e-17 1.2882516322181621e-17 7.609154341436688e-17 0.1273118207378802 -0.9918627426717113
12659256000.0 0.11893093407071147 -0.9929025294161117 1.3528706073970166e-17 7.596402360190255e-17 1.3528706073970166e-17 7.596402360190255e-17 0.11893155920459988 -0.9929024545367017
12659873333.333334 0.11054219097630172 -0.9938714323361962 1.417365845483059e-17 7.583102108851161e-17 1.417365845483059e-17 7.583102108851161e-17 0.11054281668969848 -0.993871362741754
12660490666.666666 0.10214556514448152 -0.994769462499306 1.4817326987982563e-17 7.56925476971704e-17 1.4817326987982563e-17 7.56925476971704e-17 0.10214619139271272 -0.9947693981942783
12661108000.0 0.0937416553367423 -0.9955965558671703 1.5459665308252897e-17 7.554861564447323e-17 1.5459665308252897e-17 7.554861564447323e-17 0.09374228207510037 -0.9955964968556269
12661725333.333334 0.08533106083410641 -0.9963526534599934 1.6100627165363115e-17 7.539923753959879e-17 1.6100627165363115e-17 7.539923753959879e-17 0.08533168801785317 -0.9963525997456261
12662342666.666666 0.07691438139425147 -0.9970377013606775 1.674016642728047e-17 7.524442638323301e-17 1.674016642728047e-17 7.524442638323301e-17 0.07691500897862129 -0.9970376529467995
12662960000.0 0.0684922172087981 -0.9976516507186598 1.7378237083524695e-17 7.508419556647128e-17 1.7378237083524695e-17 7.508419556647128e-17 0.06849284514900117 -0.9976516076082063
12663577333.333334 0.06006516886039703 -0.9981944577534053 1.8014793248456037e-17 7.491855886969435e-17 1.8014793248456037e-17 7.491855886969435e-17 0.06006579711162262 -0.998194419948934
12664194666.666666 0.05163383728007202 -0.9986660837575189 1.8649789164582875e-17 7.474753046140982e-17 1.8649789164582875e-17 7.474753046140982e-17 0.05163446579749148 -0.998666051261207
12664812000.0 0.04319882370428218 -0.9990664950995054 1.9283179205826723e-17 7.457112489707314e-17 1.9283179205826723e-17 7.457112489707314e-17 0.043199452443052316 -0.9990664679131533
12665429333.333334 0.0347607296319347 -0.9993956632261818 1.9914917880799856e-17 7.438935711787558e-17 1.9914917880799856e-17 7.438935711787558e-17 0.03476135854720089 -0.9993956413512101
12666046666.666666 0.026320156781832648 -0.999653564664691 2.0544959836059088e-17 7.420224244950764e-17 2.0544959836059088e-17 7.420224244950764e-17 0.026320785828732072 -0.9996535481021422
12666664000.0 0.01787770704922694 -0.9998401810242006 2.11732598593629e-17 7.40097966008903e-17 2.11732598593629e-17 7.40097966008903e-17 0.017878336182891745 -0.9998401697747373
12667281333.333334 0.009433982463491855 -0.999955498997192 2.1799772882883636e-17 7.381203566288984e-17 2.1799772882883636e-17 7.381203566288984e-17 0.009434611639052376 -0.9999554930610983
12667898666.666666 0.000989585144825156 -0.9999995103604229 2.242445398645806e-17 7.360897610698933e-17 2.242445398645806e-17 7.360897610698933e-17 0.0009902143174131354 -0.9999995097376044
12668516000.0 -0.007454882738774273 -0.9999722119755099 2.3047258400784118e-17 7.34006347839461e-17 2.3047258400784118e-17 7.34006347839461e-17 -0.007454253614022527 -0.999972216665494
12669133333.333334 -0.01589881901402062 -0.9998736057891536 2.3668141510618103e-17 7.318702892241862e-17 2.3668141510618103e-17 7.318702892241862e-17 -0.015898189981961006 -0.9998736157910868
12669750666.666666 -0.024341621545651414 -0.9997036988329949 2.4287058857967434e-17 7.296817612756269e-17 2.4287058857967434e-17 7.296817612756269e-17 -0.024340992651128854 -0.9997037141456468
12670368000.0 -0.03278268827933728 -0.9994625032231194 2.4903966145262798e-17 7.274409437960471e-17 2.4903966145262798e-17 7.274409437960471e-17 -0.032782059567182505 -0.9994625238448799
12670985333.333334 -0.0412214172843585 -0.9991500361591916 2.5518819238519224e-17 7.251480203238707e-17 2.5518819238519224e-17 7.251480203238707e-17 -0.04122078879938488 -0.9991500620880733
