! Parameters = {f0=12700.012000; bw=77.238000; Q=6100.000000; N=10; m_0_1=1.293388; m_1_1=0.636080; m_1_2=1.128200; m_2_2=0.635431; m_2_3=0.765163; m_2_8=0.001733; m_2_9=0.038437; m_3_3=0.633494; m_3_4=0.653692; m_3_7=0.002333; m_3_8=-0.094755; m_3_9=0.001733; m_4_4=0.630569; m_4_5=0.490027; m_4_6=0.005850; m_4_7=-0.115304; m_4_8=0.002333; m_5_5=0.630951; m_5_6=0.897382; m_5_7=0.005850; m_6_6=0.630950; m_6_7=0.490369; m_7_7=0.630583; m_7_8=0.653810; m_8_8=0.633492; m_8_9=0.765476; m_9_9=0.635426; m_9_10=1.129278; m_10_10=0.636070; m_10_11=1.294183}
!
! Created with skrf (http://scikit-rf.org).
# Hz S RI R 50.0 
!freq ReS11 ImS11 ReS21 ImS21 ReS12 ImS12 ReS22 ImS22
12607400000.0 0.6985774980925558 -0.7155344011007164 -5.754664644965091e-17 1.090948420979141e-16 -5.754664644965091e-17 1.090948420979141e-16 0.6985779856507243 -0.7155339250964926
12608017333.333334 0.6905094723869305 -0.7233233499229376 -5.629886492771243e-17 1.0971682361859556e-16 -5.629886492771243e-17 1.0971682361859556e-16 0.6905099652282861 -0.7233228794392227
12608634666.666666 0.6823546076854772 -0.7310213330472756 -5.5044379197616907e-17 1.1032454399376176e-16 -5.5044379197616907e-17 1.1032454399376176e-16 0.682355105747526 -0.731020868142695
12609252000.0 0.6741139295502195 -0.7386273823696085 -5.3783352135671625e-17 1.1091793117650044e-16 -5.3783352135671625e-17 1.1091793117650044e-16 0.6741144327698164 -0.7386269231020794
12609869333.333334 0.6657884743351813 -0.7461405413474381 -5.251594738986493e-17 1.1149691497880077e-16 -5.251594738986493e-17 1.1149691497880077e-16 0.66578898264854 -0.7461400877741653
12610486666.666666 0.6573792890561031 -0.7535598651201572 -5.124232935870392e-17 1.1206142707977129e-16 -5.124232935870392e-17 1.1206142707977129e-16 0.6573798023988017 -0.7535594172976205
12611104000.0 0.6488874312584665 -0.7608844206281308 -4.9962663169878165e-17 1.1261140103365513e-16 -4.9962663169878165e-17 1.1261140103365513e-16 0.6488879495654573 -0.7608839786120835
12611721333.333334 0.640313968884924 -0.768113286729668 -4.8677114658937977e-17 1.1314677227755854e-16 -4.8677114658937977e-17 1.1314677227755854e-16 0.6403144920905418 -0.7681128505751275
12612338666.666666 0.6316599801407189 -0.7752455543171101 -4.7385850347794746e-17 1.1366747813897863e-16 -4.7385850347794746e-17 1.1366747813897863e-16 0.6316605081786887 -0.7752451240783509
12612956000.0 0.6229265533580174 -0.7822803264312087 -4.60890374232087e-17 1.1417345784305604e-16 -4.60890374232087e-17 1.1417345784305604e-16 0.6229270861614626 -0.7822799021617559
12613573333.333334 0.6141147868593705 -0.789216718373659 -4.478684371518195e-17 1.1466465251959316e-16 -4.478684371518195e-17 1.1466465251959316e-16 0.6141153243608226 -0.7892163001262827
12614190666.666666 0.6052257888193029 -0.7960538578185956 -4.3479437675264096e-17 1.1514100520982958e-16 -4.3479437675264096e-17 1.1514100520982958e-16 0.605226330950709 -0.796053445645303
12614808000.0 0.5962606771249913 -0.8027908849222595 -4.2166988354803696e-17 1.1560246087296577e-16 -4.2166988354803696e-17 1.1560246087296577e-16 0.5962612238177222 -0.8027904788742883
12615425333.333334 0.5872205792357872 -0.8094269524310417 -4.0849665383111715e-17 1.160489663924457e-16 -4.0849665383111715e-17 1.160489663924457e-16 0.5872211304206478 -0.8094265525588556
12616042666.666666 0.5781066320413641 -0.8159612257880929 -3.9527638945595934e-17 1.1648047058197857e-16 -3.9527638945595934e-17 1.1648047058197857e-16 0.5781071876486008 -0.8159608321413732
12616660000.0 0.5689199817186702 -0.8223928832383248 -3.820107976178379e-17 1.168969241913298e-16 -3.820107976178379e-17 1.168969241913298e-16 0.5689205416779798 -0.8223924958659647
12617277333.333334 0.5596617835878969 -0.8287211159316692 -3.687015906333117e-17 1.1729827991184474e-16 -3.687015906333117e-17 1.1729827991184474e-16 0.5596623478284364 -0.828720734881769
12617894666.666666 0.5503332019672373 -0.8349451280247732 -3.553504857196231e-17 1.1768449238173018e-16 -3.553504857196231e-17 1.1768449238173018e-16 0.550333770417632 -0.8349447533446333
12618512000.0 0.5409354100261285 -0.8410641367813055 -3.419592047730116e-17 1.1805551819109807e-16 -3.419592047730116e-17 1.1805551819109807e-16 0.5409359826144805 -0.8410637685174194
12619129333.333334 0.5314695896381834 -0.8470773726700751 -3.2852947414766266e-17 1.1841131588672624e-16 -3.2852947414766266e-17 1.1841131588672624e-16 0.5314701662920833 -0.8470770108681276
12619746666.666666 0.5219369312322552 -0.8529840794620214 -3.1506302443306366e-17 1.1875184597659907e-16 -3.1506302443306366e-17 1.1875184597659907e-16 0.5219375118787882 -0.852983724166878
12620364000.0 0.5123386336426492 -0.8587835143253512 -3.015615902312414e-17 1.1907707093418552e-16 -3.015615902312414e-17 1.1907707093418552e-16 0.5123392182084053 -0.8587831655810547
12620981333.333334 0.5026759039587194 -0.8644749479187356 -2.8802690993418396e-17 1.1938695520244948e-16 -2.8802690993418396e-17 1.1938695520244948e-16 0.5026764923698039 -0.8644746057685023
12621598666.666666 0.49294995737275327 -0.8700576644832327 -2.7446072549991853e-17 1.1968146519763156e-16 -2.7446072549991853e-17 1.1968146519763156e-16 0.49295054955479417 -0.8700573289694441
12622216000.0 0.4831620170271915 -0.8755309619322628 -2.60864782228728e-17 1.1996056931276341e-16 -2.60864782228728e-17 1.1996056931276341e-16 0.4831626129053505 -0.875530633096462
12622833333.333334 0.47331331386090486 -0.880894151939849 -2.4724082853909764e-17 1.2022423792092783e-16 -2.4724082853909764e-17 1.2022423792092783e-16 0.4733139133598861 -0.8808938298227359
12623450666.666666 0.463405086454392 -0.886146560027186 -2.3359061574325063e-17 1.2047244337826756e-16 -2.3359061574325063e-17 1.2047244337826756e-16 0.46340568949845146 -0.8861462446686109
12624068000.0 0.4534385808739391 -0.8912875256475017 -2.1991589782209236e-17 1.20705160026745e-16 -2.1991589782209236e-17 1.20705160026745e-16 0.45343918738689465 -0.8912872170864616
12624685333.333334 0.4434150505147864 -0.8963164022691914 -2.0621843120034596e-17 1.2092236419663827e-16 -2.0621843120034596e-17 1.2092236419663827e-16 0.4434156604200271 -0.8963161005438249
12625302666.666666 0.43333575594393137 -0.9012325574569082 -1.92499974521536e-17 1.211240342087827e-16 -1.92499974521536e-17 1.211240342087827e-16 0.4333363691644272 -0.9012322626044902
12625920000.0 0.42320196474101374 -0.9060353729513898 -1.7876228842191513e-17 1.21310150376571e-16 -1.7876228842191513e-17 1.21310150376571e-16 0.4232025811993249 -0.9060350850083269
12626537333.333334 0.4130149513394387 -0.9107242447469475 -1.6500713530553272e-17 1.214806950076769e-16 -1.6500713530553272e-17 1.214806950076769e-16 0.4130155709577266 -0.910723963748775
12627154666.666666 0.40277599686585147 -0.9152985831675572 -1.5123627911816802e-17 1.2163565240554018e-16 -1.5123627911816802e-17 1.2163565240554018e-16 0.4027766195658868 -0.9152983091489317
12627772000.0 0.392486388978913 -0.9197578129410547 -1.3745148512115233e-17 1.217750088705936e-16 -1.3745148512115233e-17 1.217750088705936e-16 0.39248701468208724 -0.9197575459357538
12628389333.333334 0.3821474217076248 -0.9241013732713703 -1.2365451966615e-17 1.2189875270122345e-16 -1.2365451966615e-17 1.2189875270122345e-16 0.38214805033495947 -0.9241011133122858
12629006666.666666 0.3717603952883831 -0.9283287179091482 -1.0984714996836577e-17 1.220068741944915e-16 -1.0984714996836577e-17 1.220068741944915e-16 0.37176102676053957 -0.9283284650282823
12629624000.0 0.36132661600153626 -0.9324393152204038 -9.603114388114948e-18 1.220993656465855e-16 -9.603114388114948e-18 1.220993656465855e-16 0.3613272502388258 -0.9324390694488652
12630241333.333334 0.35084739600713427 -0.9364326482533765 -8.220826966967315e-18 1.2217622135302522e-16 -8.220826966967315e-18 1.2217622135302522e-16 0.3508480329295282 -0.9364324096213766
12630858666.666666 0.3403240531799889 -0.9403082148035083 -6.838029578505931e-18 1.2223743760860853e-16 -6.838029578505931e-18 1.2223743760860853e-16 0.3403246927071294 -0.9403079833403604
12631476000.0 0.329757910943567 -0.9440655274767492 -5.454899063829566e-18 1.222830127071031e-16 -5.454899063829566e-18 1.222830127071031e-16 0.3297585529947754 -0.9440653032108582
12632093333.333334 0.31915029810405776 -0.9477041137506516 -4.071612237476523e-18 1.2231294694068171e-16 -4.071612237476523e-18 1.2231294694068171e-16 0.319150942598347 -0.9477038967095178
12632710666.666666 0.30850254868299914 -0.951223516033908 -2.688345864823797e-18 1.2232724259910554e-16 -2.688345864823797e-18 1.2232724259910554e-16 0.308503195539082 -0.951223306244119
12633328000.0 0.29781600174942635 -0.9546232917239152 -1.3052766395395515e-18 1.223259039686497e-16 -1.3052766395395515e-18 1.223259039686497e-16 0.2978166508857268 -0.9546230892111437
12633945333.333334 0.2870920012516035 -0.9579030132623902 7.74188389498628e-20 1.2230893733077598e-16 7.74188389498628e-20 1.2230893733077598e-16 0.287092652586267 -0.9579028180513925
12634562666.666666 0.27633189584803697 -0.9610622681891366 1.4595640879686134e-18 1.2227635096055074e-16 1.4595640879686134e-18 1.2227635096055074e-16 0.27633254929894024 -0.9610620803037476
12635180000.0 0.2655370387378117 -0.9641006591939308 2.840982764090272e-18 1.2222815512480897e-16 2.840982764090272e-18 1.2222815512480897e-16 0.26553769422257356 -0.9641004786570626
12635797333.333334 0.2547087874903028 -0.9670178041665203 4.221498685617073e-18 1.2216436208006471e-16 4.221498685617073e-18 1.2216436208006471e-16 0.2547094449262942 -0.9670176310001578
12636414666.666666 0.24384850387471987 -0.9698133362445986 5.600935854981122e-18 1.2208498607016912e-16 5.600935854981122e-18 1.2208498607016912e-16 0.24384916317907485 -0.9698131704697989
12637032000.0 0.2329575536886044 -0.972486903860015 6.979118481179318e-18 1.2199004332371394e-16 6.979118481179318e-18 1.2199004332371394e-16 0.2329582147782298 -0.9724867454969028
12637649333.333334 0.22203730658609203 -0.9750381707829763 8.35587100213839e-18 1.2187955205118343e-16 8.35587100213839e-18 1.2187955205118343e-16 0.2220379693776781 -0.9750380198507415
12638266666.666666 0.21108913590580136 -0.9774668161642937 9.731018107028106e-18 1.2175353244185514e-16 9.731018107028106e-18 1.2175353244185514e-16 0.211089800315833 -0.9774666726811918
12638884000.0 0.20011441849804032 -0.9797725345757596 1.1104384758561484e-17 1.2161200666044884e-16 1.1104384758561484e-17 1.2161200666044884e-16 0.20011508444280693 -0.9797723985591074
12639501333.333334 0.18911453455154098 -0.9819550360485814 1.2475796215254677e-17 1.2145499884352187e-16 1.2475796215254677e-17 1.2145499884352187e-16 0.1891152019471469 -0.9819549075147536
12640118666.666666 0.1780908674202473 -0.9840140461097706 1.3845078053581818e-17 1.2128253509562195e-16 1.3845078053581818e-17 1.2128253509562195e-16 0.17809153618262252 -0.9840139250741992
12640736000.0 0.16704480344864578 -0.9859493058167957 1.5212056190208045e-17 1.2109464348517435e-16 1.5212056190208045e-17 1.2109464348517435e-16 0.16704547349355708 -0.9859491922939699
12641353333.333334 0.15597773179842464 -0.987760571789964 1.6576556903981147e-17 1.2089135404014418e-16 1.6576556903981147e-17 1.2089135404014418e-16 0.15597840304148544 -0.9877604657934258
12641970666.666666 0.14489104427279217 -0.9894476162432034 1.793840685806099e-17 1.2067269874342502e-16 1.793840685806099e-17 1.2067269874342502e-16 0.14489171662947364 -0.989447517785548
12642588000.0 0.13378613514205884 -0.9910102270126028 1.929743312186397e-17 1.204387115279964e-16 1.929743312186397e-17 1.204387115279964e-16 0.1337868085277001 -0.9910101361054743
12643205333.333334 0.12266440096801139 -0.9924482075831345 2.0653463193005504e-17 1.2018942827182638e-16 2.0653463193005504e-17 1.2018942827182638e-16 0.1226650752978309 -0.9924481242372297
12643822666.666666 0.11152724042836591 -0.9937613771133647 2.2006325019151714e-17 1.199248867925315e-16 2.2006325019151714e-17 1.199248867925315e-16 0.11152791561747125 -0.9937613013384252
12644440000.0 0.10037605414092413 -0.99494957045818 2.3355847019825804e-17 1.196451268417884e-16 2.3355847019825804e-17 1.196451268417884e-16 0.10037673010432319 -0.9949495022629953
12645057333.333334 0.08921224448731835 -0.9960126381895725 2.4701858108114794e-17 1.1935019009950543e-16 2.4701858108114794e-17 1.1935019009950543e-16 0.0892129211399301 -0.9960125775819795
12645674666.666666 0.07803721543681685 -0.9969504466154204 2.6044187712335747e-17 1.1904012016774606e-16 2.6044187712335747e-17 1.1904012016774606e-16 0.07803789269348174 -0.9969503936022989
12646292000.0 0.06685237236944766 -0.9977628777963209 2.738266579765092e-17 1.1871496256440177e-16 2.738266579765092e-17 1.1871496256440177e-16 0.06685305014493859 -0.9977628323835962
12646909333.333334 0.055659121899682105 -0.9984498295603914 2.871712288750818e-17 1.1837476471664606e-16 2.871712288750818e-17 1.1837476471664606e-16 0.05565980010871509 -0.9984497917530336
12647526666.666666 0.044458871699141166 -0.9990112155161506 3.0047390085109887e-17 1.1801957595412233e-16 3.0047390085109887e-17 1.1801957595412233e-16 0.04445955025638594 -0.9990111853181713
12648144000.0 0.033253030319792334 -0.9994469650633646 3.137329909476181e-17 1.1764944750189916e-16 3.137329909476181e-17 1.1764944750189916e-16 0.033253709139883146 -0.9994469424778178
12648761333.333334 0.022043007016695287 -0.9997570234019268 3.2694682243097095e-17 1.1726443247319736e-16 3.2694682243097095e-17 1.1726443247319736e-16 0.022043686014241764 -0.9997570084309105
12649378666.666666 0.010830211570972217 -0.9999413515387523 3.4011372500256136e-17 1.1686458586186823e-16 3.4011372500256136e-17 1.1686458586186823e-16 0.01083089066056996 -0.9999413441834061
12649996000.0 -0.0003839458877432758 -0.9999999262926841 3.5323203500992286e-17 1.1644996453462847e-16 3.5323203500992286e-17 1.1644996453462847e-16 -0.00038326679150190964 -0.9999999265531894
12650613333.333334 -0.011598055058503049 -0.9999327402974053 3.663000956562807e-17 1.160206272230754e-16 3.663000956562807e-17 1.160206272230754e-16 -0.011597376041018202 -0.9999327481729865
12651230666.666666 -0.02281070564640493 -0.9997398020023668 3.793162572094246e-17 1.1557663451546074e-16 3.793162572094246e-17 1.1557663451546074e-16 -0.022810026793058505 -0.99973981749129
12651848000.0 -0.03402048754003774 -0.9994211356717232 3.9227887721005524e-17 1.151180488482139e-16 3.9227887721005524e-17 1.151180488482139e-16 -0.03401980893618266 -0.9994211587712978
12652465333.333334 -0.04522599098878945 -0.9989767813812792 4.0518632067820263e-17 1.1464493449726385e-16 4.0518632067820263e-17 1.1464493449726385e-16 -0.045225312719738946 -0.9989768120878582
12653082666.666666 -0.0564258067799398 -0.9984067950134611 4.1803696031920207e-17 1.1415735756911023e-16 4.1803696031920207e-17 1.1415735756911023e-16 -0.05642512893095668 -0.9984068333224401
12653700000.0 -0.06761852641628147 -0.9977112482502691 4.3082917672892747e-17 1.1365538599165104e-16 4.3082917672892747e-17 1.1365538599165104e-16 -0.06761784907256738 -0.9977112941560891
12654317333.333334 -0.07880274229279942 -0.9968902285642852 4.4356135859683685e-17 1.1313908950482239e-16 4.4356135859683685e-17 1.1313908950482239e-16 -0.07880206553948421 -0.9968902820604326
12654934666.666666 -0.08997704787409008 -0.9959438392076545 4.562319029091691e-17 1.1260853965096394e-16 4.562319029091691e-17 1.1260853965096394e-16 -0.08997637179622096 -0.9959439002866607
12655552000.0 -0.10114003787107725 -0.9948721991991007 4.688392151501881e-17 1.1206380976498682e-16 4.688392151501881e-17 1.1206380976498682e-16 -0.10113936255360834 -0.9948722678525461
12656169333.333334 -0.11229030841757334 -0.9936754433089828 4.813817095023065e-17 1.1150497496431812e-16 4.813817095023065e-17 1.1150497496431812e-16 -0.11228963394535468 -0.9936755195274944
12656786666.666666 -0.12342645724719799 -0.9923537220423082 4.938578090456205e-17 1.10932112138595e-16 4.938578090456205e-17 1.10932112138595e-16 -0.1234257837049652 -0.9923538058155635
12657404000.0 -0.13454708386941733 -0.9909072016198361 5.062659459554681e-17 1.1034529993916872e-16 5.062659459554681e-17 1.1034529993916872e-16 -0.1345464113417806 -0.9909072929365624
12658021333.333334 -0.14565078974581178 -0.989336063957157 5.186045616992559e-17 1.0974461876836639e-16 5.186045616992559e-17 1.0974461876836639e-16 -0.14565011831724572 -0.9893361628051358
12658638666.666666 -0.15673617846590118 -0.9876405066418266 5.308721072318074e-17 1.0913015076854381e-16 5.308721072318074e-17 1.0913015076854381e-16 -0.15673550822073387 -0.9876406130078927
12659256000.0 -0.16780185592287075 -0.9858207429084954 5.4306704318956933e-17 1.0850197981091128e-16 5.4306704318956933e-17 1.0850197981091128e-16 -0.1678011869452733 -0.9858208567785404
12659873333.333334 -0.1788464304887267 -0.9838770016121218 5.551878400833917e-17 1.0786019148415067e-16 5.551878400833917e-17 1.0786019148415067e-16 -0.17884576286270235 -0.9838771229710933
12660490666.666666 -0.18986851318939205 -0.981809527199175 5.672329784897815e-17 1.0720487308282633e-16 5.672329784897815e-17 1.0720487308282633e-16 -0.18986784699876616 -0.9818096560310816
12661108000.0 -0.20086671787949756 -0.9796185796768738 5.792009492414127e-17 1.0653611359555109e-16 5.792009492414127e-17 1.0653611359555109e-16 -0.20086605320790682 -0.9796187159647861
12661725333.333334 -0.21183966141639726 -0.9773044345805486 5.91090253615518e-17 1.0585400369297931e-16 5.91090253615518e-17 1.0585400369297931e-16 -0.21183899834727868 -0.977304578306599
12662342666.666666 -0.22278596383450236 -0.9748673829389046 6.02899403521361e-17 1.0515863571556348e-16 6.02899403521361e-17 1.0515863571556348e-16 -0.2227853024510844 -0.9748675340842969
12662960000.0 -0.23370424851852337 -0.9723077312374979 6.146269216860644e-17 1.044501036611143e-16 6.146269216860644e-17 1.044501036611143e-16 -0.23370358890381318 -0.9723078897824989
12663577333.333334 -0.24459314237670293 -0.9696258013801555 6.262713418391678e-17 1.0372850317214368e-16 6.262713418391678e-17 1.0372850317214368e-16 -0.24459248461347774 -0.9696259673041066
12664194666.666666 -0.2554512760135807 -0.9668219306484791 6.378312088954044e-17 1.0299393152301953e-16 6.378312088954044e-17 1.0299393152301953e-16 -0.25545062018437686 -0.9668221039297953
12664812000.0 -0.2662772839020441 -0.9638964716594667 6.493050791362528e-17 1.0224648760690223e-16 6.493050791362528e-17 1.0224648760690223e-16 -0.26627663008914665 -0.9638966522756403
12665429333.333334 -0.277069804555168 -0.9608497923211406 6.606915203899898e-17 1.0148627192247704e-16 6.606915203899898e-17 1.0148627192247704e-16 -0.2770691528406006 -0.9608499802487434
12666046666.666666 -0.2878274806973822 -0.9576822757862952 6.719891122097355e-17 1.0071338656051627e-16 6.719891122097355e-17 1.0071338656051627e-16 -0.28782683116289604 -0.9576824710009808
12666664000.0 -0.2985489594352982 -0.9543943204042656 6.831964460508251e-17 9.992793519018508e-17 6.831964460508251e-17 9.992793519018508e-17 -0.2985483121623629 -0.9543945228807752
12667281333.333334 -0.3092328924275522 -0.9509863396709277 6.943121254454484e-17 9.913002304522783e-17 6.943121254454484e-17 9.913002304522783e-17 -0.3092322474973452 -0.9509865493830917
12667898666.666666 -0.3198779360547264 -0.947458762176585 7.053347661766451e-17 9.831975690989391e-17 7.053347661766451e-17 9.831975690989391e-17 -0.3198772935481222 -0.9474589790973258
12668516000.0 -0.33048275158815993 -0.9438120315521183 7.162629964503842e-17 9.749724510469053e-17 7.162629964503842e-17 9.749724510469053e-17 -0.3304821115857206 -0.9438122556534546
12669133333.333334 -0.3410460053581479 -0.9400466064132512 7.270954570654858e-17 9.6662597471981e-17 7.270954570654858e-17 9.6662597471981e-17 -0.3410453679401123 -0.9400468376663008
12669750666.666666 -0.35156636892201276 -0.936162960302751 7.378308015826513e-17 9.581592536133795e-17 7.378308015826513e-17 9.581592536133795e-17 -0.35156573416828774 -0.9361631986777365
12670368000.0 -0.3620425192309038 -0.9321615816309738 7.48467696491408e-17 9.495734161473818e-17 7.48467696491408e-17 9.495734161473818e-17 -0.362041887221053 -0.932161827097225
