! Parameters = {f0=12700.012000; bw=77.238000; Q=6100.000000; N=10; m_0_1=1.275170; m_1_1=0.362807; m_1_2=1.109982; m_2_2=0.362158; m_2_3=0.746945; m_2_8=0.000822; m_2_9=0.037526; m_3_3=0.360221; m_3_4=0.635474; m_3_7=0.001422; m_3_8=-0.095666; m_3_9=0.000822; m_4_4=0.357296; m_4_5=0.471809; m_4_6=0.004939; m_4_7=-0.116215; m_4_8=0.001422; m_5_5=0.357678; m_5_6=0.879164; m_5_7=0.004939; m_6_6=0.357677; m_6_7=0.472151; m_7_7=0.357310; m_7_8=0.635592; m_8_8=0.360219; m_8_9=0.747258; m_9_9=0.362153; m_9_10=1.111060; m_10_10=0.362797; m_10_11=1.275965}
!
! Created with skrf (http://scikit-rf.org).
# Hz S RI R 50.0 
!freq ReS11 ImS11 ReS21 ImS21 ReS12 ImS12 ReS22 ImS22
12607400000.0 -0.7080029031596228 -0.7062095221089606 9.966195227530738e-17 5.3944665543811926e-17 9.966195227530738e-17 5.3944665543811926e-17 -0.7080024287095479 -0.7062099977635571
12608017333.333334 -0.7155017590860024 -0.69861093087974 1.0021722404144672e-16 5.285839876714925e-17 1.0021722404144672e-16 5.285839876714925e-17 -0.7155012897638364 -0.6986114115487294
12608634666.666666 -0.7229190682527341 -0.6909327179663881 1.0076066529181788e-16 5.176643220528534e-17 1.0076066529181788e-16 5.176643220528534e-17 -0.7229186041114615 -0.6909332035944996
12609252000.0 -0.730253985298593 -0.6831757584658174 1.0129221769653754e-16 5.066889460539927e-17 1.0129221769653754e-16 5.066889460539927e-17 -0.7302535263906027 -0.6831762489972202
12609869333.333334 -0.7375056742526629 -0.6753409364498402 1.0181182432577832e-16 4.9565915309599475e-17 1.0181182432577832e-16 4.9565915309599475e-17 -0.7375052206297427 -0.6753414318281511
12610486666.666666 -0.7446733086295778 -0.6674291448644561 1.0231942965580305e-16 4.845762423973342e-17 1.0231942965580305e-16 4.845762423973342e-17 -0.7446728603429076 -0.667429645032744
12611104000.0 -0.7517560715239842 -0.6594412854277844 1.0281497957486972e-16 4.734415188206038e-17 1.0281497957486972e-16 4.734415188206038e-17 -0.7517556286241309 -0.6594417903285782
12611721333.333334 -0.7587531557032435 -0.6513782685277365 1.0329842138891728e-16 4.6225629271978654e-17 1.0329842138891728e-16 4.6225629271978654e-17 -0.7587527182401553 -0.6513787781030315
12612338666.666666 -0.7656637636997768 -0.6432410131178783 1.0376970382713158e-16 4.5102187978595936e-17 1.0376970382713158e-16 4.5102187978595936e-17 -0.7656633317227776 -0.6432415273091427
12612956000.0 -0.7724871079018008 -0.6350304466128649 1.0422877704732937e-16 4.397396008927268e-17 1.0422877704732937e-16 4.397396008927268e-17 -0.7724866814595835 -0.6350309653610463
12613573333.333334 -0.7792224106430745 -0.6267475047827621 1.0467559264115203e-16 4.2841078194168125e-17 1.0467559264115203e-16 4.2841078194168125e-17 -0.7792219897836979 -0.6267480280282954
12614190666.666666 -0.7858689042915714 -0.6183931316463562 1.0511010363913338e-16 4.170367537063333e-17 1.0511010363913338e-16 4.170367537063333e-17 -0.7858684890624525 -0.6183936593291691
12614808000.0 -0.7924258313370168 -0.6099682793634927 1.0553226451556024e-16 4.056188516764574e-17 1.0553226451556024e-16 4.056188516764574e-17 -0.7924254217849267 -0.6099688114230132
12615425333.333334 -0.7988924444771014 -0.601473908126715 1.0594203119319008e-16 3.941584159013301e-17 1.0594203119319008e-16 3.941584159013301e-17 -0.7988920406481592 -0.601474444501878
12616042666.666666 -0.8052680067027891 -0.5929109860516484 1.0633936104778524e-16 3.826567908328273e-17 1.0633936104778524e-16 3.826567908328273e-17 -0.8052676086424578 -0.5929115266809032
12616660000.0 -0.8115517913821827 -0.584280489066847 1.0672421291247802e-16 3.7111532516807626e-17 1.0672421291247802e-16 3.7111532516807626e-17 -0.8115513991352619 -0.5842810338881631
12617277333.333334 -0.8177430823434815 -0.5755834008023543 1.0709654708197653e-16 3.595353716913426e-17 1.0709654708197653e-16 3.595353716913426e-17 -0.8177426959541071 -0.5755839497532321
12617894666.666666 -0.8238411739564018 -0.566820712477905 1.0745632531657857e-16 3.4791828711614636e-17 1.0745632531657857e-16 3.4791828711614636e-17 -0.8238407934680345 -0.5668212654953779
12618512000.0 -0.8298453712128984 -0.5579934227895068 1.0780351084604514e-16 3.362654319260053e-17 1.0780351084604514e-16 3.362654319260053e-17 -0.8298449966683238 -0.5579939798101519
12619129333.333334 -0.8357549898060401 -0.5491025377961097 1.0813806837326453e-16 3.245781702160312e-17 1.0813806837326453e-16 3.245781702160312e-17 -0.8357546212473619 -0.5491030987560539
12619746666.666666 -0.841569356208212 -0.5401490708046414 1.0845996407777617e-16 3.128578695331255e-17 1.0845996407777617e-16 3.128578695331255e-17 -0.841568993676848 -0.5401496356395693
12620364000.0 -0.8472878077479208 -0.5311340422544447 1.0876916561911228e-16 3.0110590071614453e-17 1.0876916561911228e-16 3.0110590071614453e-17 -0.8472874512845967 -0.5311346108996047
12620981333.333334 -0.8529096926850709 -0.5220584796013572 1.0906564213995067e-16 2.893236377363323e-17 1.0906564213995067e-16 2.893236377363323e-17 -0.8529093423298186 -0.5220590519915712
12621598666.666666 -0.858434370285527 -0.5129234172001836 1.0934936426912307e-16 2.775124575364348e-17 1.0934936426912307e-16 2.775124575364348e-17 -0.8584340260776776 -0.5129239932698522
12622216000.0 -0.8638612108939359 -0.503729896187118 1.0962030412442843e-16 2.6567373987030485e-17 1.0962030412442843e-16 2.6567373987030485e-17 -0.8638608728721162 -0.5037304758702291
12622833333.333334 -0.8691895960056415 -0.4944789643608437 1.0987843531527992e-16 2.538088671419967e-17 1.0987843531527992e-16 2.538088671419967e-17 -0.8691892642077685 -0.4944795475909794
12623450666.666666 -0.8744189183369999 -0.485171676063406 1.101237329451771e-16 2.419192242446817e-17 1.101237329451771e-16 2.419192242446817e-17 -0.8744185928002791 -0.4851722627737511
12624068000.0 -0.8795485818947806 -0.4758090920597288 1.1035617361400935e-16 2.300061983990533e-17 1.1035617361400935e-16 2.300061983990533e-17 -0.8795482626557 -0.47580968218307834
12624685333.333334 -0.8845780020439914 -0.4663922794168899 1.1057573542018002e-16 2.1807117899177816e-17 1.1057573542018002e-16 2.1807117899177816e-17 -0.8845776891383176 -0.4663928728856563
12625302666.666666 -0.8895066055744864 -0.456922311382557 1.1078239796254922e-16 2.0611555741413727e-17 1.1078239796254922e-16 2.0611555741413727e-17 -0.8895062990372598 -0.45692290812877745
12625920000.0 -0.8943338307663842 -0.44740026726249 1.1097614234222254e-16 1.941407268993955e-17 1.1097614234222254e-16 1.941407268993955e-17 -0.8943335306319176 -0.4474008672178357
12626537333.333334 -0.8990591274540137 -0.43782723229768494 1.1115695116414052e-16 1.8214808236137674e-17 1.1115695116414052e-16 1.8214808236137674e-17 -0.8990588337558856 -0.4378278353934674
12627154666.666666 -0.9036819570885913 -0.42820429754073785 1.1132480853851105e-16 1.7013902023196317e-17 1.1132480853851105e-16 1.7013902023196317e-17 -0.903681669859644 -0.4282049037079178
12627772000.0 -0.9082017927997743 -0.418532559731138 1.114797000820642e-16 1.5811493829847796e-17 1.114797000820642e-16 1.5811493829847796e-17 -0.9082015120721102 -0.418533168900333
12628389333.333334 -0.9126181194554396 -0.4088131211708356 1.116216129191201e-16 1.4607723554192735e-17 1.116216129191201e-16 1.4607723554192735e-17 -0.9126178452604157 -0.40881373327232745
12629006666.666666 -0.9169304337206686 -0.3990470895980175 1.1175053568249982e-16 1.3402731197380398e-17 1.1175053568249982e-16 1.3402731197380398e-17 -0.9169301660888967 -0.3990477045617613
12629624000.0 -0.9211382441148938 -0.38923557806134973 1.1186645851424636e-16 1.2196656847397668e-17 1.1186645851424636e-16 1.2196656847397668e-17 -0.9211379830762315 -0.38923619581698043
12630241333.333334 -0.9252410710680672 -0.3793797047927556 1.119693730661782e-16 1.0989640662797196e-17 1.119693730661782e-16 1.0989640662797196e-17 -0.9252408166516202 -0.37938032526959725
12630858666.666666 -0.9292384469751793 -0.369480593080311 1.1205927250026469e-16 9.781822856449164e-18 1.1205927250026469e-16 9.781822856449164e-18 -0.9292381992092952 -0.36948121620738456
12631476000.0 -0.9331299162497045 -0.3595393711398544 1.1213615148883115e-16 8.57334367923577e-18 1.1213615148883115e-16 8.57334367923577e-18 -0.9331296751619695 -0.35953999684588533
12632093333.333334 -0.9369150353754114 -0.34955717198666286 1.1220000621458067e-16 7.364343403856025e-18 1.1220000621458067e-16 7.364343403856025e-18 -0.9369148009926493 -0.3495578002000903
12632710666.666666 -0.9405933729569125 -0.339535133306352 1.122508343704491e-16 6.154962308529203e-18 1.122508343704491e-16 6.154962308529203e-18 -0.9405931453051789 -0.33953576395533563
12633328000.0 -0.94416450976895 -0.32947439732486217 1.1228863515928166e-16 4.945340660739007e-18 1.1228863515928166e-16 4.945340660739007e-18 -0.944164288873532 -0.32947503033729186
12633945333.333334 -0.9476280388040169 -0.3193761106787339 1.1231340929333325e-16 3.735618701030083e-18 1.1231340929333325e-16 3.735618701030083e-18 -0.9476278246894296 -0.3193767459822371
12634562666.666666 -0.9509835653188652 -0.309241424284075 1.123251589935979e-16 2.5259366267373647e-18 1.123251589935979e-16 2.5259366267373647e-18 -0.9509833580088461 -0.3092420618060243
12635180000.0 -0.9542307068794096 -0.2990714932056296 1.123238879889605e-16 1.3164345757937977e-18 1.123238879889605e-16 1.3164345757937977e-18 -0.9542305063969218 -0.29907213287315315
12635797333.333334 -0.9573690934043998 -0.28886747652489375 1.1230960151517665e-16 1.0725261049384897e-19 1.1230960151517665e-16 1.0725261049384897e-19 -0.9573688997716235 -0.2888681182648813
12636414666.666666 -0.9603983672074915 -0.2786305372083355 1.122823063136767e-16 -1.101469298664079e-18 1.122823063136767e-16 -1.101469298664079e-18 -0.9603981804458255 -0.2786311809474483
12637032000.0 -0.9633181830381339 -0.26836184197447227 1.1224201063019695e-16 -2.3095912891821057e-18 1.1224201063019695e-16 -2.3095912891821057e-18 -0.9633180031681902 -0.2683624876391504
12637649333.333334 -0.9661282081208211 -0.2580625611611945 1.1218872421323627e-16 -3.516973622716575e-18 1.1218872421323627e-16 -3.516973622716575e-18 -0.9661280351624258 -0.25806320867766624
12638266666.666666 -0.9688281221930587 -0.24773386859227461 1.1212245831234045e-16 -4.723476701195117e-18 1.1212245831234045e-16 -4.723476701195117e-18 -0.9688279561652489 -0.24773451788656442
12638884000.0 -0.9714176175418846 -0.23737694144350094 1.1204322567621229e-16 -5.9289610829526534e-18 1.1204322567621229e-16 -5.9289610829526534e-18 -0.9714174584629045 -0.23737759244143775
12639501333.333334 -0.9738963990388935 -0.22699296010867792 1.1195104055064903e-16 -7.133287498814238e-18 1.1195104055064903e-16 -7.133287498814238e-18 -0.9738962469261933 -0.22699361273590365
12640118666.666666 -0.9762641841738827 -0.21658310806506817 1.1184591867630982e-16 -8.336316868129466e-18 1.1184591867630982e-16 -8.336316868129466e-18 -0.9762640390441195 -0.2165837622470469
12640736000.0 -0.9785207030871361 -0.2061485717381501 1.117278772863028e-16 -9.537910314880424e-18 1.117278772863028e-16 -9.537910314880424e-18 -0.9785205649561658 -0.20614922740017513
12641353333.333334 -0.9806656986000112 -0.19569054036711914 1.1159693510361458e-16 -1.0737929183588194e-17 1.1159693510361458e-16 -1.0737929183588194e-17 -0.9806655674828926 -0.19569119743432284
12641970666.666666 -0.982698926244398 -0.18521020586871131 1.1145311233835264e-16 -1.1936235055362128e-17 1.1145311233835264e-16 -1.1936235055362128e-17 -0.9826988021553895 -0.18521086426607333
12642588000.0 -0.9846201542905344 -0.17470876270155225 1.11296430684826e-16 -1.3132689763817197e-17 1.11296430684826e-16 -1.3132689763817197e-17 -0.9846200372430917 -0.1747094223539079
12643205333.333334 -0.9864291637733867 -0.16418740773019103 1.1112691331845496e-16 -1.4327155410958972e-17 1.1112691331845496e-16 -1.4327155410958972e-17 -0.9864290537801614 -0.16418806856223989
12643822666.666666 -0.9881257485176657 -0.15364734008835607 1.1094458489250375e-16 -1.5519494383085158e-17 1.1094458489250375e-16 -1.5519494383085158e-17 -0.9881256455905038 -0.15364800202467055
12644440000.0 -0.9897097151612586 -0.14308976104265178 1.1074947153465167e-16 -1.670956936658795e-17 1.1074947153465167e-16 -1.670956936658795e-17 -0.9897096193112016 -0.14309042400768612
12645057333.333334 -0.9911808831773161 -0.1325158738553972 1.1054160084339141e-16 -1.7897243363737563e-17 1.1054160084339141e-16 -1.7897243363737563e-17 -0.9911807944145956 -0.13251653777349537
12645674666.666666 -0.9925390848947868 -0.1219268836477123 1.1032100188425793e-16 -1.908237970843262e-17 1.1032100188425793e-16 -1.908237970843262e-17 -0.9925390032288276 -0.1219275484431174
12646292000.0 -0.9937841655175891 -0.11132399726174706 1.1008770518588282e-16 -2.0264842081930713e-17 1.1008770518588282e-16 -2.0264842081930713e-17 -0.9937840909570048 -0.11132466285860938
12646909333.333334 -0.9949159831421752 -0.10070842312369876 1.0984174273589891e-16 -2.144449452843891e-17 1.0984174273589891e-16 -2.144449452843891e-17 -0.9949159156947706 -0.10070908944608485
12647526666.666666 -0.9959344087737593 -0.09008137110572051 1.09583147976656e-16 -2.2621201470771856e-17 1.09583147976656e-16 -2.2621201470771856e-17 -0.9959343484465253 -0.09008203807762138
12648144000.0 -0.9968393263410084 -0.07944405238800055 1.0931195580078085e-16 -2.379482772589405e-17 1.0931195580078085e-16 -2.379482772589405e-17 -0.9968392731401267 -0.07944471993334092
12648761333.333334 -0.9976306327092626 -0.06879767932089291 1.0902820254657467e-16 -2.496523852040458e-17 1.0902820254657467e-16 -2.496523852040458e-17 -0.9976305866400993 -0.06879834736353932
12649378666.666666 -0.99830823769228 -0.05814346528680033 1.0873192599323806e-16 -2.6132299505993044e-17 1.0873192599323806e-16 -2.6132299505993044e-17 -0.9983081987593907 -0.05814413375057028
12649996000.0 -0.9988720640625391 -0.047482624561685616 1.0842316535592839e-16 -2.7295876774855807e-17 1.0842316535592839e-16 -2.7295876774855807e-17 -0.9988720322696637 -0.04748329337035591
12650613333.333334 -0.9993220475600304 -0.0368163721766782 1.0810196128066031e-16 -2.8455836875017887e-17 1.0810196128066031e-16 -2.8455836875017887e-17 -0.9993220229100951 -0.0368170412539938
12651230666.666666 -0.9996581368995697 -0.0261459237799078 1.0776835583904557e-16 -2.9612046825590237e-17 1.0776835583904557e-16 -2.9612046825590237e-17 -0.9996581193946871 -0.026146593049590536
12651848000.0 -0.9998802937766624 -0.015472495497444118 1.074223925228495e-16 -3.0764374132039994e-17 1.074223925228495e-16 -3.0764374132039994e-17 -0.9998802834181304 -0.015473164883201324
12652465333.333334 -0.9999884928718535 -0.004797303795176082 1.0706411623841311e-16 -3.191268680129749e-17 1.0706411623841311e-16 -3.191268680129749e-17 -0.9999884896601542 -0.00479797322070929
12653082666.666666 -0.9999827218536187 0.005878434660057808 1.0669357330089765e-16 -3.3056853356857487e-17 1.0669357330089765e-16 -3.3056853356857487e-17 -0.9999827257884217 0.0058777652710441265
12653700000.0 -0.9998629813797711 0.01655350313919152 1.0631081142835796e-16 -3.419674285384468e-17 1.0631081142835796e-16 -3.419674285384468e-17 -0.9998629924599309 0.016552833862981304
12654317333.333334 -0.9996292850973851 0.027226684989433356 1.0591587973568858e-16 -3.53322248939091e-17 1.0591587973568858e-16 -3.53322248939091e-17 -0.9996293033209416 0.027226015902290242
12654934666.666666 -0.9992816596412435 0.03789676377298648 1.0550882872837343e-16 -3.646316964016704e-17 1.0550882872837343e-16 -3.646316964016704e-17 -0.9992816850054227 0.03789609495114512
12655552000.0 -0.9988201446307902 0.04856252340591524 1.0508971029609581e-16 -3.7589447832010686e-17 1.0508971029609581e-16 -3.7589447832010686e-17 -0.9988201771320053 0.04856185492557263
12656169333.333334 -0.9982447926656378 0.05922274829626127 1.0465857770620198e-16 -3.871093079981881e-17 1.0465857770620198e-16 -3.871093079981881e-17 -0.9982448322994877 0.05922208023356798
12656786666.666666 -0.9975556693195439 0.06987622348309708 1.0421548559697519e-16 -3.982749047967947e-17 1.0421548559697519e-16 -3.982749047967947e-17 -0.9975557160808174 0.06987555591414882
12657404000.0 -0.996752853132966 0.08052173477462841 1.0376048997078697e-16 -4.0938999427947636e-17 1.0376048997078697e-16 -4.0938999427947636e-17 -0.9967529070156371 0.08052106777545699
12658021333.333334 -0.9958364356040811 0.0911580688868603 1.0329364818706741e-16 -4.2045330835793633e-17 1.0329364818706741e-16 -4.2045330835793633e-17 -0.995836496601316 0.09115740253342539
12658638666.666666 -0.9948065211783931 0.1017840135815375 1.0281501895514753e-16 -4.314635854360438e-17 1.0281501895514753e-16 -4.314635854360438e-17 -0.9948065892825452 0.10178334794971758
12659256000.0 -0.9936632272367917 0.11239835780467261 1.0232466232691104e-16 -4.424195705539486e-17 1.0232466232691104e-16 -4.424195705539486e-17 -0.9936633024394064 0.11239769297025662
12659873333.333334 -0.9924066840821901 0.12299989182440177 1.0182263968933482e-16 -4.53320015530377e-17 1.0182263968933482e-16 -4.53320015530377e-17 -0.9924067663740054 0.12299922786308046
12660490666.666666 -0.9910370349247002 0.13358740736866231 1.0130901375685538e-16 -4.6416367910464407e-17 1.0130901375685538e-16 -4.6416367910464407e-17 -0.9910371242956457 0.13358674435601942
12661108000.0 -0.9895544358652463 0.1441596977634087 1.0078384856356949e-16 -4.74949327078092e-17 1.0078384856356949e-16 -4.74949327078092e-17 -0.989554532304446 0.14415903577491243
12661725333.333334 -0.9879590558778539 0.1547155580695189 1.0024720945533136e-16 -4.8567573245368014e-17 1.0024720945533136e-16 -4.8567573245368014e-17 -0.9879591593736284 0.15471489718051357
12662342666.666666 -0.9862510767903211 0.16525378522065806 9.969916308164815e-17 -4.9634167557580517e-17 9.969916308164815e-17 -4.9634167557580517e-17 -0.9862511873301872 0.16525312550635526
12662960000.0 -0.9844306932635466 0.17577317816002822 9.913977738746295e-17 -5.069459442684711e-17 9.913977738746295e-17 -5.069459442684711e-17 -0.9844308108342198 0.17577251969549829
12663577333.333334 -0.9824981127693027 0.1862725379775065 9.85691216047829e-17 -5.17487333972713e-17 9.85691216047829e-17 -5.17487333972713e-17 -0.9824982373566987 0.18627188083767016
12664194666.666666 -0.9804535555666325 0.19675066804606373 9.798726624414922e-17 -5.2796464788334e-17 9.798726624414922e-17 -5.2796464788334e-17 -0.9804536871558682 0.1967500123056832
12664812000.0 -0.9782972546766993 0.20720637415836757 9.739428308598296e-17 -5.3837669708430055e-17 9.739428308598296e-17 -5.3837669708430055e-17 -0.9782973932520955 0.20720571989203856
12665429333.333334 -0.9760294558562653 0.21763846466272224 9.679024517176306e-17 -5.487223006835609e-17 9.679024517176306e-17 -5.487223006835609e-17 -0.9760296014013482 0.217637811944865
12666046666.666666 -0.9736504175696947 0.22804575059882637 9.617522679509515e-17 -5.590002859463927e-17 9.617522679509515e-17 -5.590002859463927e-17 -0.9736505700671988 0.22804509950367785
12666664000.0 -0.9711604109594113 0.23842704583366994 9.554930349258815e-17 -5.692094884285386e-17 9.554930349258815e-17 -5.692094884285386e-17 -0.9711605703912783 0.23842639643527433
12667281333.333334 -0.9685597198151237 0.2487811671961362 9.49125520346563e-17 -5.793487521072495e-17 9.49125520346563e-17 -5.793487521072495e-17 -0.9685598861625085 0.24878051956833752
12667898666.666666 -0.9658486405413781 0.2591069346123214 9.426505041611759e-17 -5.894169295123849e-17 9.426505041611759e-17 -5.894169295123849e-17 -0.9658488137846488 0.2591062888287545
12668516000.0 -0.9630274821237891 0.26940317123994495 9.360687784669546e-17 -5.9941288185576e-17 9.360687784669546e-17 -5.9941288185576e-17 -0.9630276622425286 0.2694025273740271
12669133333.333334 -0.9600965660939021 0.27966870360217294 9.293811474137338e-17 -6.093354791596366e-17 9.293811474137338e-17 -6.093354791596366e-17 -0.9600967530669149 0.27966806172709646
12669750666.666666 -0.9570562264924714 0.2899023617216931 9.225884271060754e-17 -6.191836003842158e-17 9.225884271060754e-17 -6.191836003842158e-17 -0.9570564202977793 0.2899017219104154
