! Parameters = {f0=12700.012000; bw=77.238000; Q=6100.000000; N=10; m_0_1=1.310205; m_1_1=0.888332; m_1_2=1.145017; m_2_2=0.887683; m_2_3=0.781980; m_2_8=0.002574; m_2_9=0.039278; m_3_3=0.885746; m_3_4=0.670509; m_3_7=0.003174; m_3_8=-0.093914; m_3_9=0.002574; m_4_4=0.882821; m_4_5=0.506844; m_4_6=0.006691; m_4_7=-0.114463; m_4_8=0.003174; m_5_5=0.883203; m_5_6=0.914199; m_5_7=0.006691; m_6_6=0.883202; m_6_7=0.507186; m_7_7=0.882835; m_7_8=0.670627; m_8_8=0.885744; m_8_9=0.782293; m_9_9=0.887678; m_9_10=1.146095; m_10_10=0.888322; m_10_11=1.311000}
!
! Created with skrf (http://scikit-rf.org).
# Hz S RI R 50.0 
!freq ReS11 ImS11 ReS21 ImS21 ReS12 ImS12 ReS22 ImS22
12607400000.0 -0.03851757106845142 0.9992579230202773 -3.288684159457811e-17 -1.2907421733818123e-16 -3.288684159457811e-17 -1.2907421733818123e-16 -0.03851826077471712 0.9992578964345001
12608017333.333334 -0.0268123691912509 0.9996404838031342 -3.4400881672634674e-17 -1.2865197216153064e-16 -3.4400881672634674e-17 -1.2865197216153064e-16 -0.02681305912779144 0.9996404652974096
12608634666.666666 -0.015103489783060418 0.9998859357927715 -3.5909538751770016e-17 -1.282119782129285e-16 -3.5909538751770016e-17 -1.282119782129285e-16 -0.01510417985522748 0.9998859253688458
12609252000.0 -0.003392538811577341 0.9999942453235545 -3.741260489620801e-17 -1.2775430370092286e-16 -3.741260489620801e-17 -1.2775430370092286e-16 -0.003393228924713306 0.9999942429820663
12609869333.333334 0.008318877471399515 0.9999653975400492 -3.890987302989409e-17 -1.2727901926859997e-16 -3.890987302989409e-17 -1.2727901926859997e-16 0.008318187411948634 0.9999654032805292
12610486666.666666 0.02002915275010988 0.99979939639906 -4.0401136964973536e-17 -1.2678619798279981e-16 -4.0401136964973536e-17 -1.2678619798279981e-16 0.02002846283898145 0.9997994102199297
12611104000.0 0.03173668086557754 0.9994962646690828 -4.188619143016047e-17 -1.2627591532299165e-16 -4.188619143016047e-17 -1.2627591532299165e-16 0.0317359911973793 0.9994962865676548
12611721333.333334 0.04343985603533965 0.9990560439271873 -4.336483209891059e-17 -1.2574824916983643e-16 -4.336483209891059e-17 -1.2574824916983643e-16 0.043439166704636774 0.9990560738996678
12612338666.666666 0.05513707307406232 0.9984787945533136 -4.4836855617537676e-17 -1.252032797933913e-16 -4.4836855617537676e-17 -1.252032797933913e-16 0.05513638417536446 0.9984788325948021
12612956000.0 0.06682672761378977 0.9977645957219794 -4.6302059633115184e-17 -1.2464108984100843e-16 -4.6302059633115184e-17 -1.2464108984100843e-16 0.06682603924153807 0.9977646418264687
12613573333.333334 0.07850721632357062 0.996913545391443 -4.776024282122852e-17 -1.240617643249093e-16 -4.776024282122852e-17 -1.240617643249093e-16 0.07850652857212476 0.9969135995518202
12614190666.666666 0.09017693712973683 0.9959257602902498 -4.9211204913640064e-17 -1.23465390609409e-16 -4.9211204913640064e-17 -1.23465390609409e-16 0.09017625009336208 0.9959258224982981
12614808000.0 0.10183428943558408 0.9948013759012214 -5.0654746725711707e-17 -1.228520583978503e-16 -5.0654746725711707e-17 -1.228520583978503e-16 0.10183360320843846 0.9948014461476214
12615425333.333334 0.11347767434076476 0.9935405464428838 -5.2090670183722256e-17 -1.2222185971919557e-16 -5.2090670183722256e-17 -1.2222185971919557e-16 0.11347698901688613 0.9935406247172149
12616042666.666666 0.1251054948607039 0.99214344484831 -5.3518778351995215e-17 -1.2157488891431063e-16 -5.3518778351995215e-17 -1.2157488891431063e-16 0.12510481053399697 0.9921435311390511
12616660000.0 0.13671615614558155 0.9906102627414018 -5.493887545987781e-17 -1.2091124262192222e-16 -5.493887545987781e-17 -1.2091124262192222e-16 0.1367154729098052 0.990610357035934
12617277333.333334 0.1483080656992207 0.9889412104105931 -5.635076692851682e-17 -1.2023101976427596e-16 -5.635076692851682e-17 -1.2023101976427596e-16 0.1483073836479748 0.9889413126951999
12617894666.666666 0.15987963359720048 0.9871365167800437 -5.775425939746838e-17 -1.1953432153247724e-16 -5.775425939746838e-17 -1.1953432153247724e-16 0.1598789528239135 0.9871366270399156
12618512000.0 0.1714292727053503 0.9851964293781863 -5.914916075118188e-17 -1.188212513714958e-16 -5.914916075118188e-17 -1.188212513714958e-16 0.17142859330326615 0.98519654759742
12619129333.333334 0.1829553988969875 0.9831212143038395 -6.053528014518537e-17 -1.1809191496491907e-16 -6.053528014518537e-17 -1.1809191496491907e-16 0.18295472095915316 0.9831213404654435
12619746666.666666 0.1944564312705873 0.9809111561896522 -6.191242803219514e-17 -1.1734642021934443e-16 -6.191242803219514e-17 -1.1734642021934443e-16 0.19445575488983946 0.9809112902755454
12620364000.0 0.20593079236644582 0.9785665581630815 -6.328041618800061e-17 -1.1658487724848464e-16 -6.328041618800061e-17 -1.1658487724848464e-16 0.20593011763539892 0.9785667001540997
12620981333.333334 0.21737690838287665 0.9760877418048621 -6.463905773709534e-17 -1.1580739835700456e-16 -6.463905773709534e-17 -1.1580739835700456e-16 0.21737623539390943 0.9760878916807567
12621598666.666666 0.22879320939243097 0.9734750471048162 -6.598816717820308e-17 -1.1501409802400953e-16 -6.598816717820308e-17 -1.1501409802400953e-16 0.22879253823767448 0.9734752048442605
12622216000.0 0.24017812955692028 0.9707288324152892 -6.732756040955301e-17 -1.1420509288626388e-16 -6.732756040955301e-17 -1.1420509288626388e-16 0.2401774603282452 0.9707289979958811
12622833333.333334 0.25153010734235104 0.9678494744019634 -6.865705475394381e-17 -1.1338050172112024e-16 -6.865705475394381e-17 -1.1338050172112024e-16 0.2515294401313543 0.9678496478002252
12623450666.666666 0.2628475857329626 0.9648373679922259 -6.997646898361281e-17 -1.1254044542915001e-16 -6.997646898361281e-17 -1.1254044542915001e-16 0.26284692063095577 0.9648375491836111
12624068000.0 0.27412901244489524 0.9616929263209749 -7.128562334490353e-17 -1.116850470164793e-16 -7.128562334490353e-17 -1.116850470164793e-16 0.2741283495428918 0.9616931152798709
12624685333.333334 0.2853728401392352 0.958416580673915 -7.258433958272387e-17 -1.1081443157683375e-16 -7.258433958272387e-17 -1.1081443157683375e-16 0.28537217952793825 0.9584167773736473
12625302666.666666 0.29657752663378006 0.9550087804285372 -7.387244096471803e-17 -1.0992872627334654e-16 -7.387244096471803e-17 -1.0992872627334654e-16 0.2965768684035691 0.9550089848413702
12625920000.0 0.3077415351151884 0.9514699929922955 -7.514975230534091e-17 -1.0902806032000025e-16 -7.514975230534091e-17 -1.0902806032000025e-16 0.30774087935610805 0.9514702050894406
12626537333.333334 0.3188633343491951 0.9478007037386739 -7.641609998957231e-17 -1.0811256496288529e-16 -7.641609998957231e-17 -1.0811256496288529e-16 0.31886268115094185 0.9478009234902893
12627154666.666666 0.3299413988909048 0.9440014159405301 -7.767131199649872e-17 -1.0718237346111616e-16 -7.767131199649872e-17 -1.0718237346111616e-16 0.3299407483428152 0.9440016433157284
12627772000.0 0.34097420929415223 0.9400726507010189 -7.89152179226477e-17 -1.062376210674845e-16 -7.89152179226477e-17 -1.062376210674845e-16 0.3409735614851911 0.9400728856678707
12628389333.333334 0.35196025231950495 0.9360149468822612 -8.014764900502874e-17 -1.0527844500888827e-16 -8.014764900502874e-17 -1.0527844500888827e-16 0.35195960733825243 0.936015189407798
12629006666.666666 0.3628980211423244 0.9318288610312511 -8.136843814403814e-17 -1.0430498446641609e-16 -8.136843814403814e-17 -1.0430498446641609e-16 0.3628973790769637 0.9318291110814704
12629624000.0 0.37378601555898355 0.9275149673036831 -8.25774199260132e-17 -1.0331738055525243e-16 -8.25774199260132e-17 -1.0331738055525243e-16 0.3737853764972902 0.9275152248435556
12630241333.333334 0.38462274219287496 0.9230738573851208 -8.377443064563812e-17 -1.023157763042474e-16 -8.377443064563812e-17 -1.023157763042474e-16 0.3846221062222035 0.9230741223785924
12630858666.666666 0.39540671469915784 0.9185061404098678 -8.49593083280238e-17 -1.0130031663529173e-16 -8.49593083280238e-17 -1.0130031663529173e-16 0.39540608190643056 0.918506412819866
12631476000.0 0.40613645396875403 0.9138124428773666 -8.613189275061973e-17 -1.0027114834236937e-16 -8.613189275061973e-17 -1.0027114834236937e-16 0.40613582444044827 0.913812722665804
12632093333.333334 0.4168104883309829 0.9089934085663662 -8.729202546478944e-17 -9.922842007042749e-17 -8.729202546478944e-17 -9.922842007042749e-17 0.416809862153121 0.9089936956941501
12632710666.666666 0.427427353755522 0.9040496984465874 -8.843954981718628e-17 -9.817228229395222e-17 -8.843954981718628e-17 -9.817228229395222e-17 0.4274267310136572 0.9040499928736194
12633328000.0 0.43798559405343773 0.8989819905879484 -8.957431097088037e-17 -9.710288729528594e-17 -8.957431097088037e-17 -9.710288729528594e-17 0.43798497483264476 0.898982292273135
12633945333.333334 0.44848376107653054 0.893790980067747 -9.069615592615554e-17 -9.602038914276546e-17 -9.069615592615554e-17 -9.602038914276546e-17 0.4484831454613917 0.8937912889690015
12634562666.666666 0.45892041491616303 0.8884773788752249 -9.180493354112307e-17 -9.492494366854679e-17 -9.180493354112307e-17 -9.492494366854679e-17 0.45891980299075885 0.8884776949494768
12635180000.0 0.46929412410080823 0.8830419158138914 -9.290049455201065e-17 -9.381670844624629e-17 -9.290049455201065e-17 -9.381670844624629e-17 0.469293515948705 0.8830422390170902
12635797333.333334 0.47960346579225943 0.8774853364016211 -9.398269159321762e-17 -9.269584276831493e-17 -9.398269159321762e-17 -9.269584276831493e-17 0.4796028614964969 0.8774856666887414
12636414666.666666 0.4898470259807837 0.8718084027684031 -9.50513792170691e-17 -9.156250762321133e-17 -9.50513792170691e-17 -9.156250762321133e-17 0.48984642562386527 0.8718087400934543
12637032000.0 0.5000233996791674 0.8660118935517579 -9.610641391333687e-17 -9.041686567230443e-17 -9.610641391333687e-17 -9.041686567230443e-17 0.5000228033430476 0.8660122378677869
12637649333.333334 0.5101311911154178 0.8600966037899338 -9.714765412843125e-17 -8.925908122660626e-17 -9.714765412843125e-17 -8.925908122660626e-17 0.5101305988814929 0.8600969550490353
12638266666.666666 0.5201690139240835 0.8540633448129363 -9.817496028434954e-17 -8.808932022324685e-17 -9.817496028434954e-17 -8.808932022324685e-17 0.520168425873178 0.8540637029662557
12638884000.0 0.5301354913365026 0.8479129441311877 -9.918819479733929e-17 -8.690775020173408e-17 -9.918819479733929e-17 -8.690775020173408e-17 0.5301349075488603 0.8479133091289308
12639501333.333334 0.5400292563696383 0.8416462453220288 -1.0018722209625626e-16 -8.571454028002208e-17 -1.0018722209625626e-16 -8.571454028002208e-17 0.5400286769249102 0.8416466171134673
12640118666.666666 0.5498489520134042 0.8352641079141228 -1.0117190864064162e-16 -8.450986113036472e-17 -1.0117190864064162e-16 -8.450986113036472e-17 0.5498483769906375 0.835264486447601
12640736000.0 0.5595932314172647 0.8287674072692518 -1.0214212293856056e-16 -8.329388495489771e-17 -1.0214212293856056e-16 -8.329388495489771e-17 0.559592660894893 0.8287677924921953
12641353333.333334 0.569260758074254 0.8221570344627227 -1.0309773556403318e-16 -8.206678546115971e-17 -1.0309773556403318e-16 -8.206678546115971e-17 0.5692601921300857 0.8221574263216445
12641970666.666666 0.5788502060048599 0.8154338961607763 -1.040386191743015e-16 -8.082873783725409e-17 -1.040386191743015e-16 -8.082873783725409e-17 0.578849644716068 0.8154342946012844
12642588000.0 0.5883602599387231 0.8085989144963346 -1.0496464852671138e-16 -7.957991872692115e-17 -1.0496464852671138e-16 -7.957991872692115e-17 0.5883597033818347 0.8085993194631397
12643205333.333334 0.5977896154949005 0.8016530269426243 -1.0587570049533671e-16 -7.832050620436869e-17 -1.0587570049533671e-16 -7.832050620436869e-17 0.5977890637457859 0.801653438379547
12643822666.666666 0.6071369793610463 0.7945971861843941 -1.0677165408728297e-16 -7.705067974893628e-17 -1.0677165408728297e-16 -7.705067974893628e-17 0.6071364324949095 0.7945976040343741
12644440000.0 0.6164010694705264 0.7874323599874491 -1.0765239045870212e-16 -7.577062021955649e-17 -1.0765239045870212e-16 -7.577062021955649e-17 0.6164005275618938 0.7874327841925508
12645057333.333334 0.6255806151783789 0.7801595310658285 -1.085177929304813e-16 -7.448050982906074e-17 -1.085177929304813e-16 -7.448050982906074e-17 0.6255800783010902 0.7801599615672514
12645674666.666666 0.6346743574355722 0.7727796969470391 -1.0936774700364762e-16 -7.318053211827748e-17 -1.0936774700364762e-16 -7.318053211827748e-17 0.634673825662769 0.7727801336851241
12646292000.0 0.6436810489618444 0.7652938698351063 -1.1020214037446496e-16 -7.187087192994758e-17 -1.1020214037446496e-16 -7.187087192994758e-17 0.6436805223659627 0.7652943127493465
12646909333.333334 0.6525994544164755 0.757703076471999 -1.1102086294917996e-16 -7.055171538253227e-17 -1.1102086294917996e-16 -7.055171538253227e-17 0.652598933069233 0.7577035255010446
12647526666.666666 0.6614283505680253 0.7500083579965454 -1.118238068585115e-16 -6.922324984376601e-17 -1.118238068585115e-16 -6.922324984376601e-17 0.6614278345404135 0.7500088130782149
12648144000.0 0.6701665264619386 0.742210769801781 -1.126108664717794e-16 -6.788566390411412e-17 -1.126108664717794e-16 -6.788566390411412e-17 0.6701660158242122 0.7422112308730685
12648761333.333334 0.6788127835867208 0.7343113813901154 -1.1338193841074167e-16 -6.65391473500338e-17 -1.1338193841074167e-16 -6.65391473500338e-17 0.6788122784083884 0.7343118483871999
12649378666.666666 0.6873659360381782 0.7263112762267789 -1.1413692156309032e-16 -6.518389113711368e-17 -1.1413692156309032e-16 -6.518389113711368e-17 0.6873654363879923 0.726311749085032
12649996000.0 0.6958248106822609 0.7182115515910398 -1.1487571709565787e-16 -6.382008736300985e-17 -1.1487571709565787e-16 -6.382008736300985e-17 0.6958243166282102 0.7182120302450365
12650613333.333334 0.7041882473158866 0.7100133184257841 -1.1559822846727434e-16 -6.244792924027858e-17 -1.1559822846727434e-16 -6.244792924027858e-17 0.7041877589251848 0.7100138028093108
12651230666.666666 0.7124550988259675 0.7017177011852376 -1.1630436144131064e-16 -6.106761106904869e-17 -1.1630436144131064e-16 -6.106761106904869e-17 0.712454616165046 0.7017181912313017
12651848000.0 0.7206242313470326 0.6933258376804607 -1.1699402409790188e-16 -5.96793282095393e-17 -1.1699402409790188e-16 -5.96793282095393e-17 0.7206237544815299 0.6933263333212993
12652465333.333334 0.7286945244164394 0.6848388789235852 -1.1766712684582913e-16 -5.828327705447129e-17 -1.1766712684582913e-16 -5.828327705447129e-17 0.7286940534111929 0.6848393800906745
12653082666.666666 0.7366648711281224 0.6762579889698901 -1.1832358243407774e-16 -5.687965500133559e-17 -1.1832358243407774e-16 -5.687965500133559e-17 0.7366644060471592 0.6762584955939552
12653700000.0 0.7445341782846634 0.6675843447578697 -1.189633059630907e-16 -5.54686604244789e-17 -1.189633059630907e-16 -5.54686604244789e-17 0.7445337191911919 0.6675848567688937
12654317333.333334 0.7523013665468451 0.6588191359482226 -1.1958621489563612e-16 -5.4050492647178465e-17 -1.1958621489563612e-16 -5.4050492647178465e-17 0.7523009135032468 0.6588196532754572
12654934666.666666 0.759965370581945 0.6499635647604114 -1.201922290673945e-16 -5.2625351913484884e-17 -1.201922290673945e-16 -5.2625351913484884e-17 0.7599649236497646 0.6499640873323852
12655552000.0 0.7675251392099026 0.6410188458076974 -1.2078127069719446e-16 -5.119343935998068e-17 -1.2078127069719446e-16 -5.119343935998068e-17 0.7675246984498427 0.6410193735522286
12656169333.333334 0.7749796355472254 0.6319862059308757 -1.2135326439688733e-16 -4.9754956987487907e-17 -1.2135326439688733e-16 -4.9754956987487907e-17 0.7749792010191339 0.631986738775078
12656786666.666666 0.7823278371494589 0.6228668840296961 -1.2190813718092572e-16 -4.8310107632570425e-17 -1.2190813718092572e-16 -4.8310107632570425e-17 0.7823274089123243 0.6228674218999921
12657404000.0 0.7895687361512993 0.6136621308930944 -1.224458184755814e-16 -4.6859094938982214e-17 -1.224458184755814e-16 -4.6859094938982214e-17 0.7895683142632409 0.6136626737152236
12658021333.333334 0.7967013394049335 0.6043732090274998 -1.2296624012782243e-16 -4.540212332902175e-17 -1.2296624012782243e-16 -4.540212332902175e-17 0.7967009239231955 0.6043737567265312
12658638666.666666 0.8037246686160678 0.5950013924839215 -1.2346933641385273e-16 -4.3939397974782496e-17 -1.2346933641385273e-16 -4.3939397974782496e-17 0.8037242595970086 0.5950019449842612
12659256000.0 0.8106377604783489 0.5855479666828841 -1.2395504404732809e-16 -4.247112476925715e-17 -1.2395504404732809e-16 -4.247112476925715e-17 0.8106373579774362 0.585548523908288
12659873333.333334 0.8174396668053039 0.5760142282383743 -1.2442330218719605e-16 -4.099751029745154e-17 -1.2442330218719605e-16 -4.099751029745154e-17 0.8174392708771042 0.5760147901119564
12660490666.666666 0.8241294546604526 0.5664014847799033 -1.248740524452146e-16 -3.9518761807350297e-17 -1.248740524452146e-16 -3.9518761807350297e-17 0.8241290653586295 0.5664020512241502
12661108000.0 0.830706206485344 0.5567110547730694 -1.2530723889313685e-16 -3.80350871807657e-17 -1.2530723889313685e-16 -3.80350871807657e-17 0.8307058238626435 0.5567116257098461
12661725333.333334 0.8371690202252334 0.5469442673389456 -1.25722808069514e-16 -3.6546694904227036e-17 -1.25722808069514e-16 -3.6546694904227036e-17 0.8371686443334826 0.54694484268951
12662342666.666666 0.84351700945296 0.5371024620715754 -1.2612070898619012e-16 -3.505379403967621e-17 -1.2612070898619012e-16 -3.505379403967621e-17 0.8435166403430556 0.5371030417565863
12662960000.0 0.8497493034905044 0.5271869888542547 -1.2650089313443181e-16 -3.355659419515159e-17 -1.2650089313443181e-16 -3.355659419515159e-17 0.8497489412124094 0.5271875727937849
12663577333.333334 0.8558650475283338 0.517199207674505 -1.2686331449070876e-16 -3.205530549541822e-17 -1.2686331449070876e-16 -3.205530549541822e-17 0.8558646921310699 0.5171997957880521
12664194666.666666 0.8618634027426955 0.5071404884374705 -1.2720792952213329e-16 -3.0550138552508757e-17 -1.2720792952213329e-16 -3.0550138552508757e-17 0.8618630542743337 0.5071410806439663
12664812000.0 0.8677435464107061 0.49701221077794827 -1.2753469719155158e-16 -2.9041304436208203e-17 -1.2753469719155158e-16 -2.9041304436208203e-17 0.8677432049183653 0.49701280699577255
12665429333.333334 0.8735046720231276 0.4868157638712847 -1.2784357896227736e-16 -2.7529014644514972e-17 -1.2784357896227736e-16 -2.7529014644514972e-17 0.8735043375529632 0.4868163640182739
12666046666.666666 0.8791459893949548 0.4765525462428867 -1.2813453880248064e-16 -2.601348107404365e-17 -1.2813453880248064e-16 -2.601348107404365e-17 0.8791456619921562 0.4765531502363472
12666664000.0 0.8846667247739953 0.46622396557605794 -1.2840754318923618e-16 -2.4494915990325045e-17 -1.2840754318923618e-16 -2.4494915990325045e-17 0.884666404482777 0.4662245733327762
12667281333.333334 0.8900661209467141 0.4558314385194183 -1.2866256111219698e-16 -2.2973531998190595e-17 -1.2866256111219698e-16 -2.2973531998190595e-17 0.8900658078103115 0.4558320499556728
12667898666.666666 0.8953434373422896 0.44537639049225264 -1.2889956407694093e-16 -2.1449542012000812e-17 -1.2889956407694093e-16 -2.1449542012000812e-17 0.8953431314029522 0.44537700552382525
12668516000.0 0.9004979501341659 0.4348602554890241 -1.2911852610795688e-16 -1.9923159225878366e-17 -1.2911852610795688e-16 -1.9923159225878366e-17 0.9004976514331526 0.43486087403121215
12669133333.333334 0.9055289523392105 0.4242844758829465 -1.2931942375127027e-16 -1.8394597083980258e-17 -1.2931942375127027e-16 -1.8394597083980258e-17 0.9055286609167833 0.42428509785057394
12669750666.666666 0.9104357539148537 0.4136505022277925 -1.2950223607673242e-16 -1.6864069250640074e-17 -1.2950223607673242e-16 -1.6864069250640074e-17 0.910435469810273 0.4136511275352223
12670368000.0 0.9152176818536145 0.40295979305919666 -1.296669446799481e-16 -1.5331789580561226e-17 -1.296669446799481e-16 -1.5331789580561226e-17 0.9152174051051316 0.40296042162034107
