! Parameters = {f0=12700.012000; bw=77.238000; Q=6100.000000; N=10; m_0_1=1.167062; m_1_1=-1.258815; m_1_2=1.001874; m_2_2=-1.259464; m_2_3=0.638837; m_2_8=-0.004583; m_2_9=0.032121; m_3_3=-1.261401; m_3_4=0.527366; m_3_7=-0.003983; m_3_8=-0.101071; m_3_9=-0.004583; m_4_4=-1.264326; m_4_5=0.363701; m_4_6=-0.000466; m_4_7=-0.121620; m_4_8=-0.003983; m_5_5=-1.263944; m_5_6=0.771056; m_5_7=-0.000466; m_6_6=-1.263945; m_6_7=0.364043; m_7_7=-1.264312; m_7_8=0.527484; m_8_8=-1.261403; m_8_9=0.639150; m_9_9=-1.259469; m_9_10=1.002952; m_10_10=-1.258825; m_10_11=1.167857}
!
! Created with skrf (http://scikit-rf.org).
# Hz S RI R 50.0 
!freq ReS11 ImS11 ReS21 ImS21 ReS12 ImS12 ReS22 ImS22
12607400000.0 0.9924720311239389 0.12247149642498072 -6.537626193347405e-17 1.0901463949562809e-17 -6.537626193347405e-17 1.0901463949562809e-17 0.9924719557974253 0.12247210684675854
12608017333.333334 0.9933603254490584 0.11504461666498055 -6.527909282450731e-17 1.1393716194292481e-17 -6.527909282450731e-17 1.1393716194292481e-17 0.9933602546939261 0.11504522760318538
12608634666.666666 0.9941930436380875 0.10761130043581221 -6.51782213020779e-17 1.188512275844704e-17 -6.51782213020779e-17 1.188512275844704e-17 0.9941929774578481 0.10761191185621476
12609252000.0 0.9949701391024833 0.10017196361375648 -6.507365459461195e-17 1.2375655825268646e-17 -6.507365459461195e-17 1.2375655825268646e-17 0.9949700775003903 0.10017257548210358
12609869333.333334 0.99569156836566 0.09272702241193104 -6.496540013929495e-17 1.2865287638916607e-17 -6.496540013929495e-17 1.2865287638916607e-17 0.9956915113447118 0.09272763469394794
12610486666.666666 0.9963572910654216 0.08527689335703309 -6.485346558156599e-17 1.3353990506023085e-17 -6.485346558156599e-17 1.3353990506023085e-17 0.9963572386283588 0.08527750601842521
12611104000.0 0.9969672699562285 0.07782199326589379 -6.473785877459435e-17 1.3841736797274127e-17 -6.473785877459435e-17 1.3841736797274127e-17 0.9969672221055361 0.07782260627234873
12611721333.333334 0.9975214709112611 0.07036273922244175 -6.461858777875471e-17 1.4328498948938575e-17 -6.461858777875471e-17 1.4328498948938575e-17 0.9975214276491678 0.0703633525396312
12612338666.666666 0.9980198629243511 0.06289954855411342 -6.449566086107865e-17 1.4814249464445844e-17 -6.449566086107865e-17 1.4814249464445844e-17 0.9980198242528273 0.06290016214769496
12612956000.0 0.9984624181117093 0.055432838808504005 -6.436908649470302e-17 1.52989609159226e-17 -6.436908649470302e-17 1.52989609159226e-17 0.9984623840324691 0.05543345264412319
12613573333.333334 0.9988491117134752 0.047963027730262495 -6.423887335830647e-17 1.5782605945726753e-17 -6.423887335830647e-17 1.5782605945726753e-17 0.9988490822279752 0.04796364177355464
12614190666.666666 0.9991799220951143 0.04049053323743574 -6.410503033552826e-17 1.6265157268002427e-17 -6.410503033552826e-17 1.6265157268002427e-17 0.9991798972045557 0.04049114745402802
12614808000.0 0.9994548307486278 0.03301577339822923 -6.396756651438157e-17 1.6746587670204588e-17 -6.396756651438157e-17 1.6746587670204588e-17 0.9994548104539521 0.033016387753742354
12615425333.333334 0.9996738222935801 0.02553916640758836 -6.382649118665285e-17 1.722687001462988e-17 -6.382649118665285e-17 1.722687001462988e-17 0.9996738065954732 0.025539780867638688
12616042666.666666 0.9998368844779669 0.01806113056383014 -6.368181384729017e-17 1.770597723994077e-17 -6.368181384729017e-17 1.770597723994077e-17 0.9998368733768568 0.018061745094031554
12616660000.0 0.9999440081788981 0.010582084245126614 -6.353354419378056e-17 1.818388236268282e-17 -6.353354419378056e-17 1.818388236268282e-17 0.999944001674956 0.010582698811092438
12617277333.333334 0.9999951874031068 0.003102445886239715 -6.338169212551327e-17 1.8660558478807918e-17 -6.338169212551327e-17 1.8660558478807918e-17 0.9999951854962462 0.00310306045358463
12617894666.666666 0.9999904192872852 -0.004377366044860731 -6.322626774313957e-17 1.9135978765163322e-17 -6.322626774313957e-17 1.9135978765163322e-17 0.9999904219771636 -0.004376751510518749
12618512000.0 0.9999297040982478 -0.0118569330706935 -6.306728134790779e-17 1.9610116481022403e-17 -6.306728134790779e-17 1.9610116481022403e-17 0.9999297113842641 -0.01185631860373126
12619129333.333334 0.9998130452329117 -0.019335836727280883 -6.290474344100355e-17 2.008294496955623e-17 -6.290474344100355e-17 2.008294496955623e-17 0.9998130571142086 -0.019335222362068062
12619746666.666666 0.9996404492181112 -0.026813658587844968 -6.273866472286463e-17 2.055443765934447e-17 -6.273866472286463e-17 2.055443765934447e-17 0.9996404656935743 -0.026813044358742193
12620364000.0 0.9994119257102255 -0.03428998028621754 -6.256905609249019e-17 2.1024568065862886e-17 -6.256905609249019e-17 2.1024568065862886e-17 0.9994119467784852 -0.0342893662275745
12620981333.333334 0.999127487494652 -0.04176438353999113 -6.23959286467457e-17 2.1493309792947762e-17 -6.23959286467457e-17 2.1493309792947762e-17 0.9991275131540786 -0.04176376968614455
12621598666.666666 0.9987871504850752 -0.049236450174176355 -6.221929367964116e-17 2.1960636534296943e-17 -6.221929367964116e-17 2.1960636534296943e-17 0.9987871807337847 -0.04923583655944819
12622216000.0 0.9983909337225846 -0.05670576214456961 -6.203916268161472e-17 2.2426522074921132e-17 -6.203916268161472e-17 2.2426522074921132e-17 0.9983909685584351 -0.05670514880326504
12622833333.333334 0.9979388593746075 -0.06417190156102787 -6.185554733879389e-17 2.2890940292619298e-17 -6.185554733879389e-17 2.2890940292619298e-17 0.9979388987952017 -0.06417128852743344
12623450666.666666 0.9974309527336743 -0.07163445071084873 -6.166845953225363e-17 2.3353865159428925e-17 -6.166845953225363e-17 2.3353865159428925e-17 0.9974309967363583 -0.07163383801923046
12624068000.0 0.996867242215997 -0.07909299208225419 -6.147791133725654e-17 2.3815270743087793e-17 -6.147791133725654e-17 2.3815270743087793e-17 0.9968672907978603 -0.07909237976685554
12624685333.333334 0.9962477593598722 -0.0865471083877773 -6.12839150224848e-17 2.427513120848263e-17 -6.12839150224848e-17 2.427513120848263e-17 0.9962478125177492 -0.08654649648281736
12625302666.666666 0.9955725388239416 -0.09399638258732525 -6.108648304926927e-17 2.4733420819072624e-17 -6.108648304926927e-17 2.4733420819072624e-17 0.995572596554411 -0.09399577112699686
12625920000.0 0.9948416183852175 -0.10144039791193661 -6.088562807079088e-17 2.5190113938348294e-17 -6.088562807079088e-17 2.5190113938348294e-17 0.9948416806846028 -0.1014397869304044
12626537333.333334 0.9940550389370078 -0.10887873788667407 -6.068136293128848e-17 2.5645185031242617e-17 -6.068136293128848e-17 2.5645185031242617e-17 0.994055105801376 -0.1088781274180724
12627154666.666666 0.9932128444865966 -0.11631098635423619 -6.047370066524896e-17 2.6098608665553046e-17 -6.047370066524896e-17 2.6098608665553046e-17 0.9932129159117602 -0.11631037643266745
12627772000.0 0.992315082152797 -0.12373672749809904 -6.026265449657895e-17 2.655035951337413e-17 -6.026265449657895e-17 2.655035951337413e-17 0.9923151581343154 -0.12373611815763187
12628389333.333334 0.9913618021633177 -0.1311555458657806 -6.004823783778554e-17 2.7000412352481015e-17 -6.004823783778554e-17 2.7000412352481015e-17 0.9913618826964935 -0.1311549371404475
12629006666.666666 0.9903530578519335 -0.13856702639219634 -5.983046428912286e-17 2.744874206775738e-17 -5.983046428912286e-17 2.744874206775738e-17 0.9903531429318172 -0.13856641831599237
12629624000.0 0.9892889056555294 -0.14597075442271293 -5.960934763774879e-17 2.789532365257245e-17 -5.960934763774879e-17 2.789532365257245e-17 0.9892889952769162 -0.1459701470295933
12630241333.333334 0.9881694051109192 -0.15336631573648715 -5.938490185685875e-17 2.8340132210178546e-17 -5.938490185685875e-17 2.8340132210178546e-17 0.9881694992683504 -0.15336570906036556
12630858666.666666 0.9869946188515412 -0.16075329656947238 -5.915714110481495e-17 2.8783142955089996e-17 -5.915714110481495e-17 2.8783142955089996e-17 0.9869947175393065 -0.16075269064421913
12631476000.0 0.9857646126039074 -0.16813128363787652 -5.892607972425866e-17 2.922433121446643e-17 -5.892607972425866e-17 2.922433121446643e-17 0.9857647158160427 -0.16813067849731675
12632093333.333334 0.9844794551839872 -0.17549986416089136 -5.869173224122548e-17 2.966367242946642e-17 -5.869173224122548e-17 2.966367242946642e-17 0.9844795629142759 -0.17549925983880274
12632710666.666666 0.9831392184933078 -0.1828586258840951 -5.845411336423742e-17 3.010114215661681e-17 -5.845411336423742e-17 3.010114215661681e-17 0.9831393307352813 -0.18285802241420637
12633328000.0 0.9817439775149545 -0.19020715710237687 -5.821323798338554e-17 3.05367160691752e-17 -5.821323798338554e-17 3.05367160691752e-17 0.9817440942618925 -0.1902065545183658
12633945333.333334 0.9802938103093759 -0.19754504668297085 -5.796912116941413e-17 3.0970369958461804e-17 -5.796912116941413e-17 3.0970369958461804e-17 0.9802939315543067 -0.19754444501846233
12634562666.666666 0.9787887980099955 -0.20487188408856954 -5.772177817278416e-17 3.14020797352058e-17 -5.772177817278416e-17 3.14020797352058e-17 0.978788923745696 -0.20487128337713367
12635180000.0 0.977229024818704 -0.212187259400125 -5.747122442272718e-17 3.183182143088237e-17 -5.747122442272718e-17 3.183182143088237e-17 0.9772291550377018 -0.21218665967527556
12635797333.333334 0.9756145780011233 -0.21949076333992276 -5.721747552629686e-17 3.22595711990294e-17 -5.721747552629686e-17 3.22595711990294e-17 0.9756147126956939 -0.2194901646351146
12636414666.666666 0.9739455478817499 -0.22678198729434002 -5.696054726740606e-17 3.268530531656482e-17 -5.696054726740606e-17 3.268530531656482e-17 0.9739456870439214 -0.226781389642968
12637032000.0 0.9722220278388679 -0.23406052333687377 -5.670045560584951e-17 3.3109000185104336e-17 -5.670045560584951e-17 3.3109000185104336e-17 0.9722221714604183 -0.23405992677227058
12637649333.333334 0.9704441142993487 -0.24132596425085226 -5.643721667632529e-17 3.353063233225718e-17 -5.643721667632529e-17 3.353063233225718e-17 0.9704442623718076 -0.24132536880628644
12638266666.666666 0.9686119067332499 -0.24857790355224563 -5.61708467874419e-17 3.395017841292202e-17 -5.61708467874419e-17 3.395017841292202e-17 0.9686120592478975 -0.24857730926091956
12638884000.0 0.9667255076482486 -0.25581593551240706 -5.590136242071774e-17 3.4367615210571926e-17 -5.590136242071774e-17 3.4367615210571926e-17 0.966725664596119 -0.25581534240745585
12639501333.333334 0.9647850225839081 -0.263039655180773 -5.562878022956503e-17 3.4782919638541036e-17 -5.562878022956503e-17 3.4782919638541036e-17 0.9647851839557878 -0.26303906329526194
12640118666.666666 0.9627905601057803 -0.27024865840749174 -5.535311703828163e-17 3.519606874127647e-17 -5.535311703828163e-17 3.519606874127647e-17 0.962790725892209 -0.2702480677744144
12640736000.0 0.9607422317992943 -0.2774425418661711 -5.5074389841000504e-17 3.56070396956323e-17 -5.5074389841000504e-17 3.56070396956323e-17 0.9607424019905663 -0.2774419525184484
12641353333.333334 0.9586401522635892 -0.28462090307617066 -5.4792615800676627e-17 3.601580981208552e-17 -5.4792615800676627e-17 3.601580981208552e-17 0.9586403268497516 -0.2846203150466476
12641970666.666666 0.9564844391050242 -0.29178334042539184 -5.4507812248016555e-17 3.642235653601506e-17 -5.4507812248016555e-17 3.642235653601506e-17 0.9564846180758813 -0.29178275374683704
12642588000.0 0.9542752129306401 -0.29892945319261177 -5.4219996680431424e-17 3.6826657448924754e-17 -5.4219996680431424e-17 3.6826657448924754e-17 0.9542753962757511 -0.29892886789771494
12643205333.333334 0.9520125973414115 -0.3060588415699022 -5.3929186760969097e-17 3.7228690269675026e-17 -5.3929186760969097e-17 3.7228690269675026e-17 0.9520127850500928 -0.3060582576912728
12643822666.666666 0.949696718925299 -0.313171106685107 -5.3635400317234044e-17 3.762843285571062e-17 -5.3635400317234044e-17 3.762843285571062e-17 0.9496969109866212 -0.31317052425527114
12644440000.0 0.9473277072502023 -0.32026585062402046 -5.3338655340309106e-17 3.802586320426495e-17 -5.3338655340309106e-17 3.802586320426495e-17 0.9473279036529969 -0.32026526967542096
12645057333.333334 0.9449056948567233 -0.32734267645265275 -5.303896998365637e-17 3.8420959453572534e-17 -5.303896998365637e-17 3.8420959453572534e-17 0.9449058955895775 -0.3273420970176458
12645674666.666666 0.9424308172507061 -0.33440118823954346 -5.273636256202105e-17 3.881369988405626e-17 -5.273636256202105e-17 3.881369988405626e-17 0.9424310223019681 -0.33440061035039786
12646292000.0 0.9399032128956508 -0.34144099107794035 -5.243085155030812e-17 3.9204062919531664e-17 -5.243085155030812e-17 3.9204062919531664e-17 0.9399034222534265 -0.34144041476683495
12646909333.333334 0.9373230232050463 -0.3484616911076511 -5.212245558247757e-17 3.959202712836502e-17 -5.212245558247757e-17 3.959202712836502e-17 0.9373232368572039 -0.3484611164066737
12647526666.666666 0.9346903925343809 -0.35546289553732197 -5.181119345040463e-17 3.99775712246586e-17 -5.181119345040463e-17 3.99775712246586e-17 0.9346906104685477 -0.3554623224784669
12648144000.0 0.9320054681730666 -0.3624442126663841 -5.1497084102743406e-17 4.0360674069410736e-17 -5.1497084102743406e-17 4.0360674069410736e-17 0.9320056903766318 -0.3624436412815506
12648761333.333334 0.9292684003362427 -0.3694052519068633 -5.1180146643786667e-17 4.0741314671661067e-17 -5.1180146643786667e-17 4.0741314671661067e-17 0.9292686267963587 -0.3694046822278539
12649378666.666666 0.9264793421563717 -0.3763456238052319 -5.0860400332306964e-17 4.111947218964023e-17 -5.0860400332306964e-17 4.111947218964023e-17 0.9264795728599533 -0.3763450558637508
12649996000.0 0.9236384496746209 -0.38326494006433115 -5.053786458039505e-17 4.149512593190314e-17 -5.053786458039505e-17 4.149512593190314e-17 0.9236386846083476 -0.3832643738919822
12650613333.333334 0.9207458818321725 -0.3901628135649889 -5.0212558952287505e-17 4.1868255358456155e-17 -5.0212558952287505e-17 4.1868255358456155e-17 0.9207461209824875 -0.3901622491932736
12651230666.666666 0.917801800461332 -0.39703885838767805 -4.988450316319352e-17 4.223884008186659e-17 -4.988450316319352e-17 4.223884008186659e-17 0.9178020438144449 -0.39703829584799455
12651848000.0 0.9148063702764296 -0.40389268983421284 -4.9553717078095354e-17 4.260685986838429e-17 -4.9553717078095354e-17 4.260685986838429e-17 0.9148066178183163 -0.4038921291578538
12652465333.333334 0.9117597588646629 -0.41072392444914196 -4.922022071056477e-17 4.297229463902586e-17 -4.922022071056477e-17 4.297229463902586e-17 0.9117600105810649 -0.410723365667292
12653082666.666666 0.9086621366767278 -0.41753218004117365 -4.8884034221554714e-17 4.333512447066915e-17 -4.8884034221554714e-17 4.333512447066915e-17 0.9086623925531564 -0.41753162318490933
12653700000.0 0.9055136770171727 -0.42431707570482136 -4.854517791818247e-17 4.3695329597138384e-17 -4.854517791818247e-17 4.3695329597138384e-17 0.9055139370389064 -0.4243165208051077
12654317333.333334 0.9023145560348607 -0.43107823184134897 -4.820367225252282e-17 4.4052890410260573e-17 -4.820367225252282e-17 4.4052890410260573e-17 0.9023148201869479 -0.4310776789290387
12654934666.666666 0.899064952713 -0.4378152701802685 -4.7859537820369547e-17 4.440778746093876e-17 -4.7859537820369547e-17 4.440778746093876e-17 0.8990652209802605 -0.4378147192861008
12655552000.0 0.8957650488591283 -0.4445278138005028 -4.751279536000002e-17 4.476000146020286e-17 -4.751279536000002e-17 4.476000146020286e-17 0.8957653212261515 -0.44452726495510003
12656169333.333334 0.8924150290950496 -0.4512154871512416 -4.716346575094426e-17 4.51095132802395e-17 -4.716346575094426e-17 4.51095132802395e-17 0.892415305546198 -0.451214940385109
12656786666.666666 0.889015080846385 -0.45787791607321066 -4.681157001272179e-17 4.545630395543744e-17 -4.681157001272179e-17 4.545630395543744e-17 0.8890153613657943 -0.4578773714167342
12657404000.0 0.8855653943321595 -0.4645147278194502 -4.6457129303591214e-17 4.580035468340159e-17 -4.6457129303591214e-17 4.580035468340159e-17 0.8855656789037387 -0.46451418530289446
12658021333.333334 0.8820661625540818 -0.4711255510763213 -4.6100164919277454e-17 4.614164682597392e-17 -4.6100164919277454e-17 4.614164682597392e-17 0.8820664511615155 -0.47112501072982876
12658638666.666666 0.8785175812858923 -0.4777100159840037 -4.574069829171339e-17 4.6480161910221623e-17 -4.574069829171339e-17 4.6480161910221623e-17 0.8785178739126408 -0.4777094778375924
12659256000.0 0.8749198490622239 -0.48426775415754003 -4.537875098774133e-17 4.681588162944833e-17 -4.537875098774133e-17 4.681588162944833e-17 0.8749201456915235 -0.48426721824110136
12659873333.333334 0.8712731671676262 -0.49079839870719383 -4.5014344707839137e-17 4.714878784416421e-17 -4.5014344707839137e-17 4.714878784416421e-17 0.8712734677824927 -0.4907978650504927
12660490666.666666 0.8675777396253088 -0.49730158425897963 -4.46475012848261e-17 4.747886258305926e-17 -4.46475012848261e-17 4.747886258305926e-17 0.8675780442085353 -0.497301052891651
12661108000.0 0.8638337731855859 -0.503776946975351 -4.4278242682547705e-17 4.780608804397882e-17 -4.4278242682547705e-17 4.780608804397882e-17 0.8638340817197446 -0.5037764179268981
12661725333.333334 0.8600414773145033 -0.5102241245752088 -4.3906590994587995e-17 4.813044659485807e-17 -4.3906590994587995e-17 4.813044659485807e-17 0.8600417897819491 -0.5102235978750039
12662342666.666666 0.8562010641819676 -0.5166427563544446 -4.353256844293349e-17 4.845192077468341e-17 -4.353256844293349e-17 4.845192077468341e-17 0.8562013805648352 -0.5166422320317243
12662960000.0 0.8523127486499439 -0.5230324832059948 -4.3156197376666185e-17 4.877049329441173e-17 -4.3156197376666185e-17 4.877049329441173e-17 0.8523130689301516 -0.5230319612898607
12663577333.333334 0.848376748260437 -0.5293929476399346 -4.277750027062793e-17 4.908614703789916e-17 -4.277750027062793e-17 4.908614703789916e-17 0.848377072419687 -0.5293924281593505
12664194666.666666 0.8443932832232605 -0.5357237938035743 -4.239649972408609e-17 4.939886506281217e-17 -4.239649972408609e-17 4.939886506281217e-17 0.8443936112430388 -0.5357232767873646
12664812000.0 0.8403625764038044 -0.5420246675012227 -4.201321845939141e-17 4.9708630601529574e-17 -4.201321845939141e-17 4.9708630601529574e-17 0.8403629082653844 -0.5420241529780719
12665429333.333334 0.8362848533104954 -0.5482952162141261 -4.162767932062785e-17 5.00154270620353e-17 -4.162767932062785e-17 5.00154270620353e-17 0.8362851889949358 -0.5482947042125759
12666046666.666666 0.8321603420822666 -0.5545350891200451 -4.1239905272264795e-17 5.031923802879409e-17 -4.1239905272264795e-17 5.031923802879409e-17 0.8321606815704156 -0.5545345796684938
12666664000.0 0.8279892734756288 -0.5607439371131464 -4.0849919397780956e-17 5.0620047263633663e-17 -4.0849919397780956e-17 5.0620047263633663e-17 0.8279896167481221 -0.5607434302398462
12667281333.333334 0.8237718808519738 -0.5669214128231996 -4.045774489831123e-17 5.091783870659373e-17 -4.045774489831123e-17 5.091783870659373e-17 0.8237722278892395 -0.5669209085562568
12667898666.666666 0.8195084001643664 -0.5730671706352518 -4.006340509126673e-17 5.121259647678015e-17 -4.006340509126673e-17 5.121259647678015e-17 0.8195087509466212 -0.5730666690026228
12668516000.0 0.8151990699443366 -0.5791808667089592 -3.966692340894898e-17 5.1504304873208914e-17 -3.966692340894898e-17 5.1504304873208914e-17 0.8151994244515909 -0.5791803677384508
12669133333.333334 0.8108441312887004 -0.5852621589975934 -3.926832339717847e-17 5.179294837562351e-17 -3.926832339717847e-17 5.179294837562351e-17 0.8108444895007593 -0.5852616627168618
12669750666.666666 0.8064438278458433 -0.5913107072675046 -3.8867628713887863e-17 5.207851164532396e-17 -3.8867628713887863e-17 5.207851164532396e-17 0.8064441897423045 -0.5913102137040509
12670368000.0 0.8019984058022478 -0.5973261731169207 -3.846486312773128e-17 5.236097952596845e-17 -3.846486312773128e-17 5.236097952596845e-17 0.8019987713625065 -0.5973256822980932
