! Parameters = {f0=12700.012000; bw=77.238000; Q=6100.000000; N=10; m_0_1=1.198093; m_1_1=-0.793349; m_1_2=1.032905; m_2_2=-0.793998; m_2_3=0.669868; m_2_8=-0.003032; m_2_9=0.033672; m_3_3=-0.795935; m_3_4=0.558397; m_3_7=-0.002432; m_3_8=-0.099520; m_3_9=-0.003032; m_4_4=-0.798860; m_4_5=0.394732; m_4_6=0.001085; m_4_7=-0.120069; m_4_8=-0.002432; m_5_5=-0.798478; m_5_6=0.802087; m_5_7=0.001085; m_6_6=-0.798479; m_6_7=0.395074; m_7_7=-0.798846; m_7_8=0.558515; m_8_8=-0.795937; m_8_9=0.670181; m_9_9=-0.794003; m_9_10=1.033983; m_10_10=-0.793359; m_10_11=1.198888}
!
! Created with skrf (http://scikit-rf.org).
# Hz S RI R 50.0 
!freq ReS11 ImS11 ReS21 ImS21 ReS12 ImS12 ReS22 ImS22
12607400000.0 0.9747171829729409 0.22344219211495656 -7.764921885361346e-17 4.8722328884459586e-18 -7.764921885361346e-17 4.8722328884459586e-18 0.9747170419022322 0.22344280750385617
12608017333.333334 0.976559082596667 0.2152495254299032 -7.758987819094653e-17 5.529887987296968e-18 -7.758987819094653e-17 5.529887987296968e-18 0.9765589467050636 0.21525014195149758
12608634666.666666 0.9783321227132047 0.20704168099036932 -7.752497241033599e-17 6.186887205624593e-18 -7.752497241033599e-17 6.186887205624593e-18 0.9783319920097805 0.2070422986010772
12609252000.0 0.980036178301322 0.19881923755105357 -7.745450836527761e-17 6.843183492993685e-18 -7.745450836527761e-17 6.843183492993685e-18 0.9800360527947849 0.19881985620722123
12609869333.333334 0.981671129204063 0.19058277489600858 -7.737849330669928e-17 7.498729868009692e-18 -7.737849330669928e-17 7.498729868009692e-18 0.9816710089027536 0.19058339455391293
12610486666.666666 0.9832368601371808 0.18233287379795393 -7.729693488228525e-17 8.153479421648465e-18 -7.729693488228525e-17 8.153479421648465e-18 0.9832367450490718 0.18233349441380542
12611104000.0 0.9847332606973469 0.17407011597690591 -7.72098411357676e-17 8.807385320634624e-18 -7.72098411357676e-17 8.807385320634624e-18 0.9847331508300426 0.17407073750685184
12611721333.333334 0.9861602253698301 0.16579508405971755 -7.711722050619465e-17 9.460400810758144e-18 -7.711722050619465e-17 9.460400810758144e-18 0.9861601207305659 0.16579570645984493
12612338666.666666 0.987517653536005 0.15750836153863287 -7.701908182716807e-17 1.0112479220216951e-17 -7.701908182716807e-17 1.0112479220216951e-17 0.9875175541316473 0.15750898476497183
12612956000.0 0.9888054494804603 0.14921053273005966 -7.691543432605137e-17 1.076357396294999e-17 -7.691543432605137e-17 1.076357396294999e-17 0.9888053553175042 0.14921115673858606
12613573333.333334 0.9900235223976738 0.1409021827337873 -7.680628762315388e-17 1.1413638541943242e-17 -7.680628762315388e-17 1.1413638541943242e-17 0.9900234334822469 0.14090280748042663
12614190666.666666 0.9911717863984822 0.13258389739136708 -7.669165173088298e-17 1.2062626552549778e-17 -7.669165173088298e-17 1.2062626552549778e-17 0.9911717027363396 0.1325845228319968
12614808000.0 0.9922501605161212 0.12425626324485754 -7.657153705287078e-17 1.2710491685788859e-17 -7.657153705287078e-17 1.2710491685788859e-17 0.9922500821126474 0.12425688933531054
12615425333.333334 0.993258568711916 0.11591986749560733 -7.644595438307075e-17 1.3357187731649884e-17 -7.644595438307075e-17 1.3357187731649884e-17 0.9932584955721246 0.11592049419167505
12616042666.666666 0.9941969398806612 0.10757529796273783 -7.631491490483042e-17 1.400266858236619e-17 -7.631491490483042e-17 1.400266858236619e-17 0.9941968720091943 0.10757592522017335
12616660000.0 0.9950652078556255 0.09922314304175076 -7.617843018993284e-17 1.4646888235699773e-17 -7.617843018993284e-17 1.4646888235699773e-17 0.9950651452567529 0.09922377081627187
12617277333.333334 0.9958633114132318 0.0908639916628976 -7.603651219761005e-17 1.5289800798219245e-17 -7.603651219761005e-17 1.5289800798219245e-17 0.9958632540908514 0.09086461991019001
12617894666.666666 0.996591194277345 0.08249843324996411 -7.588917327353572e-17 1.5931360488536326e-17 -7.588917327353572e-17 1.5931360488536326e-17 0.9965911422349815 0.08249906192568444
12618512000.0 0.9972488051232753 0.07412705767831225 -7.573642614877868e-17 1.6571521640586852e-17 -7.573642614877868e-17 1.6571521640586852e-17 0.9972487583640814 0.07412768673809132
12619129333.333334 0.9978360975813708 0.06575045523359815 -7.557828393874143e-17 1.721023870684847e-17 -7.557828393874143e-17 1.721023870684847e-17 0.997836056108127 0.06575108463304409
12619746666.666666 0.998353030240297 0.057369216570036484 -7.541476014206366e-17 1.7847466261580715e-17 -7.541476014206366e-17 1.7847466261580715e-17 0.9983529940554108 0.05736984626473782
12620364000.0 0.9987995666499627 0.04898393266866691 -7.52458686394992e-17 1.8483159004052875e-17 -7.52458686394992e-17 1.8483159004052875e-17 0.9987995357554683 0.04898456261419562
12620981333.333334 0.999175675324079 0.04059519479585269 -7.5071623692771e-17 1.9117271761742495e-17 -7.5071623692771e-17 1.9117271761742495e-17 0.999175649721636 0.040595824947767416
12621598666.666666 0.9994813297423835 0.03220359446147559 -7.489203994339299e-17 1.9749759493544542e-17 -7.489203994339299e-17 1.9749759493544542e-17 0.9994813094332797 0.03220422477532483
12622216000.0 0.9997165083525138 0.023809723377255676 -7.470713241146945e-17 2.0380577292957294e-17 -7.470713241146945e-17 2.0380577292957294e-17 0.9997164933376627 0.023810353808580795
12622833333.333334 0.9998811945715224 0.015414173415028092 -7.451691649446261e-17 2.1009680391272014e-17 -7.451691649446261e-17 2.1009680391272014e-17 0.9998811848514654 0.015414803919366584
12623450666.666666 0.9999753767870503 0.007017536565008935 -7.432140796594284e-17 2.1637024160719674e-17 -7.432140796594284e-17 2.1637024160719674e-17 0.999975372361954 0.007018167097897463
12624068000.0 0.99999904835814 -0.0013795951059190747 -7.412062297430178e-17 2.226256411764455e-17 -7.412062297430178e-17 2.226256411764455e-17 0.9999990492278007 -0.0013789645889414938
12624685333.333334 0.9999522076157137 -0.00977662949606825 -7.391457804144066e-17 2.2886255925657515e-17 -7.391457804144066e-17 2.2886255925657515e-17 0.9999522137795503 -0.009775999039457145
12625302666.666666 0.9998348578626797 -0.018172974510497555 -7.370329006144557e-17 2.3508055398735557e-17 -7.370329006144557e-17 2.3508055398735557e-17 0.9998348693197394 -0.018172344158699828
12625920000.0 0.9996470073737025 -0.02656803810301831 -7.3486776299214e-17 2.412791850438063e-17 -7.3486776299214e-17 2.412791850438063e-17 0.9996470241226616 -0.026567407900469183
12626537333.333334 0.9993886693946287 -0.03496122831762834 -7.326505438907506e-17 2.4745801366705505e-17 -7.326505438907506e-17 2.4745801366705505e-17 0.9993886914337872 -0.034960598308748085
12627154666.666666 0.99905986214154 -0.04335195333050778 -7.303814233337573e-17 2.5361660269530137e-17 -7.303814233337573e-17 2.5361660269530137e-17 0.9990598894688272 -0.04335132355969872
12627772000.0 0.998660608799473 -0.05173962149175002 -7.280605850103478e-17 2.5975451659483938e-17 -7.280605850103478e-17 2.5975451659483938e-17 0.9986606414124449 -0.05173899200339336
12628389333.333334 0.9981909375207932 -0.06012364136679638 -7.256882162608569e-17 2.6587132149053803e-17 -7.256882162608569e-17 2.6587132149053803e-17 0.9981909754166338 -0.06012301220524906
12629006666.666666 0.9976508814231954 -0.06850342177850868 -7.23264508061786e-17 2.719665851966017e-17 -7.23264508061786e-17 2.719665851966017e-17 0.9976509245987162 -0.06850279298810028
12629624000.0 0.997040478587376 -0.07687837184865581 -7.207896550107012e-17 2.7803987724684916e-17 -7.207896550107012e-17 2.7803987724684916e-17 0.9970405270390157 -0.07687774347368531
12630241333.333334 0.9963597720543469 -0.08524790103957776 -7.182638553107393e-17 2.8409076892520405e-17 -7.182638553107393e-17 2.8409076892520405e-17 0.9963598257781741 -0.08524727312431063
12630858666.666666 0.9956088098224131 -0.09361141919574133 -7.156873107550326e-17 2.901188332956191e-17 -7.156873107550326e-17 2.901188332956191e-17 0.9956088688141244 -0.09361079178440629
12631476000.0 0.9947876448437524 -0.1019683365857497 -7.130602267106668e-17 2.961236452323907e-17 -7.130602267106668e-17 2.961236452323907e-17 0.9947877090986722 -0.10196770972253551
12632093333.333334 0.9938963350207234 -0.11031806394338747 -7.103828121025856e-17 3.0210478144984197e-17 -7.103828121025856e-17 3.0210478144984197e-17 0.9938964045338081 -0.1103174376724401
12632710666.666666 0.9929349432017719 -0.11866001250942694 -7.076552793971684e-17 3.080618205320678e-17 -7.076552793971684e-17 3.080618205320678e-17 0.9929350179676055 -0.11865938687484612
12633328000.0 0.9919035371769638 -0.12699359407336802 -7.048778445854805e-17 3.139943429626906e-17 -7.048778445854805e-17 3.139943429626906e-17 0.9919036171897612 -0.1269929691192044
12633945333.333334 0.990802189673255 -0.13531822101449095 -7.020507271664078e-17 3.1990193115419086e-17 -7.020507271664078e-17 3.1990193115419086e-17 0.9908022749268621 -0.13531759678474287
12634562666.666666 0.9896309783493364 -0.14363330634354501 -6.99174150129494e-17 3.25784169477183e-17 -6.99174150129494e-17 3.25784169477183e-17 0.98963106883723 -0.14363268288215555
12635180000.0 0.9883899857901665 -0.1519382637440541 -6.962483399375138e-17 3.316406442896038e-17 -6.962483399375138e-17 3.316406442896038e-17 0.9883900815054545 -0.15193764109490768
12635797333.333334 0.9870792995011283 -0.1602325076137995 -6.932735265087778e-17 3.3747094396578205e-17 -6.932735265087778e-17 3.3747094396578205e-17 0.9870794004365505 -0.16023188582071896
12636414666.666666 0.9856990119018989 -0.1685154531058311 -6.902499431993289e-17 3.432746589250762e-17 -6.902499431993289e-17 3.432746589250762e-17 0.9856991180498297 -0.16851483221257496
12637032000.0 0.9842492203199006 -0.17678651616995988 -6.87177826784722e-17 3.4905138166072964e-17 -6.87177826784722e-17 3.4905138166072964e-17 0.9842493316723453 -0.17678589622021862
12637649333.333334 0.9827300269834329 -0.18504511359391135 -6.840574174416534e-17 3.5480070676836585e-17 -6.840574174416534e-17 3.5480070676836585e-17 0.9827301435320323 -0.18504449463130485
12638266666.666666 0.9811415390144965 -0.19329066304431025 -6.808889587293967e-17 3.605222309742456e-17 -6.808889587293967e-17 3.605222309742456e-17 0.9811416607505241 -0.19329004511238432
12638884000.0 0.9794838684212182 -0.20152258310782534 -6.77672697570925e-17 3.662155531635154e-17 -6.77672697570925e-17 3.662155531635154e-17 0.9794839953355841 -0.201521966250049
12639501333.333334 0.9777571320899343 -0.20974029333227823 -6.744088842337821e-17 3.7188027440830734e-17 -6.744088842337821e-17 3.7188027440830734e-17 0.9777572641731845 -0.2097396775920407
12640118666.666666 0.9759614517770198 -0.2179432142672387 -6.710977723108932e-17 3.7751599799536484e-17 -6.710977723108932e-17 3.7751599799536484e-17 0.975961589019336 -0.2179425996878459
12640736000.0 0.9740969541001854 -0.2261307675054106 -6.677396187008077e-17 3.8312232945408794e-17 -6.677396187008077e-17 3.8312232945408794e-17 0.9740970964913863 -0.2261301541300824
12641353333.333334 0.9721637705296774 -0.23430237572283355 -6.64334683588151e-17 3.88698876583649e-17 -6.64334683588151e-17 3.88698876583649e-17 0.9721639180592213 -0.23430176359470092
12641970666.666666 0.9701620373789214 -0.24245746272000893 -6.608832304234514e-17 3.942452494806152e-17 -6.608832304234514e-17 3.942452494806152e-17 0.9701621900359032 -0.24245685188211036
12642588000.0 0.9680918957949383 -0.25059545346236056 -6.573855259029799e-17 3.9976106056597834e-17 -6.573855259029799e-17 3.9976106056597834e-17 0.9680920535680941 -0.2505948439576397
12643205333.333334 0.965953491748408 -0.25871577412075675 -6.538418399482442e-17 4.0524592461221455e-17 -6.538418399482442e-17 4.0524592461221455e-17 0.9659536546261136 -0.2587151659920589
12643822666.666666 0.9637469760233138 -0.26681785211219033 -6.502524456853271e-17 4.1069945877005245e-17 -6.502524456853271e-17 4.1069945877005245e-17 0.9637471439935862 -0.2668172454022596
12644440000.0 0.9614725042063907 -0.2749011161398516 -6.466176194239988e-17 4.161212825950581e-17 -6.466176194239988e-17 4.161212825950581e-17 0.9614726772568893 -0.2749005108913278
12645057333.333334 0.9591302366761291 -0.28296499623352167 -6.429376406365469e-17 4.215110180741521e-17 -6.429376406365469e-17 4.215110180741521e-17 0.9591304147941562 -0.28296439248893773
12645674666.666666 0.9567203385914406 -0.29100892378984494 -6.392127919364942e-17 4.2686828965175156e-17 -6.392127919364942e-17 4.2686828965175156e-17 0.9567205217639424 -0.29100832159162326
12646292000.0 0.9542429798800025 -0.2990323316124484 -6.354433590569154e-17 4.321927242560208e-17 -6.354433590569154e-17 4.321927242560208e-17 0.9542431680935706 -0.29903173100289854
12646909333.333334 0.9516983352263602 -0.3070346539516653 -6.316296308287757e-17 4.37483951324569e-17 -6.316296308287757e-17 4.37483951324569e-17 0.9516985284672308 -0.3070340549729802
12647526666.666666 0.9490865840594994 -0.31501532654477993 -6.277718991588875e-17 4.427416028302114e-17 -6.277718991588875e-17 4.427416028302114e-17 0.9490867823135576 -0.315014729239034
12648144000.0 0.9464079105402546 -0.32297378665562526 -6.23870459007673e-17 4.4796531330649914e-17 -6.23870459007673e-17 4.4796531330649914e-17 0.9464081137930312 -0.32297319106477024
12648761333.333334 0.9436625035483209 -0.3309094731142624 -6.199256083667594e-17 4.531547198730031e-17 -6.199256083667594e-17 4.531547198730031e-17 0.9436627117849975 -0.3309088792801257
12649378666.666666 0.9408505566689597 -0.3388218263564981 -6.159376482364264e-17 4.583094622603156e-17 -6.159376482364264e-17 4.583094622603156e-17 0.9408507698743663 -0.33882123432077843
12649996000.0 0.9379722681792588 -0.3467102884635801 -6.119068826026652e-17 4.634291828350967e-17 -6.119068826026652e-17 4.634291828350967e-17 0.9379724863378791 -0.34670969826784637
12650613333.333334 0.9350278410342431 -0.35457430320129907 -6.078336184141365e-17 4.685135266247841e-17 -6.078336184141365e-17 4.685135266247841e-17 0.9350280641302093 -0.3545737148869849
12651230666.666666 0.9320174828525657 -0.36241331605918015 -6.037181655590542e-17 4.7356214134192596e-17 -6.037181655590542e-17 4.7356214134192596e-17 0.932017710869667 -0.36241272966758376
12651848000.0 0.9289414059017476 -0.37022677428993195 -5.995608368415639e-17 4.7857467740871136e-17 -5.995608368415639e-17 4.7857467740871136e-17 0.9289416388234265 -0.3702261898622116
12652465333.333334 0.9257998270833542 -0.37801412694802117 -5.953619479581726e-17 4.835507879809651e-17 -5.953619479581726e-17 4.835507879809651e-17 0.9258000648927087 -0.3780135445251926
12653082666.666666 0.9225929679176669 -0.38577482492862963 -5.911218174739834e-17 4.8849012897194344e-17 -5.911218174739834e-17 4.8849012897194344e-17 0.9225932105974521 -0.38577424455156295
12653700000.0 0.9193210545279734 -0.3935083210065814 -5.868407667984685e-17 4.933923590762368e-17 -5.868407667984685e-17 4.933923590762368e-17 0.9193213020606034 -0.3935077427159989
12654317333.333334 0.9159843176247334 -0.401214069874668 -5.825191201613831e-17 4.9825713979306546e-17 -5.825191201613831e-17 4.9825713979306546e-17 0.9159845699922811 -0.4012134937111408
12654934666.666666 0.9125829924892678 -0.4088915281822036 -5.781572045882729e-17 5.0308413544960975e-17 -5.781572045882729e-17 5.0308413544960975e-17 0.9125832496734667 -0.4088909541861485
12655552000.0 0.9091173189571293 -0.4165401545734148 -5.737553498758044e-17 5.078730132241134e-17 -5.737553498758044e-17 5.078730132241134e-17 0.909117580939377 -0.4165395827850927
12656169333.333334 0.905587541401268 -0.4241594097254594 -5.69313888567039e-17 5.126234431686278e-17 -5.69313888567039e-17 5.126234431686278e-17 0.9055878081626232 -0.42415884018497074
12656786666.666666 0.901993908714746 -0.43174875638655713 -5.648331559263655e-17 5.173350982316967e-17 -5.648331559263655e-17 5.173350982316967e-17 0.9019941802359333 -0.43174818913384005
12657404000.0 0.8983366742932154 -0.4393076594138213 -5.603134899143443e-17 5.220076542807333e-17 -5.603134899143443e-17 5.220076542807333e-17 0.898336950554626 -0.43930709448864935
12658021333.333334 0.8946160960169877 -0.44683558581112176 -5.557552311622565e-17 5.266407901242872e-17 -5.557552311622565e-17 5.266407901242872e-17 0.8946163769986804 -0.4468350232530999
12658638666.666666 0.8908324362329876 -0.45433200476638586 -5.5115872294671296e-17 5.312341875338382e-17 -5.5115872294671296e-17 5.312341875338382e-17 0.8908327219146908 -0.4543314446149491
12659256000.0 0.8869859617360799 -0.4617963876893857 -5.4652431116372064e-17 5.357875312657448e-17 -5.4652431116372064e-17 5.357875312657448e-17 0.8869862520971913 -0.46179582998379454
12659873333.333334 0.883076943750392 -0.46922820824872796 -5.4185234430285924e-17 5.403005090826749e-17 -5.4185234430285924e-17 5.403005090826749e-17 0.8830772387699818 -0.46922765302806685
12660490666.666666 0.8791056579101427 -0.4766269424090703 -5.371431734212819e-17 5.447728117748109e-17 -5.371431734212819e-17 5.447728117748109e-17 0.8791059575669556 -0.47662638971224525
12661108000.0 0.8750723842401521 -0.48399206846817233 -5.3239715211724695e-17 5.4920413318111936e-17 -5.3239715211724695e-17 5.4920413318111936e-17 0.8750726885126073 -0.48399151833390724
12661725333.333334 0.8709774071362427 -0.49132306709340645 -5.276146365038517e-17 5.535941702100297e-17 -5.276146365038517e-17 5.535941702100297e-17 0.8709777160024362 -0.4913225195602408
12662342666.666666 0.866821015344998 -0.4986194213587267 -5.2279598518234386e-17 5.579426228601236e-17 -5.2279598518234386e-17 5.579426228601236e-17 0.8668213287827035 -0.4986188764650126
12662960000.0 0.8626035019435506 -0.5058806167808444 -5.179415592153754e-17 5.62249194240491e-17 -5.179415592153754e-17 5.62249194240491e-17 0.8626038199302227 -0.5058800745647446
12663577333.333334 0.8583251643188641 -0.5131061413556054 -5.130517220999936e-17 5.665135905909414e-17 -5.130517220999936e-17 5.665135905909414e-17 0.8583254868316386 -0.5131056018550901
12664194666.666666 0.8539863041467199 -0.5202954855941674 -5.081268397406284e-17 5.707355213018358e-17 -5.081268397406284e-17 5.707355213018358e-17 0.8539866311624145 -0.5202949488470106
12664812000.0 0.8495872273705294 -0.5274481425587745 -5.031672804217722e-17 5.749146989338173e-17 -5.031672804217722e-17 5.749146989338173e-17 0.8495875588656477 -0.5274476086025538
12665429333.333334 0.8451282441797052 -0.5345636078986045 -4.9817341478048064e-17 5.790508392373165e-17 -4.9817341478048064e-17 5.790508392373165e-17 0.8451285801304383 -0.5345630767706968
12666046666.666666 0.8406096689878199 -0.5416413798852813 -4.931456157789642e-17 5.831436611716088e-17 -4.931456157789642e-17 5.831436611716088e-17 0.840610009370045 -0.5416408516228598
12666664000.0 0.8360318204103575 -0.5486809594483739 -4.880842586766077e-17 5.871928869239863e-17 -4.880842586766077e-17 5.871928869239863e-17 0.8360321651996424 -0.5486804340884063
12667281333.333334 0.8313950212424005 -0.5556818502103459 -4.8298972100225105e-17 5.911982419283377e-17 -4.8298972100225105e-17 5.911982419283377e-17 0.831395370414005 -0.555681327789592
12667898666.666666 0.8266995984357474 -0.5626435585217499 -4.7786238252606894e-17 5.95159454883699e-17 -4.7786238252606894e-17 5.95159454883699e-17 0.8266999519646252 -0.5626430390767587
12668516000.0 0.8219458830757943 -0.5695655934961286 -4.727026252313133e-17 5.990762577725437e-17 -4.727026252313133e-17 5.990762577725437e-17 0.8219462409365929 -0.5695650770632351
12669133333.333334 0.8171342103584246 -0.576447467044274 -4.6751083328606415e-17 6.029483858787133e-17 -4.6751083328606415e-17 6.029483858787133e-17 0.817134572525489 -0.5764469536595975
12669750666.666666 0.8122649195661686 -0.5832886939089499 -4.622873930146613e-17 6.067755778052319e-17 -4.622873930146613e-17 6.067755778052319e-17 0.8122652860135452 -0.583288183608393
12670368000.0 0.8073383540442981 -0.5900887916990873 -4.57032692869077e-17 6.105575754918116e-17 -4.57032692869077e-17 6.105575754918116e-17 0.8073387247457293 -0.5900882845183286
