! Parameters = {f0=12700.012000; bw=77.238000; Q=6100.000000; N=10; m_0_1=1.344039; m_1_1=1.395840; m_1_2=1.178851; m_2_2=1.395191; m_2_3=0.815814; m_2_8=0.004266; m_2_9=0.040970; m_3_3=1.393254; m_3_4=0.704343; m_3_7=0.004866; m_3_8=-0.092222; m_3_9=0.004266; m_4_4=1.390329; m_4_5=0.540678; m_4_6=0.008383; m_4_7=-0.112771; m_4_8=0.004866; m_5_5=1.390711; m_5_6=0.948033; m_5_7=0.008383; m_6_6=1.390710; m_6_7=0.541020; m_7_7=1.390343; m_7_8=0.704461; m_8_8=1.393252; m_8_9=0.816127; m_9_9=1.395186; m_9_10=1.179929; m_10_10=1.395830; m_10_11=1.344834}
!
! Created with skrf (http://scikit-rf.org).
# Hz S RI R 50.0 
!freq ReS11 ImS11 ReS21 ImS21 ReS12 ImS12 ReS22 ImS22
12607400000.0 0.9998267494040344 0.018613736217227343 -1.493231806904293e-16 4.1229037880704144e-17 -1.493231806904293e-16 4.1229037880704144e-17 0.9998267362256807 0.01861444407187288
12608017333.333334 0.9999825769016847 0.00590304098486334 -1.487540820070526e-16 4.312856208040856e-17 -1.487540820070526e-16 4.312856208040856e-17 0.9999825727224191 0.00590374891517788
12608634666.666666 0.999976821159185 -0.006808608093684873 -1.481608334933121e-16 4.5020276131432957e-17 -1.481608334933121e-16 4.5020276131432957e-17 0.9999768259788026 -0.006807900202094807
12609252000.0 0.9998094831066948 -0.019519156993242064 -1.475435417945936e-16 4.690387317965551e-17 -1.475435417945936e-16 4.690387317965551e-17 0.9998094969235344 -0.01951844925475248
12609869333.333334 0.9994805897838157 -0.03222655186640886 -1.469023174529724e-16 4.8779047820705657e-17 -1.469023174529724e-16 4.8779047820705657e-17 0.9994806125947653 -0.03222584439535985
12610486666.666666 0.9989901943352358 -0.044928739375264426 -1.4623727488758622e-16 5.0645496149410076e-17 -1.4623727488758622e-16 5.0645496149410076e-17 0.9989902261357292 -0.044928032285941694
12611104000.0 0.9983383760021249 -0.05762366702355493 -1.4554853237435089e-16 5.250291580905651e-17 -1.4554853237435089e-16 5.250291580905651e-17 0.998338416786144 -0.057622960430171295
12611721333.333334 0.9975252401093526 -0.07030928348789404 -1.4483621202510709e-16 5.435100604022676e-17 -1.4483621202510709e-16 5.435100604022676e-17 0.9975252898694277 -0.07030857750457098
12612338666.666666 0.9965509180484449 -0.08298353894962537 -1.4410043976610652e-16 5.618946772946528e-17 -1.4410043976610652e-16 5.618946772946528e-17 0.9965509767756575 -0.08298283369037465
12612956000.0 0.9954155672563644 -0.0956443854258744 -1.4334134531588104e-16 5.801800345765888e-17 -1.4334134531588104e-16 5.801800345765888e-17 0.9954156349403481 -0.09564368100457968
12613573333.333334 0.9941193711900846 -0.10828977710030407 -1.4255906216254376e-16 5.983631754800513e-17 -1.4255906216254376e-16 5.983631754800513e-17 0.9941194478190271 -0.10828907363070246
12614190666.666666 0.9926625392969118 -0.1209176706540864 -1.4175372754042129e-16 6.164411611383255e-17 -1.4175372754042129e-16 6.164411611383255e-17 0.9926626248575553 -0.12091696824974998
12614808000.0 0.9910453069806846 -0.13352602559562188 -1.4092548240611227e-16 6.344110710602622e-17 -1.4092548240611227e-16 6.344110710602622e-17 0.9910454014583315 -0.13352532436993977
12615425333.333334 0.9892679355636962 -0.14611280459065037 -1.4007447141396105e-16 6.52270003601025e-17 -1.4007447141396105e-16 6.52270003601025e-17 0.9892680389422069 -0.1461121046568098
12616042666.666666 0.9873307122444785 -0.15867597379128512 -1.3920084289090454e-16 6.700150764302936e-17 -1.3920084289090454e-16 6.700150764302936e-17 0.9873308245062798 -0.1586752752622539
12616660000.0 0.9852339500514312 -0.17121350316448727 -1.3830474881074378e-16 6.876434269967116e-17 -1.3830474881074378e-16 6.876434269967116e-17 0.9852340711775146 -0.17121280615299495
12617277333.333334 0.9829779877921729 -0.1837233668204831 -1.373863447678258e-16 7.051522129890018e-17 -1.373863447678258e-16 7.051522129890018e-17 0.982978117762099 -0.1837226714390028
12617894666.666666 0.9805631899988705 -0.19620354333967094 -1.3644578995014638e-16 7.225386127935022e-17 -1.3644578995014638e-16 7.225386127935022e-17 0.9805633287907746 -0.19620284970040186
12618512000.0 0.9779899468692571 -0.20865201609970238 -1.3548324711184988e-16 7.397998259485993e-17 -1.3548324711184988e-16 7.397998259485993e-17 0.97799009445985 -0.208651324314551
12619129333.333334 0.9752586742036667 -0.22106677360089397 -1.3449888254521915e-16 7.569330735943656e-17 -1.3449888254521915e-16 7.569330735943656e-17 0.9752588305682411 -0.22106608378145637
12619746666.666666 0.9723698133377678 -0.2334458097916469 -1.3349286605201652e-16 7.739355989199424e-17 -1.3349286605201652e-16 7.739355989199424e-17 0.9723699784501996 -0.2334451220491904
12620364000.0 0.9693238310712793 -0.24578712439242936 -1.3246537091430279e-16 7.908046676063665e-17 -1.3246537091430279e-16 7.908046676063665e-17 0.9693240049040351 -0.24578643883787524
12620981333.333334 0.9661212195925925 -0.2580887232188302 -1.3141657386471711e-16 8.075375682652425e-17 -1.3141657386471711e-16 8.075375682652425e-17 0.9661214021167303 -0.25808803996273466
12621598666.666666 0.9627624963991465 -0.27034861850411984 -1.3034665505616182e-16 8.241316128741645e-17 -1.3034665505616182e-16 8.241316128741645e-17 0.9627626875843261 -0.2703479376566578
12622216000.0 0.9592482042138603 -0.28256482922028225 -1.2925579803096304e-16 8.405841372077709e-17 -1.2925579803096304e-16 8.405841372077709e-17 0.9592484040283424 -0.28256415089122794
12622833333.333334 0.955578910897458 -0.2947353813980105 -1.281441896894822e-16 8.568925012647991e-17 -1.281441896894822e-16 8.568925012647991e-17 0.9555791193081135 -0.29473470569672083
12623450666.666666 0.951755209356689 -0.30685830844578393 -1.2701202025819153e-16 8.730540896910171e-17 -1.2701202025819153e-16 8.730540896910171e-17 0.9517554263290027 -0.3068576354811807
12624068000.0 0.9477777174484828 -0.31893165146774954 -1.2585948325722052e-16 8.890663121978702e-17 -1.2585948325722052e-16 8.890663121978702e-17 0.9477779429465598 -0.3189309813483016
12624685333.333334 0.9436470778801453 -0.33095345958014283 -1.2468677546734642e-16 9.04926603977294e-17 -1.2468677546734642e-16 9.04926603977294e-17 0.943647311866716 -0.3309527924138485
12625302666.666666 0.9393639581055818 -0.3429217902263095 -1.234940968965453e-16 9.206324261110543e-17 -1.234940968965453e-16 9.206324261110543e-17 0.9393642005420091 -0.34292112612067943
12625920000.0 0.9349290502172395 -0.35483470949118506 -1.2228165074589879e-16 9.361812659774555e-17 -1.2228165074589879e-16 9.361812659774555e-17 0.9349293010635243 -0.35483404855322487
12626537333.333334 0.9303430708345201 -0.3666902924130921 -1.210496433751153e-16 9.515706376518901e-17 -1.210496433751153e-16 9.515706376518901e-17 0.9303433300493094 -0.3666896347492854
12627154666.666666 0.9256067609878552 -0.37848662329516336 -1.1979828426749715e-16 9.667980823035724e-17 -1.1979828426749715e-16 9.667980823035724e-17 0.925607028528448 -0.37848596901145437
12627772000.0 0.9207208859989188 -0.3902217960149956 -1.1852778599435836e-16 9.818611685882838e-17 -1.1852778599435836e-16 9.818611685882838e-17 0.9207211618212725 -0.3902211452167718
12628389333.333334 0.9156862353571111 -0.401893914332283 -1.1723836417905647e-16 9.96757493035172e-17 -1.1723836417905647e-16 9.96757493035172e-17 0.9156865194158492 -0.4018932671243586
12629006666.666666 0.9105036225918364 -0.4135010921955918 -1.1593023746046012e-16 1.011484680429784e-16 -1.1593023746046012e-16 1.011484680429784e-16 0.9105039148402551 -0.4135004486821898
12629624000.0 0.9051738851411334 -0.425041454046908 -1.14603627455943e-16 1.0260403841922501e-16 -1.14603627455943e-16 1.0260403841922501e-16 0.9051741855312128 -0.42504081433164587
12630241333.333334 0.8996978842163149 -0.4365131351248083 -1.1325875872394934e-16 1.0404222867500971e-16 -1.1325875872394934e-16 1.0404222867500971e-16 0.8996981926987224 -0.43651249931067865
12630858666.666666 0.8940765046629032 -0.4479142817655721 -1.118958587260715e-16 1.0546280999064475e-16 -1.118958587260715e-16 1.0546280999064475e-16 0.8940768211870038 -0.4479136499549273
12631476000.0 0.8883106548174785 -0.45924305170306656 -1.1051515778860538e-16 1.0686555652038857e-16 -1.1051515778860538e-16 1.0686555652038857e-16 0.8883109793313428 -0.4592424239976022
12632093333.333334 0.8824012663610792 -0.4704976143660735 -1.0911688906376001e-16 1.0825024542821673e-16 -1.0911688906376001e-16 1.0825024542821673e-16 0.8824015988114925 -0.4704969908668119
12632710666.666666 0.8763492941685839 -0.4816761511742392 -1.0770128849036644e-16 1.0961665692314463e-16 -1.0770128849036644e-16 1.0961665692314463e-16 0.8763496345010533 -0.48167553198151297
12633328000.0 0.8701557161543579 -0.49277685583202946 -1.0626859475408851e-16 1.1096457429409133e-16 -1.0626859475408851e-16 1.1096457429409133e-16 0.870156064313123 -0.49277624104546575
12633945333.333334 0.8638215331143176 -0.5037979346204512 -1.0481904924731786e-16 1.122937839441095e-16 -1.0481904924731786e-16 1.122937839441095e-16 0.8638218890423599 -0.5037973243389562
12634562666.666666 0.8573477685641628 -0.5147376066869938 -1.0335289602855457e-16 1.13604075424178e-16 -1.0335289602855457e-16 1.13604075424178e-16 0.8573481322032122 -0.5147370010087351
12635180000.0 0.8507354685741005 -0.5255941043331905 -1.0187038178137145e-16 1.1489524146645754e-16 -1.0187038178137145e-16 1.1489524146645754e-16 0.8507358398646478 -0.525593503355583
12635797333.333334 0.8439857015996169 -0.5363656733005994 -1.0037175577301683e-16 1.161670780169667e-16 -1.0037175577301683e-16 1.161670780169667e-16 0.8439860804809222 -0.5363650771202886
12636414666.666666 0.8370995583090632 -0.5470505730538764 -9.885726981257897e-17 1.1741938426774835e-16 -9.885726981257897e-17 1.1741938426774835e-16 0.8370999447191659 -0.5470499817667235
12637032000.0 0.8300781514071774 -0.5576470770624072 -9.732717820872271e-17 1.1865196268851385e-16 -9.732717820872271e-17 1.1865196268851385e-16 0.8300785452829065 -0.5576464907634732
12637649333.333334 0.8229226154555337 -0.5681534730789087 -9.578173772706018e-17 1.1986461905771548e-16 -9.578173772706018e-17 1.1986461905771548e-16 0.8229230167325189 -0.5681528918624398
12638266666.666666 0.8156341066889956 -0.5785680634164372 -9.422120754716917e-17 1.2105716249303676e-16 -9.422120754716917e-17 1.2105716249303676e-16 0.8156345153016761 -0.5785674873758485
12638884000.0 0.8082138028289747 -0.588889165222566 -9.264584921917287e-17 1.222294054813747e-16 -9.264584921917287e-17 1.222294054813747e-16 0.8082142187106107 -0.5888885944504276
12639501333.333334 0.8006629028931941 -0.5991151107512195 -9.105592661998199e-17 1.233811639082308e-16 -9.105592661998199e-17 1.233811639082308e-16 0.8006633259758793 -0.5991145453392416
12640118666.666666 0.7929826270019198 -0.6092442476322094 -8.9451705909173e-17 1.2451225708653393e-16 -8.9451705909173e-17 1.2451225708653393e-16 0.792983057216589 -0.609243687671226
12640736000.0 0.7851742161805572 -0.6192749391385461 -8.783345548446716e-17 1.2562250778492108e-16 -8.783345548446716e-17 1.2562250778492108e-16 0.7851746534570015 -0.6192743847185033
12641353333.333334 0.7772389321595349 -0.6292055644503708 -8.620144593696714e-17 1.2671174225536583e-16 -8.620144593696714e-17 1.2671174225536583e-16 0.7772393764264097 -0.6292050156603088
12641970666.666666 0.7691780571701853 -0.6390345189171722 -8.455595000590991e-17 1.2777979026032619e-16 -8.455595000590991e-17 1.2777979026032619e-16 0.7691785083550251 -0.6390339758452148
12642588000.0 0.7609928937375193 -0.6487602143171228 -8.289724253319913e-17 1.288264850992264e-16 -8.289724253319913e-17 1.288264850992264e-16 0.7609933517667467 -0.6487596770504599
12643205333.333334 0.7526847644698595 -0.658381079113576 -8.122560041753198e-17 1.2985166363440368e-16 -8.122560041753198e-17 1.2985166363440368e-16 0.7526852292687976 -0.6583805477384502
12643822666.666666 0.7442550118450878 -0.6678955587090476 -7.9541302568294e-17 1.3085516631640274e-16 -7.9541302568294e-17 1.3085516631640274e-16 0.7442554833379759 -0.6678950333107438
12644440000.0 0.7357049979936893 -0.6773021156964664 -7.784462985902642e-17 1.318368372087501e-16 -7.784462985902642e-17 1.318368372087501e-16 0.7357054761036899 -0.6773015963592932
12645057333.333334 0.7270361044787554 -0.6865992301074617 -7.613586508073675e-17 1.3279652401203318e-16 -7.613586508073675e-17 1.3279652401203318e-16 0.7270365891279712 -0.6865987169147415
12645674666.666666 0.7182497320726773 -0.6957853996580636 -7.441529289475802e-17 1.3373407808747035e-16 -7.441529289475802e-17 1.3373407808747035e-16 0.7182502231821604 -0.6957848926921169
12646292000.0 0.7093473005306727 -0.7048591399915657 -7.268319978543131e-17 1.3464935447980392e-16 -7.268319978543131e-17 1.3464935447980392e-16 0.7093477980204413 -0.7048586393337003
12646909333.333334 0.7003302483616579 -0.7138189849180967 -7.093987401246457e-17 1.3554221193960963e-16 -7.093987401246457e-17 1.3554221193960963e-16 0.7003307521507042 -0.7138184906485909
12647526666.666666 0.691200032595519 -0.7226634866518153 -6.918560556303324e-17 1.3641251294498012e-16 -6.918560556303324e-17 1.3641251294498012e-16 0.691200542601827 -0.7226629988499089
12648144000.0 0.681958128547839 -0.731391216044691 -6.742068610357863e-17 1.372601237226101e-16 -6.742068610357863e-17 1.372601237226101e-16 0.6819586446883977 -0.7313907347885724
12648761333.333334 0.6726060295814285 -0.7400007628175179 -6.564540893142756e-17 1.3808491426822028e-16 -6.564540893142756e-17 1.3808491426822028e-16 0.6726065517722412 -0.7400002881843082
12649378666.666666 0.6631452468651396 -0.7484907357876758 -6.386006892608615e-17 1.388867583663952e-16 -6.386006892608615e-17 1.388867583663952e-16 0.6631457750212408 -0.7484902678534181
12649996000.0 0.6535773091296013 -0.7568597630940048 -6.206496250033211e-17 1.396655336097725e-16 -6.206496250033211e-17 1.396655336097725e-16 0.6535778431650706 -0.7568593019336537
12650613333.333334 0.6439037624200702 -0.7651064924185925 -6.026038755106773e-17 1.4042112141760611e-16 -6.026038755106773e-17 1.4042112141760611e-16 0.6439043022480457 -0.765106038106001
12651230666.666666 0.6341261698469093 -0.773229591205026 -5.844664340994853e-17 1.4115340705369468e-16 -5.844664340994853e-17 1.4115340705369468e-16 0.6341267153796015 -0.7732291438129327
12651848000.0 0.6242461113327117 -0.781227746873977 -5.662403079380444e-17 1.418622796436704e-16 -5.662403079380444e-17 1.418622796436704e-16 0.6242466624814178 -0.7812273064739955
12652465333.333334 0.6142651833571332 -0.7890996670351804 -5.479285175480522e-17 1.4254763219166827e-16 -5.479285175480522e-17 1.4254763219166827e-16 0.6142657400322509 -0.7890992336977869
12653082666.666666 0.6041849986990577 -0.7968440796961626 -5.2953409630555674e-17 1.4320936159630208e-16 -5.2953409630555674e-17 1.4320936159630208e-16 0.6041855608101024 -0.796843653490687
12653700000.0 0.5940071861756863 -0.8044597334680267 -5.1106008993789294e-17 1.438473686660781e-16 -5.1106008993789294e-17 1.438473686660781e-16 0.5940077536313021 -0.804459314462638
12654317333.333334 0.5837333903796985 -0.811945397767379 -4.92509556021315e-17 1.4446155813406842e-16 -4.92509556021315e-17 1.4446155813406842e-16 0.5837339630876761 -0.8119449860290775
12654934666.666666 0.5733652714131939 -0.819299863015415 -4.7388556347435045e-17 1.4505183867202645e-16 -4.7388556347435045e-17 1.4505183867202645e-16 0.5733658492804845 -0.8192994586100205
12655552000.0 0.562904504619579 -0.8265219408332677 -4.5519119205162354e-17 1.4561812290377738e-16 -4.5519119205162354e-17 1.4561812290377738e-16 0.5629050875523072 -0.8265215438254063
12656169333.333334 0.5523527803129914 -0.8336104642339325 -4.364295318347937e-17 1.4616032741800223e-16 -4.364295318347937e-17 1.4616032741800223e-16 0.552353368216475 -0.8336100746870319
12656786666.666666 0.5417118035048957 -0.8405642878110378 -4.176036827224872e-17 1.4667837278034965e-16 -4.176036827224872e-17 1.4667837278034965e-16 0.5417123962836573 -0.8405639057873122
12657404000.0 0.5309832936287107 -0.847382287923822 -3.987167539188268e-17 1.4717218354489307e-16 -3.987167539188268e-17 1.4717218354489307e-16 0.5309838911864941 -0.847381913484264
12658021333.333334 0.5201689842620705 -0.8540633628786389 -3.7977186342013227e-17 1.4764168826494315e-16 -3.7977186342013227e-17 1.4764168826494315e-16 0.5201695865018582 -0.854062996083011
12658638666.666666 0.5092706228466604 -0.8606064331070153 -3.607721375017214e-17 1.480868195031656e-16 -3.607721375017214e-17 1.480868195031656e-16 0.5092712296706866 -0.8606060740138373
12659256000.0 0.49828997040550776 -0.8670104413402895 -3.417207102014604e-17 1.485075138410935e-16 -3.417207102014604e-17 1.485075138410935e-16 0.498290581715276 -0.8670100900068323
12659873333.333334 0.4872288012590122 -0.8732743527801035 -3.2262072280434226e-17 1.4890371188792365e-16 -3.2262072280434226e-17 1.4890371188792365e-16 0.4872294169553115 -0.8732740092623797
12660490666.666666 0.47608890273795235 -0.8793971552657973 -3.0347532332473495e-17 1.4927535828868403e-16 -3.0347532332473495e-17 1.4927535828868403e-16 0.476089522720871 -0.8793968196185481
12661108000.0 0.46487207489437116 -0.8853778594381079 -2.8428766598823286e-17 1.4962240173172367e-16 -2.8428766598823286e-17 1.4962240173172367e-16 0.46487269906331596 -0.8853775317147999
12661725333.333334 0.45358013021131555 -0.8912154988987173 -2.6506091071261178e-17 1.4994479495554128e-16 -2.6506091071261178e-17 1.4994479495554128e-16 0.4535807584650262 -0.8912151791515308
12662342666.666666 0.44221489330961494 -0.8969091303665997 -2.4579822258805095e-17 1.5024249475494605e-16 -2.4579822258805095e-17 1.5024249475494605e-16 0.4422155255461811 -0.8969088186464211
12662960000.0 0.4307782006529949 -0.902457833830463 -2.2650277135671217e-17 1.505154619865528e-16 -2.2650277135671217e-17 1.505154619865528e-16 0.4307788367698729 -0.9024575301868776
12663577333.333334 0.4192719002514314 -0.9078607126973595 -2.0717773089184625e-17 1.5076366157360856e-16 -2.0717773089184625e-17 1.5076366157360856e-16 0.4192725401454601 -0.9078604171786415
12664194666.666666 0.40769785136269304 -0.913116893937489 -1.8782627867599603e-17 1.5098706251015683e-16 -1.8782627867599603e-17 1.5098706251015683e-16 0.4076984949301117 -0.9131166065905962
12664812000.0 0.39605792419160274 -0.9182255282254155 -1.6845159527966963e-17 1.5118563786452182e-16 -1.6845159527966963e-17 1.5118563786452182e-16 0.3960585713280663 -0.9182252490959798
12665429333.333334 0.38435399958799077 -0.9231857900772296 -1.4905686383885397e-17 1.51359364782136e-16 -1.4905686383885397e-17 1.51359364782136e-16 0.384354650188589 -0.9231855192095526
12666046666.666666 0.3725879687429358 -0.9279968779838738 -1.2964526953274095e-17 1.5150822448769343e-16 -1.2964526953274095e-17 1.5150822448769343e-16 0.37258862270220783 -0.9279966154209159
12666664000.0 0.36076173288280605 -0.9326580145408065 -1.102199990612354e-17 1.5163220228663396e-16 -1.102199990612354e-17 1.5163220228663396e-16 0.360762390094759 -0.9326577603241828
12667281333.333334 0.34887720296246877 -0.9371684465734473 -9.078424012241929e-18 1.517312875659602e-16 -9.078424012241929e-18 1.517312875659602e-16 0.3488778633205947 -0.9371682007434207
12667898666.666666 0.3369362993561381 -0.9415274452590298 -7.134118089014145e-18 1.5180547379438447e-16 -7.134118089014145e-18 1.5180547379438447e-16 0.3369369627534309 -0.9415272078545031
12668516000.0 0.3249409515472257 -0.9457343062443004 -5.1894009491215275e-18 1.518547585218093e-16 -5.1894009491215275e-18 1.518547585218093e-16 0.32494161787619874 -0.9457340773028126
12669133333.333334 0.3128930978167258 -0.9497883497592804 -3.2445913484208943e-18 1.518791433781347e-16 -3.2445913484208943e-18 1.518791433781347e-16 0.3128937669694293 -0.949788129316999
12669750666.666666 0.3007946849296398 -0.9536889207272372 -1.3000079336374193e-18 1.518786340714055e-16 -1.3000079336374193e-18 1.518786340714055e-16 0.30079535679767816 -0.9536887088189526
12670368000.0 0.2886476678207832 -0.9574353888704072 6.440308096971233e-19 1.5185324038528425e-16 6.440308096971233e-19 1.5185324038528425e-16 0.28864834229533265 -0.9574351855295279
