! Parameters = {f0=12700.012000; bw=77.238000; Q=6100.000000; N=10; m_0_1=1.191887; m_1_1=-0.886442; m_1_2=1.026699; m_2_2=-0.887091; m_2_3=0.663662; m_2_8=-0.003342; m_2_9=0.033362; m_3_3=-0.889028; m_3_4=0.552191; m_3_7=-0.002742; m_3_8=-0.099830; m_3_9=-0.003342; m_4_4=-0.891953; m_4_5=0.388526; m_4_6=0.000775; m_4_7=-0.120379; m_4_8=-0.002742; m_5_5=-0.891571; m_5_6=0.795881; m_5_7=0.000775; m_6_6=-0.891572; m_6_7=0.388868; m_7_7=-0.891939; m_7_8=0.552309; m_8_8=-0.889030; m_8_9=0.663975; m_9_9=-0.887096; m_9_10=1.027777; m_10_10=-0.886452; m_10_11=1.192682}
!
! Created with skrf (http://scikit-rf.org).
# Hz S RI R 50.0 
!freq ReS11 ImS11 ReS21 ImS21 ReS12 ImS12 ReS22 ImS22
12607400000.0 -0.6725478941851439 -0.7400535994284292 6.445392669894884e-17 3.9087406136364497e-17 6.445392669894884e-17 3.9087406136364497e-17 -0.6725474293635574 -0.7400540218499699
12608017333.333334 -0.6786037307542792 -0.7345045790233161 6.476353339021063e-17 3.854339153123326e-17 6.476353339021063e-17 3.854339153123326e-17 -0.6786032694405765 -0.7345050052276058
12608634666.666666 -0.684613785467646 -0.7289060054269713 6.506855370111725e-17 3.799693264498913e-17 6.506855370111725e-17 3.799693264498913e-17 -0.6846133276926053 -0.7289064353848871
12609252000.0 -0.6905776528582201 -0.7232582563460137 6.536896840453698e-17 3.7448068100150746e-17 6.536896840453698e-17 3.7448068100150746e-17 -0.690577198652376 -0.723258690028182
12609869333.333334 -0.696494930575076 -0.7175617128045955 6.566475859822699e-17 3.689683666987068e-17 6.566475859822699e-17 3.689683666987068e-17 -0.6964944799687206 -0.7175621501813945
12610486666.666666 -0.7023652194103087 -0.7118167591189148 6.595590570600666e-17 3.634327727520959e-17 6.595590570600666e-17 3.634327727520959e-17 -0.7023647724334877 -0.7118172001604766
12611104000.0 -0.7081881233262695 -0.7060237828709888 6.624239147891373e-17 3.578742898238711e-17 6.624239147891373e-17 3.578742898238711e-17 -0.7081876800087824 -0.7060242275472021
12611721333.333334 -0.7139632494819647 -0.7001831748828283 6.652419799632397e-17 3.522933100005328e-17 6.652419799632397e-17 3.522933100005328e-17 -0.7139628098533598 -0.7001836231633387
12612338666.666666 -0.7196902082598378 -0.6942953291897881 6.680130766706477e-17 3.466902267651634e-17 6.680130766706477e-17 3.466902267651634e-17 -0.7196897723494109 -0.694295781044
12612956000.0 -0.7253686132919305 -0.6883606430141003 6.707370323050166e-17 3.4106543496969815e-17 6.707370323050166e-17 3.4106543496969815e-17 -0.7253681811287258 -0.6883610984111818
12613573333.333334 -0.7309980814858587 -0.6823795167381848 6.734136775758357e-17 3.354193308074756e-17 6.734136775758357e-17 3.354193308074756e-17 -0.730997653098663 -0.682379975647067
12614190666.666666 -0.7365782330508078 -0.6763523538774692 6.760428465189169e-17 3.297523117851716e-17 6.760428465189169e-17 3.297523117851716e-17 -0.7365778084681518 -0.6763528162668501
12614808000.0 -0.7421086915231415 -0.6702795610531893 6.786243765065052e-17 3.2406477669493926e-17 6.786243765065052e-17 3.2406477669493926e-17 -0.7421082707732948 -0.6702800268915338
12615425333.333334 -0.7475890837916958 -0.664161547965055 6.81158108257127e-17 3.1835712558652984e-17 6.81158108257127e-17 3.1835712558652984e-17 -0.747588666902668 -0.6641620172206
12616042666.666666 -0.7530190401230344 -0.6579987273635326 6.836438858452912e-17 3.1262975973916533e-17 6.836438858452912e-17 3.1262975973916533e-17 -0.7530186271225718 -0.6579992000042868
12616660000.0 -0.7583981941863531 -0.6517915150220382 6.860815567109007e-17 3.0688308163345415e-17 6.860815567109007e-17 3.0688308163345415e-17 -0.7583977851019366 -0.6517919910157853
12617277333.333334 -0.7637261830782844 -0.6455403297087797 6.884709716684819e-17 3.011174949230946e-17 6.884709716684819e-17 3.011174949230946e-17 -0.7637257779371283 -0.6455408090230802
12617894666.666666 -0.7690026473471806 -0.6392455931587426 6.908119849160528e-17 2.953334044068271e-17 6.908119849160528e-17 2.953334044068271e-17 -0.7690022461762304 -0.6392460757609366
12618512000.0 -0.7742272310176209 -0.6329077300449358 6.931044540439558e-17 2.895312159998235e-17 6.931044540439558e-17 2.895312159998235e-17 -0.7742268338435512 -0.632908215902144
12619129333.333334 -0.7793995816142228 -0.6265271679499772 6.953482400432506e-17 2.837113367055054e-17 6.953482400432506e-17 2.837113367055054e-17 -0.7793991884634376 -0.6265276570291052
12619746666.666666 -0.784519350185501 -0.6201043373371637 6.97543207313993e-17 2.7787417458700174e-17 6.97543207313993e-17 2.7787417458700174e-17 -0.7845189610841286 -0.620104829604902
12620364000.0 -0.7895861913274745 -0.6136396715213382 6.996892236732702e-17 2.7202013873854402e-17 6.996892236732702e-17 2.7202013873854402e-17 -0.789585806301368 -0.6136401669441656
12620981333.333334 -0.7945997632067777 -0.6071336066399027 7.017861603628867e-17 2.6614963925710015e-17 7.017861603628867e-17 2.6614963925710015e-17 -0.7945993822815127 -0.6071341051840882
12621598666.666666 -0.7995597275839672 -0.6005865816230801 7.038338920570002e-17 2.6026308721345265e-17 7.038338920570002e-17 2.6026308721345265e-17 -0.7995593507848395 -0.6005870832546856
12622216000.0 -0.8044657498361475 -0.5939990381645489 7.058322968693263e-17 2.5436089462371918e-17 7.058322968693263e-17 2.5436089462371918e-17 -0.8044653771881739 -0.593999542849432
12622833333.333334 -0.8093174989796537 -0.5873714206915104 7.077812563602288e-17 2.4844347442050035e-17 7.077812563602288e-17 2.4844347442050035e-17 -0.8093171305075667 -0.5873719283953253
12623450666.666666 -0.8141146476922755 -0.5807041763348408 7.096806555435234e-17 2.4251124042409553e-17 7.096806555435234e-17 2.4251124042409553e-17 -0.8141142834205253 -0.5807046870230422
12624068000.0 -0.818856872335496 -0.5739977548987217 7.11530382893038e-17 2.3656460731366798e-17 7.11530382893038e-17 2.3656460731366798e-17 -0.8188565122882453 -0.5739982685365658
12624685333.333334 -0.823543852976236 -0.5672526088304053 7.133303303489702e-17 2.3060399059826237e-17 7.133303303489702e-17 2.3060399059826237e-17 -0.8235434971773606 -0.567253125382952
12625302666.666666 -0.8281752734083436 -0.5604691931898311 7.150803933239288e-17 2.246298065879985e-17 7.150803933239288e-17 2.246298065879985e-17 -0.8281749218814314 -0.5604697126219488
12625920000.0 -0.8327508211741391 -0.5536479656186244 7.167804707088357e-17 2.186424723648958e-17 7.167804707088357e-17 2.186424723648958e-17 -0.8327504739424867 -0.5536484878949895
12626537333.333334 -0.8372701875853318 -0.5467893863094531 7.184304648784709e-17 2.126424057540442e-17 7.184304648784709e-17 2.126424057540442e-17 -0.8372698446719437 -0.546789911394554
12627154666.666666 -0.8417330677438468 -0.5398939179749823 7.200302816968601e-17 2.0663002529444953e-17 7.200302816968601e-17 2.0663002529444953e-17 -0.8417327291714347 -0.5398944458331216
12627772000.0 -0.8461391605625378 -0.532962025816445 7.215798305224485e-17 2.0060575020971588e-17 7.215798305224485e-17 2.0060575020971588e-17 -0.8461388263535168 -0.5329625564117408
12628389333.333334 -0.8504881687853246 -0.5259941774925171 7.230790242128689e-17 1.9457000037931024e-17 7.230790242128689e-17 1.9457000037931024e-17 -0.8504878389618151 -0.5259947107889076
12629006666.666666 -0.8547797990073904 -0.5189908430875533 7.2452777912967e-17 1.8852319630901035e-17 7.2452777912967e-17 1.8852319630901035e-17 -0.8547794735912139 -0.5189913790487971
12629624000.0 -0.8590137616948671 -0.5119524950800406 7.259260151426726e-17 1.824657591018585e-17 7.259260151426726e-17 1.824657591018585e-17 -0.8590134407075452 -0.5119530336697203
12630241333.333334 -0.8631897712044283 -0.5048796083106258 7.272736556341084e-17 1.7639811042891742e-17 7.272736556341084e-17 1.7639811042891742e-17 -0.8631894546671829 -0.5048801494921507
12630858666.666666 -0.8673075458025358 -0.49777265995013126 7.285706275025221e-17 1.7032067250004337e-17 7.285706275025221e-17 1.7032067250004337e-17 -0.8673072337362844 -0.4977732036867381
12631476000.0 -0.8713668076845086 -0.49063212946723495 7.298168611664713e-17 1.6423386803440305e-17 7.298168611664713e-17 1.6423386803440305e-17 -0.8713665001098685 -0.49063267572199387
12632093333.333334 -0.8753672829931487 -0.48345849859635137 7.310122905679038e-17 1.5813812023134177e-17 7.310122905679038e-17 1.5813812023134177e-17 -0.8753669799304294 -0.4834590473321646
12632710666.666666 -0.879308701837266 -0.4762522513050284 7.32156853175328e-17 1.5203385274104204e-17 7.32156853175328e-17 1.5203385274104204e-17 -0.8793084033064712 -0.4762528024846347
12633328000.0 -0.883190798310012 -0.469013873761074 7.332504899867782e-17 1.4592148963499693e-17 7.332504899867782e-17 1.4592148963499693e-17 -0.8831905043308392 -0.4690144273470517
12633945333.333334 -0.8870133105066156 -0.46174385430013115 7.342931455324729e-17 1.3980145537675723e-17 7.342931455324729e-17 1.3980145537675723e-17 -0.8870130210984507 -0.46174441025489843
12634562666.666666 -0.8907759805421696 -0.4544426833925053 7.352847678772521e-17 1.336741747925587e-17 7.352847678772521e-17 1.336741747925587e-17 -0.8907756957240913 -0.45444324167832606
12635180000.0 -0.894478554568998 -0.4471108536101552 7.362253086227842e-17 1.2754007304185255e-17 7.362253086227842e-17 1.2754007304185255e-17 -0.894478274359771 -0.44711141418913813
12635797333.333334 -0.8981207827938358 -0.43974885959332877 7.371147229095123e-17 1.213995755879077e-17 7.371147229095123e-17 1.213995755879077e-17 -0.8981205072119136 -0.4397494224274328
12636414666.666666 -0.9017024194945608 -0.43235719801745104 7.379529694183659e-17 1.1525310816838362e-17 7.379529694183659e-17 1.1525310816838362e-17 -0.9017021485580815 -0.43235776306848567
12637032000.0 -0.9052232230368938 -0.4249363675593587 7.387400103722158e-17 1.0910109676589408e-17 7.387400103722158e-17 1.0910109676589408e-17 -0.9052229567636827 -0.42493693478898875
12637649333.333334 -0.908682955890631 -0.41748686886381337 7.394758115370961e-17 1.0294396757858841e-17 7.394758115370961e-17 1.0294396757858841e-17 -0.9086826942981941 -0.4174874382335591
12638266666.666666 -0.912081384645721 -0.41000920450959255 7.401603422231866e-17 9.678214699062338e-18 7.401603422231866e-17 9.678214699062338e-18 -0.9120811277512495 -0.4100097759808349
12638884000.0 -0.9154182800279479 -0.40250387897574247 7.407935752855232e-17 9.06160615428436e-18 7.407935752855232e-17 9.06160615428436e-18 -0.915418027848312 -0.40250445250972317
12639501333.333334 -0.9186934169144412 -0.39497139860743685 7.413754871244956e-17 8.444613790325341e-18 7.413754871244956e-17 8.444613790325341e-18 -0.9186931694661933 -0.39497197416526325
12640118666.666666 -0.9219065743488328 -0.3874122715818966 7.419060576860804e-17 7.827280283763818e-18 7.419060576860804e-17 7.827280283763818e-18 -0.9219063316482046 -0.38741284912454316
12640736000.0 -0.9250575355562749 -0.37982700787384377 7.423852704618563e-17 7.209648317991609e-18 7.423852704618563e-17 7.209648317991609e-18 -0.9250572976191744 -0.3798275873621545
12641353333.333334 -0.9281460879578409 -0.3722161192216193 7.428131124887185e-17 6.591760580313053e-18 7.428131124887185e-17 6.591760580313053e-18 -0.9281458547998546 -0.37221670061631085
12641970666.666666 -0.9311720231850772 -0.36458011909216065 7.431895743484204e-17 5.973659758962711e-18 7.431895743484204e-17 5.973659758962711e-18 -0.9311717948214693 -0.3645807023538259
12642588000.0 -0.9341351370939993 -0.3569195226465203 7.435146501668277e-17 5.3553885401770105e-18 7.435146501668277e-17 5.3553885401770105e-18 -0.9341349135397051 -0.3569201077356283
12643205333.333334 -0.9370352297788019 -0.3492348467052386 7.437883376129305e-17 4.73698960526504e-18 7.437883376129305e-17 4.73698960526504e-18 -0.9370350110484346 -0.3492354335821405
12643822666.666666 -0.9398721055854383 -0.3415266097132685 7.440106378976275e-17 4.1185056276554574e-18 7.440106378976275e-17 4.1185056276554574e-18 -0.939871891693281 -0.3415271983381975
12644440000.0 -0.9426455731247416 -0.33379533170518233 7.441815557722588e-17 3.499979269964152e-18 7.441815557722588e-17 3.499979269964152e-18 -0.9426453640847515 -0.3337959220382584
12645057333.333334 -0.9453554452853901 -0.3260415342699553 7.443010995268891e-17 2.881453181070111e-18 7.443010995268891e-17 2.881453181070111e-18 -0.9453552411111966 -0.32604212627118717
12645674666.666666 -0.9480015392464753 -0.3182657405159385 7.44369280988361e-17 2.262969993174365e-18 7.44369280988361e-17 2.262969993174365e-18 -0.9480013399513763 -0.3182663341452256
12646292000.0 -0.9505836764899338 -0.3104684750352698 7.443861155180961e-17 1.6445723188590754e-18 7.443861155180961e-17 1.6445723188590754e-18 -0.9505834820868978 -0.3104690702524063
12646909333.333334 -0.9531016828124572 -0.3026502638688882 7.443516220096592e-17 1.026302748178794e-18 7.443516220096592e-17 1.026302748178794e-18 -0.9531014933141211 -0.3026508606335647
12647526666.666666 -0.9555553883373694 -0.29481163447066583 7.442658228860725e-17 4.082038457268516e-19 7.442658228860725e-17 4.082038457268516e-19 -0.9555552037560384 -0.2948122327424726
12648144000.0 -0.9579446275260225 -0.28695311567201187 7.441287440968937e-17 -2.096818522910845e-19 7.441287440968937e-17 -2.096818522910845e-19 -0.957944447873669 -0.2869537154104416
12648761333.333334 -0.960269239188971 -0.2790752376461973 7.439404151150543e-17 -8.273118409740205e-19 7.439404151150543e-17 -8.273118409740205e-19 -0.9602690644772321 -0.2790758388106472
12649378666.666666 -0.9625290664968236 -0.27117853187263863 7.437008689334523e-17 -1.444643649628786e-18 7.437008689334523e-17 -1.444643649628786e-18 -0.9625288967370047 -0.2711791344224144
12649996000.0 -0.9647239569909021 -0.263263531100799 7.434101420613027e-17 -2.0616348446992903e-18 7.434101420613027e-17 -2.0616348446992903e-18 -0.9647237921939721 -0.2632641349951165
12650613333.333334 -0.966853762593452 -0.25533076931449045 7.43068274520249e-17 -2.6782430326751544e-18 7.43068274520249e-17 -2.6782430326751544e-18 -0.9668536027700438 -0.25533137451247884
12651230666.666666 -0.9689183396176357 -0.24738078169584962 7.426753098402428e-17 -3.2944258629753445e-18 7.426753098402428e-17 -3.2944258629753445e-18 -0.9689181847780449 -0.24738138815655394
12651848000.0 -0.9709175487772829 -0.2394141045890121 7.422312950551609e-17 -3.910141030878386e-18 7.422312950551609e-17 -3.910141030878386e-18 -0.9709173989314691 -0.23941471227139638
12652465333.333334 -0.9728512551962507 -0.231431275464065 7.41736280698212e-17 -4.5253462803955235e-18 7.41736280698212e-17 -4.5253462803955235e-18 -0.9728511103538363 -0.23143188432701506
12653082666.666666 -0.9747193284174877 -0.22343283288095336 7.411903207970837e-17 -5.13999940717105e-18 7.411903207970837e-17 -5.13999940717105e-18 -0.9747191885877543 -0.2234334428832789
12653700000.0 -0.9765216424119132 -0.21541931645278573 7.405934728688461e-17 -5.754058261377889e-18 7.405934728688461e-17 -5.754058261377889e-18 -0.9765215076038052 -0.21541992755322392
12654317333.333334 -0.9782580755868564 -0.20739126680973477 7.399457979146538e-17 -6.367480750576815e-18 7.399457979146538e-17 -6.367480750576815e-18 -0.9782579458089785 -0.20739187896695285
12654934666.666666 -0.9799285107942807 -0.19934922556245263 7.392473604141551e-17 -6.980224842621001e-18 7.392473604141551e-17 -6.980224842621001e-18 -0.9799283860548965 -0.1993498387350503
12655552000.0 -0.9815328353387116 -0.1912937352654198 7.384982283197027e-17 -7.592248568515354e-18 7.384982283197027e-17 -7.592248568515354e-18 -0.9815327156457451 -0.1912943494119326
12656169333.333334 -0.9830709409847755 -0.18322533938064817 7.376984730503313e-17 -8.203510025272539e-18 7.376984730503313e-17 -8.203510025272539e-18 -0.9830708263458091 -0.18322595445954984
12656786666.666666 -0.9845427239645843 -0.17514458224062682 7.368481694854671e-17 -8.8139673787906e-18 7.368481694854671e-17 -8.8139673787906e-18 -0.9845426143868575 -0.17514519821033203
12657404000.0 -0.9859480849846677 -0.16705200901190437 7.359473959584186e-17 -9.423578866705798e-18 7.359473959584186e-17 -9.423578866705798e-18 -0.9859479804750804 -0.1670526258307722
12658021333.333334 -0.9872869292327114 -0.15894816565814296 7.349962342496424e-17 -1.0032302801233146e-17 7.349962342496424e-17 -1.0032302801233146e-17 -0.9872868297978198 -0.15894878328447912
12658638666.666666 -0.9885591663839192 -0.15083359890348103 7.339947695797769e-17 -1.0640097572004977e-17 7.339947695797769e-17 -1.0640097572004977e-17 -0.9885590720299352 -0.1508342172955406
12659256000.0 -0.989764710607167 -0.1427088561952553 7.329430906023822e-17 -1.1246921648934196e-17 7.329430906023822e-17 -1.1246921648934196e-17 -0.9897646213399598 -0.14270947531124586
12659873333.333334 -0.9909034805707252 -0.1345744856674883 7.318412893965435e-17 -1.1852733585012645e-17 7.318412893965435e-17 -1.1852733585012645e-17 -0.990903396395822 -0.13457510546557294
12660490666.666666 -0.9919753994477714 -0.12643103610379744 7.306894614591813e-17 -1.2457492019142227e-17 7.306894614591813e-17 -1.2457492019142227e-17 -0.9919753203703542 -0.12643165654209715
12661108000.0 -0.9929803949216013 -0.11827905690014573 7.294877056971082e-17 -1.3061155678967253e-17 7.294877056971082e-17 -1.3061155678967253e-17 -0.992980320946506 -0.11827967793674213
12661725333.333334 -0.9939183991904637 -0.11011909802805775 7.282361244189233e-17 -1.366368338366221e-17 7.282361244189233e-17 -1.366368338366221e-17 -0.9939183303221845 -0.1101197196209966
12662342666.666666 -0.9947893489721611 -0.10195170999737618 7.269348233266165e-17 -1.4265034046743273e-17 7.269348233266165e-17 -1.4265034046743273e-17 -0.9947892852148461 -0.10195233210466968
12662960000.0 -0.9955931855083142 -0.09377744381914964 7.255839115069745e-17 -1.4865166678857748e-17 7.255839115069745e-17 -1.4865166678857748e-17 -0.9955931268657653 -0.09377806639877925
12663577333.333334 -0.9963298545683176 -0.0855968509684867 7.241835014227252e-17 -1.5464040390578034e-17 7.241835014227252e-17 -1.5464040390578034e-17 -0.9963298010439924 -0.08559747397840621
12664194666.666666 -0.9969993064530149 -0.07741048334723787 7.227337089035021e-17 -1.6061614395167104e-17 7.227337089035021e-17 -1.6061614395167104e-17 -0.9969992580500253 -0.07741110674537618
12664812000.0 -0.9976014959980348 -0.06921889324693173 7.212346531365385e-17 -1.6657848011354324e-17 7.212346531365385e-17 -1.6657848011354324e-17 -0.997601452719146 -0.06921951699119555
12665429333.333334 -0.9981363825768461 -0.061022633311372435 7.196864566571272e-17 -1.7252700666104932e-17 7.196864566571272e-17 -1.7252700666104932e-17 -0.9981363444244796 -0.06102325735964944
12666046666.666666 -0.9986039301034926 -0.05282225649955502 7.180892453389282e-17 -1.7846131897350318e-17 7.180892453389282e-17 -1.7846131897350318e-17 -0.998603897079722 -0.05282288080971627
12666664000.0 -0.9990041070350477 -0.04461831604793403 7.164431483839243e-17 -1.8438101356760642e-17 7.164431483839243e-17 -1.8438101356760642e-17 -0.9990040791416 -0.04461894057783707
12667281333.333334 -0.9993368863737101 -0.036411365433667145 7.147482983122839e-17 -1.9028568812457646e-17 7.147482983122839e-17 -1.9028568812457646e-17 -0.9993368636119679 -0.036411990141158875
12667898666.666666 -0.9996022456686517 -0.028201958336877914 7.1300483095191e-17 -1.9617494151748755e-17 7.1300483095191e-17 -1.9617494151748755e-17 -0.9996022280396498 -0.028202583179797305
12668516000.0 -0.999800167017521 -0.0199906486033582 7.112128854277754e-17 -2.0204837383852014e-17 7.112128854277754e-17 -2.0204837383852014e-17 -0.9998001545219488 -0.01999127353953923
12669133333.333334 -0.9999306370676524 -0.011777990207345419 7.093726041511175e-17 -2.0790558642581223e-17 7.093726041511175e-17 -2.0790558642581223e-17 -0.9999306297058522 -0.011778615194619854
12669750666.666666 -0.9999936470169681 -0.003564537214034987 7.074841328082615e-17 -2.137461818907186e-17 7.074841328082615e-17 -2.137461818907186e-17 -0.9999936447889357 -0.003565162210235278
12670368000.0 -0.999989192614569 0.004649156257771085 7.055476203493684e-17 -2.195697641444881e-17 7.055476203493684e-17 -2.195697641444881e-17 -0.9999891955199547 0.00464853129480898
