! Parameters = {f0=12700.012000; bw=77.238000; Q=6100.000000; N=10; m_0_1=1.199494; m_1_1=-0.772328; m_1_2=1.034306; m_2_2=-0.772977; m_2_3=0.671269; m_2_8=-0.002962; m_2_9=0.033742; m_3_3=-0.774914; m_3_4=0.559798; m_3_7=-0.002362; m_3_8=-0.099450; m_3_9=-0.002962; m_4_4=-0.777839; m_4_5=0.396133; m_4_6=0.001155; m_4_7=-0.119999; m_4_8=-0.002362; m_5_5=-0.777457; m_5_6=0.803488; m_5_7=0.001155; m_6_6=-0.777458; m_6_7=0.396475; m_7_7=-0.777825; m_7_8=0.559916; m_8_8=-0.774916; m_8_9=0.671582; m_9_9=-0.772982; m_9_10=1.035384; m_10_10=-0.772338; m_10_11=1.200289}
!
! Created with skrf (http://scikit-rf.org).
# Hz S RI R 50.0 
!freq ReS11 ImS11 ReS21 ImS21 ReS12 ImS12 ReS22 ImS22
12607400000.0 0.8131260514867967 -0.5820876432233678 -4.8134525973071825e-17 6.182977474121989e-17 -4.8134525973071825e-17 6.182977474121989e-17 0.8131264194168552 -0.5820871292565801
12608017333.333334 0.808185142711951 -0.5889284974421823 -4.7596216573554286e-17 6.22257893749964e-17 -4.7596216573554286e-17 6.22257893749964e-17 0.8081855149477987 -0.5889279866234951
12608634666.666666 0.8031866831827976 -0.5957274141397725 -4.705465639370859e-17 6.261712327375587e-17 -4.705465639370859e-17 6.261712327375587e-17 0.8031870596975071 -0.5957269065052511
12609252000.0 0.7981310288389808 -0.6024839091662714 -4.6509886083686235e-17 6.300374981716495e-17 -4.6509886083686235e-17 6.300374981716495e-17 0.7981314096053235 -0.602483404751751
12609869333.333334 0.7930185396930164 -0.6091975013926105 -4.596194651106196e-17 6.338564273749894e-17 -4.596194651106196e-17 6.338564273749894e-17 0.7930189246834616 -0.6091970002336926
12610486666.666666 0.7878495798046659 -0.6158677127447542 -4.541087875778055e-17 6.376277612141131e-17 -4.541087875778055e-17 6.376277612141131e-17 0.7878499689913865 -0.6158672148768057
12611104000.0 0.7826245172548459 -0.6224940682379728 -4.485672411707813e-17 6.413512441168435e-17 -4.485672411707813e-17 6.413512441168435e-17 0.7826249106097194 -0.6224935736961239
12611721333.333334 0.7773437241196754 -0.6290760960103285 -4.429952409041693e-17 6.45026624089343e-17 -4.429952409041693e-17 6.45026624089343e-17 0.7773441216142838 -0.6290756048294673
12612338666.666666 0.7720075764437347 -0.635613327356589 -4.373932038437132e-17 6.4865365273314e-17 -4.373932038437132e-17 6.4865365273314e-17 0.772007978049368 -0.6356128395713615
12612956000.0 0.7666164542133895 -0.6421052967614668 -4.3176154907518245e-17 6.522320852617567e-17 -4.3176154907518245e-17 6.522320852617567e-17 0.7666168599010493 -0.6421048124062748
12613573333.333334 0.7611707413298303 -0.6485515419326664 -4.2610069767322127e-17 6.557616805170258e-17 -4.2610069767322127e-17 6.557616805170258e-17 0.7611711510702287 -0.6485510610416623
12614190666.666666 0.7556708255815641 -0.6549516038339934 -4.204110726698918e-17 6.5924220098524e-17 -4.204110726698918e-17 6.5924220098524e-17 0.7556712393451284 -0.6549511264410809
12614808000.0 0.7501170986169146 -0.6613050267179169 -4.1469309902318565e-17 6.626734128129747e-17 -4.1469309902318565e-17 6.626734128129747e-17 0.7501175163737884 -0.6613045528567472
12615425333.333334 0.7445099559160384 -0.6676113581581288 -4.089472035854073e-17 6.660550858226402e-17 -4.089472035854073e-17 6.660550858226402e-17 0.7445103776360836 -0.6676108878620979
12616042666.666666 0.738849796762874 -0.6738701490816326 -4.031738150713354e-17 6.693869935278133e-17 -4.031738150713354e-17 6.693869935278133e-17 0.7388502224156743 -0.67386968238388
12616660000.0 0.7331370242166366 -0.6800809538008078 -3.973733640264523e-17 6.726689131481832e-17 -3.973733640264523e-17 6.726689131481832e-17 0.7331374537714975 -0.6800804907342131
12617277333.333334 0.7273720450831327 -0.6862433300451255 -3.915462827948622e-17 6.75900625624335e-17 -3.915462827948622e-17 6.75900625624335e-17 0.7273724785090849 -0.6862428706423063
12617894666.666666 0.7215552698858119 -0.6923568389926223 -3.85693005487209e-17 6.790819156321936e-17 -3.85693005487209e-17 6.790819156321936e-17 0.7215557071516139 -0.6923563832859323
12618512000.0 0.7156871128364348 -0.6984210453012505 -3.798139679483361e-17 6.822125715972587e-17 -3.798139679483361e-17 6.822125715972587e-17 0.7156875539105749 -0.6984205933227775
12619129333.333334 0.7097679918057745 -0.7044355171396737 -3.739096077251327e-17 6.852923857084096e-17 -3.739096077251327e-17 6.852923857084096e-17 0.7097684366564736 -0.7044350689212374
12619746666.666666 0.7037983282936854 -0.7103998262182057 -3.67980364033892e-17 6.883211539316274e-17 -3.67980364033892e-17 6.883211539316274e-17 0.7037987768888961 -0.7103993817913529
12620364000.0 0.6977785473990998 -0.7163135478192806 -3.6202667772776036e-17 6.912986760233339e-17 -3.6202667772776036e-17 6.912986760233339e-17 0.6977789997065139 -0.7163131072152868
12620981333.333334 0.6917090777898655 -0.7221762608276024 -3.5604899126415693e-17 6.9422475554341e-17 -3.5604899126415693e-17 6.9422475554341e-17 0.6917095337769125 -0.7221758240774676
12621598666.666666 0.6855903516721338 -0.7279875477602095 -3.500477486719123e-17 6.970991998680203e-17 -3.500477486719123e-17 6.970991998680203e-17 0.6855908113059843 -0.7279871148946557
12622216000.0 0.6794228047596058 -0.7337469947961851 -3.440233955184062e-17 6.999218202021119e-17 -3.440233955184062e-17 6.999218202021119e-17 0.6794232680071747 -0.7337465658456558
12622833333.333334 0.6732068762425047 -0.739454191806126 -3.379763788765838e-17 7.026924315916317e-17 -3.379763788765838e-17 7.026924315916317e-17 0.6732073430704523 -0.739453766800782
12623450666.666666 0.6669430087563003 -0.7451087323813463 -3.319071472918795e-17 7.054108529354701e-17 -3.319071472918795e-17 7.054108529354701e-17 0.6669434791310344 -0.7451083113510639
12624068000.0 0.6606316483502093 -0.750710213862798 -3.258161507490621e-17 7.080769069970999e-17 -3.258161507490621e-17 7.080769069970999e-17 0.66063212223789 -0.7507097968371695
12624685333.333334 0.6542732444553291 -0.7562582373698424 -3.1970384063887055e-17 7.10690420415992e-17 -3.1970384063887055e-17 7.10690420415992e-17 0.6542737218218685 -0.7562578243781702
12625302666.666666 0.6478682498528646 -0.7617524078284424 -3.1357066972490374e-17 7.132512237185907e-17 -3.1357066972490374e-17 7.132512237185907e-17 0.647868730663931 -0.7617519988997399
12625920000.0 0.6414171206415893 -0.7671923339995628 -3.0741709210979395e-17 7.157591513292738e-17 -3.0741709210979395e-17 7.157591513292738e-17 0.6414176048626091 -0.7671919291625509
12626537333.333334 0.6349203162055784 -0.7725776285068391 -3.0124356320208986e-17 7.182140415806884e-17 -3.0124356320208986e-17 7.182140415806884e-17 0.6349208038017388 -0.7725772277899449
12627154666.666666 0.6283782991815003 -0.7779079078641683 -2.950505396824482e-17 7.206157367240589e-17 -2.950505396824482e-17 7.206157367240589e-17 0.6283787901177513 -0.7779075112955227
12627772000.0 0.6217915354254512 -0.7831827925031956 -2.8883847946986324e-17 7.229640829391455e-17 -2.8883847946986324e-17 7.229640829391455e-17 0.6217920296665077 -0.7831824001106303
12628389333.333334 0.6151604939801102 -0.7884019068000716 -2.8260784168811323e-17 7.252589303438104e-17 -2.8260784168811323e-17 7.252589303438104e-17 0.6151609914904568 -0.7884015186111202
12629006666.666666 0.6084856470410342 -0.7935648791024572 -2.7635908663173616e-17 7.275001330034361e-17 -2.7635908663173616e-17 7.275001330034361e-17 0.6084861477849246 -0.793564495144349
12629624000.0 0.6017674699231814 -0.7986713417558542 -2.7009267573226707e-17 7.296875489399348e-17 -2.7009267573226707e-17 7.296875489399348e-17 0.6017679738646435 -0.7986709620555166
12630241333.333334 0.5950064410270698 -0.8037209311297951 -2.6380907152417768e-17 7.318210401405492e-17 -2.6380907152417768e-17 7.318210401405492e-17 0.5950069481299068 -0.8037205557138483
12630858666.666666 0.5882030418047529 -0.8087132876436984 -2.5750873761087427e-17 7.339004725663195e-17 -2.5750873761087427e-17 7.339004725663195e-17 0.5882035520325477 -0.8087129165384568
12631476000.0 0.5813577567253113 -0.8136480557926488 -2.5119213863048216e-17 7.359257161602982e-17 -2.5119213863048216e-17 7.359257161602982e-17 0.5813582700414264 -0.813647689024115
12632093333.333334 0.5744710732406695 -0.8185248841724704 -2.448597402218657e-17 7.3789664485539e-17 -2.448597402218657e-17 7.3789664485539e-17 0.5744715896082518 -0.8185245217663373
12632710666.666666 0.5675434817506592 -0.8233434255049241 -2.3851200899031387e-17 7.398131365819767e-17 -2.3851200899031387e-17 7.398131365819767e-17 0.5675440011326415 -0.8233430674865704
12633328000.0 0.5605754755681163 -0.8281033366624142 -2.321494124730637e-17 7.416750732752868e-17 -2.321494124730637e-17 7.416750732752868e-17 0.5605759979272207 -0.8281029830569043
12633945333.333334 0.5535675508838722 -0.8328042786923442 -2.25772419105275e-17 7.434823408823081e-17 -2.25772419105275e-17 7.434823408823081e-17 0.5535680761826122 -0.8328039295244256
12634562666.666666 0.546520206731324 -0.8374459168413172 -2.19381498185448e-17 7.452348293685691e-17 -2.19381498185448e-17 7.452348293685691e-17 0.5465207349320081 -0.8374455721354198
12635180000.0 0.5394339449509485 -0.8420279205789437 -2.1297711984104447e-17 7.469324327245445e-17 -2.1297711984104447e-17 7.469324327245445e-17 0.539434476015682 -0.8420275803591767
12635797333.333334 0.5323092701544445 -0.8465499636214544 -2.0655975499389287e-17 7.485750489718166e-17 -2.0655975499389287e-17 7.485750489718166e-17 0.5323098040451316 -0.8465496279116046
12636414666.666666 0.5251466896890391 -0.8510117239547806 -2.0012987532586706e-17 7.501625801688494e-17 -2.0012987532586706e-17 7.501625801688494e-17 0.5251472263673876 -0.8510113927783123
12637032000.0 0.5179467136011202 -0.8554128838576387 -1.9368795324409897e-17 7.51694932416588e-17 -1.9368795324409897e-17 7.51694932416588e-17 0.5179472530286431 -0.855412557237691
12637649333.333334 0.510709854600062 -0.8597531299240654 -1.8723446184649238e-17 7.531720158636685e-17 -1.8723446184649238e-17 7.531720158636685e-17 0.5107103967380795 -0.85975280788345
12638266666.666666 0.5034366280215906 -0.8640321530858065 -1.807698748869652e-17 7.545937447113917e-17 -1.807698748869652e-17 7.545937447113917e-17 0.5034371728312342 -0.8640318356470073
12638884000.0 0.49612755179123547 -0.8682496486342389 -1.74294666740893e-17 7.559600372183437e-17 -1.74294666740893e-17 7.559600372183437e-17 0.49612809923345025 -0.8682493358194101
12639501333.333334 0.48878314638732445 -0.8724053162421416 -1.6780931237028477e-17 7.57270815704773e-17 -1.6780931237028477e-17 7.57270815704773e-17 0.48878369642287195 -0.8724050080731062
12640118666.666666 0.4814039348040953 -0.876498859984985 -1.6131428728918972e-17 7.585260065566236e-17 -1.6131428728918972e-17 7.585260065566236e-17 0.4814044873935562 -0.8764985564832325
12640736000.0 0.4739904425140794 -0.8805299883622089 -1.5481006752859943e-17 7.597255402293521e-17 -1.5481006752859943e-17 7.597255402293521e-17 0.47399099761785607 -0.8805296895488944
12641353333.333334 0.46654319743118006 -0.8844984143177048 -1.4829712960208542e-17 7.608693512513138e-17 -1.4829712960208542e-17 7.608693512513138e-17 0.4665437550095004 -0.8844981202136485
12641970666.666666 0.45906272987270874 -0.8884038552604666 -1.4177595047065677e-17 7.619573782269884e-17 -1.4177595047065677e-17 7.619573782269884e-17 0.4590632898856276 -0.88840356588615
12642588000.0 0.4515495725217672 -0.892246033084626 -1.3524700750807491e-17 7.629895638398205e-17 -1.3524700750807491e-17 7.629895638398205e-17 0.4515501349291706 -0.8922457484601931
12643205333.333334 0.4440042603893194 -0.8960246741892637 -1.2871077846591485e-17 7.639658548548098e-17 -1.2871077846591485e-17 7.639658548548098e-17 0.4440048251509262 -0.8960243943345172
12643822666.666666 0.43642733077601403 -0.8997395094979251 -1.2216774143874082e-17 7.64886202120772e-17 -1.2216774143874082e-17 7.64886202120772e-17 0.43642789785137986 -0.8997392344323267
12644440000.0 0.4288193232339499 -0.9033902744777698 -1.15618374829251e-17 7.657505605723165e-17 -1.15618374829251e-17 7.657505605723165e-17 0.4288198925824693 -0.9033900042204382
12645057333.333334 0.42118077952838284 -0.9069767091583482 -1.0906315731341252e-17 7.66558889231522e-17 -1.0906315731341252e-17 7.66558889231522e-17 0.4211813511092924 -0.9069764437280574
12645674666.666666 0.4135122435990444 -0.9104985581501642 -1.0250256780548132e-17 7.67311151209332e-17 -1.0250256780548132e-17 7.67311151209332e-17 0.41351281737142603 -0.9104982975653437
12646292000.0 0.40581426152127864 -0.9139555706629194 -9.593708542308316e-18 7.680073137066336e-17 -9.593708542308316e-18 7.680073137066336e-17 0.4058148374440622 -0.9139553149416515
12646909333.333334 0.39808738146738804 -0.917347500523265 -8.936718945251318e-18 7.686473480150282e-17 -8.936718945251318e-18 7.686473480150282e-17 0.39808795949935405 -0.9173472496832834
12647526666.666666 0.3903321536674958 -0.9206741061923799 -8.279335931364232e-18 7.69231229517338e-17 -8.279335931364232e-18 7.69231229517338e-17 0.3903327337672789 -0.9206738602510697
12648144000.0 0.38254913037028515 -0.9239351507832037 -7.621607452506896e-18 7.697589376877947e-17 -7.621607452506896e-18 7.697589376877947e-17 0.38254971249637654 -0.9239349097575992
12648761333.333334 0.3747388658038044 -0.9271304020772498 -6.963581466923242e-18 7.702304560919309e-17 -6.963581466923242e-18 7.702304560919309e-17 0.37473944991455493 -0.9271301659840329
12649378666.666666 0.36690191613602613 -0.9302596325411289 -6.305305935766779e-18 7.706457723861667e-17 -6.305305935766779e-18 7.706457723861667e-17 0.3669025021896501 -0.9302594013966305
12649996000.0 0.35903883943500836 -0.9333226193428542 -5.646828819594301e-18 7.710048783171254e-17 -5.646828819594301e-18 7.710048783171254e-17 0.359039427389585 -0.9333223931630497
12650613333.333334 0.35115019562938826 -0.9363191443676059 -4.9881980748917e-18 7.713077697206283e-17 -4.9881980748917e-18 7.713077697206283e-17 0.35115078544286626 -0.9363189231681166
12651230666.666666 0.3432365464685133 -0.9392489942332715 -4.3294616505905064e-18 7.71554446520404e-17 -4.3294616505905064e-18 7.71554446520404e-17 0.3432371380987124 -0.9392487780293616
12651848000.0 0.33529845548219744 -0.942111960305725 -3.67066748457746e-18 7.717449127264925e-17 -3.67066748457746e-18 7.717449127264925e-17 0.3352990488868129 -0.9421117491123029
12652465333.333334 0.3273364879408606 -0.9449078387135895 -3.0118635002283285e-18 7.718791764333639e-17 -3.0118635002283285e-18 7.718791764333639e-17 0.32733708307746456 -0.9449076325452034
12653082666.666666 0.31935121081516715 -0.9476364303627898 -2.3530976029242773e-18 7.719572498177329e-17 -2.3530976029242773e-18 7.719572498177329e-17 0.3193518076412133 -0.9476362292336303
12653700000.0 0.3113431927355465 -0.9502975409507705 -1.6944176765687569e-18 7.719791491360828e-17 -1.6944176765687569e-18 7.719791491360828e-17 0.31134379120837186 -0.9502973448746668
12654317333.333334 0.303313003951968 -0.9528909809802367 -1.0358715801380202e-18 7.719448947218873e-17 -1.0358715801380202e-18 7.719448947218873e-17 0.30331360402879703 -0.9528907899706586
12654934666.666666 0.2952612162930931 -0.955416565772735 -3.77507144193109e-19 7.718545109825465e-17 -3.77507144193109e-19 7.718545109825465e-17 0.2952618179310401 -0.9554163798427892
12655552000.0 0.2871884031255812 -0.9578741154817906 2.806278325827908e-19 7.717080263960196e-17 2.806278325827908e-19 7.717080263960196e-17 0.2871890062816533 -0.9578739346442203
12656169333.333334 0.279095139313395 -0.9602634551056701 9.384855868345554e-19 7.715054735071682e-17 9.384855868345554e-19 7.715054735071682e-17 0.2790957439444957 -0.9602632793728564
12656786666.666666 0.2709820011767581 -0.9625844144998829 1.5960183940011593e-18 7.712468889238047e-17 1.5960183940011593e-18 7.712468889238047e-17 0.2709826072396895 -0.9625842438838398
12657404000.0 0.2628495664511402 -0.9648368283892835 2.2531785717665683e-18 7.709323133124442e-17 2.2531785717665683e-18 7.709323133124442e-17 0.2628501739026071 -0.9648366629016607
12658021333.333334 0.2546984142461179 -0.9670205363798414 2.9099184835084152e-18 7.705617913937669e-17 2.9099184835084152e-18 7.705617913937669e-17 0.2546990230427307 -0.9670203760319231
12658638666.666666 0.2465291250041643 -0.9691353829700604 3.5661905417398195e-18 7.701353719377878e-17 3.5661905417398195e-18 7.701353719377878e-17 0.2465297351024413 -0.9691352277727624
12659256000.0 0.23834228045920425 -0.971181217562073 4.2219472115572376e-18 7.69653107758727e-17 4.2219472115572376e-18 7.69653107758727e-17 0.23834289181557564 -0.971181067525944
12659873333.333334 0.23013846359532786 -0.9731578944723338 4.877141014063438e-18 7.691150557095975e-17 4.877141014063438e-18 7.691150557095975e-17 0.23013907616613866 -0.9731577496075547
12660490666.666666 0.2219182586053042 -0.975065272941988 5.531724529791703e-18 7.685212766765086e-17 5.531724529791703e-18 7.685212766765086e-17 0.22191887234681676 -0.975065133258369
12661108000.0 0.2136822508487314 -0.976903217146951 6.185650402159225e-18 7.678718355726363e-17 6.185650402159225e-18 7.678718355726363e-17 0.2136828657171294 -0.9769030826539339
12661725333.333334 0.20543102681063077 -0.9786715962075194 6.8388713408404406e-18 7.671668013319744e-17 6.8388713408404406e-18 7.671668013319744e-17 0.20543164276202158 -0.9786714669141736
12662342666.666666 0.19716517405954412 -0.9803702841977179 7.491340125210565e-18 7.664062469027286e-17 7.491340125210565e-18 7.664062469027286e-17 0.19716579104996254 -0.9803701601127435
12662960000.0 0.18888528120572107 -0.9819991601542637 8.143009607734775e-18 7.655902492404625e-17 8.143009607734775e-18 7.655902492404625e-17 0.1888858991911322 -0.9819990412859888
12663577333.333334 0.1805919378592046 -0.983558108085181 8.793832717376854e-18 7.647188893009313e-17 8.793832717376854e-18 7.647188893009313e-17 0.1805925567955069 -0.983557994441561
12664194666.666666 0.17228573458787247 -0.9850470169780533 9.443762462977044e-18 7.637922520326514e-17 9.443762462977044e-18 7.637922520326514e-17 0.1722863544309008 -0.98504690856667
12664812000.0 0.16396726287527089 -0.9864657808079486 1.009275193664454e-17 7.628104263691606e-17 1.009275193664454e-17 7.628104263691606e-17 0.1639678835808003 -0.9864656776360126
12665429333.333334 0.1556371150786356 -0.9878142985449461 1.0740754317131697e-17 7.61773505221004e-17 1.0740754317131697e-17 7.61773505221004e-17 0.15563773660238361 -0.987814200619292
12666046666.666666 0.14729588438673774 -0.9890924741613252 1.1387722873200733e-17 7.606815854674368e-17 1.1387722873200733e-17 7.606815854674368e-17 0.1472965066843683 -0.9890923814884157
12666664000.0 0.13894416477739122 -0.9903002166384477 1.2033610966995355e-17 7.595347679478122e-17 1.2033610966995355e-17 7.595347679478122e-17 0.1389447878045172 -0.9903001292243686
12667281333.333334 0.13058255097543534 -0.9914374399731893 1.2678372057372122e-17 7.583331574527511e-17 1.2678372057372122e-17 7.583331574527511e-17 0.1305831746876221 -0.9914373578236528
12667898666.666666 0.12221163841027305 -0.9925040631840865 1.3321959703262211e-17 7.570768627149552e-17 1.3321959703262211e-17 7.570768627149552e-17 0.1222122627630415 -0.9925039863044284
12668516000.0 0.11383202317335724 -0.993500010317114 1.396432756701589e-17 7.557659963997512e-17 1.396432756701589e-17 7.557659963997512e-17 0.11383264812218705 -0.9934999387122954
12669133333.333334 0.10544430197602525 -0.9944252104510595 1.4605429417697437e-17 7.544006750954286e-17 1.4605429417697437e-17 7.544006750954286e-17 0.10544492747635797 -0.9944251441256647
12669750666.666666 0.09704907210675358 -0.995279597702607 1.5245219134433298e-17 7.529810193031836e-17 1.5245219134433298e-17 7.529810193031836e-17 0.09704969811399593 -0.9952795366608451
12670368000.0 0.08864693138862434 -0.9960631112310228 1.5883650709707974e-17 7.515071534268601e-17 1.5883650709707974e-17 7.515071534268601e-17 0.08864755785815116 -0.9960630554767251
12670985333.333334 0.0802384781370093 -0.9967756952424658 1.652067825266546e-17 7.499792057623838e-17 1.652067825266546e-17 7.499792057623838e-17 0.08023910502416687 -0.996775644779087
