! Parameters = {f0=12700.012000; bw=77.238000; Q=6100.000000; N=10; m_0_1=1.294790; m_1_1=0.657101; m_1_2=1.129602; m_2_2=0.656452; m_2_3=0.766565; m_2_8=0.001803; m_2_9=0.038507; m_3_3=0.654515; m_3_4=0.655094; m_3_7=0.002403; m_3_8=-0.094685; m_3_9=0.001803; m_4_4=0.651590; m_4_5=0.491429; m_4_6=0.005920; m_4_7=-0.115234; m_4_8=0.002403; m_5_5=0.651972; m_5_6=0.898784; m_5_7=0.005920; m_6_6=0.651971; m_6_7=0.491771; m_7_7=0.651604; m_7_8=0.655212; m_8_8=0.654513; m_8_9=0.766878; m_9_9=0.656447; m_9_10=1.130680; m_10_10=0.657091; m_10_11=1.295585}
!
! Created with skrf (http://scikit-rf.org).
# Hz S RI R 50.0 
!freq ReS11 ImS11 ReS21 ImS21 ReS12 ImS12 ReS22 ImS22
12607400000.0 -0.07316523646773117 -0.9973198324371366 4.387560667353396e-17 1.1612867546082031e-16 4.387560667353396e-17 1.1612867546082031e-16 -0.07316455616975082 -0.9973198823448268
12608017333.333334 -0.08438599578773413 -0.9964331406144259 4.5181326226403774e-17 1.1560082612186214e-16 4.5181326226403774e-17 1.1560082612186214e-16 -0.08438531612786357 -0.9964331981732729
12608634666.666666 -0.0955960641030227 -0.9954202090212094 4.648071965873052e-17 1.150583057086315e-16 4.648071965873052e-17 1.150583057086315e-16 -0.0955953851673023 -0.9954202742231703
12609252000.0 -0.10679402119139032 -0.9942811659875637 4.777362224138153e-17 1.1450118977807047e-16 4.777362224138153e-17 1.1450118977807047e-16 -0.1067933430657606 -0.9942812388236313
12609869333.333334 -0.11797844836513702 -0.9930161558208258 4.9059870144859176e-17 1.1392955573540763e-16 4.9059870144859176e-17 1.1392955573540763e-16 -0.11797777113542732 -0.9930162362810252
12610486666.666666 -0.1291479286504941 -0.9916253387873387 5.0339300460001284e-17 1.1334348282348664e-16 5.0339300460001284e-17 1.1334348282348664e-16 -0.1291472524024117 -0.9916254268607293
12611104000.0 -0.14030104696756615 -0.9901088910920974 5.1611751218625647e-17 1.1274305211183024e-16 5.1611751218625647e-17 1.1274305211183024e-16 -0.1403003717866859 -0.9901089867667773
12611721333.333334 -0.15143639030915895 -0.988467004856484 5.2877061413933716e-17 1.121283464855261e-16 5.2877061413933716e-17 1.121283464855261e-16 -0.15143571628091207 -0.9884671081195892
12612338666.666666 -0.1625525479201907 -0.9866998880938779 5.4135071020887944e-17 1.114994506338342e-16 5.4135071020887944e-17 1.114994506338342e-16 -0.16255187512985378 -0.9866999989315823
12612956000.0 -0.1736481114762524 -0.9848077646833157 5.538562101642261e-17 1.1085645103858043e-16 5.538562101642261e-17 1.1085645103858043e-16 -0.173647440008937 -0.9848078830808364
12613573333.333334 -0.18472167526189154 -0.9827908743411576 5.66285533994614e-17 1.1019943596235368e-16 5.66285533994614e-17 1.1019943596235368e-16 -0.1847210052025336 -0.982791000282757
12614190666.666666 -0.19577183634892964 -0.9806494725906834 5.786371121088701e-17 1.0952849543643216e-16 5.786371121088701e-17 1.0952849543643216e-16 -0.19577116778227788 -0.9806496060596668
12614808000.0 -0.20679719477417174 -0.9783838307297144 5.909093855330294e-17 1.0884372124852064e-16 5.909093855330294e-17 1.0884372124852064e-16 -0.20679652778477794 -0.9783839717084375
12615425333.333334 -0.2177963537166314 -0.9759942357962759 6.03100806106881e-17 1.0814520693024642e-16 6.03100806106881e-17 1.0814520693024642e-16 -0.217795688388839 -0.9759943842661436
12616042666.666666 -0.22876791967460797 -0.9734809905322083 6.15209836678712e-17 1.074330477444552e-16 6.15209836678712e-17 1.074330477444552e-16 -0.2287672560925417 -0.9734811464736783
12616660000.0 -0.23971050264217544 -0.9708444133448226 6.272349512988618e-17 1.0670734067227154e-16 6.272349512988618e-17 1.0670734067227154e-16 -0.23970984088973069 -0.9708445767374082
12617277333.333334 -0.25062271628542326 -0.9680848382665296 6.391746354116107e-17 1.0596818439995256e-16 6.391746354116107e-17 1.0596818439995256e-16 -0.2506220564462555 -0.9680850090888026
12617894666.666666 -0.26150317811778984 -0.9652026149125953 6.510273860455258e-17 1.052156793055272e-16 6.510273860455258e-17 1.052156793055272e-16 -0.26150252027530385 -0.965202793142188
12618512000.0 -0.27235050967562496 -0.9621981084367422 6.627917120024218e-17 1.0444992744521175e-16 6.627917120024218e-17 1.0444992744521175e-16 -0.27234985391296435 -0.9621982940503504
12619129333.333334 -0.28316333669241683 -0.959071699484994 6.744661340442875e-17 1.036710325396436e-16 6.744661340442875e-17 1.036710325396436e-16 -0.28316268309245374 -0.9590718924583808
12619746666.666666 -0.29394028927314875 -0.9558237841473896 6.86049185079137e-17 1.0287909995987171e-16 6.86049185079137e-17 1.0287909995987171e-16 -0.29393963791847316 -0.955823984455388
12620364000.0 -0.3046800020679602 -0.9524547739077617 6.975394103450995e-17 1.020742367131478e-16 6.975394103450995e-17 1.020742367131478e-16 -0.30467935304086996 -0.9524549815242789
12620981333.333334 -0.3153811144447183 -0.9489650955917325 7.089353675923066e-17 1.0125655142855026e-16 7.089353675923066e-17 1.0125655142855026e-16 -0.3153804678272077 -0.9489653104897506
12621598666.666666 -0.32604227066177766 -0.945355191312519 7.202356272639039e-17 1.004261543423492e-16 7.202356272639039e-17 1.004261543423492e-16 -0.32604162653552843 -0.9453554134641025
12622216000.0 -0.33666212003955426 -0.9416255184149851 7.314387726749327e-17 9.958315728320118e-17 7.314387726749327e-17 9.958315728320118e-17 -0.33666147848592415 -0.941625747791281
12622833333.333334 -0.34723931713180395 -0.9377765494176398 7.425434001894192e-17 9.872767365714771e-17 7.425434001894192e-17 9.872767365714771e-17 -0.34723867823181664 -0.9377767859888824
12623450666.666666 -0.3577725218958123 -0.9338087719528697 7.535481193958442e-17 9.785981843241025e-17 7.535481193958442e-17 9.785981843241025e-17 -0.35777188573014773 -0.9338090156883854
12624068000.0 -0.3682603998623829 -0.9297226887050868 7.644515532809185e-17 9.69797081239831e-17 7.644515532809185e-17 9.69797081239831e-17 -0.36825976651136627 -0.9297229395732964
12624685333.333334 -0.37870162230500437 -0.9255188173469923 7.752523384016163e-17 9.608746077802797e-17 7.752523384016163e-17 9.608746077802797e-17 -0.3787009918485971 -0.9255190753154177
12625302666.666666 -0.3890948664077702 -0.9211976904741651 7.85949125054832e-17 9.518319595612524e-17 7.85949125054832e-17 9.518319595612524e-17 -0.3890942389255591 -0.9211979555094318
12625920000.0 -0.3994388154334679 -0.9167598555373838 7.965405774461466e-17 9.426703471925793e-17 7.965405774461466e-17 9.426703471925793e-17 -0.39943819100465466 -0.9167601276052236
12626537333.333334 -0.4097321588900033 -0.9122058747734281 8.070253738558e-17 9.333909961168812e-17 8.070253738558e-17 9.333909961168812e-17 -0.40973153759339553 -0.9122061538386863
12627154666.666666 -0.41997359269656276 -0.9075363251337986 8.174022068034833e-17 9.23995146445898e-17 8.174022068034833e-17 9.23995146445898e-17 -0.41997297461056343 -0.9075366111604378
12627772000.0 -0.4301618193490863 -0.9027517982115022 8.276697832109635e-17 9.14484052795217e-17 8.276697832109635e-17 9.14484052795217e-17 -0.43016120455168455 -0.9027520911626075
12628389333.333334 -0.4402955480841354 -0.8978529001663406 8.378268245625117e-17 9.048589841174663e-17 8.378268245625117e-17 9.048589841174663e-17 -0.44029493665289493 -0.8978532000041208
12629006666.666666 -0.4503734950429085 -0.8928402516478813 8.478720670641462e-17 8.951212235330423e-17 8.478720670641462e-17 8.951212235330423e-17 -0.45037288705496037 -0.8928405583336797
12629624000.0 -0.4603943834335653 -0.8877144877169932 8.578042618000143e-17 8.852720681599082e-17 8.578042618000143e-17 8.852720681599082e-17 -0.46039377896559597 -0.8877148012112871
12630241333.333334 -0.4703569436932374 -0.8824762577652578 8.676221748874949e-17 8.753128289410206e-17 8.676221748874949e-17 8.753128289410206e-17 -0.4703563428214797 -0.882476578027666
12630858666.666666 -0.4802599136485691 -0.877126225432854 8.773245876298538e-17 8.652448304704802e-17 8.773245876298538e-17 8.652448304704802e-17 -0.4802593164487937 -0.877126552422143
12631476000.0 -0.4901020386760021 -0.8716650685242835 8.869102966674485e-17 8.550694108174194e-17 8.869102966674485e-17 8.550694108174194e-17 -0.49010144522350646 -0.8716654021983707
12632093333.333334 -0.49988207186037376 -0.866093478922684 8.96378114126071e-17 8.447879213490785e-17 8.96378114126071e-17 8.447879213490785e-17 -0.4998814822299735 -0.8660938192386446
12632710666.666666 -0.5095987741530182 -0.8604121625021105 9.057268677639509e-17 8.344017265515161e-17 9.057268677639509e-17 8.344017265515161e-17 -0.5095981884190374 -0.8604125094161823
12633328000.0 -0.5192509145289638 -0.8546218390379755 9.149554011165157e-17 8.239122038488724e-17 9.149554011165157e-17 8.239122038488724e-17 -0.5192503327652258 -0.854622192505565
12633945333.333334 -0.5288372701425244 -0.8487232421160743 9.240625736388737e-17 8.133207434212443e-17 9.240625736388737e-17 8.133207434212443e-17 -0.5288366924223419 -0.8487236020917612
12634562666.666666 -0.5383566264824441 -0.8427171190395146 9.330472608462896e-17 8.026287480208901e-17 9.330472608462896e-17 8.026287480208901e-17 -0.5383560528786111 -0.8427174854770602
12635180000.0 -0.5478077775256954 -0.8366042307340885 9.419083544526173e-17 7.918376327868147e-17 9.419083544526173e-17 7.918376327868147e-17 -0.5478072081104768 -0.8366046035864384
12635797333.333334 -0.5571895258903885 -0.8303853516517868 9.506447625066239e-17 7.809488250577702e-17 9.506447625066239e-17 7.809488250577702e-17 -0.5571889607355118 -0.8303857308710797
12636414666.666666 -0.5665006829872331 -0.8240612696728417 9.59255409525861e-17 7.699637641841465e-17 9.59255409525861e-17 7.699637641841465e-17 -0.5665001221638791 -0.8240616552104139
12637032000.0 -0.5757400691703606 -0.8176327860057507 9.677392366287968e-17 7.588839013378399e-17 9.677392366287968e-17 7.588839013378399e-17 -0.5757395127491541 -0.8176331778121431
12637649333.333334 -0.5849065138866326 -0.8111007150858663 9.760952016644224e-17 7.477106993211228e-17 9.760952016644224e-17 7.477106993211228e-17 -0.5849059619376342 -0.8111011131108301
12638266666.666666 -0.5939988558240574 -0.8044658844721314 9.843222793398787e-17 7.364456323737763e-17 9.843222793398787e-17 7.364456323737763e-17 -0.5939983084167538 -0.804466288664635
12638884000.0 -0.6030159430587779 -0.7977291347423316 9.924194613456426e-17 7.250901859791422e-17 9.924194613456426e-17 7.250901859791422e-17 -0.6030154002620748 -0.7977295450505679
12639501333.333334 -0.6119566332011295 -0.7908913193865232 1.0003857564787086e-16 7.136458566684944e-17 1.0003857564787086e-16 7.136458566684944e-17 -0.6119560950833406 -0.7908917357579145
12640118666.666666 -0.620819793540186 -0.7839533046990345 1.0082201907632536e-16 7.021141518244344e-17 1.0082201907632536e-16 7.021141518244344e-17 -0.6208192601690261 -0.7839537270802405
12640736000.0 -0.6296043011877179 -0.7769159696683697 1.0159218075695994e-16 6.904965894821629e-17 1.0159218075695994e-16 6.904965894821629e-17 -0.6296037726302932 -0.776916398005293
12641353333.333334 -0.6383090432197767 -0.7697802058663693 1.0234896677299067e-16 6.787946981309006e-17 1.0234896677299067e-16 6.787946981309006e-17 -0.6383085195425786 -0.7697806401041656
12641970666.666666 -0.6469329168182572 -0.7625469173348224 1.0309228496526629e-16 6.670100165124543e-17 1.0309228496526629e-16 6.670100165124543e-17 -0.6469323980871503 -0.7625473574179022
12642588000.0 -0.6554748294103642 -0.7552170204711178 1.0382204494341398e-16 6.55144093419614e-17 1.0382204494341398e-16 6.55144093419614e-17 -0.6554743156905816 -0.7552174663431589
12643205333.333334 -0.6639336988070379 -0.7477914439121535 1.04538158096786e-16 6.431984874928398e-17 1.04538158096786e-16 6.431984874928398e-17 -0.6639331901631718 -0.7477918955161058
12643822666.666666 -0.6723084533402293 -0.7402711284165328 1.0524053760515767e-16 6.311747670159949e-17 1.0524053760515767e-16 6.311747670159949e-17 -0.6723079498362213 -0.7402715856946243
12644440000.0 -0.6805980319984329 -0.732657026745583 1.059290984492031e-16 6.190745097107483e-17 1.059290984492031e-16 6.190745097107483e-17 -0.6805975336975683 -0.7326574896393295
12645057333.333334 -0.6888013845612192 -0.7249501035425576 1.0660375742071744e-16 6.068993025301001e-17 1.0660375742071744e-16 6.068993025301001e-17 -0.6888008915261175 -0.7249505719927696
12645674666.666666 -0.6969174717322465 -0.7171513352104637 1.0726443313262204e-16 5.946507414505165e-17 1.0726443313262204e-16 5.946507414505165e-17 -0.6969169840248535 -0.717151809157252
12646292000.0 -0.7049452652711562 -0.7092617097881415 1.0791104602873222e-16 5.823304312629056e-17 1.0791104602873222e-16 5.823304312629056e-17 -0.7049447829527372 -0.7092621891709271
12646909333.333334 -0.7128837481234517 -0.7012822268254612 1.0854351839325367e-16 5.699399853631634e-17 1.0854351839325367e-16 5.699399853631634e-17 -0.7128832712545836 -0.701282711582983
12647526666.666666 -0.7207319145496203 -0.693213897256436 1.0916177436008468e-16 5.574810255408336e-17 1.0916177436008468e-16 5.574810255408336e-17 -0.7207314431901838 -0.6932143873267582
12648144000.0 -0.7284887702525863 -0.6850577432710995 1.0976573992184164e-16 5.449551817674127e-17 1.0976573992184164e-16 5.449551817674127e-17 -0.7284883044617582 -0.6850582385916184
12648761333.333334 -0.7361533325034832 -0.6768147981862057 1.1035534293865413e-16 5.32364091983474e-17 1.1035534293865413e-16 5.32364091983474e-17 -0.736152872339728 -0.6768152986936584
12649378666.666666 -0.743724630266236 -0.6684861063142372 1.109305131467137e-16 5.19709401884914e-17 1.109305131467137e-16 5.19709401884914e-17 -0.7437241757873009 -0.6684866119447105
12649996000.0 -0.7512017043206621 -0.6600727228310153 1.1149118216659316e-16 5.069927647079323e-17 1.1149118216659316e-16 5.069927647079323e-17 -0.7512012555835688 -0.660073233519954
12650613333.333334 -0.7585836073839388 -0.6515757136420817 1.1203728351129447e-16 4.9421584101369675e-17 1.1203728351129447e-16 4.9421584101369675e-17 -0.758583164444975 -0.6515762293242945
12651230666.666666 -0.7658694042305207 -0.6429961552477624 1.125687525940623e-16 4.8138029847190125e-17 1.125687525940623e-16 4.8138029847190125e-17 -0.765868967145235 -0.6429966758574334
12651848000.0 -0.7730581718108872 -0.6343351346064847 1.1308552673596812e-16 4.6848781164303886e-17 1.1308552673596812e-16 4.6848781164303886e-17 -0.7730577406340797 -0.6343356600771787
12652465333.333334 -0.7801489993682037 -0.625593748997389 1.1358754517320882e-16 4.5554006176077596e-17 1.1358754517320882e-16 4.5554006176077596e-17 -0.7801485741539226 -0.6255942792620625
12653082666.666666 -0.7871409885537708 -0.616773105881255 1.140747490641818e-16 4.425387365129428e-17 1.140747490641818e-16 4.425387365129428e-17 -0.787140569355303 -0.6167736408722635
12653700000.0 -0.7940332535410637 -0.6078743227599027 1.1454708149631392e-16 4.294855298216457e-17 1.1454708149631392e-16 4.294855298216457e-17 -0.7940328404109278 -0.6078748624090092
12654317333.333334 -0.8008249211376056 -0.5988985270350606 1.150044874926183e-16 4.1638214162325076e-17 1.150044874926183e-16 4.1638214162325076e-17 -0.8008245141275478 -0.5988990712734451
12654934666.666666 -0.8075151308958429 -0.5898468558652219 1.1544691401801593e-16 4.0323027764722225e-17 1.1544691401801593e-16 4.0323027764722225e-17 -0.8075147300568277 -0.5898474046234893
12655552000.0 -0.8141030352221333 -0.5807204560215943 1.1587430998540463e-16 3.900316491943003e-17 1.1587430998540463e-16 3.900316491943003e-17 -0.8141026406043398 -0.5807210092297841
12656169333.333334 -0.8205877994839639 -0.5715204837430445 1.1628662626145988e-16 3.7678797291454676e-17 1.1628662626145988e-16 3.7678797291454676e-17 -0.8205874111367777 -0.5715210413306397
12656786666.666666 -0.8269686021159252 -0.5622481045892918 1.1668381567220727e-16 3.6350097058395963e-17 1.1668381567220727e-16 3.6350097058395963e-17 -0.8269682200879322 -0.5622486664852265
12657404000.0 -0.8332446347236122 -0.5529044932934913 1.1706583300831545e-16 3.501723688813445e-17 1.1706583300831545e-16 3.501723688813445e-17 -0.833244259062594 -0.5529050594261615
12658021333.333334 -0.8394151021861421 -0.5434908336132694 1.1743263503015166e-16 3.3680389916407895e-17 1.1743263503015166e-16 3.3680389916407895e-17 -0.8394147329390683 -0.543491403910541
12658638666.666666 -0.8454792227567791 -0.5340083181809162 1.1778418047256922e-16 3.2339729724379585e-17 1.1778418047256922e-16 3.2339729724379585e-17 -0.8454788599698024 -0.5340088925701345
12659256000.0 -0.8514362281621903 -0.524458148351954 1.1812043004945882e-16 3.099543031608781e-17 1.1812043004945882e-16 3.099543031608781e-17 -0.8514358718806406 -0.5244587267599534
12659873333.333334 -0.8572853636995486 -0.5148415340532954 1.1844134645801603e-16 2.9647666095946725e-17 1.1844134645801603e-16 2.9647666095946725e-17 -0.8572850139679269 -0.5148421164064079
12660490666.666666 -0.8630258883321981 -0.5051596936298844 1.1874689438277075e-16 2.829661184614474e-17 1.1874689438277075e-16 2.829661184614474e-17 -0.8630255451941715 -0.5051602798539496
12661108000.0 -0.8686570747837236 -0.4954138536900259 1.1903704049936438e-16 2.6942442703968576e-17 1.1903704049936438e-16 2.6942442703968576e-17 -0.8686567382821204 -0.4954144437104006
12661725333.333334 -0.8741782096298027 -0.48560524895047275 1.1931175347804502e-16 2.5585334139202405e-17 1.1931175347804502e-16 2.5585334139202405e-17 -0.8741778798066056 -0.48560584269203955
12662342666.666666 -0.8795885933888056 -0.47573512207963004 1.1957100398693162e-16 2.4225461931374664e-17 1.1957100398693162e-16 2.4225461931374664e-17 -0.879588270285147 -0.4757357194668078
12662960000.0 -0.884887540610327 -0.4658047235402668 1.198147646950026e-16 2.2863002147048167e-17 1.198147646950026e-16 2.2863002147048167e-17 -0.8848872242664846 -0.46580532449701983
12663577333.333334 -0.8900743799620302 -0.45581531143109366 1.2004301027483534e-16 2.1498131117041613e-17 1.2004301027483534e-16 2.1498131117041613e-17 -0.8900740704174211 -0.4558159158809415
12664194666.666666 -0.8951484543147493 -0.4457681513272707 1.2025571740507887e-16 2.0131025413663363e-17 1.2025571740507887e-16 2.0131025413663363e-17 -0.8951481516079257 -0.4457687591932978
12664812000.0 -0.9001091208256649 -0.4356645161202214 1.2045286477267407e-16 1.8761861827892366e-17 1.2045286477267407e-16 1.8761861827892366e-17 -0.9001088249943082 -0.43566512732508683
12665429333.333334 -0.9049557510198101 -0.425505685856241 1.2063443307481436e-16 1.739081734653641e-17 1.2063443307481436e-16 1.739081734653641e-17 -0.9049554621007277 -0.42550630032218845
12666046666.666666 -0.909687730869608 -0.41529294757450474 1.2080040502063962e-16 1.6018069129425445e-17 1.2080040502063962e-16 1.6018069129425445e-17 -0.9096874488987294 -0.415293565223373
12666664000.0 -0.9143044608728476 -0.4050275951436265 1.2095076533268297e-16 1.464379448650237e-17 1.2095076533268297e-16 1.464379448650237e-17 -0.9143041858852156 -0.40502821589685756
12667281333.333334 -0.9188053561283892 -0.3947109290982483 1.2108550074804488e-16 1.3268170855009994e-17 1.2108550074804488e-16 1.3268170855009994e-17 -0.9188050881581603 -0.39471155287689924
12667898666.666666 -0.92318984641044 -0.3843442564739154 1.2120460001931917e-16 1.1891375776567232e-17 1.2120460001931917e-16 1.1891375776567232e-17 -0.9231895854908786 -0.38434488319866783
12668516000.0 -0.927457376240768 -0.37392889064153506 1.2130805391525204e-16 1.0513586874309694e-17 1.2130805391525204e-16 1.0513586874309694e-17 -0.927457122404242 -0.3739295202327051
12669133333.333334 -0.931607404959022 -0.36346615114111486 1.2139585522114228e-16 9.134981830025303e-18 1.2139585522114228e-16 9.134981830025303e-18 -0.9316071582369981 -0.3634667835186629
12669750666.666666 -0.935639406791272 -0.3529573635144826 1.2146799873898597e-16 7.755738361246434e-18 1.2146799873898597e-16 7.755738361246434e-18 -0.9356391672143142 -0.35295799859802446
12670368000.0 -0.939552870916622 -0.3424038591373521 1.2152448128735888e-16 6.3760341983739514e-18 1.2152448128735888e-16 6.3760341983739514e-18 -0.9395526385143839 -0.3424044968461678
