! Parameters = {f0=12700.012000; bw=77.238000; Q=6100.000000; N=10; m_0_1=1.296792; m_1_1=0.687131; m_1_2=1.131604; m_2_2=0.686482; m_2_3=0.768567; m_2_8=0.001903; m_2_9=0.038607; m_3_3=0.684545; m_3_4=0.657096; m_3_7=0.002503; m_3_8=-0.094585; m_3_9=0.001903; m_4_4=0.681620; m_4_5=0.493431; m_4_6=0.006020; m_4_7=-0.115134; m_4_8=0.002503; m_5_5=0.682002; m_5_6=0.900786; m_5_7=0.006020; m_6_6=0.682001; m_6_7=0.493773; m_7_7=0.681634; m_7_8=0.657214; m_8_8=0.684543; m_8_9=0.768880; m_9_9=0.686477; m_9_10=1.132682; m_10_10=0.687121; m_10_11=1.297587}
!
! Created with skrf (http://scikit-rf.org).
# Hz S RI R 50.0 
!freq ReS11 ImS11 ReS21 ImS21 ReS12 ImS12 ReS22 ImS22
12607400000.0 -0.9587904254919883 -0.284114272757826 1.25288721081604e-16 9.202333760301663e-21 1.25288721081604e-16 9.202333760301663e-21 -0.9587902313913828 -0.28411492778147773
12608017333.333334 -0.9619437292875345 -0.2732476197228572 1.2525614752367755e-16 -1.419240653515944e-18 1.2525614752367755e-16 -1.419240653515944e-18 -0.9619435426199167 -0.2732482768686024
12608634666.666666 -0.9649738778575342 -0.2623459834882335 1.2520729771145427e-16 -2.846939716261216e-18 1.2520729771145427e-16 -2.846939716261216e-18 -0.9649736986460743 -0.26234664267173596
12609252000.0 -0.967880483259827 -0.2514107597628621 1.2514218437046107e-16 -4.273709507180176e-18 1.2514218437046107e-16 -4.273709507180176e-18 -0.9678803115267374 -0.2514114208995327
12609869333.333334 -0.9706631733691481 -0.24044334855585228 1.2506082233561806e-16 -5.6993648723887655e-18 1.2506082233561806e-16 -5.6993648723887655e-18 -0.9706630091356817 -0.24044401156086026
12610486666.666666 -0.9733215919247965 -0.22944515399719392 1.2496322854848546e-16 -7.123720875360052e-18 1.2496322854848546e-16 -7.123720875360052e-18 -0.9733214352112448 -0.22944581878547776
12611104000.0 -0.975855398576264 -0.2184175841579069 1.2484942205423351e-16 -8.546592820946157e-18 1.2484942205423351e-16 -8.546592820946157e-18 -0.9758552494019541 -0.2184182506441851
12611721333.333334 -0.9782642689267711 -0.20736205086993556 1.2471942399834785e-16 -9.967796279213828e-18 1.2471942399834785e-16 -9.967796279213828e-18 -0.9782641273100615 -0.20736271896871739
12612338666.666666 -0.9805478945748114 -0.19627996954533994 1.2457325762305441e-16 -1.1387147109374616e-17 1.2457325762305441e-16 -1.1387147109374616e-17 -0.9805477605330933 -0.19628063917093685
12612956000.0 -0.9827059831536826 -0.18517275899486182 1.2441094826347754e-16 -1.2804461483597085e-17 1.2441094826347754e-16 -1.2804461483597085e-17 -0.9827058567033743 -0.18517343006139805
12613573333.333334 -0.9847382583688199 -0.17404184124675104 1.242325233435319e-16 -1.4219555910737305e-17 1.242325233435319e-16 -1.4219555910737305e-17 -0.9847381395253659 -0.1740425136681747
12614190666.666666 -0.9866444600332684 -0.16288864136420514 1.2403801237153368e-16 -1.5632247260118822e-17 1.2403801237153368e-16 -1.5632247260118822e-17 -0.9866443488111395 -0.16288931505429952
12614808000.0 -0.9884243441009265 -0.1517145872632851 1.238274469355543e-16 -1.704235278515045e-17 1.238274469355543e-16 -1.704235278515045e-17 -0.9884242405136155 -0.15171526213567949
12615425333.333334 -0.9900776826978318 -0.14052110952987945 1.23600860698496e-16 -1.844969014696255e-17 1.23600860698496e-16 -1.844969014696255e-17 -0.9900775867578528 -0.14052178549806002
12616042666.666666 -0.9916042641513141 -0.12930964123663274 1.233582893929079e-16 -1.985407743792116e-17 1.233582893929079e-16 -1.985407743792116e-17 -0.9916041758702017 -0.12931031821395417
12616660000.0 -0.9930038930170925 -0.11808161775955896 1.2309977081552772e-16 -2.125533320512965e-17 1.2309977081552772e-16 -2.125533320512965e-17 -0.9930038124053989 -0.11808229565925497
12617277333.333334 -0.9942763901043205 -0.10683847659404724 1.2282534482156148e-16 -2.2653276473830457e-17 1.2282534482156148e-16 -2.2653276473830457e-17 -0.9942763171716151 -0.10683915532924204
12617894666.666666 -0.9954215924984879 -0.09558165717119067 1.2253505331870257e-16 -2.4047726770714557e-17 1.2253505331870257e-16 -2.4047726770714557e-17 -0.9954215272533556 -0.09558233665490994
12618512000.0 -0.9964393535823333 -0.08431260067296215 1.2222894026086919e-16 -2.5438504147247483e-17 1.2222894026086919e-16 -2.5438504147247483e-17 -0.9964392960323759 -0.08431328081814445
12619129333.333334 -0.9973295430545552 -0.0730327498483261 1.219070516417047e-16 -2.6825429202778392e-17 1.219070516417047e-16 -2.6825429202778392e-17 -0.9973294932063873 -0.07303343056783367
12619746666.666666 -0.9980920469465407 -0.06174354882804581 1.2156943548779002e-16 -2.820832310770499e-17 1.2156943548779002e-16 -2.820832310770499e-17 -0.9980920048057897 -0.06174423003467589
12620364000.0 -0.9987267676369398 -0.05044644293987938 1.2121614185160572e-16 -2.9587007626485045e-17 1.2121614185160572e-16 -2.9587007626485045e-17 -0.9987267332082478 -0.050447124546375496
12620981333.333334 -0.9992336238641509 -0.03914287852385053 1.2084722280424392e-16 -3.096130514053129e-17 1.2084722280424392e-16 -3.096130514053129e-17 -0.9992335971511707 -0.03914356044291344
12621598666.666666 -0.9996125507367445 -0.027834302746736848 1.2046273242783566e-16 -3.233103867111686e-17 1.2046273242783566e-16 -3.233103867111686e-17 -0.9996125317421404 -0.027834984891035867
12622216000.0 -0.999863499741761 -0.016522163416877577 1.20062726807745e-16 -3.3696031902085395e-17 1.20062726807745e-16 -3.3696031902085395e-17 -0.9998634884672113 -0.016522845699061775
12622833333.333334 -0.9999864387509265 -0.005207908798814579 1.1964726402448606e-16 -3.505610920254515e-17 1.1964726402448606e-16 -3.505610920254515e-17 -0.9999864351971184 -0.005208591131523852
12623450666.666666 -0.9999813520247577 0.006107012571926552 1.1921640414540423e-16 -3.6411095649389924e-17 1.1921640414540423e-16 -3.6411095649389924e-17 -0.9999813561913921 0.006106330276050202
12624068000.0 -0.9998482402145882 0.017421152074629753 1.1877020921607938e-16 -3.776081704980102e-17 1.1877020921607938e-16 -3.776081704980102e-17 -0.9998482521003759 0.017420469902931064
12624685333.333334 -0.9995871203624754 0.028733061188652837 1.1830874325148793e-16 -3.9105099963597585e-17 1.1830874325148793e-16 -3.9105099963597585e-17 -0.9995871399651401 0.02873237922845212
12625302666.666666 -0.999198025899025 0.04004129167882109 1.1783207222692646e-16 -4.0443771725443777e-17 1.1783207222692646e-16 -4.0443771725443777e-17 -0.9991980532153025 0.04004061001740303
12625920000.0 -0.9986810066391054 0.05134439578104003 1.1734026406864367e-16 -4.177666046706397e-17 1.1734026406864367e-16 -4.177666046706397e-17 -0.9986810416647445 0.05134371450564253
12626537333.333334 -0.9980361287754747 0.06264092638747855 1.1683338864427363e-16 -4.31035951391983e-17 1.1683338864427363e-16 -4.31035951391983e-17 -0.9980361715052374 0.06264024558528156
12627154666.666666 -0.997263474870311 0.07392943723178176 1.163115177529784e-16 -4.442440553356366e-17 1.163115177529784e-16 -4.442440553356366e-17 -0.9972635252979748 0.07392875698989622
12627772000.0 -0.9963631438446218 0.08520848307463026 1.1577472511536104e-16 -4.573892230464286e-17 1.1577472511536104e-16 -4.573892230464286e-17 -0.9963632019629766 0.08520780348008664
12628389333.333334 -0.9953352509656107 0.09647661988814586 1.1522308636314096e-16 -4.704697699133728e-17 1.1522308636314096e-16 -4.704697699133728e-17 -0.9953353167664657 0.09647594102788351
12629006666.666666 -0.9941799278318861 0.10773240504139128 1.1465667902855986e-16 -4.834840203855848e-17 1.1465667902855986e-16 -4.834840203855848e-17 -0.994180001306066 0.1077317270022469
12629624000.0 -0.992897322356636 0.11897439748466922 1.1407558253357866e-16 -4.964303081860819e-17 1.1407558253357866e-16 -4.964303081860819e-17 -0.9928974034939838 0.11897372035336588
12630241333.333334 -0.9914875987486826 0.13020115793412965 1.134798781787971e-16 -5.093069765251778e-17 1.134798781787971e-16 -5.093069765251778e-17 -0.9914876875380629 0.13020048179726587
12630858666.666666 -0.9899509374914801 0.14141124905592556 1.1286964913217174e-16 -5.221123783116857e-17 1.1286964913217174e-16 -5.221123783116857e-17 -0.989951033920778 0.141410573999964
12631476000.0 -0.9882875353199518 0.1526032356505968 1.1224498041744595e-16 -5.348448763638364e-17 1.1224498041744595e-16 -5.348448763638364e-17 -0.9882876393760756 0.15260256176185333
12632093333.333334 -0.9864976051953637 0.16377568483639277 1.116059589024049e-16 -5.475028436175499e-17 1.116059589024049e-16 -5.475028436175499e-17 -0.9864977168642461 0.1637750122010253
12632710666.666666 -0.9845813762780494 0.17492716623280566 1.1095267328684158e-16 -5.600846633344258e-17 1.1095267328684158e-16 -5.600846633344258e-17 -0.9845814955446506 0.1749264949368033
12633328000.0 -0.9825390938980143 0.18605625214403437 1.1028521409031441e-16 -5.725887293077665e-17 1.1028521409031441e-16 -5.725887293077665e-17 -0.9825392207463242 0.18605558227320654
12633945333.333334 -0.9803710195236115 0.19716151774129337 1.0960367363967406e-16 -5.850134460671895e-17 1.0960367363967406e-16 -5.850134460671895e-17 -0.9803711539366493 0.19716084938125839
12634562666.666666 -0.9780774307279959 0.2082415412455926 1.0890814605635114e-16 -5.973572290818809e-17 1.0890814605635114e-16 -5.973572290818809e-17 -0.9780775726878141 0.208240874481767
12635180000.0 -0.9756586211536369 0.21929490410951336 1.0819872724342765e-16 -6.09618504962171e-17 1.0819872724342765e-16 -6.09618504962171e-17 -0.9756587706413251 0.21929423902710118
12635797333.333334 -0.9731149004746767 0.23032019119907224 1.0747551487246061e-16 -6.217957116599477e-17 1.0747551487246061e-16 -6.217957116599477e-17 -0.9731150574703611 0.2303195278830538
12636414666.666666 -0.9704465943573516 0.24131599097456366 1.0673860837011586e-16 -6.33887298666905e-17 1.0673860837011586e-16 -6.33887298666905e-17 -0.9704467588401998 0.24131532950968487
12637032000.0 -0.9676540444182111 0.2522808956716636 1.0598810890453289e-16 -6.458917272120077e-17 1.0598810890453289e-16 -6.458917272120077e-17 -0.9676542163664351 0.25228023614242534
12637649333.333334 -0.9647376081804598 0.2632135014813303 1.0522411937151525e-16 -6.578074704565633e-17 1.0522411937151525e-16 -6.578074704565633e-17 -0.9647377875713177 0.26321284397197725
12638266666.666666 -0.9616976590281325 0.2741124087297516 1.044467443804662e-16 -6.696330136882743e-17 1.044467443804662e-16 -6.696330136882743e-17 -0.9616978458379307 0.2741117533242616
12638884000.0 -0.9585345861583064 0.2849762220574581 1.0365609024012589e-16 -6.813668545133009e-17 1.0365609024012589e-16 -6.813668545133009e-17 -0.9585347803624042 0.2849755688395311
12639501333.333334 -0.9552487945312828 0.29580355059793956 1.0285226494409302e-16 -6.930075030466863e-17 1.0285226494409302e-16 -6.930075030466863e-17 -0.955248996104097 0.29580289965098805
12640118666.666666 -0.9518407048187889 0.30659300815558105 1.0203537815612897e-16 -7.045534821011392e-17 1.0203537815612897e-16 -7.045534821011392e-17 -0.9518409137337931 0.306592359562718
12640736000.0 -0.9483107533499182 0.3173432133837554 1.0120554119522365e-16 -7.16003327374463e-17 1.0120554119522365e-16 -7.16003327374463e-17 -0.94831096957965 0.3173425672277846
12641353333.333334 -0.94465939205558 0.32805278996069887 1.0036286702053186e-16 -7.273555876341184e-17 1.0036286702053186e-16 -7.273555876341184e-17 -0.9446596155716435 0.3280521463241041
12641970666.666666 -0.9408870884104 0.3387203667664771 9.950747021600244e-17 -7.386088249014218e-17 9.950747021600244e-17 -7.386088249014218e-17 -0.9408873191834687 0.3387197257314116
12642588000.0 -0.9369943253729343 0.3493445780583079 9.863946697486503e-17 -7.497616146330578e-17 9.863946697486503e-17 -7.497616146330578e-17 -0.9369945633727551 0.34934393970658334
12643205333.333334 -0.9329816013238982 0.35992406364525376 9.775897508390025e-17 -7.608125459009799e-17 9.775897508390025e-17 -7.608125459009799e-17 -0.9329818465192969 0.3599234280583309
12643822666.666666 -0.9288494300022514 0.37045746906265753 9.686611390750404e-17 -7.717602215705222e-17 9.686611390750404e-17 -7.717602215705222e-17 -0.9288496823611355 0.3704568363216352
12644440000.0 -0.9245983404395048 0.3809434457453378 9.596100437155147e-17 -7.826032584766825e-17 9.596100437155147e-17 -7.826032584766825e-17 -0.9245985999288672 0.38094281593094204
12645057333.333334 -0.9202288768920003 0.39138065120021565 9.504376894708326e-17 -7.933402875982676e-17 9.504376894708326e-17 -7.933402875982676e-17 -0.9202291434779252 0.39138002439279085
12645674666.666666 -0.915741598771216 0.4017677491782464 9.411453163376768e-17 -8.039699542305238e-17 9.411453163376768e-17 -8.039699542305238e-17 -0.9157418724188815 0.40176712545774323
12646292000.0 -0.9111370805720287 0.4121034098457548 9.317341794317493e-17 -8.144909181557407e-17 9.317341794317493e-17 -8.144909181557407e-17 -0.9111373612457127 0.41210278929172145
12646909333.333334 -0.9064159117993896 0.4223863099541687 9.222055488190894e-17 -8.249018538113842e-17 9.222055488190894e-17 -8.249018538113842e-17 -0.906416199462474 0.42238569264574016
12647526666.666666 -0.9015786968926589 0.4326151330098753 9.125607093447559e-17 -8.352014504571375e-17 9.125607093447559e-17 -8.352014504571375e-17 -0.9015789915076352 0.4326145190257636
12648144000.0 -0.8966260551482645 0.4427885694426624 9.02800960460241e-17 -8.453884123392502e-17 9.02800960460241e-17 -8.453884123392502e-17 -0.896626356676736 0.44278795886114564
12648761333.333334 -0.8915586206404967 0.45290531677319884 8.929276160487662e-17 -8.554614588532283e-17 8.929276160487662e-17 -8.554614588532283e-17 -0.8915589290431881 0.4529047096721129
12649378666.666666 -0.8863770421402521 0.4629640797799701 8.829420042490529e-17 -8.654193247041814e-17 8.829420042490529e-17 -8.654193247041814e-17 -0.8863773573770096 0.46296347623669676
12649996000.0 -0.8810819830320037 0.4729635706650236 8.728454672768192e-17 -8.752607600656203e-17 8.728454672768192e-17 -8.752607600656203e-17 -0.8810823050618031 0.4729629707564819
12650613333.333334 -0.8756741212288058 0.4829025092189683 8.626393612449626e-17 -8.849845307357337e-17 8.626393612449626e-17 -8.849845307357337e-17 -0.8756744500097577 0.4829019130216047
12651230666.666666 -0.8701541490856636 0.49277962298457645 8.52325055982032e-17 -8.94589418291549e-17 8.52325055982032e-17 -8.94589418291549e-17 -0.8701544845750186 0.4927790305743549
12651848000.0 -0.8645227733106634 0.5025936474201181 8.419039348483804e-17 -9.040742202415669e-17 8.419039348483804e-17 -9.040742202415669e-17 -0.8645231154648158 0.5025930588725093
12652465333.333334 -0.8587807148746505 0.512343326060954 8.313773945514985e-17 -9.134377501754441e-17 8.313773945514985e-17 -9.134377501754441e-17 -0.8587810636491491 0.5123427414509287
12653082666.666666 -0.8529287089189838 0.5220274106803323 8.207468449590742e-17 -9.22678837912109e-17 8.207468449590742e-17 -9.22678837912109e-17 -0.8529290642685311 0.5220268300823485
12653700000.0 -0.8469675046611599 0.5316446614496056 8.100137089103992e-17 -9.317963296456947e-17 8.100137089103992e-17 -9.317963296456947e-17 -0.8469678665396219 0.5316440849376005
12654317333.333334 -0.8408978652992196 0.5411938470964301 7.991794220267825e-17 -9.407890880887637e-17 7.991794220267825e-17 -9.407890880887637e-17 -0.8408982336596311 0.5411932747438107
12654934666.666666 -0.8347205679137697 0.550673745062837 7.882454325196277e-17 -9.496559926139722e-17 7.882454325196277e-17 -9.496559926139722e-17 -0.8347209427083417 0.5506731769424716
12655552000.0 -0.8284364033686182 0.5600831416615629 7.772132009972176e-17 -9.58395939393282e-17 7.772132009972176e-17 -9.58395939393282e-17 -0.8284367845487399 0.5600825778457694
12656169333.333334 -0.8220461762095296 0.5694208322314073 7.660842002703088e-17 -9.670078415346422e-17 7.660842002703088e-17 -9.670078415346422e-17 -0.8220465637257799 0.5694202727919466
12656786666.666666 -0.8155507045612002 0.5786856212915145 7.548599151557354e-17 -9.754906292168233e-17 7.548599151557354e-17 -9.754906292168233e-17 -0.8155510983633509 0.57868506629958
12657404000.0 -0.8089508200224618 0.5878763226944963 7.435418422786619e-17 -9.838432498218655e-17 7.435418422786619e-17 -9.838432498218655e-17 -0.808951220059484 0.5878757722207045
12658021333.333334 -0.80224736755991 0.5969917597781496 7.321314898735948e-17 -9.920646680650627e-17 7.321314898735948e-17 -9.920646680650627e-17 -0.8022477737799828 0.5969912138925321
12658638666.666666 -0.7954412053996981 0.6060307655161515 7.206303775837501e-17 -1.0001538661228245e-16 7.206303775837501e-17 -1.0001538661228245e-16 -0.7954416177502134 0.606030224288146
12659256000.0 -0.7885332049175374 0.6149921826676288 7.09040036258866e-17 -1.0081098437583095e-16 7.09040036258866e-17 -1.0081098437583095e-16 -0.7885336233451081 0.6149916461660696
12659873333.333334 -0.7815242505273262 0.623874863925065 6.973620077521796e-17 -1.0159316184443409e-16 6.973620077521796e-17 -1.0159316184443409e-16 -0.7815246749777918 0.623874332218175
12660490666.666666 -0.774415239567889 0.6326776720612373 6.855978447155172e-17 -1.0236182254843629e-16 6.855978447155172e-17 -1.0236182254843629e-16 -0.7744156699863238 0.6326771452166188
12661108000.0 -0.7672070821878787 0.6413994800750765 6.737491103931899e-17 -1.0311687181309151e-16 6.737491103931899e-17 -1.0311687181309151e-16 -0.7672075185185981 0.6413989581597027
12661725333.333334 -0.7599007012295371 0.6500391713356011 6.618173784148405e-17 -1.0385821677015907e-16 6.618173784148405e-17 -1.0385821677015907e-16 -0.7599011434161048 0.6500386544158073
12662342666.666666 -0.7524970321104036 0.6585956397250532 6.498042325867497e-17 -1.0458576636927651e-16 6.498042325867497e-17 -1.0458576636927651e-16 -0.7524974800956395 0.6585951278665292
12662960000.0 -0.7449970227035174 0.6670677897805535 6.377112666819312e-17 -1.0529943138908971e-16 6.377112666819312e-17 -1.0529943138908971e-16 -0.7449974764295044 0.6670672830483346
12663577333.333334 -0.7374016332161951 0.6754545368342023 6.255400842291323e-17 -1.059991244481337e-16 6.255400842291323e-17 -1.059991244481337e-16 -0.7374020926242871 0.6754540352926612
12664194666.666666 -0.7297118360669456 0.6837548071521147 6.132922983006809e-17 -1.066847600154686e-16 6.132922983006809e-17 -1.066847600154686e-16 -0.7297123010977747 0.6837543108649536
12664812000.0 -0.7219286157611275 0.6919675380717212 6.009695312988726e-17 -1.0735625442108856e-16 6.009695312988726e-17 -1.0735625442108856e-16 -0.721929086354613 0.6919670471019638
12665429333.333334 -0.7140529687647328 0.7000916781380059 5.885734147416504e-17 -1.0801352586605987e-16 5.885734147416504e-17 -1.0801352586605987e-16 -0.7140534448600849 0.7000911925479875
12666046666.666666 -0.7060859033770625 0.7081261872378501 5.761055890469158e-17 -1.0865649443242872e-16 5.761055890469158e-17 -1.0865649443242872e-16 -0.7060863849127954 0.7081257070892127
12666664000.0 -0.698028439601264 0.7160700367335875 5.635677033155711e-17 -1.0928508209288825e-16 5.635677033155711e-17 -1.0928508209288825e-16 -0.6980289265152008 0.7160695620872699
12667281333.333334 -0.6898816090141817 0.7239222095942506 5.509614151143011e-17 -1.098992127201575e-16 5.509614151143011e-17 -1.098992127201575e-16 -0.6898821012434617 0.7239217405104804
12667898666.666666 -0.6816464546339429 0.7316817005261201 5.3828839025627955e-17 -1.104988120961635e-16 5.3828839025627955e-17 -1.104988120961635e-16 -0.6816469521150331 0.7316812370644086
12668516000.0 -0.6733240307864822 0.7393475161013677 5.255503025816654e-17 -1.1108380792093137e-16 5.255503025816654e-17 -1.1108380792093137e-16 -0.6733245334551831 0.7393470583205005
12669133333.333334 -0.6649154029708103 0.7469186748850118 5.1274883373692925e-17 -1.1165412982123423e-16 5.1274883373692925e-17 -1.1165412982123423e-16 -0.664915910762264 0.7469182228430408
12669750666.666666 -0.6564216477222449 0.7543942075608955 4.998856729531509e-17 -1.1220970935899244e-16 4.998856729531509e-17 -1.1220970935899244e-16 -0.6564221605709435 0.7543937613151316
