! Parameters = {f0=12700.012000; bw=77.238000; Q=6100.000000; N=10; m_0_1=1.201096; m_1_1=-0.748304; m_1_2=1.035908; m_2_2=-0.748953; m_2_3=0.672871; m_2_8=-0.002881; m_2_9=0.033823; m_3_3=-0.750890; m_3_4=0.561400; m_3_7=-0.002281; m_3_8=-0.099369; m_3_9=-0.002881; m_4_4=-0.753815; m_4_5=0.397735; m_4_6=0.001236; m_4_7=-0.119918; m_4_8=-0.002281; m_5_5=-0.753433; m_5_6=0.805090; m_5_7=0.001236; m_6_6=-0.753434; m_6_7=0.398077; m_7_7=-0.753801; m_7_8=0.561518; m_8_8=-0.750892; m_8_9=0.673184; m_9_9=-0.748958; m_9_10=1.036986; m_10_10=-0.748314; m_10_11=1.201891}
!
! Created with skrf (http://scikit-rf.org).
# Hz S RI R 50.0 
!freq ReS11 ImS11 ReS21 ImS21 ReS12 ImS12 ReS22 ImS22
12607400000.0 -0.0180830755146382 -0.9998364878217711 2.3804210066884145e-17 7.532378894626473e-17 2.3804210066884145e-17 7.532378894626473e-17 -0.018082442689615997 -0.9998364992668646
12608017333.333334 -0.026566901463261197 -0.9996470375820076 2.4444413759400094e-17 7.510219673814386e-17 2.4444413759400094e-17 7.510219673814386e-17 -0.026566268789129127 -0.9996470543959333
12608634666.666666 -0.03504881429526655 -0.9993856015654508 2.5082569087055988e-17 7.487516841223928e-17 2.5082569087055988e-17 7.487516841223928e-17 -0.03504818181756723 -0.9993856237464721
12609252000.0 -0.043528203218042114 -0.9990521985984773 2.5718629935392402e-17 7.464272278893906e-17 2.5718629935392402e-17 7.464272278893906e-17 -0.04352757098229953 -0.9990522261444709
12609869333.333334 -0.05200445762066935 -0.9986468526898891 2.635255036195841e-17 7.440487907943171e-17 2.635255036195841e-17 7.440487907943171e-17 -0.052003825672385685 -0.9986468855983472
12610486666.666666 -0.06047696711786613 -0.9981695930291941 2.6984284599618105e-17 7.416165688414258e-17 2.6984284599618105e-17 7.416165688414258e-17 -0.06047633550251829 -0.9981696312972206
12611104000.0 -0.06894512159419634 -0.9976204539844817 2.761378705985533e-17 7.391307619113679e-17 2.761378705985533e-17 7.391307619113679e-17 -0.06894449035723292 -0.997620497608797
12611721333.333334 -0.07740831124772159 -0.9969994750999711 2.824101233603062e-17 7.365915737450766e-17 2.824101233603062e-17 7.365915737450766e-17 -0.07740768043455938 -0.9969995240769087
12612338666.666666 -0.08586592663402713 -0.9963067010931536 2.886591520667378e-17 7.33999211927181e-17 2.886591520667378e-17 7.33999211927181e-17 -0.08586529629004803 -0.9963067554186631
12612956000.0 -0.09431735871022184 -0.9955421818515622 2.9488450638721565e-17 7.31353887869291e-17 2.9488450638721565e-17 7.31353887869291e-17 -0.0943167288807696 -0.9955422415212088
12613573333.333334 -0.10276199887848504 -0.9947059724292101 3.010857379074278e-17 7.286558167930114e-17 3.010857379074278e-17 7.286558167930114e-17 -0.10276136960886179 -0.9947060374381734
12614190666.666666 -0.11119923903028806 -0.9937981330425847 3.07262400161747e-17 7.259052177125643e-17 3.07262400161747e-17 7.259052177125643e-17 -0.11119861036575124 -0.9937982033856608
12614808000.0 -0.11962847158987422 -0.9928187290663457 3.1341404866525506e-17 7.231023134172206e-17 3.1341404866525506e-17 7.231023134172206e-17 -0.11962784357563316 -0.9928188047379467
12615425333.333334 -0.12804908955815186 -0.991767831028599 3.195402409455241e-17 7.202473304534938e-17 3.195402409455241e-17 7.202473304534938e-17 -0.12804846223936492 -0.9917679120227555
12616042666.666666 -0.13646048655634913 -0.990645514605828 3.25640536574404e-17 7.173404991069949e-17 3.25640536574404e-17 7.173404991069949e-17 -0.13645985997812002 -0.990645600916187
12616660000.0 -0.14486205686979292 -0.9894518606174305 3.317144971996482e-17 7.143820533840238e-17 3.317144971996482e-17 7.143820533840238e-17 -0.14486143107716748 -0.9894519522372558
12617277333.333334 -0.15325319549138527 -0.9881869550199098 3.377616865762065e-17 7.113722309929562e-17 3.377616865762065e-17 7.113722309929562e-17 -0.15325257052934851 -0.9881870519420848
12617894666.666666 -0.16163329816514363 -0.986850888900699 3.437816705974393e-17 7.083112733253461e-17 3.437816705974393e-17 7.083112733253461e-17 -0.16163267407861637 -0.9868509911177258
12618512000.0 -0.17000176142996665 -0.9854437584715582 3.497740173263578e-17 7.051994254366509e-17 3.497740173263578e-17 7.051994254366509e-17 -0.17000113826380214 -0.9854438659755578
12619129333.333334 -0.1783579826628091 -0.9839656650616908 3.557382970263158e-17 7.020369360268958e-17 3.557382970263158e-17 7.020369360268958e-17 -0.17835736046179015 -0.983965777844405
12619746666.666666 -0.18670136012219002 -0.9824167151104294 3.6167408219180325e-17 6.988240574209266e-17 3.6167408219180325e-17 6.988240574209266e-17 -0.18670073893102535 -0.9824168331632204
12620364000.0 -0.19503129299163643 -0.9807970201595498 3.6758094757904846e-17 6.955610455484233e-17 3.6758094757904846e-17 6.955610455484233e-17 -0.19503067285495784 -0.9807971434734017
12620981333.333334 -0.20334718142264205 -0.979106696845298 3.734584702362602e-17 6.922481599237436e-17 3.734584702362602e-17 6.922481599237436e-17 -0.20334656238500076 -0.9791068254108154
12621598666.666666 -0.2116484265782527 -0.9773458668899119 3.793062295338892e-17 6.888856636254089e-17 3.793062295338892e-17 6.888856636254089e-17 -0.21164780868411678 -0.9773460006973238
12622216000.0 -0.2199344306758838 -0.9755146570929203 3.851238071946078e-17 6.854738232753885e-17 3.851238071946078e-17 6.854738232753885e-17 -0.21993381396963452 -0.9755147961320789
12622833333.333334 -0.2282045970305062 -0.973613199321983 3.909107873231249e-17 6.820129090181222e-17 3.909107873231249e-17 6.820129090181222e-17 -0.22820398155643493 -0.9736133435823646
12623450666.666666 -0.23645833009758593 -0.9716416305033984 3.966667564358158e-17 6.785031944992923e-17 3.966667564358158e-17 6.785031944992923e-17 -0.23645771589989126 -0.9716417799741057
12624068000.0 -0.24469503551594374 -0.9696000926122552 4.023913034901404e-17 6.749449568443548e-17 4.023913034901404e-17 6.749449568443548e-17 -0.24469442263872726 -0.9696002472820134
12624685333.333334 -0.2529141201506916 -0.9674887326621662 4.0808401991396946e-17 6.713384766367692e-17 4.0808401991396946e-17 6.713384766367692e-17 -0.25291350863795625 -0.9674888925193303
12625302666.666666 -0.2611149921356439 -0.9653077026947655 4.137444996345082e-17 6.676840378961115e-17 4.137444996345082e-17 6.676840378961115e-17 -0.26111438203128984 -0.9653078677273174
12625920000.0 -0.2692970609163227 -0.9630571597686576 4.1937233910732476e-17 6.639819280557492e-17 4.1937233910732476e-17 6.639819280557492e-17 -0.26929645226414456 -0.9630573299642076
12626537333.333334 -0.2774597372922098 -0.9607372659481791 4.249671373448105e-17 6.602324379405217e-17 4.249671373448105e-17 6.602324379405217e-17 -0.2774591301358927 -0.9607374412939655
12627154666.666666 -0.2856024334591753 -0.9583481882917295 4.305284959448119e-17 6.564358617439324e-17 4.305284959448119e-17 6.564358617439324e-17 -0.28560182784229343 -0.9583483687746244
12627772000.0 -0.2937245630520541 -0.9558900988396748 4.3605601911889334e-17 6.525924970052116e-17 4.3605601911889334e-17 6.525924970052116e-17 -0.29372395901806564 -0.9558902844461787
12628389333.333334 -0.3018255411865676 -0.9533631746020393 4.415493137202133e-17 6.487026445862704e-17 4.415493137202133e-17 6.487026445862704e-17 -0.301824938778813 -0.9533633653182861
12629006666.666666 -0.3099047845016894 -0.9507675975456907 4.4700798927162094e-17 6.447666086481307e-17 4.4700798927162094e-17 6.447666086481307e-17 -0.30990418376338763 -0.9507677933574479
12629624000.0 -0.31796171120146227 -0.9481035545812918 4.524316579931737e-17 6.407846966273712e-17 4.524316579931737e-17 6.407846966273712e-17 -0.3179611121757079 -0.9481037554739616
12630241333.333334 -0.3259957410970031 -0.9453712375498097 4.578199348295784e-17 6.367572192122567e-17 4.578199348295784e-17 6.367572192122567e-17 -0.3259951438267629 -0.9453714435084288
12630858666.666666 -0.33400629564822903 -0.942570843208717 4.6317243747738555e-17 6.326844903186656e-17 4.6317243747738555e-17 6.326844903186656e-17 -0.3340057001763395 -0.9425710542179595
12631476000.0 -0.34199279800565224 -0.939702573217775 4.6848878641216344e-17 6.285668270656373e-17 4.6848878641216344e-17 6.285668270656373e-17 -0.3419922043748166 -0.9397027892619542
12632093333.333334 -0.3499546730516796 -0.9367666341246014 4.737686049151422e-17 6.24404549750941e-17 4.737686049151422e-17 6.24404549750941e-17 -0.3499540813044633 -0.936766855187667
12632710666.666666 -0.3578913474421341 -0.9337632373497556 4.790115190997976e-17 6.201979818262972e-17 4.790115190997976e-17 6.201979818262972e-17 -0.35789075762096356 -0.9337634634152995
12633328000.0 -0.36580224964778196 -0.930692599171426 4.8421715793835665e-17 6.159474498722647e-17 4.8421715793835665e-17 6.159474498722647e-17 -0.36580166179494056 -0.93069283022268
12633945333.333334 -0.37368680999508924 -0.9275549407100029 4.8938515328784064e-17 6.116532835731057e-17 4.8938515328784064e-17 6.116532835731057e-17 -0.3736862241527145 -0.9275551767298428
12634562666.666666 -0.38154446070748493 -0.9243504879120678 4.94515139915969e-17 6.073158156913576e-17 4.94515139915969e-17 6.073158156913576e-17 -0.38154387691756547 -0.9243507288830125
12635180000.0 -0.3893746359461671 -0.9210794715341517 4.996067555269136e-17 6.029353820421387e-17 4.996067555269136e-17 6.029353820421387e-17 -0.38937405425053995 -0.921079717438366
12635797333.333334 -0.3971767718509818 -0.9177421271260661 5.0465964078675405e-17 5.985123214672904e-17 5.0465964078675405e-17 5.985123214672904e-17 -0.39717619229132833 -0.9177423779453601
12636414666.666666 -0.4049503065807635 -0.9143386950140461 5.0967343934872625e-17 5.940469758093002e-17 5.0967343934872625e-17 5.940469758093002e-17 -0.404949729198608 -0.9143389507298793
12637032000.0 -0.41269468035405776 -0.9108694202833392 5.14647797878235e-17 5.895396898850015e-17 5.14647797878235e-17 5.895396898850015e-17 -0.4126941051907632 -0.9108696808768187
12637649333.333334 -0.42040933548927284 -0.9073345527606177 5.1958236607762966e-17 5.849908114590976e-17 5.1958236607762966e-17 5.849908114590976e-17 -0.4204087625860393 -0.9073348182125042
12638266666.666666 -0.42809371644497185 -0.9037343469959377 5.2447679671081955e-17 5.804006912173901e-17 5.2447679671081955e-17 5.804006912173901e-17 -0.4280931458428316 -0.9037346172866408
12638884000.0 -0.43574726985971945 -0.9000690622444723 5.2933074562749425e-17 5.757696827399588e-17 5.2933074562749425e-17 5.757696827399588e-17 -0.435746701599535 -0.9000693373540555
12639501333.333334 -0.44336944459206024 -0.8963389624477843 5.3414387178727263e-17 5.710981424739901e-17 5.3414387178727263e-17 5.710981424739901e-17 -0.4433688787145221 -0.8963392423559675
12640118666.666666 -0.4509596917600037 -0.892544316214923 5.3891583728350166e-17 5.663864297065127e-17 5.3891583728350166e-17 5.663864297065127e-17 -0.45095912830562684 -0.8925446009010821
12640736000.0 -0.4585174647810579 -0.8886853968028244 5.4364630736701584e-17 5.616349065367261e-17 5.4364630736701584e-17 5.616349065367261e-17 -0.45851690379017845 -0.8886856862459926
12641353333.333334 -0.46604221941082713 -0.884762482097016 5.483349504691878e-17 5.568439378486104e-17 5.483349504691878e-17 5.568439378486104e-17 -0.4660416609236002 -0.884762776275887
12641970666.666666 -0.47353341378283864 -0.8807758545912878 5.529814382253493e-17 5.520138912827279e-17 5.529814382253493e-17 5.520138912827279e-17 -0.47353285783923477 -0.880776153484215
12642588000.0 -0.4809905084472591 -0.8767258013675037 5.575854454975738e-17 5.471451372082266e-17 5.575854454975738e-17 5.471451372082266e-17 -0.4809899550870619 -0.8767261049525037
12643205333.333334 -0.4884129664098655 -0.8726126140748593 5.621466503972271e-17 5.422380486946349e-17 5.621466503972271e-17 5.422380486946349e-17 -0.48841241567266935 -0.8726129223296148
12643822666.666666 -0.4958002531706661 -0.8684365889089113 5.666647343074773e-17 5.3729300148326813e-17 5.666647343074773e-17 5.3729300148326813e-17 -0.49579970509587257 -0.8684369018107699
12644440000.0 -0.5031518367623663 -0.8641980265902603 5.711393819053203e-17 5.3231037395868705e-17 5.711393819053203e-17 5.3231037395868705e-17 -0.50315129138918 -0.8641983441162355
12645057333.333334 -0.5104671877886483 -0.8598972323429073 5.755702811835402e-17 5.272905471197799e-17 5.755702811835402e-17 5.272905471197799e-17 -0.5104666451560768 -0.8598975544696835
12645674666.666666 -0.517745779462397 -0.8555345158722224 5.799571234722504e-17 5.222339045508435e-17 5.799571234722504e-17 5.222339045508435e-17 -0.5177452396092466 -0.8555348425761552
12646292000.0 -0.5249870876436543 -0.8511101913426233 5.842996034604206e-17 5.1714083239222127e-17 5.842996034604206e-17 5.1714083239222127e-17 -0.5249865506085272 -0.8511105225997404
12646909333.333334 -0.5321905908771225 -0.846624577355101 5.885974192168516e-17 5.1201171931109874e-17 5.885974192168516e-17 5.1201171931109874e-17 -0.5321900566984133 -0.846624913141104
12647526666.666666 -0.5393557704300276 -0.8420779969240819 5.928502722111002e-17 5.0684695647188744e-17 5.928502722111002e-17 5.0684695647188744e-17 -0.5393552391459238 -0.8420783372143509
12648144000.0 -0.5464821103293083 -0.837470777454276 5.970578673341312e-17 5.01646937506458e-17 5.970578673341312e-17 5.01646937506458e-17 -0.5464815819777828 -0.8374711222238665
12648761333.333334 -0.5535690973987669 -0.8328032507170934 6.012199129185796e-17 4.9641205848435295e-17 6.012199129185796e-17 4.9641205848435295e-17 -0.5535685720175794 -0.8328035999407428
12649378666.666666 -0.5606162212959814 -0.828075752826792 6.053361207588968e-17 4.911427178826626e-17 6.053361207588968e-17 4.911427178826626e-17 -0.5606156989226732 -0.8280761064789185
12649996000.0 -0.5676229745492667 -0.8232886242161284 6.094062061311616e-17 4.858393165558225e-17 6.094062061311616e-17 4.858393165558225e-17 -0.5676224552211591 -0.8232889822708346
12650613333.333334 -0.5745888525940049 -0.8184422096119849 6.134298878126423e-17 4.8050225770522825e-17 6.134298878126423e-17 4.8050225770522825e-17 -0.574588336348196 -0.8184425720430574
12651230666.666666 -0.5815133538089818 -0.8135368580105471 6.174068881010828e-17 4.7513194684871157e-17 6.174068881010828e-17 4.7513194684871157e-17 -0.5815128406823448 -0.8135372247914614
12651848000.0 -0.5883959795527192 -0.8085729226520268 6.213369328337857e-17 4.697287917897648e-17 6.213369328337857e-17 4.697287917897648e-17 -0.588395469581898 -0.8085732937559468
12652465333.333334 -0.5952362341991471 -0.8035507609953849 6.252197514062959e-17 4.642932025867891e-17 6.252197514062959e-17 4.642932025867891e-17 -0.5952357274205561 -0.8035511363951667
12653082666.666666 -0.6020336251733917 -0.7984707346925292 6.290550767909392e-17 4.588255915220323e-17 6.290550767909392e-17 4.588255915220323e-17 -0.6020331216232115 -0.7984711143607225
12653700000.0 -0.6087876629873343 -0.793333209562201 6.328426455550952e-17 4.533263730703497e-17 6.328426455550952e-17 4.533263730703497e-17 -0.6087871627015092 -0.7933335934710496
12654317333.333334 -0.6154978612746111 -0.7881385555638192 6.365821978790246e-17 4.4779596386807496e-17 6.365821978790246e-17 4.4779596386807496e-17 -0.6154973642888469 -0.788138943685265
12654934666.666666 -0.6221637368259303 -0.7828871467706168 6.402734775736555e-17 4.422347826814168e-17 6.402734775736555e-17 4.422347826814168e-17 -0.6221632431756922 -0.7828875390763016
12655552000.0 -0.6287848096237343 -0.7775793613428068 6.439162320980358e-17 4.366432503747813e-17 6.439162320980358e-17 4.366432503747813e-17 -0.6287843193442428 -0.7775797578040726
12656169333.333334 -0.6353606028766534 -0.7722155815004376 6.475102125762851e-17 4.310217898793035e-17 6.475102125762851e-17 4.310217898793035e-17 -0.6353601160028836 -0.7722159820883305
12656786666.666666 -0.6418906430540203 -0.7667961934957295 6.510551738146098e-17 4.253708261607237e-17 6.510551738146098e-17 4.253708261607237e-17 -0.6418901596206985 -0.7667965981810018
12657404000.0 -0.6483744599199448 -0.7613215875852749 6.545508743178594e-17 4.1969078618740374e-17 6.545508743178594e-17 4.1969078618740374e-17 -0.6483739799615466 -0.7613219963383867
12658021333.333334 -0.6548115865670892 -0.7557921580020099 6.579970763057793e-17 4.1398209889824445e-17 6.579970763057793e-17 4.1398209889824445e-17 -0.6548111101178362 -0.7557925707931309
12658638666.666666 -0.66120155945027 -0.7502083029268433 6.613935457290249e-17 4.0824519517041805e-17 6.613935457290249e-17 4.0824519517041805e-17 -0.6612010865441281 -0.7502087197258555
12659256000.0 -0.6675439184200123 -0.7445704244598357 6.647400522849954e-17 4.024805077867997e-17 6.647400522849954e-17 4.024805077867997e-17 -0.6675434490906881 -0.744570845236335
12659873333.333334 -0.673838206755573 -0.738878928591334 6.680363694332361e-17 3.966884714035156e-17 6.680363694332361e-17 3.966884714035156e-17 -0.6738377410365137 -0.7388793533146337
12660490666.666666 -0.6800839711977085 -0.7331342251728524 6.712822744105518e-17 3.908695225173884e-17 6.712822744105518e-17 3.908695225173884e-17 -0.6800835091220968 -0.7331346538119841
12661108000.0 -0.6862807619816063 -0.7273367278872903 6.744775482460463e-17 3.850240994328964e-17 6.744775482460463e-17 3.850240994328964e-17 -0.6862803035823603 -0.7273371604110069
12661725333.333334 -0.6924281328689393 -0.7214868542194501 6.776219757756104e-17 3.791526422294712e-17 6.776219757756104e-17 3.791526422294712e-17 -0.692427678178709 -0.7214872905962282
12662342666.666666 -0.6985256411803126 -0.7155850254256839 6.807153456563064e-17 3.732555927283732e-17 6.807153456563064e-17 3.732555927283732e-17 -0.6985251902314771 -0.7155854656237246
12662960000.0 -0.7045728478269118 -0.7096316665037712 6.837574503803911e-17 3.673333944595636e-17 6.837574503803911e-17 3.673333944595636e-17 -0.7045724006515773 -0.709632110491004
12663577333.333334 -0.7105693173422262 -0.703627206162217 6.867480862890599e-17 3.6138649262846736e-17 6.867480862890599e-17 3.6138649262846736e-17 -0.7105688739722256 -0.7036276539063024
12664194666.666666 -0.7165146179133678 -0.6975720767894208 6.896870535859544e-17 3.5541533408252823e-17 6.896870535859544e-17 3.5541533408252823e-17 -0.7165141783802557 -0.6975725282577511
12664812000.0 -0.7224083214122435 -0.6914667144224559 6.925741563502709e-17 3.4942036727784877e-17 6.925741563502709e-17 3.4942036727784877e-17 -0.722407885747297 -0.69146716958216
12665429333.333334 -0.7282500034262924 -0.6853115587157779 6.954092025496901e-17 3.43402042245533e-17 6.954092025496901e-17 3.43402042245533e-17 -0.7282495716605035 -0.6853120175337193
12666046666.666666 -0.7340392432890186 -0.679107052909576 6.981920040529514e-17 3.373608105580422e-17 6.981920040529514e-17 3.373608105580422e-17 -0.7340388154530982 -0.67910751535236
12666664000.0 -0.7397756241104683 -0.6728536437976765 7.009223766421986e-17 3.3129712529531105e-17 7.009223766421986e-17 3.3129712529531105e-17 -0.7397752002348417 -0.6728541098316512
12667281333.333334 -0.745458732807054 -0.6665517816955744 7.036001400249051e-17 3.252114410110691e-17 7.036001400249051e-17 3.252114410110691e-17 -0.7454583129218569 -0.6665522512868312
12667898666.666666 -0.7510881601313771 -0.6602019204079208 7.062251178456588e-17 3.191042136987026e-17 7.062251178456588e-17 3.191042136987026e-17 -0.7510877442664551 -0.6602023935222985
12668516000.0 -0.7566635007017738 -0.653804517195759 7.087971376976234e-17 3.129759007571056e-17 7.087971376976234e-17 3.129759007571056e-17 -0.756663088886681 -0.6538049937988466
12669133333.333334 -0.7621843530313026 -0.6473600327438335 7.11316031133535e-17 3.0682696095682557e-17 7.11316031133535e-17 3.0682696095682557e-17 -0.7621839452952983 -0.6473605128009718
12669750666.666666 -0.7676503195569158 -0.6408689311271127 7.137816336766508e-17 3.0065785440555355e-17 7.137816336766508e-17 3.0065785440555355e-17 -0.7676499159289621 -0.6408694146033975
12670368000.0 -0.7730610066679008 -0.6343316797775866 7.161937848312764e-17 2.944690425138141e-17 7.161937848312764e-17 2.944690425138141e-17 -0.7730606071766616 -0.6343321666378702
