! Parameters = {f0=12700.012000; bw=77.238000; Q=6100.000000; N=10; m_0_1=1.188684; m_1_1=-0.934490; m_1_2=1.023496; m_2_2=-0.935139; m_2_3=0.660459; m_2_8=-0.003502; m_2_9=0.033202; m_3_3=-0.937076; m_3_4=0.548988; m_3_7=-0.002902; m_3_8=-0.099990; m_3_9=-0.003502; m_4_4=-0.940001; m_4_5=0.385323; m_4_6=0.000615; m_4_7=-0.120539; m_4_8=-0.002902; m_5_5=-0.939619; m_5_6=0.792678; m_5_7=0.000615; m_6_6=-0.939620; m_6_7=0.385665; m_7_7=-0.939987; m_7_8=0.549106; m_8_8=-0.937078; m_8_9=0.660772; m_9_9=-0.935144; m_9_10=1.024574; m_10_10=-0.934500; m_10_11=1.189479}
!
! Created with skrf (http://scikit-rf.org).
# Hz S RI R 50.0 
!freq ReS11 ImS11 ReS21 ImS21 ReS12 ImS12 ReS22 ImS22
12607400000.0 0.9311401212871449 -0.36466158905100876 -5.852238509728423e-17 4.553951101291727e-17 -5.852238509728423e-17 4.553951101291727e-17 0.9311403497143191 -0.3646610057762429
12608017333.333334 0.9281487685000187 -0.37220943503858617 -5.813525369215996e-17 4.6009292849428944e-17 -5.813525369215996e-17 4.6009292849428944e-17 0.9281490016438156 -0.37220885366610146
12608634666.666666 0.9250962338449291 -0.379732745659068 -5.774435667135188e-17 4.647579048975404e-17 -5.774435667135188e-17 4.647579048975404e-17 0.9250964716895187 -0.37973216622699923
12609252000.0 0.9219827185394358 -0.38723102498957596 -5.734972184177506e-17 4.6938973795933255e-17 -5.734972184177506e-17 4.6938973795933255e-17 0.9219829610686803 -0.3872304475359263
12609869333.333334 0.9188084278207898 -0.39470377875735496 -5.695137725116708e-17 4.739881286501335e-17 -5.695137725116708e-17 4.739881286501335e-17 0.918808675018244 -0.3947032033199935
12610486666.666666 0.9155735709325217 -0.40215051437206545 -5.654935118611353e-17 4.7855278030958754e-17 -5.654935118611353e-17 4.7855278030958754e-17 0.9155738227814351 -0.40214994098872486
12611104000.0 0.912278361110484 -0.40957074095864654 -5.614367217002927e-17 4.830833986657967e-17 -5.614367217002927e-17 4.830833986657967e-17 0.9122786175938006 -0.4095701696669203
12611721333.333334 0.908923015568964 -0.4169639693892826 -5.57343689611733e-17 4.8757969185388226e-17 -5.57343689611733e-17 4.8757969185388226e-17 0.9089232766693233 -0.41696340022662226
12612338666.666666 0.9055077554862504 -0.4243297123159059 -5.532147055060107e-17 4.920413704349118e-17 -5.532147055060107e-17 4.920413704349118e-17 0.9055080211859898 -0.42432914531961935
12612956000.0 0.902032805990064 -0.4316674842022942 -5.4905006160122686e-17 4.96468147414418e-17 -5.4905006160122686e-17 4.96468147414418e-17 0.90203307627122 -0.43166691940954305
12613573333.333334 0.8984983961427785 -0.438976801355949 -5.448500524025968e-17 5.008597382606089e-17 -5.448500524025968e-17 5.008597382606089e-17 0.8984986709870875 -0.438976238803746
12614190666.666666 0.8949047589262739 -0.44625718196008257 -5.406149746815266e-17 5.052158609227773e-17 -5.406149746815266e-17 5.052158609227773e-17 0.8949050383151718 -0.4462566216852885
12614808000.0 0.8912521312265871 -0.45350814610535095 -5.363451274549025e-17 5.095362358491451e-17 -5.363451274549025e-17 5.095362358491451e-17 0.8912524151412137 -0.45350758814467357
12615425333.333334 0.8875407538183022 -0.4607292158214913 -5.3204081196400956e-17 5.1382058600478584e-17 -5.3204081196400956e-17 5.1382058600478584e-17 0.8875410422395 -0.46072866021148196
12616042666.666666 0.8837708713486873 -0.46791991510880127 -5.277023316533941e-17 5.180686368892722e-17 -5.277023316533941e-17 5.180686368892722e-17 0.8837711642570046 -0.46791936188585326
12616660000.0 0.8799427323215192 -0.47507976996961904 -5.2332999214958655e-17 5.2228011655415157e-17 -5.2332999214958655e-17 5.2228011655415157e-17 0.8799430296972088 -0.4750792191699638
12617277333.333334 0.8760565890807629 -0.4822083084394392 -5.189241012395968e-17 5.264547556203278e-17 -5.189241012395968e-17 5.264547556203278e-17 0.876056890903787 -0.4822077600991459
12617894666.666666 0.87211269779396 -0.48930506061800366 -5.144849688495122e-17 5.3059228729503116e-17 -5.144849688495122e-17 5.3059228729503116e-17 0.872113004043988 -0.48930451477297515
12618512000.0 0.8681113184351973 -0.49636955870052146 -5.100129070225675e-17 5.34692447388985e-17 -5.100129070225675e-17 5.34692447388985e-17 0.8681116290916098 -0.49636901538649303
12619129333.333334 0.8640527147681831 -0.503401337008136 -5.055082298975515e-17 5.387549743329416e-17 -5.055082298975515e-17 5.387549743329416e-17 0.8640530298100725 -0.5034007962606728
12619746666.666666 0.8599371543286638 -0.5103999320189678 -5.00971253686625e-17 5.4277960919446956e-17 -5.00971253686625e-17 5.4277960919446956e-17 0.8599374737348341 -0.5103993938734616
12620364000.0 0.8557649084068675 -0.5173648823985181 -4.964022966533091e-17 5.4676609569426476e-17 -4.964022966533091e-17 5.4676609569426476e-17 0.8557652321558388 -0.5173643468901863
12620981333.333334 0.8515362520297003 -0.5242957290299601 -4.9180167909033623e-17 5.507141802222975e-17 -4.9180167909033623e-17 5.507141802222975e-17 0.8515365800997075 -0.5242951961938428
12621598666.666666 0.8472514639424825 -0.531192015044622 -4.871697232971524e-17 5.546236118539702e-17 -4.871697232971524e-17 5.546236118539702e-17 0.8472517963114783 -0.5311914849155795
12622216000.0 0.8429108265906496 -0.538053285851981 -4.8250675355752556e-17 5.584941423658722e-17 -4.8250675355752556e-17 5.584941423658722e-17 0.8429111632363052 -0.5380527584646918
12622833333.333334 0.8385146261011167 -0.5448790891696526 -4.778130961168424e-17 5.623255262515196e-17 -4.778130961168424e-17 5.623255262515196e-17 0.8385149670008238 -0.5448785645586115
12623450666.666666 0.8340631522634195 -0.5516689750532057 -4.7308907915953664e-17 5.661175207366822e-17 -4.7308907915953664e-17 5.661175207366822e-17 0.8340634973942912 -0.5516684532527204
12624068000.0 0.8295566985106255 -0.5584224959257963 -4.6833503278609164e-17 5.69869885794784e-17 -4.6833503278609164e-17 5.69869885794784e-17 0.8295570478494995 -0.558421976969987
12624685333.333334 0.824995561899917 -0.565139206607793 -4.635512889900649e-17 5.735823841619836e-17 -4.635512889900649e-17 5.735823841619836e-17 0.8249959154233542 -0.5651386905305877
12625302666.666666 0.8203800430931782 -0.5718186643458579 -4.587381816351771e-17 5.772547813519238e-17 -4.587381816351771e-17 5.772547813519238e-17 0.8203804007774668 -0.5718181511809923
12625920000.0 0.81571044633694 -0.5784604288424883 -4.5389604643179046e-17 5.808868456706793e-17 -4.5389604643179046e-17 5.808868456706793e-17 0.8157108081580969 -0.5784599186235031
12626537333.333334 0.810987079442567 -0.5850640622846885 -4.49025220913916e-17 5.844783482310048e-17 -4.49025220913916e-17 5.844783482310048e-17 0.8109874453763374 -0.5850635550449262
12627154666.666666 0.8062102537658014 -0.5916291293730614 -4.441260444156096e-17 5.880290629667746e-17 -4.441260444156096e-17 5.880290629667746e-17 0.8062106237876638 -0.5916286251456664
12627772000.0 0.801380284186243 -0.598155197350505 -4.391988580473557e-17 5.915387666471489e-17 -4.391988580473557e-17 5.915387666471489e-17 0.8013806582714067 -0.598154696168418
12628389333.333334 0.7964974890867544 -0.6046418360305054 -4.342440046725754e-17 5.950072388903697e-17 -4.342440046725754e-17 5.950072388903697e-17 0.7964978672101648 -0.604641337926464
12629006666.666666 0.7915621903322435 -0.6110886178258172 -4.2926182888370404e-17 5.984342621775916e-17 -4.2926182888370404e-17 5.984342621775916e-17 0.7915625724685807 -0.6110881228323527
12629624000.0 0.7865747132486274 -0.6174951177763964 -4.242526769784372e-17 6.018196218663242e-17 -4.242526769784372e-17 6.018196218663242e-17 0.7865750993723114 -0.6174946259258325
12630241333.333334 0.7815353866013087 -0.6238609135775292 -4.192168969356629e-17 6.051631062038172e-17 -4.192168969356629e-17 6.051631062038172e-17 0.7815357766864983 -0.6238604249019786
12630858666.666666 0.776444542573534 -0.6301855856076218 -4.141548383914794e-17 6.084645063401151e-17 -4.141548383914794e-17 6.084645063401151e-17 0.7764449365941298 -0.6301851001389859
12631476000.0 0.7713025167444102 -0.6364687169559744 -4.090668526148357e-17 6.117236163410987e-17 -4.090668526148357e-17 6.117236163410987e-17 0.7713029146740552 -0.6364682347259389
12632093333.333334 0.7661096480669429 -0.6427098934500622 -4.039532924834003e-17 6.149402332011069e-17 -4.039532924834003e-17 6.149402332011069e-17 0.7661100498790255 -0.6427094144900964
12632710666.666666 0.7608662788456068 -0.648908703682949 -3.988145124591761e-17 6.181141568554582e-17 -3.988145124591761e-17 6.181141568554582e-17 0.7608666845132618 -0.648908228024304
12633328000.0 0.755572754713705 -0.6550647390404928 -3.936508685638567e-17 6.21245190192871e-17 -3.936508685638567e-17 6.21245190192871e-17 0.7555731642098164 -0.655064266714199
12633945333.333334 0.7502294246106793 -0.6611775937281714 -3.884627183544442e-17 6.243331390674577e-17 -3.884627183544442e-17 6.243331390674577e-17 0.7502298379078807 -0.6611771247650364
12634562666.666666 0.7448366407591248 -0.6672468647978101 -3.832504208984147e-17 6.273778123107331e-17 -3.832504208984147e-17 6.273778123107331e-17 0.7448370578298026 -0.6672463992284173
12635180000.0 0.7393947586415205 -0.6732721521742104 -3.780143367490807e-17 6.303790217432475e-17 -3.780143367490807e-17 6.303790217432475e-17 0.7393951794578142 -0.6732716900289157
12635797333.333334 0.7339041369767911 -0.6792530586815182 -3.7275482792064477e-17 6.33336582186137e-17 -3.7275482792064477e-17 6.33336582186137e-17 0.7339045615105965 -0.6792525999904487
12636414666.666666 0.7283651376967406 -0.6851891900693219 -3.674722578633483e-17 6.3625031147237e-17 -3.674722578633483e-17 6.3625031147237e-17 0.7283655659197122 -0.6851887348623759
12637032000.0 0.7227781259221003 -0.6910801550387496 -3.621669914383491e-17 6.391200304578822e-17 -3.621669914383491e-17 6.391200304578822e-17 0.7227785578056505 -0.6910797033455907
12637649333.333334 0.7171434699384548 -0.696925565268256 -3.568393948926068e-17 6.419455630324576e-17 -3.568393948926068e-17 6.419455630324576e-17 0.7171439054537584 -0.6969251171183142
12638266666.666666 0.7114615411720673 -0.70272503543912 -3.514898358337738e-17 6.447267361303474e-17 -3.514898358337738e-17 6.447267361303474e-17 0.7114619802900631 -0.7027245908615898
12638884000.0 0.7057327141653156 -0.7084781832609268 -3.4611868320484243e-17 6.474633797407715e-17 -3.4611868320484243e-17 6.474633797407715e-17 0.7057331568567063 -0.7084777422847623
12639501333.333334 0.6999573665520024 -0.7141846294967654 -3.4072630725880203e-17 6.501553269181619e-17 -3.4072630725880203e-17 6.501553269181619e-17 0.6999578127872593 -0.714184192150682
12640118666.666666 0.6941358790325857 -0.7198439979881098 -3.353130795332197e-17 6.528024137921952e-17 -3.353130795332197e-17 6.528024137921952e-17 0.6941363287819491 -0.7198435643005808
12640736000.0 0.6882686353487768 -0.7254559156799112 -3.298793728246296e-17 6.55404479577668e-17 -3.298793728246296e-17 6.55404479577668e-17 0.6882690885822583 -0.7254554856791656
12641353333.333334 0.6823560222586535 -0.7310200126447939 -3.2442556116313116e-17 6.579613665840241e-17 -3.2442556116313116e-17 6.579613665840241e-17 0.6823564789460373 -0.7310195863588146
12641970666.666666 0.6763984295108584 -0.7365359221077346 -3.189520197865385e-17 6.604729202248566e-17 -3.189520197865385e-17 6.604729202248566e-17 0.6763988896217051 -0.7365354995642578
12642588000.0 0.6703962498190308 -0.742003280470124 -3.134591251147577e-17 6.629389890270436e-17 -3.134591251147577e-17 6.629389890270436e-17 0.6703967133226779 -0.7420028616966361
12643205333.333334 0.6643498788359218 -0.7474217273337344 -3.079472547239081e-17 6.653594246397688e-17 -3.079472547239081e-17 6.653594246397688e-17 0.6643503457014855 -0.74742131235747
12643822666.666666 0.6582597151272247 -0.75279090552455 -3.02416787320487e-17 6.67734081843268e-17 -3.02416787320487e-17 6.67734081843268e-17 0.6582601853236039 -0.7527904943724922
12644440000.0 0.6521261601454342 -0.7581104611162007 -2.968681027154523e-17 6.700628185573772e-17 -2.968681027154523e-17 6.700628185573772e-17 0.6521266336413104 -0.7581100538150769
12645057333.333334 0.6459496182032738 -0.7633800434533845 -2.9130158179821994e-17 6.723454958498705e-17 -2.9130158179821994e-17 6.723454958498705e-17 0.6459500949671145 -0.7633796400296659
12645674666.666666 0.6397304964471753 -0.7685993051748725 -2.8571760651060056e-17 6.745819779445867e-17 -2.8571760651060056e-17 6.745819779445867e-17 0.6397309764472355 -0.7685989056547722
12646292000.0 0.6334692048302014 -0.7737679022366066 -2.8011655982055753e-17 6.767721322293817e-17 -2.8011655982055753e-17 6.767721322293817e-17 0.6334696880345255 -0.7737675066460772
12646909333.333334 0.6271661560853483 -0.7788854939341056 -2.744988256961979e-17 6.789158292637527e-17 -2.744988256961979e-17 6.789158292637527e-17 0.6271666424617732 -0.7788851022988389
12647526666.666666 0.6208217656980338 -0.7839517429251769 -2.688647890794528e-17 6.81012942786343e-17 -2.688647890794528e-17 6.81012942786343e-17 0.6208222552141904 -0.7839513552706014
12648144000.0 0.6144364518788614 -0.788966315252027 -2.63214835859724e-17 6.830633497222252e-17 -2.63214835859724e-17 6.830633497222252e-17 0.6144369445021775 -0.7889659316033073
12648761333.333334 0.608010635536056 -0.793928880363278 -2.5754935284765e-17 6.850669301898959e-17 -2.5754935284765e-17 6.850669301898959e-17 0.6080111312337556 -0.7939285007453096
12649378666.666666 0.601544740247736 -0.7988391111357352 -2.5186872774862723e-17 6.870235675081315e-17 -2.5186872774862723e-17 6.870235675081315e-17 0.6015452389868455 -0.7988387355731477
12649996000.0 0.5950391922338838 -0.8036966838960411 -2.4617334913637772e-17 6.889331482025854e-17 -2.4617334913637772e-17 6.889331482025854e-17 0.5950396939812327 -0.8036963124131945
12650613333.333334 0.5884944203283404 -0.8085012784419435 -2.4046360642643012e-17 6.907955620121825e-17 -2.4046360642643012e-17 6.907955620121825e-17 0.5884949250505619 -0.8085009110629253
12651230666.666666 0.5819108559505343 -0.813252578063398 -2.3473988984967193e-17 6.926107018952534e-17 -2.3473988984967193e-17 6.926107018952534e-17 0.581911363614069 -0.8132522148120231
12651848000.0 0.5752889330769534 -0.8179502695635154 -2.2900259042558255e-17 6.943784640355468e-17 -2.2900259042558255e-17 6.943784640355468e-17 0.5752894436480521 -0.817949910463325
12652465333.333334 0.5686290882126528 -0.8225940432791218 -2.2325209993569767e-17 6.960987478479217e-17 -2.2325209993569767e-17 6.960987478479217e-17 0.5686296016573772 -0.8225936883533809
12653082666.666666 0.5619317603625057 -0.8271835931011579 -2.1748881089705517e-17 6.977714559838248e-17 -2.1748881089705517e-17 6.977714559838248e-17 0.5619322766467316 -0.8271832423728537
12653700000.0 0.5551973910020302 -0.8317186164950172 -2.1171311653520354e-17 6.993964943366636e-17 -2.1171311653520354e-17 6.993964943366636e-17 0.55519791009145 -0.8317182699868587
12654317333.333334 0.5484264240486406 -0.8361988145202478 -2.0592541075775053e-17 7.009737720467901e-17 -2.0592541075775053e-17 7.009737720467901e-17 0.5484269459087643 -0.8361984722546625
12654934666.666666 0.541619305832055 -0.8406238918504807 -2.001260881273975e-17 7.025032015064003e-17 -2.001260881273975e-17 7.025032015064003e-17 0.5416198304282144 -0.8406235538496161
12655552000.0 0.5347764850650162 -0.8449935567928037 -1.943155438350407e-17 7.03984698364188e-17 -1.943155438350407e-17 7.03984698364188e-17 0.5347770123623652 -0.8449932230785222
12656169333.333334 0.5278984128138312 -0.8493075213069081 -1.8849417367321926e-17 7.054181815296664e-17 -1.8849417367321926e-17 7.054181815296664e-17 0.5278989427773496 -0.8493071919007886
12656786666.666666 0.5209855424684254 -0.8535655010242195 -1.8266237400895415e-17 7.068035731774341e-17 -1.8266237400895415e-17 7.068035731774341e-17 0.5209860750629206 -0.8535651759475543
12657404000.0 0.5140383297125732 -0.8577672152665633 -1.7682054175695887e-17 7.081407987511064e-17 -1.7682054175695887e-17 7.081407987511064e-17 0.5140388649026822 -0.8577668945403573
12658021333.333334 0.5070572324938375 -0.8619123870646817 -1.709690743526835e-17 7.094297869670651e-17 -1.709690743526835e-17 7.094297869670651e-17 0.5070577702440303 -0.8619120707096509
12658638666.666666 0.5000427109934064 -0.866000743176477 -1.6510836972537523e-17 7.106704698179776e-17 -1.6510836972537523e-17 7.106704698179776e-17 0.500043251267988 -0.8660004312130489
12659256000.0 0.4929952275956619 -0.8700320141050828 -1.5923882627101302e-17 7.118627825761103e-17 -1.5923882627101302e-17 7.118627825761103e-17 0.49299577035877346 -0.8700317065533909
12659873333.333334 0.48591524685782184 -0.874005934116553 -1.533608428254065e-17 7.1300666379639e-17 -1.533608428254065e-17 7.1300666379639e-17 0.4859157920734442 -0.874005630996439
12660490666.666666 0.4788032354793427 -0.8779222412573677 -1.4747481863719224e-17 7.141020553192518e-17 -1.4747481863719224e-17 7.141020553192518e-17 0.4788037831112989 -0.87792194258838
12661108000.0 0.47165966227093264 -0.8817806773718257 -1.4158115334061096e-17 7.15148902273313e-17 -1.4158115334061096e-17 7.15148902273313e-17 0.4716602122828901 -0.881780383173217
12661725333.333334 0.4644849981238974 -0.8855809881189244 -1.3568024692865588e-17 7.161471530777432e-17 -1.3568024692865588e-17 7.161471530777432e-17 0.4644855504793696 -0.8855806984096503
12662342666.666666 0.45727971597897343 -0.88932292298919 -1.297724997259006e-17 7.170967594444717e-17 -1.297724997259006e-17 7.170967594444717e-17 0.4572802706413236 -0.8893226377879091
12662960000.0 0.45004429079517966 -0.8930062353211817 -1.2385831236143912e-17 7.179976763801509e-17 -1.2385831236143912e-17 7.179976763801509e-17 0.45004484772762254 -0.8930059546462539
12663577333.333334 0.4427791995185091 -0.8966306823177506 -1.179380857418157e-17 7.188498621878989e-17 -1.179380857418157e-17 7.188498621878989e-17 0.4427797586841127 -0.8966304061872344
12664194666.666666 0.4354849210504872 -0.9001960250620409 -1.1201222102384311e-17 7.196532784688306e-17 -1.1201222102384311e-17 7.196532784688306e-17 0.43548548241217644 -0.9001957534936945
12664812000.0 0.42816193621663073 -0.9037020285332289 -1.0608111958762076e-17 7.204078901233393e-17 -1.0608111958762076e-17 7.204078901233393e-17 0.42816249973718956 -0.9037017615445084
12665429333.333334 0.4208107277346247 -0.9071484616220776 -1.0014518300932232e-17 7.211136653521881e-17 -1.0014518300932232e-17 7.211136653521881e-17 0.42081129337669837 -0.9071481992301352
12666046666.666666 0.41343178018278465 -0.9105350971460355 -9.42048130342067e-18 7.217705756573491e-17 -9.42048130342067e-18 7.217705756573491e-17 0.41343234790888184 -0.910534839367718
12666664000.0 0.4060255799677275 -0.9138617118643927 -8.826041154929894e-18 7.223785958426553e-17 -8.826041154929894e-18 7.223785958426553e-17 0.406026149740223 -0.9138614587162411
12667281333.333334 0.3985926152926957 -0.9171280864928173 -8.23123805564841e-18 7.229377040141904e-17 -8.23123805564841e-18 7.229377040141904e-17 0.3985931870738339 -0.9171278379910675
12667898666.666666 0.3911333761251184 -0.9203340057179317 -7.636112214531524e-18 7.234478815804814e-17 -7.636112214531524e-18 7.234478815804814e-17 0.3911339498770147 -0.9203337618785107
12668516000.0 0.38364835416433807 -0.9234792582114892 -7.040703846582676e-18 7.239091132524708e-17 -7.040703846582676e-18 7.239091132524708e-17 0.38364892984898125 -0.9234790190500148
12669133333.333334 0.3761380428093286 -0.9265636366442486 -6.445053170164195e-18 7.243213870432403e-17 -6.445053170164195e-18 7.243213870432403e-17 0.3761386203885843 -0.9265634021760297
12669750666.666666 0.36860293712606834 -0.9295869376996879 -5.849200404269775e-18 7.24684694267545e-17 -5.849200404269775e-18 7.24684694267545e-17 0.3686035165616806 -0.9295867079397216
12670368000.0 0.36104353381490456 -0.9325489620874036 -5.253185765816523e-18 7.249990295411134e-17 -5.253185765816523e-18 7.249990295411134e-17 0.3610441150684992 -0.9325487370503759
12670985333.333334 0.3534603311779188 -0.9354495145562072 -4.657049466956706e-18 7.252643907797068e-17 -4.657049466956706e-18 7.252643907797068e-17 0.3534609142110052 -0.9354492942564909
