! Parameters = {f0=12700.012000; bw=77.238000; Q=6100.000000; N=10; m_0_1=1.210305; m_1_1=-0.610166; m_1_2=1.045117; m_2_2=-0.610815; m_2_3=0.682080; m_2_8=-0.002421; m_2_9=0.034283; m_3_3=-0.612752; m_3_4=0.570609; m_3_7=-0.001821; m_3_8=-0.098909; m_3_9=-0.002421; m_4_4=-0.615677; m_4_5=0.406944; m_4_6=0.001696; m_4_7=-0.119458; m_4_8=-0.001821; m_5_5=-0.615295; m_5_6=0.814299; m_5_7=0.001696; m_6_6=-0.615296; m_6_7=0.407286; m_7_7=-0.615663; m_7_8=0.570727; m_8_8=-0.612754; m_8_9=0.682393; m_9_9=-0.610820; m_9_10=1.046195; m_10_10=-0.610176; m_10_11=1.211100}
!
! Created with skrf (http://scikit-rf.org).
# Hz S RI R 50.0 
!freq ReS11 ImS11 ReS21 ImS21 ReS12 ImS12 ReS22 ImS22
12607400000.0 0.6453475798745409 -0.7638890633789125 -3.324666691057513e-17 7.577382145932499e-17 -3.324666691057513e-17 7.577382145932499e-17 0.6453480670562656 -0.7638886517985334
12608017333.333334 0.638632609889669 -0.7695117865148979 -3.2568630816433293e-17 7.605008422785969e-17 -3.2568630816433293e-17 7.605008422785969e-17 0.6386331006333397 -0.7695113792370363
12608634666.666666 0.6318686530575147 -0.7750754836034506 -3.188831079830327e-17 7.632028554417173e-17 -3.188831079830327e-17 7.632028554417173e-17 0.6318691473251415 -0.775075080658924
12609252000.0 0.625056228213045 -0.7805797278766095 -3.1205760993629535e-17 7.658440663618541e-17 -3.1205760993629535e-17 7.658440663618541e-17 0.6250567259663719 -0.7805793292959009
12609869333.333334 0.6181958579090493 -0.7860240971267569 -3.0521035693114336e-17 7.684242921490856e-17 -3.0521035693114336e-17 7.684242921490856e-17 0.6181963591095565 -0.7860237029400113
12610486666.666666 0.6112880683760809 -0.7914081737389869 -2.983418933641315e-17 7.709433547567348e-17 -2.983418933641315e-17 7.709433547567348e-17 0.6112885729849875 -0.7914077839760089
12611104000.0 0.604333389481889 -0.7967315447232968 -2.9145276507806735e-17 7.73401080993436e-17 -2.9145276507806735e-17 7.73401080993436e-17 0.6043338974601565 -0.7967311594135481
12611721333.333334 0.5973323546909999 -0.8019938017460895 -2.845435193189905e-17 7.757973025346935e-17 -2.845435193189905e-17 7.757973025346935e-17 0.597332865999335 -0.8019934209186881
12612338666.666666 0.5902855010237062 -0.8071945411615662 -2.7761470469252973e-17 7.7813185593425e-17 -2.7761470469252973e-17 7.7813185593425e-17 0.5902860156225652 -0.8071941648452842
12612956000.0 0.5831933690147856 -0.8123333640427577 -2.706668711205882e-17 7.804045826349083e-17 -2.706668711205882e-17 7.804045826349083e-17 0.5831938868643751 -0.8123329922660173
12613573333.333334 0.5760565026722871 -0.8174098762119361 -2.6370056979792285e-17 7.826153289789845e-17 -2.6370056979792285e-17 7.826153289789845e-17 0.5760570237325692 -0.8174095090028091
12614190666.666666 0.568875449435483 -0.8224236882710854 -2.5671635314835236e-17 7.847639462184697e-17 -2.5671635314835236e-17 7.847639462184697e-17 0.568875973666177 -0.822423325657291
12614808000.0 0.5616507601331306 -0.827374415631591 -2.497147747810862e-17 7.868502905247364e-17 -2.497147747810862e-17 7.868502905247364e-17 0.5616512874937158 -0.8273740576404911
12615425333.333334 0.5543829889411026 -0.8322616785438157 -2.426963894470653e-17 7.888742229978224e-17 -2.426963894470653e-17 7.888742229978224e-17 0.5543835193908236 -0.8322613252024178
12616042666.666666 0.5470726933399281 -0.8370851021262038 -2.356617529950332e-17 7.908356096754005e-17 -2.356617529950332e-17 7.908356096754005e-17 0.5470732268377958 -0.8370847534611543
12616660000.0 0.5397204340719352 -0.8418443163940961 -2.286114223276703e-17 7.927343215413082e-17 -2.286114223276703e-17 7.927343215413082e-17 0.5397209705767306 -0.8418439724316804
12617277333.333334 0.5323267750983547 -0.8465389562880293 -2.2154595535750537e-17 7.945702345337345e-17 -2.2154595535750537e-17 7.945702345337345e-17 0.5323273145686331 -0.8465386170541703
12617894666.666666 0.5248922835560903 -0.8511686617017288 -2.14465910963128e-17 7.963432295529192e-17 -2.14465910963128e-17 7.963432295529192e-17 0.5248928259501829 -0.8511683272219842
12618512000.0 0.5174175297139961 -0.8557330775098658 -2.0737184894477513e-17 7.980531924686084e-17 -2.0737184894477513e-17 7.980531924686084e-17 0.5174180749900137 -0.8557327478094247
12619129333.333334 0.5099030869293749 -0.8602318535951424 -2.0026432998043188e-17 7.997000141269757e-17 -2.0026432998043188e-17 7.997000141269757e-17 0.509903635045212 -0.8602315286988264
12619746666.666666 0.5023495316039028 -0.8646646448752145 -1.931439155815382e-17 8.01283590357234e-17 -1.931439155815382e-17 8.01283590357234e-17 0.5023500825172393 -0.8646643248074729
12620364000.0 0.4947574431393163 -0.869031111329212 -1.8601116804864785e-17 8.028038219778533e-17 -1.8601116804864785e-17 8.028038219778533e-17 0.49475799680762333 -0.8690307961141239
12620981333.333334 0.4871274038932425 -0.8733309180236722 -1.7886665042738736e-17 8.042606148023136e-17 -1.7886665042738736e-17 8.042606148023136e-17 0.48712796027378225 -0.8733306076849391
12621598666.666666 0.4794599991341787 -0.877563735138419 -1.7171092646379986e-17 8.056538796445855e-17 -1.7171092646379986e-17 8.056538796445855e-17 0.47946055818401045 -0.8775634296993681
12622216000.0 0.47175581699687485 -0.8817292379917155 -1.6454456056022505e-17 8.069835323240955e-17 -1.6454456056022505e-17 8.069835323240955e-17 0.4717563786728571 -0.8817289374752947
12622833333.333334 0.46401544843706877 -0.8858271070652473 -1.573681177307787e-17 8.082494936703767e-17 -1.573681177307787e-17 8.082494936703767e-17 0.4640160126958631 -0.8858268114940259
12623450666.666666 0.4562394871863092 -0.8898570280285553 -1.5018216355693928e-17 8.094516895272995e-17 -1.5018216355693928e-17 8.094516895272995e-17 0.45624005398438305 -0.8898567374247203
12624068000.0 0.4484285297061845 -0.8938186917632622 -1.4298726414310686e-17 8.105900507569018e-17 -1.4298726414310686e-17 8.105900507569018e-17 0.44842909899981476 -0.8938184061486174
12624685333.333334 0.44058317514269685 -0.8977117943867176 -1.3578398607200083e-17 8.116645132428557e-17 -1.3578398607200083e-17 8.116645132428557e-17 0.44058374688797336 -0.8977115137826821
12625302666.666666 0.432704025280457 -0.9015360372752326 -1.2857289636043027e-17 8.126750178934731e-17 -1.2857289636043027e-17 8.126750178934731e-17 0.43270459943328615 -0.9015357617028399
12625920000.0 0.42479168449619387 -0.9052911270871516 -1.2135456241433094e-17 8.136215106444315e-17 -1.2135456241433094e-17 8.136215106444315e-17 0.42479226101230155 -0.9052908565670466
12626537333.333334 0.4168467597126493 -0.908976775785226 -1.1412955198469133e-17 8.145039424609649e-17 -1.1412955198469133e-17 8.145039424609649e-17 0.4168473385475842 -0.9089765103376632
12627154666.666666 0.40886986035202455 -0.9125927006587096 -1.068984331227985e-17 8.153222693397673e-17 -1.068984331227985e-17 8.153222693397673e-17 0.4088704414611618 -0.9125924403035531
12627772000.0 0.4008615982889755 -0.9161386243451639 -9.966177413547664e-18 8.160764523104874e-17 -9.966177413547664e-18 8.160764523104874e-17 0.40086218162752074 -0.9161383691018864
12628389333.333334 0.39282258780409357 -0.9196142748515468 -9.242014354099649e-18 8.167664574367556e-17 -9.242014354099649e-18 8.167664574367556e-17 0.39282317332708583 -0.9196140247392265
12629006666.666666 0.38475344553629265 -0.9230193855752936 -8.517411002408041e-18 8.173922558169181e-17 -8.517411002408041e-18 8.173922558169181e-17 0.3847540331986071 -0.9230191406126123
12629624000.0 0.3766547904359511 -0.9263536953245725 -7.792424239165474e-18 8.179538235842981e-17 -7.792424239165474e-18 8.179538235842981e-17 0.376655380192304 -0.9263534555298164
12630241333.333334 0.36852724371717493 -0.9296169483384336 -7.06711095280758e-18 8.184511419071153e-17 -7.06711095280758e-18 8.184511419071153e-17 0.3685278355221258 -0.9296167137294901
12630858666.666666 0.36037142881035716 -0.9328088943063425 -6.3415280350878805e-18 8.188841969879677e-17 -6.3415280350878805e-18 8.188841969879677e-17 0.36037202261831325 -0.9328086649006996
12631476000.0 0.35218797131396073 -0.935929288387535 -5.615732376593623e-18 8.192529800629638e-17 -5.615732376593623e-18 8.192529800629638e-17 0.35218856707917967 -0.9359290642022795
12632093333.333334 0.3439774989470326 -0.9389778912295987 -4.8897808623194e-18 8.195574874004277e-17 -4.8897808623194e-18 8.195574874004277e-17 0.3439780966236268 -0.9389776722814164
12632710666.666666 0.33574064150079297 -0.9419544689869445 -4.1637303672195705e-18 8.197977202992223e-17 -4.1637303672195705e-18 8.197977202992223e-17 0.33574124104273223 -0.9419542552921164
12633328000.0 0.3274780307902428 -0.9448587933387647 -3.4376377517422973e-18 8.199736850866907e-17 -3.4376377517422973e-18 8.199736850866907e-17 0.3274786321513588 -0.9448585849131683
12633945333.333334 0.3191903006058344 -0.947690641506498 -2.7115598574130337e-18 8.20085393116185e-17 -2.7115598574130337e-18 8.20085393116185e-17 0.31919090373982406 -0.9476904383656058
12634562666.666666 0.3108780866648838 -0.9504497962709142 -1.9855535023746266e-18 8.20132860764221e-17 -1.9855535023746266e-18 8.20132860764221e-17 0.31087869152531183 -0.9504495984297904
12635180000.0 0.30254202656272533 -0.9531360459887971 -1.2596754769682685e-18 8.20116109427229e-17 -1.2596754769682685e-18 8.20116109427229e-17 0.30254263310302953 -0.9531358534621001
12635797333.333334 0.29418275972383384 -0.9557491846091788 -5.339825392927167e-19 8.200351655179179e-17 -5.339825392927167e-19 8.200351655179179e-17 0.29418336789732646 -0.9557489974111544
12636414666.666666 0.28580092735277357 -0.9582890116891326 1.9146858922057097e-19 8.198900604612514e-17 1.9146858922057097e-19 8.198900604612514e-17 0.28580153711264705 -0.9582888298336196
12637032000.0 0.277397172385017 -0.9607553324091606 9.166212282300398e-19 8.196808306900287e-17 9.166212282300398e-19 8.196808306900287e-17 0.2773977836843466 -0.9607551559095856
12637649333.333334 0.2689721394376269 -0.9631479575881295 1.6414187429016998e-18 8.194075176400771e-17 1.6414187429016998e-18 8.194075176400771e-17 0.2689727522293743 -0.9631477864575072
12638266666.666666 0.2605264747598375 -0.9654667036977774 2.3658045483191705e-18 8.190701677450567e-17 2.3658045483191705e-18 8.190701677450567e-17 0.2605270889968542 -0.9654665379487086
12638884000.0 0.25206082618337394 -0.9677113928768206 3.0897221138997414e-18 8.186688324308721e-17 3.0897221138997414e-18 8.186688324308721e-17 0.25206144181840556 -0.9677112325214928
12639501333.333334 0.2435758430728968 -0.969881852944557 3.8131149677835036e-18 8.182035681097028e-17 3.8131149677835036e-18 8.182035681097028e-17 0.24357646005858657 -0.9698816979947442
12640118666.666666 0.23507217627624838 -0.9719779174140676 4.5359267012231844e-18 8.176744361736459e-17 4.5359267012231844e-18 8.176744361736459e-17 0.23507279456514 -0.9719777678811259
12640736000.0 0.22655047807414158 -0.9739994255050762 5.2581009730044765e-18 8.170815029879466e-17 5.2581009730044765e-18 8.170815029879466e-17 0.22655109761868364 -0.9739992813999453
12641353333.333334 0.21801140213067838 -0.9759462221561477 5.979581513780408e-18 8.164248398838974e-17 5.979581513780408e-18 8.164248398838974e-17 0.21801202288322796 -0.9759460834893511
12641970666.666666 0.20945560344279612 -0.9778181580366848 6.700312130479641e-18 8.157045231512892e-17 6.700312130479641e-18 8.157045231512892e-17 0.2094562253556221 -0.9778180248183271
12642588000.0 0.20088373829019093 -0.9796150895583421 7.42023671065606e-18 8.149206340305232e-17 7.42023671065606e-18 8.149206340305232e-17 0.20088436131547818 -0.9796149617981099
12643205333.333334 0.19229646418500562 -0.9813368788860353 8.139299226855834e-18 8.140732587043122e-17 8.139299226855834e-18 8.140732587043122e-17 0.19229708827485809 -0.9813367565931949
12643822666.666666 0.1836944398211714 -0.9829833939485585 8.8574437409622e-18 8.131624882890095e-17 8.8574437409622e-18 8.131624882890095e-17 0.18369506492761611 -0.9829832771319557
12644440000.0 0.17507832502418846 -0.9845545084486517 9.574614408533944e-18 8.121884188255598e-17 9.574614408533944e-18 8.121884188255598e-17 0.1750789510991791 -0.9845543971167114
12645057333.333334 0.16644878070037483 -0.9860501018727182 1.029075548313487e-17 8.111511512700682e-17 1.029075548313487e-17 8.111511512700682e-17 0.16644940769579575 -0.9860499960334459
12645674666.666666 0.15780646878622745 -0.987470059500065 1.1005811320665399e-17 8.100507914839699e-17 1.1005811320665399e-17 8.100507914839699e-17 0.15780709665389672 -0.9874699591610407
12646292000.0 0.1491520521973379 -0.9888142724117415 1.1719726383677501e-17 8.088874502238257e-17 1.1719726383677501e-17 8.088874502238257e-17 0.1491526808890118 -0.988814177580126
12646909333.333334 0.1404861947780773 -0.9900826374988184 1.2432445245654432e-17 8.076612431307851e-17 1.2432445245654432e-17 8.076612431307851e-17 0.14048682424545314 -0.9900825481813459
12647526666.666666 0.1318095612502815 -0.9912750574703514 1.3143912595332957e-17 8.063722907195893e-17 1.3143912595332957e-17 8.063722907195893e-17 0.13181019144500225 -0.9912749736733356
12648144000.0 0.12312281716234813 -0.9923914408608361 1.3854073240968757e-17 8.050207183672568e-17 1.3854073240968757e-17 8.050207183672568e-17 0.12312344803600553 -0.9923913625901655
12648761333.333334 0.11442662883818455 -0.9934317020372209 1.4562872114607182e-17 8.036066563013862e-17 1.4562872114607182e-17 8.036066563013862e-17 0.11442726034232284 -0.9934316292983582
12649378666.666666 0.10572166332626592 -0.9943957612054509 1.527025427633791e-17 8.02130239588082e-17 1.527025427633791e-17 8.02130239588082e-17 0.105722295412386 -0.9943956940034365
12649996000.0 0.09700858834821569 -0.9952835444166285 1.597616491856307e-17 8.005916081194609e-17 1.597616491856307e-17 8.005916081194609e-17 0.0970092209677784 -0.9952834827560764
12650613333.333334 0.08828807224772779 -0.9960949835726615 1.6680549370212225e-17 7.989909066008602e-17 1.6680549370212225e-17 7.989909066008602e-17 0.08828870535215787 -0.9960949274577604
12651230666.666666 0.07956078393930102 -0.9968300164314894 1.7383353100963512e-17 7.973282845376537e-17 1.7383353100963512e-17 7.973282845376537e-17 0.07956141747999072 -0.9968299658660027
12651848000.0 0.07082739285681654 -0.9974885866118709 1.808452172548362e-17 7.956038962216122e-17 1.808452172548362e-17 7.956038962216122e-17 0.07082802678512921 -0.9974885415991334
12652465333.333334 0.062088568902329055 -0.9980706435976868 1.8784001007591374e-17 7.938179007170412e-17 1.8784001007591374e-17 7.938179007170412e-17 0.06208920316960344 -0.9980706041406114
12653082666.666666 0.053344982394739414 -0.9985761427418267 1.9481736864451244e-17 7.919704618464597e-17 1.9481736864451244e-17 7.919704618464597e-17 0.053345616952292695 -0.9985761088428964
12653700000.0 0.04459730401797918 -0.9990050452696265 2.017767537076196e-17 7.900617481758818e-17 2.017767537076196e-17 7.900617481758818e-17 0.044597938817111146 -0.9990050169308992
12654317333.333334 0.03584620477013311 -0.9993573182818141 2.087176276289076e-17 7.880919329998343e-17 2.087176276289076e-17 7.880919329998343e-17 0.03584683976212977 -0.9993572955049204
12654934666.666666 0.027092355911572316 -0.9996329347570543 2.1563945443024858e-17 7.860611943259352e-17 2.1563945443024858e-17 7.860611943259352e-17 0.02709299104770968 -0.9996329175431998
12655552000.0 0.018336428913521476 -0.9998318735540193 2.2254169983305964e-17 7.839697148591077e-17 2.2254169983305964e-17 7.839697148591077e-17 0.018337064145069176 -0.9998318619039808
12656169333.333334 0.009579095406694925 -0.9999541194130012 2.294238312992998e-17 7.818176819854964e-17 2.294238312992998e-17 7.818176819854964e-17 0.009579730684920067 -0.9999541133271291
12656786666.666666 0.0008210271296651877 -0.9999996629570899 2.362853180725362e-17 7.79605287755956e-17 2.362853180725362e-17 7.79605287755956e-17 0.0008216624058360539 -0.9999996624353091
12657404000.0 -0.007937104122634944 -0.9999685006928906 2.4312563121874384e-17 7.773327288692122e-17 2.4312563121874384e-17 7.773327288692122e-17 -0.007936468897245167 -0.9999685057346976
12658021333.333334 -0.016694626550442987 -0.999860635010791 2.4994424366696997e-17 7.75000206654665e-17 2.4994424366696997e-17 7.75000206654665e-17 -0.016693991424552464 -0.9998606456152569
12658638666.666666 -0.025450868400669326 -0.9996760741847796 2.5674063024981483e-17 7.726079270548393e-17 2.5674063024981483e-17 7.726079270548393e-17 -0.025450233422983824 -0.9996760903505477
12659256000.0 -0.03420515801853821 -0.9994148323718072 2.635142677438558e-17 7.701561006074456e-17 2.635142677438558e-17 7.701561006074456e-17 -0.03420452323774741 -0.9994148540970957
12659873333.333334 -0.042956823898965615 -0.9990769296107056 2.7026463490968635e-17 7.676449424271604e-17 2.7026463490968635e-17 7.676449424271604e-17 -0.04295618936373931 -0.9990769568933056
12660490666.666666 -0.051705194738010676 -0.9986623918206522 2.76991212531982e-17 7.650746721869985e-17 2.76991212531982e-17 7.650746721869985e-17 -0.051704560496995094 -0.9986624246579288
12661108000.0 -0.060449599484766345 -0.9981712507991665 2.836934834594099e-17 7.624455140993099e-17 2.836934834594099e-17 7.624455140993099e-17 -0.06044896558658043 -0.9981712891880599
12661725333.333334 -0.06918936739226494 -0.9976035442196968 2.9037093264406266e-17 7.597576968965588e-17 2.9037093264406266e-17 7.597576968965588e-17 -0.06918873388549654 -0.9976035881567201
12662342666.666666 -0.07792382806935413 -0.9969593156287063 2.970230471811195e-17 7.570114538115891e-17 2.970230471811195e-17 7.570114538115891e-17 -0.07792319500255641 -0.9969593651099499
12662960000.0 -0.08665231153192149 -0.9962386144423516 3.036493163481113e-17 7.542070225576378e-17 3.036493163481113e-17 7.542070225576378e-17 -0.08665167895360908 -0.9962386694634784
12663577333.333334 -0.09537414825442743 -0.9954414959426716 3.102492316439103e-17 7.513446453080281e-17 3.102492316439103e-17 7.513446453080281e-17 -0.09537351621307281 -0.9954415564989217
12664194666.666666 -0.10408866922109215 -0.9945680212733682 3.1682228682772895e-17 7.48424568675461e-17 3.1682228682772895e-17 7.48424568675461e-17 -0.10408803776512185 -0.9945680873595573
12664812000.0 -0.11279520597732616 -0.9936182574351042 3.233679779577925e-17 7.454470436910014e-17 3.233679779577925e-17 7.454470436910014e-17 -0.11279457515511711 -0.9936183290456239
12665429333.333334 -0.12149309068097648 -0.9925922772803675 3.298858034299716e-17 7.424123257826808e-17 3.298858034299716e-17 7.424123257826808e-17 -0.12149246054085215 -0.9925923544091856
12666046666.666666 -0.1301816561535254 -0.9914901595078829 3.3637526401587325e-17 7.393206747538999e-17 3.3637526401587325e-17 7.393206747538999e-17 -0.13018102674375248 -0.9914902421485465
12666664000.0 -0.1388602359314085 -0.9903119886565618 3.428358629012613e-17 7.361723547612687e-17 3.428358629012613e-17 7.361723547612687e-17 -0.1388596073001929 -0.9903120768021954
12667281333.333334 -0.1475281643168542 -0.9890578550990536 3.492671057237462e-17 7.329676342923499e-17 3.492671057237462e-17 7.329676342923499e-17 -0.14752753651233722 -0.9890579487423585
12667898666.666666 -0.15618477642917192 -0.987727855034781 3.5566850061058485e-17 7.297067861429326e-17 3.5566850061058485e-17 7.297067861429326e-17 -0.1561841494994271 -0.98772795416804
12668516000.0 -0.16482940825586517 -0.9863220904825475 3.6203955821626685e-17 7.263900873939696e-17 3.6203955821626685e-17 7.263900873939696e-17 -0.1648287822488938 -0.9863221950976199
12669133333.333334 -0.17346139670314253 -0.9848406692727688 3.6837979175958214e-17 7.230178193883486e-17 3.6837979175958214e-17 7.230178193883486e-17 -0.17346077166687093 -0.9848407793610978
12669750666.666666 -0.18208007964717562 -0.9832837050391509 3.746887170609861e-17 7.195902677070749e-17 3.746887170609861e-17 7.195902677070749e-17 -0.18207945562945058 -0.9832838205917576
12670368000.0 -0.1906847959847179 -0.9816513172099897 3.8096585257925337e-17 7.16107722145385e-17 3.8096585257925337e-17 7.16107722145385e-17 -0.1906841730333038 -0.9816514382174796
