! Parameters = {f0=12700.012000; bw=77.238000; Q=6100.000000; N=10; m_0_1=1.155651; m_1_1=-1.429986; m_1_2=0.990463; m_2_2=-1.430635; m_2_3=0.627426; m_2_8=-0.005154; m_2_9=0.031550; m_3_3=-1.432572; m_3_4=0.515955; m_3_7=-0.004554; m_3_8=-0.101642; m_3_9=-0.005154; m_4_4=-1.435497; m_4_5=0.352290; m_4_6=-0.001037; m_4_7=-0.122191; m_4_8=-0.004554; m_5_5=-1.435115; m_5_6=0.759645; m_5_7=-0.001037; m_6_6=-1.435116; m_6_7=0.352632; m_7_7=-1.435483; m_7_8=0.516073; m_8_8=-1.432574; m_8_9=0.627739; m_9_9=-1.430640; m_9_10=0.991541; m_10_10=-1.429996; m_10_11=1.156446}
!
! Created with skrf (http://scikit-rf.org).
# Hz S RI R 50.0 
!freq ReS11 ImS11 ReS21 ImS21 ReS12 ImS12 ReS22 ImS22
12607400000.0 0.7427357689513495 0.6695846305883231 -5.63032940506031e-17 -2.6895483542824443e-17 -5.63032940506031e-17 -2.6895483542824443e-17 0.7427353611358105 0.6695850829568344
12608017333.333334 0.7474992776037817 0.664262621243795 -5.648523911991984e-17 -2.6482456761119706e-17 -5.648523911991984e-17 -2.6482456761119706e-17 0.7474988730494646 0.6642630764912602
12608634666.666666 0.7522246527300365 0.658906724677348 -5.66641582813005e-17 -2.6068206526902766e-17 -5.66641582813005e-17 -2.6068206526902766e-17 0.7522242514572585 0.658907182780261
12609252000.0 0.7569116532661262 0.6535172141189493 -5.684004336472204e-17 -2.5652754980191566e-17 -5.684004336472204e-17 -2.5652754980191566e-17 0.7569112552950369 0.6535176750536628
12609869333.333334 0.7615600401056825 0.6480943645134446 -5.701288636195584e-17 -2.5236124315115846e-17 -5.701288636195584e-17 -2.5236124315115846e-17 0.7615596454562589 0.648094828256167
12610486666.666666 0.7661695761121862 0.6426384525064829 -5.718267942691672e-17 -2.48183367787492e-17 -5.718267942691672e-17 -2.48183367787492e-17 0.7661691848042355 0.6426389190332833
12611104000.0 0.770740026131198 0.6371497564302566 -5.734941487601502e-17 -2.4399414669912886e-17 -5.734941487601502e-17 -2.4399414669912886e-17 0.770739638184354 0.6371502257170631
12611721333.333334 0.7752711570021308 0.6316285562895585 -5.751308518848916e-17 -2.397938033800355e-17 -5.751308518848916e-17 -2.397938033800355e-17 0.7752707724358554 0.6316290283121622
12612338666.666666 0.7797627375702593 0.6260751337473716 -5.767368300673941e-17 -2.355825618179418e-17 -5.767368300673941e-17 -2.355825618179418e-17 0.7797623564038386 0.6260756084814254
12612956000.0 0.7842145386986151 0.6204897721103648 -5.783120113664614e-17 -2.313606464824925e-17 -5.783120113664614e-17 -2.313606464824925e-17 0.7842141609511601 0.6204902495313855
12613573333.333334 0.7886263332794632 0.6148727563147052 -5.798563254788036e-17 -2.2712828231338077e-17 -5.798563254788036e-17 -2.2712828231338077e-17 0.7886259589699095 0.6148732363980759
12614190666.666666 0.7929978962460134 0.6092243729113684 -5.813697037421022e-17 -2.2288569470831032e-17 -5.813697037421022e-17 -2.2288569470831032e-17 0.7929975253931187 0.6092248556323385
12614808000.0 0.7973290045839188 0.6035449100514978 -5.82852079137938e-17 -2.1863310951108945e-17 -5.82852079137938e-17 -2.1863310951108945e-17 0.7973286372062625 0.6035453953851838
12615425333.333334 0.8016194373426163 0.5978346574717471 -5.843033862946311e-17 -2.1437075299970534e-17 -5.843033862946311e-17 -2.1437075299970534e-17 0.8016190734585987 0.5978351453931352
12616042666.666666 0.8058689756465482 0.5920939064795689 -5.857235614900474e-17 -2.100988518742309e-17 -5.857235614900474e-17 -2.100988518742309e-17 0.8058686152743905 0.5920943969635162
12616660000.0 0.8100774027064321 0.5863229499382189 -5.871125426542655e-17 -2.0581763324486517e-17 -5.871125426542655e-17 -2.0581763324486517e-17 0.8100770458641733 0.5863234429594533
12617277333.333334 0.8142445038302822 0.5805220822518574 -5.884702693721577e-17 -2.0152732461993778e-17 -5.884702693721577e-17 -2.0152732461993778e-17 0.8142441505357805 0.5805225777849807
12617894666.666666 0.8183700664342319 0.5746915993507177 -5.897966828859117e-17 -1.972281538938514e-17 -5.897966828859117e-17 -1.972281538938514e-17 0.8183697167051621 0.5746920973702057
12618512000.0 0.8224538800536587 0.5688317986756148 -5.91091726097483e-17 -1.929203493349029e-17 -5.91091726097483e-17 -1.929203493349029e-17 0.8224535339075136 0.5688322991558199
12619129333.333334 0.826495736353644 0.5629429791631683 -5.923553435708687e-17 -1.8860413957341368e-17 -5.923553435708687e-17 -1.8860413957341368e-17 0.8264953938077287 0.5629434820783176
12619746666.666666 0.83049542913971 0.5570254412303839 -5.93587481534382e-17 -1.8427975358953926e-17 -5.93587481534382e-17 -1.8427975358953926e-17 0.8304950902111474 0.5570259465545851
12620364000.0 0.8344527543684412 0.5510794867591935 -5.947880878828431e-17 -1.7994742070106756e-17 -5.947880878828431e-17 -1.7994742070106756e-17 0.8344524190741677 0.5510799944664335
12620981333.333334 0.8383675101576985 0.5451054190813325 -5.959571121795892e-17 -1.7560737055150768e-17 -5.959571121795892e-17 -1.7560737055150768e-17 0.8383671785144615 0.5451059291454783
12621598666.666666 0.8422394967970309 0.5391035429627022 -5.970945056584884e-17 -1.7125983309784417e-17 -5.970945056584884e-17 -1.7125983309784417e-17 0.8422391688213913 0.5391040553575037
12622216000.0 0.846068516757878 0.5330741645877981 -5.982002212258439e-17 -1.6690503859838313e-17 -5.982002212258439e-17 -1.6690503859838313e-17 0.8460681924662072 0.5330746792868886
12622833333.333334 0.8498543747036149 0.5270175915441362 -5.992742134621845e-17 -1.6254321760063552e-17 -5.992742134621845e-17 -1.6254321760063552e-17 0.8498540541120959 0.5270181085210344
12623450666.666666 0.8535968774994898 0.5209341328066116 -6.003164386239792e-17 -1.5817460092919367e-17 -6.003164386239792e-17 -1.5817460092919367e-17 0.8535965606241142 0.5209346520347222
12624068000.0 0.8572958342224887 0.5148240987217105 -6.013268546452666e-17 -1.5379941967354326e-17 -6.013268546452666e-17 -1.5379941967354326e-17 0.8572955210790584 0.514824620174327
12624685333.333334 0.860951056171198 0.5086878009914861 -6.023054211392314e-17 -1.49417905175767e-17 -6.023054211392314e-17 -1.49417905175767e-17 0.8609507467753215 0.5086883246417899
12625302666.666666 0.8645623568751613 0.5025255526580924 -6.032520993995982e-17 -1.4503028901857935e-17 -6.032520993995982e-17 -1.4503028901857935e-17 0.864562051242255 0.5025260784791558
12625920000.0 0.8681295521047171 0.4963376680872791 -6.041668524020478e-17 -1.406368030129268e-17 -6.041668524020478e-17 -1.406368030129268e-17 0.8681292502500044 0.49633819605206686
12626537333.333334 0.8716524598801346 0.4901244629527947 -6.050496448054626e-17 -1.3623767918592397e-17 -6.050496448054626e-17 -1.3623767918592397e-17 0.8716521618186438 0.49012499303416407
12627154666.666666 0.8751309004810136 0.48388625422008624 -6.059004429531226e-17 -1.3183314976861083e-17 -6.059004429531226e-17 -1.3183314976861083e-17 0.8751306062275784 0.4838867863907895
12627772000.0 0.8785646964554786 0.4776233601300785 -6.067192148738312e-17 -1.2742344718360048e-17 -6.067192148738312e-17 -1.2742344718360048e-17 0.8785644060247384 0.4776238943627648
12628389333.333334 0.8819536726291389 0.47133610018311584 -6.075059302828663e-17 -1.230088040331712e-17 -6.075059302828663e-17 -1.230088040331712e-17 0.8819533860355339 0.47133663645033025
12629006666.666666 0.8852976561141152 0.4650247951224848 -6.082605605829727e-17 -1.1858945308667927e-17 -6.082605605829727e-17 -1.1858945308667927e-17 0.8852973733718904 0.4650253333966724
12629624000.0 0.8885964763178086 0.4586897669181535 -6.089830788651507e-17 -1.141656272685737e-17 -6.089830788651507e-17 -1.141656272685737e-17 0.8885961974410105 0.4586903071716592
12630241333.333334 0.8918499649516284 0.45233133875029524 -6.096734599094092e-17 -1.0973755964611268e-17 -6.096734599094092e-17 -1.0973755964611268e-17 0.8918496899541056 0.45233188095536625
12630858666.666666 0.8950579560395272 0.4459498349929039 -6.103316801854285e-17 -1.0530548341713084e-17 -6.103316801854285e-17 -1.0530548341713084e-17 0.895057684934929 0.44595037912169044
12631476000.0 0.898220285926557 0.4395455811970676 -6.109577178531436e-17 -1.0086963189768087e-17 -6.109577178531436e-17 -1.0086963189768087e-17 0.8982200187283323 0.4395461272216242
12632093333.333334 0.9013367932871288 0.43311890407453896 -6.115515527631954e-17 -9.64302385099879e-18 -6.115515527631954e-17 -9.64302385099879e-18 0.901336530008526 0.4331194519668263
12632710666.666666 0.9044073191332802 0.4266701314809913 -6.121131664573285e-17 -9.198753677017689e-18 -6.121131664573285e-17 -9.198753677017689e-18 0.904407059787347 0.4266706812128777
12633328000.0 0.9074317068228133 0.4201995923992432 -6.126425421687223e-17 -8.754176027584289e-18 -6.126425421687223e-17 -8.754176027584289e-18 0.9074314514223939 0.42020014394250516
12633945333.333334 0.9104098020672443 0.41370761692255 -6.13139664822176e-17 -8.309314269402269e-18 -6.13139664822176e-17 -8.309314269402269e-18 0.9104095506249821 0.4137081702488753
12634562666.666666 0.9133414529397025 0.4071945362377148 -6.136045210342386e-17 -7.864191774892322e-18 -6.136045210342386e-17 -7.864191774892322e-18 0.9133412054680373 0.40719509131870274
12635180000.0 0.9162265098826321 0.40066068260829574 -6.140370991132599e-17 -7.418831920960031e-18 -6.140370991132599e-17 -7.418831920960031e-18 0.9162262663938 0.40066123941545884
12635797333.333334 0.9190648257155041 0.39410638935747405 -6.144373890593311e-17 -6.973258087777837e-18 -6.144373890593311e-17 -6.973258087777837e-18 0.9190645862215368 0.3941069478622396
12636414666.666666 0.9218562556422428 0.3875319908512318 -6.14805382564145e-17 -6.527493657565668e-18 -6.14805382564145e-17 -6.527493657565668e-18 0.9218560201549668 0.38753255102494316
12637032000.0 0.9246006572586482 0.3809378224812157 -6.151410730107695e-17 -6.081562013364868e-18 -6.151410730107695e-17 -6.081562013364868e-18 0.9246004257896852 0.3809383842951342
12637649333.333334 0.9272978905596835 0.3743242206475761 -6.154444554733387e-17 -5.6354865378126395e-18 -6.154444554733387e-17 -5.6354865378126395e-18 0.9272976631204487 0.3743247840728822
12638266666.666666 0.929947817946593 0.36769152274185657 -6.157155267166425e-17 -5.189290611923905e-18 -6.157155267166425e-17 -5.189290611923905e-18 0.9299475945482936 0.3676920877496506
12638884000.0 0.9325503042338898 0.3610400671298608 -6.159542851956337e-17 -4.742997613875538e-18 -6.159542851956337e-17 -4.742997613875538e-18 0.9325500848875279 0.3610406336911662
12639501333.333334 0.9351052166563288 0.35437019313420776 -6.161607310548544e-17 -4.2966309177736816e-18 -6.161607310548544e-17 -4.2966309177736816e-18 0.9351050013726976 0.3543707612199709
12640118666.666666 0.9376124248755833 0.3476822410172576 -6.163348661277608e-17 -3.850213892449801e-18 -6.163348661277608e-17 -3.850213892449801e-18 0.9376122136652687 0.3476828105983506
12640736000.0 0.9400718009870299 0.3409765519634106 -6.164766939359784e-17 -3.4037699002189134e-18 -6.164766939359784e-17 -3.4037699002189134e-18 0.9400715938604074 0.3409771230106314
12641353333.333334 0.9424832195260888 0.3342534680621772 -6.165862196884418e-17 -2.9573222956929953e-18 -6.165862196884418e-17 -2.9573222956929953e-18 0.9424830164933257 0.33425404054625213
12641970666.666666 0.9448465574748058 0.3275133322902498 -6.166634502804789e-17 -2.5108944245338956e-18 -6.166634502804789e-17 -2.5108944245338956e-18 0.9448463585458594 0.32751390618183485
12642588000.0 0.9471616942679993 0.32075648849435096 -6.167083942927838e-17 -2.064509622251028e-18 -6.167083942927838e-17 -2.064509622251028e-18 0.9471614994526173 0.3207570637640333
12643205333.333334 0.9494285117994823 0.3139832813735066 -6.167210619903087e-17 -1.6181912129913e-18 -6.167210619903087e-17 -1.6181912129913e-18 0.9494283211071998 0.3139838579918055
12643822666.666666 0.9516468944280887 0.30719405646143205 -6.167014653210757e-17 -1.171962508307324e-18 -6.167014653210757e-17 -1.171962508307324e-18 0.9516467078682306 0.3071946343988011
12644440000.0 0.9538167289835043 0.3003891601091211 -6.166496179148887e-17 -7.258468059583109e-19 -6.166496179148887e-17 -7.258468059583109e-19 0.9538165465651841 0.3003897393359497
12645057333.333334 0.9559379047721048 0.29356893946698914 -6.165655350819672e-17 -2.7986738870164103e-19 -6.165655350819672e-17 -2.7986738870164103e-19 0.9559377265042243 0.2935695199536037
12645674666.666666 0.958010313582575 0.28673374246724354 -6.16449233811492e-17 1.6595247692833276e-19 -6.16449233811492e-17 1.6595247692833276e-19 0.9580101394738214 0.28673432418390893
12646292000.0 0.9600338496914601 0.27988391780602506 -6.163007327700541e-17 6.115895418348957e-19 -6.163007327700541e-17 6.115895418348957e-19 0.9600336797503103 0.27988450072294674
12646909333.333334 0.9620084098685053 0.27301981492581046 -6.161200523000334e-17 1.0570205755476705e-18 -6.161200523000334e-17 1.0570205755476705e-18 0.9620082441032212 0.2730203990131352
12647526666.666666 0.9639338933819783 0.26614178399739474 -6.159072144178765e-17 1.5022223674396661e-18 -6.159072144178765e-17 1.5022223674396661e-18 0.9639337318006074 0.26614236922521234
12648144000.0 0.9658102020037714 0.25925017590213534 -6.156622428122893e-17 1.9471717279410435e-18 -6.156622428122893e-17 1.9471717279410435e-18 0.9658100446141485 0.2592507622404809
12648761333.333334 0.9676372400144362 0.2523453422139994 -6.153851628423514e-17 2.3918454897303175e-18 -6.153851628423514e-17 2.3918454897303175e-18 0.9676370868241796 0.2523459296328536
12649378666.666666 0.969414914208027 0.24542763518173535 -6.150760015355402e-17 2.836220508930928e-18 -6.150760015355402e-17 2.836220508930928e-18 0.9694147652245428 0.24542822365102765
12649996000.0 0.9711431338969166 0.23849740771071343 -6.147347875856602e-17 3.2802736663306166e-18 -6.147347875856602e-17 3.2802736663306166e-18 0.9711429891273938 0.23849799720032186
12650613333.333334 0.9728218109163669 0.231555013345113 -6.143615513506959e-17 3.723981868567528e-18 -6.143615513506959e-17 3.723981868567528e-18 0.9728216703677788 0.2315556038248667
12651230666.666666 0.9744508596290489 0.22460080624980472 -6.139563248505817e-17 4.167322049323306e-18 -6.139563248505817e-17 4.167322049323306e-18 0.9744507233081539 0.22460139768948548
12651848000.0 0.9760301969294259 0.21763514119222754 -6.135191417648688e-17 4.6102711705282e-18 -6.135191417648688e-17 4.6102711705282e-18 0.9760300648427647 0.21763573356157082
12652465333.333334 0.9775597422479778 0.21065837352434527 -6.13050037430325e-17 5.052806223548588e-18 -6.13050037430325e-17 5.052806223548588e-18 0.9775596144018747 0.21065896679304208
12653082666.666666 0.9790394175552931 0.20367085916460176 -6.125490488384435e-17 5.494904230372466e-18 -6.125490488384435e-17 5.494904230372466e-18 0.9790392939558569 0.2036714533023006
12653700000.0 0.9804691473660957 0.19667295457957 -6.120162146328526e-17 5.936542244810287e-18 -6.120162146328526e-17 5.936542244810287e-18 0.9804690280192161 0.19667354955587743
12654317333.333334 0.9818488587430413 0.1896650167659881 -6.114515751066681e-17 6.3776973536676025e-18 -6.114515751066681e-17 6.3776973536676025e-18 0.9818487436543923 0.18966561255047135
12654934666.666666 0.9831784813004872 0.182647403232354 -6.108551721997287e-17 6.81834667794157e-18 -6.108551721997287e-17 6.81834667794157e-18 0.9831783704755241 0.18264799979454188
12655552000.0 0.9844579472080597 0.17562047198076974 -6.102270494957667e-17 7.258467373997816e-18 -6.102270494957667e-17 7.258467373997816e-18 0.9844578406520197 0.17562106929015428
12656169333.333334 0.9856871911941 0.16858458148876185 -6.095672522194986e-17 7.698036634745066e-18 -6.095672522194986e-17 7.698036634745066e-18 0.9856870889120021 0.1685851795148
12656786666.666666 0.9868661505490274 0.16154009069082656 -6.088758272336056e-17 8.137031690822945e-18 -6.088758272336056e-17 8.137031690822945e-18 0.986866052545672 0.1615406894029417
12657404000.0 0.9879947651285191 0.15448735896020216 -6.081528230356542e-17 8.575429811771778e-18 -6.081528230356542e-17 8.575429811771778e-18 0.9879946714084881 0.15448795832778564
12658021333.333334 0.9890729773565728 0.1474267460905921 -6.07398289754927e-17 9.01320830720161e-18 -6.07398289754927e-17 9.01320830720161e-18 0.9890728879242299 0.14742734608300492
12658638666.666666 0.9901007322284489 0.1403586122777822 -6.066122791491682e-17 9.45034452796396e-18 -6.066122791491682e-17 9.45034452796396e-18 0.9901006470879377 0.1403592128643565
12659256000.0 0.9910779773135031 0.1332833181010685 -6.057948446012198e-17 9.886815867331147e-18 -6.057948446012198e-17 9.886815867331147e-18 0.9910778964687483 0.13328391925110888
12659873333.333334 0.9920046627578135 0.12620122450519944 -6.049460411156342e-17 1.0322599762140323e-17 -6.049460411156342e-17 1.0322599762140323e-17 0.9920045862125197 0.1262018261879849
12660490666.666666 0.9928807412867495 0.1191126927817944 -6.040659253151508e-17 1.0757673693965767e-17 -6.040659253151508e-17 1.0757673693965767e-17 0.9928806690444021 0.1191132949665797
12661108000.0 0.9937061682074056 0.11201808455071434 -6.031545554370864e-17 1.1192015190288295e-17 -6.031545554370864e-17 1.1192015190288295e-17 0.9937061002712699 0.11201868720673172
12661725333.333334 0.9944809014108237 0.10491776174209365 -6.022119913297004e-17 1.1625601825630993e-17 -6.022119913297004e-17 1.1625601825630993e-17 0.994480837783946 0.10491836483855432
12662342666.666666 0.9952049013742001 0.0978120865773968 -6.012382944484169e-17 1.2058411222724618e-17 -6.012382944484169e-17 1.2058411222724618e-17 0.9952048420594054 0.09781269008349242
12662960000.0 0.995878131162871 0.09070142155116498 -6.002335278519818e-17 1.2490421053659693e-17 -6.002335278519818e-17 1.2490421053659693e-17 0.9958780761627646 0.09070202543606934
12663577333.333334 0.9965005564321977 0.08358612941258078 -5.991977561985515e-17 1.2921609041030535e-17 -5.991977561985515e-17 1.2921609041030535e-17 0.996500505749164 0.08358673364545136
12664194666.666666 0.9970721454293276 0.07646657314679225 -5.98131045741699e-17 1.3351952959074401e-17 -5.98131045741699e-17 1.3351952959074401e-17 0.9970720990655315 0.07646717769677183
12664812000.0 0.9975928689948119 0.0693431159564806 -5.970334643263099e-17 1.3781430634822916e-17 -5.970334643263099e-17 1.3781430634822916e-17 0.9975928269521989 0.06934372079269886
12665429333.333334 0.9980627005640892 0.062216121243388205 -5.959050813844256e-17 1.4210019949234903e-17 -5.959050813844256e-17 1.4210019949234903e-17 0.9980626628443806 0.06221672633496302
12666046666.666666 0.9984816161688377 0.05508595258975101 -5.947459679310113e-17 1.463769883832603e-17 -5.947459679310113e-17 1.463769883832603e-17 0.9984815827735368 0.055086557905790416
12666664000.0 0.9988495944382176 0.04795297373952399 -5.935561965595964e-17 1.5064445294312022e-17 -5.935561965595964e-17 1.5064445294312022e-17 0.9988495653686057 0.047953579249127465
12667281333.333334 0.9991666165999287 0.04081754858030675 -5.92335841437902e-17 1.5490237366723186e-17 -5.92335841437902e-17 1.5490237366723186e-17 0.9991665918570679 0.04081815425256706
12667898666.666666 0.9994326664811991 0.033680041124326265 -5.910849783033205e-17 1.5915053163540778e-17 -5.910849783033205e-17 1.5915053163540778e-17 0.9994326460659289 0.03368064692833077
12668516000.0 0.999647730509595 0.026540815489951488 -5.898036844583563e-17 1.6338870852312936e-17 -5.898036844583563e-17 1.6338870852312936e-17 0.9996477144225355 0.026541421394783896
12669133333.333334 0.9998117977137105 0.019400235883459103 -5.884920387659974e-17 1.6761668661267436e-17 -5.884920387659974e-17 1.6761668661267436e-17 0.9998117859552609 0.019400841858200988
12669750666.666666 0.999924859723737 0.012258666579998984 -5.871501216449457e-17 1.7183424880437048e-17 -5.871501216449457e-17 1.7183424880437048e-17 0.9999248522940751 0.012259272593731364
12670368000.0 0.999986910771885 0.005116471905238092 -5.857780150648473e-17 1.7604117862758328e-17 -5.857780150648473e-17 1.7604117862758328e-17 0.9999869076709672 0.005117077927042997
