! Parameters = {f0=12700.012000; bw=77.238000; Q=6100.000000; N=10; m_0_1=1.303999; m_1_1=0.795239; m_1_2=1.138811; m_2_2=0.794590; m_2_3=0.775774; m_2_8=0.002264; m_2_9=0.038968; m_3_3=0.792653; m_3_4=0.664303; m_3_7=0.002864; m_3_8=-0.094224; m_3_9=0.002264; m_4_4=0.789728; m_4_5=0.500638; m_4_6=0.006381; m_4_7=-0.114773; m_4_8=0.002864; m_5_5=0.790110; m_5_6=0.907993; m_5_7=0.006381; m_6_6=0.790109; m_6_7=0.500980; m_7_7=0.789742; m_7_8=0.664421; m_8_8=0.792651; m_8_9=0.776087; m_9_9=0.794585; m_9_10=1.139889; m_10_10=0.795229; m_10_11=1.304794}
!
! Created with skrf (http://scikit-rf.org).
# Hz S RI R 50.0 
!freq ReS11 ImS11 ReS21 ImS21 ReS12 ImS12 ReS22 ImS22
12607400000.0 0.6022624390831561 -0.7982981613842169 -4.541301471681463e-17 1.2126642735561873e-16 -4.541301471681463e-17 1.2126642735561873e-16 0.6022629874824041 -0.7982977476534571
12608017333.333334 0.5930198055760014 -0.8051878726076394 -4.399264627211249e-17 1.2176193688680156e-16 -4.399264627211249e-17 1.2176193688680156e-16 0.5930203586811317 -0.8051874652461469
12608634666.666666 0.5836983630628417 -0.8119705788743662 -4.2566897235157496e-17 1.2224082069372287e-16 -4.2566897235157496e-17 1.2224082069372287e-16 0.583698920799893 -0.8119701779356514
12609252000.0 0.5742993503111481 -0.8186453788008624 -4.113596208951125e-17 1.2270302067098374e-16 -4.113596208951125e-17 1.2270302067098374e-16 0.5742999126055504 -0.8186449843375763
12609869333.333334 0.5648240163970843 -0.825211385343707 -3.970003594223747e-17 1.2314848098677212e-16 -3.970003594223747e-17 1.2314848098677212e-16 0.5648245831736695 -0.8252109974076353
12610486666.666666 0.5552736205395393 -0.831667725917464 -3.825931449736067e-17 1.2357714808949763e-16 -3.825931449736067e-17 1.2357714808949763e-16 0.5552741917225503 -0.8316673445595193
12611104000.0 0.545649431932546 -0.838013542510802 -3.681399402918059e-17 1.239889707141376e-16 -3.681399402918059e-17 1.239889707141376e-16 0.5456500074456486 -0.8380131677810183
12611721333.333334 0.5359527295769695 -0.8442479918002828 -3.536427135564369e-17 1.2438389988823665e-16 -3.536427135564369e-17 1.2438389988823665e-16 0.5359533093432607 -0.8442476237478079
12612338666.666666 0.5261848021102004 -0.8503702452626527 -3.391034381153529e-17 1.2476188893762843e-16 -3.391034381153529e-17 1.2476188893762843e-16 0.5261853860522201 -0.8503698839357432
12612956000.0 0.5163469476350449 -0.8563794892848534 -3.2452409221647665e-17 1.2512289349183444e-16 -3.2452409221647665e-17 1.2512289349183444e-16 0.516347535674786 -0.8563791347308678
12613573333.333334 0.5064404735473366 -0.8622749252720755 -3.0990665873956523e-17 1.2546687148913304e-16 -3.0990665873956523e-17 1.2546687148913304e-16 0.5064410656062546 -0.8622745775374662
12614190666.666666 0.49646669636199753 -0.8680557697540058 -2.952531249264611e-17 1.2579378318134203e-16 -2.952531249264611e-17 1.2579378318134203e-16 0.49646729236102116 -0.8680554288843143
12614808000.0 0.48642694153810156 -0.8737212544889259 -2.8056548211139185e-17 1.2610359113827238e-16 -2.8056548211139185e-17 1.2610359113827238e-16 0.48642754139764466 -0.8737209205287789
12615425333.333334 0.47632254330285506 -0.8792706265657428 -2.6584572545093275e-17 1.2639626025186583e-16 -2.6584572545093275e-17 1.2639626025186583e-16 0.47632314694282557 -0.8792702995588433
12616042666.666666 0.46615484447420846 -0.8847031485040843 -2.5109585365323714e-17 1.266717577400252e-16 -2.5109585365323714e-17 1.266717577400252e-16 0.4661554518140202 -0.8847028284932071
12616660000.0 0.45592519628233125 -0.8900180983523495 -2.3631786870710846e-17 1.269300531501244e-16 -2.3631786870710846e-17 1.269300531501244e-16 0.45592580724091347 -0.8900177853793348
12617277333.333334 0.4456349581901621 -0.8952147697835795 -2.2151377561048462e-17 1.2717111836220825e-16 -2.2151377561048462e-17 1.2717111836220825e-16 0.44563557268597215 -0.8952144638893297
12617894666.666666 0.43528549771277436 -0.9002924721893202 -2.066855820991991e-17 1.2739492759186545e-16 -2.066855820991991e-17 1.2739492759186545e-16 0.435286115663807 -0.9002921734137919
12618512000.0 0.4248781902353836 -0.9052505307715208 -1.9183529837454e-17 1.2760145739280192e-16 -1.9183529837454e-17 1.2760145739280192e-16 0.42487881155918283 -0.9052502391537219
12619129333.333334 0.41441441883095115 -0.9100882866320279 -1.7696493683170464e-17 1.2779068665907935e-16 -1.7696493683170464e-17 1.2779068665907935e-16 0.41441504344462055 -0.9100880022100105
12619746666.666666 0.40389557407602167 -0.9148050968603179 -1.6207651178697864e-17 1.279625966270545e-16 -1.6207651178697864e-17 1.279625966270545e-16 0.40389620189623576 -0.9148048196711741
12620364000.0 0.393323053866077 -0.9194003346188633 -1.4717203920548526e-17 1.2811717087698968e-16 -1.4717203920548526e-17 1.2811717087698968e-16 0.3933236848090923 -0.9194000646987207
12620981333.333334 0.3826982632298947 -0.9238733892263796 -1.3225353642878651e-17 1.282543953343495e-16 -1.3225353642878651e-17 1.282543953343495e-16 0.38269889721156114 -0.9238731266103964
12621598666.666666 0.3720226141426186 -0.9282236662390728 -1.1732302190192955e-17 1.2837425827078465e-16 -1.1732302190192955e-17 1.2837425827078465e-16 0.3720232510783909 -0.928223410961434
12622216000.0 0.36129752533814297 -0.932450587529628 -1.0238251490077973e-17 1.2847675030479587e-16 -1.0238251490077973e-17 1.2847675030479587e-16 0.36129816514309054 -0.9324503396235376
12622833333.333334 0.35052442212067186 -0.9365535913639879 -8.74340352594573e-18 1.2856186440207982e-16 -8.74340352594573e-18 1.2856186440207982e-16 0.350525064709492 -0.9365533508616694
12623450666.666666 0.33970473617530833 -0.940532132476014 -7.247960309765988e-18 1.2862959587556008e-16 -7.247960309765988e-18 1.2862959587556008e-16 0.3397053814623365 -0.9405318994087031
12624068000.0 0.3288399053777113 -0.9443856821399781 -5.752123854794363e-18 1.2867994238510242e-16 -5.752123854794363e-18 1.2867994238510242e-16 0.32884055327693285 -0.9443854565379198
12624685333.333334 0.3179313736028742 -0.9481137282408709 -4.256096148303508e-18 1.2871290393691223e-16 -4.256096148303508e-18 1.2871290393691223e-16 0.3179320240279357 -0.9481135101333148
12625302666.666666 0.30698059053367205 -0.951715775342309 -2.76007912440541e-18 1.2872848288261467e-16 -2.76007912440541e-18 1.2872848288261467e-16 0.30698124339789284 -0.9517155647575058
12625920000.0 0.29598901146769613 -0.9551913447525532 -1.2642746367670065e-18 1.2872668391802176e-16 -1.2642746367670065e-18 1.2872668391802176e-16 0.29598966668407983 -0.9551911417177517
12626537333.333334 0.2849580971242569 -0.9585399745879862 2.311155685465178e-19 1.2870751408158124e-16 2.311155685465178e-19 1.2870751408158124e-16 0.2849587546055034 -0.9585397791294291
12627154666.666666 0.27388931345012935 -0.9617612198345449 1.7258898802435944e-18 1.2867098275251193e-16 1.7258898802435944e-18 1.2867098275251193e-16 0.2738899731086458 -0.9617610319774657
12627772000.0 0.26278413142446244 -0.9648546524069342 3.2198468489858653e-18 1.2861710164862148e-16 3.2198468489858653e-18 1.2861710164862148e-16 0.2627847931723755 -0.9648544721755536
12628389333.333334 0.2516440268638409 -0.967819861205362 4.712785214440273e-18 1.2854588482381424e-16 4.712785214440273e-18 1.2854588482381424e-16 0.25164469061300804 -0.967819688622885
12629006666.666666 0.24047048022563774 -0.9706564521703167 6.2045039324229724e-18 1.284573486652783e-16 6.2045039324229724e-18 1.284573486652783e-16 0.24047114588765917 -0.9706562872589304
12629624000.0 0.2292649764116263 -0.9733640483348415 7.694802201871984e-18 1.2835151189036625e-16 7.694802201871984e-18 1.2835151189036625e-16 0.2292656438978564 -0.97336389111571
12630241333.333334 0.21802900457036922 -0.9759422898746977 9.183479491875084e-18 1.2822839554315697e-16 9.183479491875084e-18 1.2822839554315697e-16 0.2180296737919291 -0.9759421403679626
12630858666.666666 0.20676405789965172 -0.9783908341561077 1.0670335568585069e-17 1.2808802299070985e-16 1.0670335568585069e-17 1.2808802299070985e-16 0.20676472876744015 -0.9783906923808819
12631476000.0 0.19547163344762733 -0.9807093557813809 1.215517052216816e-17 1.279304199189999e-16 1.215517052216816e-17 1.279304199189999e-16 0.1954723058723331 -0.980709221755749
12632093333.333334 0.18415323191425761 -0.9828975466320736 1.3637784793574428e-17 1.2775561432855247e-16 1.3637784793574428e-17 1.2775561432855247e-16 0.18415390580637156 -0.9828974203730885
12632710666.666666 0.17281035745173903 -0.9849551159099668 1.5117979201356033e-17 1.275636365297586e-16 1.5117979201356033e-17 1.275636365297586e-16 0.17281103272156578 -0.9849549974336492
12633328000.0 0.16144451746435823 -0.986881790175761 1.6595554968398414e-17 1.2735451913788171e-16 1.6595554968398414e-17 1.2735451913788171e-16 0.16144519402202787 -0.9868816794970934
12633945333.333334 0.15005722240858468 -0.9886773133853307 1.8070313748557576e-17 1.2712829706775934e-16 1.8070313748557576e-17 1.2712829706775934e-16 0.15005790016406506 -0.988677210518259
12634562666.666666 0.13864998559211675 -0.9903414469237973 1.9542057653243382e-17 1.2688500752819555e-16 1.9542057653243382e-17 1.2688500752819555e-16 0.13865066445522534 -0.9903413518812285
12635180000.0 0.12722432297271488 -0.9918739696372461 2.1010589277941543e-17 1.2662469001604412e-16 2.1010589277941543e-17 1.2662469001604412e-16 0.1272250028531307 -0.9918738824310452
12635797333.333334 0.11578175295687976 -0.993274677862094 2.2475711728667115e-17 1.2634738630998397e-16 2.2475711728667115e-17 1.2634738630998397e-16 0.1157824337641556 -0.9932745985030843
12636414666.666666 0.10432379619806498 -0.9945433854521587 2.3937228648288534e-17 1.2605314046399866e-16 2.3937228648288534e-17 1.2605314046399866e-16 0.10432447784163912 -0.9945433139501183
12637032000.0 0.09285197539444943 -0.9956799238034102 2.539494424284065e-17 1.2574199880053747e-16 2.539494424284065e-17 1.2574199880053747e-16 0.0928526577836581 -0.9956798601670744
12637649333.333334 0.08136781508672088 -0.9966841418763663 2.6848663307694335e-17 1.254140099033855e-16 2.6848663307694335e-17 1.254140099033855e-16 0.08136849813080997 -0.9966840861134235
12638266666.666666 0.06987284145533103 -0.9975559062161742 2.829819125367556e-17 1.2506922461022237e-16 2.829819125367556e-17 1.2506922461022237e-16 0.06987352506346832 -0.9975558583332658
12638884000.0 0.05836858211784499 -0.9982951009703332 2.9743334133052066e-17 1.247076960048886e-16 2.9743334133052066e-17 1.247076960048886e-16 0.05836926619913206 -0.9982950609730515
12639501333.333334 0.04685656592578747 -0.9989016279040988 3.1183898665462574e-17 1.2432947940934366e-16 3.1183898665462574e-17 1.2432947940934366e-16 0.04685725038927199 -0.9989015957969889
12640118666.666666 0.03533832276169432 -0.999375406413529 3.261969226369986e-17 1.239346323753364e-16 3.261969226369986e-17 1.239346323753364e-16 0.03533900751638209 -0.9993753822000876
12640736000.0 0.02381538333523173 -0.9997163735362198 3.405052305948875e-17 1.235232146757517e-16 3.405052305948875e-17 1.235232146757517e-16 0.023816068290098687 -0.9997163572188943
12641353333.333334 0.01228927898062546 -0.9999244839596397 3.547619992898147e-17 1.230952882957091e-16 3.547619992898147e-17 1.230952882957091e-16 0.012289964044629804 -0.9999244755398258
12641970666.666666 0.000761541452444981 -0.9999997100271742 3.689653251833564e-17 1.2265091742331265e-16 3.689653251833564e-17 1.2265091742331265e-16 0.0007622265345393537 -0.99999970950522
12642588000.0 -0.010766297277645526 -0.9999420417417924 3.8311331269048736e-17 1.2219016844014432e-16 3.8311331269048736e-17 1.2219016844014432e-16 -0.010765612268502017 -0.9999420491169968
12643205333.333334 -0.022292705224477693 -0.9997514867673813 3.972040744323492e-17 1.217131099114477e-16 3.972040744323492e-17 1.217131099114477e-16 -0.02229202037930736 -0.9997515020379931
12643822666.666666 -0.03381615059319849 -0.9994280704277186 4.1123573148756584e-17 1.2121981257602788e-16 4.1123573148756584e-17 1.2121981257602788e-16 -0.03381546600299297 -0.9994280935909376
12644440000.0 -0.04533510198252454 -0.9989718357031134 4.252064136423589e-17 1.2071034933586195e-16 4.252064136423589e-17 1.2071034933586195e-16 -0.04533441773823271 -0.9989718667550908
12645057333.333334 -0.056848028588399 -0.9983828432246955 4.391142596393927e-17 1.2018479524542236e-16 4.391142596393927e-17 1.2018479524542236e-16 -0.056847344780914855 -0.9983828821605342
12645674666.666666 -0.06835340040737001 -0.9976611712663596 4.529574174254803e-17 1.1964322750070654e-16 4.529574174254803e-17 1.1964322750070654e-16 -0.06835271712752064 -0.9976612180801159
12646292000.0 -0.07984968844023149 -0.9968069157343419 4.6673404439785065e-17 1.1908572542798621e-16 4.6673404439785065e-17 1.1908572542798621e-16 -0.07984900577876511 -0.9968069704190267
12646909333.333334 -0.09133536489468 -0.9958201901545131 4.8044230764870594e-17 1.1851237047228707e-16 4.8044230764870594e-17 1.1851237047228707e-16 -0.09133468294225353 -0.9958202527020894
12647526666.666666 -0.10280890338874632 -0.9947011256572597 4.940803842089547e-17 1.1792324618556506e-16 4.940803842089547e-17 1.1792324618556506e-16 -0.10280822223591383 -0.9947011960586486
12648144000.0 -0.11426877915355818 -0.9934498709600652 5.076464612903309e-17 1.1731843821460813e-16 5.076464612903309e-17 1.1731843821460813e-16 -0.1142680988907587 -0.9934499492051461
12648761333.333334 -0.1257134692359734 -0.9920665923477472 5.211387365256189e-17 1.1669803428868007e-16 5.211387365256189e-17 1.1669803428868007e-16 -0.1257127899535187 -0.9920666784253555
12649378666.666666 -0.1371414527008023 -0.9905514736503747 5.34555418207811e-17 1.160621242068695e-16 5.34555418207811e-17 1.160621242068695e-16 -0.13714077448886508 -0.9905515675483074
12649996000.0 -0.14855121083318576 -0.9889047162188125 5.478947255278984e-17 1.1541079982515666e-16 5.478947255278984e-17 1.1541079982515666e-16 -0.14855053378178776 -0.9889048179238289
12650613333.333334 -0.15994122734031047 -0.9871265388979722 5.611548888105336e-17 1.1474415504323291e-16 5.611548888105336e-17 1.1474415504323291e-16 -0.15994055153931047 -0.9871266483957954
12651230666.666666 -0.17130998855277646 -0.985217177997757 5.743341497484081e-17 1.1406228579103832e-16 5.743341497484081e-17 1.1406228579103832e-16 -0.17130931409185798 -0.9852172952730744
12651848000.0 -0.18265598362614635 -0.9831768872615848 5.874307616352504e-17 1.1336529001501465e-16 5.874307616352504e-17 1.1336529001501465e-16 -0.1826553105948067 -0.9831770122980549
12652465333.333334 -0.19397770474130951 -0.9810059378327476 6.004429895967557e-17 1.12653267664115e-16 6.004429895967557e-17 1.12653267664115e-16 -0.1939770332288466 -0.9810060706129957
12653082666.666666 -0.20527364730497344 -0.9787046182183512 6.133691108197988e-17 1.1192632067555033e-16 6.133691108197988e-17 1.1192632067555033e-16 -0.2052729774004751 -0.9787047587239776
12653700000.0 -0.2165423101498677 -0.9762732342509309 6.262074147805642e-17 1.1118455296023837e-16 6.262074147805642e-17 1.1118455296023837e-16 -0.21654164194219935 -0.9762733824625105
12654317333.333334 -0.22778219573382288 -0.9737121090478917 6.389562034699844e-17 1.1042807038804561e-16 6.389562034699844e-17 1.1042807038804561e-16 -0.22778152931161555 -0.9737122649449769
12654934666.666666 -0.23899181033917433 -0.9710215829684836 6.516137916183423e-17 1.0965698077271629e-16 6.516137916183423e-17 1.0965698077271629e-16 -0.23899114579081332 -0.9710217465296077
12655552000.0 -0.25016966427110154 -0.9682020135686038 6.64178506917441e-17 1.0887139385658124e-16 6.64178506917441e-17 1.0887139385658124e-16 -0.2501690016847147 -0.9682021847712843
12656169333.333334 -0.2613142720554366 -0.9652537755533269 6.766486902409464e-17 1.0807142129501429e-16 6.766486902409464e-17 1.0807142129501429e-16 -0.261313611518882 -0.9652539543740674
12656786666.666666 -0.27242415263643166 -0.9621772607270126 6.890226958634453e-17 1.0725717664059915e-16 6.890226958634453e-17 1.0725717664059915e-16 -0.2724234942372868 -0.962177447141307
12657404000.0 -0.2834978295732816 -0.9589728779413181 7.012988916768754e-17 1.0642877532709297e-16 7.012988916768754e-17 1.0642877532709297e-16 -0.2834971733988312 -0.9589730719236533
12658021333.333334 -0.29453383123649857 -0.9556410530408191 7.134756594055555e-17 1.055863346531101e-16 7.134756594055555e-17 1.055863346531101e-16 -0.2945331773737233 -0.9556412545646791
12658638666.666666 -0.3055306910032934 -0.9521822288064747 7.255513948188734e-17 1.0472997376558599e-16 7.255513948188734e-17 1.0472997376558599e-16 -0.30553003953885854 -0.9521824378443445
12659256000.0 -0.3164869474528613 -0.9485968648966671 7.375245079426206e-17 1.0385981364295537e-16 7.375245079426206e-17 1.0385981364295537e-16 -0.3164862984731045 -0.9485970814200348
12659873333.333334 -0.32740114456018893 -0.9448854377862399 7.493934232674609e-17 1.0297597707814969e-16 7.493934232674609e-17 1.0297597707814969e-16 -0.3274004981511095 -0.9448856617656024
12660490666.666666 -0.33827183188966237 -0.941048440703149 7.611565799559067e-17 1.0207858866132027e-16 7.611565799559067e-17 1.0207858866132027e-16 -0.3382711881369096 -0.9410486721080151
12661108000.0 -0.34909756478806214 -0.9370863835628287 7.728124320475154e-17 1.0116777476230231e-16 7.728124320475154e-17 1.0116777476230231e-16 -0.3490969237769239 -0.9370866223617236
12661725333.333334 -0.3598769045761483 -0.9329997929005693 7.843594486610487e-17 1.0024366351291851e-16 7.843594486610487e-17 1.0024366351291851e-16 -0.35987626639154024 -0.933000039061039
12662342666.666666 -0.3706084187402538 -0.9287892118013994 7.957961141955263e-17 9.930638478897477e-17 7.957961141955263e-17 9.930638478897477e-17 -0.37060778346670703 -0.9287894652900136
12662960000.0 -0.3812906811223629 -0.9244551998280179 8.071209285285414e-17 9.835607019207441e-17 8.071209285285414e-17 9.835607019207441e-17 -0.381290048844014 -0.9244554606103772
12663577333.333334 -0.39192227210977426 -0.9199983329463851 8.183324072125753e-17 9.739285303119292e-17 8.183324072125753e-17 9.739285303119292e-17 -0.39192164291035336 -0.9199986009871237
12664194666.666666 -0.40250177882370625 -0.9154192034492005 8.294290816692442e-17 9.641686830402128e-17 8.294290816692442e-17 9.641686830402128e-17 -0.40250115278652604 -0.9154194787119909
12664812000.0 -0.4130277953071638 -0.9107184198771422 8.404094993810375e-17 9.542825267811046e-17 8.404094993810375e-17 9.542825267811046e-17 -0.4130271725151091 -0.9107187023247021
12665429333.333334 -0.4234989227116542 -0.9058966069380571 8.512722240811323e-17 9.442714447177396e-17 8.512722240811323e-17 9.442714447177396e-17 -0.4234983032471699 -0.9058968965321514
12666046666.666666 -0.4339137694830582 -0.9009544054239479 8.620158359406108e-17 9.341368363480296e-17 8.620158359406108e-17 9.341368363480296e-17 -0.43391315342813963 -0.9009547021253973
12666664000.0 -0.44427095154681967 -0.8958924721257007 8.726389317539724e-17 9.238801172891531e-17 8.726389317539724e-17 9.238801172891531e-17 -0.44427033898300056 -0.8958927758943841
12667281333.333334 -0.4545690924914946 -0.8907114797459802 8.831401251214083e-17 9.135027190808099e-17 8.831401251214083e-17 9.135027190808099e-17 -0.4545684834998375 -0.8907117905408426
12667898666.666666 -0.46480682375202836 -0.8854121168096617 8.935180466296064e-17 9.030060889855885e-17 8.935180466296064e-17 9.030060889855885e-17 -0.46480621841311226 -0.8854124345887162
12668516000.0 -0.47498278479147393 -0.879995087572398 9.037713440299286e-17 8.923916897875348e-17 9.037713440299286e-17 8.923916897875348e-17 -0.474982183185385 -0.8799954122927348
12669133333.333334 -0.485095623281676 -0.8744611119270994 9.138986824137472e-17 8.816609995891696e-17 9.138986824137472e-17 8.816609995891696e-17 -0.4850950254879969 -0.8744614435448914
12669750666.666666 -0.4951439952831894 -0.8688109253081575 9.23898744386108e-17 8.708155116057709e-17 9.23898744386108e-17 8.708155116057709e-17 -0.4951434013809884 -0.8688112637786649
12670368000.0 -0.5051265654238795 -0.863045278593708 9.337702302364867e-17 8.598567339581917e-17 9.337702302364867e-17 8.598567339581917e-17 -0.5051259754916997 -0.8630456238712841
