! Parameters = {f0=12700.012000; bw=77.238000; Q=6100.000000; N=10; m_0_1=1.237332; m_1_1=-0.204761; m_1_2=1.072144; m_2_2=-0.205410; m_2_3=0.709107; m_2_8=-0.001070; m_2_9=0.035634; m_3_3=-0.207347; m_3_4=0.597636; m_3_7=-0.000470; m_3_8=-0.097558; m_3_9=-0.001070; m_4_4=-0.210272; m_4_5=0.433971; m_4_6=0.003047; m_4_7=-0.118107; m_4_8=-0.000470; m_5_5=-0.209890; m_5_6=0.841326; m_5_7=0.003047; m_6_6=-0.209891; m_6_7=0.434313; m_7_7=-0.210258; m_7_8=0.597754; m_8_8=-0.207349; m_8_9=0.709420; m_9_9=-0.205415; m_9_10=1.073222; m_10_10=-0.204771; m_10_11=1.238127}
!
! Created with skrf (http://scikit-rf.org).
# Hz S RI R 50.0 
!freq ReS11 ImS11 ReS21 ImS21 ReS12 ImS12 ReS22 ImS22
12607400000.0 -0.08132774965338256 0.9966874119482741 -1.939904841331857e-17 -9.256085201359065e-17 -1.939904841331857e-17 -9.256085201359065e-17 -0.08132839945222317 0.9966873589257423
12608017333.333334 -0.07179863466409463 0.9974191476306257 -2.0286990221222385e-17 -9.235133746980778e-17 -2.0286990221222385e-17 -9.235133746980778e-17 -0.07179928490815767 0.9974191008229737
12608634666.666666 -0.062262961628026595 0.9980597795769246 -2.1172696503622854e-17 -9.213331140626048e-17 -2.1172696503622854e-17 -9.213331140626048e-17 -0.06226361225787836 0.9980597389878185
12609252000.0 -0.052721601528499556 0.998609249272258 -2.2056085735385162e-17 -9.190679744044794e-17 -2.2056085735385162e-17 -9.190679744044794e-17 -0.05272225248467703 0.9986092149047964
12609869333.333334 -0.04317542586825854 0.9990675065284261 -2.2937076638835582e-17 -9.16718199701166e-17 -2.2937076638835582e-17 -9.16718199701166e-17 -0.043176077091274696 0.999067478385139
12610486666.666666 -0.033625306589983396 0.9994345094885219 -2.3815588191199602e-17 -9.142840417069164e-17 -2.3815588191199602e-17 -9.142840417069164e-17 -0.03362595802033265 0.9994344875713699
12611104000.0 -0.024072115996447218 0.9997102246307605 -2.469153963206787e-17 -9.117657599262234e-17 -2.469153963206787e-17 -9.117657599262234e-17 -0.024072767574610895 0.9997102089411366
12611721333.333334 -0.014516726671067976 0.9998946267715362 -2.556485047076771e-17 -9.091636215867607e-17 -2.556485047076771e-17 -9.091636215867607e-17 -0.014517378337519697 0.999894617310263
12612338666.666666 -0.004960011398036687 0.9999876990677253 -2.6435440493768615e-17 -9.064779016114319e-17 -2.6435440493768615e-17 -9.064779016114319e-17 -0.004960663093247856 0.9999876958350573
12612956000.0 0.004597156917430663 0.9999894330182246 -2.7303229772035554e-17 -9.037088825897771e-17 -2.7303229772035554e-17 -9.037088825897771e-17 0.004596505252985435 0.9999894360138466
12613573333.333334 0.014153905328567997 0.9998998284647227 -2.8168138668317527e-17 -9.008568547488007e-17 -2.8168138668317527e-17 -9.008568547488007e-17 0.014153253754405482 0.9998998376877531
12614190666.666666 0.02370936092710631 0.9997188935917234 -2.9030087844480085e-17 -8.979221159228593e-17 -2.9030087844480085e-17 -8.979221159228593e-17 0.023708709502729193 0.9997189090407098
12614808000.0 0.033262650922748854 0.9994466449257926 -2.9888998268743355e-17 -8.949049715230618e-17 -2.9888998268743355e-17 -8.949049715230618e-17 0.03326199970764031 0.9994466665987141
12615425333.333334 0.0428129027230902 0.999083107334047 -3.0744791222916724e-17 -8.918057345058809e-17 -3.0744791222916724e-17 -8.918057345058809e-17 0.0428122517767085 0.999083135228315
12616042666.666666 0.052359244013204895 0.9986283140218881 -3.1597388309596657e-17 -8.886247253411004e-17 -3.1597388309596657e-17 -8.886247253411004e-17 0.05235859339497786 0.9986283481343452
12616660000.0 0.06190080283535233 0.9980823065299635 -3.244671145933161e-17 -8.853622719790676e-17 -3.244671145933161e-17 -8.853622719790676e-17 0.06190015260467213 0.9980823468568868
12617277333.333334 0.07143670766864953 0.9974451347303753 -3.32926829377563e-17 -8.820187098172591e-17 -3.32926829377563e-17 -8.820187098172591e-17 0.07143605788486702 0.9974451812674726
12617894666.666666 0.08096608750853362 0.9967168568221331 -3.413522535267963e-17 -8.785943816662167e-17 -3.413522535267963e-17 -8.785943816662167e-17 0.08096543823095312 0.9967169095645471
12618512000.0 0.09048807194665896 0.9958975393258132 -3.4974261661165096e-17 -8.75089637714692e-17 -3.4974261661165096e-17 -8.75089637714692e-17 0.09048742323453265 0.9958975982681185
12619129333.333334 0.10000179124988964 0.9949872570775197 -3.580971517653911e-17 -8.71504835494277e-17 -3.580971517653911e-17 -8.71504835494277e-17 0.10000114316241235 0.9949873222137268
12619746666.666666 0.10950637644019415 0.9939860932220187 -3.664150957539796e-17 -8.678403398432219e-17 -3.664150957539796e-17 -8.678403398432219e-17 0.1095057290364979 0.9939861645455728
12620364000.0 0.11900095937390325 0.9928941392051439 -3.7469568904565553e-17 -8.640965228696294e-17 -3.7469568904565553e-17 -8.640965228696294e-17 0.11900031271305167 0.9928942167089246
12620981333.333334 0.12848467282078013 0.9917114947654735 -3.829381758798998e-17 -8.602737639141074e-17 -3.829381758798998e-17 -8.602737639141074e-17 0.12848402696176342 0.9917115784417979
12621598666.666666 0.1379566505435154 0.990438267925188 -3.9114180433648736e-17 -8.563724495115531e-17 -3.9114180433648736e-17 -8.563724495115531e-17 0.1379560055452445 0.9904383577658091
12622216000.0 0.14741602737673537 0.9890745749802158 -3.993058264037855e-17 -8.523929733524444e-17 -3.993058264037855e-17 -8.523929733524444e-17 0.14741538329803702 0.9890746709763251
12622833333.333334 0.15686193930596945 0.9876205404896172 -4.074294980468603e-17 -8.483357362433956e-17 -4.074294980468603e-17 -8.483357362433956e-17 0.1568612962055807 0.9876206426318449
12623450666.666666 0.16629352354662572 0.9860762972642031 -4.1551207927492e-17 -8.442011460671938e-17 -4.1551207927492e-17 -8.442011460671938e-17 0.16629288148318844 0.9860764055426188
12624068000.0 0.1757099186228248 0.984441986354398 -4.2355283420881417e-17 -8.39989617741971e-17 -4.2355283420881417e-17 -8.39989617741971e-17 0.17570927765488054 0.9844421007585122
12624685333.333334 0.18511026444614287 0.9827177570373459 -4.3155103114778324e-17 -8.357015731798969e-17 -4.3155103114778324e-17 -8.357015731798969e-17 0.1851096246321271 0.9827178775561102
12625302666.666666 0.19449370239389113 0.9809037668033245 -4.3950594263565886e-17 -8.313374412453226e-17 -4.3950594263565886e-17 -8.313374412453226e-17 0.1944930637921284 0.9809038934251327
12625920000.0 0.2038593753879895 0.9790001813412763 -4.474168455272055e-17 -8.268976577119864e-17 -4.474168455272055e-17 -8.268976577119864e-17 0.2038587380566882 0.9790003140539679
12626537333.333334 0.21320642797274963 0.9770071745237763 -4.552830210533563e-17 -8.223826652199686e-17 -4.552830210533563e-17 -8.223826652199686e-17 0.21320579196999614 0.977007313314634
12627154666.666666 0.22253400639334703 0.9749249283910837 -4.6310375488648494e-17 -8.177929132317645e-17 -4.6310375488648494e-17 -8.177929132317645e-17 0.22253337177710045 0.9749250732468357
12627772000.0 0.23184125867385538 0.9727536331344931 -4.708783372052568e-17 -8.131288579877203e-17 -4.708783372052568e-17 -8.131288579877203e-17 0.231840625501943 0.9727537840413167
12628389333.333334 0.24112733469470762 0.9704934870790536 -4.7860606275846496e-17 -8.083909624612016e-17 -4.7860606275846496e-17 -8.083909624612016e-17 0.2411267030248189 0.9704936440225737
12629006666.666666 0.25039138627075913 0.9681446966653493 -4.8628623092930927e-17 -8.035796963126173e-17 -4.8628623092930927e-17 -8.035796963126173e-17 0.250390756160441 0.968144859630642
12629624000.0 0.25963256722845734 0.9657074764307229 -4.9391814579839425e-17 -7.986955358433345e-17 -4.9391814579839425e-17 -7.986955358433345e-17 0.25963193873510826 0.9657076454023144
12630241333.333334 0.2688500334833227 0.963182048989624 -5.015011162067702e-17 -7.937389639486895e-17 -5.015011162067702e-17 -7.937389639486895e-17 0.26884940666418816 0.9631822239514943
12630858666.666666 0.27804294311677397 0.9605686450133571 -5.0903445581821286e-17 -7.887104700705921e-17 -5.0903445581821286e-17 -7.887104700705921e-17 0.2780423180289408 0.9605688259489408
12631476000.0 0.2872104564534928 0.9578675032088779 -5.165174831814054e-17 -7.836105501492829e-17 -5.165174831814054e-17 -7.836105501492829e-17 0.28720983315388426 0.9578676901010655
12632093333.333334 0.29635173613765514 0.955078870297124 -5.2394952179111655e-17 -7.784397065748705e-17 -5.2394952179111655e-17 -7.784397065748705e-17 0.29635111468302544 0.9550790631282631
12632710666.666666 0.30546594720960624 0.952203000990425 -5.31329900149332e-17 -7.731984481379834e-17 -5.31329900149332e-17 -7.731984481379834e-17 0.3054653276565357 0.9522031997423231
12633328000.0 0.3145522571822605 0.9492401579691925 -5.386579518257631e-17 -7.678872899799338e-17 -5.386579518257631e-17 -7.678872899799338e-17 0.3145516395871501 0.9492403626231178
12633945333.333334 0.32360983611692357 0.9461906118579971 -5.459330155177788e-17 -7.62506753542381e-17 -5.459330155177788e-17 -7.62506753542381e-17 0.32360922053598984 0.9461908223946806
12634562666.666666 0.3326378566991258 0.94305464120084 -5.531544351099187e-17 -7.570573665163556e-17 -5.531544351099187e-17 -7.570573665163556e-17 0.33263724318839616 0.9430548576004776
12635180000.0 0.3416354943143236 0.9398325324356673 -5.603215597328822e-17 -7.515396627907466e-17 -5.603215597328822e-17 -7.515396627907466e-17 0.3416348829296309 0.9398327546779214
12635797333.333334 0.35060192712313903 0.9365245798682352 -5.674337438220274e-17 -7.459541824002135e-17 -5.674337438220274e-17 -7.459541824002135e-17 0.35060131792011595 0.9365248079322356
12636414666.666666 0.35953633613634406 0.9331310856452519 -5.744903471752481e-17 -7.403014714726275e-17 -5.744903471752481e-17 -7.403014714726275e-17 0.3595357291704194 0.9331313195096005
12637032000.0 0.3684379052898298 0.9296523597267291 -5.814907350105404e-17 -7.345820821758052e-17 -5.814907350105404e-17 -7.345820821758052e-17 0.36843730061622176 0.9296525993694982
12637649333.333334 0.37730582151906195 0.9260887198576925 -5.884342780228525e-17 -7.287965726638469e-17 -5.884342780228525e-17 -7.287965726638469e-17 0.3773052191927747 0.92608896525643
12638266666.666666 0.3861392748332691 0.9224404915391946 -5.95320352440405e-17 -7.229455070229415e-17 -5.95320352440405e-17 -7.229455070229415e-17 0.3861386749090868 0.922440742670925
12638884000.0 0.3949374583895837 0.9187080079985196 -6.021483400806628e-17 -7.170294552164931e-17 -6.021483400806628e-17 -7.170294552164931e-17 0.394936860922066 0.9187082648397462
12639501333.333334 0.4036995685666609 0.9148916101587794 -6.089176284055757e-17 -7.110489930298677e-17 -6.089176284055757e-17 -7.110489930298677e-17 0.40369897361013735 0.9148918726854854
12640118666.666666 0.4124248050379493 0.9109916466078287 -6.156276105762364e-17 -7.0500470201466e-17 -6.156276105762364e-17 -7.0500470201466e-17 0.4124242126465145 0.91099191479548
12640736000.0 0.42111237084520803 0.9070084735662404 -6.222776855074052e-17 -6.988971694320792e-17 -6.222776855074052e-17 -6.988971694320792e-17 0.4211117810727182 0.9070087473897903
12641353333.333334 0.4297614724707056 0.9029424548550393 -6.288672579206872e-17 -6.927269881965291e-17 -6.288672579206872e-17 -6.927269881965291e-17 0.4297608853707713 0.902942734288927
12641970666.666666 0.43837131991013834 0.8987939618622706 -6.353957383980348e-17 -6.864947568178886e-17 -6.353957383980348e-17 -6.864947568178886e-17 0.43837073553612166 0.8987942468804265
12642588000.0 0.4469411267446864 0.8945633735091237 -6.418625434340945e-17 -6.802010793438265e-17 -6.418625434340945e-17 -6.802010793438265e-17 0.4469405451496947 0.8945636640849701
12643205333.333334 0.4554701102127669 0.8902510762153589 -6.48267095488104e-17 -6.738465653015194e-17 -6.48267095488104e-17 -6.738465653015194e-17 0.4554695314496485 0.8902513723218125
12643822666.666666 0.4639574912816578 0.885857463863947 -6.546088230354627e-17 -6.674318296386457e-17 -6.546088230354627e-17 -6.674318296386457e-17 0.4639569154029982 0.8858577654734242
12644440000.0 0.47240249471852913 0.8813829377651595 -6.608871606183591e-17 -6.60957492664245e-17 -6.608871606183591e-17 -6.60957492664245e-17 0.4724019217766443 0.881383244849575
12645057333.333334 0.48080434916130194 0.8768279066198853 -6.671015488960247e-17 -6.544241799889029e-17 -6.671015488960247e-17 -6.544241799889029e-17 0.48080377920823464 0.8768282191506569
12645674666.666666 0.48916228718900423 0.8721927864823549 -6.732514346943639e-17 -6.478325224645026e-17 -6.732514346943639e-17 -6.478325224645026e-17 0.48916172027651955 0.872193104430406
12646292000.0 0.49747554539219246 0.8674780007219633 -6.793362710551131e-17 -6.411831561233733e-17 -6.793362710551131e-17 -6.411831561233733e-17 0.497474981571772 0.8674783240577244
12646909333.333334 0.5057433644422548 0.8626839799848275 -6.853555172840606e-17 -6.344767221173527e-17 -6.853555172840606e-17 -6.344767221173527e-17 0.5057428037650935 0.8626843086782413
12647526666.666666 0.5139649891610445 0.8578111621543062 -6.913086389989938e-17 -6.277138666560485e-17 -6.913086389989938e-17 -6.277138666560485e-17 0.513964431678045 0.8578114961748282
12648144000.0 0.5221396685898295 0.8528599923110111 -6.971951081770157e-17 -6.208952409446673e-17 -6.971951081770157e-17 -6.208952409446673e-17 0.5221391143515974 0.8528603316276137
12648761333.333334 0.530266656057786 0.8478309226922118 -7.030144032010244e-17 -6.140215011216637e-17 -7.030144032010244e-17 -6.140215011216637e-17 0.5302661051146265 0.8478312672733866
12649378666.666666 0.5383452092502273 0.8427244126505187 -7.087660089057415e-17 -6.070933081957784e-17 -7.087660089057415e-17 -6.070933081957784e-17 0.5383446616521392 0.8427247624642801
12649996000.0 0.5463745902764287 0.8375409286119088 -7.144494166231834e-17 -6.001113279825627e-17 -7.144494166231834e-17 -6.001113279825627e-17 0.5463740460730996 0.8375412836257946
12650613333.333334 0.5543540657370956 0.8322809440330741 -7.20064124227378e-17 -5.930762310406443e-17 -7.20064124227378e-17 -5.930762310406443e-17 0.5543535249778995 0.8322813042141523
12651230666.666666 0.5622829067911654 0.8269449393583049 -7.256096361784434e-17 -5.85988692607602e-17 -7.256096361784434e-17 -5.85988692607602e-17 0.5622823695251564 0.8269453046731738
12651848000.0 0.5701603892226376 0.821533401975431 -7.310854635662609e-17 -5.788493925351346e-17 -7.310854635662609e-17 -5.788493925351346e-17 0.5701598554985454 0.8215337723902231
12652465333.333334 0.5779857935065087 0.816046826171443 -7.364911241532235e-17 -5.716590152242034e-17 -7.364911241532235e-17 -5.716590152242034e-17 0.5779852633727361 0.8160472016518296
12653082666.666666 0.5857584048745226 0.8104857130873367 -7.41826142416415e-17 -5.644182495596965e-17 -7.41826142416415e-17 -5.644182495596965e-17 0.5857578783791391 0.8104860935985292
12653700000.0 0.5934775133805923 0.8048505706722356 -7.470900495894659e-17 -5.571277888442751e-17 -7.470900495894659e-17 -5.571277888442751e-17 0.5934769905713297 0.8048509561789882
12654317333.333334 0.601142413965462 0.7991419136371278 -7.522823837032231e-17 -5.497883307325583e-17 -7.522823837032231e-17 -5.497883307325583e-17 0.6011418948897123 0.7991423041037437
12654934666.666666 0.6087524065212474 0.7933602634077559 -7.574026896262347e-17 -5.42400577164312e-17 -7.574026896262347e-17 -5.42400577164312e-17 0.6087518912260552 0.793360658798087
12655552000.0 0.6163067959554008 0.7875061480769673 -7.624505191044013e-17 -5.349652342974959e-17 -7.624505191044013e-17 -5.349652342974959e-17 0.6163062844874622 0.7875065483544207
12656169333.333334 0.6238048922539996 0.7815801023566366 -7.67425430799843e-17 -5.274830124411439e-17 -7.67425430799843e-17 -5.274830124411439e-17 0.623804384659656 0.781580507484176
12656786666.666666 0.6312460105450202 0.7755826675286334 -7.723269903294115e-17 -5.19954625987451e-17 -7.723269903294115e-17 -5.19954625987451e-17 0.6312455068702549 0.7755830774687836
12657404000.0 0.6386294711606906 0.7695143913955412 -7.771547703022336e-17 -5.1238079334393825e-17 -7.771547703022336e-17 -5.1238079334393825e-17 0.6386289714511246 0.7695148061103911
12658021333.333334 0.6459545996997504 0.7633758282304787 -7.819083503568508e-17 -5.047622368649046e-17 -7.819083503568508e-17 -5.047622368649046e-17 0.6459541040006377 0.763376247681684
12658638666.666666 0.6532207270888503 0.7571675387266331 -7.865873171974354e-17 -4.9709968278290783e-17 -7.865873171974354e-17 -4.9709968278290783e-17 0.6532202354450745 0.7571679628754213
12659256000.0 0.660427189643907 0.7508900899458488 -7.911912646296258e-17 -4.893938611394704e-17 -7.911912646296258e-17 -4.893938611394704e-17 0.6604267020999767 0.7508905187530223
12659873333.333334 0.6675733291305255 0.7445440552669949 -7.957197935954025e-17 -4.8164550571590385e-17 -7.957197935954025e-17 -4.8164550571590385e-17 0.6675728457305702 0.7445444886929337
12660490666.666666 0.674658492824125 0.7381300143335956 -8.001725122074205e-17 -4.738553539636134e-17 -8.001725122074205e-17 -4.738553539636134e-17 0.6746580136118929 0.7381304523382632
12661108000.0 0.6816820335697917 0.7316485530006784 -8.045490357827839e-17 -4.6602414693385646e-17 -8.045490357827839e-17 -4.6602414693385646e-17 0.6816815585886432 0.7316489955436228
12661725333.333334 0.6886433098410102 0.7251002632816047 -8.088489868758436e-17 -4.5815262920772337e-17 -8.088489868758436e-17 -4.5815262920772337e-17 0.6886428391339143 0.7251007103219633
12662342666.666666 0.6955416857986142 0.7184857432936683 -8.130719953105627e-17 -4.502415488253552e-17 -8.130719953105627e-17 -4.502415488253552e-17 0.695541219408147 0.7184861947901727
12662960000.0 0.7023765313486799 0.7118055972036401 -8.172176982121212e-17 -4.4229165721500814e-17 -8.172176982121212e-17 -4.4229165721500814e-17 0.7023760693170176 0.7118060531146179
12663577333.333334 0.7091472222001158 0.7050604351725418 -8.212857400377736e-17 -4.343037091219201e-17 -8.212857400377736e-17 -4.343037091219201e-17 0.7091467645690331 0.7050608954559218
12664194666.666666 0.7158531399216871 0.6982508732999153 -8.252757726070681e-17 -4.262784625368077e-17 -8.252757726070681e-17 -4.262784625368077e-17 0.7158526867325536 0.698251337913232
12664812000.0 0.7224936719985245 0.6913775335675304 -8.291874551313557e-17 -4.1821667862411e-17 -8.291874551313557e-17 -4.1821667862411e-17 0.7224932232922984 0.6913780024679256
12665429333.333334 0.729068211888008 0.6844410437826306 -8.33020454242608e-17 -4.101191216499409e-17 -8.33020454242608e-17 -4.101191216499409e-17 0.7290677677052345 0.6844415169268593
12666046666.666666 0.7355761590751903 0.6774420375205723 -8.367744440214715e-17 -4.019865589099264e-17 -8.367744440214715e-17 -4.019865589099264e-17 0.7355757194559984 0.6774425148650061
12666664000.0 0.7420169191277841 0.6703811540668085 -8.404491060248053e-17 -3.938197606563813e-17 -8.404491060248053e-17 -3.938197606563813e-17 0.7420164841118816 0.67038163556744
12667281333.333334 0.7483899037502034 0.6632590383587662 -8.440441293121816e-17 -3.856195000259562e-17 -8.440441293121816e-17 -3.856195000259562e-17 0.7483894733768739 0.6632595239712125
12667898666.666666 0.754694530837494 0.6560763409267313 -8.475592104720543e-17 -3.773865529662328e-17 -8.475592104720543e-17 -3.773865529662328e-17 0.7546941051455932 0.656076830606238
12668516000.0 0.7609302245285161 0.6488337178344041 -8.509940536469893e-17 -3.691216981625603e-17 -8.509940536469893e-17 -3.691216981625603e-17 0.7609298035564682 0.6488342115358504
12669133333.333334 0.7670964152583034 0.6415318306192564 -8.543483705581571e-17 -3.6082571696477115e-17 -8.543483705581571e-17 -3.6082571696477115e-17 0.7670959990440976 0.6415323282971575
12669750666.666666 0.7731925398103828 0.6341713462317605 -8.576218805292858e-17 -3.5249939331323475e-17 -8.576218805292858e-17 -3.5249939331323475e-17 0.7731921283915707 0.6341718478402736
12670368000.0 0.7792180413680707 0.6267529369746437 -8.608143105097589e-17 -3.4414351366504254e-17 -8.608143105097589e-17 -3.4414351366504254e-17 0.7792176347817616 0.6267534424675715
