! Parameters = {f0=12700.012000; bw=77.238000; Q=6100.000000; N=10; m_0_1=1.156251; m_1_1=-1.420977; m_1_2=0.991063; m_2_2=-1.421626; m_2_3=0.628026; m_2_8=-0.005124; m_2_9=0.031580; m_3_3=-1.423563; m_3_4=0.516555; m_3_7=-0.004524; m_3_8=-0.101612; m_3_9=-0.005124; m_4_4=-1.426488; m_4_5=0.352890; m_4_6=-0.001007; m_4_7=-0.122161; m_4_8=-0.004524; m_5_5=-1.426106; m_5_6=0.760245; m_5_7=-0.001007; m_6_6=-1.426107; m_6_7=0.353232; m_7_7=-1.426474; m_7_8=0.516673; m_8_8=-1.423565; m_8_9=0.628339; m_9_9=-1.421631; m_9_10=0.992141; m_10_10=-1.420987; m_10_11=1.157046}
!
! Created with skrf (http://scikit-rf.org).
# Hz S RI R 50.0 
!freq ReS11 ImS11 ReS21 ImS21 ReS12 ImS12 ReS22 ImS22
12607400000.0 0.9320361592654578 0.3623652823071621 -6.238263219042901e-17 -5.176823969763364e-18 -6.238263219042901e-17 -5.176823969763364e-18 0.9320359384497358 0.3623658502645832
12608017333.333334 0.9346068654898547 0.3556824524475199 -6.24062922460628e-17 -4.723559569222908e-18 -6.24062922460628e-17 -4.723559569222908e-18 0.9346066487570824 0.3556830219435684
12608634666.666666 0.9371296555920515 0.3489813871967627 -6.242666263819286e-17 -4.270224430273059e-18 -6.242666263819286e-17 -4.270224430273059e-18 0.9371294429529397 0.34898195820209177
12609252000.0 0.9396044002318062 0.3422624301101139 -6.244374358523574e-17 -3.816842401558332e-18 -6.244374358523574e-17 -3.816842401558332e-18 0.9396041916968556 0.34226300259530257
12609869333.333334 0.9420309725321201 0.3355259256600628 -6.24575354783063e-17 -3.36343732484632e-18 -6.24575354783063e-17 -3.36343732484632e-18 0.9420307681116188 0.3355264995956167
12610486666.666666 0.9444092480856885 0.3287722192188353 -6.246803888112933e-17 -2.910033033780277e-18 -6.246803888112933e-17 -2.910033033780277e-18 0.9444090477897138 0.32877279457518904
12611104000.0 0.9467391049613897 0.32200165704039485 -6.247525452994304e-17 -2.456653352613106e-18 -6.247525452994304e-17 -2.456653352613106e-18 0.9467389087998064 0.32200223378791304
12611721333.333334 0.9490204237104003 0.3152145862430643 -6.24791833333921e-17 -2.003322094984946e-18 -6.24791833333921e-17 -2.003322094984946e-18 0.9490202316928593 0.3152151643520428
12612338666.666666 0.9512530873724142 0.3084113547914614 -6.247982637241285e-17 -1.5500630626591684e-18 -6.247982637241285e-17 -1.5500630626591684e-18 0.9512528995083539 0.3084119342321294
12612956000.0 0.9534369814816275 0.3015923114786859 -6.247718490010888e-17 -1.0969000442772532e-18 -6.247718490010888e-17 -1.0969000442772532e-18 0.9534367977802726 0.3015928922212075
12613573333.333334 0.9555719940725649 0.2947578059085727 -6.247126034161778e-17 -6.438568141308331e-19 -6.247126034161778e-17 -6.438568141308331e-19 0.9555718145429257 0.2947583879230479
12614190666.666666 0.9576580156858533 0.28790818847765925 -6.24620542939691e-17 -1.909571309012213e-19 -6.24620542939691e-17 -1.909571309012213e-19 0.9576578403367249 0.2879087717341258
12614808000.0 0.9596949393738263 0.2810438103572489 -6.2449568525933e-17 2.6177526357133505e-19 -6.2449568525933e-17 2.6177526357133505e-19 0.9596947682137894 0.28104439482568394
12615425333.333334 0.961682660706006 0.27416502347540617 -6.243380497786013e-17 7.143166455365599e-19 -6.243380497786013e-17 7.143166455365599e-19 0.961682493743425 0.2741656091257275
12616042666.666666 0.963621077774459 0.2672721804989147 -6.241476576151274e-17 1.166643310562095e-18 -6.241476576151274e-17 1.166643310562095e-18 0.9636209150174818 0.2672727673009824
12616660000.0 0.9655100911990167 0.26036563481519504 -6.239245315988643e-17 1.618731574777696e-18 -6.239245315988643e-17 1.618731574777696e-18 0.9655099326555766 0.2603662227388134
12617277333.333334 0.9673496041323851 0.2534457405141615 -6.23668696270233e-17 2.0705577761107642e-18 -6.23668696270233e-17 2.0705577761107642e-18 0.967349449810197 0.2534463295290801
12617894666.666666 0.9691395222650661 0.24651285237020393 -6.233801778781666e-17 2.5220982755113953e-18 -6.233801778781666e-17 2.5220982755113953e-18 0.969139372171628 0.24651344244611917
12618512000.0 0.9708797538302754 0.23956732582369702 -6.230590043780499e-17 2.973329458204074e-18 -6.230590043780499e-17 2.973329458204074e-18 0.9708796079728692 0.23956791693025434
12619129333.333334 0.9725702096085493 0.23260951696316315 -6.227052054295995e-17 3.4242277348933396e-18 -6.227052054295995e-17 3.4242277348933396e-18 0.9725700679942375 0.23261010906995783
12619746666.666666 0.9742108029323864 0.22563978250674036 -6.223188123946302e-17 3.874769543010143e-18 -6.223188123946302e-17 3.874769543010143e-18 0.9742106655680137 0.22564037558331934
12620364000.0 0.9758014496906895 0.21865847978389308 -6.218998583347366e-17 4.324931347938565e-18 -6.218998583347366e-17 4.324931347938565e-18 0.9758013165828823 0.21865907379975671
12620981333.333334 0.977342068333021 0.21166596671734195 -6.214483780089105e-17 4.774689644222986e-18 -6.214483780089105e-17 4.774689644222986e-18 0.9773419394881866 0.21166656164194536
12621598666.666666 0.9788325798738475 0.2046626018044366 -6.209644078710286e-17 5.2240209568155884e-18 -6.209644078710286e-17 5.2240209568155884e-18 0.9788324552981745 0.20466319760719143
12622216000.0 0.980272907896559 0.19764874409891453 -6.20447986067292e-17 5.672901842277673e-18 -6.20447986067292e-17 5.672901842277673e-18 0.9802727875960159 0.19764934074919013
12622833333.333334 0.9816629785573895 0.1906247531924647 -6.19899152433551e-17 6.121308890008818e-18 -6.19899152433551e-17 6.121308890008818e-18 0.9816628625377256 0.19062535065959021
12623450666.666666 0.9830027205892067 0.18359098919629221 -6.193179484925622e-17 6.56921872345447e-18 -6.193179484925622e-17 6.56921872345447e-18 0.9830026088559506 0.1835915874495578
12624068000.0 0.9842920653051564 0.17654781272268347 -6.18704417451139e-17 7.016608001328876e-18 -6.18704417451139e-17 7.016608001328876e-18 0.984291957863618 0.17654841173134217
12624685333.333334 0.9855309466022145 0.16949558486637853 -6.180586041972178e-17 7.46345341882859e-18 -6.180586041972178e-17 7.46345341882859e-18 0.9855308434574819 0.16949618459964752
12625302666.666666 0.9867193009645183 0.162434667186366 -6.173805552968709e-17 7.909731708824377e-18 -6.173805552968709e-17 7.909731708824377e-18 0.9867192021214581 0.16243526761342816
12625920000.0 0.9878570674666947 0.15536542168692588 -6.166703189911654e-17 8.355419643094445e-18 -6.166703189911654e-17 8.355419643094445e-18 0.9878569729299537 0.15536602277693176
12626537333.333334 0.988944187776919 0.14828821079946278 -6.159279451930132e-17 8.800494033502612e-18 -6.159279451930132e-17 8.800494033502612e-18 0.9889440975509224 0.1482888125215319
12627154666.666666 0.989980606159933 0.14120339736375617 -6.15153485483869e-17 9.244931733219451e-18 -6.15153485483869e-17 9.244931733219451e-18 0.9899805202488856 0.14120399968697878
12627772000.0 0.9909662694799299 0.13411134460918972 -6.143469931103794e-17 9.688709637912715e-18 -6.143469931103794e-17 9.688709637912715e-18 0.9909661878878144 0.13411194750262828
12628389333.333334 0.9919011272032195 0.12701241613652253 -6.13508522980941e-17 1.0131804686943982e-17 -6.13508522980941e-17 1.0131804686943982e-17 0.9919010499337952 0.127013019569213
12629006666.666666 0.9927851314008751 0.11990697589882504 -6.126381316621494e-17 1.057419386456925e-17 -6.126381316621494e-17 1.057419386456925e-17 0.9927850584576812 0.11990757983977902
12629624000.0 0.9936182367511536 0.11279538818313016 -6.117358773752021e-17 1.1015854201119548e-17 -6.117358773752021e-17 1.1015854201119548e-17 0.9936181681375063 0.11279599260133616
12630241333.333334 0.994400400541838 0.10567801759158724 -6.108018199921771e-17 1.1456762774197622e-17 -6.108018199921771e-17 1.1456762774197622e-17 0.9944003362608311 0.10567862245601231
12630858666.666666 0.9951315826724075 0.09855522902293873 -6.098360210322654e-17 1.189689670985269e-17 -6.098360210322654e-17 1.189689670985269e-17 0.9951315227269141 0.09855583430253022
12631476000.0 0.9958117456561283 0.09142738765353013 -6.088385436578566e-17 1.233623318378158e-17 -6.088385436578566e-17 1.233623318378158e-17 0.9958116900487969 0.09142799331721699
12632093333.333334 0.9964408546219422 0.08429485891884177 -6.078094526706296e-17 1.2774749422483534e-17 -6.078094526706296e-17 1.2774749422483534e-17 0.9964408033551999 0.0842954649355364
12632710666.666666 0.9970188773162619 0.07715800849475385 -6.067488145074716e-17 1.321242270445519e-17 -6.067488145074716e-17 1.321242270445519e-17 0.9970188303923114 0.07715861483335341
12633328000.0 0.9975457841046398 0.07001720227854345 -6.056566972363639e-17 1.3649230361354583e-17 -6.056566972363639e-17 1.3649230361354583e-17 0.9975457415254635 0.0700178089079319
12633945333.333334 0.9980215479732705 0.06287280637040918 -6.04533170552175e-17 1.4085149779170696e-17 -6.04533170552175e-17 1.4085149779170696e-17 0.9980215097406268 0.06287341325945847
12634562666.666666 0.9984461445303842 0.055725187054559706 -6.033783057723461e-17 1.4520158399396477e-17 -6.033783057723461e-17 1.4520158399396477e-17 0.9984461106458075 0.05572579417213151
12635180000.0 0.9988195520074924 0.048574710780463104 -6.021921758325366e-17 1.4954233720181317e-17 -6.021921758325366e-17 1.4954233720181317e-17 0.9988195224722952 0.04857531809541047
12635797333.333334 0.9991417512605112 0.04142174414403134 -6.009748552821419e-17 1.5387353297499007e-17 -6.009748552821419e-17 1.5387353297499007e-17 0.999141726075782 0.0414223516252002
12636414666.666666 0.9994127257707306 0.03426665386893861 -5.997264202797699e-17 1.581949474629509e-17 -5.997264202797699e-17 1.581949474629509e-17 0.9994127049373355 0.03426726148516944
12637032000.0 0.999632461645675 0.027109806787649786 -5.984469485885854e-17 1.62506357416494e-17 -5.984469485885854e-17 1.62506357416494e-17 0.9996324451642568 0.027110414507779193
12637649333.333334 0.9998009476198071 0.019951569822726785 -5.971365195716175e-17 1.6680754019917964e-17 -5.971365195716175e-17 1.6680754019917964e-17 0.9998009354907859 0.01995217761558911
12638266666.666666 0.9999181750551084 0.012792309967988616 -5.957952141869644e-17 1.7109827379879807e-17 -5.957952141869644e-17 1.7109827379879807e-17 0.9999181672786804 0.012792917802417487
12638884000.0 0.9999841379415205 0.005632394269695987 -5.944231149829164e-17 1.753783368387825e-17 -5.944231149829164e-17 1.753783368387825e-17 0.9999841345176591 0.005633002114525962
12639501333.333334 0.9999988328972551 -0.00152781019226664 -5.930203060930017e-17 1.796475085895846e-17 -5.930203060930017e-17 1.796475085895846e-17 0.9999988338257106 -0.001527202368198497
12640118666.666666 0.9999622591689645 -0.008687936323182382 -5.915868732309556e-17 1.8390556897999585e-17 -5.915868732309556e-17 1.8390556897999585e-17 0.9999622644492644 -0.008687328551034898
12640736000.0 0.9998744186317835 -0.015847617032464505 -5.901229036855699e-17 1.8815229860852707e-17 -5.901229036855699e-17 1.8815229860852707e-17 0.9998744282632318 -0.0158470093433908
12641353333.333334 0.9997353157892314 -0.023006485252192507 -5.886284863155563e-17 1.923874787545027e-17 -5.886284863155563e-17 1.923874787545027e-17 0.9997353297709097 -0.023005877677338415
12641970666.666666 0.9995449577729824 -0.030164173956215443 -5.871037115442069e-17 1.9661089138944446e-17 -5.871037115442069e-17 1.9661089138944446e-17 0.9995449761037483 -0.03016356652671787
12642588000.0 0.9993033543424971 -0.03732031617882675 -5.855486713540632e-17 2.008223191881657e-17 -5.855486713540632e-17 2.008223191881657e-17 0.9993033770209861 -0.03731970892581212
12643205333.333334 0.9990105178845261 -0.04447454503357815 -5.839634592814786e-17 2.0502154553990858e-17 -5.839634592814786e-17 2.0502154553990858e-17 0.9990105449091514 -0.044473937988160836
12643822666.666666 0.9986664634124711 -0.05162649373220317 -5.823481704110765e-17 2.092083545595049e-17 -5.823481704110765e-17 2.092083545595049e-17 0.9986664947814219 -0.05162588692548379
12644440000.0 0.998271208565616 -0.05877579560327964 -5.807029013701805e-17 2.1338253109834466e-17 -5.807029013701805e-17 2.1338253109834466e-17 0.9982712442768599 -0.05877518906634358
12645057333.333334 0.9978247736082271 -0.0659220841110572 -5.790277503231387e-17 2.175438607553861e-17 -5.790277503231387e-17 2.175438607553861e-17 0.997824813659509 -0.06592147787497295
12645674666.666666 0.9973271814285128 -0.07306499287424899 -5.773228169655424e-17 2.216921298882046e-17 -5.773228169655424e-17 2.216921298882046e-17 0.9973272258173558 -0.07306438697006666
12646292000.0 0.9967784575374349 -0.08020415568501404 -5.755882025184105e-17 2.2582712562384587e-17 -5.755882025184105e-17 2.2582712562384587e-17 0.996778506261141 -0.08020355014376371
12646909333.333334 0.9961786300674313 -0.08733920652736395 -5.738240097222788e-17 2.2994863586972207e-17 -5.738240097222788e-17 2.2994863586972207e-17 0.9961786831230782 -0.08733860138005392
12647526666.666666 0.9955277297709479 -0.0944697795962112 -5.720303428312154e-17 2.3405644932442555e-17 -5.720303428312154e-17 2.3405644932442555e-17 0.9955277871553927 -0.09446917487382664
12648144000.0 0.9948257900188646 -0.10159550931609522 -5.702073076067284e-17 2.3815035548858007e-17 -5.702073076067284e-17 2.3815035548858007e-17 0.9948258517287424 -0.10159490504959645
12648761333.333334 0.9940728467987939 -0.10871603035981167 -5.683550113116584e-17 2.4223014467549937e-17 -5.683550113116584e-17 2.4223014467549937e-17 0.9940729128305196 -0.10871542658013274
12649378666.666666 0.9932689387132444 -0.11583097766711453 -5.664735627039614e-17 2.4629560802188052e-17 -5.664735627039614e-17 2.4629560802188052e-17 0.9932690090630102 -0.11583037440516136
12649996000.0 0.9924141069776079 -0.12293998646368608 -5.645630720303773e-17 2.5034653749852952e-17 -5.645630720303773e-17 2.5034653749852952e-17 0.9924141816413861 -0.12293938375033514
12650613333.333334 0.9915083954180778 -0.13004269227958437 -5.626236510200892e-17 2.5438272592089406e-17 -5.626236510200892e-17 2.5438272592089406e-17 0.9915084743916197 -0.130042090145681
12651230666.666666 0.9905518504694051 -0.1371387309679297 -5.60655412878271e-17 2.5840396695962965e-17 -5.60655412878271e-17 2.5840396695962965e-17 0.9905519337482396 -0.1371381294442862
12651848000.0 0.9895445211724768 -0.14422773872382635 -5.586584722795643e-17 2.6241005515109768e-17 -5.586584722795643e-17 2.6241005515109768e-17 0.9895446087519164 -0.1442271378412213
12652465333.333334 0.988486459171848 -0.15130935210276267 -5.566329453614863e-17 2.6640078590781767e-17 -5.566329453614863e-17 2.6640078590781767e-17 0.9884865510469819 -0.15130875189193838
12653082666.666666 0.9873777187130831 -0.15838320803924305 -5.545789497177683e-17 2.703759555288515e-17 -5.545789497177683e-17 2.703759555288515e-17 0.9873778148787831 -0.15838260853090463
12653700000.0 0.9862183566399403 -0.1654489438656837 -5.524966043915703e-17 2.7433536121023046e-17 -5.524966043915703e-17 2.7433536121023046e-17 0.986218457090857 -0.16544834509049702
12654317333.333334 0.9850084323915131 -0.1725061973306124 -5.503860298687474e-17 2.782788010550991e-17 -5.503860298687474e-17 2.782788010550991e-17 0.9850085371220785 -0.1725055993192029
12654934666.666666 0.9837480079991433 -0.1795546066175221 -5.482473480708857e-17 2.822060740841018e-17 -5.482473480708857e-17 2.822060740841018e-17 0.9837481170035695 -0.1795540094004729
12655552000.0 0.9824371480832318 -0.1865938103634194 -5.460806823483404e-17 2.861169802455771e-17 -5.460806823483404e-17 2.861169802455771e-17 0.9824372613555158 -0.18659321397127035
12656169333.333334 0.9810759198499818 -0.19362344767710102 -5.438861574732755e-17 2.900113204255614e-17 -5.438861574732755e-17 2.900113204255614e-17 0.9810760373838979 -0.1936228521403461
12656786666.666666 0.9796643930878907 -0.2006431581579342 -5.416638996324746e-17 2.938888964580321e-17 -5.416638996324746e-17 2.938888964580321e-17 0.9796645148769988 -0.20064256350702106
12657404000.0 0.978202640164206 -0.20765258191419536 -5.3941403642020394e-17 2.9774951113486545e-17 -5.3941403642020394e-17 2.9774951113486545e-17 0.9782027662018471 -0.20765198817952307
12658021333.333334 0.9766907360212072 -0.21465135958154888 -5.371366968309553e-17 3.0159296821583353e-17 -5.371366968309553e-17 3.0159296821583353e-17 0.9766908663005051 -0.2146507667934666
12658638666.666666 0.9751287581723629 -0.2216391323414713 -5.348320112521365e-17 3.0541907243851596e-17 -5.348320112521365e-17 3.0541907243851596e-17 0.9751288926862249 -0.22163854053027665
12659256000.0 0.9735167866983587 -0.22861554193964742 -5.325001114566439e-17 3.092276295282303e-17 -5.325001114566439e-17 3.092276295282303e-17 0.9735169254394751 -0.22861495113558492
12659873333.333334 0.9718549042429878 -0.23558023070433717 -5.3014113059544725e-17 3.1301844620777275e-17 -5.3014113059544725e-17 3.1301844620777275e-17 0.9718550472038343 -0.235579640937597
12660490666.666666 0.9701431960089258 -0.24253284156468632 -5.2775520319007175e-17 3.1679133020716304e-17 -5.2775520319007175e-17 3.1679133020716304e-17 0.9701433431817624 -0.24253225286540267
12661108000.0 0.9683817497533266 -0.24947301806917072 -5.2534246512490785e-17 3.205460902734967e-17 -5.2534246512490785e-17 3.205460902734967e-17 0.968381901130196 -0.2494724304674195
12661725333.333334 0.9665706557833876 -0.25640040440359424 -5.229030536396712e-17 3.2428253618038045e-17 -5.229030536396712e-17 3.2428253618038045e-17 0.96657081135612 -0.2563998179293927
12662342666.666666 0.9647100069516578 -0.2633146454096081 -5.2043710732156863e-17 3.280004787376855e-17 -5.2043710732156863e-17 3.280004787376855e-17 0.9647101667118679 -0.26331406009291247
12662960000.0 0.962799898651306 -0.27021538660278066 -5.179447660975414e-17 3.316997298010019e-17 -5.179447660975414e-17 3.316997298010019e-17 0.9628000625903954 -0.27021480247348517
12663577333.333334 0.9608404288112264 -0.2771022741907993 -5.154261712263839e-17 3.3538010228112424e-17 -5.154261712263839e-17 3.3538010228112424e-17 0.9608405969203837 -0.2771016912787344
12664194666.666666 0.958831697891019 -0.2839749550916093 -5.128814652908099e-17 3.390414101534648e-17 -5.128814652908099e-17 3.390414101534648e-17 0.9588318701612177 -0.28397437342653964
12664812000.0 0.9567738088758329 -0.29083307695151417 -5.1031079218945635e-17 3.4268346846739035e-17 -5.1031079218945635e-17 3.4268346846739035e-17 0.9567739852978372 -0.2908324965631383
12665429333.333334 0.9546668672710877 -0.29767628816327046 -5.0771429712876847e-17 3.463060933555882e-17 -5.0771429712876847e-17 3.463060933555882e-17 0.9546670478354478 -0.2976757090812182
12666046666.666666 0.952510981097097 -0.3045042378839756 -5.0509212661497e-17 3.499091020431377e-17 -5.0509212661497e-17 3.499091020431377e-17 0.9525111657941517 -0.3045036601378068
12666664000.0 0.9503062608834429 -0.3113165760533554 -5.0244442844571657e-17 3.534923128568983e-17 -5.0244442844571657e-17 3.534923128568983e-17 0.9503064497033209 -0.3113159996725586
12667281333.333334 0.9480528196634281 -0.318112953411331 -4.9977135170198335e-17 3.570555452344051e-17 -4.9977135170198335e-17 3.570555452344051e-17 0.9480530125960466 -0.3181123784253219
12667898666.666666 0.9457507729681919 -0.32489302151619587 -4.9707304673963236e-17 3.605986197330573e-17 -4.9707304673963236e-17 3.605986197330573e-17 0.9457509700032598 -0.3248924479543161
12668516000.0 0.9434002388207986 -0.33165643276245316 -4.9434966518102165e-17 3.641213580391043e-17 -4.9434966518102165e-17 3.641213580391043e-17 0.943400439947815 -0.3316558606539683
12669133333.333334 0.9410013377302299 -0.33840284039850166 -4.916013599066434e-17 3.6762358297644187e-17 -4.916013599066434e-17 3.6762358297644187e-17 0.9410015429384843 -0.33840226977259974
12669750666.666666 0.9385541926851695 -0.345131898544521 -4.88828285046502e-17 3.711051185156125e-17 -4.88828285046502e-17 3.711051185156125e-17 0.9385544019637438 -0.3451313294303114
12670368000.0 0.936058929147698 -0.3518432622102046 -4.8603059597158454e-17 3.74565789782529e-17 -4.8603059597158454e-17 3.74565789782529e-17 0.936059142485468 -0.3518426946367167
