! Parameters = {f0=12700.012000; bw=77.238000; Q=6100.000000; N=10; m_0_1=1.291787; m_1_1=0.612056; m_1_2=1.126599; m_2_2=0.611407; m_2_3=0.763562; m_2_8=0.001653; m_2_9=0.038357; m_3_3=0.609470; m_3_4=0.652091; m_3_7=0.002253; m_3_8=-0.094835; m_3_9=0.001653; m_4_4=0.606545; m_4_5=0.488426; m_4_6=0.005770; m_4_7=-0.115384; m_4_8=0.002253; m_5_5=0.606927; m_5_6=0.895781; m_5_7=0.005770; m_6_6=0.606926; m_6_7=0.488768; m_7_7=0.606559; m_7_8=0.652209; m_8_8=0.609468; m_8_9=0.763875; m_9_9=0.611402; m_9_10=1.127677; m_10_10=0.612046; m_10_11=1.292582}
!
! Created with skrf (http://scikit-rf.org).
# Hz S RI R 50.0 
!freq ReS11 ImS11 ReS21 ImS21 ReS12 ImS12 ReS22 ImS22
12607400000.0 0.9855512949438838 0.16937722702373811 -1.215858320132357e-16 1.439082895928054e-17 -1.215858320132357e-16 1.439082895928054e-17 0.9855511796740375 0.1693778977403199
12608017333.333334 0.9873812451671446 0.15836122218521884 -1.2139237896229108e-16 1.5755337489531573e-17 -1.2139237896229108e-16 1.5755337489531573e-17 0.9873811373995128 0.15836189411427684
12608634666.666666 0.9890880678819503 0.14732546953384495 -1.211836220269449e-16 1.7117315589610003e-17 -1.211836220269449e-16 1.7117315589610003e-17 0.9890879676292365 0.1473261425914743
12609252000.0 0.9906715502457607 0.13627134523985177 -1.2095959364443318e-16 1.847659172262597e-17 -1.2095959364443318e-16 1.847659172262597e-17 0.99067145751973 0.136272019342015
12609869333.333334 0.9921314947967015 0.12520022776449255 -1.207203281734994e-16 1.9832994761075377e-17 -1.207203281734994e-16 1.9832994761075377e-17 0.9921314096081798 0.12520090282703036
12610486666.666666 0.9934677194781835 0.11411349768819999 -1.2046586188929317e-16 2.118635400834378e-17 -1.2046586188929317e-16 2.118635400834378e-17 0.9934676418370556 0.11411417362684141
12611104000.0 0.9946800576616548 0.10301253753803136 -1.2019623297801704e-16 2.2536499220201853e-17 -1.2019623297801704e-16 2.2536499220201853e-17 0.9946799875768633 0.10301321426840444
12611721333.333334 0.9957683581673094 0.09189873161582991 -1.1991148153135547e-16 2.388326062611899e-17 -1.1991148153135547e-16 2.388326062611899e-17 0.9957682956468537 0.09189940905347234
12612338666.666666 0.9967324852829883 0.08077346582520621 -1.1961164954064268e-16 2.52264689506213e-17 -1.1961164954064268e-16 2.52264689506213e-17 0.9967324303339233 0.08077414388557559
12612956000.0 0.9975723187810911 0.06963812749877024 -1.1929678089079953e-16 2.6565955434544326e-17 -1.1929678089079953e-16 2.6565955434544326e-17 0.9975722714095286 0.06963880609725501
12613573333.333334 0.9982877539335593 0.058494105225271535 -1.1896692135404568e-16 2.7901551856151006e-17 -1.1896692135404568e-16 2.7901551856151006e-17 0.9982877141446652 0.05849478427720117
12614190666.666666 0.9988787015249482 0.04734278867632734 -1.1862211858335348e-16 2.92330905522717e-17 -1.1862211858335348e-16 2.92330905522717e-17 0.99887866932294 0.047343468096983025
12614808000.0 0.9993450878635401 0.03618556843315696 -1.182624221056831e-16 3.0560404439294067e-17 -1.182624221056831e-16 3.0560404439294067e-17 0.9993450632516916 0.03618624813778231
12615425333.333334 0.9996868547905444 0.025023835813203776 -1.1788788331497283e-16 3.188332703411193e-17 -1.1788788331497283e-16 3.188332703411193e-17 0.9996868377711822 0.02502451571701525
12616042666.666666 0.9999039596873467 0.013858982696522455 -1.174985554649046e-16 3.320169247495269e-17 -1.174985554649046e-16 3.320169247495269e-17 0.9999039502618501 0.013859662714719978
12616660000.0 0.9999963754808192 0.0026924013523805506 -1.1709449366143035e-16 3.451533554214851e-17 -1.1709449366143035e-16 3.451533554214851e-17 0.99999637364962 0.0026930814001580594
12617277333.333334 0.9999640906467009 -0.008474515734501021 -1.1667575485506459e-16 3.5824091678820935e-17 -1.1667575485506459e-16 3.5824091678820935e-17 0.9999640964092845 -0.008473835741944965
12617894666.666666 0.9998071092110353 -0.01964037603739341 -1.1624239783296118e-16 3.7127797011423924e-17 -1.1624239783296118e-16 3.7127797011423924e-17 0.9998071225659401 -0.019639696184845054
12618512000.0 0.9995254507496635 -0.030803787161635707 -1.1579448321073588e-16 3.8426288370275066e-17 -1.1579448321073588e-16 3.8426288370275066e-17 0.9995254716944815 -0.030803107533855557
12619129333.333334 0.9991191503857899 -0.04196335701769971 -1.1533207342408642e-16 3.9719403309907034e-17 -1.1533207342408642e-16 3.9719403309907034e-17 0.9991191789171665 -0.04196267769941194
12619746666.666666 0.9985882587855993 -0.05311769399515444 -1.148552327201693e-16 4.1006980129368894e-17 -1.148552327201693e-16 4.1006980129368894e-17 0.9985882948992347 -0.05311701507103635
12620364000.0 0.9979328421519273 -0.0642654071362864 -1.1436402714875107e-16 4.228885789242155e-17 -1.1436402714875107e-16 4.228885789242155e-17 0.9979328858425781 -0.06426472869095795
12620981333.333334 0.9971529822160322 -0.07540510630912803 -1.1385852455314674e-16 4.356487644759972e-17 -1.1385852455314674e-16 4.356487644759972e-17 0.9971530334775072 -0.075404428427141
12621598666.666666 0.9962487762273768 -0.08653540238117725 -1.1333879456092086e-16 4.4834876448198464e-17 -1.1333879456092086e-16 4.4834876448198464e-17 0.9962488350525437 -0.08653472514700501
12622216000.0 0.9952203369415072 -0.09765490739256712 -1.1280490857437536e-16 4.609869937213128e-17 -1.1280490857437536e-16 4.609869937213128e-17 0.9952204033222913 -0.09765423089059405
12622833333.333334 0.9940677926059998 -0.10876223472903257 -1.122569397608063e-16 4.7356187541698013e-17 -1.122569397608063e-16 4.7356187541698013e-17 0.9940678665333852 -0.10876155904354348
12623450666.666666 0.9927912869444697 -0.11985599929482275 -1.1169496304256072e-16 4.86071841431901e-17 -1.1169496304256072e-16 4.86071841431901e-17 0.9927913684085002 -0.11985532450999244
12624068000.0 0.991390979138645 -0.1309348176855095 -1.1111905508685262e-16 4.985153324643696e-17 -1.1111905508685262e-16 4.985153324643696e-17 0.9913910681284241 -0.13093414388539196
12624685333.333334 0.9898670438084866 -0.14199730836063867 -1.1052929429536449e-16 5.108907982421874e-17 -1.1052929429536449e-16 5.108907982421874e-17 0.9898671403121827 -0.14199663562915726
12625302666.666666 0.9882196709904817 -0.15304209181556042 -1.0992576079366443e-16 5.231966977149534e-17 -1.0992576079366443e-16 5.231966977149534e-17 0.9882197749953266 -0.1530414202364969
12625920000.0 0.9864490661138736 -0.164067790753961 -1.0930853642035634e-16 5.354314992462009e-17 -1.0930853642035634e-16 5.354314992462009e-17 0.9864491776061645 -0.16406712041094512
12626537333.333334 0.9845554499750859 -0.1750730302593034 -1.0867770471607114e-16 5.475936808031823e-17 -1.0867770471607114e-16 5.475936808031823e-17 0.9845555689401884 -0.17507236123580275
12627154666.666666 0.9825390587101955 -0.18605643796628193 -1.0803335091220653e-16 5.596817301461676e-17 -1.0803335091220653e-16 5.596817301461676e-17 0.9825391851325452 -0.18605577034559148
12627772000.0 0.9804001437654349 -0.19701664423223708 -1.073755619194715e-16 5.716941450161142e-17 -1.073755619194715e-16 5.716941450161142e-17 0.9804002776285383 -0.19701597809746865
12628389333.333334 0.9781389718659196 -0.2079522823075047 -1.0670442631624215e-16 5.836294333206731e-17 -1.0670442631624215e-16 5.836294333206731e-17 0.9781391131523566 -0.2079516177415765
12629006666.666666 0.9757558249822806 -0.2188619885063802 -1.0602003433666258e-16 5.954861133197115e-17 -1.0602003433666258e-16 5.954861133197115e-17 0.9757559736737084 -0.21886132559200702
12629624000.0 0.9732510002956025 -0.22974440237669896 -1.0532247785859884e-16 6.07262713808393e-17 -1.0532247785859884e-16 6.07262713808393e-17 0.9732511563727567 -0.2297437411963816
12630241333.333334 0.9706248101603048 -0.2405981668697643 -1.0461185039134601e-16 6.189577742996372e-17 -1.0461185039134601e-16 6.189577742996372e-17 0.970624973603 -0.24059750750577885
12630858666.666666 0.967877582065241 -0.2514219285093508 -1.0388824706315445e-16 6.30569845204794e-17 -1.0388824706315445e-16 6.30569845204794e-17 0.9678777528523776 -0.2514212710437393
12631476000.0 0.9650096585927608 -0.262214337560899 -1.0315176460854025e-16 6.42097488013094e-17 -1.0315176460854025e-16 6.42097488013094e-17 0.9650098367023249 -0.2622136820754585
12632093333.333334 0.9620213973761194 -0.27297404819930415 -1.024025013554243e-16 6.535392754692279e-17 -1.024025013554243e-16 6.535392754692279e-17 0.9620215827851861 -0.2729733947755771
12632710666.666666 0.9589131710548213 -0.283699718676992 -1.016405572120503e-16 6.648937917498044e-17 -1.016405572120503e-16 6.648937917498044e-17 0.9589133637395572 -0.2836990673962552
12633328000.0 0.9556853672280857 -0.2943900114914524 -1.0086603365369776e-16 6.761596326384355e-17 -1.0086603365369776e-16 6.761596326384355e-17 0.9556855671637529 -0.294389362434708
12633945333.333334 0.952338388406628 -0.3050435935516181 -1.0007903370924944e-16 6.873354056985637e-17 -1.0007903370924944e-16 6.873354056985637e-17 0.9523385955675874 -0.305042946799583
12634562666.666666 0.9488726519624089 -0.31565913634432236 -9.927966194751197e-17 6.984197304455625e-17 -9.927966194751197e-17 6.984197304455625e-17 0.9488728663221221 -0.31565849197741797
12635180000.0 0.9452885900765645 -0.3262353161000183 -9.846802446338771e-17 7.0941123851666e-17 -9.846802446338771e-17 7.0941123851666e-17 0.945288811607599 -0.32623467419836105
12635797333.333334 0.9415866496855579 -0.3367708139577197 -9.764422886383261e-17 7.20308573839624e-17 -9.764422886383261e-17 7.20308573839624e-17 0.9415868783595889 -0.3367701746011104
12636414666.666666 0.9377672924254471 -0.3472643161294644 -9.680838425365094e-17 7.311103927995234e-17 -9.680838425365094e-17 7.311103927995234e-17 0.9377675282132623 -0.34726367939737923
12637032000.0 0.9338309945742822 -0.35771451406425386 -9.596060122107252e-17 7.418153644042838e-17 -9.596060122107252e-17 7.418153644042838e-17 0.9338312374457852 -0.3577138800358336
12637649333.333334 0.9297782469927095 -0.36812010461122824 -9.51009918231892e-17 7.524221704480327e-17 -9.51009918231892e-17 7.524221704480327e-17 0.9297784969169242 -0.36811947336526935
12638266666.666666 0.9256095550628124 -0.37847979018203964 -9.422966957118254e-17 7.629295056731476e-17 -9.422966957118254e-17 7.629295056731476e-17 0.9256098120078844 -0.37847916179698293
12638884000.0 0.921325438625058 -0.38879227891274104 -9.334674941537433e-17 7.7333607793057e-17 -9.334674941537433e-17 7.7333607793057e-17 0.9213257025582621 -0.38879165346666367
12639501333.333334 0.9169264319134306 -0.399056284824989 -9.245234773011795e-17 7.836406083381797e-17 -9.245234773011795e-17 7.836406083381797e-17 0.9169267028011735 -0.3990556623955942
12640118666.666666 0.9124130834889446 -0.40927052798609287 -9.154658229851265e-17 7.938418314374944e-17 -9.154658229851265e-17 7.938418314374944e-17 0.9124133612967676 -0.4092699086506993
12640736000.0 0.907785956171009 -0.41943373466914297 -9.062957229689341e-17 8.039384953491653e-17 -9.062957229689341e-17 8.039384953491653e-17 0.9077862408635964 -0.419433118504677
12641353333.333334 0.9030456269675478 -0.42954463751117294 -8.970143827926401e-17 8.13929361925435e-17 -8.970143827926401e-17 8.13929361925435e-17 0.9030459185087277 -0.42954402459415775
12641970666.666666 0.8981926870027532 -0.43960197567184867 -8.876230216143683e-17 8.23813206902185e-17 -8.876230216143683e-17 8.23813206902185e-17 0.8981929853555015 -0.439601366078394
12642588000.0 0.893227741443555 -0.4496044949902795 -8.78122872050782e-17 8.33588820048367e-17 -8.78122872050782e-17 8.33588820048367e-17 0.8932280465700038 -0.44960388879607416
12643205333.333334 0.8881514094241173 -0.4595509481415216 -8.68515180015851e-17 8.432550053136591e-17 -8.68515180015851e-17 8.432550053136591e-17 0.8881517212855584 -0.4595503454218236
12643822666.666666 0.8829643239685384 -0.4694400947922963 -8.588012045577146e-17 8.528105809745628e-17 -8.588012045577146e-17 8.528105809745628e-17 0.8829646425254261 -0.4694394956219223
12644440000.0 0.8776671319120494 -0.47927070175538056 -8.489822176941555e-17 8.62254379778406e-17 -8.489822176941555e-17 8.62254379778406e-17 0.8776674571240076 -0.4792701062086975
12645057333.333334 0.8722604938202964 -0.48904154314351633 -8.390595042465781e-17 8.715852490853905e-17 -8.390595042465781e-17 8.715852490853905e-17 0.8722608256461223 -0.48904095129443176
12645674666.666666 0.8667450839069892 -0.49875140052222866 -8.29034361672232e-17 8.808020510089278e-17 -8.29034361672232e-17 8.808020510089278e-17 0.8667454223046615 -0.49875081244418284
12646292000.0 0.8611215899496764 -0.5083990630620391 -8.18908099894714e-17 8.899036625542021e-17 -8.18908099894714e-17 8.899036625542021e-17 0.8611219348763562 -0.508398478827994
12646909333.333334 0.8553907132042421 -0.5179833276889869 -8.086820411337021e-17 8.988889757541307e-17 -8.086820411337021e-17 8.988889757541307e-17 0.855391064616282 -0.5179827473714186
12647526666.666666 0.8495531683172778 -0.5275029992349751 -7.983575197323833e-17 9.077568978041064e-17 -7.983575197323833e-17 9.077568978041064e-17 0.8495535261702243 -0.5275024229058634
12648144000.0 0.8436096832369306 -0.5369568905868555 -7.879358819836889e-17 9.165063511945075e-17 -7.879358819836889e-17 9.165063511945075e-17 0.8436100474855337 -0.5369563183176769
12648761333.333334 0.8375609991222773 -0.5463438228342208 -7.774184859553992e-17 9.251362738409551e-17 -7.774184859553992e-17 9.251362738409551e-17 0.8375613697204926 -0.5463432546959383
12649378666.666666 0.831407870250844 -0.5556626254165155 -7.668067013134652e-17 9.336456192128805e-17 -7.668067013134652e-17 9.336456192128805e-17 0.8314082471518393 -0.5556620614795693
12649996000.0 0.8251510639244977 -0.5649121362690744 -7.561019091439494e-17 9.420333564600474e-17 -7.561019091439494e-17 9.420333564600474e-17 0.8251514470806605 -0.5649115766033749
12650613333.333334 0.8187913603737454 -0.5740912019680575 -7.45305501773646e-17 9.50298470536995e-17 -7.45305501773646e-17 9.50298470536995e-17 0.8187917497366886 -0.5740906466429759
12651230666.666666 0.8123295526606047 -0.5831986778740502 -7.344188825896442e-17 9.58439962325199e-17 -7.344188825896442e-17 9.58439962325199e-17 0.8123299481811702 -0.5831981269584087
12651848000.0 0.805766446579473 -0.592233428275125 -7.234434658569373e-17 9.664568487536517e-17 -7.234434658569373e-17 9.664568487536517e-17 0.8057668482077405 -0.5922328818371897
12652465333.333334 0.7991028605568293 -0.6011943265282118 -7.123806765352444e-17 9.743481629169663e-17 -7.123806765352444e-17 9.743481629169663e-17 0.7991032682421223 -0.6011937846356844
12653082666.666666 0.7923396255491103 -0.6100802551996858 -7.012319500945505e-17 9.821129541913935e-17 -7.012319500945505e-17 9.821129541913935e-17 0.7923400392400011 -0.6100797179196934
12653700000.0 0.785477584939017 -0.6188901062047999 -6.89998732328861e-17 9.897502883491106e-17 -6.89998732328861e-17 9.897502883491106e-17 0.7854780045833338 -0.6188895736038884
12654317333.333334 0.7785175944305356 -0.6276227809456181 -6.786824791693911e-17 9.972592476699141e-17 -6.786824791693911e-17 9.972592476699141e-17 0.7785180199753707 -0.6276222530897442
12654934666.666666 0.7714605219420051 -0.6362771904483034 -6.672846564961238e-17 1.0046389310510734e-16 -6.672846564961238e-17 1.0046389310510734e-16 0.7714609533337202 -0.6362766674028257
12655552000.0 0.7643072474979908 -0.64485225549878 -6.558067399482059e-17 1.0118884541150125e-16 -6.558067399482059e-17 1.0118884541150125e-16 0.7643076846822221 -0.6448517373284494
12656169333.333334 0.7570586631196315 -0.6533469067771995 -6.442502147334463e-17 1.0190069493146703e-16 -6.442502147334463e-17 1.0190069493146703e-16 0.7570591060413001 -0.6533463935461544
12656786666.666666 0.7497156727132656 -0.6617600849914672 -6.326165754363844e-17 1.02599356603687e-16 -6.326165754363844e-17 1.02599356603687e-16 0.7497161213165814 -0.6617595767632228
12657404000.0 0.7422791919577248 -0.6700907410093102 -6.209073258254207e-17 1.0328474707033945e-16 -6.209073258254207e-17 1.0328474707033945e-16 0.7422796461861945 -0.6700902378467517
12658021333.333334 0.734750148190222 -0.6783378359890183 -6.091239786586577e-17 1.0395678468699905e-16 -6.091239786586577e-17 1.0395678468699905e-16 0.7347506079866583 -0.6783373379543947
12658638666.666666 0.7271294802907576 -0.6865003415089546 -5.97268055489144e-17 1.0461538953228854e-16 -5.97268055489144e-17 1.0461538953228854e-16 0.7271299455972822 -0.6864998486638673
12659256000.0 0.7194181385647815 -0.6945772396960646 -5.853410864683769e-17 1.052604834173498e-16 -5.853410864683769e-17 1.052604834173498e-16 0.7194186093228355 -0.6945767521014626
12659873333.333334 0.7116170846249822 -0.7025675233524958 -5.733446101493529e-17 1.0589198989505938e-16 -5.733446101493529e-17 1.0589198989505938e-16 0.7116175607753332 -0.7025670410686685
12660490666.666666 0.7037272912713188 -0.7104701960812647 -5.612801732886342e-17 1.0650983426902049e-16 -5.612801732886342e-17 1.0650983426902049e-16 0.7037277727540675 -0.7104697191678323
12661108000.0 0.695749742369449 -0.7182842724107661 -5.4914933064685144e-17 1.0711394360236184e-16 -5.4914933064685144e-17 1.0711394360236184e-16 0.695750229124037 -0.7182838009266737
12661725333.333334 0.6876854327284416 -0.7260087779172619 -5.36953644789178e-17 1.0770424672626283e-16 -5.36953644789178e-17 1.0770424672626283e-16 0.687685924693658 -0.7260083119207709
12662342666.666666 0.6795353679764187 -0.7336427493466909 -5.246946858839518e-17 1.0828067424829979e-16 -5.246946858839518e-17 1.0828067424829979e-16 0.6795358650904115 -0.7336422888953752
12662960000.0 0.6713005644353012 -0.7411852347346547 -5.123740315012055e-17 1.0884315856052396e-16 -5.123740315012055e-17 1.0884315856052396e-16 0.6713010666355794 -0.7411847798853886
12663577333.333334 0.6629820489939601 -0.7486352935252178 -4.999932664098805e-17 1.0939163384733346e-16 -4.999932664098805e-17 1.0939163384733346e-16 0.662982556217407 -0.7486348443341733
12664194666.666666 0.6545808589802941 -0.7559919966880859 -4.875539823742374e-17 1.0992603609311331e-16 -4.875539823742374e-17 1.0992603609311331e-16 0.6545813711631715 -0.755991553210723
12664812000.0 0.6460980420317869 -0.7632544268345318 -4.750577779497384e-17 1.104463030896317e-16 -4.750577779497384e-17 1.104463030896317e-16 0.6460985591097448 -0.763253989125593
12665429333.333334 0.6375346559648881 -0.7704216783317757 -4.6250625827783997e-17 1.1095237444321868e-16 -4.6250625827783997e-17 1.1095237444321868e-16 0.6375351778729721 -0.7704212464452787
12666046666.666666 0.6288917686431237 -0.7774928574159011 -4.4990103488022127e-17 1.114441915817048e-16 -4.4990103488022127e-17 1.114441915817048e-16 0.6288922953157834 -0.7774924314051324
12666664000.0 0.620170457843821 -0.7844670823033965 -4.372437254520553e-17 1.119216977611334e-16 -4.372437254520553e-17 1.119216977611334e-16 0.620170989214919 -0.784466662220905
12667281333.333334 0.6113718111239321 -0.7913434833009384 -4.245359536550983e-17 1.1238483807222132e-16 -4.245359536550983e-17 1.1238483807222132e-16 0.611372347126751 -0.7913430691985281
12667898666.666666 0.602496925684236 -0.7981212029139831 -4.1177934890933195e-17 1.128335594466126e-16 -4.1177934890933195e-17 1.128335594466126e-16 0.6024974662514876 -0.7981207948427083
12668516000.0 0.5935469082324251 -0.8047993959537677 -3.9897554618456584e-17 1.132678106628738e-16 -3.9897554618456584e-17 1.132678106628738e-16 0.5935474532962584 -0.8047989939639245
12669133333.333334 0.5845228748454359 -0.8113772296424441 -3.8612618579142247e-17 1.1368754235225412e-16 -3.8612618579142247e-17 1.1368754235225412e-16 0.584523424337446 -0.8113768337835663
12669750666.666666 0.5754259508299805 -0.8178538837171536 -3.73232913171113e-17 1.1409270700423004e-16 -3.73232913171113e-17 1.1409270700423004e-16 0.5754265046812178 -0.8178534940380063
12670368000.0 0.5662572705822407 -0.8242285505322965 -3.6029737868538584e-17 1.1448325897178577e-16 -3.6029737868538584e-17 1.1448325897178577e-16 0.5662578287232172 -0.8242281670808675
