! Parameters = {f0=12700.012000; bw=77.238000; Q=6100.000000; N=10; m_0_1=1.232127; m_1_1=-0.282839; m_1_2=1.066939; m_2_2=-0.283488; m_2_3=0.703902; m_2_8=-0.001330; m_2_9=0.035374; m_3_3=-0.285425; m_3_4=0.592431; m_3_7=-0.000730; m_3_8=-0.097818; m_3_9=-0.001330; m_4_4=-0.288350; m_4_5=0.428766; m_4_6=0.002787; m_4_7=-0.118367; m_4_8=-0.000730; m_5_5=-0.287968; m_5_6=0.836121; m_5_7=0.002787; m_6_6=-0.287969; m_6_7=0.429108; m_7_7=-0.288336; m_7_8=0.592549; m_8_8=-0.285427; m_8_9=0.704215; m_9_9=-0.283493; m_9_10=1.068017; m_10_10=-0.282849; m_10_11=1.232922}
!
! Created with skrf (http://scikit-rf.org).
# Hz S RI R 50.0 
!freq ReS11 ImS11 ReS21 ImS21 ReS12 ImS12 ReS22 ImS22
12607400000.0 0.0843809601164373 -0.9964335670628833 1.863532026268964e-17 9.029383883058062e-17 1.863532026268964e-17 9.029383883058062e-17 0.08438160702614651 -0.9964335122804326
12608017333.333334 0.07500757865841487 -0.9971829637251305 1.9487720787204616e-17 9.009523859328543e-17 1.9487720787204616e-17 9.009523859328543e-17 0.07500822602295285 -0.9971829150304988
12608634666.666666 0.06562756489200271 -0.9978441875995365 2.033803145371911e-17 8.988859776797984e-17 2.033803145371911e-17 8.988859776797984e-17 0.06562821265408657 -0.9978441449964339
12609252000.0 0.056241748215669164 -0.9984171802195102 2.1186176476639276e-17 8.967393812013431e-17 2.1186176476639276e-17 8.967393812013431e-17 0.05624239631798643 -0.9984171437111067
12609869333.333334 0.04685095854084405 -0.9989018909200434 2.2032080295109918e-17 8.945128212895429e-17 2.2032080295109918e-17 8.945128212895429e-17 0.04685160692605773 -0.9989018605089691
12610486666.666666 0.0374560262188764 -0.9992982768421679 2.2875667579725724e-17 8.922065298507765e-17 2.2875667579725724e-17 8.922065298507765e-17 0.037456674829630214 -0.9992982525305152
12611104000.0 0.028057781967216228 -0.999606302936768 2.3716863239259613e-17 8.898207458819857e-17 2.3716863239259613e-17 8.898207458819857e-17 0.02805843074613955 -0.9996062847260906
12611721333.333334 0.01865705679627315 -0.9998259419676683 2.4555592427278448e-17 8.873557154465183e-17 2.4555592427278448e-17 8.873557154465183e-17 0.018657705685986042 -0.9998259298589777
12612338666.666666 0.009254681935851564 -0.999957174514039 2.539178054883257e-17 8.848116916490782e-17 2.539178054883257e-17 8.848116916490782e-17 0.009255330878969951 -0.9999571685078088
12612956000.0 -0.00014851123857541424 -0.9999999889721235 2.622535326705448e-17 8.821889346102285e-17 2.622535326705448e-17 8.821889346102285e-17 -0.0001478622994347163 -0.9999999890682871
12613573333.333334 -0.009551691278894707 -0.9999543815562519 2.705623650974952e-17 8.794877114402336e-17 2.705623650974952e-17 8.794877114402336e-17 -0.00955104240110892 -0.9999543877542044
12614190666.666666 -0.018954026738383006 -0.9998203562991876 2.788435647596757e-17 8.767082962122517e-17 2.788435647596757e-17 8.767082962122517e-17 -0.018953377979318307 -0.9998203685977832
12614808000.0 -0.028354686244855383 -0.9995979250517627 2.8709639642550027e-17 8.738509699349026e-17 2.8709639642550027e-17 8.738509699349026e-17 -0.028354037661861838 -0.999597943449317
12615425333.333334 -0.037752838574432554 -0.999287107481832 2.9532012770624684e-17 8.709160205243062e-17 2.9532012770624684e-17 8.709160205243062e-17 -0.03775219022483904 -0.999287131976121
12616042666.666666 -0.047147652724811924 -0.9988879310725371 3.035140291210937e-17 8.679037427753824e-17 3.035140291210937e-17 8.679037427753824e-17 -0.047147004665921095 -0.9988879616607987
12616660000.0 -0.056538297988973675 -0.998400431119871 3.116773741614758e-17 8.648144383326832e-17 3.116773741614758e-17 8.648144383326832e-17 -0.056537650278056836 -0.9984004677988036
12617277333.333334 -0.06592394402846287 -0.9978246507295586 3.198094393555634e-17 8.616484156604634e-17 3.198094393555634e-17 8.616484156604634e-17 -0.065923296722755 -0.997824693495324
12617894666.666666 -0.07530376094675316 -0.9971606408132585 3.279095043319076e-17 8.5840599001236e-17 3.279095043319076e-17 8.5840599001236e-17 -0.07530311410344777 -0.9971606896614794
12618512000.0 -0.08467691936302449 -0.9964084600840268 3.3597685188355774e-17 8.550874834001579e-17 3.3597685188355774e-17 8.550874834001579e-17 -0.08467627303926868 -0.9964085150097892
12619129333.333334 -0.09404259048490347 -0.9955681750511729 3.4401076803087556e-17 8.516932245623673e-17 3.4401076803087556e-17 8.516932245623673e-17 -0.09404194473779269 -0.9955682360490252
12619746666.666666 -0.1033999461822566 -0.9946398600143374 3.520105420850027e-17 8.482235489318071e-17 3.520105420850027e-17 8.482235489318071e-17 -0.10339930106882989 -0.9946399270782927
12620364000.0 -0.1127481590601885 -0.9936235970569404 3.5997546671037644e-17 8.446787986028578e-17 3.5997546671037644e-17 8.446787986028578e-17 -0.11274751463742311 -0.9936236701804753
12620981333.333334 -0.12208640253217345 -0.9925194760389271 3.679048379870921e-17 8.410593222980615e-17 3.679048379870921e-17 8.410593222980615e-17 -0.12208575885698017 -0.9925195552149835
12621598666.666666 -0.13141385089320057 -0.9913275945888188 3.7579795547300176e-17 8.373654753341022e-17 3.7579795547300176e-17 8.373654753341022e-17 -0.1314132080224185 -0.9913276798098047
12622216000.0 -0.14072967939286857 -0.9900480580950679 3.836541222655023e-17 8.335976195872011e-17 3.836541222655023e-17 8.335976195872011e-17 -0.14072903738325995 -0.990048149352856
12622833333.333334 -0.15003306430817037 -0.9886809796967546 3.9147264506276246e-17 8.297561234580204e-17 3.9147264506276246e-17 8.297561234580204e-17 -0.15003242321641597 -0.9886810769826861
12623450666.666666 -0.15932318301630122 -0.9872264802735939 3.992528342248444e-17 8.258413618358995e-17 3.992528342248444e-17 8.258413618358995e-17 -0.15932254289899497 -0.9872265835784771
12624068000.0 -0.16859921406762055 -0.9856846884352095 4.0699400383430136e-17 8.218537160625861e-17 4.0699400383430136e-17 8.218537160625861e-17 -0.16859857498126474 -0.9856847977493216
12624685333.333334 -0.17786033725811753 -0.984055740509786 4.146954717567e-17 8.177935738952686e-17 4.146954717567e-17 8.177935738952686e-17 -0.1778596992591179 -0.9840558558228748
12625302666.666666 -0.18710573370187986 -0.9823397805320296 4.22356559700149e-17 8.136613294693596e-17 4.22356559700149e-17 8.136613294693596e-17 -0.18710509684654014 -0.9823399018333118
12625920000.0 -0.196334585903696 -0.9805369602303926 4.2997659327540986e-17 8.094573832602358e-17 4.2997659327540986e-17 8.094573832602358e-17 -0.1963339502482138 -0.9805370875085582
12626537333.333334 -0.20554607783117274 -0.9786474390136913 4.3755490205459137e-17 8.05182142044957e-17 4.3755490205459137e-17 8.05182142044957e-17 -0.2055454434316336 -0.9786475722569012
12627154666.666666 -0.21473939498683453 -0.9766713839570212 4.45090819630298e-17 8.008360188630061e-17 4.45090819630298e-17 8.008360188630061e-17 -0.21473876189920788 -0.9766715231529121
12627772000.0 -0.22391372448053223 -0.9746089697869038 4.5258368367401794e-17 7.964194329766608e-17 4.5258368367401794e-17 7.964194329766608e-17 -0.22391309276066587 -0.9746091149225863
12628389333.333334 -0.23306825510070972 -0.97246037886597 4.600328359940389e-17 7.919328098308874e-17 4.600328359940389e-17 7.919328098308874e-17 -0.2330676248043248 -0.9724605299280299
12629006666.666666 -0.24220217738676939 -0.9702258011766863 4.674376225932571e-17 7.873765810125177e-17 4.674376225932571e-17 7.873765810125177e-17 -0.2422015485694562 -0.9702259581511883
12629624000.0 -0.25131468370014903 -0.967905434304679 4.747973937263638e-17 7.827511842090223e-17 4.747973937263638e-17 7.827511842090223e-17 -0.2513140564173614 -0.9679055971771655
12630241333.333334 -0.26040496829598303 -0.9654994834211996 4.8211150395664744e-17 7.780570631667354e-17 4.8211150395664744e-17 7.780570631667354e-17 -0.2604043426030337 -0.9654996521766932
12630858666.666666 -0.2694722273942652 -0.9630081612650059 4.893793122124788e-17 7.732946676485047e-17 4.893793122124788e-17 7.732946676485047e-17 -0.26947160334632125 -0.9630083358880114
12631476000.0 -0.27851565925103094 -0.9604316881235225 4.966001818434173e-17 7.684644533907732e-17 4.966001818434173e-17 7.684644533907732e-17 -0.2785150369031079 -0.9604318685980253
12632093333.333334 -0.28753446422910955 -0.9577702918133938 5.0377348067559754e-17 7.635668820603506e-17 5.0377348067559754e-17 7.635668820603506e-17 -0.2875338436360682 -0.9577704781228659
12632710666.666666 -0.2965278448687789 -0.9550242076603672 5.108985810671042e-17 7.586024212103924e-17 5.108985810671042e-17 7.586024212103924e-17 -0.2965272260853188 -0.9550243997877644
12633328000.0 -0.30549500595862955 -0.9521936784783707 5.179748599626735e-17 7.53571544236021e-17 5.179748599626735e-17 7.53571544236021e-17 -0.3054943890392853 -0.952193876406138
12633945333.333334 -0.31443515460541777 -0.9492789545481883 5.25001698947988e-17 7.484747303294279e-17 5.25001698947988e-17 7.484747303294279e-17 -0.3144345396045537 -0.9492791582582583
12634562666.666666 -0.32334750030452664 -0.9462802935952157 5.319784843034862e-17 7.433124644344995e-17 5.319784843034862e-17 7.433124644344995e-17 -0.3233468872763321 -0.9462805030690116
12635180000.0 -0.3322312550096218 -0.9431979607667552 5.389046070579437e-17 7.380852372007955e-17 5.389046070579437e-17 7.380852372007955e-17 -0.33223064400810637 -0.9431981759851924
12635797333.333334 -0.34108563320257257 -0.9400322286084846 5.457794630413064e-17 7.327935449372392e-17 5.457794630413064e-17 7.327935449372392e-17 -0.34108502428156146 -0.9400324495519723
12636414666.666666 -0.34990985196261537 -0.9367833770404637 5.526024529373059e-17 7.274378895651531e-17 5.526024529373059e-17 7.274378895651531e-17 -0.3499092451757444 -0.9367836036889071
12637032000.0 -0.3587031310358208 -0.9334516933322967 5.5937298233549e-17 7.220187785708966e-17 5.5937298233549e-17 7.220187785708966e-17 -0.35870252643653266 -0.9334519256651002
12637649333.333334 -0.36746469290406 -0.9300374720777428 5.660904617829147e-17 7.165367249579295e-17 5.660904617829147e-17 7.165367249579295e-17 -0.3674640905455978 -0.9300377100738075
12638266666.666666 -0.37619376285359285 -0.9265410151687241 5.727543068351437e-17 7.109922471985669e-17 5.727543068351437e-17 7.109922471985669e-17 -0.37619316278899634 -0.9265412588064531
12638884000.0 -0.38488956904378113 -0.9229626317685489 5.793639381070855e-17 7.05385869185028e-17 5.793639381070855e-17 7.05385869185028e-17 -0.3848889713258831 -0.9229628810258507
12639501333.333334 -0.3935513425751545 -0.9193026382846552 5.859187813230495e-17 6.997181201802546e-17 5.859187813230495e-17 6.997181201802546e-17 -0.3935507472565741 -0.919302893138941
12640118666.666666 -0.4021783175574476 -0.9155613583406056 5.92418267366504e-17 6.939895347681187e-17 5.92418267366504e-17 6.939895347681187e-17 -0.4021777246905872 -0.9155616187687956
12640736000.0 -0.4107697311775325 -0.911739122747386 5.988618323294654e-17 6.882006528030654e-17 5.988618323294654e-17 6.882006528030654e-17 -0.4107691408145722 -0.9117393887259085
12641353333.333334 -0.41932482376644836 -0.9078362694743314 6.052489175609352e-17 6.823520193597165e-17 6.052489175609352e-17 6.823520193597165e-17 -0.41932423595934243 -0.9078365409791281
12641970666.666666 -0.4278428388669157 -0.9038531436191019 6.11578969715403e-17 6.764441846815205e-17 6.11578969715403e-17 6.764441846815205e-17 -0.4278422536673867 -0.9038534206256268
12642588000.0 -0.4363230233001662 -0.8997900973771809 6.178514408005662e-17 6.704777041292173e-17 6.178514408005662e-17 6.704777041292173e-17 -0.43632244075970167 -0.8997903798604049
12643205333.333334 -0.4447646272323896 -0.8956474900108131 6.240657882244518e-17 6.644531381289523e-17 6.240657882244518e-17 6.644531381289523e-17 -0.4447640474022359 -0.8956477779452233
12643822666.666666 -0.45316690424121187 -0.8914256878171455 6.302214748423953e-17 6.583710521196163e-17 6.302214748423953e-17 6.583710521196163e-17 -0.45316632717237243 -0.8914259811767533
12644440000.0 -0.4615291113816469 -0.8871250640958702 6.363179690030378e-17 6.522320165002006e-17 6.363179690030378e-17 6.522320165002006e-17 -0.4615285371248746 -0.8871253628542066
12645057333.333334 -0.4698505092516349 -0.8827459991162885 6.423547445942291e-17 6.460366065763366e-17 6.423547445942291e-17 6.460366065763366e-17 -0.46984993785742973 -0.8827463032464109
12645674666.666666 -0.47813036205762516 -0.8782888800835852 6.483312810880895e-17 6.397854025067145e-17 6.483312810880895e-17 6.397854025067145e-17 -0.478129793576229 -0.8782891895580792
12646292000.0 -0.48636793767961106 -0.8737541011046053 6.542470635859782e-17 6.33478989248668e-17 6.542470635859782e-17 6.33478989248668e-17 -0.48636737216100284 -0.8737544158955852
12646909333.333334 -0.49456250773573807 -0.8691420631530682 6.601015828622819e-17 6.271179565040138e-17 6.601015828622819e-17 6.271179565040138e-17 -0.49456194522963093 -0.869142383232183
12647526666.666666 -0.5027133476467627 -0.864453174034094 6.658943354083813e-17 6.207028986637615e-17 6.658943354083813e-17 6.207028986637615e-17 -0.5027127882025973 -0.8644534993725259
12648144000.0 -0.5108197367002902 -0.8596878483480392 6.716248234755953e-17 6.14234414752921e-17 6.716248234755953e-17 6.14234414752921e-17 -0.5108191803672325 -0.8596881789165092
12648761333.333334 -0.5188809581142315 -0.8548465074539945 6.7729255511783e-17 6.077131083746784e-17 6.7729255511783e-17 6.077131083746784e-17 -0.5188804049411675 -0.8548468432227642
12649378666.666666 -0.526896299100258 -0.8499295794324885 6.828970442334724e-17 6.011395876544047e-17 6.828970442334724e-17 6.011395876544047e-17 -0.5268957491357894 -0.8499299203713623
12649996000.0 -0.5348650509270214 -0.8449374990475155 6.884378106071068e-17 5.945144651828773e-17 6.884378106071068e-17 5.945144651828773e-17 -0.5348645042194615 -0.8449378451258439
12650613333.333334 -0.542786508982577 -0.8398707077082413 6.939143799502732e-17 5.87838357959585e-17 6.939143799502732e-17 5.87838357959585e-17 -0.5427859655799466 -0.8398710588949235
12651230666.666666 -0.5506599728367858 -0.8347296534299142 6.99326283941933e-17 5.811118873353683e-17 6.99326283941933e-17 5.811118873353683e-17 -0.5506594327868091 -0.8347300096934008
12651848000.0 -0.5584847463032954 -0.8295147907942202 7.046730602683426e-17 5.743356789547261e-17 7.046730602683426e-17 5.743356789547261e-17 -0.558484209653394 -0.8295151521025149
12652465333.333334 -0.5662601375010704 -0.8242265809090988 7.099542526623257e-17 5.67510362697819e-17 7.099542526623257e-17 5.67510362697819e-17 -0.5662596042983628 -0.8242269472297641
12653082666.666666 -0.5739854589153871 -0.8188654913681052 7.15169410941888e-17 5.606365726222374e-17 7.15169410941888e-17 5.606365726222374e-17 -0.5739849292066806 -0.8188658626682619
12653700000.0 -0.5816600274590417 -0.8134319962087687 7.203180910485868e-17 5.53714946904006e-17 7.203180910485868e-17 5.53714946904006e-17 -0.5816595012908314 -0.8134323724551024
12654317333.333334 -0.5892831645322405 -0.8079265758710404 7.2539985508496e-17 5.4674612777873744e-17 7.2539985508496e-17 5.4674612777873744e-17 -0.5892826419507033 -0.8079269570298011
12654934666.666666 -0.5968541960830197 -0.8023497171545138 7.304142713515977e-17 5.397307614821476e-17 7.304142713515977e-17 5.397307614821476e-17 -0.596853677134011 -0.8023501031915212
12655552000.0 -0.6043724526666828 -0.7967019131754951 7.353609143837223e-17 5.326694981901352e-17 7.353609143837223e-17 5.326694981901352e-17 -0.6043719373957324 -0.7967023040561408
12656169333.333334 -0.6118372695048593 -0.790983663323506 7.402393649868125e-17 5.255629919590511e-17 7.402393649868125e-17 5.255629919590511e-17 -0.6118367579571679 -0.7909840590127574
12656786666.666666 -0.6192479865445815 -0.7851954732169039 7.450492102721746e-17 5.184119006649057e-17 7.450492102721746e-17 5.184119006649057e-17 -0.619247478765015 -0.7851958736793052
12657404000.0 -0.6266039485163739 -0.7793378546583791 7.497900436914702e-17 5.112168859429109e-17 7.497900436914702e-17 5.112168859429109e-17 -0.6266034445494615 -0.7793382598580572
12658021333.333334 -0.6339045049924195 -0.7734113255895279 7.544614650709992e-17 5.039786131262197e-17 7.544614650709992e-17 5.039786131262197e-17 -0.6339040048823493 -0.7734117354901939
12658638666.666666 -0.6411490104437833 -0.7674164100452844 7.590630806450626e-17 4.966977511848475e-17 7.590630806450626e-17 4.966977511848475e-17 -0.6411485142343971 -0.7674168246102375
12659256000.0 -0.6483368242978872 -0.7613536381072631 7.635945030891758e-17 4.8937497266362345e-17 7.635945030891758e-17 4.8937497266362345e-17 -0.6483363320326783 -0.7613540572993931
12659873333.333334 -0.6554673109947776 -0.7552235458571926 7.680553515521969e-17 4.820109536205997e-17 7.680553515521969e-17 4.820109536205997e-17 -0.6554668227168858 -0.7552239696389841
12660490666.666666 -0.6625398400434976 -0.7490266753293713 7.724452516882103e-17 4.7460637356462895e-17 7.724452516882103e-17 4.7460637356462895e-17 -0.6625393557957073 -0.7490271036629078
12661108000.0 -0.6695537860778806 -0.7427635744627019 7.767638356877215e-17 4.671619153927797e-17 7.767638356877215e-17 4.671619153927797e-17 -0.6695533059026145 -0.7427640073096671
12661725333.333334 -0.6765085289117161 -0.7364347970523533 7.810107423081558e-17 4.596782653276549e-17 7.810107423081558e-17 4.596782653276549e-17 -0.6765080528510324 -0.736435234374035
12662342666.666666 -0.6834034535936722 -0.730040902700716 7.851856169038615e-17 4.521561128542307e-17 7.851856169038615e-17 4.521561128542307e-17 -0.6834029816892623 -0.7300413444580116
12662960000.0 -0.6902379504616316 -0.723582456767963 7.892881114555152e-17 4.445961506564289e-17 7.892881114555152e-17 4.445961506564289e-17 -0.6902374827548147 -0.7235829029213806
12663577333.333334 -0.6970114151966795 -0.717060030321979 7.933178845987861e-17 4.3699907455364825e-17 7.933178845987861e-17 4.3699907455364825e-17 -0.6970109517283997 -0.7170604808316422
12664194666.666666 -0.7037232488763943 -0.7104742000880024 7.97274601652581e-17 4.293655834367019e-17 7.97274601652581e-17 4.293655834367019e-17 -0.7037227896872176 -0.7104746549136538
12664812000.0 -0.7103728580279718 -0.703825548397475 8.01157934646481e-17 4.2169637920386534e-17 8.01157934646481e-17 4.2169637920386534e-17 -0.7103724031580806 -0.7038260074984788
12665429333.333334 -0.7169596546805544 -0.6971146631366859 8.049675623477626e-17 4.1399216669629016e-17 8.049675623477626e-17 4.1399216669629016e-17 -0.7169592041697465 -0.6971151264720329
12666046666.666666 -0.7234830564172869 -0.6903421376947352 8.087031702875497e-17 4.062536536336839e-17 8.087031702875497e-17 4.062536536336839e-17 -0.7234826103049702 -0.6903426052230454
12666664000.0 -0.729942486426869 -0.6835085709109985 8.123644507867114e-17 3.984815505490185e-17 8.123644507867114e-17 3.984815505490185e-17 -0.7299420447520594 -0.6835090425905259
12667281333.333334 -0.7363373735544431 -0.6766145670223038 8.159511029806713e-17 3.906765707239562e-17 8.159511029806713e-17 3.906765707239562e-17 -0.7363369363557597 -0.6766150428109391
12667898666.666666 -0.7426671523521357 -0.6696607356094609 8.194628328440489e-17 3.8283943012313046e-17 8.194628328440489e-17 3.8283943012313046e-17 -0.742666719667799 -0.6696612154647358
12668516000.0 -0.7489312631292085 -0.6626476915431934 8.228993532143766e-17 3.749708473288095e-17 8.228993532143766e-17 3.749708473288095e-17 -0.7489308349970342 -0.662648175422283
12669133333.333334 -0.755129152001241 -0.6555760549301067 8.262603838152781e-17 3.6707154347519226e-17 8.262603838152781e-17 3.6707154347519226e-17 -0.75512872845864 -0.6555765427898358
12669750666.666666 -0.7612602709393541 -0.6484464510575845 8.295456512790417e-17 3.591422421824259e-17 8.295456512790417e-17 3.591422421824259e-17 -0.7612598520233281 -0.6484469428544299
12670368000.0 -0.7673240778186488 -0.6412595103385185 8.327548891685888e-17 3.5118366949038087e-17 8.327548891685888e-17 3.5118366949038087e-17 -0.7673236635657857 -0.6412600060286126
