! Parameters = {f0=12700.012000; bw=77.238000; Q=6100.000000; N=10; m_0_1=1.289384; m_1_1=0.576020; m_1_2=1.124196; m_2_2=0.575371; m_2_3=0.761159; m_2_8=0.001533; m_2_9=0.038237; m_3_3=0.573434; m_3_4=0.649688; m_3_7=0.002133; m_3_8=-0.094955; m_3_9=0.001533; m_4_4=0.570509; m_4_5=0.486023; m_4_6=0.005650; m_4_7=-0.115504; m_4_8=0.002133; m_5_5=0.570891; m_5_6=0.893378; m_5_7=0.005650; m_6_6=0.570890; m_6_7=0.486365; m_7_7=0.570523; m_7_8=0.649806; m_8_8=0.573432; m_8_9=0.761472; m_9_9=0.575366; m_9_10=1.125274; m_10_10=0.576010; m_10_11=1.290179}
!
! Created with skrf (http://scikit-rf.org).
# Hz S RI R 50.0 
!freq ReS11 ImS11 ReS21 ImS21 ReS12 ImS12 ReS22 ImS22
12607400000.0 -0.050759370794797254 0.9987109122645729 -2.8455569787562064e-17 -1.17691729434681e-16 -2.8455569787562064e-17 -1.17691729434681e-16 -0.05076004920759431 0.9987108777840865
12608017333.333334 -0.03967477668345246 0.9992126460843743 -2.9764278207515e-17 -1.173431253043562e-16 -2.9764278207515e-17 -1.173431253043562e-16 -0.03967545540384303 0.9992126191348443
12608634666.666666 -0.0285852978176917 0.9995913568796455 -3.106875062811873e-17 -1.169799780355396e-16 -3.106875062811873e-17 -1.169799780355396e-16 -0.028585976762085734 0.9995913374636535
12609252000.0 -0.01749229953374948 0.9998469980236173 -3.2368825543444735e-17 -1.1660233874626677e-16 -3.2368825543444735e-17 -1.1660233874626677e-16 -0.01749297861853748 0.9998469861428142
12609869333.333334 -0.0063971476011123974 0.9999795380418479 -3.366434206077801e-17 -1.1621026034695276e-16 -3.366434206077801e-17 -1.1621026034695276e-16 -0.006397826742675842 0.9999795336969595
12610486666.666666 0.0046987919453784265 0.999988960616102 -3.4955139920465563e-17 -1.1580379753308225e-16 -3.4955139920465563e-17 -1.1580379753308225e-16 0.00469811283065689 0.9999889638069255
12611104000.0 0.015794152974196722 0.9998752645863616 -3.624105951576397e-17 -1.1538300677765512e-16 -3.624105951576397e-17 -1.1538300677765512e-16 0.015793473969922946 0.9998752753117659
12611721333.333334 0.02688756942484594 0.9996384639509639 -3.752194191248549e-17 -1.1494794632344618e-16 -3.752194191248549e-17 -1.1494794632344618e-16 0.026886890614604017 0.9996384822088917
12612338666.666666 0.03797767547624762 0.9992785878648851 -3.8797628868631176e-17 -1.1449867617502154e-16 -3.8797628868631176e-17 -1.1449867617502154e-16 0.03797699694358954 0.9992786136523507
12612956000.0 0.049063105715071595 0.9987956806361402 -4.006796285392654e-17 -1.1403525809053984e-16 -4.006796285392654e-17 -1.1403525809053984e-16 0.04906242754350703 0.9987957139492322
12613573333.333334 0.0601424953034763 0.9981898017203387 -4.133278706919858e-17 -1.135577555733573e-16 -4.133278706919858e-17 -1.135577555733573e-16 0.0601418175764623 0.9981898425542196
12614190666.666666 0.07121448014748855 0.9974610257133568 -4.25919454657351e-17 -1.1306623386339047e-16 -4.25919454657351e-17 -1.1306623386339047e-16 0.07121380294841918 0.9974610740622623
12614808000.0 0.08227769706469495 0.996609442342159 -4.38452827644746e-17 -1.125607599282891e-16 -4.38452827644746e-17 -1.125607599282891e-16 0.08227702047689123 0.9966094981994016
12615425333.333334 0.09333078395227577 0.9956351564537445 -4.509264447514419e-17 -1.1204140245437782e-16 -4.509264447514419e-17 -1.1204140245437782e-16 0.09333010805897532 0.9956352198117131
12616042666.666666 0.10437237995462167 0.99453828800224 -4.633387691525562e-17 -1.1150823183739915e-16 -4.633387691525562e-17 -1.1150823183739915e-16 0.10437170483896835 0.9945383588523999
12616660000.0 0.11540112563079742 0.9933189720341412 -4.756882722900954e-17 -1.109613201730413e-16 -4.756882722900954e-17 -1.109613201730413e-16 0.11540045137583131 0.9933190503670372
12617277333.333334 0.1264156631221142 0.9919773586716659 -4.8797343406091395e-17 -1.1040074124725444e-16 -4.8797343406091395e-17 -1.1040074124725444e-16 0.12641498981076119 0.9919774444769209
12617894666.666666 0.1374146363190547 0.9905136130942979 -5.0019274300320404e-17 -1.0982657052637593e-16 -5.0019274300320404e-17 -1.0982657052637593e-16 0.13741396403411657 0.9905137063606179
12618512000.0 0.14839669102860423 0.9889279155184061 -5.1234469648264104e-17 -1.0923888514701174e-16 -5.1234469648264104e-17 -1.0923888514701174e-16 0.14839601985274817 0.9889280162335784
12619129333.333334 0.15936047514047152 0.987220461175123 -5.244278008762933e-17 -1.086377639057621e-16 -5.244278008762933e-17 -1.086377639057621e-16 0.1593598051562201 0.9872205693260191
12619746666.666666 0.17030463879401112 0.9853914602862452 -5.3644057175608086e-17 -1.0802328724870876e-16 -5.3644057175608086e-17 -1.0802328724870876e-16 0.17030397008373238 0.9853915758588242
12620364000.0 0.18122783454433333 0.9834411380383622 -5.483815340709781e-17 -1.0739553726070123e-16 -5.483815340709781e-17 -1.0739553726070123e-16 0.18122716719023008 0.9834412610176686
12620981333.333334 0.1921287175278654 0.9813697345551858 -5.60249222327392e-17 -1.067545976544715e-16 -5.60249222327392e-17 -1.067545976544715e-16 0.19212805161196542 0.981369864925354
12621598666.666666 0.20300594562837887 0.9791775048679103 -5.72042180769007e-17 -1.0610055375951243e-16 -5.72042180769007e-17 -1.0610055375951243e-16 0.20300528123252512 0.9791776426121674
12622216000.0 0.21385817964197934 0.9768647188838574 -5.837589635548848e-17 -1.0543349251078109e-16 -5.837589635548848e-17 -1.0543349251078109e-16 0.21385751684781953 0.9768648639845239
12622833333.333334 0.22468408344210042 0.9744316613532223 -5.953981349363193e-17 -1.0475350243720414e-16 -5.953981349363193e-17 -1.0475350243720414e-16 0.22468342233107727 0.9744318137917157
12623450666.666666 0.23548232414378611 0.9718786318340673 -6.069582694324789e-17 -1.0406067364998103e-16 -6.069582694324789e-17 -1.0406067364998103e-16 0.2354816647971269 0.9718787915909021
12624068000.0 0.24625157226810018 0.9692059446553691 -6.184379520046648e-17 -1.0335509783069529e-16 -6.184379520046648e-17 -1.0335509783069529e-16 0.24625091476680713 0.9692061117101611
12624685333.333334 0.25699050190575534 0.9664139288783282 -6.298357782292529e-17 -1.0263686821923057e-16 -6.298357782292529e-17 -1.0263686821923057e-16 0.25698984633059546 0.9664141032097968
12625302666.666666 0.2676977908800013 0.9635029282559474 -6.411503544687483e-17 -1.0190607960152776e-16 -6.411503544687483e-17 -1.0190607960152776e-16 0.2676971373114968 0.9635031098419188
12625920000.0 0.2783721209099894 0.9604733011905604 -6.52380298042442e-17 -1.0116282829708977e-16 -6.52380298042442e-17 -1.0116282829708977e-16 0.27837146942840735 0.960473490007969
12626537333.333334 0.28901217777261107 0.9573254206898256 -6.635242373945258e-17 -1.0040721214636863e-16 -6.635242373945258e-17 -1.0040721214636863e-16 0.28901152845795386 0.9573256167147185
12627154666.666666 0.29961665146438954 0.9540596743207869 -6.745808122613362e-17 -9.963933049793169e-17 -6.745808122613362e-17 -9.963933049793169e-17 0.29961600439638514 0.9540598775283261
12627772000.0 0.3101842363630925 0.9506764641620528 -6.855486738373653e-17 -9.885928419542512e-17 -6.855486738373653e-17 -9.885928419542512e-17 0.3101835916211846 0.9506766745265192
12628389333.333334 0.32071363138799297 0.9471762067544485 -6.96426484938936e-17 -9.806717556441532e-17 -6.96426484938936e-17 -9.806717556441532e-17 0.3207129890513303 0.947176424249242
12629006666.666666 0.33120354016048903 0.9435593330495855 -7.072129201673073e-17 -9.726310839898242e-17 -7.072129201673073e-17 -9.726310839898242e-17 0.33120290030791744 0.9435595576472333
12629624000.0 0.3416526711634457 0.939826288356897 -7.179066660695181e-17 -9.644718794818687e-17 -7.179066660695181e-17 -9.644718794818687e-17 0.34165203387349713 0.9398265200290541
12630241333.333334 0.35205973790026024 0.9359775322887929 -7.285064212980161e-17 -9.561952090233696e-17 -7.285064212980161e-17 -9.561952090233696e-17 0.3520591032511435 0.9359777710062456
12630858666.666666 0.3624234590532559 0.9320135387040741 -7.390108967686466e-17 -9.4780215379084e-17 -7.390108967686466e-17 -9.4780215379084e-17 0.362422827122847 0.9320137844367441
12631476000.0 0.3727425586416501 0.9279347956495078 -7.494188158172366e-17 -9.392938090933019e-17 -7.494188158172366e-17 -9.392938090933019e-17 0.3727419295074827 0.9279350483664561
12632093333.333334 0.3830157661782281 0.9237418052999028 -7.597289143540817e-17 -9.306712842300339e-17 -7.597289143540817e-17 -9.306712842300339e-17 0.3830151399174841 0.9237420649693341
12632710666.666666 0.39324181682608467 0.919435083896161 -7.69939941017155e-17 -9.219357023463541e-17 -7.69939941017155e-17 -9.219357023463541e-17 0.3932411935155843 0.9194353504854259
12633328000.0 0.4034194515543739 0.9150151616817 -7.800506573238898e-17 -9.130882002875234e-17 -7.800506573238898e-17 -9.130882002875234e-17 0.4034188312705677 0.9150154351573027
12633945333.333334 0.4135474172931404 0.9104825828372517 -7.900598378206733e-17 -9.04129928451525e-17 -7.900598378206733e-17 -9.04129928451525e-17 0.41354680011209793 0.9104828631648504
12634562666.666666 0.423624467087621 0.9058379054138487 -7.999662702311647e-17 -8.950620506397575e-17 -7.999662702311647e-17 -8.950620506397575e-17 0.4236238530850227 0.9058381925582614
12635180000.0 0.43364936025190226 0.901081701264062 -8.097687556026077e-17 -8.858857439063885e-17 -8.097687556026077e-17 -8.858857439063885e-17 0.43364874950302973 0.901081995189271
12635797333.333334 0.4436208625216179 0.8962145559716127 -8.194661084507226e-17 -8.766021984058348e-17 -8.194661084507226e-17 -8.766021984058348e-17 0.4436202551013454 0.8962148566407702
12636414666.666666 0.45353774620573656 0.8912370687793679 -8.290571569024758e-17 -8.672126172390039e-17 -8.290571569024758e-17 -8.672126172390039e-17 0.45353714218852054 0.8912373761547978
12637032000.0 0.4633987903380188 0.8861498525154088 -8.385407428374947e-17 -8.577182162976108e-17 -8.385407428374947e-17 -8.577182162976108e-17 0.46339818979788944 0.8861501665586133
12637649333.333334 0.4732027808271385 0.8809535335176778 -8.479157220273125e-17 -8.481202241073287e-17 -8.479157220273125e-17 -8.481202241073287e-17 0.4732021838376914 0.8809538541893431
12638266666.666666 0.48294851060623967 0.8756487515568303 -8.571809642731889e-17 -8.384198816690707e-17 -8.571809642731889e-17 -8.384198816690707e-17 0.48294791724062536 0.8756490788168291
12638884000.0 0.4926347797814466 0.8702361597575134 -8.663353535418517e-17 -8.286184422990274e-17 -8.663353535418517e-17 -8.286184422990274e-17 0.49263419011236326 0.8702364935649131
12639501333.333334 0.502260395779775 0.8647164245178667 -8.753777880995912e-17 -8.187171714670706e-17 -8.753777880995912e-17 -8.187171714670706e-17 0.5022598098794576 0.8647167648309302
12640118666.666666 0.5118241734957085 0.8590902254276059 -8.843071806442004e-17 -8.087173466340109e-17 -8.843071806442004e-17 -8.087173466340109e-17 0.5118235914359214 0.8590905722038009
12640736000.0 0.5213249354375535 0.8533582551840996 -8.931224584358047e-17 -7.986202570866258e-17 -8.931224584358047e-17 -7.986202570866258e-17 0.5213243572895813 0.8533586083801014
12641353333.333334 0.5307615118717266 0.8475212195074876 -9.018225634246975e-17 -7.884272037725076e-17 -9.018225634246975e-17 -7.884272037725076e-17 0.5307609377063655 0.8475215790791865
12641970666.666666 0.5401327409674315 0.8415798370534009 -9.104064523783094e-17 -7.781394991323743e-17 -9.104064523783094e-17 -7.781394991323743e-17 0.5401321708549808 0.8415802029559066
12642588000.0 0.5494374689393854 0.8355348393246693 -9.188730970057796e-17 -7.677584669315733e-17 -9.188730970057796e-17 -7.677584669315733e-17 0.5494369029496375 0.8355352115123152
12643205333.333334 0.5586745501898275 0.8293869705812917 -9.272214840806363e-17 -7.572854420902076e-17 -9.272214840806363e-17 -7.572854420902076e-17 0.5586739883920614 0.8293873490076428
12643822666.666666 0.5678428474498031 0.823136987748649 -9.354506155617139e-17 -7.467217705117243e-17 -9.354506155617139e-17 -7.467217705117243e-17 0.5678422899127742 0.823137372366506
12644440000.0 0.5769412319189676 0.8167856603244475 -9.435595087119364e-17 -7.360688089104351e-17 -9.435595087119364e-17 -7.360688089104351e-17 0.5769406787109006 0.8167860510858541
12645057333.333334 0.5859685834046395 0.8103337702839367 -9.515471962151658e-17 -7.253279246377306e-17 -9.515471962151658e-17 -7.253279246377306e-17 0.5859680345932197 0.8103341671401855
12645674666.666666 0.5949237904596238 0.8037821119836971 -9.594127262912616e-17 -7.145004955067883e-17 -9.594127262912616e-17 -7.145004955067883e-17 0.5949232461119884 0.8037825148853346
12646292000.0 0.603805750519355 0.7971314920636233 -9.671551628091031e-17 -7.035879096160872e-17 -9.671551628091031e-17 -7.035879096160872e-17 0.6038052107020845 0.7971319009604558
12646909333.333334 0.6126133700372729 0.7903827293478742 -9.747735853972157e-17 -6.925915651722602e-17 -9.747735853972157e-17 -6.925915651722602e-17 0.6126128348163844 0.7903831441889761
12647526666.666666 0.6213455646196261 0.7835366547439492 -9.822670895530281e-17 -6.815128703108754e-17 -9.822670895530281e-17 -6.815128703108754e-17 0.6213450340605641 0.7835370754776672
12648144000.0 0.6300012591590898 0.776594111140292 -9.896347867496683e-17 -6.703532429166127e-17 -9.896347867496683e-17 -6.703532429166127e-17 0.6300007333267188 0.7765945377142535
12648761333.333334 0.638579387966957 0.7695559533026597 -9.968758045407823e-17 -6.591141104422503e-17 -9.968758045407823e-17 -6.591141104422503e-17 0.6385788669255527 0.7695563856637772
12649378666.666666 0.6470788949043884 0.7624230477688451 -1.0039892866633615e-16 -6.477969097264054e-17 -1.0039892866633615e-16 -6.477969097264054e-17 0.6470783787176304 0.7624234858633234
12649996000.0 0.6554987335124685 0.7551962727419734 -1.0109743931385247e-16 -6.364030868101812e-17 -1.0109743931385247e-16 -6.364030868101812e-17 0.6554982222434329 0.755196716515318
12650613333.333334 0.6638378671411089 0.7478765179823222 -1.017830300370238e-16 -6.249340967526648e-17 -1.017830300370238e-16 -6.249340967526648e-17 0.6638373608522603 0.747876967379344
12651230666.666666 0.6720952690765306 0.7404646846979027 -1.0245562012417706e-16 -6.133914034456978e-17 -1.0245562012417706e-16 -6.133914034456978e-17 0.6720947678297147 0.7404651396627264
12651848000.0 0.6802699226678236 0.7329616854333743 -1.0311513052103902e-16 -6.017764794270275e-17 -1.0311513052103902e-16 -6.017764794270275e-17 0.6802694265242578 0.7329621459094433
12652465333.333334 0.6883608214520492 0.7253684439577447 -1.0376148383995245e-16 -5.900908056931825e-17 -1.0376148383995245e-16 -5.900908056931825e-17 0.6883603304723183 0.7253689098878302
12653082666.666666 0.6963669692780772 0.7176858951507165 -1.043946043689133e-16 -5.783358715108109e-17 -1.043946043689133e-16 -5.783358715108109e-17 0.6963664835221238 0.7176863664769245
12653700000.0 0.7042873804294768 0.7099149848873499 -1.0501441808039314e-16 -5.665131742270481e-17 -1.0501441808039314e-16 -5.665131742270481e-17 0.7042868999565944 0.7099154615511265
12654317333.333334 0.7121210797455091 0.7020566699219583 -1.0562085263991902e-16 -5.5462421907948915e-17 -1.0562085263991902e-16 -5.5462421907948915e-17 0.7121206046143363 0.7020571518641
12654934666.666666 0.7198671027415192 0.6941119177700021 -1.0621383741446777e-16 -5.426705190047123e-17 -1.0621383741446777e-16 -5.426705190047123e-17 0.7198666330100294 0.6941124049306594
12655552000.0 0.7275244957276144 0.6860817065890188 -1.0679330348064335e-16 -5.306535944459114e-17 -1.0679330348064335e-16 -5.306535944459114e-17 0.7275240314531108 0.6860821989077058
12656169333.333334 0.7350923159258483 0.6779670250584408 -1.0735918363260808e-16 -5.1857497316023875e-17 -1.0735918363260808e-16 -5.1857497316023875e-17 0.7350918571649577 0.6779675224740435
12656786666.666666 0.7425696315866134 0.6697688722575432 -1.079114123898346e-16 -5.064361900245525e-17 -1.079114123898346e-16 -5.064361900245525e-17 0.742569178395278 0.6697693747083258
12657404000.0 0.7499555221031771 0.6614882575426193 -1.0844992600460708e-16 -4.942387868409876e-17 -1.0844992600460708e-16 -4.942387868409876e-17 0.7499550745366477 0.6614887649662318
12658021333.333334 0.7572490781251062 0.6531262004226265 -1.08974662469328e-16 -4.8198431214121717e-17 -1.08974662469328e-16 -4.8198431214121717e-17 0.7572486362379358 0.6531267127561128
12658638666.666666 0.7644494016700565 0.6446837304338557 -1.094855615235806e-16 -4.696743209904731e-17 -1.094855615235806e-16 -4.696743209904731e-17 0.764448965516094 0.6446842476136619
12659256000.0 0.7715556062346318 0.6361618870128337 -1.0998256466099694e-16 -4.573103747902033e-17 -1.0998256466099694e-16 -4.573103747902033e-17 0.7715551758670145 0.6361624089748149
12659873333.333334 0.7785668169033046 0.6275617193686023 -1.1046561513587926e-16 -4.448940410806099e-17 -1.1046561513587926e-16 -4.448940410806099e-17 0.7785663923744525 0.6275622460480313
12660490666.666666 0.7854821704560859 0.6188842863536104 -1.1093465796960369e-16 -4.3242689334236855e-17 -1.1093465796960369e-16 -4.3242689334236855e-17 0.7854817518176946 0.6188848176851854
12661108000.0 0.7923008154750893 0.6101306563329925 -1.1138963995682598e-16 -4.199105107970574e-17 -1.1138963995682598e-16 -4.199105107970574e-17 0.7923004027781259 0.6101311922508464
12661725333.333334 0.7990219124490414 0.6013019070534342 -1.1183050967142177e-16 -4.0734647820798206e-17 -1.1183050967142177e-16 -4.0734647820798206e-17 0.799021505743734 0.60130244749114
12662342666.666666 0.8056446338768647 0.5923991255101859 -1.1225721747223294e-16 -3.947363856795986e-17 -1.1225721747223294e-16 -3.947363856795986e-17 0.805644233212701 0.5923996704007679
12662960000.0 0.8121681643694092 0.5834234078134368 -1.1266971550858032e-16 -3.8208182845656794e-17 -1.1266971550858032e-16 -3.8208182845656794e-17 0.8121677697951277 0.5834239570893774
12663577333.333334 0.8185917007499613 0.5743758590532038 -1.130679577255445e-16 -3.69384406722371e-17 -1.130679577255445e-16 -3.69384406722371e-17 0.8185913123135456 0.5743764126464517
12664194666.666666 0.8249144521530605 0.5652575931633614 -1.134518998690266e-16 -3.566457253972605e-17 -1.134518998690266e-16 -3.566457253972605e-17 0.8249140699017341 0.5652581510053406
12664812000.0 0.8311356401219058 0.5560697327844498 -1.1382149949058025e-16 -3.4386739393569734e-17 -1.1382149949058025e-16 -3.4386739393569734e-17 0.8311352641021268 0.5560702948060684
12665429333.333334 0.8372544987041524 0.546813409125526 -1.141767159520123e-16 -3.3105102612342776e-17 -1.141767159520123e-16 -3.3105102612342776e-17 0.8372541289616051 0.5468139752571829
12666046666.666666 0.8432702745462282 0.5374897618248647 -1.1451751042976051e-16 -3.181982398739721e-17 -1.1451751042976051e-16 -3.181982398739721e-17 0.8432699111258227 0.5374903319964613
12666664000.0 0.8491822269862153 0.5280999388094572 -1.14843845919047e-16 -3.0531065702444403e-17 -1.14843845919047e-16 -3.0531065702444403e-17 0.8491818699320773 0.5281005129504039
12667281333.333334 0.8549896281447753 0.5186450961540839 -1.1515568723778187e-16 -2.923899031317766e-17 -1.1515568723778187e-16 -2.923899031317766e-17 0.8549892775002432 0.518645674193309
12667898666.666666 0.8606917630150126 0.5091263979385957 -1.1545300103026586e-16 -2.7943760726748566e-17 -1.1545300103026586e-16 -2.7943760726748566e-17 0.8606914188226303 0.5091269798045543
12668516000.0 0.8662879295504402 0.49954501610468566 -1.1573575577064518e-16 -2.664554018127244e-17 -1.1573575577064518e-16 -2.664554018127244e-17 0.8662875918519545 0.4995456017253695
12669133333.333334 0.8717774387513171 0.48990213031177265 -1.1600392176613583e-16 -2.5344492225310804e-17 -1.1600392176613583e-16 -2.5344492225310804e-17 0.8717771075876696 0.48990271961471715
12669750666.666666 0.8771596147495637 0.4801989277916145 -1.1625747116002585e-16 -2.4040780697279793e-17 -1.1625747116002585e-16 -2.4040780697279793e-17 0.877159290160889 0.4801995207039097
12670368000.0 0.8824337948920031 0.47043660320208636 -1.16496377934445e-16 -2.27345697048439e-17 -1.16496377934445e-16 -2.27345697048439e-17 0.882433476917622 0.4704371996503849
