! Parameters = {f0=12700.012000; bw=77.238000; Q=6100.000000; N=10; m_0_1=1.230525; m_1_1=-0.306863; m_1_2=1.065337; m_2_2=-0.307512; m_2_3=0.702300; m_2_8=-0.001410; m_2_9=0.035294; m_3_3=-0.309449; m_3_4=0.590829; m_3_7=-0.000810; m_3_8=-0.097898; m_3_9=-0.001410; m_4_4=-0.312374; m_4_5=0.427164; m_4_6=0.002707; m_4_7=-0.118447; m_4_8=-0.000810; m_5_5=-0.311992; m_5_6=0.834519; m_5_7=0.002707; m_6_6=-0.311993; m_6_7=0.427506; m_7_7=-0.312360; m_7_8=0.590947; m_8_8=-0.309451; m_8_9=0.702613; m_9_9=-0.307517; m_9_10=1.066415; m_10_10=-0.306873; m_10_11=1.231320}
!
! Created with skrf (http://scikit-rf.org).
# Hz S RI R 50.0 
!freq ReS11 ImS11 ReS21 ImS21 ReS12 ImS12 ReS22 ImS22
12607400000.0 0.8684503491912888 -0.4957761500812278 -6.328809754133934e-17 6.604845938224755e-17 -6.328809754133934e-17 6.604845938224755e-17 0.8684506706444735 -0.495775586991734
12608017333.333334 0.8637739369033518 -0.5038795351334681 -6.264920625878024e-17 6.663018751889768e-17 -6.264920625878024e-17 6.663018751889768e-17 0.863774263594646 -0.503878975103508
12608634666.666666 0.8590219153042462 -0.5119388137530303 -6.200497611740318e-17 6.720574358504774e-17 -6.200497611740318e-17 6.720574358504774e-17 0.8590222472045415 -0.5119382568313228
12609252000.0 0.8541947003559438 -0.5199532804816726 -6.135546666924107e-17 6.77750786624705e-17 -6.135546666924107e-17 6.77750786624705e-17 0.8541950374356803 -0.5199527267166614
12609869333.333334 0.8492927146023973 -0.5279222337836559 -6.070073791377079e-17 6.833814440685612e-17 -6.070073791377079e-17 6.833814440685612e-17 0.8492930568315619 -0.5279216832235015
12610486666.666666 0.8443163871325805 -0.5358449761071022 -6.004085029241219e-17 6.889489305187717e-17 -6.004085029241219e-17 6.889489305187717e-17 0.8443167344807145 -0.5358444287996815
12611104000.0 0.8392661535427206 -0.5437208139453923 -5.937586468292894e-17 6.94452774132528e-17 -5.937586468292894e-17 6.94452774132528e-17 0.8392665059789199 -0.5437202699382925
12611721333.333334 0.8341424558984872 -0.5515490578973672 -5.870584239387356e-17 6.998925089269072e-17 -5.870584239387356e-17 6.998925089269072e-17 0.834142813391405 -0.5515485172378816
12612338666.666666 0.8289457426960212 -0.5593290227281039 -5.803084515891729e-17 7.052676748184231e-17 -5.803084515891729e-17 7.052676748184231e-17 0.8289461052138705 -0.5593284854632281
12612956000.0 0.8236764688227802 -0.5670600274287277 -5.735093513119521e-17 7.105778176615985e-17 -5.735093513119521e-17 7.105778176615985e-17 0.8236768363333388 -0.5670594936051558
12613573333.333334 0.8183350955178222 -0.5747413952758855 -5.666617487760333e-17 7.158224892871174e-17 -5.666617487760333e-17 7.158224892871174e-17 0.8183354679884329 -0.5747408649400059
12614190666.666666 0.8129220903312188 -0.5823724538912843 -5.597662737305195e-17 7.210012475394872e-17 -5.597662737305195e-17 7.210012475394872e-17 0.8129224677287946 -0.5823719270891761
12614808000.0 0.807437927083326 -0.589952535300269 -5.528235599469574e-17 7.261136563140737e-17 -5.528235599469574e-17 7.261136563140737e-17 0.8074383093743515 -0.5899520120776969
12615425333.333334 0.80188308582316 -0.5974809759905002 -5.4583424516117575e-17 7.311592855936774e-17 -5.4583424516117575e-17 7.311592855936774e-17 0.8018834729736939 -0.5974804563929109
12616042666.666666 0.7962580527864918 -0.6049571169698712 -5.387989710150198e-17 7.361377114843761e-17 -5.387989710150198e-17 7.361377114843761e-17 0.7962584447621718 -0.6049566010423902
12616660000.0 0.7905633203532377 -0.6123803038242641 -5.3171838299745225e-17 7.410485162510462e-17 -5.3171838299745225e-17 7.410485162510462e-17 0.7905637171192819 -0.612379791611691
12617277333.333334 0.7847993870042884 -0.6197498867749205 -5.245931303856429e-17 7.458912883520858e-17 -5.245931303856429e-17 7.458912883520858e-17 0.7847997885255001 -0.6197493783217257
12617894666.666666 0.7789667572780853 -0.6270652207350511 -5.174238661855402e-17 7.506656224737307e-17 -5.174238661855402e-17 7.506656224737307e-17 0.7789671635188534 -0.6270647160853707
12618512000.0 0.7730659417261214 -0.6343256653667263 -5.1021124707212484e-17 7.553711195637913e-17 -5.1021124707212484e-17 7.553711195637913e-17 0.7730663526504261 -0.6343251645643601
12619129333.333334 0.7670974568686217 -0.6415305851364592 -5.0295593332955916e-17 7.60007386864695e-17 -5.0295593332955916e-17 7.60007386864695e-17 0.7670978724400369 -0.6415300882248657
12619746666.666666 0.7610618251491035 -0.6486793493711285 -4.956585887908429e-17 7.645740379460837e-17 -4.956585887908429e-17 7.645740379460837e-17 0.7610622453307997 -0.648678856393421
12620364000.0 0.7549595748885828 -0.6557713323132419 -4.883198807771728e-17 7.690706927368277e-17 -4.883198807771728e-17 7.690706927368277e-17 0.7549599996433313 -0.6557708433121863
12620981333.333334 0.7487912402396273 -0.662805913175369 -4.8094048003721684e-17 7.73496977556344e-17 -4.8094048003721684e-17 7.73496977556344e-17 0.7487916695298017 -0.6628054281933777
12621598666.666666 0.7425573611392637 -0.6697824761948666 -4.735210606859029e-17 7.778525251454464e-17 -4.735210606859029e-17 7.778525251454464e-17 0.7425577949268448 -0.669781995273997
12622216000.0 0.7362584832619594 -0.6767004106875012 -4.6606230014293816e-17 7.821369746966217e-17 -4.6606230014293816e-17 7.821369746966217e-17 0.7362589215085383 -0.6766999338694506
12622833333.333334 0.7298951579716683 -0.6835591111011164 -4.585648790712514e-17 7.863499718835886e-17 -4.585648790712514e-17 7.863499718835886e-17 0.7298956006384487 -0.6835586384272184
12623450666.666666 0.7234679422737764 -0.6903579770684064 -4.510294813149523e-17 7.904911688904093e-17 -4.510294813149523e-17 7.904911688904093e-17 0.7234683893215804 -0.6903575085796294
12624068000.0 0.7169773987661962 -0.6970964134596401 -4.4345679383718506e-17 7.945602244399089e-17 -4.4345679383718506e-17 7.945602244399089e-17 0.7169778501554652 -0.6970959491965811
12624685333.333334 0.7104240955900358 -0.7037738304348318 -4.358475066574584e-17 7.985568038216589e-17 -4.358475066574584e-17 7.985568038216589e-17 0.7104245512808351 -0.7037733704377137
12625302666.666666 0.7038086063802045 -0.7103896434950255 -4.282023127893183e-17 8.02480578919039e-17 -4.282023127893183e-17 8.02480578919039e-17 0.7038090663322273 -0.7103891878036949
12625920000.0 0.6971315102147445 -0.7169432735339274 -4.205219081769801e-17 8.063312282361304e-17 -4.205219081769801e-17 8.063312282361304e-17 0.6971319743873152 -0.7169428221878499
12626537333.333334 0.6903933915645616 -0.7234341468881716 -4.128069916323869e-17 8.101084369236554e-17 -4.128069916323869e-17 8.101084369236554e-17 0.690393859916638 -0.7234336999264276
12627154666.666666 0.6835948402420841 -0.7298616953877175 -4.0505826477181023e-17 8.13811896804441e-17 -4.0505826477181023e-17 8.13811896804441e-17 0.6835953127322638 -0.7298612528490013
12627772000.0 0.67673645134945 -0.7362253564057604 -3.97276431951875e-17 8.174413063984414e-17 -3.97276431951875e-17 8.174413063984414e-17 0.6767369279359703 -0.7362249183283734
12628389333.333334 0.6698188252268451 -0.7425245729075663 -3.894622002062019e-17 8.209963709467487e-17 -3.894622002062019e-17 8.209963709467487e-17 0.6698193058675911 -0.7425241393294181
12629006666.666666 0.6628425673994799 -0.7487587934996829 -3.8161627918078983e-17 8.244768024355022e-17 -3.8161627918078983e-17 8.244768024355022e-17 0.662843052051985 -0.7487583644582843
12629624000.0 0.6558082885249586 -0.7549274724778533 -3.737393810701695e-17 8.278823196187174e-17 -3.737393810701695e-17 8.278823196187174e-17 0.6558087771464088 -0.7549270480103141
12630241333.333334 0.6487166043396381 -0.7610300698749585 -3.658322205525827e-17 8.312126480408667e-17 -3.658322205525827e-17 8.312126480408667e-17 0.648717096886877 -0.7610296500179854
12630858666.666666 0.6415681356047955 -0.7670660515082272 -3.578955147256007e-17 8.344675200585558e-17 -3.578955147256007e-17 8.344675200585558e-17 0.6415686320343267 -0.7670656362981187
12631476000.0 0.6343635080522013 -0.7730348890260647 -3.499299830409141e-17 8.376466748618657e-17 -3.499299830409141e-17 8.376466748618657e-17 0.6343640083201932 -0.7730344784987101
12632093333.333334 0.6271033523294564 -0.778936059954212 -3.419363472395065e-17 8.407498584948316e-17 -3.419363472395065e-17 8.407498584948316e-17 0.6271038563917463 -0.7789356541450874
12632710666.666666 0.619788303944836 -0.784769047741447 -3.339153312864391e-17 8.437768238753998e-17 -3.339153312864391e-17 8.437768238753998e-17 0.6197888117569321 -0.7847686466856109
12633328000.0 0.6124190032113707 -0.7905333418050283 -3.258676613051213e-17 8.467273308148878e-17 -3.258676613051213e-17 8.467273308148878e-17 0.6124195147284581 -0.7905329455371198
12633945333.333334 0.604996095191153 -0.7962284375751045 -3.177940655121399e-17 8.496011460365445e-17 -3.177940655121399e-17 8.496011460365445e-17 0.6049966103680969 -0.7962280461293413
12634562666.666666 0.5975202296386971 -0.8018538365390258 -3.0969527415120397e-17 8.523980431937705e-17 -3.0969527415120397e-17 8.523980431937705e-17 0.597520748430046 -0.8018534499491987
12635180000.0 0.5899920609440138 -0.8074090462850106 -3.0157201942746294e-17 8.551178028875018e-17 -3.0157201942746294e-17 8.551178028875018e-17 0.589992583304006 -0.8074086645844843
12635797333.333334 0.5824122480754702 -0.8128935805451492 -2.934250354412442e-17 8.577602126831375e-17 -2.934250354412442e-17 8.577602126831375e-17 0.5824127739580347 -0.8128932037668555
12636414666.666666 0.5747814545220119 -0.8183069592380323 -2.8525505812213e-17 8.603250671266629e-17 -2.8525505812213e-17 8.603250671266629e-17 0.5747819838807748 -0.8183065874144698
12637032000.0 0.5671003482351131 -0.823648708510763 -2.7706282516241233e-17 8.628121677603138e-17 -2.7706282516241233e-17 8.628121677603138e-17 0.5671008810233997 -0.8236483416739927
12637649333.333334 0.5593696015703276 -0.8289183607804131 -2.6884907595065852e-17 8.652213231375271e-17 -2.6884907595065852e-17 8.652213231375271e-17 0.5593701377411685 -0.8289179989620573
12638266666.666666 0.5515898912283431 -0.8341154547750206 -2.6061455150527466e-17 8.675523488372188e-17 -2.6061455150527466e-17 8.675523488372188e-17 0.5515904307344768 -0.8341150980062577
12638884000.0 0.5437618981959114 -0.839239535573851 -2.5235999440760878e-17 8.698050674775484e-17 -2.5235999440760878e-17 8.698050674775484e-17 0.5437624409897898 -0.8392391838854163
12639501333.333334 0.5358863076860265 -0.8442901546473649 -2.4408614873530542e-17 8.719793087289242e-17 -2.4408614873530542e-17 8.719793087289242e-17 0.5358868537198179 -0.8442898080695451
12640118666.666666 0.5279638090782551 -0.8492668698962735 -2.3579375999533554e-17 8.740749093264544e-17 -2.3579375999533554e-17 8.740749093264544e-17 0.5279643583038488 -0.8492665284589047
12640736000.0 0.5199950958579371 -0.8541692456905307 -2.274835750567464e-17 8.760917130817959e-17 -2.274835750567464e-17 8.760917130817959e-17 0.5199956482269478 -0.8541689094229962
12641353333.333334 0.5119808655559868 -0.858996852907144 -2.1915634208406752e-17 8.780295708941841e-17 -2.1915634208406752e-17 8.780295708941841e-17 0.5119814210197594 -0.8589965218383734
12641970666.666666 0.5039218196874998 -0.8637492689679531 -2.108128104695021e-17 8.798883407611071e-17 -2.108128104695021e-17 8.798883407611071e-17 0.5039223781971125 -0.8637489431264161
12642588000.0 0.4958186636903934 -0.8684260778765845 -2.0245373076605985e-17 8.816678877880862e-17 -2.0245373076605985e-17 8.816678877880862e-17 0.49581922519666244 -0.8684257572902914
12643205333.333334 0.48767210686382756 -0.8730268702547652 -1.9407985461996358e-17 8.833680841979815e-17 -1.9407985461996358e-17 8.833680841979815e-17 0.4876726713173121 -0.8730265549512636
12643822666.666666 0.47948286230582343 -0.8775512433783285 -1.8569193470330846e-17 8.849888093395793e-17 -1.8569193470330846e-17 8.849888093395793e-17 0.47948342965682933 -0.8775509333847005
12644440000.0 0.4712516468511381 -0.8819988012122947 -1.7729072464648192e-17 8.865299496955805e-17 -1.7729072464648192e-17 8.865299496955805e-17 0.47125221704972275 -0.8819984965551559
12645057333.333334 0.462979181008421 -0.886369154445599 -1.688769789707759e-17 8.879913988899029e-17 -1.688769789707759e-17 8.879913988899029e-17 0.4629797540043972 -0.8863688551510946
12645674666.666666 0.45466618889706917 -0.8906619205252064 -1.604514530205677e-17 8.893730576944138e-17 -1.604514530205677e-17 8.893730576944138e-17 0.45466676464000966 -0.8906616266190098
12646292000.0 0.4463133981838407 -0.8948767236895969 -1.5201490289565523e-17 8.906748340349813e-17 -1.5201490289565523e-17 8.906748340349813e-17 0.4463139766230828 -0.8948764351969074
12646909333.333334 0.4379215400192867 -0.8990131950015922 -1.4356808538380545e-17 8.918966429968498e-17 -1.4356808538380545e-17 8.918966429968498e-17 0.4379221211039369 -0.8990129119471331
12647526666.666666 0.4294913489736759 -0.9030709723806911 -1.3511175789268516e-17 8.930384068294695e-17 -1.3511175789268516e-17 8.930384068294695e-17 0.4294919326526138 -0.9030706947887068
12648144000.0 0.4210235629726427 -0.9070497006347871 -1.2664667838229407e-17 8.94100054950593e-17 -1.2664667838229407e-17 8.94100054950593e-17 0.42102414919452585 -0.9070494285290415
12648761333.333334 0.4125189232326188 -0.9109490314912448 -1.181736052970726e-17 8.950815239497888e-17 -1.181736052970726e-17 8.950815239497888e-17 0.4125195119458872 -0.9109487648950193
12649378666.666666 0.4039781741961334 -0.914768623627305 -1.0969329749829655e-17 8.959827575912667e-17 -1.0969329749829655e-17 8.959827575912667e-17 0.40397876534901456 -0.914768362563398
12649996000.0 0.3954020634663139 -0.918508142700116 -1.0120651419592744e-17 8.968037068161314e-17 -1.0120651419592744e-17 8.968037068161314e-17 0.3954026570068264 -0.9185078871908379
12650613333.333334 0.3867913417417026 -0.9221672613758791 -9.271401488106883e-18 8.975443297439199e-17 -9.271401488106883e-18 8.975443297439199e-17 0.3867919376176609 -0.9221670114430519
12651230666.666666 0.3781467627505739 -0.9257456593584962 -8.421655925804278e-18 8.982045916735489e-17 -8.421655925804278e-18 8.982045916735489e-17 0.3781473609095937 -0.9257454150234529
12651848000.0 0.36946908318461635 -0.9292430234177466 -7.571490717649748e-18 8.987844650836055e-17 -7.571490717649748e-18 8.987844650836055e-17 0.3694696835741182 -0.929242784701327
12652465333.333334 0.3607590626331158 -0.9326590474165312 -6.72098185637603e-18 8.992839296319911e-17 -6.72098185637603e-18 8.992839296319911e-17 0.3607596652003302 -0.9326588143390814
12653082666.666666 0.3520174635162573 -0.9359934323377577 -5.870205335697916e-18 8.997029721549388e-17 -5.870205335697916e-18 8.997029721549388e-17 0.3520180682082294 -0.9359932049191287
12653700000.0 0.3432450510183057 -0.9392458863105423 -5.019237143528931e-18 9.000415866653834e-17 -5.019237143528931e-18 9.000415866653834e-17 0.3432456577818999 -0.9392456645700878
12654317333.333334 0.334442593020921 -0.9424161246356512 -4.168153255224309e-18 9.00299774350695e-17 -4.168153255224309e-18 9.00299774350695e-17 0.33444320180282533 -0.9424159085922256
12654934666.666666 0.32561086003559403 -0.9455038698105456 -3.3170296268071295e-18 9.00477543569768e-17 -3.3170296268071295e-18 9.00477543569768e-17 0.3256114707823254 -0.9455036594825035
12655552000.0 0.31675062513638935 -0.9485088515536071 -2.46594218818355e-18 9.00574909849488e-17 -2.46594218818355e-18 9.00574909849488e-17 0.31675123779429787 -0.9485086469588013
12656169333.333334 0.30786266389230116 -0.9514308068277858 -1.6149668364269707e-18 9.005918958805374e-17 -1.6149668364269707e-18 9.005918958805374e-17 0.3078632784075747 -0.9514306079835646
12656786666.666666 0.2989477542993123 -0.9542694798636462 -7.641794289781543e-19 9.005285315125856e-17 -7.641794289781543e-19 9.005285315125856e-17 0.2989483706179815 -0.9542692867868535
12657404000.0 0.2900066767122111 -0.9570246221817783 8.634422307166139e-20 9.003848537488304e-17 8.634422307166139e-20 9.003848537488304e-17 0.2900072947801538 -0.9570244348887507
12658021333.333334 0.2810402137764195 -0.9596959926145059 9.365283617344249e-19 9.001609067399108e-17 9.365283617344249e-19 9.001609067399108e-17 0.28104083353936604 -0.9596958111210726
12658638666.666666 0.27204915035954064 -0.9622833573269819 1.7862972888536472e-18 8.998567417771798e-17 1.7862972888536472e-18 8.998567417771798e-17 0.2720497717630787 -0.962283181648465
12659256000.0 0.2630342734823025 -0.9647864898377637 2.635575372837606e-18 8.994724172853448e-17 2.635575372837606e-18 8.994724172853448e-17 0.26303489647188055 -0.9647863199889718
12659873333.333334 0.25399637225010196 -0.9672051710385046 3.484287055373754e-18 8.990079988144755e-17 3.484287055373754e-18 8.990079988144755e-17 0.25399699677103543 -0.9672050070337364
12660490666.666666 0.2449362377837147 -0.9695391892132028 4.332356858116117e-18 8.9846355903139e-17 4.332356858116117e-18 8.9846355903139e-17 0.24493686378119042 -0.9695390310662436
12661108000.0 0.2358546631499618 -0.9717883400567502 5.179709389429334e-18 8.978391777103769e-17 5.179709389429334e-18 8.978391777103769e-17 0.2358552905690424 -0.9717881877808705
12661725333.333334 0.22675244329259306 -0.9739524266927392 6.026269351020237e-18 8.971349417233417e-17 6.026269351020237e-18 8.971349417233417e-17 0.2267530720782223 -0.9739522803006953
12662342666.666666 0.21763037496231633 -0.9760312596907937 6.871961544663147e-18 8.963509450292641e-17 6.871961544663147e-18 8.963509450292641e-17 0.21763100505932378 -0.9760311191948257
12662960000.0 0.20848925664738677 -0.97802465708307 7.716710878834537e-18 8.954872886630771e-17 7.716710878834537e-18 8.954872886630771e-17 0.20848988800049245 -0.9780245224949
12663577333.333334 0.19932988850346237 -0.9799324443802402 8.560442375376422e-18 8.945440807238905e-17 8.560442375376422e-18 8.945440807238905e-17 0.19933052105728216 -0.9799323157110741
12664194666.666666 0.19015307228375877 -0.9817544545867284 9.40308117614448e-18 8.935214363625966e-17 9.40308117614448e-18 8.935214363625966e-17 0.19015370598280817 -0.9817543318472496
12664812000.0 0.18095961126878404 -0.983490528215339 1.0244552549617374e-17 8.924194777688627e-17 1.0244552549617374e-17 8.924194777688627e-17 0.18096024605748431 -0.983490411415714
12665429333.333334 0.17175031019591425 -0.9851405133012457 1.108478189753301e-17 8.912383341574756e-17 1.108478189753301e-17 8.912383341574756e-17 0.1717509460185965 -0.985140402451119
12666046666.666666 0.1625259751892868 -0.9867042654152293 1.1923694761454407e-17 8.89978141754119e-17 1.1923694761454407e-17 8.89978141754119e-17 0.16252661199019686 -0.9867041605237222
12666664000.0 0.15328741368870497 -0.9881816476764097 1.2761216829401585e-17 8.886390437804291e-17 1.2761216829401585e-17 8.886390437804291e-17 0.15328805141200874 -0.9881815487521232
12667281333.333334 0.14403543437954897 -0.9895725307641329 1.3597273942364181e-17 8.872211904385791e-17 1.3597273942364181e-17 8.872211904385791e-17 0.14403607296933704 -0.9895724378151439
12667898666.666666 0.13477084712162418 -0.9908767929293508 1.4431792100898953e-17 8.857247388950999e-17 1.4431792100898953e-17 8.857247388950999e-17 0.13477148652191676 -0.9908767059632135
12668516000.0 0.12549446287818602 -0.9920943200052864 1.5264697471647207e-17 8.841498532641736e-17 1.5264697471647207e-17 8.841498532641736e-17 0.12549510303293773 -0.9920942390290292
12669133333.333334 0.11620709364540398 -0.9932250054173644 1.6095916393837746e-17 8.824967045903264e-17 1.6095916393837746e-17 8.824967045903264e-17 0.11620773449850894 -0.9932249304374915
12669750666.666666 0.10690955238077766 -0.9942687501926115 1.692537538581942e-17 8.807654708304175e-17 1.692537538581942e-17 8.807654708304175e-17 0.10691019387607427 -0.994268681215101
12670368000.0 0.09760265293231367 -0.9952254629682713 1.7753001151514904e-17 8.789563368351258e-17 1.7753001151514904e-17 8.789563368351258e-17 0.09760329501358965 -0.9952253999985762
12670985333.333334 0.08828720996714567 -0.9960950599998237 1.8578720586895788e-17 8.770694943297655e-17 1.8578720586895788e-17 8.770694943297655e-17 0.08828785257814294 -0.9960950030428704
