! Parameters = {f0=12700.012000; bw=77.238000; Q=6100.000000; N=10; m_0_1=1.169665; m_1_1=-1.219776; m_1_2=1.004477; m_2_2=-1.220425; m_2_3=0.641440; m_2_8=-0.004453; m_2_9=0.032251; m_3_3=-1.222362; m_3_4=0.529969; m_3_7=-0.003853; m_3_8=-0.100941; m_3_9=-0.004453; m_4_4=-1.225287; m_4_5=0.366304; m_4_6=-0.000336; m_4_7=-0.121490; m_4_8=-0.003853; m_5_5=-1.224905; m_5_6=0.773659; m_5_7=-0.000336; m_6_6=-1.224906; m_6_7=0.366646; m_7_7=-1.225273; m_7_8=0.530087; m_8_8=-1.222364; m_8_9=0.641753; m_9_9=-1.220430; m_9_10=1.005555; m_10_10=-1.219786; m_10_11=1.170460}
!
! Created with skrf (http://scikit-rf.org).
# Hz S RI R 50.0 
!freq ReS11 ImS11 ReS21 ImS21 ReS12 ImS12 ReS22 ImS22
12607400000.0 0.12095089934929926 -0.9926584910967347 1.115287420646825e-17 6.625815037928915e-17 1.115287420646825e-17 6.625815037928915e-17 0.12095151124286514 -0.9926584165401092
12608017333.333334 0.11344622472569746 -0.9935441379703953 1.1656833453250608e-17 6.615798426675862e-17 1.1656833453250608e-17 6.615798426675862e-17 0.11344683713520108 -0.9935440680432193
12608634666.666666 0.10593507181300302 -0.9943730489910838 1.215991371617827e-17 6.605398912826196e-17 1.215991371617827e-17 6.605398912826196e-17 0.10593568470342413 -0.9943729836968954
12609252000.0 0.09841786953193922 -0.9951451768242886 1.266208593409814e-17 6.59461725424425e-17 1.266208593409814e-17 6.59461725424425e-17 0.0984184828682337 -0.9951451161663636
12609869333.333334 0.09089504714864681 -0.9958604773780791 1.3163321110300755e-17 6.583454230826828e-17 1.3163321110300755e-17 6.583454230826828e-17 0.09089566089574842 -0.995860421359427
12610486666.666666 0.08336703425028397 -0.9965189098056102 1.3663590314181365e-17 6.571910644449187e-17 1.3663590314181365e-17 6.571910644449187e-17 0.08336764837310646 -0.9965188584289751
12611104000.0 0.07583426072029688 -0.9971204365074741 1.416286468292447e-17 6.559987318909145e-17 1.416286468292447e-17 6.559987318909145e-17 0.07583487518373601 -0.9971203897753353
12611721333.333334 0.06829715671409796 -0.9976650231338275 1.4661115423138935e-17 6.547685099870887e-17 1.4661115423138935e-17 6.547685099870887e-17 0.06829777148303341 -0.9976649810483983
12612338666.666666 0.06075615263430364 -0.9981526385863678 1.515831381252396e-17 6.535004854806779e-17 1.515831381252396e-17 6.535004854806779e-17 0.060756767673601185 -0.9981526011495968
12612956000.0 0.05321167910624159 -0.9985832550201039 1.565443120153005e-17 6.521947472937885e-17 1.565443120153005e-17 6.521947472937885e-17 0.05321229438075494 -0.9985832222336734
12613573333.333334 0.045664166953445044 -0.9989568478449397 1.6149439014979938e-17 6.508513865174078e-17 1.6149439014979938e-17 6.508513865174078e-17 0.04566478242801799 -0.9989568197102675
12614190666.666666 0.03811404717288083 -0.9992733957270923 1.664330875372894e-17 6.494704964051847e-17 1.664330875372894e-17 6.494704964051847e-17 0.038114662812349064 -0.9992733722453283
12614808000.0 0.030561750910450644 -0.9995328805902973 1.713601199629071e-17 6.480521723671582e-17 1.713601199629071e-17 6.480521723671582e-17 0.030562366679644005 -0.9995328617623281
12615425333.333334 0.023007709436342647 -0.9997352876168488 1.7627520400470627e-17 6.46596511963331e-17 1.7627520400470627e-17 6.46596511963331e-17 0.02300832530008691 -0.9997352734432926
12616042666.666666 0.015452354120375315 -0.999880605248441 1.8117805704982934e-17 6.451036148971467e-17 1.8117805704982934e-17 6.451036148971467e-17 0.015452970043494383 -0.9998805957296526
12616660000.0 0.00789611640747813 -0.999968825186831 1.860683973108098e-17 6.43573583008801e-17 1.860683973108098e-17 6.43573583008801e-17 0.007896732354795905 -0.999968820322897
12617277333.333334 0.00033942779285507516 -0.9999999423943101 1.9094594384165227e-17 6.420065202684646e-17 1.9094594384165227e-17 6.420065202684646e-17 0.0003400437291975521 -0.9999999421850544
12617894666.666666 -0.007217280202399829 -0.9999739550939973 1.95810416553843e-17 6.404025327694056e-17 1.95810416553843e-17 6.404025327694056e-17 -0.007216664312202601 -0.9999739595389749
12618512000.0 -0.01477357605628541 -0.9998908647699308 2.0066153623257303e-17 6.387617287208937e-17 2.0066153623257303e-17 6.387617287208937e-17 -0.014772960247397306 -0.9998908738684332
12619129333.333334 -0.022329028270165724 -0.9997506761669932 2.054990245524712e-17 6.370842184411288e-17 2.054990245524712e-17 6.370842184411288e-17 -0.022328412577742544 -0.9997506899180456
12619746666.666666 -0.02988320539358115 -0.999553397290638 2.1032260409362166e-17 6.353701143499355e-17 2.1032260409362166e-17 6.353701143499355e-17 -0.02988258985276857 -0.9995534156929993
12620364000.0 -0.037435676049056496 -0.9992990394064236 2.15131998357523e-17 6.336195309613378e-17 2.15131998357523e-17 6.336195309613378e-17 -0.03743506069498815 -0.9992990624585883
12620981333.333334 -0.04498600895636541 -0.9989876170393847 2.199269317826444e-17 6.318325848761301e-17 2.199269317826444e-17 6.318325848761301e-17 -0.04498539382416078 -0.9989876447395815
12621598666.666666 -0.0525337729574708 -0.9986191479731916 2.247071297603522e-17 6.300093947741796e-17 2.247071297603522e-17 6.300093947741796e-17 -0.052533158082233286 -0.9986191803193838
12622216000.0 -0.0600785370410324 -0.9981936532491386 2.294723186505071e-17 6.281500814067087e-17 2.294723186505071e-17 6.281500814067087e-17 -0.06007792245784725 -0.9981936902390238
12622833333.333334 -0.06761987036696233 -0.997711157164941 2.3422222579703117e-17 6.262547675884375e-17 2.3422222579703117e-17 6.262547675884375e-17 -0.06761925611089481 -0.997711198795954
12623450666.666666 -0.07515734229108555 -0.9971716872733557 2.3895657954348845e-17 6.243235781895993e-17 2.3895657954348845e-17 6.243235781895993e-17 -0.07515672839717867 -0.997171733542665
12624068000.0 -0.08269052238975909 -0.9965752743805956 2.4367510924857688e-17 6.223566401278269e-17 2.4367510924857688e-17 6.223566401278269e-17 -0.08268990889303185 -0.9965753252851048
12624685333.333334 -0.0902189804845084 -0.9959219525445694 2.483775453015755e-17 6.203540823599259e-17 2.483775453015755e-17 6.203540823599259e-17 -0.09021836741995361 -0.9959220080809184
12625302666.666666 -0.09774228666633712 -0.9952117590729562 2.530636191375152e-17 6.183160358736179e-17 2.530636191375152e-17 6.183160358736179e-17 -0.09774167406891957 -0.9952118192375209
12625920000.0 -0.10526001132058853 -0.9944447345210493 2.5773306325271897e-17 6.162426336789821e-17 2.5773306325271897e-17 6.162426336789821e-17 -0.10525939922524295 -0.9944447993099423
12626537333.333334 -0.11277172515125226 -0.9936209226894637 2.623856112197679e-17 6.141340108000006e-17 2.623856112197679e-17 6.141340108000006e-17 -0.11277111359288125 -0.9936209920985324
12627154666.666666 -0.12027699920553539 -0.9927403706216253 2.6702099770276558e-17 6.119903042658305e-17 2.6702099770276558e-17 6.119903042658305e-17 -0.12027638821900744 -0.9927404446464552
12627772000.0 -0.12777540489855524 -0.991803128601065 2.716389584724436e-17 6.098116531019985e-17 2.716389584724436e-17 6.098116531019985e-17 -0.12777479451870286 -0.9918032072369772
12628389333.333334 -0.13526651403744666 -0.9908092501485883 2.7623923042102557e-17 6.075981983215632e-17 2.7623923042102557e-17 6.075981983215632e-17 -0.13526590429906415 -0.9908093333906416
12629006666.666666 -0.14274989884612405 -0.9897587920191829 2.8082155157734616e-17 6.053500829160127e-17 2.8082155157734616e-17 6.053500829160127e-17 -0.14274928978396575 -0.9897588798621733
12629624000.0 -0.15022513198956824 -0.9886518141987942 2.853856611215549e-17 6.030674518462106e-17 2.853856611215549e-17 6.030674518462106e-17 -0.15022452363834676 -0.9886519066372567
12630241333.333334 -0.15769178659828595 -0.9874883799008936 2.8993129939993404e-17 6.007504520331402e-17 2.8993129939993404e-17 6.007504520331402e-17 -0.1576911789926695 -0.9874884769290996
12630858666.666666 -0.16514943629257284 -0.9862685555628835 2.9445820793961233e-17 5.983992323485618e-17 2.9445820793961233e-17 5.983992323485618e-17 -0.16514882946718384 -0.986268657174844
12631476000.0 -0.17259765520705875 -0.9849924108422742 2.989661294633169e-17 5.960139436054866e-17 2.989661294633169e-17 5.960139436054866e-17 -0.1725970491964718 -0.9849925170317393
12632093333.333334 -0.1800360180148305 -0.9836600186127396 3.034548079037327e-17 5.935947385487164e-17 3.034548079037327e-17 5.935947385487164e-17 -0.18003541285357005 -0.9836601293731977
12632710666.666666 -0.18746409995177518 -0.9822714549599421 3.079239884180883e-17 5.911417718451127e-17 3.079239884180883e-17 5.911417718451127e-17 -0.18746349567431403 -0.9822715702846219
12633328000.0 -0.1948814768410049 -0.9808267991771635 3.1237341740266275e-17 5.886552000737571e-17 3.1237341740266275e-17 5.886552000737571e-17 -0.19488087348176195 -0.9808269190590337
12633945333.333334 -0.2022877251168544 -0.9793261337608111 3.1680284250689766e-17 5.861351817161727e-17 3.1680284250689766e-17 5.861351817161727e-17 -0.2022871227101928 -0.9793262581925811
12634562666.666666 -0.20968242184909786 -0.9777695444057086 3.2121201264783227e-17 5.835818771462266e-17 3.2121201264783227e-17 5.835818771462266e-17 -0.20968182042932296 -0.9777696733798282
12635180000.0 -0.21706514476723876 -0.976157120000171 3.2560067802418875e-17 5.809954486200637e-17 3.2560067802418875e-17 5.809954486200637e-17 -0.21706454436859612 -0.9761572535088313
12635797333.333334 -0.22443547228453967 -0.974488952620945 3.299685901304981e-17 5.783760602658774e-17 3.299685901304981e-17 5.783760602658774e-17 -0.22443487294121323 -0.9744890906560792
12636414666.666666 -0.23179298352201388 -0.9727651375279719 3.3431550177104284e-17 5.757238780736287e-17 3.3431550177104284e-17 5.757238780736287e-17 -0.23179238526812418 -0.972765280081256
12637032000.0 -0.23913725833262614 -0.9709857731589097 3.3864116707389844e-17 5.730390698845528e-17 3.3864116707389844e-17 5.730390698845528e-17 -0.239136661202228 -0.9709859202217619
12637649333.333334 -0.24646787732520087 -0.9691509611235289 3.429453415046479e-17 5.703218053807103e-17 3.429453415046479e-17 5.703218053807103e-17 -0.24646728135228171 -0.9691511126871113
12638266666.666666 -0.2537844218882898 -0.9672608061979343 3.472277818802574e-17 5.675722560742899e-17 3.472277818802574e-17 5.675722560742899e-17 -0.2537838271067674 -0.9672609622531517
12638884000.0 -0.2610864742142405 -0.9653154163185357 3.5148824638268686e-17 5.6479059529691e-17 3.5148824638268686e-17 5.6479059529691e-17 -0.2610858806579618 -0.9653155768560391
12639501333.333334 -0.26837361732297393 -0.963314902575909 3.5572649457251404e-17 5.619769981887644e-17 3.5572649457251404e-17 5.619769981887644e-17 -0.2683730250257121 -0.9633150675860934
12640118666.666666 -0.27564543508568506 -0.9612593792084813 3.599422874023627e-17 5.591316416877389e-17 3.599422874023627e-17 5.591316416877389e-17 -0.27564484408113826 -0.961259548681487
12640736000.0 -0.2829015122489347 -0.9591489635959142 3.6413538723049295e-17 5.562547045182534e-17 3.6413538723049295e-17 5.562547045182534e-17 -0.2829009225707243 -0.9591491375216288
12641353333.333334 -0.2901414344578707 -0.9569837762525443 3.683055578339326e-17 5.533463671802681e-17 3.683055578339326e-17 5.533463671802681e-17 -0.29014084613953856 -0.9569839546206005
12641970666.666666 -0.29736478828035307 -0.9547639408203643 3.7245256442182644e-17 5.504068119379639e-17 3.7245256442182644e-17 5.504068119379639e-17 -0.29736420135536024 -0.9547641236201432
12642588000.0 -0.3045711612303172 -0.9524895840620344 3.7657617364861054e-17 5.4743622280840245e-17 3.7657617364861054e-17 5.4743622280840245e-17 -0.30457057573204216 -0.9524897712826651
12643205333.333334 -0.3117601417913837 -0.9501608358536292 3.806761536270146e-17 5.44434785550132e-17 3.806761536270146e-17 5.44434785550132e-17 -0.31175955775312 -0.9501610274839891
12643822666.666666 -0.31893131944035763 -0.9477778291772199 3.8475227394112934e-17 5.414026876515917e-17 3.8475227394112934e-17 5.414026876515917e-17 -0.31893073689531243 -0.9477780252059363
12644440000.0 -0.3260842846706979 -0.9453407001132709 3.8880430565915186e-17 5.383401183195812e-17 3.8880430565915186e-17 5.383401183195812e-17 -0.3260837036519897 -0.9453409005287207
12645057333.333334 -0.33321862901582194 -0.9428495878328987 3.92832021346289e-17 5.3524726846746415e-17 3.92832021346289e-17 5.3524726846746415e-17 -0.3332180495564784 -0.9428497926232084
12645674666.666666 -0.3403339450724568 -0.9403046345899128 3.9683519507739375e-17 5.3212433070339155e-17 3.9683519507739375e-17 5.3212433070339155e-17 -0.340333367205414 -0.9403048437429619
12646292000.0 -0.34742982652409227 -0.9377059857126271 4.008136024496935e-17 5.289714993182973e-17 4.008136024496935e-17 5.289714993182973e-17 -0.3474292502821921 -0.937706199216047
12646909333.333334 -0.3545058681638622 -0.9350537895956779 4.0476702059510926e-17 5.2578897027404344e-17 4.0476702059510926e-17 5.2578897027404344e-17 -0.35450529357985 -0.9350540074368514
12647526666.666666 -0.36156166591784317 -0.932348197691488 4.0869522819283796e-17 5.22576941191191e-17 4.0869522819283796e-17 5.22576941191191e-17 -0.36156109302436695 -0.9323484198575529
12648144000.0 -0.3685968168682629 -0.9295893645015718 4.125980054816021e-17 5.1933561133686897e-17 4.125980054816021e-17 5.1933561133686897e-17 -0.3685962456978711 -0.9295895909794203
12648761333.333334 -0.3756109192762955 -0.9267774475677903 4.164751342719071e-17 5.160651816124666e-17 4.164751342719071e-17 5.160651816124666e-17 -0.37561034986143443 -0.9267776783440688
12649378666.666666 -0.38260357260505534 -0.9239126074633353 4.203263979581129e-17 5.1276585454130746e-17 4.203263979581129e-17 5.1276585454130746e-17 -0.38260300497806843 -0.9239128425244466
12649996000.0 -0.3895743775424978 -0.9209950077835523 4.2415158153055934e-17 5.094378342561181e-17 4.2415158153055934e-17 5.094378342561181e-17 -0.38957381173562305 -0.9209952471156562
12650613333.333334 -0.3965229360242987 -0.9180248151365632 4.2795047158745186e-17 5.060813264865035e-17 4.2795047158745186e-17 5.060813264865035e-17 -0.39652237206966656 -0.9180250587255753
12651230666.666666 -0.4034488512563765 -0.9150021991338396 4.317228563466483e-17 5.0269653854636435e-17 4.317228563466483e-17 5.0269653854636435e-17 -0.4034482891860089 -0.9150024469654351
12651848000.0 -0.4103517277378375 -0.9119273323803946 4.35468525657551e-17 4.992836793210278e-17 4.35468525657551e-17 4.992836793210278e-17 -0.4103511675836462 -0.9119275844400088
12652465333.333334 -0.4172311712833286 -0.9088003904650306 4.391872710125599e-17 4.9584295925459375e-17 4.391872710125599e-17 4.9584295925459375e-17 -0.4172306130771121 -0.9088006467378574
12653082666.666666 -0.4240867890455709 -0.905621551950299 4.428788855586991e-17 4.9237459033696206e-17 4.428788855586991e-17 4.9237459033696206e-17 -0.42408623281901364 -0.9056218124212932
12653700000.0 -0.43091818953794936 -0.9023909983622334 4.465431641091336e-17 4.88878786090767e-17 4.465431641091336e-17 4.88878786090767e-17 -0.4309176353226193 -0.9023912630161116
12654317333.333334 -0.4377249826566609 -0.8991089141800778 4.5017990315432566e-17 4.8535576155847285e-17 4.5017990315432566e-17 4.8535576155847285e-17 -0.4377244304840086 -0.89910918300132
12654934666.666666 -0.44450677970317287 -0.8957754868256698 4.5378890087342026e-17 4.818057332890802e-17 4.5378890087342026e-17 4.818057332890802e-17 -0.4445062296045295 -0.8957757597985201
12655552000.0 -0.4512631934063423 -0.8923909066527753 4.573699571453173e-17 4.782289193249368e-17 4.573699571453173e-17 4.782289193249368e-17 -0.45126264541291644 -0.8923911837612402
12656169333.333334 -0.45799383794445186 -0.8889553669362505 4.6092287355965926e-17 4.746255391884598e-17 4.6092287355965926e-17 4.746255391884598e-17 -0.45799329208732975 -0.8889556481641034
12656786666.666666 -0.46469832896739754 -0.8854690638609344 4.6444745342783395e-17 4.7099581386865616e-17 4.6444745342783395e-17 4.7099581386865616e-17 -0.46469778527754035 -0.8854693491917155
12657404000.0 -0.47137628361853456 -0.8819321965104967 4.6794350179373816e-17 4.6733996580769506e-17 4.6794350179373816e-17 4.6733996580769506e-17 -0.4713757421267766 -0.8819324859275129
12658021333.333334 -0.47802732055659 -0.8783449668560409 4.7141082544451433e-17 4.6365821888731834e-17 4.7141082544451433e-17 4.6365821888731834e-17 -0.4780267812936359 -0.8783452603423656
12658638666.666666 -0.4846510599773377 -0.8747075797446222 4.7484923292110567e-17 4.599507984152573e-17 4.7484923292110567e-17 4.599507984152573e-17 -0.48465052297376393 -0.8747078772831015
12659256000.0 -0.49124712363544054 -0.8710202428874759 4.782585345288328e-17 4.562179311114328e-17 4.782585345288328e-17 4.562179311114328e-17 -0.4912465889216901 -0.8710205444607242
12659873333.333334 -0.4978151348659713 -0.8672831668481904 4.8163854234774704e-17 4.524598450942025e-17 4.8163854234774704e-17 4.524598450942025e-17 -0.4978146024723538 -0.8672834724385932
12660490666.666666 -0.5043547186058254 -0.8634965650307427 4.849890702428652e-17 4.486767698665457e-17 4.849890702428652e-17 4.486767698665457e-17 -0.5043541885625149 -0.8634968746204581
12661108000.0 -0.5108655014154072 -0.8596606536671524 4.8830993387448227e-17 4.4486893630196275e-17 4.8830993387448227e-17 4.4486893630196275e-17 -0.5108649737524414 -0.8596609672381134
12661725333.333334 -0.5173471114996395 -0.8557756518053263 4.916009507080656e-17 4.4103657663065184e-17 4.916009507080656e-17 4.4103657663065184e-17 -0.5173465862469165 -0.8557759693392385
12662342666.666666 -0.5237991787293631 -0.8518417812964418 4.948619400243613e-17 4.3717992442524484e-17 4.948619400243613e-17 4.3717992442524484e-17 -0.5237986559166411 -0.8518421027747877
12662960000.0 -0.5302213346624992 -0.8478592667822703 4.98092722929131e-17 4.332992145867671e-17 4.98092722929131e-17 4.332992145867671e-17 -0.530220814319393 -0.8478595921863072
12663577333.333334 -0.5366132125650142 -0.8438283356823867 5.0129312236297673e-17 4.293946833302997e-17 5.0129312236297673e-17 4.293946833302997e-17 -0.5366126947209955 -0.8438286649931508
12664194666.666666 -0.5429744474318865 -0.839749218181171 5.04462963110918e-17 4.25466568170725e-17 5.04462963110918e-17 4.25466568170725e-17 -0.5429739321162822 -0.839749551379478
12664812000.0 -0.5493046760079764 -0.8356221472146507 5.076020718119181e-17 4.2151510790833037e-17 5.076020718119181e-17 4.2151510790833037e-17 -0.5493041632499646 -0.8356224842810942
12665429333.333334 -0.5556035368086938 -0.8314473584572397 5.107102769683033e-17 4.175405426143469e-17 5.107102769683033e-17 4.175405426143469e-17 -0.5556030266373049 -0.8314476993721963
12666046666.666666 -0.5618706701406686 -0.827225090308271 5.137874089550017e-17 4.135431136164841e-17 5.137874089550017e-17 4.135431136164841e-17 -0.5618701625847817 -0.8272254350518984
12666664000.0 -0.5681057181224537 -0.8229555838782692 5.1683330002880563e-17 4.095230634842434e-17 5.1683330002880563e-17 4.095230634842434e-17 -0.5681052132107962 -0.822955932430508
12667281333.333334 -0.574308324704656 -0.8186390829753877 5.1984778433734476e-17 4.054806360143835e-17 5.1984778433734476e-17 4.054806360143835e-17 -0.5743078224658016 -0.8186394353159646
12667898666.666666 -0.5804781356905264 -0.8142758340913123 5.228306979281035e-17 4.0141607621611e-17 5.228306979281035e-17 4.0141607621611e-17 -0.5804776361528934 -0.8142761901997386
12668516000.0 -0.5866147987560939 -0.8098660863872496 5.2578187875726784e-17 3.973296302962762e-17 5.2578187875726784e-17 3.973296302962762e-17 -0.586614301947943 -0.8098664462428231
12669133333.333334 -0.5927179634702123 -0.8054100916797459 5.2870116669834714e-17 3.932215456446702e-17 5.2870116669834714e-17 3.932215456446702e-17 -0.5927174694196462 -0.8054104552615531
12669750666.666666 -0.5987872813147133 -0.8009081044262101 5.3158840355090166e-17 3.89092070818937e-17 5.3158840355090166e-17 3.89092070818937e-17 -0.5987867900496748 -0.8009084717131275
12670368000.0 -0.6048224057042383 -0.7963603817104346 5.3444343304894337e-17 3.849414555297243e-17 5.3444343304894337e-17 3.849414555297243e-17 -0.6048219172525077 -0.7963607526811275
