! Parameters = {f0=12700.012000; bw=77.238000; Q=6100.000000; N=10; m_0_1=1.176872; m_1_1=-1.111668; m_1_2=1.011684; m_2_2=-1.112317; m_2_3=0.648647; m_2_8=-0.004093; m_2_9=0.032611; m_3_3=-1.114254; m_3_4=0.537176; m_3_7=-0.003493; m_3_8=-0.100581; m_3_9=-0.004093; m_4_4=-1.117179; m_4_5=0.373511; m_4_6=0.000024; m_4_7=-0.121130; m_4_8=-0.003493; m_5_5=-1.116797; m_5_6=0.780866; m_5_7=0.000024; m_6_6=-1.116798; m_6_7=0.373853; m_7_7=-1.117165; m_7_8=0.537294; m_8_8=-1.114256; m_8_9=0.648960; m_9_9=-1.112322; m_9_10=1.012762; m_10_10=-1.111678; m_10_11=1.177667}
!
! Created with skrf (http://scikit-rf.org).
# Hz S RI R 50.0 
!freq ReS11 ImS11 ReS21 ImS21 ReS12 ImS12 ReS22 ImS22
12607400000.0 0.8872271697842525 0.4613327965758267 -6.849027008732116e-17 -1.3277731731100106e-17 -6.849027008732116e-17 -1.3277731731100106e-17 0.8872268836632324 0.4613333468383536
12608017333.333334 0.8907848323171161 0.45442533216537906 -6.857906181397958e-17 -1.2736599655867413e-17 -6.857906181397958e-17 -1.2736599655867413e-17 0.890784550493941 0.4544258846073312
12608634666.666666 0.8942887181443557 0.4474904340872264 -6.866358244403107e-17 -1.2194892771120815e-17 -6.866358244403107e-17 -1.2194892771120815e-17 0.8942884406356167 0.44749098867504056
12609252000.0 0.8977386157363585 0.4405285210013257 -6.874382843119792e-17 -1.1652644754375935e-17 -6.874382843119792e-17 -1.1652644754375935e-17 0.8977383425583862 0.44052907770131344
12609869333.333334 0.9011343168227475 0.43354001319860835 -6.881979649448594e-17 -1.110988930335194e-17 -6.881979649448594e-17 -1.110988930335194e-17 0.9011340479916081 0.43354057197695606
12610486666.666666 0.9044756164049885 0.426525332575527 -6.889148361827858e-17 -1.0566660133909366e-17 -6.889148361827858e-17 -1.0566660133909366e-17 0.9044753519364862 0.4265258933982999
12611104000.0 0.9077623127688081 0.419484902608513 -6.895888705242505e-17 -1.0022990977925043e-17 -6.895888705242505e-17 -1.0022990977925043e-17 0.9077620526784792 0.41948546544165494
12611721333.333334 0.91099420749629 0.41241914832856014 -6.902200431229968e-17 -9.478915581247173e-18 -6.902200431229968e-17 -9.478915581247173e-18 0.9109939517994078 0.41241971313789827
12612338666.666666 0.9141711054778874 0.4053284962955197 -6.908083317885629e-17 -8.934467701571918e-18 -6.908083317885629e-17 -8.934467701571918e-18 0.9141708541894568 0.4053290630467642
12612956000.0 0.9172928149242854 0.39821337457213607 -6.913537169865857e-17 -8.389681106371039e-18 -6.913537169865857e-17 -8.389681106371039e-18 0.9172925680590454 0.39821394323088427
12613573333.333334 0.9203591473777932 0.39107421269865167 -6.91856181838971e-17 -7.844589570806183e-18 -6.91856181838971e-17 -7.844589570806183e-18 0.9203589049502117 0.3910747832303879
12614190666.666666 0.9233699177239171 0.38391144166640206 -6.923157121238946e-17 -7.299226875637408e-18 -6.923157121238946e-17 -7.299226875637408e-18 0.9233696797481954 0.3839120140365021
12614808000.0 0.9263249442023959 0.3767254938921398 -6.927322962756453e-17 -6.7536268051322935e-18 -6.927322962756453e-17 -6.7536268051322935e-18 0.9263247106924639 0.3767260680658712
12615425333.333334 0.9292240484182713 0.3695168031916919 -6.931059253842951e-17 -6.207823144983513e-18 -6.931059253842951e-17 -6.207823144983513e-18 0.9292238193877876 0.3695173791342167
12616042666.666666 0.9320670553525691 0.3622858047539808 -6.934365931952024e-17 -5.66184968022907e-18 -6.934365931952024e-17 -5.66184968022907e-18 0.9320668308149218 0.36228638243035827
12616660000.0 0.9348537933729536 0.35503293511454215 -6.93724296108372e-17 -5.1157401931537376e-18 -6.93724296108372e-17 -5.1157401931537376e-18 0.9348535733412581 0.35503351448973
12617277333.333334 0.9375840942440142 0.34775863212935504 -6.939690331776251e-17 -4.56952846121902e-18 -6.939690331776251e-17 -4.56952846121902e-18 0.9375838787311108 0.3477592131682115
12617894666.666666 0.9402577931374516 0.34046333494832975 -6.941708061096266e-17 -4.023248254974587e-18 -6.941708061096266e-17 -4.023248254974587e-18 0.9402575821559085 0.3404639176156164
12618512000.0 0.9428747286420595 0.33314748398871563 -6.943296192627391e-17 -3.4769333359708495e-18 -6.943296192627391e-17 -3.4769333359708495e-18 0.9428745222041697 0.3331480682490993
12619129333.333334 0.9454347427734108 0.3258115209086745 -6.944454796457153e-17 -2.9306174546907647e-18 -6.944454796457153e-17 -2.9306174546907647e-18 0.9454345408911916 0.32581210672672917
12619746666.666666 0.9479376809834226 0.31845588858053625 -6.945183969162277e-17 -2.384334348467282e-18 -6.945183969162277e-17 -2.384334348467282e-18 0.9479374836686161 0.31845647592074566
12620364000.0 0.9503833921697169 0.3110810310639832 -6.94548383379238e-17 -1.8381177393905843e-18 -6.94548383379238e-17 -1.8381177393905843e-18 0.9503831994337864 0.311081619890742
12620981333.333334 0.9527717286846731 0.303687393579429 -6.945354539851975e-17 -1.2920013322664619e-18 -6.945354539851975e-17 -1.2920013322664619e-18 0.9527715405388064 0.3036879838570464
12621598666.666666 0.9551025463444213 0.296275422480927 -6.944796263280941e-17 -7.460188125074352e-19 -6.944796263280941e-17 -7.460188125074352e-19 0.9551023627995257 0.2962760141736271
12622216000.0 0.9573757044374663 0.2888455652294375 -6.943809206433275e-17 -2.0020384408710053e-19 -6.943809206433275e-17 -2.0020384408710053e-19 0.957375525504173 0.2888461583013637
12622833333.333334 0.9595910657332695 0.28139827036557324 -6.942393598054287e-17 3.4540993254879356e-19 -6.942393598054287e-17 3.4540993254879356e-19 0.9595908914219292 0.28139886478078846
12623450666.666666 0.9617484964904277 0.2739339874828454 -6.940549693256171e-17 8.90788902525592e-19 -6.940549693256171e-17 8.90788902525592e-19 0.9617483268111094 0.2739345832053348
12624068000.0 0.9638478664648523 0.2664531672001678 -6.938277773491903e-17 1.4358994786299263e-18 -6.938277773491903e-17 1.4358994786299263e-18 0.9638477014273478 0.26645376419384187
12624685333.333334 0.9658890489175815 0.2589562611348449 -6.935578146527583e-17 1.9807081033579203e-18 -6.935578146527583e-17 1.9807081033579203e-18 0.9658888885313986 0.2589568593635403
12625302666.666666 0.9678719206224105 0.25144372187536107 -6.932451146413182e-17 2.525181250970646e-18 -6.932451146413182e-17 2.525181250970646e-18 0.9678717648967767 0.2514443213028439
12625920000.0 0.9697963618733868 0.24391600295386745 -6.928897133451562e-17 3.0692854295645292e-18 -6.928897133451562e-17 3.0692854295645292e-18 0.9697962108172465 0.24391660354383451
12626537333.333334 0.9716622564919899 0.2363735588189649 -6.924916494166062e-17 3.612987183111295e-18 -6.924916494166062e-17 3.612987183111295e-18 0.9716621101140053 0.23637416053504673
12627154666.666666 0.9734694918341426 0.22881684480829895 -6.92050964126633e-17 4.1562530935145844e-18 -6.92050964126633e-17 4.1562530935145844e-18 0.973469350142692 0.22881744761406142
12627772000.0 0.9752179587970685 0.221246317120821 -6.91567701361258e-17 4.699049782663422e-18 -6.91567701361258e-17 4.699049782663422e-18 0.9752178218002485 0.22124692097976828
12628389333.333334 0.9769075518258106 0.21366243278955283 -6.910419076178393e-17 5.241343914462767e-18 -6.910419076178393e-17 5.241343914462767e-18 0.9769074195314308 0.2136630376651284
12629006666.666666 0.9785381689196481 0.20606564965377255 -6.904736320011642e-17 5.783102196890114e-18 -6.904736320011642e-17 5.783102196890114e-18 0.9785380413352354 0.20606625550936253
12629624000.0 0.9801097116382403 0.1984564263314591 -6.898629262194159e-17 6.324291384017201e-18 -6.898629262194159e-17 6.324291384017201e-18 0.9801095887710365 0.19845703313039406
12630241333.333334 0.9816220851075569 0.19083522219166082 -6.89209844579949e-17 6.8648782780594525e-18 -6.89209844579949e-17 6.8648782780594525e-18 0.9816219669645179 0.19083582989721784
12630858666.666666 0.9830751980256175 0.18320249732670793 -6.885144439849364e-17 7.404829731390286e-18 -6.885144439849364e-17 7.404829731390286e-18 0.9830750846134128 0.18320310590211278
12631476000.0 0.9844689626680161 0.17555871252435193 -6.877767839268242e-17 7.944112648582845e-18 -6.877767839268242e-17 7.944112648582845e-18 0.9844688539930307 0.17555932193278193
12632093333.333334 0.9858032948931931 0.1679043292401173 -6.86996926483664e-17 8.482693988420385e-18 -6.86996926483664e-17 8.482693988420385e-18 0.9858031909615224 0.16790493944470247
12632710666.666666 0.9870781141475199 0.16023980956935754 -6.861749363142754e-17 9.02054076591033e-18 -6.861749363142754e-17 9.02054076591033e-18 0.9870780149649758 0.1602404205331841
12633328000.0 0.988293343470187 0.15256561621927617 -6.853108806532101e-17 9.557620054323276e-18 -6.853108806532101e-17 9.557620054323276e-18 0.9882932490422923 0.15256622790538762
12633945333.333334 0.9894489094978098 0.14488221248118793 -6.844048293056427e-17 1.0093898987169198e-17 -6.844048293056427e-17 1.0093898987169198e-17 0.9894488198297995 0.144882824852588
12634562666.666666 0.9905447424688957 0.13719006220232619 -6.834568546420225e-17 1.0629344760227571e-17 -6.834568546420225e-17 1.0629344760227571e-17 0.9905446575657182 0.13719067522198083
12635180000.0 0.991580776228022 0.12948962975806483 -6.824670315926277e-17 1.1163924633530032e-17 -6.824670315926277e-17 1.1163924633530032e-17 0.9915806960943376 0.12949024338890466
12635797333.333334 0.9925569482298677 0.12178138002363133 -6.81435437641915e-17 1.1697605933373309e-17 -6.81435437641915e-17 1.1697605933373309e-17 0.9925568728700463 0.12178199422855328
12636414666.666666 0.9934731995429384 0.11406577834637918 -6.803621528227777e-17 1.2230356054286529e-17 -6.803621528227777e-17 1.2230356054286529e-17 0.9934731289610634 0.11406639308824947
12637032000.0 0.9943294748531806 0.10634329051730118 -6.792472597105626e-17 1.2762142461043902e-17 -6.792472597105626e-17 1.2762142461043902e-17 0.9943294090530455 0.10634390575895712
12637649333.333334 0.9951257224672752 0.09861438274324755 -6.780908434170201e-17 1.3292932690621938e-17 -6.780908434170201e-17 1.3292932690621938e-17 0.9951256614523861 0.09861499844750012
12638266666.666666 0.9958618943157918 0.09087952161852735 -6.768929915840324e-17 1.3822694354192167e-17 -6.768929915840324e-17 1.3822694354192167e-17 0.9958618380893626 0.09088013774816288
12638884000.0 0.9965379459560606 0.08313917409696568 -6.756537943772392e-17 1.435139513907549e-17 -6.756537943772392e-17 1.435139513907549e-17 0.9965378945210184 0.08313979061474874
12639501333.333334 0.9971538365748849 0.07539380746345957 -6.743733444794574e-17 1.4879002810724014e-17 -6.743733444794574e-17 1.4879002810724014e-17 0.9971537899338672 0.07539442433213492
12640118666.666666 0.9977095289909704 0.06764388930616427 -6.730517370840334e-17 1.5405485214653015e-17 -6.730517370840334e-17 1.5405485214653015e-17 0.9977094871463247 0.06764450648845907
12640736000.0 0.9982049896572219 0.05988988748758486 -6.716890698878799e-17 1.5930810278439904e-17 -6.716890698878799e-17 1.5930810278439904e-17 0.9982049526110042 0.0598905049462109
12641353333.333334 0.9986401886626995 0.0521322701172383 -6.702854430846161e-17 1.6454946013610534e-17 -6.702854430846161e-17 1.6454946013610534e-17 0.9986401564166789 0.0521328878148945
12641970666.666666 0.9990150997344888 0.04437150552257178 -6.688409593572799e-17 1.6977860517633942e-17 -6.688409593572799e-17 1.6977860517633942e-17 0.9990150722901415 0.044372123421946116
12642588000.0 0.9993297002392446 0.03660806222119986 -6.673557238710736e-17 1.7499521975832784e-17 -6.673557238710736e-17 1.7499521975832784e-17 0.9993296775977595 0.0366086802849719
12643205333.333334 0.9995839711845798 0.02884240889236502 -6.658298442659156e-17 1.8019898663310717e-17 -6.658298442659156e-17 1.8019898663310717e-17 0.9995839533468541 0.02884302708320798
12643822666.666666 0.9997778972202025 0.021075014348756832 -6.642634306487965e-17 1.853895894688651e-17 -6.642634306487965e-17 1.853895894688651e-17 0.9997778841868441 0.021075632629339938
12644440000.0 0.9999114666388431 0.01330634750812452 -6.626565955860354e-17 1.9056671287004812e-17 -6.626565955860354e-17 1.9056671287004812e-17 0.9999114584101695 0.013306965841115207
12645057333.333334 0.9999846713769626 0.005536877365167381 -6.610094540953798e-17 1.9573004239644197e-17 -6.610094540953798e-17 1.9573004239644197e-17 0.9999846679530018 0.005537495713233584
12645674666.666666 0.9999975070152411 -0.00223292703700582 -6.593221236379646e-17 2.008792645821478e-17 -6.593221236379646e-17 2.008792645821478e-17 0.9999975083957295 -0.0022323087111934432
12646292000.0 0.9999499727788403 -0.010002596635164587 -6.575947241100294e-17 2.0601406695480955e-17 -6.575947241100294e-17 2.0601406695480955e-17 0.999949978963226 -0.010001978368930383
12646909333.333334 0.9998420715374551 -0.01777166237413194 -6.558273778346897e-17 2.1113413805411763e-17 -6.558273778346897e-17 2.1113413805411763e-17 0.9998420825248958 -0.017771044204793026
12647526666.666666 0.9996738098051383 -0.025539655235158172 -6.540202095533348e-17 2.1623916745097163e-17 -6.540202095533348e-17 2.1623916745097163e-17 0.9996738255945012 -0.025539037200022142
12648144000.0 0.9994451977399027 -0.033306106264434324 -6.521733464170347e-17 2.2132884576606716e-17 -6.521733464170347e-17 2.2132884576606716e-17 0.999445218329766 -0.03330548840079705
12648761333.333334 0.9991562491431154 -0.04107054660106204 -6.502869179777314e-17 2.2640286468865477e-17 -6.502869179777314e-17 2.2640286468865477e-17 0.9991562745317685 -0.041069928946205446
12649378666.666666 0.9988069814586638 -0.04883250750558614 -6.483610561793571e-17 2.3146091699500237e-17 -6.483610561793571e-17 2.3146091699500237e-17 0.9988070116441041 -0.04883189009677581
12649996000.0 0.9983974157718967 -0.05659152038820691 -6.463958953486689e-17 2.3650269656716972e-17 -6.463958953486689e-17 2.3650269656716972e-17 0.9983974507518344 -0.05659090326269001
12650613333.333334 0.997927576808351 -0.06434711683721103 -6.443915721861039e-17 2.415278984112672e-17 -6.443915721861039e-17 2.415278984112672e-17 0.9979276165802072 -0.06434650003221401
12651230666.666666 0.9973974929322776 -0.07209882864690921 -6.423482257563911e-17 2.4653621867591433e-17 -6.423482257563911e-17 2.4653621867591433e-17 0.9973975374931829 -0.07209821219963547
12651848000.0 0.9968071961448937 -0.07984618784641197 -6.402659974790251e-17 2.5152735467057983e-17 -6.402659974790251e-17 2.5152735467057983e-17 0.9968072454916906 -0.07984557179403971
12652465333.333334 0.9961567220824857 -0.08758872672739934 -6.381450311186326e-17 2.5650100488379292e-17 -6.381450311186326e-17 2.5650100488379292e-17 0.996156776211728 -0.08758811110707929
12653082666.666666 0.9954461100142417 -0.09532597787258305 -6.359854727752398e-17 2.6145686900114564e-17 -6.359854727752398e-17 2.6145686900114564e-17 0.9954461689221955 -0.09532536272143627
12653700000.0 0.9946754028398754 -0.1030574741839812 -6.3378747087421e-17 2.6639464792368378e-17 -6.3378747087421e-17 2.6639464792368378e-17 0.9946754665225177 -0.10305685953909671
12654317333.333334 0.9938446470870501 -0.11078274891094698 -6.315511761563432e-17 2.7131404378549624e-17 -6.315511761563432e-17 2.7131404378549624e-17 0.9938447155400716 -0.11078213480937985
12654934666.666666 0.9929538929085662 -0.11850133567843174 -6.292767416675309e-17 2.762147599719397e-17 -6.292767416675309e-17 2.762147599719397e-17 0.9929539661273684 -0.11850072215720037
12655552000.0 0.9920031940793201 -0.12621276851522445 -6.269643227484725e-17 2.8109650113731196e-17 -6.269643227484725e-17 2.8109650113731196e-17 0.992003272059017 -0.12621215561130855
12656169333.333334 0.9909926079930741 -0.13391658188191247 -6.246140770242012e-17 2.859589732225668e-17 -6.246140770242012e-17 2.859589732225668e-17 0.9909926907284954 -0.13391596963225127
12656786666.666666 0.989922195658992 -0.14161231069907226 -6.222261643934491e-17 2.908018834729959e-17 -6.222261643934491e-17 2.908018834729959e-17 0.9899222831446781 -0.1416116991405615
12657404000.0 0.9887920216979338 -0.1492994903754293 -6.198007470178664e-17 2.9562494045583926e-17 -6.198007470178664e-17 2.9562494045583926e-17 0.9887921139281406 -0.1492988795449196
12658021333.333334 0.9876021543385833 -0.15697765683573728 -6.173379893111783e-17 3.0042785407764933e-17 -6.173379893111783e-17 3.0042785407764933e-17 0.9876022513072805 -0.15697704677003174
12658638666.666666 0.9863526654133178 -0.16464634654887883 -6.1483805792814e-17 3.0521033560172665e-17 -6.1483805792814e-17 3.0521033560172665e-17 0.9863527671141887 -0.16464573728473061
12659256000.0 0.985043630353859 -0.17230509655590462 -6.123011217533518e-17 3.099720976654413e-17 -6.123011217533518e-17 3.099720976654413e-17 0.9850437367803031 -0.17230448813001514
12659873333.333334 0.983675128186726 -0.17995344449795428 -6.097273518899896e-17 3.147128542973996e-17 -6.097273518899896e-17 3.147128542973996e-17 0.9836752393318575 -0.1799528369469706
12660490666.666666 0.9822472415285025 -0.18759092864394505 -6.071169216484048e-17 3.1943232093449666e-17 -6.071169216484048e-17 3.1943232093449666e-17 0.9822473573851516 -0.1875903220044579
12661108000.0 0.9807600565807597 -0.1952170879189501 -6.044700065345018e-17 3.2413021443904966e-17 -6.044700065345018e-17 3.2413021443904966e-17 0.9807601771414731 -0.19521648222749166
12661725333.333334 0.979213663124966 -0.20283146193141877 -6.017867842381173e-17 3.288062531155964e-17 -6.017867842381173e-17 3.288062531155964e-17 0.9792137883820063 -0.20283085722446026
12662342666.666666 0.9776081545169636 -0.2104335910015005 -5.99067434621172e-17 3.334601567277682e-17 -5.99067434621172e-17 3.334601567277682e-17 0.9776082844623123 -0.21043298731545054
12662960000.0 0.9759436276814083 -0.218023016188434 -5.963121397056966e-17 3.3809164651506696e-17 -5.963121397056966e-17 3.3809164651506696e-17 0.9759437623067639 -0.21802241355963578
12663577333.333334 0.9742201831058637 -0.22559927931850357 -5.935210836618206e-17 3.4270044520937454e-17 -5.935210836618206e-17 3.4270044520937454e-17 0.9742203224026418 -0.22559867778323267
12664194666.666666 0.9724379248347804 -0.2331619230124763 -5.906944527954917e-17 3.47286277051617e-17 -5.906944527954917e-17 3.47286277051617e-17 0.9724380687941175 -0.23316132260693923
12664812000.0 0.9705969604631713 -0.24071049071343684 -5.878324355362228e-17 3.518488678080609e-17 -5.878324355362228e-17 3.518488678080609e-17 0.970597109075922 -0.24070989147376814
12665429333.333334 0.9686974011301549 -0.24824452671415553 -5.849352224245461e-17 3.5638794478679286e-17 -5.849352224245461e-17 3.5638794478679286e-17 0.9686975543868938 -0.24824392867641576
12666046666.666666 0.9667393615122293 -0.25576357618468215 -5.820030060995616e-17 3.60903236853732e-17 -5.820030060995616e-17 3.60903236853732e-17 0.9667395194032528 -0.25576297938485615
12666664000.0 0.9647229598163289 -0.26326718519988734 -5.790359812860338e-17 3.653944744490689e-17 -5.790359812860338e-17 3.653944744490689e-17 0.9647231223316534 -0.2632665896738814
12667281333.333334 0.9626483177727285 -0.2707549007667004 -5.760343447817905e-17 3.69861389602926e-17 -5.760343447817905e-17 3.69861389602926e-17 0.9626484849020925 -0.2707543065503404
12667898666.666666 0.9605155606276826 -0.2782262708515117 -5.729982954445814e-17 3.743037159515716e-17 -5.729982954445814e-17 3.743037159515716e-17 0.9605157323605472 -0.27822567798054115
12668516000.0 0.9583248171358004 -0.28568084440768104 -5.699280341790822e-17 3.787211887530989e-17 -5.699280341790822e-17 3.787211887530989e-17 0.9583249934613494 -0.28568025291775856
12669133333.333334 0.9560762195524065 -0.2931181714023021 -5.668237639237139e-17 3.831135449031193e-17 -5.668237639237139e-17 3.831135449031193e-17 0.9560764004595484 -0.29311758132899973
12669750666.666666 0.9537699036254152 -0.30053780284386317 -5.636856896373001e-17 3.87480522950392e-17 -5.636856896373001e-17 3.87480522950392e-17 0.953770089102783 -0.30053721422266383
12670368000.0 0.9514060085872303 -0.3079392908090249 -5.605140182855993e-17 3.9182186311236416e-17 -5.605140182855993e-17 3.9182186311236416e-17 0.9514061986231815 -0.3079387036753205
