! Parameters = {f0=12700.012000; bw=77.238000; Q=6100.000000; N=10; m_0_1=1.239735; m_1_1=-0.168725; m_1_2=1.074547; m_2_2=-0.169374; m_2_3=0.711510; m_2_8=-0.000950; m_2_9=0.035754; m_3_3=-0.171311; m_3_4=0.600039; m_3_7=-0.000350; m_3_8=-0.097438; m_3_9=-0.000950; m_4_4=-0.174236; m_4_5=0.436374; m_4_6=0.003167; m_4_7=-0.117987; m_4_8=-0.000350; m_5_5=-0.173854; m_5_6=0.843729; m_5_7=0.003167; m_6_6=-0.173855; m_6_7=0.436716; m_7_7=-0.174222; m_7_8=0.600157; m_8_8=-0.171313; m_8_9=0.711823; m_9_9=-0.169379; m_9_10=1.075625; m_10_10=-0.168735; m_10_11=1.240530}
!
! Created with skrf (http://scikit-rf.org).
# Hz S RI R 50.0 
!freq ReS11 ImS11 ReS21 ImS21 ReS12 ImS12 ReS22 ImS22
12607400000.0 0.9799005215113119 0.199486761319367 -9.532082204900667e-17 8.330701024122683e-18 -9.532082204900667e-17 8.330701024122683e-18 0.9799003912023477 0.1994874014100073
12608017333.333334 0.9817757761168558 0.19004295680181832 -9.521672320145745e-17 9.254704546633359e-18 -9.521672320145745e-17 9.254704546633359e-18 0.9817756519828514 0.1900435980860124
12608634666.666666 0.9835600181207945 0.18058153491997603 -9.510367400363262e-17 1.017747228635141e-17 -9.510367400363262e-17 1.017747228635141e-17 0.9835599001726532 0.18058217733816176
12609252000.0 0.9852530821203432 0.171103372766863 -9.498168863390139e-17 1.1098917609914576e-17 -9.498168863390139e-17 1.1098917609914576e-17 0.9852529703683929 0.17110401625937882
12609869333.333334 0.9868548111651276 0.1616093489872181 -9.485078210856226e-17 1.2018954042706087e-17 -9.485078210856226e-17 1.2018954042706087e-17 0.9868547056191204 0.16160999349430863
12610486666.666666 0.9883650567716741 0.15210034369637976 -9.471097028009753e-17 1.2937495276961308e-17 -9.471097028009753e-17 1.2937495276961308e-17 0.9883649574407868 0.15210098915820158
12611104000.0 0.9897836789372437 0.14257723839830588 -9.456226983534731e-17 1.385445517985796e-17 -9.456226983534731e-17 1.385445517985796e-17 0.9897835858300751 0.14257788475493272
12611721333.333334 0.9911105461527553 0.13304091590416425 -9.440469829361313e-17 1.4769747801546497e-17 -9.440469829361313e-17 1.4769747801546497e-17 0.9911104592773268 0.13304156309559287
12612338666.666666 0.9923455354149966 0.12349226025041088 -9.423827400467326e-17 1.5683287383224522e-17 -9.423827400467326e-17 1.5683287383224522e-17 0.9923454547787515 0.12349290821656657
12612956000.0 0.9934885322380528 0.11393215661661223 -9.40630161467282e-17 1.659498836513617e-17 -9.40630161467282e-17 1.659498836513617e-17 0.9934884578478539 0.1139328052973542
12613573333.333334 0.9945394306638601 0.10436149124383803 -9.387894472426764e-17 1.750476539456594e-17 -9.387894472426764e-17 1.750476539456594e-17 0.994539362525993 0.10436214057896535
12614190666.666666 0.9954981332720795 0.09478115135213896 -9.368608056585783e-17 1.841253333381769e-17 -9.368608056585783e-17 1.841253333381769e-17 0.9954980713922483 0.09478180128139588
12614808000.0 0.9963645511891157 0.08519202505835544 -9.348444532185191e-17 1.9318207268172966e-17 -9.348444532185191e-17 1.9318207268172966e-17 0.9963644955724442 0.08519267552143694
12615425333.333334 0.9971386040963405 0.07559500129395708 -9.327406146202862e-17 2.0221702513798478e-17 -9.327406146202862e-17 2.0221702513798478e-17 0.9971385547473706 0.07559565223051465
12616042666.666666 0.9978202202375573 0.06599096972241059 -9.305495227314681e-17 2.1122934625668663e-17 -9.305495227314681e-17 2.1122934625668663e-17 0.9978201771602508 0.06599162107205771
12616660000.0 0.9984093364256379 0.05638082065693291 -9.282714185643179e-17 2.2021819405422702e-17 -9.282714185643179e-17 2.2021819405422702e-17 0.9984092996233733 0.05638147235925064
12617277333.333334 0.9989058980483942 0.04676544497770197 -9.259065512497983e-17 2.291827290922443e-17 -9.259065512497983e-17 2.291827290922443e-17 0.99890586752397 0.046766096972244674
12617894666.666666 0.9993098590736248 0.037145734049610996 -9.23455178010911e-17 2.381221145557934e-17 -9.23455178010911e-17 2.381221145557934e-17 0.9993098348292552 0.03714638627591179
12618512000.0 0.9996211820533983 0.027522579639239642 -9.209175641352166e-17 2.4703551633139247e-17 -9.209175641352166e-17 2.4703551633139247e-17 0.9996211640907171 0.02752323203681613
12619129333.333334 0.9998398381275158 0.017896873832497853 -9.182939829466972e-17 2.5592210308452675e-17 -9.182939829466972e-17 2.5592210308452675e-17 0.9998398264475717 0.017897526340857634
12619746666.666666 0.9999658070261837 0.008269508951842412 -9.155847157767943e-17 2.6478104633706438e-17 -9.155847157767943e-17 2.6478104633706438e-17 0.9999658016294471 0.008270161510488795
12620364000.0 0.9999990770719054 -0.0013586225266703773 -9.12790051934671e-17 2.7361152054453248e-17 -9.12790051934671e-17 2.7361152054453248e-17 0.9999990779582602 -0.0013579699782328768
12620981333.333334 0.9999396451805472 -0.010986628055664445 -9.099102886769076e-17 2.824127031724595e-17 -9.099102886769076e-17 2.824127031724595e-17 0.9999396523492973 -0.010985975577924426
12621598666.666666 0.9997875168616382 -0.020613615099554297 -9.069457311762405e-17 2.911837747731579e-17 -9.069457311762405e-17 2.911837747731579e-17 0.9997875303115038 -0.020612962752987882
12622216000.0 0.9995427062178492 -0.030238691217227994 -9.038966924896788e-17 2.999239190617962e-17 -9.038966924896788e-17 2.999239190617962e-17 0.99954272594697 -0.030238039062293262
12622833333.333334 0.9992052359436935 -0.039860964144636246 -9.007634935259173e-17 3.0863232299206496e-17 -9.007634935259173e-17 3.0863232299206496e-17 0.999205261949626 -0.03986031224176756
12623450666.666666 0.9987751373234186 -0.04947954187762071 -8.975464630119508e-17 3.173081768317423e-17 -8.975464630119508e-17 3.173081768317423e-17 0.9987751696031381 -0.049478890287223166
12624068000.0 0.9982524502281068 -0.059093532754547685 -8.94245937459014e-17 3.25950674237733e-17 -8.94245937459014e-17 3.25950674237733e-17 0.9982524887780082 -0.059092881536991555
12624685333.333334 0.9976372231119779 -0.06870204553908076 -8.908622611277e-17 3.345590123310678e-17 -8.908622611277e-17 3.345590123310678e-17 0.9976372679278736 -0.06870139475469578
12625302666.666666 0.9969295130079019 -0.0783041895026012 -8.873957859926092e-17 3.431323917708603e-17 -8.873957859926092e-17 3.431323917708603e-17 0.9969295640850255 -0.07830353921167113
12625920000.0 0.9961293855221037 -0.08789907450700764 -8.838468717058953e-17 3.516700168289374e-17 -8.838468717058953e-17 3.516700168289374e-17 0.9961294428551071 -0.08789842476976445
12626537333.333334 0.9952369148280876 -0.09748581108706296 -8.802158855605256e-17 3.6017109546299094e-17 -8.802158855605256e-17 3.6017109546299094e-17 0.9952369784110453 -0.09748516196368162
12627154666.666666 0.9942521836597702 -0.10706351053282205 -8.765032024525465e-17 3.686348393901089e-17 -8.765032024525465e-17 3.686348393901089e-17 0.9942522534861765 -0.10706286208341459
12627772000.0 0.9931752833037829 -0.11663128497227106 -8.727092048426316e-17 3.7706046415991875e-17 -8.727092048426316e-17 3.7706046415991875e-17 0.9931753593665553 -0.11663063725688125
12628389333.333334 0.9920063135910431 -0.12618824745332424 -8.688342827172551e-17 3.8544718922659546e-17 -8.688342827172551e-17 3.8544718922659546e-17 0.9920063958825207 -0.12618760053192193
12629006666.666666 0.9907453828874736 -0.1357335120262721 -8.648788335486953e-17 3.9379423802156516e-17 -8.648788335486953e-17 3.9379423802156516e-17 0.9907454713994188 -0.1357328659587475
12629624000.0 0.9893926080839649 -0.14526619382582565 -8.608432622548079e-17 4.02100838024766e-17 -8.608432622548079e-17 4.02100838024766e-17 0.9893927028075655 -0.1452655486719843
12630241333.333334 0.9879481145855455 -0.15478540915311753 -8.567279811577445e-17 4.103662208363121e-17 -8.567279811577445e-17 4.103662208363121e-17 0.9879482155114133 -0.1547847649726742
12630858666.666666 0.9864120362997707 -0.1642902755575385 -8.525334099422967e-17 4.1858962224707955e-17 -8.525334099422967e-17 4.1858962224707955e-17 0.9864121434179438 -0.16428963241011196
12631476000.0 0.9847845156242454 -0.17377991191893524 -8.482599756132461e-17 4.2677028230952675e-17 -8.482599756132461e-17 4.2677028230952675e-17 0.9847846289241887 -0.17377926986404257
12632093333.333334 0.9830657034335142 -0.18325343852873066 -8.439081124523258e-17 4.349074454075028e-17 -8.439081124523258e-17 4.349074454075028e-17 0.9830658229041208 -0.183252797625782
12632710666.666666 0.9812557590650114 -0.19270997717186766 -8.394782619744056e-17 4.4300036032583894e-17 -8.394782619744056e-17 4.4300036032583894e-17 0.981255884694604 -0.19270933748016053
12633328000.0 0.9793548503042977 -0.2021486512081649 -8.349708728828331e-17 4.5104828031983033e-17 -8.349708728828331e-17 4.5104828031983033e-17 0.9793549820806284 -0.20214801278687872
12633945333.333334 0.9773631533695374 -0.21156858565341552 -8.303864010244974e-17 4.590504631835553e-17 -8.303864010244974e-17 4.590504631835553e-17 0.9773632912797909 -0.21156794856160632
12634562666.666666 0.9752808528951207 -0.22096890726072355 -8.257253093438513e-17 4.6700617131845197e-17 -8.257253093438513e-17 4.6700617131845197e-17 0.9752809969259136 -0.22096827155731824
12635180000.0 0.9731081419145912 -0.23034874460123228 -8.209880678365612e-17 4.7491467180091034e-17 -8.209880678365612e-17 4.7491467180091034e-17 0.9731082920519735 -0.23034811034502312
12635797333.333334 0.9708452218426983 -0.2397072281451579 -8.16175153502284e-17 4.8277523644982554e-17 -8.16175153502284e-17 4.8277523644982554e-17 0.9708453780721558 -0.23970659539479738
12636414666.666666 0.9684923024567941 -0.24904349034209136 -8.112870502970618e-17 4.905871418932057e-17 -8.112870502970618e-17 4.905871418932057e-17 0.9684924647632495 -0.2490428591560868
12637032000.0 0.9660496018773302 -0.25835666570167193 -8.06324249084806e-17 4.98349669634765e-17 -8.06324249084806e-17 4.98349669634765e-17 0.9660497702451444 -0.25835603613837976
12637649333.333334 0.963517346547642 -0.2676458908737912 -8.012872475882914e-17 5.0606210611980204e-17 -8.012872475882914e-17 5.0606210611980204e-17 0.9635175209606155 -0.2676452629914119
12638266666.666666 0.9608957712129983 -0.27691030472846284 -7.961765503395878e-17 5.137237428004671e-17 -7.961765503395878e-17 5.137237428004671e-17 0.9608959516543736 -0.2769096785850354
12638884000.0 0.9581851188987852 -0.2861490484358705 -7.909926686296746e-17 5.213338762008578e-17 -7.909926686296746e-17 5.213338762008578e-17 0.9581853053512462 -0.28614842408926694
12639501333.333334 0.9553856408880161 -0.2953612655458183 -7.85736120457645e-17 5.288918079812605e-17 -7.85736120457645e-17 5.288918079812605e-17 0.9553858333336926 -0.2953606430537386
12640118666.666666 0.9524975966980715 -0.30454610206704563 -7.804074304791812e-17 5.36396845002099e-17 -7.804074304791812e-17 5.36396845002099e-17 0.9524977951185382 -0.3045454814870118
12640736000.0 0.9495212540564733 -0.3137027065469078 -7.750071299542933e-17 5.438482993875065e-17 -7.750071299542933e-17 5.438482993875065e-17 0.9495214584327537 -0.3137020879362594
12641353333.333334 0.9464568888763366 -0.32283023014946866 -7.69535756694937e-17 5.512454885877273e-17 -7.69535756694937e-17 5.512454885877273e-17 0.9464570991889037 -0.322829613565357
12641970666.666666 0.9433047852305375 -0.33192782673497323 -7.639938550113213e-17 5.585877354419727e-17 -7.639938550113213e-17 5.585877354419727e-17 0.9433050014593163 -0.3319272122343563
12642588000.0 0.9400652353255285 -0.34099465293782777 -7.583819756582717e-17 5.658743682398483e-17 -7.583819756582717e-17 5.658743682398483e-17 0.9400654574498982 -0.3409940405774649
12643205333.333334 0.936738539474221 -0.3500298682448908 -7.527006757805955e-17 5.731047207828121e-17 -7.527006757805955e-17 5.731047207828121e-17 0.9367387674730141 -0.3500292580813368
12643822666.666666 0.9333250060680673 -0.35903263507357397 -7.469505188580695e-17 5.80278132444802e-17 -7.469505188580695e-17 5.80278132444802e-17 0.9333252399195758 -0.35903202716317534
12644440000.0 0.9298249515485988 -0.36800211884917117 -7.411320746497413e-17 5.873939482324672e-17 -7.411320746497413e-17 5.873939482324672e-17 0.9298251912305732 -0.3680015132480593
12645057333.333334 0.9262387003779944 -0.3769374880824617 -7.352459191378095e-17 5.944515188446559e-17 -7.352459191378095e-17 5.944515188446559e-17 0.9262389458676484 -0.3769368848465492
12645674666.666666 0.9225665850090955 -0.3858379144465833 -7.292926344707887e-17 6.014502007315302e-17 -7.292926344707887e-17 6.014502007315302e-17 0.9225668362831045 -0.3858373136315572
12646292000.0 0.9188089458544144 -0.39470257285421023 -7.232728089059886e-17 6.083893561532576e-17 -7.232728089059886e-17 6.083893561532576e-17 0.9188092028889221 -0.3947019745155286
12646909333.333334 0.9149661312548028 -0.4035306415335184 -7.171870367519605e-17 6.152683532375136e-17 -7.171870367519605e-17 6.152683532375136e-17 0.9149663940254199 -0.4035300457264038
12647526666.666666 0.9110384974470144 -0.412321302104705 -7.110359183097386e-17 6.220865660371928e-17 -7.110359183097386e-17 6.220865660371928e-17 0.9110387659288232 -0.4123207088841403
12648144000.0 0.907026408530658 -0.42107373965590594 -7.048200598140028e-17 6.288433745869783e-17 -7.048200598140028e-17 6.288433745869783e-17 0.9070266826982131 -0.4210731490766285
12648761333.333334 0.9029302364345674 -0.4297871428184519 -6.985400733734807e-17 6.355381649595947e-17 -6.985400733734807e-17 6.355381649595947e-17 0.9029305162618998 -0.4297865549349494
12649378666.666666 0.8987503608822373 -0.4384607038422949 -6.921965769110373e-17 6.421703293212308e-17 -6.921965769110373e-17 6.421703293212308e-17 0.8987506463428545 -0.43846011870879936
12649996000.0 0.8944871693566383 -0.44709361867083386 -6.857901941028513e-17 6.487392659867767e-17 -6.857901941028513e-17 6.487392659867767e-17 0.8944874604235291 -0.44709303634131725
12650613333.333334 0.8901410570643015 -0.45568508701545346 -6.793215543174949e-17 6.552443794740074e-17 -6.793215543174949e-17 6.552443794740074e-17 0.8901413537099373 -0.45568450754362233
12651230666.666666 0.8857124268986915 -0.4642343124296863 -6.727912925543404e-17 6.616850805573427e-17 -6.727912925543404e-17 6.616850805573427e-17 0.8857127290950298 -0.4642337358689777
12651848000.0 0.881201689402821 -0.47274050238312215 -6.662000493811894e-17 6.680607863212549e-17 -6.662000493811894e-17 6.680607863212549e-17 0.8812019971213074 -0.4727399287866976
12652465333.333334 0.8766092627312041 -0.4812028683348509 -6.595484708719531e-17 6.743709202125153e-17 -6.595484708719531e-17 6.743709202125153e-17 0.8766095759427749 -0.48120229775559215
12653082666.666666 0.8719355726111857 -0.48962062580638605 -6.528372085433777e-17 6.806149120922679e-17 -6.528372085433777e-17 6.806149120922679e-17 0.8719358912862708 -0.4896200582968898
12653700000.0 0.8671810523033014 -0.4979929944547136 -6.460669192913999e-17 6.867921982873702e-17 -6.460669192913999e-17 6.867921982873702e-17 0.8671813764118271 -0.49799243006728705
12654317333.333334 0.862346142561263 -0.5063191981443563 -6.392382653271719e-17 6.929022216409533e-17 -6.392382653271719e-17 6.929022216409533e-17 0.8623464720726555 -0.5063186369310121
12654934666.666666 0.8574312915910591 -0.5145984650193985 -6.323519141124537e-17 6.989444315624926e-17 -6.323519141124537e-17 6.989444315624926e-17 0.8574316264742464 -0.5145979070318503
12655552000.0 0.8524369550092915 -0.5228300275752353 -6.254085382944162e-17 7.049182840773502e-17 -6.254085382944162e-17 7.049182840773502e-17 0.8524372952327062 -0.5228294728648921
12656169333.333334 0.8473635958011656 -0.5310131227293279 -6.1840881564046e-17 7.108232418752419e-17 -6.1840881564046e-17 7.108232418752419e-17 0.8473639413327498 -0.5310125713472906
12656786666.666666 0.8422116842773895 -0.5391469918922641 -6.113534289719956e-17 7.166587743585759e-17 -6.113534289719956e-17 7.166587743585759e-17 0.8422120350845943 -0.5391464438893193
12657404000.0 0.8369816980305943 -0.5472308810380276 -6.042430660980714e-17 7.224243576898681e-17 -6.042430660980714e-17 7.224243576898681e-17 0.8369820540803874 -0.5472303364646448
12658021333.333334 0.8316741218911433 -0.5552640407737811 -5.970784197486214e-17 7.28119474838453e-17 -5.970784197486214e-17 7.28119474838453e-17 0.8316744831500082 -0.5552634996801062
12658638666.666666 0.8262894478821403 -0.5632457264094072 -5.898601875071113e-17 7.337436156266752e-17 -5.898601875071113e-17 7.337436156266752e-17 0.82628981431608 -0.5632451888452583
12659256000.0 0.8208281751737656 -0.5711751980266119 -5.8258907174277e-17 7.392962767753908e-17 -5.8258907174277e-17 7.392962767753908e-17 0.8208285467483085 -0.5711746640414759
12659873333.333334 0.8152908100371031 -0.5790517205473772 -5.752657795424607e-17 7.447769619487563e-17 -5.752657795424607e-17 7.447769619487563e-17 0.8152911867173035 -0.5790511901904041
12660490666.666666 0.8096778657971576 -0.5868745638021746 -5.678910226422631e-17 7.501851817982467e-17 -5.678910226422631e-17 7.501851817982467e-17 0.8096782475476011 -0.5868740371221737
12661108000.0 0.8039898627852208 -0.5946430025977232 -5.604655173582113e-17 7.55520454006317e-17 -5.604655173582113e-17 7.55520454006317e-17 0.8039902495700244 -0.5946424796431571
12661725333.333334 0.7982273282907305 -0.6023563167840749 -5.5298998451714844e-17 7.607823033290034e-17 -5.5298998451714844e-17 7.607823033290034e-17 0.7982277200735498 -0.6023557976030571
12662342666.666666 0.7923907965123279 -0.6100137913214693 -5.4546514938685286e-17 7.659702616380755e-17 -5.4546514938685286e-17 7.659702616380755e-17 0.7923911932563588 -0.6100132759617591
12662960000.0 0.7864808085083679 -0.6176147163465726 -5.378917416057984e-17 7.710838679624845e-17 -5.378917416057984e-17 7.710838679624845e-17 0.7864812101763492 -0.6176142048555698
12663577333.333334 0.7804979121466942 -0.6251583872383737 -5.3027049511274554e-17 7.761226685289682e-17 -5.3027049511274554e-17 7.761226685289682e-17 0.7804983187009122 -0.6251578796631151
12664194666.666666 0.7744426620539704 -0.6326441046833461 -5.226021480756266e-17 7.810862168021866e-17 -5.226021480756266e-17 7.810862168021866e-17 0.7744430734562624 -0.632643601070501
12664812000.0 0.7683156195641269 -0.6400711747404553 -5.1488744282038897e-17 7.859740735239343e-17 -5.1488744282038897e-17 7.859740735239343e-17 0.768316035775883 -0.64007067513632
12665429333.333334 0.7621173526664259 -0.6474389089053518 -5.07127125759232e-17 7.907858067518173e-17 -5.07127125759232e-17 7.907858067518173e-17 0.762117773648597 -0.6474384133558488
12666046666.666666 0.7558484359528529 -0.6547466241741612 -4.9932194731861905e-17 7.955209918971322e-17 -4.9932194731861905e-17 7.955209918971322e-17 0.7558488616659491 -0.6547461327248307
12666664000.0 0.7495094505645865 -0.6619936431070965 -4.914726618668022e-17 8.001792117621245e-17 -4.914726618668022e-17 8.001792117621245e-17 0.7495098809686845 -0.6619931558030955
12667281333.333334 0.7431009841385167 -0.6691792938908084 -4.83580027641233e-17 8.047600565763956e-17 -4.83580027641233e-17 8.047600565763956e-17 0.7431014191932621 -0.6691788107769047
12667898666.666666 0.7366236307524363 -0.676302910401051 -4.75644806675452e-17 8.092631240327032e-17 -4.75644806675452e-17 8.092631240327032e-17 0.7366240704170469 -0.6763024315216192
12668516000.0 0.7300779908700935 -0.6833638322642781 -4.6766776472551085e-17 8.136880193221273e-17 -4.6766776472551085e-17 8.136880193221273e-17 0.7300784351033647 -0.683363357663297
12669133333.333334 0.7234646712856502 -0.6903614049187419 -4.5964967119665023e-17 8.180343551681789e-17 -4.5964967119665023e-17 8.180343551681789e-17 0.7234651200459568 -0.6903609346397883
12669750666.666666 0.7167842850671755 -0.6972949796754387 -4.51591299068849e-17 8.223017518606471e-17 -4.51591299068849e-17 8.223017518606471e-17 0.7167847383124779 -0.6972945137616857
12670368000.0 0.7100374515000286 -0.7041639137780189 -4.4349342482274034e-17 8.264898372883408e-17 -4.4349342482274034e-17 8.264898372883408e-17 0.7100379091878746 -0.7041634522722294
