! Parameters = {f0=12700.012000; bw=77.238000; Q=6100.000000; N=10; m_0_1=1.158053; m_1_1=-1.393950; m_1_2=0.992865; m_2_2=-1.394599; m_2_3=0.629828; m_2_8=-0.005034; m_2_9=0.031670; m_3_3=-1.396536; m_3_4=0.518357; m_3_7=-0.004434; m_3_8=-0.101522; m_3_9=-0.005034; m_4_4=-1.399461; m_4_5=0.354692; m_4_6=-0.000917; m_4_7=-0.122071; m_4_8=-0.004434; m_5_5=-1.399079; m_5_6=0.762047; m_5_7=-0.000917; m_6_6=-1.399080; m_6_7=0.355034; m_7_7=-1.399447; m_7_8=0.518475; m_8_8=-1.396538; m_8_9=0.630141; m_9_9=-1.394604; m_9_10=0.993943; m_10_10=-1.393960; m_10_11=1.158848}
!
! Created with skrf (http://scikit-rf.org).
# Hz S RI R 50.0 
!freq ReS11 ImS11 ReS21 ImS21 ReS12 ImS12 ReS22 ImS22
12607400000.0 0.7533002020739047 -0.6576768245538752 -3.3840902974898526e-17 5.3375452365106834e-17 -3.3840902974898526e-17 5.3375452365106834e-17 0.7533006034666497 -0.6576763648000696
12608017333.333334 0.7485364920736224 -0.6630935982453525 -3.344369412651492e-17 5.3610636126275746e-17 -3.344369412651492e-17 5.3610636126275746e-17 0.7485368967525107 -0.6630931414213048
12608634666.666666 0.7437338324498352 -0.6684758682774824 -3.304485698652792e-17 5.3842868165581955e-17 -3.304485698652792e-17 5.3842868165581955e-17 0.7437342403934877 -0.6684754144066742
12609252000.0 0.7388924731059449 -0.6738233545872636 -3.264441345920108e-17 5.40721372566029e-17 -3.264441345920108e-17 5.40721372566029e-17 0.7388928842928166 -0.6738229036930224
12609869333.333334 0.7340126659590706 -0.6791357789216466 -3.224238552584245e-17 5.42984323352423e-17 -3.224238552584245e-17 5.42984323352423e-17 0.7340130803674481 -0.6791353310271403
12610486666.666666 0.7290946649269554 -0.6844128648519872 -3.183879524360509e-17 5.452174250025598e-17 -3.183879524360509e-17 5.452174250025598e-17 0.7290950825349614 -0.6844124199802275
12611104000.0 0.7241387259146607 -0.6896543377885367 -3.143366474426776e-17 5.4742057013776234e-17 -3.143366474426776e-17 5.4742057013776234e-17 0.7241391467002529 -0.6896538959623753
12611721333.333334 0.7191451068014426 -0.6948599249945235 -3.1027016233042335e-17 5.4959365301811675e-17 -3.1027016233042335e-17 5.4959365301811675e-17 0.7191455307424158 -0.6948594862366513
12612338666.666666 0.7141140674271597 -0.7000293556005295 -3.0618871987355424e-17 5.517365695474957e-17 -3.0618871987355424e-17 5.517365695474957e-17 0.7141144945011458 -0.7000289199334745
12612956000.0 0.7090458695787679 -0.7051623606185613 -3.020925435562848e-17 5.538492172784891e-17 -3.020925435562848e-17 5.538492172784891e-17 0.7090462997632394 -0.7051619280646905
12613573333.333334 0.7039407769768028 -0.7102586729559509 -2.979818575606863e-17 5.559314954171644e-17 -2.979818575606863e-17 5.559314954171644e-17 0.7039412102490716 -0.7102582435374656
12614190666.666666 0.6987990552615728 -0.7153180274293293 -2.9385688675440566e-17 5.579833048278257e-17 -2.9385688675440566e-17 5.579833048278257e-17 0.6987994915987925 -0.7153176011682656
12614808000.0 0.6936209719793807 -0.7203401607783876 -2.8971785667843083e-17 5.60004548037635e-17 -2.8971785667843083e-17 5.60004548037635e-17 0.693621411358548 -0.720339737696616
12615425333.333334 0.6884067965685169 -0.7253248116796538 -2.8556499353482584e-17 5.619951292411491e-17 -2.8556499353482584e-17 5.619951292411491e-17 0.6884072389664729 -0.7253243917988773
12616042666.666666 0.6831568003453666 -0.7302717207599748 -2.8139852417435527e-17 5.639549543048021e-17 -2.8139852417435527e-17 5.639549543048021e-17 0.6831572457387959 -0.7302713041017259
12616660000.0 0.6778712564902046 -0.735180630610086 -2.7721867608423952e-17 5.658839307712195e-17 -2.7721867608423952e-17 5.658839307712195e-17 0.6778717048556405 -0.73518021719573
12617277333.333334 0.6725504400330066 -0.7400512857979927 -2.7302567737572008e-17 5.677819678635199e-17 -2.7302567737572008e-17 5.677819678635199e-17 0.672550891346828 -0.7400508756487222
12617894666.666666 0.6671946278391547 -0.7448834328822367 -2.688197567716931e-17 5.696489764894772e-17 -2.688197567716931e-17 5.696489764894772e-17 0.6671950820775907 -0.7448830260190729
12618512000.0 0.6618040985949282 -0.7496768204251812 -2.646011435942018e-17 5.714848692456474e-17 -2.646011435942018e-17 5.714848692456474e-17 0.6618045557340574 -0.7496764168689721
12619129333.333334 0.656379132793211 -0.7544311990059038 -2.6037006775214534e-17 5.732895604212883e-17 -2.6037006775214534e-17 5.732895604212883e-17 0.6563795928089646 -0.7544307987773243
12619746666.666666 0.6509200127187112 -0.759146321233349 -2.5612675972865393e-17 5.750629660023327e-17 -2.5612675972865393e-17 5.750629660023327e-17 0.6509204755868713 -0.7591459243528972
12620364000.0 0.645427022433286 -0.7638219417591745 -2.5187145056859712e-17 5.768050036751905e-17 -2.5187145056859712e-17 5.768050036751905e-17 0.6454274881294904 -0.7638215482471743
12620981333.333334 0.6399004477612739 -0.7684578172904319 -2.476043718661369e-17 5.78515592830434e-17 -2.476043718661369e-17 5.78515592830434e-17 0.6399009162610142 -0.7684574271670279
12621598666.666666 0.6343405762745328 -0.7730537066022956 -2.4332575575210693e-17 5.801946545664561e-17 -2.4332575575210693e-17 5.801946545664561e-17 0.6343410475531579 -0.7730533198874551
12622216000.0 0.6287476972774986 -0.7776093705505979 -2.3903583488146623e-17 5.818421116929896e-17 -2.3903583488146623e-17 5.818421116929896e-17 0.6287481713102154 -0.7776089872641094
12622833333.333334 0.6231221017921327 -0.782124572084274 -2.3473484242061524e-17 5.834578887345849e-17 -2.3473484242061524e-17 5.834578887345849e-17 0.6231225785540068 -0.7821241922457448
12623450666.666666 0.6174640825427781 -0.7865990762576957 -2.3042301203493826e-17 5.850419119338953e-17 -2.3042301203493826e-17 5.850419119338953e-17 0.6174645620087356 -0.7865986998865521
12624068000.0 0.611773933940948 -0.7910326502428773 -2.2610057787600756e-17 5.865941092549917e-17 -2.2610057787600756e-17 5.865941092549917e-17 0.6117744160857773 -0.791032277358364
12624685333.333334 0.606051952069898 -0.7954250633416817 -2.2176777456893378e-17 5.881144103865217e-17 -2.2176777456893378e-17 5.881144103865217e-17 0.6060524368682503 -0.7954246939628596
12625302666.666666 0.6002984346694651 -0.799776086997632 -2.1742483719978015e-17 5.896027467447438e-17 -2.1742483719978015e-17 5.896027467447438e-17 0.6002989220958551 -0.7997757211433766
12625920000.0 0.5945136811202569 -0.804085494808043 -2.1307200130270358e-17 5.910590514765583e-17 -2.1307200130270358e-17 5.910590514765583e-17 0.5945141711490664 -0.8040851324970463
12626537333.333334 0.5886979924283031 -0.8083530625356342 -2.0870950284741663e-17 5.92483259462331e-17 -2.0870950284741663e-17 5.92483259462331e-17 0.5886984850337804 -0.8083527037864011
12627154666.666666 0.582851671209393 -0.8125785681201982 -2.043375782262908e-17 5.938753073187339e-17 -2.043375782262908e-17 5.938753073187339e-17 0.5828521663656545 -0.8125782129510466
12627772000.0 0.5769750216731209 -0.8167617916903043 -1.9995646424159573e-17 5.952351334014442e-17 -1.9995646424159573e-17 5.952351334014442e-17 0.5769755193541536 -0.8167614401193641
12628389333.333334 0.5710683496073107 -0.820902515574557 -1.955663980928916e-17 5.965626778076931e-17 -1.955663980928916e-17 5.965626778076931e-17 0.5710688497869728 -0.8209021676197699
12629006666.666666 0.5651319623618979 -0.8250005243130722 -1.9116761736401352e-17 5.978578823788469e-17 -1.9116761736401352e-17 5.978578823788469e-17 0.5651324650139196 -0.8250001799921891
12629624000.0 0.559166168833096 -0.8290556046685716 -1.8676036001038183e-17 5.991206907027867e-17 -1.8676036001038183e-17 5.991206907027867e-17 0.5591666739310818 -0.8290552639991529
12630241333.333334 0.5531712794472338 -0.8330675456375457 -1.8234486434617705e-17 6.00351048116229e-17 -1.8234486434617705e-17 6.00351048116229e-17 0.5531717869646628 -0.8330672086369595
12630858666.666666 0.5471476061446471 -0.8370361384612 -1.7792136903153693e-17 6.015489017069474e-17 -1.7792136903153693e-17 6.015489017069474e-17 0.5471481160548757 -0.837035805146622
12631476000.0 0.5410954623633285 -0.8409611766363951 -1.7349011305954943e-17 6.027142003159488e-17 -1.7349011305954943e-17 6.027142003159488e-17 0.5410959746395916 -0.8409608470248087
12632093333.333334 0.5350151630228576 -0.844842455926239 -1.6905133574354395e-17 6.038468945394736e-17 -1.6905133574354395e-17 6.038468945394736e-17 0.5350156776382692 -0.8448421300344325
12632710666.666666 0.5289070245077988 -0.8486797743708526 -1.646052767042135e-17 6.049469367309367e-17 -1.646052767042135e-17 6.049469367309367e-17 0.5289075414353538 -0.8486794522154187
12633328000.0 0.522771364651261 -0.8524729322978605 -1.6015217585659045e-17 6.060142810028211e-17 -1.6015217585659045e-17 6.060142810028211e-17 0.5227718838638366 -0.8524726138951966
12633945333.333334 0.5166085027184806 -0.8562217323327083 -1.5569227339725062e-17 6.070488832284041e-17 -1.5569227339725062e-17 6.070488832284041e-17 0.5166090241888379 -0.8562214176990142
12634562666.666666 0.5104187593901126 -0.859925979408991 -1.5122580979142266e-17 6.080507010434184e-17 -1.5122580979142266e-17 6.080507010434184e-17 0.5104192830908979 -0.8599256685602696
12635180000.0 0.5042024567455683 -0.8635854807785899 -1.4675302576001803e-17 6.0901969384763e-17 -1.4675302576001803e-17 6.0901969384763e-17 0.5042029826493143 -0.863585173730645
12635797333.333334 0.4979599182462542 -0.8672000460216995 -1.422741622667228e-17 6.099558228063112e-17 -1.422741622667228e-17 6.099558228063112e-17 0.4979604463253825 -0.8671997427901367
12636414666.666666 0.491691468718745 -0.8707694870567402 -1.3778946050506325e-17 6.108590508516178e-17 -1.3778946050506325e-17 6.108590508516178e-17 0.49169199894556537 -0.8707691876569634
12637032000.0 0.48539743433787624 -0.8742936181501393 -1.3329916188546432e-17 6.117293426838736e-17 -1.3329916188546432e-17 6.117293426838736e-17 0.48539796668459045 -0.8742933225973528
12637649333.333334 0.4790781426098013 -0.8777722559259868 -1.2880350802231954e-17 6.125666647727558e-17 -1.2880350802231954e-17 6.125666647727558e-17 0.47907867704850343 -0.8777719642351931
12638266666.666666 0.4727339223548486 -0.8812052193756308 -1.2430274072096773e-17 6.133709853584059e-17 -1.2430274072096773e-17 6.133709853584059e-17 0.4727344588575261 -0.881204931561629
12638884000.0 0.46636510369056006 -0.8845923298670115 -1.1979710196483884e-17 6.141422744524071e-17 -1.1979710196483884e-17 6.141422744524071e-17 0.46636564222909577 -0.8845920459443983
12639501333.333334 0.45997201801438947 -0.887933411154026 -1.1528683390240349e-17 6.148805038387073e-17 -1.1528683390240349e-17 6.148805038387073e-17 0.4599725585605638 -0.8879331311371947
12640118666.666666 0.4535549979866358 -0.8912282893856078 -1.1077217883432893e-17 6.155856470744087e-17 -1.1077217883432893e-17 6.155856470744087e-17 0.45355554051212676 -0.8912280132887463
12640736000.0 0.44711437751275346 -0.8944767931149673 -1.0625337920024597e-17 6.16257679490528e-17 -1.0625337920024597e-17 6.16257679490528e-17 0.4471149219891393 -0.8944765209520588
12641353333.333334 0.4406504917264839 -0.8976787533082545 -1.0173067756612802e-17 6.168965781925604e-17 -1.0173067756612802e-17 6.168965781925604e-17 0.4406510381252438 -0.8976784850930756
12641970666.666666 0.4341636769720366 -0.9008340033535455 -9.720431661105317e-18 6.17502322061046e-17 -9.720431661105317e-18 6.17502322061046e-17 0.43416422526455256 -0.9008337390996658
12642588000.0 0.4276542707867405 -0.9039423790694375 -9.267453911435312e-18 6.180748917519853e-17 -9.267453911435312e-18 6.180748917519853e-17 0.4276548209442989 -0.9039421187902202
12643205333.333334 0.42112261188348143 -0.9070037187135943 -8.814158794256741e-18 6.186142696971854e-17 -8.814158794256741e-18 6.186142696971854e-17 0.4211231638772744 -0.9070034624221937
12643822666.666666 0.41456904013299817 -0.9100178629911931 -8.360570603650377e-18 6.191204401044955e-17 -8.360570603650377e-18 6.191204401044955e-17 0.4145695939341253 -0.9100176107005554
12644440000.0 0.40799389654622503 -0.912984655063206 -7.906713639828242e-18 6.195933889579548e-17 -7.906713639828242e-18 6.195933889579548e-17 0.4079944521256945 -0.9129844067860678
12645057333.333334 0.4013975232567017 -0.9159039405544882 -7.452612207838192e-18 6.200331040178414e-17 -7.452612207838192e-18 6.200331040178414e-17 0.40139808058543175 -0.9159036963033751
12645674666.666666 0.3947802635025642 -0.9187755675619051 -6.998290616259932e-18 6.204395748206411e-17 -6.998290616259932e-18 6.204395748206411e-17 0.394780822551385 -0.9187753273491326
12646292000.0 0.38814246160868277 -0.9215993866622337 -6.543773175906651e-18 6.208127926789105e-17 -6.543773175906651e-18 6.208127926789105e-17 0.38814302234833875 -0.9215991504999075
12646909333.333334 0.3814844629689827 -0.924375250919842 -6.089084198546436e-18 6.211527506810284e-17 -6.089084198546436e-18 6.211527506810284e-17 0.381485025370132 -0.9243750188198533
12647526666.666666 0.3748066140282342 -0.9271030158944283 -5.6342479955835854e-18 6.214594436908956e-17 -5.6342479955835854e-18 6.214594436908956e-17 0.3748071780614517 -0.9271027878684571
12648144000.0 0.36810926226405244 -0.9297825396485295 -5.179288876775676e-18 6.217328683474977e-17 -5.179288876775676e-18 6.217328683474977e-17 0.3681098278998313 -0.9297823157080433
12648761333.333334 0.36139275616894806 -0.9324136827548518 -4.7242311489389775e-18 6.219730230643963e-17 -4.7242311489389775e-18 6.219730230643963e-17 0.36139332337770075 -0.9324134629111033
12649378666.666666 0.3546574452320884 -0.9349963083035685 -4.269099114657978e-18 6.221799080291171e-17 -4.269099114657978e-18 6.221799080291171e-17 0.3546580139841485 -0.934996092567597
12649996000.0 0.34790367992113846 -0.9375302819094344 -3.813917070976213e-18 6.223535252024563e-17 -3.813917070976213e-18 6.223535252024563e-17 0.3479042501867618 -0.9375300702920634
12650613333.333334 0.34113181166402423 -0.9400154717187768 -3.3587093081197334e-18 6.224938783176739e-17 -3.3587093081197334e-18 6.224938783176739e-17 0.3411323834133914 -0.9400152642306153
12651230666.666666 0.33434219283067385 -0.9424517484163485 -2.9035001082055316e-18 6.226009728796045e-17 -2.9035001082055316e-18 6.226009728796045e-17 0.3343427660338903 -0.9424515450677883
12651848000.0 0.3275351767145732 -0.9448389852320909 -2.448313743936725e-18 6.22674816163678e-17 -2.448313743936725e-18 6.22674816163678e-17 0.327535751341673 -0.944838786033311
12652465333.333334 0.32071111751451964 -0.9471770579476904 -1.9931744773217578e-18 6.227154172148351e-17 -1.9931744773217578e-18 6.227154172148351e-17 0.3207116935354644 -0.9471768629086487
12653082666.666666 0.3138703703162155 -0.9494658449030257 -1.5381065583964707e-18 6.227227868463561e-17 -1.5381065583964707e-18 6.227227868463561e-17 0.3138709477008979 -0.9494656540334648
12653700000.0 0.307013291073551 -0.9517052270025845 -1.083134223913628e-18 6.226969376385927e-17 -1.083134223913628e-18 6.226969376385927e-17 0.30701386979179557 -0.951705040312029
12654317333.333334 0.30014023659035166 -0.9538950877215707 -6.282816960762008e-19 6.226378839376118e-17 -6.282816960762008e-19 6.226378839376118e-17 0.30014081661191633 -0.9538949052193257
12654934666.666666 0.29325156450170314 -0.956035313111999 -1.7357318124532216e-19 6.22545641853738e-17 -1.7357318124532216e-19 6.22545641853738e-17 0.29325214579628134 -0.9560351348071527
12655552000.0 0.2863476332552351 -0.9581257918086643 2.8096713135037786e-19 6.224202292600078e-17 2.8096713135037786e-19 6.224202292600078e-17 0.2863482157924568 -0.9581256177100848
12656169333.333334 0.27942880209276716 -0.9601664150348396 7.353150708774967e-19 6.222616657905305e-17 7.353150708774967e-19 6.222616657905305e-17 0.2794293858422005 -0.9601662451511745
12656786666.666666 0.2724954310312357 -0.962157076608053 1.1894464862033316e-18 6.220699728387525e-17 1.1894464862033316e-18 6.220699728387525e-17 0.272496015962389 -0.9621569109477311
12657404000.0 0.2655478808442602 -0.9640976729455253 1.6433372471555728e-18 6.21845173555632e-17 1.6433372471555728e-18 6.21845173555632e-17 0.26554846692658285 -0.9640975115167529
12658021333.333334 0.25858651304323355 -0.9659881030695953 2.09696324580869e-18 6.21587292847719e-17 2.09696324580869e-18 6.21587292847719e-17 0.2585871002461187 -0.9659879458803605
12658638666.666666 0.2516116898585676 -0.9678282686129659 2.5503003977562557e-18 6.212963573751462e-17 2.5503003977562557e-18 6.212963573751462e-17 0.2516122781513523 -0.9678281156710324
12659256000.0 0.24462377422073206 -0.969618073823843 3.0033246433921003e-18 6.20972395549515e-17 3.0033246433921003e-18 6.20972395549515e-17 0.2446243635727002 -0.9696179251367552
12659873333.333334 0.23762312974150945 -0.9713574255708881 3.4560119491737815e-18 6.206154375317086e-17 3.4560119491737815e-18 6.206154375317086e-17 0.23762372012189278 -0.9713572811459678
12660490666.666666 0.23061012069510214 -0.9730462333480592 3.9083383088912396e-18 6.202255152296026e-17 3.9083383088912396e-18 6.202255152296026e-17 0.2306107120730815 -0.9730460931924041
12661108000.0 0.2235851119989278 -0.9746844092793738 4.3602797449510815e-18 6.19802662295669e-17 4.3602797449510815e-18 6.19802662295669e-17 0.2235857043436356 -0.9746842733998609
12661725333.333334 0.2165484691949089 -0.9762718681234218 4.811812309625423e-18 6.193469141245195e-17 4.811812309625423e-18 6.193469141245195e-17 0.21654906247543013 -0.9762717365267044
12662342666.666666 0.20950055843031312 -0.9778085272778314 5.262912086325021e-18 6.188583078503305e-17 5.262912086325021e-18 6.188583078503305e-17 0.20950115261568686 -0.9778083999703383
12662960000.0 0.20244174643872861 -0.9792943067835592 5.713555190857968e-18 6.183368823441903e-17 5.713555190857968e-18 6.183368823441903e-17 0.20244234149795023 -0.9792941837714968
12663577333.333334 0.19537240052100951 -0.9807291293290482 6.163717772696677e-18 6.177826782113419e-17 6.163717772696677e-18 6.177826782113419e-17 0.1953729964230316 -0.9807290106183975
12664194666.666666 0.18829288852605192 -0.9821129202542709 6.613376016225056e-18 6.171957377883556e-17 6.613376016225056e-18 6.171957377883556e-17 0.18829348523978637 -0.9821128058507886
12664812000.0 0.18120357883181998 -0.9834456075545788 7.062506142000854e-18 6.165761051401882e-17 7.062506142000854e-18 6.165761051401882e-17 0.18120417632613983 -0.9834454974637993
12665429333.333334 0.17410484032603943 -0.9847271218844839 7.51108440800685e-18 6.159238260571653e-17 7.51108440800685e-18 6.159238260571653e-17 0.17410543856977964 -0.9847270161117138
12666046666.666666 0.16699704238716892 -0.9859573965612276 7.95908711089954e-18 6.152389480518688e-17 7.95908711089954e-18 6.152389480518688e-17 0.16699764134912864 -0.9859572951115491
12666664000.0 0.1598805548649007 -0.9871363675683045 8.406490587265784e-18 6.145215203559241e-17 8.406490587265784e-18 6.145215203559241e-17 0.15988115451384496 -0.9871362704465755
12667281333.333334 0.15275574806119543 -0.9882639735587445 8.85327121484883e-18 6.137715939167289e-17 8.85327121484883e-18 6.137715939167289e-17 0.15275634836585641 -0.9882638807695966
12667898666.666666 0.14562299271090204 -0.9893401558583252 9.299405413813716e-18 6.12989221394044e-17 9.299405413813716e-18 6.12989221394044e-17 0.14562359363998084 -0.9893400674061633
12668516000.0 0.1384826599623539 -0.9903648584686389 9.744869647976505e-18 6.121744571565257e-17 9.744869647976505e-18 6.121744571565257e-17 0.1384832614845221 -0.9903647743576423
12669133333.333334 0.1313351213583657 -0.991338028069961 1.018964042603278e-17 6.113273572781849e-17 1.018964042603278e-17 6.113273572781849e-17 0.13133572344226732 -0.991337948304084
12669750666.666666 0.12418074881650702 -0.9922596140240852 1.0633694302805681e-17 6.104479795347079e-17 1.0633694302805681e-17 6.104479795347079e-17 0.12418135143075981 -0.9922595386070545
12670368000.0 0.11701991461003074 -0.9931295683769142 1.1077007880477132e-17 6.095363833997136e-17 1.1077007880477132e-17 6.095363833997136e-17 0.11702051772322786 -0.99312949731223
