! Parameters = {f0=12700.012000; bw=77.238000; Q=6100.000000; N=10; m_0_1=1.155250; m_1_1=-1.435992; m_1_2=0.990062; m_2_2=-1.436641; m_2_3=0.627025; m_2_8=-0.005174; m_2_9=0.031530; m_3_3=-1.438578; m_3_4=0.515554; m_3_7=-0.004574; m_3_8=-0.101662; m_3_9=-0.005174; m_4_4=-1.441503; m_4_5=0.351889; m_4_6=-0.001057; m_4_7=-0.122211; m_4_8=-0.004574; m_5_5=-1.441121; m_5_6=0.759244; m_5_7=-0.001057; m_6_6=-1.441122; m_6_7=0.352231; m_7_7=-1.441489; m_7_8=0.515672; m_8_8=-1.438580; m_8_9=0.627338; m_9_9=-1.436646; m_9_10=0.991140; m_10_10=-1.436002; m_10_11=1.156045}
!
! Created with skrf (http://scikit-rf.org).
# Hz S RI R 50.0 
!freq ReS11 ImS11 ReS21 ImS21 ReS12 ImS12 ReS22 ImS22
12607400000.0 0.5607159859927796 0.8280082022854598 -4.8118696330697895e-17 -3.951525215140257e-17 -4.8118696330697895e-17 -3.951525215140257e-17 0.5607154818624086 0.8280085436755229
12608017333.333334 0.5666059115818028 0.8239889204111959 -4.839323206548408e-17 -3.9159168340563866e-17 -4.839323206548408e-17 -3.9159168340563866e-17 0.5666054099231286 0.8239892653704278
12608634666.666666 0.5724670276097443 0.819927742120925 -4.86651371751994e-17 -3.8801182373392706e-17 -4.86651371751994e-17 -3.8801182373392706e-17 0.5724665284480305 0.8199280906314371
12609252000.0 0.5782990360632496 0.8158248739087149 -4.893439851932496e-17 -3.8441313652587024e-17 -4.893439851932496e-17 -3.8441313652587024e-17 0.5782985394236303 0.8158252259524398
12609869333.333334 0.5841016404088929 0.8116805243884407 -4.920100310023223e-17 -3.807958167132511e-17 -4.920100310023223e-17 -3.807958167132511e-17 0.5841011463163727 0.8116808799471337
12610486666.666666 0.5898745456083276 0.8074949042831311 -4.9464938063791246e-17 -3.7716006012231947e-17 -4.9464938063791246e-17 -3.7716006012231947e-17 0.5898740540877778 0.8074952633383699
12611104000.0 0.5956174581333536 0.8032682264142014 -4.972619069999852e-17 -3.735060634630438e-17 -4.972619069999852e-17 -3.735060634630438e-17 0.5956169692095131 0.8032685889473877
12611721333.333334 0.6013300859807065 0.7990007056907342 -4.99847484435702e-17 -3.6983402431869346e-17 -4.99847484435702e-17 -3.6983402431869346e-17 0.6013295996781793 0.7990010716830951
12612338666.666666 0.6070121386869711 0.7946925590985006 -5.0240598874547844e-17 -3.661441411350906e-17 -5.0240598874547844e-17 -3.661441411350906e-17 0.6070116550302262 0.7946929285310896
12612956000.0 0.6126633273434211 0.7903440056888782 -5.049372971888624e-17 -3.6243661320996506e-17 -5.049372971888624e-17 -3.6243661320996506e-17 0.6126628463567902 0.7903443785425754
12613573333.333334 0.6182833646105717 0.7859552665678152 -5.0744128849028516e-17 -3.587116406823447e-17 -5.0744128849028516e-17 -3.587116406823447e-17 0.618282886318248 0.7859556428233277
12614190666.666666 0.6238719647328788 0.781526564884517 -5.0991784284493437e-17 -3.5496942452161286e-17 -5.0991784284493437e-17 -3.5496942452161286e-17 0.6238714891589162 0.7815269445223816
12614808000.0 0.6294288435532245 0.7770581258201368 -5.1236684192429737e-17 -3.512101665168923e-17 -5.1236684192429737e-17 -3.512101665168923e-17 0.629428370721538 0.7770585088207218
12615425333.333334 0.6349537185274577 0.7725501765762591 -5.1478816888183497e-17 -3.474340692660832e-17 -5.1478816888183497e-17 -3.474340692660832e-17 0.634953248461818 0.7725505629197607
12616042666.666666 0.6404463087385974 0.7680029463634618 -5.171817083584056e-17 -3.436413361651113e-17 -5.171817083584056e-17 -3.436413361651113e-17 0.6404458414626343 0.7680033360299111
12616660000.0 0.6459063349113014 0.7634166663895307 -5.195473464877738e-17 -3.398321713969079e-17 -5.195473464877738e-17 -3.398321713969079e-17 0.6459058704484989 0.7634170593587892
12617277333.333334 0.6513335194259053 0.7587915698478196 -5.218849709018818e-17 -3.3600677992056804e-17 -5.218849709018818e-17 -3.3600677992056804e-17 0.6513330577996033 0.7587919660995845
12617894666.666666 0.6567275863326091 0.7541278919053453 -5.241944707361503e-17 -3.3216536746033113e-17 -5.241944707361503e-17 -3.3216536746033113e-17 0.6567271275660004 0.7541282914191489
12618512000.0 0.6620882613655908 0.7494258696907542 -5.2647573663469424e-17 -3.28308140494504e-17 -5.2647573663469424e-17 -3.28308140494504e-17 0.662087805481721 0.7494262724459645
12619129333.333334 0.6674152719567193 0.7446857422824703 -5.287286607553319e-17 -3.2443530624458116e-17 -5.287286607553319e-17 -3.2443530624458116e-17 0.6674148189784845 0.7446861482582924
12619746666.666666 0.6727083472496864 0.7399077506962946 -5.309531367747241e-17 -3.205470726639637e-17 -5.309531367747241e-17 -3.205470726639637e-17 0.6727078971998338 0.7399081598717725
12620364000.0 0.6779672181136337 0.7350921378732836 -5.3314905989325304e-17 -3.166436484269483e-17 -5.3314905989325304e-17 -3.166436484269483e-17 0.6779667710147587 0.7350925502273005
12620981333.333334 0.683191617156814 0.7302391486674152 -5.3531632683987767e-17 -3.1272524291759455e-17 -5.3531632683987767e-17 -3.1272524291759455e-17 0.6831911730313597 0.7302395641786943
12621598666.666666 0.6883812787402505 0.7253490298330815 -5.3745483587692834e-17 -3.087920662185096e-17 -5.3745483587692834e-17 -3.087920662185096e-17 0.6883808376105063 0.7253494484801873
12622216000.0 0.6935359389912008 0.7204220300125808 -5.39564486804835e-17 -3.0484432909959045e-17 -5.39564486804835e-17 -3.0484432909959045e-17 0.6935355008793028 0.7204224517739221
12622833333.333334 0.6986553358166789 0.7154583997233784 -5.416451809666871e-17 -3.008822430068675e-17 -5.416451809666871e-17 -3.008822430068675e-17 0.6986549007446069 0.7154588245772064
12623450666.666666 0.7037392089165548 0.7104583913455852 -5.436968212528063e-17 -2.9690602005116866e-17 -5.436968212528063e-17 -2.9690602005116866e-17 0.7037387769061313 0.7104588192699958
12624068000.0 0.7087872997970541 0.7054222591088659 -5.45719312105179e-17 -2.929158729968421e-17 -5.45719312105179e-17 -2.929158729968421e-17 0.7087868708699453 0.7054226900818023
12624685333.333334 0.7137993517837601 0.7003502590796533 -5.4771255952185893e-17 -2.8891201525035756e-17 -5.4771255952185893e-17 -2.8891201525035756e-17 0.7137989259614722 0.7003506930789053
12625302666.666666 0.7187751100346255 0.6952426491481707 -5.4967647106120007e-17 -2.848946608490523e-17 -5.4967647106120007e-17 -2.848946608490523e-17 0.7187746873385048 0.6952430861513756
12625920000.0 0.723714321553086 0.6900996890151516 -5.5161095584611905e-17 -2.8086402444960834e-17 -5.5161095584611905e-17 -2.8086402444960834e-17 0.723713902004319 0.6901001289997981
12626537333.333334 0.7286167352007129 0.6849216401788668 -5.535159245681733e-17 -2.7682032131672858e-17 -5.535159245681733e-17 -2.7682032131672858e-17 0.7286163188203212 0.6849220831222911
12627154666.666666 0.7334821017101517 0.6797087659216361 -5.553912894915805e-17 -2.727637673117177e-17 -5.553912894915805e-17 -2.727637673117177e-17 0.7334816885189964 0.6797092118010291
12627772000.0 0.7383101736977825 0.6744613312964683 -5.57236964457281e-17 -2.6869457888078608e-17 -5.57236964457281e-17 -2.6869457888078608e-17 0.7383097637165602 0.674461780088873
12628389333.333334 0.7431007056761801 0.6691796031137056 -5.590528648866483e-17 -2.6461297304388112e-17 -5.590528648866483e-17 -2.6461297304388112e-17 0.7431002989254217 0.6691800547960192
12629006666.666666 0.7478534540667503 0.6638638499272914 -5.608389077854117e-17 -2.6051916738287505e-17 -5.608389077854117e-17 -2.6051916738287505e-17 0.7478530505668198 0.6638643044762655
12629624000.0 0.75256817721196 0.658514342021282 -5.625950117472976e-17 -2.5641338003014015e-17 -5.625950117472976e-17 -2.5641338003014015e-17 0.7525677769830555 0.6585147994135261
12630241333.333334 0.7572446353877982 0.6531313513959154 -5.643210969576415e-17 -2.5229582965698908e-17 -5.643210969576415e-17 -2.5229582965698908e-17 0.7572442384499483 0.6531318116078958
12630858666.666666 0.7618825908157187 0.6477151517540578 -5.660170851969392e-17 -2.4816673546204555e-17 -5.660170851969392e-17 -2.4816673546204555e-17 0.7618821971887836 0.6477156147621
12631476000.0 0.7664818076750859 0.6422660184868784 -5.676828998443128e-17 -2.4402631715957143e-17 -5.676828998443128e-17 -2.4402631715957143e-17 0.7664814173787549 0.6422664842671683
12632093333.333334 0.7710420521147734 0.6367842286603002 -5.693184658808453e-17 -2.3987479496790482e-17 -5.693184658808453e-17 -2.3987479496790482e-17 0.7710416651685651 0.636784697188885
12632710666.666666 0.7755630922653166 0.6312700610006103 -5.709237098928461e-17 -2.357123895978264e-17 -5.709237098928461e-17 -2.357123895978264e-17 0.7755627086885774 0.6312705322534
12633328000.0 0.7800446982506615 0.6257237958803296 -5.724985600751343e-17 -2.3153932224066062e-17 -5.724985600751343e-17 -2.3153932224066062e-17 0.7800443180625644 0.6257242698330976
12633945333.333334 0.7844866421997468 0.6201457153040889 -5.740429462340341e-17 -2.2735581455684457e-17 -5.740429462340341e-17 -2.2735581455684457e-17 0.7844862654192902 0.620146191932474
12634562666.666666 0.7888886982582324 0.6145361028941146 -5.755567997904904e-17 -2.2316208866399012e-17 -5.755567997904904e-17 -2.2316208866399012e-17 0.78888832490424 0.6145365821736216
12635180000.0 0.7932506425998584 0.6088952438759613 -5.770400537829523e-17 -2.1895836712526605e-17 -5.770400537829523e-17 -2.1895836712526605e-17 0.7932502726909778 0.6088957257819629
12635797333.333334 0.797572253437898 0.6032234250639216 -5.784926428702563e-17 -2.1474487293756892e-17 -5.784926428702563e-17 -2.1474487293756892e-17 0.7975718869925998 0.6032239095716595
12636414666.666666 0.8018533110364151 0.5975209348464645 -5.799145033343906e-17 -2.105218295197559e-17 -5.799145033343906e-17 -2.105218295197559e-17 0.8018529480729928 0.5975214219310505
12637032000.0 0.8060935977214224 0.5917880631715958 -5.81305573083169e-17 -2.0628946070085998e-17 -5.81305573083169e-17 -2.0628946070085998e-17 0.8060932382579895 0.5917885528080131
12637649333.333334 0.8102928978920143 0.5860251015320227 -5.826657916528571e-17 -2.0204799070820802e-17 -5.826657916528571e-17 -2.0204799070820802e-17 0.8102925419465046 0.5860255936951267
12638266666.666666 0.8144509980312113 0.5802323429504931 -5.839951002106408e-17 -1.9779764415570174e-17 -5.839951002106408e-17 -1.9779764415570174e-17 0.8144506456213798 0.5802328376150145
12638884000.0 0.8185676867169541 0.5744100819647139 -5.852934415570994e-17 -1.9353864603183693e-17 -5.852934415570994e-17 -1.9353864603183693e-17 0.8185673378603722 0.5744105791052574
12639501333.333334 0.8226427546327323 0.5685586146125351 -5.865607601285078e-17 -1.8927122168795603e-17 -5.865607601285078e-17 -1.8927122168795603e-17 0.82264240934679 0.5685591142035825
12640118666.666666 0.8266759945782641 0.562678238416853 -5.877970019991016e-17 -1.8499559682633663e-17 -5.877970019991016e-17 -1.8499559682633663e-17 0.826675652880168 0.5626787404327639
12640736000.0 0.8306672014801748 0.5567692523702693 -5.890021148832862e-17 -1.8071199748816614e-17 -5.890021148832862e-17 -1.8071199748816614e-17 0.830666863386948 0.5567697567852831
12641353333.333334 0.8346161724020896 0.550831956920385 -5.90176048137639e-17 -1.7642065004190527e-17 -5.90176048137639e-17 -1.7642065004190527e-17 0.8346158379305687 0.5508324637086204
12641970666.666666 0.8385227065553303 0.5448666539539547 -5.913187527629727e-17 -1.7212178117113566e-17 -5.913187527629727e-17 -1.7212178117113566e-17 0.838522375722168 0.5448671630894136
12642588000.0 0.8423866053088597 0.5388736467819417 -5.92430181406212e-17 -1.6781561786274904e-17 -5.92430181406212e-17 -1.6781561786274904e-17 0.8423862781305215 0.538874158238509
12643205333.333334 0.8462076721995228 0.532853240123883 -5.935102883622381e-17 -1.6350238739494083e-17 -5.935102883622381e-17 -1.6350238739494083e-17 0.8462073486922853 0.5328537538753269
12643822666.666666 0.8499857129419817 0.5268057400924613 -5.94559029575604e-17 -1.5918231732530808e-17 -5.94559029575604e-17 -1.5918231732530808e-17 0.8499853931219357 0.5268062561124373
12644440000.0 0.853720535438574 0.5207314541779955 -5.955763626422054e-17 -1.54855635478841e-17 -5.955763626422054e-17 -1.54855635478841e-17 0.8537202193216193 0.5207319724400457
12645057333.333334 0.8574119497891327 0.5146306912327048 -5.965622468108084e-17 -1.5052256993606996e-17 -5.965622468108084e-17 -1.5052256993606996e-17 0.8574116373909813 0.5146312117102604
12645674666.666666 0.8610597683005458 0.508503761455179 -5.975166429845641e-17 -1.4618334902095344e-17 -5.975166429845641e-17 -1.4618334902095344e-17 0.8610594596367162 0.50850428412156
12646292000.0 0.8646638054965103 0.5023509763742356 -5.984395137223897e-17 -1.4183820128890682e-17 -5.984395137223897e-17 -1.4183820128890682e-17 0.8646635005823323 0.5023515012026549
12646909333.333334 0.8682238781266657 0.4961726488335978 -5.993308232402569e-17 -1.3748735551489616e-17 -5.993308232402569e-17 -1.3748735551489616e-17 0.8682235769772757 0.4961731757971598
12647526666.666666 0.8717398051761652 0.4899690929755427 -6.001905374124143e-17 -1.3313104068138471e-17 -6.001905374124143e-17 -1.3313104068138471e-17 0.8717395078065078 0.4899696220472468
12648144000.0 0.8752114078747708 0.48374062422512876 -6.010186237725296e-17 -1.2876948596629389e-17 -6.010186237725296e-17 -1.2876948596629389e-17 0.8752111142995951 0.48374115537786877
12648761333.333334 0.8786385097059219 0.47748755927417846 -6.018150515147246e-17 -1.2440292073100764e-17 -6.018150515147246e-17 -1.2440292073100764e-17 0.8786382199397842 0.47748809248074575
12649378666.666666 0.8820209364157594 0.471210216065105 -6.025797914945091e-17 -1.20031574508476e-17 -6.025797914945091e-17 -1.20031574508476e-17 0.8820206504730206 0.47121075129818907
12649996000.0 0.8853585160219538 0.4649089137747941 -6.033128162296935e-17 -1.1565567699097109e-17 -6.033128162296935e-17 -1.1565567699097109e-17 0.8853582339167794 0.46490945100698444
12650613333.333334 0.8886510788225198 0.45858397279825147 -6.04014099901133e-17 -1.112754580182511e-17 -6.04014099901133e-17 -1.112754580182511e-17 0.8886508005688778 0.4585845120020378
12651230666.666666 0.8918984574042955 0.45223571473258595 -6.046836183534392e-17 -1.0689114756546465e-17 -6.046836183534392e-17 -1.0689114756546465e-17 0.8918981830159577 0.45223625588036115
12651848000.0 0.8951004866516307 0.4458644623603338 -6.053213490955918e-17 -1.0250297573108592e-17 -6.053213490955918e-17 -1.0250297573108592e-17 0.8951002161421697 0.4458650054243939
12652465333.333334 0.8982570037546962 0.43947053963319305 -6.059272713014563e-17 -9.811117272490017e-18 -6.059272713014563e-17 -9.811117272490017e-18 0.8982567371374887 0.4394710845857406
12653082666.666666 0.9013678482176828 0.43305427165573557 -6.065013658102023e-17 -9.371596885609222e-18 -6.065013658102023e-17 -9.371596885609222e-18 0.901367585505903 0.4330548184688782
12653700000.0 0.904432861867179 0.4266159846684128 -6.070436151266816e-17 -8.931759452098806e-18 -6.070436151266816e-17 -8.931759452098806e-18 0.9044326030738035 0.4266165333141675
12654317333.333334 0.9074518888599463 0.4201560060315338 -6.075540034216666e-17 -8.491628019121294e-18 -6.075540034216666e-17 -8.491628019121294e-18 0.9074516339977513 0.4201565564818269
12654934666.666666 0.9104247756910635 0.4136746642081579 -6.080325165320263e-17 -8.051225640160605e-18 -6.080325165320263e-17 -8.051225640160605e-18 0.9104245247726219 0.4136752164348261
12655552000.0 0.9133513712016417 0.4071722887475721 -6.08479141960836e-17 -7.610575373805228e-18 -6.08479141960836e-17 -7.610575373805228e-18 0.9133511242393272 0.40717284272236526
12656169333.333334 0.9162315265864458 0.4006492102686922 -6.088938688773363e-17 -7.169700282574674e-18 -6.088938688773363e-17 -7.169700282574674e-18 0.9162312835924282 0.4006497659632737
12656786666.666666 0.9190650954016084 0.394105760442914 -6.092766881168892e-17 -6.7286234316857594e-18 -6.092766881168892e-17 -6.7286234316857594e-18 0.9190648563878561 0.39410631782886285
12657404000.0 0.9218519335719406 0.3875422719775621 -6.096275921807757e-17 -6.287367887872794e-18 -6.096275921807757e-17 -6.287367887872794e-18 0.9218516985502163 0.3875428310263733
12658021333.333334 0.9245918993983653 0.3809590785987096 -6.099465752359555e-17 -5.845956718168359e-18 -6.099465752359555e-17 -5.845956718168359e-18 0.9245916683802301 0.3809596392817978
12658638666.666666 0.9272848535649968 0.37435651503452805 -6.102336331147024e-17 -5.404412988722699e-18 -6.102336331147024e-17 -5.404412988722699e-18 0.9272846265618053 0.37435707732322643
12659256000.0 0.9299306591463609 0.3677349169979232 -6.10488763314189e-17 -4.962759763580188e-18 -6.10488763314189e-17 -4.962759763580188e-18 0.9299304361692629 0.3677354808634865
12659873333.333334 0.9325291816142918 0.361094621169624 -6.107119649959582e-17 -4.521020103489419e-18 -6.107119649959582e-17 -4.521020103489419e-18 0.9325289626742314 0.3610951865832294
12660490666.666666 0.9350802888447125 0.3544359651812226 -6.109032389853134e-17 -4.079217064715654e-18 -6.109032389853134e-17 -4.079217064715654e-18 0.9350800739524271 0.3544365321139715
12661108000.0 0.9375838511244852 0.34775928759766317 -6.110625877706416e-17 -3.637373697810529e-18 -6.110625877706416e-17 -3.637373697810529e-18 0.9375836402905069 0.34775985602058307
12661725333.333334 0.9400397411578965 0.34106492790031906 -6.111900155026154e-17 -3.1955130464520385e-18 -6.111900155026154e-17 -3.1955130464520385e-18 0.9400395343925484 0.34106549778436385
12662342666.666666 0.9424478340731688 0.33435322646962545 -6.112855279933443e-17 -2.7536581462140922e-18 -6.112855279933443e-17 -2.7536581462140922e-18 0.9424476313865662 0.3343537977856776
12662960000.0 0.9448080074288372 0.3276245245676912 -6.113491327154139e-17 -2.3118320233925863e-18 -6.113491327154139e-17 -2.3118320233925863e-18 0.9448078088308884 0.3276250972865636
12663577333.333334 0.9471201412199121 0.3208791643211361 -6.113808388008555e-17 -1.87005769379417e-18 -6.113808388008555e-17 -1.87005769379417e-18 0.9471199467203147 0.3208797384135728
12664194666.666666 0.9493841178840494 0.3141174887034784 -6.11380657040017e-17 -1.4283581615538438e-18 -6.11380657040017e-17 -1.4283581615538438e-18 0.9493839274922949 0.3141180641401572
12664812000.0 0.9515998223074739 0.3073398415178872 -6.113485998803601e-17 -9.86756417936254e-19 -6.113485998803601e-17 -9.86756417936254e-19 0.9515996360328399 0.3073404182694194
12665429333.333334 0.9537671418308558 0.30054656737959023 -6.11284681425161e-17 -5.452754401381123e-19 -6.11284681425161e-17 -5.452754401381123e-19 0.9537669596824129 0.3005471454165239
12666046666.666666 0.9558859662550345 0.2937380116984091 -6.111889174321341e-17 -1.0393819010920142e-19 -6.111889174321341e-17 -1.0393819010920142e-19 0.9558857882416405 0.29373859099122923
12666664000.0 0.9579561878466437 0.286914520661085 -6.110613253119607e-17 3.37232386653171e-19 -6.110613253119607e-17 3.37232386653171e-19 0.9579560139769473 0.28691510118021635
12667281333.333334 0.959977701343549 0.28007644121384223 -6.109019241267448e-17 7.782133622719092e-19 -6.109019241267448e-17 7.782133622719092e-19 0.9599775316259856 0.28007702292964953
12667898666.666666 0.9619504039602176 0.2732241210446639 -6.10710734588369e-17 1.218981827699914e-18 -6.10710734588369e-17 1.218981827699914e-18 0.9619502384030114 0.273224703927454
12668516000.0 0.9638741953929727 0.2663579085655326 -6.104877790567762e-17 1.6595148938936803e-18 -6.104877790567762e-17 1.6595148938936803e-18 0.9638740340041357 0.2663584925855561
12669133333.333334 0.9657489778250447 0.2594781528948788 -6.102330815381648e-17 2.0997896929958303e-18 -6.102330815381648e-17 2.0997896929958303e-18 0.9657488206123754 0.25947873802233107
12669750666.666666 0.9675746559315666 0.25258520383974686 -6.099466676830915e-17 2.5397833795212657e-18 -6.099466676830915e-17 2.5397833795212657e-18 0.967574502902652 0.2525857900447703
12670368000.0 0.9693511368844544 0.24567941187790038 -6.096285647844953e-17 2.9794731315451763e-18 -6.096285647844953e-17 2.9794731315451763e-18 0.9693509880466675 0.2456799991305854
