! Parameters = {f0=12700.012000; bw=77.238000; Q=6100.000000; N=10; m_0_1=1.197693; m_1_1=-0.799355; m_1_2=1.032505; m_2_2=-0.800004; m_2_3=0.669468; m_2_8=-0.003052; m_2_9=0.033652; m_3_3=-0.801941; m_3_4=0.557997; m_3_7=-0.002452; m_3_8=-0.099540; m_3_9=-0.003052; m_4_4=-0.804866; m_4_5=0.394332; m_4_6=0.001065; m_4_7=-0.120089; m_4_8=-0.002452; m_5_5=-0.804484; m_5_6=0.801687; m_5_7=0.001065; m_6_6=-0.804485; m_6_7=0.394674; m_7_7=-0.804852; m_7_8=0.558115; m_8_8=-0.801943; m_8_9=0.669781; m_9_9=-0.800009; m_9_10=1.033583; m_10_10=-0.799365; m_10_11=1.198488}
!
! Created with skrf (http://scikit-rf.org).
# Hz S RI R 50.0 
!freq ReS11 ImS11 ReS21 ImS21 ReS12 ImS12 ReS22 ImS22
12607400000.0 0.8928143240214138 0.4504248914325568 -7.640005719003441e-17 -1.384188071082892e-17 -7.640005719003441e-17 -1.384188071082892e-17 0.892814039739626 0.4504254549241781
12608017333.333334 0.896559862865758 0.44292258047877503 -7.649962267459721e-17 -1.3191390021567077e-17 -7.649962267459721e-17 -1.3191390021567077e-17 0.8965595833326749 0.44292314630665097
12608634666.666666 0.9002423612401934 0.43538912598792023 -7.659365467921093e-17 -1.2540206666605828e-17 -7.659365467921093e-17 -1.2540206666605828e-17 0.9002420864750039 0.4353896941120384
12609252000.0 0.9038615602145714 0.4278250576653082 -7.668214861950931e-17 -1.1888377675152965e-17 -7.668214861950931e-17 -1.1888377675152965e-17 0.9038612902361276 0.4278256280454988
12609869333.333334 0.9074172053095739 0.4202309073688017 -7.676510031047384e-17 -1.1235950104339043e-17 -7.676510031047384e-17 -1.1235950104339043e-17 0.9074169401363891 0.4202314799647403
12610486666.666666 0.910909046514545 0.4126072090715414 -7.68425059665761e-17 -1.0582971035840214e-17 -7.68425059665761e-17 -1.0582971035840214e-17 0.910908786164793 0.41260778384275143
12611104000.0 0.9143368383052014 0.4049544988241166 -7.6914362201896e-17 -9.92948757246572e-18 -7.6914362201896e-17 -9.92948757246572e-18 0.9143365827967155 0.4049550757299729
12611721333.333334 0.9177003396607324 0.3972733147172355 -7.698066603020453e-17 -9.275546834802058e-18 -7.698066603020453e-17 -9.275546834802058e-18 0.9177000890110031 0.3972738937169666
12612338666.666666 0.9209993140808627 0.3895641968436317 -7.704141486502492e-17 -8.6211959577937e-18 -7.704141486502492e-17 -8.6211959577937e-18 0.9209990683070376 0.3895647778963229
12612956000.0 0.9242335296024794 0.3818276872600861 -7.709660651965998e-17 -7.966482087367878e-18 -7.709660651965998e-17 -7.966482087367878e-18 0.9242332887213617 0.38182827032468236
12613573333.333334 0.9274027588158442 0.3740643299495496 -7.714623920719182e-17 -7.311452377057834e-18 -7.714623920719182e-17 -7.311452377057834e-18 0.9274025228438909 0.37406491498485855
12614190666.666666 0.9305067788806904 0.36627467078263093 -7.719031154045513e-17 -6.656153984596015e-18 -7.719031154045513e-17 -6.656153984596015e-18 0.9305065478340133 0.366275257747326
12614808000.0 0.9335453715418428 0.35845925747934665 -7.722882253197949e-17 -6.0006340685391265e-18 -7.722882253197949e-17 -6.0006340685391265e-18 0.9335451454362045 0.35845984633196926
12615425333.333334 0.9365183231445701 0.3506186395705822 -7.726177159390366e-17 -5.3449397848811815e-18 -7.726177159390366e-17 -5.3449397848811815e-18 0.936518101995383 0.3506192302695446
12616042666.666666 0.9394254246496067 0.34275336835945064 -7.72891585378614e-17 -4.689118283670323e-18 -7.72891585378614e-17 -4.689118283670323e-18 0.9394252084719359 0.34275396086304033
12616660000.0 0.9422664716478557 0.3348639968825313 -7.731098357483868e-17 -4.033216705627375e-18 -7.731098357483868e-17 -4.033216705627375e-18 0.9422662604564142 0.33486459114891254
12617277333.333334 0.9450412643747674 0.32695107987095495 -7.732724731500216e-17 -3.377282178764178e-18 -7.732724731500216e-17 -3.377282178764178e-18 0.945041058183916 0.326951675858172
12617894666.666666 0.9477496077243416 0.31901517371153354 -7.733795076749878e-17 -2.721361815017368e-18 -7.733795076749878e-17 -2.721361815017368e-18 0.9477494065480878 0.319015771377514
12618512000.0 0.9503913112629448 0.31105683640734294 -7.734309534022786e-17 -2.0655027068494372e-18 -7.734309534022786e-17 -2.0655027068494372e-18 0.9503911151149425 0.3110574357099003
12619129333.333334 0.9529661892425738 0.30307662753886344 -7.734268283958336e-17 -1.4097519239075016e-18 -7.734268283958336e-17 -1.4097519239075016e-18 0.952965998136123 0.30307722843570073
12619746666.666666 0.9554740606140081 0.295075108224366 -7.733671547016853e-17 -7.541565096322264e-19 -7.733671547016853e-17 -7.541565096322264e-19 0.9554738745620526 0.29507571067307814
12620364000.0 0.9579147490395383 0.28705284108045626 -7.732519583448188e-17 -9.876347789416133e-20 -7.732519583448188e-17 -9.876347789416133e-20 0.9579145680546637 0.28705344503853264
12620981333.333334 0.9602880829052853 0.2790103901827585 -7.730812693257446e-17 5.563801903577014e-19 -7.730812693257446e-17 5.563801903577014e-19 0.9602879069997218 0.27901099560758724
12621598666.666666 0.962593895333348 0.27094832102601046 -7.728551216167929e-17 1.2112275504634803e-18 -7.728551216167929e-17 1.2112275504634803e-18 0.9625937245189664 0.27094892787488045
12622216000.0 0.9648320241935257 0.2628672004843273 -7.725735531581178e-17 1.865731697405042e-18 -7.725735531581178e-17 1.865731697405042e-18 0.9648318584818373 0.2628678087144313
12622833333.333334 0.9670023121146826 0.25476759677145144 -7.722366058534235e-17 2.519845769158877e-18 -7.722366058534235e-17 2.519845769158877e-18 0.9670021515168405 0.2547682063398897
12623450666.666666 0.969104606495822 0.24665007940080078 -7.718443255654095e-17 3.1735229500336123e-18 -7.718443255654095e-17 3.1735229500336123e-18 0.9691044510226169 0.2466506902645833
12624068000.0 0.9711387595168398 0.23851521914531335 -7.713967621109234e-17 3.826716474022627e-18 -7.713967621109234e-17 3.826716474022627e-18 0.971138609178702 0.23851583126136347
12624685333.333334 0.9731046281489262 0.23036358799728673 -7.708939692558393e-17 4.479379628143027e-18 -7.708939692558393e-17 4.479379628143027e-18 0.9731044829559237 0.23036420132244398
12625302666.666666 0.975002074164554 0.2221957591284349 -7.703360047096674e-17 5.131465755745406e-18 -7.703360047096674e-17 5.131465755745406e-18 0.9750019341263925 0.22219637361945793
12625920000.0 0.9768309641472981 0.21401230684917188 -7.697229301198439e-17 5.7829282598729955e-18 -7.697229301198439e-17 5.7829282598729955e-18 0.976830829273319 0.21401292246274148
12626537333.333334 0.9785911695011248 0.20581380656861725 -7.690548110657938e-17 6.4337206065518045e-18 -7.690548110657938e-17 6.4337206065518045e-18 0.9785910398003069 0.2058144232613399
12627154666.666666 0.9802825664594762 0.19760083475397158 -7.683317170526748e-17 7.083796328118655e-18 -7.683317170526748e-17 7.083796328118655e-18 0.9802824419404321 0.19760145248238173
12627772000.0 0.9819050360940014 0.1893739688898147 -7.67553721504839e-17 7.73310902654314e-18 -7.67553721504839e-17 7.73310902654314e-18 0.9819049167649804 0.1893745876103786
12628389333.333334 0.9834584643228445 0.18113378743789144 -7.667209017590638e-17 8.381612376699669e-18 -7.667209017590638e-17 8.381612376699669e-18 0.9834583501917281 0.1811344071070094
12629006666.666666 0.9849427419187451 0.17288086979601885 -7.658333390574371e-17 9.029260129694042e-18 -7.658333390574371e-17 9.029260129694042e-18 0.9849426329930498 0.1728814903700291
12629624000.0 0.9863577645166596 0.16461579625765393 -7.648911185400159e-17 9.676006116137478e-18 -7.648911185400159e-17 9.676006116137478e-18 0.9863576608035352 0.16461641769283525
12630241333.333334 0.9877034326211326 0.15633914797092333 -7.638943292371939e-17 1.0321804249428954e-17 -7.638943292371939e-17 1.0321804249428954e-17 0.9877033341273621 0.15633977022349832
12630858666.666666 0.9889796516132648 0.14805150689792906 -7.628430640617966e-17 1.0966608529025946e-17 -7.628430640617966e-17 1.0966608529025946e-17 0.9889795583452625 0.148052129924067
12631476000.0 0.9901863317574136 0.13975345577351966 -7.617374198008624e-17 1.1610373043733732e-17 -7.617374198008624e-17 1.1610373043733732e-17 0.9901862437212258 0.13975407952933963
12632093333.333334 0.9913233882074433 0.1314455780646803 -7.605774971072242e-17 1.2253051974937174e-17 -7.605774971072242e-17 1.2253051974937174e-17 0.9913233054087494 0.13144620250625472
12632710666.666666 0.9923907410127253 0.1231284579293402 -7.59363400490759e-17 1.2894599599865782e-17 -7.59363400490759e-17 1.2894599599865782e-17 0.9923906634568345 0.12312908301269725
12633328000.0 0.9933883151237712 0.11480268017515592 -7.580952383093536e-17 1.35349702948483e-17 -7.580952383093536e-17 1.35349702948483e-17 0.9933882428156237 0.1148033058562831
12633945333.333334 0.994316040397477 0.10646883021864537 -7.567731227596615e-17 1.417411853852883e-17 -7.567731227596615e-17 1.417411853852883e-17 0.9943159733416445 0.10646945645349246
12634562666.666666 0.9951738516020755 0.09812749404388425 -7.553971698675311e-17 1.4811998915104503e-17 -7.553971698675311e-17 1.4811998915104503e-17 0.9951737898027596 0.0981281207883664
12635180000.0 0.9959616884217202 0.0897792581613315 -7.539674994781849e-17 1.5448566117541385e-17 -7.539674994781849e-17 1.5448566117541385e-17 0.9959616318827518 0.08977988537133229
12635797333.333334 0.9966794954607249 0.08142470956656098 -7.524842352461214e-17 1.6083774950785605e-17 -7.524842352461214e-17 1.6083774950785605e-17 0.9966794441855646 0.08142533719793552
12636414666.666666 0.9973272222474487 0.07306443569912932 -7.509475046247708e-17 1.6717580334954514e-17 -7.509475046247708e-17 1.6717580334954514e-17 0.9973271762391882 0.07306506370770757
12637032000.0 0.9979048232378697 0.06469902440098779 -7.49357438855839e-17 1.7349937308537566e-17 -7.49357438855839e-17 1.7349937308537566e-17 0.9979047824992291 0.06469965274257743
12637649333.333334 0.9984122578187634 0.05632906387543211 -7.47714172958409e-17 1.798080103157677e-17 -7.47714172958409e-17 1.798080103157677e-17 0.9984122223520921 0.056329692505821684
12638266666.666666 0.9988494903105692 0.047955142645601974 -7.460178457177978e-17 1.8610126788826502e-17 -7.460178457177978e-17 1.8610126788826502e-17 0.9988494601178456 0.04795577152056409
12638884000.0 0.9992164899698969 0.039577849513128156 -7.442685996741061e-17 1.9237869992922365e-17 -7.442685996741061e-17 1.9237869992922365e-17 0.9992164650527282 0.03957847858842252
12639501333.333334 0.9995132309916884 0.031197773516703244 -7.424665811105189e-17 1.9863986187531e-17 -7.424665811105189e-17 1.9863986187531e-17 0.999513211351312 0.031198402748079848
12640118666.666666 0.9997396925110309 0.022815503890834726 -7.40611940041383e-17 2.0488431050476838e-17 -7.40611940041383e-17 2.0488431050476838e-17 0.9997396781483122 0.022816133234036865
12640736000.0 0.9998958586046331 0.014431630023958968 -7.38704830199882e-17 2.1111160396903963e-17 -7.38704830199882e-17 2.1111160396903963e-17 0.9998958495200653 0.014432259434726393
12641353333.333334 0.9999817182919264 0.006046741417681056 -7.367454090257022e-17 2.1732130182343253e-17 -7.367454090257022e-17 2.1732130182343253e-17 0.9999817144856327 0.006047370851753126
12641970666.666666 0.9999972655358533 -0.0023385723552718863 -7.347338376521515e-17 2.2351296505862317e-17 -7.347338376521515e-17 2.2351296505862317e-17 0.999997267007587 -0.002337942942153136
12642588000.0 0.9999424992432868 -0.010723721692221634 -7.326702808932185e-17 2.2968615613139187e-17 -7.326702808932185e-17 2.2968615613139187e-17 0.9999425059924292 -0.010723092344308393
12643205333.333334 0.9998174232651081 -0.01910811700202449 -7.30554907230297e-17 2.358404389954715e-17 -7.30554907230297e-17 2.358404389954715e-17 0.9998174352906682 -0.01910748776356002
12643822666.666666 0.9996220463959307 -0.02749116874664125 -7.283878887986371e-17 2.419753791323394e-17 -7.283878887986371e-17 2.419753791323394e-17 0.9996220636965473 -0.027490539661856793
12644440000.0 0.9993563823734853 -0.03587228748244767 -7.261694013735963e-17 2.4809054358170032e-17 -7.261694013735963e-17 2.4809054358170032e-17 0.999356404947428 -0.03587165859555939
12645057333.333334 0.9990204498776597 -0.04425088390170909 -7.238996243566064e-17 2.5418550097195072e-17 -7.238996243566064e-17 2.5418550097195072e-17 0.9990204777228253 -0.044250255256914846
12645674666.666666 0.9986142725291784 -0.05262636887401663 -7.215787407608534e-17 2.6025982155059883e-17 -7.215787407608534e-17 2.6025982155059883e-17 0.9986143056430947 -0.052625740515492986
12646292000.0 0.9981378788879361 -0.060998153487909976 -7.192069371967189e-17 2.663130772144918e-17 -7.192069371967189e-17 2.663130772144918e-17 0.9981379172677611 -0.060997525459809104
12646909333.333334 0.9975913024510088 -0.06936564909191707 -7.167844038570593e-17 2.7234484153971436e-17 -7.167844038570593e-17 2.7234484153971436e-17 0.9975913460935291 -0.06936502143836351
12647526666.666666 0.9969745816502807 -0.07772826733622797 -7.143113345020822e-17 2.7835468981171697e-17 -7.143113345020822e-17 2.7835468981171697e-17 0.9969746305519135 -0.07772764010131561
12648144000.0 0.9962877598497425 -0.08608542021403551 -7.117879264440577e-17 2.8434219905510905e-17 -7.117879264440577e-17 2.8434219905510905e-17 0.9962878140065362 -0.08608479344182458
12648761333.333334 0.9955308853424509 -0.0944365201027668 -7.092143805318002e-17 2.903069480632531e-17 -7.092143805318002e-17 2.903069480632531e-17 0.9955309447500854 -0.09443589383728072
12649378666.666666 0.9947040113471373 -0.10278097980540164 -7.065909011348779e-17 2.9624851742780425e-17 -7.065909011348779e-17 2.9624851742780425e-17 0.9947040760009228 -0.10278035409062382
12649996000.0 0.9938071960044489 -0.11111821259190163 -7.039176961275284e-17 3.021664895682078e-17 -7.039176961275284e-17 3.021664895682078e-17 0.9938072658993276 -0.11111758747177251
12650613333.333334 0.9928405023728726 -0.11944763224035228 -7.01194976872392e-17 3.080604487608912e-17 -7.01194976872392e-17 3.080604487608912e-17 0.9928405775034181 -0.11944700775876618
12651230666.666666 0.9918039984242976 -0.1277686530782107 -6.984229582040242e-17 3.1392998116829755e-17 -6.984229582040242e-17 3.1392998116829755e-17 0.9918040787847168 -0.12776802927901282
12651848000.0 0.9906977570392372 -0.1360806900234866 -6.95601858412027e-17 3.197746748680455e-17 -6.95601858412027e-17 3.197746748680455e-17 0.9906978426233698 -0.1360800669504698
12652465333.333334 0.9895218560017044 -0.1443831586258814 -6.927318992241179e-17 3.2559411988156544e-17 -6.927318992241179e-17 3.2559411988156544e-17 0.9895219468030224 -0.1443825363227833
12653082666.666666 0.9882763779937442 -0.152675475107855 -6.898133057888764e-17 3.313879082027652e-17 -6.898133057888764e-17 3.313879082027652e-17 0.9882764740053552 -0.1526748536183548
12653700000.0 0.9869614105896032 -0.16095705640581398 -6.868463066581632e-17 3.371556338267156e-17 -6.868463066581632e-17 3.371556338267156e-17 0.9869615118042474 -0.16095643577352936
12654317333.333334 0.9855770462496098 -0.16922732021082795 -6.838311337694893e-17 3.428968927778135e-17 -6.838311337694893e-17 3.428968927778135e-17 0.985577152659663 -0.16922670047931204
12654934666.666666 0.9841233823136392 -0.17748568500982684 -6.80768022428005e-17 3.4861128313805736e-17 -6.80768022428005e-17 3.4861128313805736e-17 0.9841234939111123 -0.17748506622256527
12655552000.0 0.9826005209942608 -0.18573157012648828 -6.776572112882615e-17 3.542984050751666e-17 -6.776572112882615e-17 3.542984050751666e-17 0.9826006377708024 -0.18573095232689618
12656169333.333334 0.9810085693696046 -0.19396439576181668 -6.744989423358787e-17 3.599578608702704e-17 -6.744989423358787e-17 3.599578608702704e-17 0.9810086913164973 -0.19396377899323503
12656786666.666666 0.9793476393757724 -0.20218358303518885 -6.71293460868774e-17 3.6558925494581607e-17 -6.71293460868774e-17 3.6558925494581607e-17 0.9793477664839384 -0.20218296734088248
12657404000.0 0.9776178477989992 -0.2103885540249191 -6.680410154783182e-17 3.711921938930281e-17 -6.680410154783182e-17 3.711921938930281e-17 0.9776179800589991 -0.2103879394480731
12658021333.333334 0.9758193162674305 -0.2185787318089505 -6.647418580301881e-17 3.767662864993322e-17 -6.647418580301881e-17 3.767662864993322e-17 0.9758194536694607 -0.21857811839266647
12658638666.666666 0.9739521712425944 -0.22675354050528046 -6.613962436450696e-17 3.823111437754818e-17 -6.613962436450696e-17 3.823111437754818e-17 0.9739523137764936 -0.22675292829257493
12659256000.0 0.9720165440104565 -0.23491240531273228 -6.580044306789672e-17 3.878263789827931e-17 -6.580044306789672e-17 3.878263789827931e-17 0.9720166916657018 -0.23491179434653256
12659873333.333334 0.9700125706722349 -0.24305475255112008 -6.545666807034978e-17 3.9331160765985286e-17 -6.545666807034978e-17 3.9331160765985286e-17 0.9700127234379462 -0.24305414287426205
12660490666.666666 0.967940392134843 -0.251180009701589 -6.510832584858702e-17 3.987664476492244e-17 -6.510832584858702e-17 3.987664476492244e-17 0.9679405499997799 -0.25117940135681327
12661108000.0 0.9658001541009039 -0.2592876054471449 -6.475544319685178e-17 4.041905191241565e-17 -6.475544319685178e-17 4.041905191241565e-17 0.9658003170534702 -0.25928699847709463
12661725333.333334 0.963592007058608 -0.2673769697124412 -6.439804722487944e-17 4.095834446146774e-17 -6.439804722487944e-17 4.095834446146774e-17 0.9635921750868499 -0.26737636415965843
12662342666.666666 0.961316106271052 -0.27544753370416536 -6.403616535581581e-17 4.1494484903396504e-17 -6.403616535581581e-17 4.1494484903396504e-17 0.9613162793626604 -0.27544692961108846
12662960000.0 0.958972611765359 -0.28349872995089564 -6.366982532413423e-17 4.2027435970422883e-17 -6.366982532413423e-17 4.2027435970422883e-17 0.9589727899076694 -0.28349812735985624
12663577333.333334 0.9565616883214159 -0.29152999234302884 -6.329905517351739e-17 4.2557160638260463e-17 -6.329905517351739e-17 4.2557160638260463e-17 0.9565618715014116 -0.2915293912962489
12664194666.666666 0.9540835054602925 -0.2995407561725872 -6.292388325473135e-17 4.3083622128666726e-17 -6.292388325473135e-17 4.3083622128666726e-17 0.9540836936646019 -0.29954015671217565
12664812000.0 0.9515382374323151 -0.30753045817292246 -6.254433822346656e-17 4.360678391199387e-17 -6.254433822346656e-17 4.360678391199387e-17 0.9515384306472164 -0.30752986034087326
12665429333.333334 0.9489260632048117 -0.3154985365583512 -6.216044903816227e-17 4.4126609709713425e-17 -6.216044903816227e-17 4.4126609709713425e-17 0.9489262614162315 -0.3154979403965393
12666046666.666666 0.9462471664495705 -0.3234444310635197 -6.177224495781659e-17 4.464306349691308e-17 -6.177224495781659e-17 4.464306349691308e-17 0.9462473696430842 -0.32344383661369824
12666664000.0 0.9435017355298221 -0.33136758298309377 -6.137975553975522e-17 4.515610950480229e-17 -6.137975553975522e-17 4.515610950480229e-17 0.9435019436906588 -0.33136699028689215
12667281333.333334 0.94068996348714 -0.3392674352106423 -6.098301063741214e-17 4.5665712223155237e-17 -6.098301063741214e-17 4.5665712223155237e-17 0.940690176600179 -0.3392668443095621
12667898666.666666 0.9378120480277213 -0.34714343227821004 -6.058204039805875e-17 4.6171836402775674e-17 -6.058204039805875e-17 4.6171836402775674e-17 0.9378122660774953 -0.3471428432136225
12668516000.0 0.9348681915085897 -0.3549950203950803 -6.017687526052538e-17 4.667444705792472e-17 -6.017687526052538e-17 4.667444705792472e-17 0.934868414479287 -0.354994433208224
12669133333.333334 0.9318586009233235 -0.36282164748684903 -5.976754595291548e-17 4.71735094687138e-17 -5.976754595291548e-17 4.71735094687138e-17 0.9318588287987871 -0.36282106221882604
12669750666.666666 0.9287834878875052 -0.3706227632342148 -5.935408349027394e-17 4.7668989183509565e-17 -5.935408349027394e-17 4.7668989183509565e-17 0.9287837206512355 -0.3706221799259887
12670368000.0 0.9256430686238366 -0.3783978191117018 -5.893651917225483e-17 4.816085202129503e-17 -5.893651917225483e-17 4.816085202129503e-17 0.9256433062589912 -0.378397237804094
