! Parameters = {f0=12700.012000; bw=77.238000; Q=6100.000000; N=10; m_0_1=1.287983; m_1_1=0.554999; m_1_2=1.122795; m_2_2=0.554350; m_2_3=0.759758; m_2_8=0.001463; m_2_9=0.038167; m_3_3=0.552413; m_3_4=0.648287; m_3_7=0.002063; m_3_8=-0.095025; m_3_9=0.001463; m_4_4=0.549488; m_4_5=0.484622; m_4_6=0.005580; m_4_7=-0.115574; m_4_8=0.002063; m_5_5=0.549870; m_5_6=0.891977; m_5_7=0.005580; m_6_6=0.549869; m_6_7=0.484964; m_7_7=0.549502; m_7_8=0.648405; m_8_8=0.552411; m_8_9=0.760071; m_9_9=0.554345; m_9_10=1.123873; m_10_10=0.554989; m_10_11=1.288778}
!
! Created with skrf (http://scikit-rf.org).
# Hz S RI R 50.0 
!freq ReS11 ImS11 ReS21 ImS21 ReS12 ImS12 ReS22 ImS22
12607400000.0 -0.7817201794072218 0.6236293459318284 6.885773285965952e-17 -9.86441776523253e-17 6.885773285965952e-17 -9.86441776523253e-17 -0.7817206025724538 0.6236288154933011
12608017333.333334 -0.7747786007028288 0.6322326469684914 6.774099517539518e-17 -9.938587127569074e-17 6.774099517539518e-17 -9.938587127569074e-17 -0.7747790296848529 0.6322321212659289
12608634666.666666 -0.7677423422703097 0.6407586877172382 6.661628303600683e-17 -1.0011493317681337e-16 6.661628303600683e-17 -1.0011493317681337e-16 -0.7677427770161357 0.6407581668144154
12609252000.0 -0.7606122639567015 0.6492064262763264 6.548373920436461e-17 -1.0083127778481659e-16 6.548373920436461e-17 -1.0083127778481659e-16 -0.7606127044126412 0.6492059102364262
12609869333.333334 -0.7533892370740836 0.6575748303126792 6.434350735964033e-17 -1.0153482114101703e-16 6.434350735964033e-17 -1.0153482114101703e-16 -0.7533896831857555 0.6575743191982832
12610486666.666666 -0.7460741442930819 0.6658628771880618 6.319573207911333e-17 -1.0222548090871699e-16 6.319573207911333e-17 -1.0222548090871699e-16 -0.7460745960054194 0.6658623710611444
12611104000.0 -0.7386678795348743 0.6740695540841987 6.20405588198531e-17 -1.0290317638280019e-16 6.20405588198531e-17 -1.0290317638280019e-16 -0.7386683367921313 0.6740690530061185
12611721333.333334 -0.7311713478621756 0.6821938581262866 6.087813390035953e-17 -1.0356782849908761e-16 6.087813390035953e-17 -1.0356782849908761e-16 -0.7311718106079339 0.6821933621577788
12612338666.666666 -0.7235854653685255 0.6902347965056769 5.97086044820352e-17 -1.0421935984352551e-16 5.97086044820352e-17 -1.0421935984352551e-16 -0.7235859335457021 0.6902343057068471
12612956000.0 -0.7159111590662223 0.6981913866013224 5.853211855058701e-17 -1.0485769466114914e-16 5.853211855058701e-17 -1.0485769466114914e-16 -0.715911632617076 0.6981909010316384
12613573333.333334 -0.7081493667732923 0.7060626560995874 5.73488248973746e-17 -1.0548275886481453e-16 5.73488248973746e-17 -1.0548275886481453e-16 -0.7081498456394315 0.7060621758178723
12614190666.666666 -0.7003010369986729 0.7138476431132927 5.615887310057956e-17 -1.0609448004376744e-16 5.615887310057956e-17 -1.0609448004376744e-16 -0.7003015211210611 0.7138471681777175
12614808000.0 -0.6923671288263977 0.7215453962991578 5.496241350635884e-17 -1.0669278747195959e-16 5.496241350635884e-17 -1.0669278747195959e-16 -0.6923676181453635 0.7215449267672355
12615425333.333334 -0.6843486117983586 0.729154974974099 5.3759597209877656e-17 -1.0727761211617114e-16 5.3759597209877656e-17 -1.0727761211617114e-16 -0.6843491062535991 0.7291545109026745
12616042666.666666 -0.6762464657959021 0.736675449230101 5.255057603626261e-17 -1.0784888664391618e-16 5.255057603626261e-17 -1.0784888664391618e-16 -0.676246965326495 0.7366749906753485
12616660000.0 -0.668061680919967 0.7441059000479753 5.1335502521471834e-17 -1.0840654543113432e-16 5.1335502521471834e-17 -1.0840654543113432e-16 -0.6680621854643747 0.7441054470653888
12617277333.333334 -0.6597952573701503 0.7514454194096046 5.0114529893078e-17 -1.0895052456966976e-16 5.0114529893078e-17 -1.0895052456966976e-16 -0.6597957668662287 0.7514449720539915
12617894666.666666 -0.651448205322567 0.7586931104088309 4.8887812051007493e-17 -1.0948076187451966e-16 4.8887812051007493e-17 -1.0948076187451966e-16 -0.6514487197075728 0.7586926687343056
12618512000.0 -0.643021544806147 0.7658480873612832 4.7655503548122584e-17 -1.099971968909015e-16 4.7655503548122584e-17 -1.099971968909015e-16 -0.6430220640167464 0.7658476514212614
12619129333.333334 -0.6345163055783735 0.772909475912277 4.6417759570839244e-17 -1.1049977090105475e-16 4.6417759570839244e-17 -1.1049977090105475e-16 -0.6345168295506487 0.7729090457594681
12619746666.666666 -0.6259335269990988 0.7798764131439591 4.5174735919583515e-17 -1.1098842693086424e-16 4.5174735919583515e-17 -1.1098842693086424e-16 -0.6259340556685564 0.7798759888303597
12620364000.0 -0.6172742579036156 0.7867480476806794 4.392658898921017e-17 -1.1146310975625001e-16 4.392658898921017e-17 -1.1146310975625001e-16 -0.6172747912051941 0.7867476292575671
12620981333.333334 -0.6085395564746647 0.7935235397928897 4.267347574940009e-17 -1.1192376590932084e-16 4.267347574940009e-17 -1.1192376590932084e-16 -0.6085400943427443 0.7935231273108192
12621598666.666666 -0.5997304901129028 0.8002020614999412 4.1415553724901893e-17 -1.1237034368434363e-16 4.1415553724901893e-17 -1.1237034368434363e-16 -0.5997310324813114 0.8002016550087354
12622216000.0 -0.5908481353065512 0.8067827966711927 4.015298097579159e-17 -1.1280279314346015e-16 4.015298097579159e-17 -1.1280279314346015e-16 -0.5908486821085724 0.8067823962199361
12622833333.333334 -0.5818935774998905 0.8132649411257071 3.888591607763548e-17 -1.1322106612219714e-16 3.888591607763548e-17 -1.1322106612219714e-16 -0.5818941286682736 0.8132645467627428
12623450666.666666 -0.5728679109605731 0.8196477027305618 3.761451810161942e-17 -1.1362511623474646e-16 3.761451810161942e-17 -1.1362511623474646e-16 -0.5728684664275413 0.8196473145034855
12624068000.0 -0.5637722386458809 0.8259303014976687 3.633894659459522e-17 -1.140148988790323e-16 3.633894659459522e-17 -1.140148988790323e-16 -0.5637727983431372 0.8259299194533195
12624685333.333334 -0.5546076720678652 0.8321119696791304 3.50593615590853e-17 -1.143903712415507e-16 3.50593615590853e-17 -1.143903712415507e-16 -0.5546082359266029 0.8321115938635878
12625302666.666666 -0.5453753311578486 0.8381919518608411 3.3775923433290877e-17 -1.147514923019703e-16 3.3775923433290877e-17 -1.147514923019703e-16 -0.5453758991087589 0.838191582319419
12625920000.0 -0.5360763441290717 0.8441695050551326 3.248879307093996e-17 -1.1509822283754284e-16 3.248879307093996e-17 -1.1509822283754284e-16 -0.5360769161023538 0.8441691418323753
12626537333.333334 -0.5267118473392501 0.8500438987912875 3.119813172121866e-17 -1.1543052542725127e-16 3.119813172121866e-17 -1.1543052542725127e-16 -0.5267124232646171 0.8500435419309608
12627154666.666666 -0.5172829851515423 0.8558144152049136 2.990410100857981e-17 -1.157483644557566e-16 2.990410100857981e-17 -1.157483644557566e-16 -0.5172835649582317 0.8558140647500023
12627772000.0 -0.507790909794534 0.8614803491257699 2.8606862912512595e-17 -1.1605170611711746e-16 2.8606862912512595e-17 -1.1605170611711746e-16 -0.5077914934113165 0.8614800051184724
12628389333.333334 -0.498236781221874 0.8670410081636772 2.7306579747358537e-17 -1.1634051841826436e-16 2.7306579747358537e-17 -1.1634051841826436e-16 -0.49823736857706125 0.8670406706453999
12629006666.666666 -0.48862176697000975 0.872495712793435 2.6003414141965055e-17 -1.1661477118227808e-16 2.6003414141965055e-17 -1.1661477118227808e-16 -0.4886223579914637 0.8724953818047869
12629624000.0 -0.47894704201588073 0.8778437964376443 2.4697529019426938e-17 -1.1687443605141352e-16 2.4697529019426938e-17 -1.1687443605141352e-16 -0.47894763663102224 0.8778434720184326
12630241333.333334 -0.4692137886331607 0.8830846055482651 2.338908757672644e-17 -1.1711948648991347e-16 2.338908757672644e-17 -1.1711948648991347e-16 -0.46921438676897853 0.8830842877374901
12630858666.666666 -0.45942319624793027 0.8882174996863976 2.2078253264390492e-17 -1.1734989778658586e-16 2.2078253264390492e-17 -1.1734989778658586e-16 -0.45942379783099035 0.8882171885222491
12631476000.0 -0.4495764612930257 0.8932418516007078 2.0765189766067656e-17 -1.1756564705716415e-16 2.0765189766067656e-17 -1.1756564705716415e-16 -0.4495770662494798 0.8932415471205587
12632093333.333334 -0.4396747870622598 0.8981570473038532 1.9450060978161085e-17 -1.1776671324642659e-16 1.9450060978161085e-17 -1.1776671324642659e-16 -0.4396753953178552 0.8981567495442576
12632710666.666666 -0.42971938356307604 0.9029624861476744 1.8133030989396156e-17 -1.1795307713009598e-16 1.8133030989396156e-17 -1.1795307713009598e-16 -0.42971999504316344 0.9029621951443604
12633328000.0 -0.4197114673686532 0.9076575808966024 1.6814264060342048e-17 -1.1812472131651554e-16 1.6814264060342048e-17 -1.1812472131651554e-16 -0.4197120819981968 0.9076572966844689
12633945333.333334 -0.4096522614694424 0.9122417577993185 1.5493924603000464e-17 -1.1828163024808458e-16 1.5493924603000464e-17 -1.1828163024808458e-16 -0.40965287917302934 0.9122414804124322
12634562666.666666 -0.3995429951235895 0.9167144566589378 1.4172177160319853e-17 -1.1842379020247584e-16 1.4172177160319853e-17 -1.1842379020247584e-16 -0.3995436158254379 0.9167141861305268
12635180000.0 -0.3893849037067123 0.9210751309014554 1.284918638572482e-17 -1.1855118929362084e-16 1.284918638572482e-17 -1.1855118929362084e-16 -0.389385527330682 0.9210748672639079
12635797333.333334 -0.3791792285610173 0.9253232476425152 1.1525117022629723e-17 -1.18663817472468e-16 1.1525117022629723e-17 -1.18663817472468e-16 -0.37917985503061796 0.9253229909273726
12636414666.666666 -0.36892721684354957 0.9294582877525444 1.0200133883982922e-17 -1.1876166652750983e-16 1.0200133883982922e-17 -1.1876166652750983e-16 -0.3689278460819511 0.9294580379905006
12637032000.0 -0.35863012137373673 0.9334797459202195 8.874401831742807e-18 -1.1884473008508746e-16 8.874401831742807e-18 -1.1884473008508746e-16 -0.358630753303778 0.9334795031411154
12637649333.333334 -0.34828920048034256 0.9373871307141904 7.548085756423332e-18 -1.1891300360946154e-16 7.548085756423332e-18 -1.1891300360946154e-16 -0.3482898350245409 0.93738689494701
12638266666.666666 -0.3379057178477765 0.9411799646431063 6.2213505566101925e-18 -1.1896648440265722e-16 6.2213505566101925e-18 -1.1896648440265722e-16 -0.3379063549283377 0.9411797359159745
12638884000.0 -0.32748094236150904 0.9448577842140251 4.894361118490795e-18 -1.190051716040812e-16 4.894361118490795e-18 -1.190051716040812e-16 -0.32748158190033644 0.9448575625542043
12639501333.333334 -0.31701614795309124 0.9484201399890256 3.567282295386978e-18 -1.1902906618991104e-16 3.567282295386978e-18 -1.1902906618991104e-16 -0.3170167898717955 0.9484199254229115
12640118666.666666 -0.3065126134446112 0.9518665966400823 2.2402788873437974e-18 -1.1903817097225545e-16 2.2402788873437974e-18 -1.1903817097225545e-16 -0.30651325766451976 0.9518663891932012
12640736000.0 -0.29597162239196106 0.9551967330024168 9.1351562060431e-19 -1.190324905980894e-16 9.1351562060431e-19 -1.190324905980894e-16 -0.29597226883412764 0.9551965326994221
12641353333.333334 -0.2853944629287396 0.9584101421257163 -4.1284287267851765e-19 -1.1901203154795936e-16 -4.1284287267851765e-19 -1.1901203154795936e-16 -0.28539511151395464 0.9584099489903877
12641970666.666666 -0.2747824276081101 0.9615064313241045 -1.7386320749471516e-18 -1.1897680213446345e-16 -1.7386320749471516e-18 -1.1897680213446345e-16 -0.2747830782569091 0.9615062453793408
12642588000.0 -0.2641368132452245 0.9644852222239993 -3.063687603563587e-18 -1.1892681250050386e-16 -3.063687603563587e-18 -1.1892681250050386e-16 -0.2641374658778995 0.9644850434918216
12643205333.333334 -0.25345892075869786 0.967346150810379 -4.387845231166286e-18 -1.1886207461731326e-16 -4.387845231166286e-18 -1.1886207461731326e-16 -0.2534595752953057 0.9673459793119228
12643822666.666666 -0.24275005501152178 0.9700888674712864 -5.7109409060066155e-18 -1.1878260228225418e-16 -5.7109409060066155e-18 -1.1878260228225418e-16 -0.24275071137189466 0.9700887032268025
12644440000.0 -0.23201152465171723 0.9727130370405273 -7.032810772228542e-18 -1.1868841111639379e-16 -7.032810772228542e-18 -1.1868841111639379e-16 -0.232012182755472 0.9727128800693763
12645057333.333334 -0.2212446419524978 0.9752183388386065 -8.353291190119513e-18 -1.18579518561854e-16 -8.353291190119513e-18 -1.18579518561854e-16 -0.2212453017190466 0.9752181891592606
12645674666.666666 -0.21045072265174214 0.9776044667119613 -9.672218756356957e-18 -1.1845594387893418e-16 -9.672218756356957e-18 -1.1845594387893418e-16 -0.21045138400030172 0.9776043243419996
12646292000.0 -0.19963108579112354 0.979871129070388 -1.0989430324207309e-17 -1.1831770814300904e-16 -1.0989430324207309e-17 -1.1831770814300904e-16 -0.19963174864072478 0.9798709940264925
12646909333.333334 -0.1887870535552245 0.9820180489226032 -1.2304763023638336e-17 -1.181648342412079e-16 -1.2304763023638336e-17 -1.181648342412079e-16 -0.18878771782472314 0.9820179212205611
12647526666.666666 -0.17791995110979789 0.9840449639101396 -1.3618054281443035e-17 -1.17997346868865e-16 -1.3618054281443035e-17 -1.17997346868865e-16 -0.177920616717884 0.9840448435648385
12648144000.0 -0.16703110643968752 0.9859516263394231 -1.4929141841335525e-17 -1.1781527252574445e-16 -1.4929141841335525e-17 -1.1781527252574445e-16 -0.16703177330489583 0.9859515133648519
12648761333.333334 -0.1561218501867698 0.9877378032120062 -1.623786378390595e-17 -1.1761863951205364e-16 -1.623786378390595e-17 -1.1761863951205364e-16 -0.1561225182274889 0.9877376976212497
12649378666.666666 -0.1451935154873175 0.9894032762530421 -1.7544058546623003e-17 -1.1740747792422384e-16 -1.7544058546623003e-17 -1.1740747792422384e-16 -0.14519418462180061 0.9894031780582828
12649996000.0 -0.13424743780894816 0.9909478419379865 -1.884756494374735e-17 -1.1718181965047302e-16 -1.884756494374735e-17 -1.1718181965047302e-16 -0.13424810795532266 0.9909477511505012
12650613333.333334 -0.12328495478748189 0.9923713115174522 -2.0148222186187293e-17 -1.1694169836614856e-16 -2.0148222186187293e-17 -1.1694169836614856e-16 -0.12328562586375975 0.9923712281476126
12651230666.666666 -0.11230740606370547 0.9936735110402519 -2.1445869901270918e-17 -1.1668714952885598e-16 -2.1445869901270918e-17 -1.1668714952885598e-16 -0.11230807798779278 0.993673435097521
12651848000.0 -0.10131613311921382 0.9948542813747098 -2.2740348152558418e-17 -1.164182103733493e-16 -2.2740348152558418e-17 -1.164182103733493e-16 -0.10131680580892116 0.9948542128676428
12652465333.333334 -0.090312479112844 0.9959134782280598 -2.4031497459446498e-17 -1.161349199062298e-16 -2.4031497459446498e-17 -1.161349199062298e-16 -0.09031315248589654 0.9959134171643029
12653082666.666666 -0.0792977887165111 0.9968509721640905 -2.5319158816821574e-17 -1.1583731890040744e-16 -2.5319158816821574e-17 -1.1583731890040744e-16 -0.07929846269055837 0.9968509185503786
12653700000.0 -0.068273407950574 0.9976666486189836 -2.660317371462582e-17 -1.1552544988934565e-16 -2.660317371462582e-17 -1.1552544988934565e-16 -0.0682740824432003 0.9976666024611425
12654317333.333334 -0.05724068401985901 0.9983604079152769 -2.788338415729537e-17 -1.151993571611057e-16 -2.788338415729537e-17 -1.151993571611057e-16 -0.05724135894859314 0.9983603692182188
12654934666.666666 -0.046200965148574656 0.998932165274079 -2.9159632683202524e-17 -1.1485908675215737e-16 -2.9159632683202524e-17 -1.1485908675215737e-16 -0.046201640430900255 0.9989321340418046
12655552000.0 -0.03515560041566881 0.9993818508254159 -3.043176238399423e-17 -1.1450468644098114e-16 -3.043176238399423e-17 -1.1450468644098114e-16 -0.035156275969034353 0.9993818270610131
12656169333.333334 -0.024105939590195385 0.9997094096167612 -3.169961692380933e-17 -1.1413620574147005e-16 -3.169961692380933e-17 -1.1413620574147005e-16 -0.02410661533202431 0.999709393322406
12656786666.666666 -0.013053332966085579 0.9999148016197664 -3.296304055851119e-17 -1.1375369589609291e-16 -3.296304055851119e-17 -1.1375369589609291e-16 -0.013054008813786308 0.9999147927967211
12657404000.0 -0.001999131197252248 0.9999980017351416 -3.422187815475839e-17 -1.1335720986886796e-16 -3.422187815475839e-17 -1.1335720986886796e-16 -0.0019998070682283433 0.9999980003837556
12658021333.333334 0.00905531486740609 0.9999589997957278 -3.547597520903088e-17 -1.129468023381141e-16 -3.547597520903088e-17 -1.129468023381141e-16 0.009054639055745856 0.9999590059154372
12658638666.666666 0.02010865434911059 0.9997978005677387 -3.672517786654516e-17 -1.1252252968900151e-16 -3.672517786654516e-17 -1.1252252968900151e-16 0.020107978679342147 0.9997978141570678
12659256000.0 0.031159536504453075 0.9995144237501763 -3.7969332940129153e-17 -1.120844500058762e-16 -3.7969332940129153e-17 -1.120844500058762e-16 0.031158861059126967 0.9995144448067361
12659873333.333334 0.042206610890261044 0.999108903972424 -3.920828792894961e-17 -1.1163262306439665e-16 -3.920828792894961e-17 -1.1163262306439665e-16 0.0422059357518923 0.9991089324929123
12660490666.666666 0.053248527528511364 0.9985812907900223 -4.044189103716008e-17 -1.1116711032345969e-16 -4.044189103716008e-17 -1.1116711032345969e-16 0.05324785277956946 0.998581326770226
12661108000.0 0.06428393707175493 0.9979316486785929 -4.166999119251695e-17 -1.106879749168973e-16 -4.166999119251695e-17 -1.106879749168973e-16 0.06428326279465388 0.99793169211339
12661725333.333334 0.0753114909674994 0.9971600570259883 -4.289243806479144e-17 -1.1019528164500849e-16 -4.289243806479144e-17 -1.1019528164500849e-16 0.07531081724458728 0.9971601079093427
12662342666.666666 0.08632984162334542 0.9962666101225656 -4.410908208417662e-17 -1.0968909696585205e-16 -4.410908208417662e-17 -1.0968909696585205e-16 0.08632916853689472 0.9962666684475339
12662960000.0 0.09733764257152415 0.9952514171496764 -4.5319774459542624e-17 -1.0916948898635636e-16 -4.5319774459542624e-17 -1.0916948898635636e-16 0.09733697020372144 0.9952514829084053
12663577333.333334 0.10833354863349481 0.9941146021663172 -4.6524367196591355e-17 -1.0863652745322666e-16 -4.6524367196591355e-17 -1.0863652745322666e-16 0.108332877066431 0.994114675350047
12664194666.666666 0.11931621608421615 0.9928563040939838 -4.772271311593329e-17 -1.0809028374364162e-16 -4.772271311593329e-17 -1.0809028374364162e-16 0.11931554539987618 0.9928563846930479
12664812000.0 0.1302843028165218 0.9914766766996754 -4.891466587102492e-17 -1.0753083085576314e-16 -4.891466587102492e-17 -1.0753083085576314e-16 0.1302836330967749 0.9914767647035028
12665429333.333334 0.14123646850504445 0.9899758885771129 -5.010007996601443e-17 -1.0695824339904137e-16 -5.010007996601443e-17 -1.0695824339904137e-16 0.14123579983163367 0.9899759839742266
12666046666.666666 0.15217137476989354 0.9883541231261506 -5.127881077345364e-17 -1.0637259758433346e-16 -5.127881077345364e-17 -1.0637259758433346e-16 0.15217070722442647 0.9883542259041732
12666664000.0 0.16308768534054643 0.9866115785303171 -5.2450714551946427e-17 -1.0577397121380209e-16 -5.2450714551946427e-17 -1.0577397121380209e-16 0.16308701900448475 0.9866116886759707
12667281333.333334 0.17398406621863782 0.9847484677326745 -5.361564846359037e-17 -1.0516244367066587e-16 -5.361564846359037e-17 -1.0516244367066587e-16 0.17398340117328748 0.9847485852317814
12667898666.666666 0.18485918584142652 0.9827650184097244 -5.4773470591401075e-17 -1.0453809590870551e-16 -5.4773470591401075e-17 -1.0453809590870551e-16 0.18485852216792792 0.9827651432472102
12668516000.0 0.19571171524440317 0.9806614729436022 -5.592403995655567e-17 -1.0390101044160973e-16 -5.592403995655567e-17 -1.0390101044160973e-16 0.19571105302372102 0.9806616051034966
12669133333.333334 0.20654032822346866 0.9784380883924962 -5.706721653550173e-17 -1.0325127133213888e-16 -5.706721653550173e-17 -1.0325127133213888e-16 0.20653966753638248 0.9784382278579373
12669750666.666666 0.2173437014972796 0.9760951364591887 -5.82028612769938e-17 -1.0258896418107127e-16 -5.82028612769938e-17 -1.0258896418107127e-16 0.21734304242437338 0.9760952832124216
