! Parameters = {f0=12700.012000; bw=77.238000; Q=6100.000000; N=10; m_0_1=1.200295; m_1_1=-0.760316; m_1_2=1.035107; m_2_2=-0.760965; m_2_3=0.672070; m_2_8=-0.002922; m_2_9=0.033782; m_3_3=-0.762902; m_3_4=0.560599; m_3_7=-0.002322; m_3_8=-0.099410; m_3_9=-0.002922; m_4_4=-0.765827; m_4_5=0.396934; m_4_6=0.001195; m_4_7=-0.119959; m_4_8=-0.002322; m_5_5=-0.765445; m_5_6=0.804289; m_5_7=0.001195; m_6_6=-0.765446; m_6_7=0.397276; m_7_7=-0.765813; m_7_8=0.560717; m_8_8=-0.762904; m_8_9=0.672383; m_9_9=-0.760970; m_9_10=1.036185; m_10_10=-0.760326; m_10_11=1.201090}
!
! Created with skrf (http://scikit-rf.org).
# Hz S RI R 50.0 
!freq ReS11 ImS11 ReS21 ImS21 ReS12 ImS12 ReS22 ImS22
12607400000.0 0.449056630651452 -0.8935032974017544 -1.390726237869893e-17 7.743700325150105e-17 -1.390726237869893e-17 7.743700325150105e-17 0.4490571957992729 -0.8935030133697006
12608017333.333334 0.4414795560380091 -0.8972713088025966 -1.3242005547276413e-17 7.753790150877519e-17 -1.3242005547276413e-17 7.753790150877519e-17 0.4414801235413366 -0.897271029576776
12608634666.666666 0.43387086708906086 -0.900975066631274 -1.257604085460051e-17 7.763308964551171e-17 -1.257604085460051e-17 7.763308964551171e-17 0.4338714369070275 -0.9009747922312105
12609252000.0 0.4262311086625918 -0.9046143056618673 -1.1909417269359456e-17 7.77225629388422e-17 -1.1909417269359456e-17 7.77225629388422e-17 0.4262316807541679 -0.9046140361067361
12609869333.333334 0.41856082784146764 -0.908188765288642 -1.124218378922571e-17 7.780631708547331e-17 -1.124218378922571e-17 7.780631708547331e-17 0.4185614021654656 -0.9081885005972719
12610486666.666666 0.41086057389434066 -0.9116981895446842 -1.0574389437261981e-17 7.788434820183809e-17 -1.0574389437261981e-17 7.788434820183809e-17 0.4108611504094167 -0.9116979297355525
12611104000.0 0.4031308982361334 -0.9151423271203074 -9.906083258313293e-18 7.795665282421668e-17 -9.906083258313293e-18 7.795665282421668e-17 0.40313147690079004 -0.9151420722115389
12611721333.333334 0.39537235438875756 -0.9185209313809533 -9.237314315441043e-18 7.80232279088218e-17 -9.237314315441043e-18 7.80232279088218e-17 0.3953729351613488 -0.9185206813903224
12612338666.666666 0.3875854979412978 -0.9218337603849397 -8.568131686317328e-18 7.808407083185858e-17 -8.568131686317328e-18 7.808407083185858e-17 0.3875860807800301 -0.9218335153298656
12612956000.0 0.37977088651030233 -0.925080576900749 -7.898584459619435e-18 7.8139179389553e-17 -7.898584459619435e-18 7.8139179389553e-17 0.379771471373238 -0.925080336798295
12613573333.333334 0.3719290796999294 -0.9282611484239797 -7.228721731467234e-18 7.81885517981454e-17 -7.228721731467234e-18 7.81885517981454e-17 0.37192966654499093 -0.9282609132908558
12614190666.666666 0.3640606390617198 -0.9313752471940703 -6.558592601805899e-18 7.823218669385932e-17 -6.558592601805899e-18 7.823218669385932e-17 0.3640612278466908 -0.9313750170466255
12614808000.0 0.35616612805445935 -0.9344226502105658 -5.888246170836346e-18 7.827008313283455e-17 -5.888246170836346e-18 7.827008313283455e-17 0.35616671873698935 -0.9344224250647929
12615425333.333334 0.34824611200391187 -0.9374031392490646 -5.21773153541158e-18 7.830224059103318e-17 -5.21773153541158e-18 7.830224059103318e-17 0.3482467045415184 -0.9374029191205958
12616042666.666666 0.3403011580621762 -0.9403165008769039 -4.547097785459078e-18 7.832865896411277e-17 -4.547097785459078e-18 7.832865896411277e-17 0.34030175241224797 -0.9403162857810101
12616660000.0 0.33233183516717846 -0.9431625264684023 -3.876394000394018e-18 7.834933856726986e-17 -3.876394000394018e-18 7.834933856726986e-17 0.33233243128697887 -0.9431623164199935
12617277333.333334 0.3243387140018495 -0.9459410122198263 -3.205669245532391e-18 7.836428013505263e-17 -3.205669245532391e-18 7.836428013505263e-17 0.32433931184851966 -0.9459408072334505
12617894666.666666 0.31632236695350185 -0.9486517591639074 -2.5349725685311197e-18 7.837348482114284e-17 -2.5349725685311197e-18 7.837348482114284e-17 0.3163229664840629 -0.9486515592537468
12618512000.0 0.3082833680723831 -0.9512945731842424 -1.864352995772878e-18 7.837695419810818e-17 -1.864352995772878e-18 7.837695419810818e-17 0.3082839692437399 -0.9512943783641148
12619129333.333334 0.3002222930310522 -0.9538692650290292 -1.1938595288318877e-18 7.837469025712257e-17 -1.1938595288318877e-18 7.837469025712257e-17 0.30022289579999617 -0.9538690753123865
12619746666.666666 0.2921397190828324 -0.9563756503247286 -5.235411408760647e-19 7.836669540765737e-17 -5.235411408760647e-19 7.836669540765737e-17 0.29214032340604534 -0.9563754657246568
12620364000.0 0.28403622502058196 -0.9588135495892303 1.4655322689170747e-19 7.835297247714107e-17 1.4655322689170747e-19 7.835297247714107e-17 0.28403683085463843 -0.9588133701184479
12620981333.333334 0.2759123911353299 -0.961182788244686 8.1637466879080015e-19 7.833352471058987e-17 8.1637466879080015e-19 7.833352471058987e-17 0.27591299843670003 -0.9611826139155409
12621598666.666666 0.2677687991745276 -0.9634831966300579 1.485874318236123e-18 7.830835577020624e-17 1.485874318236123e-18 7.830835577020624e-17 0.26776940789958165 -0.963483027454532
12622216000.0 0.25960603230061174 -0.9657146100132159 2.155003351287109e-18 7.827746973494865e-17 2.155003351287109e-18 7.827746973494865e-17 0.2596066424056215 -0.965714446002918
12622833333.333334 0.2514246750490226 -0.9678768686027871 2.82371299019442e-18 7.824087110007011e-17 2.82371299019442e-18 7.824087110007011e-17 0.2514252864901657 -0.9678767097689567
12623450666.666666 0.24322531328656652 -0.9699698175595437 3.491954506950815e-18 7.819856477662725e-17 3.491954506950815e-18 7.819856477662725e-17 0.2432259260199291 -0.9699696639130477
12624068000.0 0.23500853416926876 -0.9719933070075406 4.1596792268347336e-18 7.815055609095819e-17 4.1596792268347336e-18 7.815055609095819e-17 0.2350091481508487 -0.9719931585588735
12624685333.333334 0.2267749261004094 -0.9739471920448228 4.82683853195082e-18 7.809685078413042e-17 4.82683853195082e-18 7.809685078413042e-17 0.22677554128611987 -0.9739470488041074
12625302666.666666 0.21852507868850019 -0.975831332753784 5.4933838647405384e-18 7.803745501136089e-17 5.4933838647405384e-18 7.803745501136089e-17 0.2185256950341718 -0.9758311947307664
12625920000.0 0.21025958270475617 -0.9776455942112481 6.1592667315313145e-18 7.797237534140165e-17 6.1592667315313145e-18 7.797237534140165e-17 0.2102602001661411 -0.9776454614153013
12626537333.333334 0.20197903004112377 -0.979389846498058 6.824438706037567e-18 7.79016187559003e-17 6.824438706037567e-18 7.79016187559003e-17 0.20197964857389877 -0.97938971893818
12627154666.666666 0.19368401366784113 -0.9810639647083971 7.488851432877542e-18 7.782519264872731e-17 7.488851432877542e-18 7.782519264872731e-17 0.19368463322761045 -0.9810638423932099
12627772000.0 0.18537512759064045 -0.9826678289587973 8.152456631096889e-18 7.774310482527302e-17 8.152456631096889e-18 7.774310482527302e-17 0.18537574813293928 -0.9826677118965471
12628389333.333334 0.1770529668087134 -0.9842013243966267 8.815206097627954e-18 7.765536350172044e-17 8.815206097627954e-18 7.765536350172044e-17 0.17705358828901088 -0.9842012125951826
12629006666.666666 0.16871812727162866 -0.9856643412084041 9.477051710828144e-18 7.756197730427885e-17 9.477051710828144e-18 7.756197730427885e-17 0.1687187496453309 -0.9856642346752565
12629624000.0 0.16037120583707445 -0.987056774627582 1.0137945433931521e-17 7.7462955268397e-17 1.0137945433931521e-17 7.7462955268397e-17 0.16037182905952815 -0.9870566733698445
12630241333.333334 0.1520128002277831 -0.9883785249421148 1.0797839318543572e-17 7.73583068379407e-17 1.0797839318543572e-17 7.73583068379407e-17 0.15201342425427852 -0.9883784289665225
12630858666.666666 0.1436435089889795 -0.9896294975015525 1.1456685508088533e-17 7.724804186434593e-17 1.1456685508088533e-17 7.724804186434593e-17 0.14364413377475377 -0.9896294068144615
12631476000.0 0.13526393144529503 -0.990809602723856 1.2114436241307986e-17 7.713217060573428e-17 1.2114436241307986e-17 7.713217060573428e-17 0.13526455694553513 -0.990809517331243
12632093333.333334 0.1268746676580464 -0.9919187561017804 1.277104385567645e-17 7.701070372600958e-17 1.277104385567645e-17 7.701070372600958e-17 0.1268752938278927 -0.9919186760092427
12632710666.666666 0.11847631838220954 -0.9929568782089381 1.3426460790863351e-17 7.688365229391777e-17 1.3426460790863351e-17 7.688365229391777e-17 0.11847694517675876 -0.9929568034216927
12633328000.0 0.11006948502320199 -0.9939238947055101 1.4080639592170703e-17 7.675102778207884e-17 1.4080639592170703e-17 7.675102778207884e-17 0.11007011239751052 -0.9939238252283937
12633945333.333334 0.10165476959418267 -0.994819736343523 1.473353291395308e-17 7.661284206599205e-17 1.473353291395308e-17 7.661284206599205e-17 0.10165539750326975 -0.9948196721809911
12634562666.666666 0.0932327746726317 -0.9956443389718468 1.5385093523036993e-17 7.646910742301001e-17 1.5385093523036993e-17 7.646910742301001e-17 0.09323340307148274 -0.995644280127975
12635180000.0 0.08480410335734075 -0.9963976435407707 1.6035274302128467e-17 7.631983653128447e-17 1.6035274302128467e-17 7.631983653128447e-17 0.08480473220091048 -0.9963975900192524
12635797333.333334 0.07636935922514047 -0.9970795961062411 1.6684028253215294e-17 7.616504246868224e-17 1.6684028253215294e-17 7.616504246868224e-17 0.07636998846835615 -0.997079547910389
12636414666.666666 0.06792914628790479 -0.9976901478337045 1.733130850093747e-17 7.60047387116771e-17 1.733130850093747e-17 7.60047387116771e-17 0.0679297758856695 -0.9976901049664496
12637032000.0 0.05948406894895797 -0.9982292550016348 1.7977068295990703e-17 7.583893913420356e-17 1.7977068295990703e-17 7.583893913420356e-17 0.05948469885615376 -0.9982292174655256
12637649333.333334 0.05103473196001962 -0.9986968790046423 1.862126101847602e-17 7.566765800649111e-17 1.862126101847602e-17 7.566765800649111e-17 0.05103536213151079 -0.998696846801845
12638266666.666666 0.04258174037781351 -0.999092986356245 1.926384018126254e-17 7.54909099938655e-17 1.926384018126254e-17 7.54909099938655e-17 0.04258237076844997 -0.9990929594885458
12638884000.0 0.0341256995208532 -0.9994175486912638 1.9904759433324015e-17 7.53087101555245e-17 1.9904759433324015e-17 7.53087101555245e-17 0.03412633008547348 -0.9994175271600654
12639501333.333334 0.02566721492589633 -0.9996705427678614 2.0543972563087878e-17 7.512107394327984e-17 2.0543972563087878e-17 7.512107394327984e-17 0.02566784561933088 -0.9996705265741833
12640118666.666666 0.01720689230483763 -0.9998519504691941 2.1181433501736248e-17 7.49280172002803e-17 2.1181433501736248e-17 7.49280172002803e-17 0.017207523081912156 -0.999851939613675
12640736000.0 0.008745337500964795 -0.9999617588047243 2.1817096326554986e-17 7.472955615969003e-17 2.1817096326554986e-17 7.472955615969003e-17 0.008745968316503403 -0.9999617532876194
12641353333.333334 0.00028315644608539807 -0.9999999599111347 2.2450915264173036e-17 7.452570744336747e-17 2.2450915264173036e-17 7.452570744336747e-17 0.000283787254913858 -0.9999999597323177
12641970666.666666 -0.008179044883346889 -0.9999665510529038 2.3082844693906265e-17 7.431648806048192e-17 2.3082844693906265e-17 7.431648806048192e-17 -0.008178414126397915 -0.9999665562118665
12642588000.0 -0.016640660509370506 -0.9998615346224969 2.3712839151001887e-17 7.410191540612782e-17 2.3712839151001887e-17 7.410191540612782e-17 -0.01664002984946223 -0.9998615451183486
12643205333.333334 -0.025101084495966947 -0.9996849181401956 2.4340853329906268e-17 7.388200725990112e-17 2.4340853329906268e-17 7.388200725990112e-17 -0.025100453978249216 -0.999684933971663
12643822666.666666 -0.033559710992451725 -0.9994367142535571 2.49668420875135e-17 7.365678178444979e-17 2.49668420875135e-17 7.365678178444979e-17 -0.033559080662059815 -0.9994367354189861
12644440000.0 -0.04201593427688783 -0.9991169407365109 2.5590760446402873e-17 7.342625752399604e-17 2.5590760446402873e-17 7.342625752399604e-17 -0.04201530417893914 -0.9991169672338639
12645057333.333334 -0.050469148799404506 -0.9987256204880839 2.621256359805474e-17 7.319045340283466e-17 2.621256359805474e-17 7.319045340283466e-17 -0.05046851897899545 -0.9987256523149435
12645674666.666666 -0.05891874922547566 -0.9982627815307697 2.683220690606101e-17 7.294938872380072e-17 2.683220690606101e-17 7.294938872380072e-17 -0.058918119727678374 -0.9982628186843371
12646292000.0 -0.06736413047963688 -0.9977284570085024 2.744964590933633e-17 7.270308316670497e-17 2.744964590933633e-17 7.270308316670497e-17 -0.06736350134949597 -0.9977284994855963
12646909333.333334 -0.07580468778833209 -0.9971226851843039 2.806483632526345e-17 7.245155678676163e-17 2.806483632526345e-17 7.245155678676163e-17 -0.07580405907086149 -0.9971227329813639
12647526666.666666 -0.0842398167235624 -0.9964455094375325 2.867773405289276e-17 7.219483001296418e-17 2.867773405289276e-17 7.219483001296418e-17 -0.08423918846374201 -0.9964455625506157
12648144000.0 -0.09266891324602675 -0.995696978260778 2.928829517608341e-17 7.193292364644955e-17 2.928829517608341e-17 7.193292364644955e-17 -0.09266828548879934 -0.995697036685562
12648761333.333334 -0.10109137374843402 -0.9948771452563867 2.989647596663646e-17 7.166585885883505e-17 2.989647596663646e-17 7.166585885883505e-17 -0.10109074653870206 -0.99487720898817
12649378666.666666 -0.10950659509861443 -0.9939860691326368 3.050223288740882e-17 7.139365719052974e-17 3.050223288740882e-17 7.139365719052974e-17 -0.10950596848123674 -0.9939861381663373
12649996000.0 -0.11791397468290749 -0.9930238136995113 3.110552259544263e-17 7.111634054900728e-17 3.110552259544263e-17 7.111634054900728e-17 -0.11791334870269607 -0.9930238880296685
12650613333.333334 -0.1263129104491172 -0.9919904478641498 3.170630194504224e-17 7.083393120706701e-17 3.170630194504224e-17 7.083393120706701e-17 -0.1263122851508341 -0.9919905274849239
12651230666.666666 -0.13470280094968187 -0.9908860456259104 3.230452799084646e-17 7.054645180106632e-17 3.230452799084646e-17 7.054645180106632e-17 -0.13470217637803591 -0.9908861305310833
12651848000.0 -0.14308304538494088 -0.9897106860710425 3.2900157990900467e-17 7.025392532911862e-17 3.2900157990900467e-17 7.025392532911862e-17 -0.14308242158458465 -0.9897107762540197
12652465333.333334 -0.1514530436458199 -0.9884644533670702 3.349314940969378e-17 6.995637514927427e-17 3.349314940969378e-17 6.995637514927427e-17 -0.15145242066134615 -0.9884645488208782
12653082666.666666 -0.15981219635697355 -0.9871474367567413 3.4083459921180195e-17 6.96538249776773e-17 3.4083459921180195e-17 6.96538249776773e-17 -0.15981157423291228 -0.9871475374740302
12653700000.0 -0.1681599049198752 -0.9857597305516097 3.46710474118107e-17 6.934629888668159e-17 3.46710474118107e-17 6.934629888668159e-17 -0.16815928370069078 -0.9857598365246548
12654317333.333334 -0.17649557155534568 -0.9843014341253363 3.525586998350234e-17 6.903382130296546e-17 3.525586998350234e-17 6.903382130296546e-17 -0.1764949512854331 -0.9843015453460368
12654934666.666666 -0.18481859934652936 -0.9827726519065489 3.583788595662783e-17 6.871641700560279e-17 3.583788595662783e-17 6.871641700560279e-17 -0.18481798007021116 -0.9827727683664271
12655552000.0 -0.19312839228180542 -0.9811734933713245 3.6417053872987614e-17 6.839411112410814e-17 3.6417053872987614e-17 6.839411112410814e-17 -0.19312777404332898 -0.9811736150615308
12656169333.333334 -0.2014243552971065 -0.9795040730354254 3.6993332498727834e-17 6.806692913647737e-17 3.6993332498727834e-17 6.806692913647737e-17 -0.2014237381406404 -0.9795041999467357
12656786666.666666 -0.20970589431886552 -0.9777645104460319 3.7566680827289204e-17 6.773489686717701e-17 3.7566680827289204e-17 6.773489686717701e-17 -0.2097052782884965 -0.9777646425688484
12657404000.0 -0.21797241630630637 -0.9759549301732297 3.8137058082297556e-17 6.739804048513161e-17 3.8137058082297556e-17 6.739804048513161e-17 -0.21797180144603648 -0.9759550674975838
12658021333.333334 -0.2262233292941345 -0.9740754618010462 3.870442372046915e-17 6.705638650166837e-17 3.870442372046915e-17 6.705638650166837e-17 -0.22622271564787738 -0.9740756043165967
12658638666.666666 -0.23445804243467702 -0.9721262399182232 3.9268737434465325e-17 6.670996176845605e-17 3.9268737434465325e-17 6.670996176845605e-17 -0.23445743004625552 -0.9721263876142592
12659256000.0 -0.24267596604052655 -0.970107404108504 3.982995915576861e-17 6.63587934753965e-17 3.982995915576861e-17 6.63587934753965e-17 -0.24267535495366893 -0.9701075569739442
12659873333.333334 -0.2508765116264084 -0.9680190989407225 4.0388049057493034e-17 6.600290914852044e-17 4.0388049057493034e-17 6.600290914852044e-17 -0.2508759018847453 -0.968019256964116
12660490666.666666 -0.25905909195148824 -0.9658614739584108 4.0942967557211775e-17 6.564233664783831e-17 4.0942967557211775e-17 6.564233664783831e-17 -0.25905848359855 -0.9658616371279395
12661108000.0 -0.2672231210615894 -0.9636346836690485 4.14946753197652e-17 6.527710416516661e-17 4.14946753197652e-17 6.527710416516661e-17 -0.26722251414080256 -0.9636348519725261
12661725333.333334 -0.27536801433082286 -0.9613388875330826 4.204313326001481e-17 6.490724022195381e-17 4.204313326001481e-17 6.490724022195381e-17 -0.2753674088855072 -0.9613390609579567
12662342666.666666 -0.2834931885036445 -0.9589742499524586 4.2588302545624155e-17 6.453277366705339e-17 4.2588302545624155e-17 6.453277366705339e-17 -0.28349258457701015 -0.9589744284858123
12662960000.0 -0.2915980617366507 -0.9565409402588434 4.3130144599781394e-17 6.415373367449868e-17 4.3130144599781394e-17 6.415373367449868e-17 -0.2915974593717944 -0.9565411238873937
12663577333.333334 -0.29968205364018685 -0.9540391327015072 4.366862110393134e-17 6.377014974123549e-17 4.366862110393134e-17 6.377014974123549e-17 -0.29968145288008957 -0.9540393214116084
12664194666.666666 -0.3077445853198294 -0.9514690064348762 4.420369400046769e-17 6.338205168484571e-17 4.420369400046769e-17 6.338205168484571e-17 -0.307743986207353 -0.9514692002125199
12664812000.0 -0.3157850794180026 -0.9488307455056504 4.4735325495416005e-17 6.298946964124075e-17 4.4735325495416005e-17 6.298946964124075e-17 -0.315784481995887 -0.9488309443364676
12665429333.333334 -0.32380296015524246 -0.9461245388396525 4.526347806108722e-17 6.259243406233883e-17 4.526347806108722e-17 6.259243406233883e-17 -0.323802364466102 -0.9461247427089124
12666046666.666666 -0.33179765337134665 -0.9433505802283224 4.5788114438718213e-17 6.219097571371563e-17 4.5788114438718213e-17 6.219097571371563e-17 -0.3317970594576672 -0.9433507891209344
12666664000.0 -0.33976858656667785 -0.940509068314775 4.630919764110179e-17 6.178512567222411e-17 4.630919764110179e-17 6.178512567222411e-17 -0.33976799447081474 -0.9405092822152923
12667281333.333334 -0.34771518894294756 -0.9376002065796559 4.6826690955162706e-17 6.13749153236183e-17 4.6826690955162706e-17 6.13749153236183e-17 -0.3477145987071216 -0.9376004254722741
12667898666.666666 -0.3556368914442513 -0.9346242033265104 4.7340557944544013e-17 6.096037636013105e-17 4.7340557944544013e-17 6.096037636013105e-17 -0.3556363031105455 -0.9346244271950677
12668516000.0 -0.3635331267978687 -0.9315812716668405 4.7850762452172246e-17 6.054154077803063e-17 4.7850762452172246e-17 6.054154077803063e-17 -0.36353254040822663 -0.9315815004948224
12669133333.333334 -0.37140332955454536 -0.9284716295049851 4.835726860276847e-17 6.011844087518202e-17 4.835726860276847e-17 6.011844087518202e-17 -0.37140274515076627 -0.9284718632755216
12669750666.666666 -0.37924693612940436 -0.9252954995223439 4.886004080538035e-17 5.9691109248552e-17 4.886004080538035e-17 5.9691109248552e-17 -0.37924635375314214 -0.9252957382182143
12670368000.0 -0.3870633848420957 -0.9220531091615188 4.93590437558587e-17 5.925957879172217e-17 4.93590437558587e-17 5.925957879172217e-17 -0.3870628045348548 -0.9220533527651515
