! Parameters = {f0=12700.012000; bw=77.238000; Q=6100.000000; N=10; m_0_1=1.257152; m_1_1=0.092537; m_1_2=1.091964; m_2_2=0.091888; m_2_3=0.728927; m_2_8=-0.000079; m_2_9=0.036625; m_3_3=0.089951; m_3_4=0.617456; m_3_7=0.000521; m_3_8=-0.096567; m_3_9=-0.000079; m_4_4=0.087026; m_4_5=0.453791; m_4_6=0.004038; m_4_7=-0.117116; m_4_8=0.000521; m_5_5=0.087408; m_5_6=0.861146; m_5_7=0.004038; m_6_6=0.087407; m_6_7=0.454133; m_7_7=0.087040; m_7_8=0.617574; m_8_8=0.089949; m_8_9=0.729240; m_9_9=0.091883; m_9_10=1.093042; m_10_10=0.092527; m_10_11=1.257947}
!
! Created with skrf (http://scikit-rf.org).
# Hz S RI R 50.0 
!freq ReS11 ImS11 ReS21 ImS21 ReS12 ImS12 ReS22 ImS22
12607400000.0 -0.624041650674647 0.7813910789246893 3.9167331427012415e-17 -9.640837318370016e-17 3.9167331427012415e-17 -9.640837318370016e-17 -0.6240421682412075 0.7813906655806936
12608017333.333334 -0.6160839332020809 0.7876805108989825 3.817138861876403e-17 -9.678511496024354e-17 3.817138861876403e-17 -9.678511496024354e-17 -0.616084454909002 0.7876801028458852
12608634666.666666 -0.608062831647585 0.7938889045505972 3.717183940015846e-17 -9.715157603904904e-17 3.717183940015846e-17 -9.715157603904904e-17 -0.6080633574407901 0.7938885018298607
12609252000.0 -0.5999791712399346 0.8000156211462804 3.616878981473045e-17 -9.750772208596816e-17 3.616878981473045e-17 -9.750772208596816e-17 -0.5999797010649306 0.800015223798812
12609869333.333334 -0.5918337836440946 0.8060600303558926 3.5162346230834295e-17 -9.785351985985921e-17 3.5162346230834295e-17 -9.785351985985921e-17 -0.5918343174459801 0.8060596384220445
12610486666.666666 -0.5836275068757297 0.8120215103172134 3.415261533038367e-17 -9.818893721563914e-17 3.415261533038367e-17 -9.818893721563914e-17 -0.5836280445991995 0.8120211238367767
12611104000.0 -0.575361185214824 0.8178994477000341 3.313970409754582e-17 -9.851394310722402e-17 3.313970409754582e-17 -9.851394310722402e-17 -0.5753617268041744 0.8178990667122349
12611721333.333334 -0.5670356691190059 0.8236932377691283 3.2123719807462146e-17 -9.882850759033634e-17 3.2123719807462146e-17 -9.882850759033634e-17 -0.5670362145181415 0.823692862312624
12612338666.666666 -0.5586518151359108 0.8294022844465647 3.110477001489214e-17 -9.913260182521263e-17 3.110477001489214e-17 -9.913260182521263e-17 -0.5586523642883494 0.82940191455944
12612956000.0 -0.5502104858150101 0.8350260003730651 3.008296254283242e-17 -9.942619807919373e-17 3.008296254283242e-17 -9.942619807919373e-17 -0.5502110386638892 0.8350256360928273
12613573333.333334 -0.5417125496191775 0.8405638069682266 2.905840547116597e-17 -9.970926972918263e-17 2.905840547116597e-17 -9.970926972918263e-17 -0.5417131061072594 0.8405634483318031
12614190666.666666 -0.5331588808349601 0.8460151344902999 2.803120712522069e-17 -9.99817912640043e-17 2.803120712522069e-17 -9.99817912640043e-17 -0.533159440904639 0.8460147815340339
12614808000.0 -0.524550359482845 0.8513794220946646 2.7001476064349755e-17 -1.0024373828663735e-16 2.7001476064349755e-17 -1.0024373828663735e-16 -0.524550923076152 0.8513790748543113
12615425333.333334 -0.5158878712266475 0.8566561178915756 2.5969321070488743e-17 -1.0049508751632802e-16 2.5969321070488743e-17 -1.0049508751632802e-16 -0.5158884382852567 0.8566557764022988
12616042666.666666 -0.5071723072824891 0.8618446790028836 2.4934851136668527e-17 -1.0073581679059411e-16 2.4934851136668527e-17 -1.0073581679059411e-16 -0.5071728777477239 0.8618443432992517
12616660000.0 -0.49840456432696256 0.866944571617977 2.389817545553899e-17 -1.0096590506710317e-16 2.389817545553899e-17 -1.0096590506710317e-16 -0.49840513813980186 0.8669442417339603
12617277333.333334 -0.48958554440492624 0.871955271048669 2.2859403407856388e-17 -1.0118533242543804e-16 2.2859403407856388e-17 -1.0118533242543804e-16 -0.48958612150601044 0.871954947017636
12617894666.666666 -0.4807161548369005 0.8768762617830708 2.1818644550990046e-17 -1.0139408006873651e-16 2.1818644550990046e-17 -1.0139408006873651e-16 -0.4807167351665368 0.8768759436377829
12618512000.0 -0.47179730812529574 0.8817070375388598 2.0776008607340138e-17 -1.0159213032522906e-16 2.0776008607340138e-17 -1.0159213032522906e-16 -0.47179789162346586 0.8817067253114719
12619129333.333334 -0.4628299218609816 0.886447101315123 1.9731605452843704e-17 -1.0177946664963675e-16 1.9731605452843704e-17 -1.0177946664963675e-16 -0.462830508467347 0.8864467950371775
12619746666.666666 -0.4538149186286099 0.8910959654436411 1.868554510538537e-17 -1.019560736244683e-16 1.868554510538537e-17 -1.019560736244683e-16 -0.4538155082825178 0.891095665146064
12620364000.0 -0.4447532259116685 0.8956531516390663 1.7637937713226558e-17 -1.0212193696119212e-16 1.7637937713226558e-17 -1.0212193696119212e-16 -0.44475381855215873 0.8956528573521666
12620981333.333334 -0.4356457759973894 0.9001181910479651 1.6588893543466346e-17 -1.0227704350128342e-16 1.6588893543466346e-17 -1.0227704350128342e-16 -0.4356463715632006 0.9001179028014298
12621598666.666666 -0.4264935058804287 0.9044906242972607 1.553852297041014e-17 -1.024213812171668e-16 1.553852297041014e-17 -1.024213812171668e-16 -0.4264941043100053 0.9044903421201544
12622216000.0 -0.4172973571666685 0.9087700015413915 1.4486936464004262e-17 -1.0255493921302776e-16 1.4486936464004262e-17 -1.0255493921302776e-16 -0.41729795839816514 0.9087697254621494
12622833333.333334 -0.4080582759763684 0.9129558825085804 1.343424457822737e-17 -1.0267770772551205e-16 1.343424457822737e-17 -1.0267770772551205e-16 -0.40805887994765805 0.9129556125550083
12623450666.666666 -0.3987772128467759 0.917047836546156 1.2380557939512527e-17 -1.0278967812430118e-16 1.2380557939512527e-17 -1.0278967812430118e-16 -0.39877781949545543 0.9170475727454261
12624068000.0 -0.3894551226343061 0.9210454426648698 1.1325987235110793e-17 -1.0289084291257618e-16 1.1325987235110793e-17 -1.0289084291257618e-16 -0.38945573189770344 0.9210451850435196
12624685333.333334 -0.38009296441622575 0.9249482895822414 1.0270643201493862e-17 -1.0298119572735753e-16 1.0270643201493862e-17 -1.0298119572735753e-16 -0.3800935762314061 0.9249480381661708
12625302666.666666 -0.37069170139234775 0.928755975764718 9.214636612773688e-18 -1.0306073133972481e-16 9.214636612773688e-18 -1.0306073133972481e-16 -0.3706923156961198 0.9287557305791849
12625920000.0 -0.3612523007853845 0.9324681094692153 8.158078269049496e-18 -1.0312944565492463e-16 8.158078269049496e-18 -1.0312944565492463e-16 -0.36125291751430716 0.9324678705388348
12626537333.333334 -0.3517757337419107 0.9360843087832248 7.101078984856229e-18 -1.0318733571235091e-16 7.101078984856229e-18 -1.0318733571235091e-16 -0.3517763528322989 0.9360840761319643
12627154666.666666 -0.3422629752322384 0.9396042016641918 6.0437495775281306e-18 -1.0323439968541457e-16 6.0437495775281306e-18 -1.0323439968541457e-16 -0.3422635966201714 0.939603975315373
12627772000.0 -0.33271500395005793 0.9430274259778134 4.986200855595781e-18 -1.0327063688129034e-16 4.986200855595781e-18 -1.0327063688129034e-16 -0.33271562757138434 0.9430272059541058
12628389333.333334 -0.32313280221195984 0.9463536295352146 3.9285436072297895e-18 -1.032960477405447e-16 3.9285436072297895e-18 -1.032960477405447e-16 -0.3231334280023049 0.9463534158586354
12629006666.666666 -0.31351735585607804 0.9495824701292886 2.8708885886235643e-18 -1.0331063383664769e-16 2.8708885886235643e-18 -1.0331063383664769e-16 -0.31351798375085 0.9495822628211994
12629624000.0 -0.30386965414090555 0.9527136155698184 1.813346512430979e-18 -1.03314397875365e-16 1.813346512430979e-18 -1.03314397875365e-16 -0.3038702840753027 0.9527134146509236
12630241333.333334 -0.2941906896434639 0.9557467437176712 7.560280361925342e-19 -1.0330734369403193e-16 7.560280361925342e-19 -1.0330734369403193e-16 -0.29419132155248107 0.955746549208017
12630858666.666666 -0.2844814581571861 0.958681542517947 -3.009562492076231e-19 -1.0328947626070967e-16 -3.009562492076231e-19 -1.0328947626070967e-16 -0.2844820919756212 0.9586813544369172
12631476000.0 -0.27474295858927505 0.9615177100321346 -1.3574958311231035e-18 -1.0326080167322281e-16 -1.3574958311231035e-18 -1.0326080167322281e-16 -0.274743594251736 0.9615175283984503
12632093333.333334 -0.2649761928582338 0.9642549544690886 -2.413480286628839e-18 -1.0322132715808045e-16 -2.413480286628839e-18 -1.0322132715808045e-16 -0.2649768302991453 0.9642547793008055
12632710666.666666 -0.2551821657907322 0.9668929942150679 -3.468799294075905e-18 -1.0317106106927846e-16 -3.468799294075905e-18 -1.0317106106927846e-16 -0.2551828049443423 0.966892825529575
12633328000.0 -0.24536188501792686 0.9694315578627911 -4.523342644598895e-18 -1.0311001288698357e-16 -4.523342644598895e-18 -1.0311001288698357e-16 -0.2453625258183137 0.9694313956768085
12633945333.333334 -0.235516360872149 0.9718703842392606 -5.5770002535835924e-18 -1.0303819321610246e-16 -5.5770002535835924e-18 -1.0303819321610246e-16 -0.23551700325322794 0.9718702285688385
12634562666.666666 -0.22564660628276798 0.9742092224326852 -6.629662172140596e-18 -1.029556137847322e-16 -6.629662172140596e-18 -1.029556137847322e-16 -0.22564725017829843 0.9742090732932026
12635180000.0 -0.21575363667211706 0.9764478318182613 -7.681218598571993e-18 -1.0286228744249344e-16 -7.681218598571993e-18 -1.0286228744249344e-16 -0.21575428201570865 0.9764476892244224
12635797333.333334 -0.20583846985083015 0.9785859820829733 -8.731559889794666e-18 -1.0275822815874747e-16 -8.731559889794666e-18 -1.0275822815874747e-16 -0.2058391165759501 0.9785858460488073
12636414666.666666 -0.19590212591332093 0.9806234532492422 -9.780576572745565e-18 -1.0264345102069782e-16 -9.780576572745565e-18 -1.0264345102069782e-16 -0.19590277395330127 0.9806233237881041
12637032000.0 -0.18594562713275173 0.9825600356975829 -1.0828159355776366e-17 -1.0251797223137408e-16 -1.0828159355776366e-17 -1.0251797223137408e-16 -0.1859462764207953 0.9825599128221487
12637649333.333334 -0.17596999785580192 0.9843955301881739 -1.1874199140024701e-17 -1.0238180910749971e-16 -1.1874199140024701e-17 -1.0238180910749971e-16 -0.17597064832499004 0.9843954139104422
12638266666.666666 -0.16597626439736593 0.9861297478813437 -1.2918587030746182e-17 -1.022349800772457e-16 -1.2918587030746182e-17 -1.022349800772457e-16 -0.1659769159806646 0.9861296382126314
12638884000.0 -0.1559654549349071 0.9877625103570064 -1.3961214348632324e-17 -1.020775046778677e-16 -1.3961214348632324e-17 -1.020775046778677e-16 -0.15596610756517437 0.9877624073079497
12639501333.333334 -0.14593859940276052 0.9892936496330039 -1.5001972641104382e-17 -1.0190940355322742e-16 -1.5001972641104382e-17 -1.0190940355322742e-16 -0.14593925301275343 0.989293553213558
12640118666.666666 -0.13589672938617192 0.9907230081823919 -1.6040753693544304e-17 -1.0173069845120443e-16 -1.6040753693544304e-17 -1.0173069845120443e-16 -0.13589738390855333 0.9907229184018299
12640736000.0 -0.12584087801482818 0.9920504389496967 -1.707744954058898e-17 -1.015414122209792e-16 -1.707744954058898e-17 -1.015414122209792e-16 -0.12584153338217324 0.9920503558166041
12641353333.333334 -0.11577207985718452 0.9932758053659466 -1.8111952477249488e-17 -1.0134156881022515e-16 -1.8111952477249488e-17 -1.0134156881022515e-16 -0.11577273600198859 0.9932757288882283
12641970666.666666 -0.10569137081354914 0.9943989813628031 -1.9144155070145998e-17 -1.0113119326216229e-16 -1.9144155070145998e-17 -1.0113119326216229e-16 -0.10569202766823395 0.9943989115476772
12642588000.0 -0.09559978800961885 0.9954198513855066 -2.017395016860324e-17 -1.0091031171251609e-16 -2.017395016860324e-17 -1.0091031171251609e-16 -0.09560044550653962 0.9954197882395039
12643205333.333334 -0.08549836968986217 0.9963383104047562 -2.1201230915772365e-17 -1.0067895138635183e-16 -2.1201230915772365e-17 -1.0067895138635183e-16 -0.08549902776131481 0.996338253933722
12643822666.666666 -0.0753881551105328 0.9971542639275316 -2.2225890759697774e-17 -1.004371405948004e-16 -2.2225890759697774e-17 -1.004371405948004e-16 -0.07538881368876067 0.9971542141366243
12644440000.0 -0.06527018443300361 0.9978676280067961 -2.3247823464338936e-17 -1.0018490873167312e-16 -2.3247823464338936e-17 -1.0018490873167312e-16 -0.0652708434502045 0.9978675849004851
12645057333.333334 -0.05514549861655395 0.9984783292501445 -2.426692312055518e-17 -9.992228626996565e-17 -2.426692312055518e-17 -9.992228626996565e-17 -0.05514615800488713 0.9984782928322115
12645674666.666666 -0.04501513931138714 0.9989863048273505 -2.5283084157077422e-17 -9.964930475824374e-17 -2.5283084157077422e-17 -9.964930475824374e-17 -0.04501579900298043 0.9989862751008901
12646292000.0 -0.03488014875120767 0.9993915024768427 -2.6296201351431627e-17 -9.93659968169194e-17 -2.6296201351431627e-17 -9.93659968169194e-17 -0.0348808086781642 0.999391479444259
12646909333.333334 -0.0247415696464764 0.9996938805110573 -2.730616984078199e-17 -9.907239613442708e-17 -2.730616984078199e-17 -9.907239613442708e-17 -0.02474222974088176 0.9996938641740668
12647526666.666666 -0.014600445076680004 0.9998934078207488 -2.83128851327804e-17 -9.876853746327732e-17 -2.83128851327804e-17 -9.876853746327732e-17 -0.01460110527060918 0.9998933981803784
12648144000.0 -0.004457818383158507 0.9999900638781828 -2.931624311636985e-17 -9.84544566160004e-17 -2.931624311636985e-17 -9.84544566160004e-17 -0.004458478608682876 0.9999900609347692
12648761333.333334 0.005685266938179132 0.9999838387392416 -3.031614007250733e-17 -9.813019046099161e-17 -3.031614007250733e-17 -9.813019046099161e-17 0.005684606748984792 0.9999838424924359
12649378666.666666 0.015827767344098447 0.9998747330444592 -3.1312472684866825e-17 -9.779577691824056e-17 -3.1312472684866825e-17 -9.779577691824056e-17 0.01582710725914901 0.9998747434932213
12649996000.0 0.02596863935171422 0.9996627580189482 -3.230513805050975e-17 -9.7451254954947e-17 -3.230513805050975e-17 -9.7451254954947e-17 0.025967979438907173 0.999662775161548
12650613333.333334 0.03610683964567561 0.9993479354712402 -3.3294033690471966e-17 -9.709666458104105e-17 -3.3294033690471966e-17 -9.709666458104105e-17 0.036106179972884164 0.9993479593052627
12651230666.666666 0.04624132518530616 0.9989302977910595 -3.427905756032738e-17 -9.673204684458804e-17 -3.427905756032738e-17 -9.673204684458804e-17 0.04624066582037219 0.9989303283133997
12651848000.0 0.05637105331236847 0.9984098879459693 -3.5260108060712506e-17 -9.635744382708137e-17 -3.5260108060712506e-17 -9.635744382708137e-17 0.0563703943230955 0.9984099251528332
12652465333.333334 0.06649498185796583 0.9977867594769622 -3.623708404776502e-17 -9.597289863864304e-17 -3.623708404776502e-17 -9.597289863864304e-17 0.06649432331211223 0.9977868033638709
12653082666.666666 0.07661206924979164 0.9970609764929589 -3.720988484351896e-17 -9.55784554131156e-17 -3.720988484351896e-17 -9.55784554131156e-17 0.07661141121506351 0.9970610270547455
12653700000.0 0.08672127461960057 0.9962326136641885 -3.8178410246301155e-17 -9.517415930302708e-17 -3.8178410246301155e-17 -9.517415930302708e-17 0.08672061716364475 0.9962326708949997
12654317333.333334 0.09682155790978486 0.9953017562145416 -3.9142560540981766e-17 -9.476005647448837e-17 -3.9142560540981766e-17 -9.476005647448837e-17 0.09682090110018214 0.9953018201078391
12654934666.666666 0.10691187998083153 0.9942684999127716 -4.010223650924837e-17 -9.433619410195452e-17 -4.010223650924837e-17 -9.433619410195452e-17 0.10691122388508954 0.9942685704613319
12655552000.0 0.11699120271814586 0.9931329510626415 -4.105733943979687e-17 -9.390262036289388e-17 -4.105733943979687e-17 -9.390262036289388e-17 0.11699054740369226 0.9931330282585576
12656169333.333334 0.12705848913851575 0.9918952264920251 -4.2007771138428103e-17 -9.345938443237022e-17 -4.2007771138428103e-17 -9.345938443237022e-17 0.12705783467269138 0.9918953103267076
12656786666.666666 0.13711270349725152 0.9905554535408416 -4.295343393816386e-17 -9.300653647748934e-17 -4.295343393816386e-17 -9.300653647748934e-17 0.1371120499473031 0.9905555440050179
12657404000.0 0.1471528113944907 0.9891137700479786 -4.3894230709237124e-17 -9.254412765177308e-17 -4.3894230709237124e-17 -9.254412765177308e-17 0.14715215882756424 0.9891138671316949
12658021333.333334 0.15717777988173207 0.9875703243370959 -4.483006486905654e-17 -9.207221008941654e-17 -4.483006486905654e-17 -9.207221008941654e-17 0.15717712836486608 0.9875704280297193
12658638666.666666 0.16718657756785574 0.9859252752014099 -4.5760840392076115e-17 -9.159083689946212e-17 -4.5760840392076115e-17 -9.159083689946212e-17 0.16718592716797384 0.9859253854916272
12659256000.0 0.17717817472568312 0.9841787918872791 -4.668646181966753e-17 -9.110006215984082e-17 -4.668646181966753e-17 -9.110006215984082e-17 0.17717752550958774 0.9841789087631011
12659873333.333334 0.1871515433975531 0.9823310540768533 -4.7606834269854013e-17 -9.059994091135256e-17 -4.7606834269854013e-17 -9.059994091135256e-17 0.18715089543191846 0.9823311775256142
12660490666.666666 0.19710565750113732 0.9803822518695817 -4.852186344701673e-17 -9.009052915153029e-17 -4.852186344701673e-17 -9.009052915153029e-17 0.19710501085250232 0.9803823818779405
12661108000.0 0.20703949293517293 0.9783325857626202 -4.9431455651561174e-17 -8.957188382839161e-17 -4.9431455651561174e-17 -8.957188382839161e-17 0.20703884766993438 0.9783327223165614
12661725333.333334 0.21695202768460128 0.9761822666302482 -5.033551778944355e-17 -8.904406283413426e-17 -5.033551778944355e-17 -8.904406283413426e-17 0.21695138386900742 0.9761824097150855
12662342666.666666 0.22684224192591002 0.9739315157021335 -5.1233957381719267e-17 -8.850712499868609e-17 -5.1233957381719267e-17 -8.850712499868609e-17 0.2268415996260536 0.9739316653025107
12662960000.0 0.23670911813197157 0.9715805645405905 -5.212668257395719e-17 -8.796113008319614e-17 -5.212668257395719e-17 -8.796113008319614e-17 0.23670847741378273 0.9715807206404813
12663577333.333334 0.2465516411766454 0.9691296550167744 -5.3013602145615365e-17 -8.740613877341372e-17 -5.3013602145615365e-17 -8.740613877341372e-17 0.2465510021058851 0.9691298175994857
12664194666.666666 0.25636879843938204 0.966579039285757 -5.389462551932906e-17 -8.684221267298341e-17 -5.389462551932906e-17 -8.684221267298341e-17 0.2563681610816356 0.9665792083339313
12664812000.0 0.26615957990929373 0.9639289797606134 -5.4769662770153207e-17 -8.62694142966324e-17 -5.4769662770153207e-17 -8.62694142966324e-17 0.2661589443299638 0.9639291552562294
12665429333.333334 0.2759229782891488 0.9611797490854009 -5.563862463470997e-17 -8.568780706327764e-17 -5.563862463470997e-17 -8.568780706327764e-17 0.27592234455344866 0.9611799310097754
12666046666.666666 0.2856579890987583 0.9583316301071784 -5.650142252026195e-17 -8.509745528904392e-17 -5.650142252026195e-17 -8.509745528904392e-17 0.28565735727170516 0.9583318184409687
12666664000.0 0.2953636107787839 0.9553849158467738 -5.735796851374981e-17 -8.449842418016438e-17 -5.735796851374981e-17 -8.449842418016438e-17 0.2953629809251924 0.9553851105699803
12667281333.333334 0.3050388447933162 0.9523399094687711 -5.820817539068341e-17 -8.389077982583965e-17 -5.820817539068341e-17 -8.389077982583965e-17 0.3050382169777914 0.9523401105607378
12667898666.666666 0.314682695732798 0.9491969242502671 -5.905195662403911e-17 -8.327458919095232e-17 -5.905195662403911e-17 -8.327458919095232e-17 0.3146820700197292 0.9491971316896861
12668516000.0 0.32429417141659567 0.9459562835485853 -5.988922639303185e-17 -8.264992010872379e-17 -5.988922639303185e-17 -8.264992010872379e-17 0.32429354787014963 0.9459564973134968
12669133333.333334 0.3338722829947259 0.9426183207681237 -6.071989959180422e-17 -8.201684127329045e-17 -6.071989959180422e-17 -8.201684127329045e-17 0.3338716616788401 0.9426185408359197
12669750666.666666 0.3434160450499145 0.9391833793259455 -6.15438918380673e-17 -8.137542223216941e-17 -6.15438918380673e-17 -8.137542223216941e-17 0.343415426028291 0.9391836056733722
