! Parameters = {f0=12700.012000; bw=77.238000; Q=6100.000000; N=10; m_0_1=1.237532; m_1_1=-0.201758; m_1_2=1.072344; m_2_2=-0.202407; m_2_3=0.709307; m_2_8=-0.001060; m_2_9=0.035644; m_3_3=-0.204344; m_3_4=0.597836; m_3_7=-0.000460; m_3_8=-0.097548; m_3_9=-0.001060; m_4_4=-0.207269; m_4_5=0.434171; m_4_6=0.003057; m_4_7=-0.118097; m_4_8=-0.000460; m_5_5=-0.206887; m_5_6=0.841526; m_5_7=0.003057; m_6_6=-0.206888; m_6_7=0.434513; m_7_7=-0.207255; m_7_8=0.597954; m_8_8=-0.204346; m_8_9=0.709620; m_9_9=-0.202412; m_9_10=1.073422; m_10_10=-0.201768; m_10_11=1.238327}
!
! Created with skrf (http://scikit-rf.org).
# Hz S RI R 50.0 
!freq ReS11 ImS11 ReS21 ImS21 ReS12 ImS12 ReS22 ImS22
12607400000.0 0.039520357336683125 0.9992187655142454 -3.0454831840863924e-17 -8.963149233015592e-17 -3.0454831840863924e-17 -8.963149233015592e-17 0.03951970578243272 0.9992187912838216
12608017333.333334 0.04907405683578942 0.998795142632116 -3.131237247813902e-17 -8.931588207195364e-17 -3.131237247813902e-17 -8.931588207195364e-17 0.04907340558965607 0.9987951746297461
12608634666.666666 0.058623268380881964 0.9982801773070399 -3.2166659975426845e-17 -8.899207410549749e-17 -3.2166659975426845e-17 -8.899207410549749e-17 0.058622617502390735 0.9982802155291873
12609252000.0 0.06816711867145062 0.9976739166340198 -3.301761603162575e-17 -8.866010180365203e-17 -3.301761603162575e-17 -8.866010180365203e-17 0.06816646822008712 0.9976739610765791
12609869333.333334 0.07770473489731551 0.9969764160572561 -3.3865162686558194e-17 -8.831999928654564e-17 -3.3865162686558194e-17 -8.831999928654564e-17 0.0777040849325205 0.9969764667155544
12610486666.666666 0.0872352448183062 0.9961877393650873 -3.470922232808348e-17 -8.797180141810567e-17 -3.470922232808348e-17 -8.797180141810567e-17 0.08723459539947018 0.9961877962338843
12611104000.0 0.09675777684434189 0.9953079586841315 -3.554971769921526e-17 -8.761554380250978e-17 -3.554971769921526e-17 -8.761554380250978e-17 0.09675712803079957 0.9953080217576183
12611721333.333334 0.10627146011474427 0.994337154472724 -3.638657190514123e-17 -8.725126278059567e-17 -3.638657190514123e-17 -8.725126278059567e-17 0.10627081196576905 0.994337223744524
12612338666.666666 0.11577542457816291 0.993275415513532 -3.721970842026557e-17 -8.687899542617826e-17 -3.721970842026557e-17 -8.687899542617826e-17 0.11577477715296186 0.9932754909767048
12612956000.0 0.12526880107214355 0.992122838905435 -3.8049051095189605e-17 -8.64987795423105e-17 -3.8049051095189605e-17 -8.64987795423105e-17 0.12526815442985176 0.992122920552474
12613573333.333334 0.13475072140236172 0.9908795300546762 -3.8874524163632833e-17 -8.611065365748834e-17 -3.8874524163632833e-17 -8.611065365748834e-17 0.13475007560203667 0.9908796178775087
12614190666.666666 0.14422031842230268 0.9895456026651835 -3.969605224936183e-17 -8.571465702176777e-17 -3.969605224936183e-17 -8.571465702176777e-17 0.14421967352291926 0.9895456966551746
12614808000.0 0.15367672611242417 0.9881211787281959 -4.0513560373043636e-17 -8.53108296028336e-17 -4.0513560373043636e-17 -8.53108296028336e-17 0.15367608217286902 0.9881212788761458
12615425333.333334 0.1631190796593837 0.9866063885110962 -4.132697395907412e-17 -8.489921208199592e-17 -4.132697395907412e-17 -8.489921208199592e-17 0.1631184367384499 0.9866064948072437
12616042666.666666 0.1725465155351282 0.9850013705455023 -4.2136218842363676e-17 -8.447984585012297e-17 -4.2136218842363676e-17 -8.447984585012297e-17 0.17254587369151014 0.9850014829795259
12616660000.0 0.1819581715758662 0.9833062716145975 -4.294122127508194e-17 -8.405277300350933e-17 -4.294122127508194e-17 -8.405277300350933e-17 0.18195753086815364 0.9833063901756137
12617277333.333334 0.19135318706094218 0.9815212467396985 -4.374190793336361e-17 -8.361803633967927e-17 -4.374190793336361e-17 -8.361803633967927e-17 0.19135254754761574 0.9815213714162669
12617894666.666666 0.20073070279141328 0.9796464591661108 -4.453820592395766e-17 -8.317567935313336e-17 -4.453820592395766e-17 -8.317567935313336e-17 0.20073006453083822 0.9796465899462304
12618512000.0 0.2100898611689308 0.9776820803481321 -4.533004279087193e-17 -8.272574623101204e-17 -4.533004279087193e-17 -8.272574623101204e-17 0.21008922421935255 0.977682217219247
12619129333.333334 0.2194298062737811 0.9756282899334578 -4.611734652191548e-17 -8.226828184872842e-17 -4.611734652191548e-17 -8.226828184872842e-17 0.2194291706933189 0.9756284328824544
12619746666.666666 0.22874968394343898 0.9734852757466902 -4.690004555525336e-17 -8.18033317655076e-17 -4.690004555525336e-17 -8.18033317655076e-17 0.2287490497900818 0.9734854247599019
12620364000.0 0.2380486418506832 0.9712532337721598 -4.767806878589321e-17 -8.13309422198765e-17 -4.767806878589321e-17 -8.13309422198765e-17 0.2380480091822834 0.9712533888353663
12620981333.333334 0.2473258295812948 0.9689323681360623 -4.8451345572106496e-17 -8.085116012510545e-17 -4.8451345572106496e-17 -8.085116012510545e-17 0.24732519845556353 0.9689325292344914
12621598666.666666 0.25658039871210625 0.9665228910877225 -4.9219805741847735e-17 -8.03640330645624e-17 -4.9219805741847735e-17 -8.03640330645624e-17 0.256579769186608 0.9665230582060523
12622216000.0 0.2658115028884544 0.9640250229802209 -4.9983379599092693e-17 -7.986960928702677e-17 -4.9983379599092693e-17 -7.986960928702677e-17 0.26581087502060136 0.9640251961025786
12622833333.333334 0.2750182979016354 0.9614389922502212 -5.074199793014626e-17 -7.936793770193412e-17 -5.074199793014626e-17 -7.936793770193412e-17 0.275017671748683 0.9614391713601891
12623450666.666666 0.2841999417660021 0.9587650353971162 -5.149559200988921e-17 -7.885906787456956e-17 -5.149559200988921e-17 -7.885906787456956e-17 0.28419931738504317 0.958765220477729
12624068000.0 0.293355594796102 0.956003396961359 -5.224409360799728e-17 -7.834305002118877e-17 -5.224409360799728e-17 -7.834305002118877e-17 0.29335497224406165 0.9560035879951074
12624685333.333334 0.30248441968352185 0.9531543295020783 -5.2987434995102424e-17 -7.781993500408597e-17 -5.2987434995102424e-17 -7.781993500408597e-17 0.3024837990171522 0.9531545264709097
12625302666.666666 0.3115855815730821 0.9502180935741001 -5.372554894888145e-17 -7.728977432662086e-17 -5.372554894888145e-17 -7.728977432662086e-17 0.31158496284895776 0.9502182964594222
12625920000.0 0.32065824813975674 0.9471949577039437 -5.4458368760149286e-17 -7.675262012814918e-17 -5.4458368760149286e-17 -7.675262012814918e-17 0.32065763141426895 0.9471951664866243
12626537333.333334 0.32970158966430296 0.9440851983654142 -5.5185828238839164e-17 -7.620852517894091e-17 -5.5185828238839164e-17 -7.620852517894091e-17 0.3297009749936549 0.9440854130257846
12627154666.666666 0.33871477910933295 0.9408890999542664 -5.59078617199758e-17 -7.565754287501124e-17 -5.59078617199758e-17 -7.565754287501124e-17 0.3387141665495337 0.9408893204721203
12627772000.0 0.3476969921951058 0.937606954762127 -5.662440406959647e-17 -7.509972723289373e-17 -5.662440406959647e-17 -7.509972723289373e-17 0.3476963818019667 0.9376071811167265
12628389333.333334 0.35664740747453866 0.9342390629499085 -5.73353906905785e-17 -7.453513288439145e-17 -5.73353906905785e-17 -7.453513288439145e-17 0.3566467993036672 0.9342392951199828
12629006666.666666 0.36556520640872897 0.9307857325202059 -5.804075752847539e-17 -7.396381507122453e-17 -5.804075752847539e-17 -7.396381507122453e-17 0.36556460051552403 0.9307859704839553
12629624000.0 0.3744495734415188 0.9272472792892398 -5.874044107724576e-17 -7.338582963966672e-17 -5.874044107724576e-17 -7.338582963966672e-17 0.3744489698811655 0.9272475230243364
12630241333.333334 0.38329969607423997 0.923624026857914 -5.943437838496439e-17 -7.280123303509882e-17 -5.943437838496439e-17 -7.280123303509882e-17 0.38329909490170466 0.9236242763415041
12630858666.666666 0.3921147649398604 0.9199163065822847 -6.012250705945466e-17 -7.221008229652917e-17 -6.012250705945466e-17 -7.221008229652917e-17 0.39211416620988554 0.9199165617909913
12631476000.0 0.4008939738772914 0.9161244575431371 -6.08047652739016e-17 -7.161243505103186e-17 -6.08047652739016e-17 -7.161243505103186e-17 0.40089337764439137 0.9161247184530632
12632093333.333334 0.4096365200047732 0.9122488265151188 -6.148109177236087e-17 -7.100834950817323e-17 -6.148109177236087e-17 -7.100834950817323e-17 0.40963592632322837 0.9122490931018474
12632710666.666666 0.4183416037934584 0.9082897679349636 -6.215142587525149e-17 -7.039788445435437e-17 -6.215142587525149e-17 -7.039788445435437e-17 0.41834101271731045 0.9082900401735605
12633328000.0 0.427008429140659 0.9042476438690122 -6.281570748479022e-17 -6.978109924710272e-17 -6.281570748479022e-17 -6.978109924710272e-17 0.4270078407237059 0.9042479217340293
12633945333.333334 0.4356362034424193 0.9001228239802102 -6.347387709034207e-17 -6.915805380933836e-17 -6.347387709034207e-17 -6.915805380933836e-17 0.4356356177382109 0.9001231074456872
12634562666.666666 0.4442241376661314 0.8959156854942407 -6.412587577374132e-17 -6.852880862356418e-17 -6.412587577374132e-17 -6.852880862356418e-17 0.44422355472796415 0.8959159745337084
12635180000.0 0.4527714464226679 0.8916266131650386 -6.477164521454442e-17 -6.789342472601807e-17 -6.477164521454442e-17 -6.789342472601807e-17 0.4527708663035806 0.8916269077515206
12635797333.333334 0.46127734803823434 0.8872559992395914 -6.541112769522794e-17 -6.725196370077097e-17 -6.541112769522794e-17 -6.725196370077097e-17 0.4612767707910018 0.8872562993456053
12636414666.666666 0.46974106462575277 0.8828042434221178 -6.604426610631976e-17 -6.66044876737865e-17 -6.604426610631976e-17 -6.66044876737865e-17 0.46974049030288245 0.8828045490196802
12637032000.0 0.4781618221561531 0.8782717528374353 -6.667100395149001e-17 -6.595105930691322e-17 -6.667100395149001e-17 -6.595105930691322e-17 0.47816125080988015 0.8782720638980634
12637649333.333334 0.4865388505290602 0.8736589419937816 -6.729128535256435e-17 -6.529174179184831e-17 -6.729128535256435e-17 -6.529174179184831e-17 0.48653828221134265 0.8736592584884961
12638266666.666666 0.49487138364324673 0.8689662327448933 -6.790505505448726e-17 -6.462659884404494e-17 -6.790505505448726e-17 -6.462659884404494e-17 0.49487081840576014 0.86896655464422
12638884000.0 0.5031586594666938 0.8641940542514238 -6.851225843022296e-17 -6.395569469657489e-17 -6.851225843022296e-17 -6.395569469657489e-17 0.5031580973608273 0.8641943815253981
12639501333.333334 0.5113999201063067 0.8593428429416841 -6.91128414855985e-17 -6.327909409394377e-17 -6.91128414855985e-17 -6.327909409394377e-17 0.511399361183158 0.8593431755598523
12640118666.666666 0.5195944118770793 0.8544130424718164 -6.970675086407301e-17 -6.259686228587465e-17 -6.970675086407301e-17 -6.259686228587465e-17 0.5195938561874495 0.8544133804032383
12640736000.0 0.5277413853714089 0.8494051036849843 -7.029393385148483e-17 -6.190906502100326e-17 -7.029393385148483e-17 -6.190906502100326e-17 0.5277408329657995 0.849405446898239
12641353333.333334 0.5358400955270509 0.8443194845704995 -7.087433838066664e-17 -6.121576854060945e-17 -7.087433838066664e-17 -6.121576854060945e-17 0.5358395464556573 0.8443198330336841
12641970666.666666 0.5438898016957637 0.8391566502216231 -7.144791303607762e-17 -6.051703957221487e-17 -7.144791303607762e-17 -6.051703957221487e-17 0.5438892560084719 0.8391570039023587
12642588000.0 0.5518897677108022 0.8339170727931825 -7.201460705831829e-17 -5.981294532319987e-17 -7.201460705831829e-17 -5.981294532319987e-17 0.5518892254571839 0.833917431658616
12643205333.333334 0.5598392619542658 0.8286012314583754 -7.257437034860264e-17 -5.910355347435674e-17 -7.257437034860264e-17 -5.910355347435674e-17 0.5598387231835736 0.828601595475183
12643822666.666666 0.5677375574241024 0.8232096123648871 -7.312715347317108e-17 -5.83889321733944e-17 -7.312715347317108e-17 -5.83889321733944e-17 0.5677370221852658 0.8232099814992769
12644440000.0 0.5755839318004748 0.8177427085905077 -7.367290766762539e-17 -5.766915002842143e-17 -7.367290766762539e-17 -5.766915002842143e-17 0.5755834001420957 0.8177430828082236
12645057333.333334 0.5833776675118675 0.8122010200980087 -7.421158484120936e-17 -5.694427610137606e-17 -7.421158484120936e-17 -5.694427610137606e-17 0.5833771394822155 0.8122013993643328
12645674666.666666 0.5911180518006189 0.806585053689488 -7.474313758102364e-17 -5.621437990141867e-17 -7.474313758102364e-17 -5.621437990141867e-17 0.5911175274476269 0.8065854379692441
12646292000.0 0.5988043767884024 0.800895322959802 -7.526751915618633e-17 -5.547953137826997e-17 -7.526751915618633e-17 -5.547953137826997e-17 0.5988038561596627 0.8008957122173591
12646909333.333334 0.6064359395405745 0.7951323482498832 -7.578468352189751e-17 -5.4739800915553904e-17 -7.578468352189751e-17 -5.4739800915553904e-17 0.6064354226833337 0.7951327424491581
12647526666.666666 0.6140120421307115 0.7892966565989661 -7.629458532347437e-17 -5.399525932405342e-17 -7.629458532347437e-17 -5.399525932405342e-17 0.6140115290918673 0.7892970557034277
12648144000.0 0.621531991704413 0.7833887816964062 -7.679717990030251e-17 -5.32459778349523e-17 -7.679717990030251e-17 -5.32459778349523e-17 0.6215314825305086 0.7833891856690779
12648761333.333334 0.6289951005425736 0.7774092638329381 -7.729242328971775e-17 -5.2492028093047585e-17 -7.729242328971775e-17 -5.2492028093047585e-17 0.6289945952797958 0.7774096726364028
12649378666.666666 0.6364006861242819 0.7713586498512712 -7.778027223082686e-17 -5.173348214991735e-17 -7.778027223082686e-17 -5.173348214991735e-17 0.6364001848184535 0.7713590634476727
12649996000.0 0.643748071189345 0.7652374930959873 -7.826068416826902e-17 -5.0970412457042036e-17 -7.826068416826902e-17 -5.0970412457042036e-17 0.6437475738859235 0.7652379114470352
12650613333.333334 0.6510365838001609 0.7590463533629878 -7.873361725589808e-17 -5.02028918589089e-17 -7.873361725589808e-17 -5.02028918589089e-17 0.6510360905442328 0.7590467764299602
12651230666.666666 0.6582655574030827 0.7527857968483748 -7.919903036039666e-17 -4.943099358608526e-17 -7.919903036039666e-17 -4.943099358608526e-17 0.6582650682393609 0.7527862245921234
12651848000.0 0.6654343308895926 0.7464563960964865 -7.965688306484156e-17 -4.86547912482265e-17 -7.965688306484156e-17 -4.86547912482265e-17 0.6654338458624103 0.746456828477438
12652465333.333334 0.6725422486565668 0.7400587299477004 -8.010713567217485e-17 -4.78743588270948e-17 -8.010713567217485e-17 -4.78743588270948e-17 0.6725417678098754 0.740059166925862
12653082666.666666 0.6795886606662351 0.7335933834855016 -8.054974920861945e-17 -4.708977066952557e-17 -8.054974920861945e-17 -4.708977066952557e-17 0.6795881840435997 0.7335938250204644
12653700000.0 0.686572922505839 0.7270609479827839 -8.098468542703868e-17 -4.630110148033938e-17 -8.098468542703868e-17 -4.630110148033938e-17 0.6865724501504332 0.7270613940337249
12654317333.333334 0.6934943954462705 0.7204620208480428 -8.14119068101956e-17 -4.550842631527895e-17 -8.14119068101956e-17 -4.550842631527895e-17 0.6934939274008739 0.7204624713737311
12654934666.666666 0.7003524465006944 0.7137972055705502 -8.183137657397435e-17 -4.4711820573860436e-17 -8.183137657397435e-17 -4.4711820573860436e-17 0.700351982807689 0.7137976605293498
12655552000.0 0.707146448482435 0.7070671116651603 -8.224305867051871e-17 -4.391135999221885e-17 -8.224305867051871e-17 -4.391135999221885e-17 0.7071459891837997 0.7070675710150335
12656169333.333334 0.7138757800621527 0.7002723546167497 -8.264691779129041e-17 -4.310712063594603e-17 -8.264691779129041e-17 -4.310712063594603e-17 0.7138753251994604 0.7002728183152609
12656786666.666666 0.7205398258248663 0.693413555823727 -8.304291937008029e-17 -4.229917889285612e-17 -8.304291937008029e-17 -4.229917889285612e-17 0.7205393754392811 0.6934140238280483
12657404000.0 0.727137976326136 0.686491342541307 -8.343102958593092e-17 -4.148761146575906e-17 -8.343102958593092e-17 -4.148761146575906e-17 0.7271375304584077 0.6864918148082193
12658021333.333334 0.7336696281478351 0.6795063478241028 -8.381121536599743e-17 -4.0672495365191185e-17 -8.381121536599743e-17 -4.0672495365191185e-17 0.7336691868382974 0.6795068243100033
12658638666.666666 0.7401341839532419 0.6724592104683396 -8.418344438832931e-17 -3.985390790213673e-17 -8.418344438832931e-17 -3.985390790213673e-17 0.7401337472418061 0.6724596911292422
12659256000.0 0.7465310525418558 0.6653505749532224 -8.454768508459818e-17 -3.9031926680688134e-17 -8.454768508459818e-17 -3.9031926680688134e-17 0.7465306204680104 0.6653510597447645
12659873333.333334 0.7528596489032933 0.6581810913821861 -8.490390664273303e-17 -3.8206629590727584e-17 -8.490390664273303e-17 -3.8206629590727584e-17 0.7528592215060983 0.6581815802596316
12660490666.666666 0.7591193942707891 0.6509514154234428 -8.525207900949429e-17 -3.737809480056332e-17 -8.525207900949429e-17 -3.737809480056332e-17 0.759118971588874 0.6509519083416869
12661108000.0 0.7653097161743168 0.6436622082498091 -8.559217289298671e-17 -3.6546400749518444e-17 -8.559217289298671e-17 -3.6546400749518444e-17 0.7653092982458745 0.6436627051633809
12661725333.333334 0.7714300484926755 0.6363141364785339 -8.5924159765075e-17 -3.5711626140555794e-17 -8.5924159765075e-17 -3.5711626140555794e-17 0.7714296353554613 0.6363146373416017
12662342666.666666 0.7774798315054716 0.6289078721101018 -8.624801186375361e-17 -3.4873849932820245e-17 -8.624801186375361e-17 -3.4873849932820245e-17 0.7774794231967994 0.6289083768764779
12662960000.0 0.7834585119442139 0.6214440924668855 -8.656370219542778e-17 -3.403315133419915e-17 -8.656370219542778e-17 -3.403315133419915e-17 0.7834581085009513 0.6214446010900291
12663577333.333334 0.789365543042928 0.6139234801311786 -8.687120453712817e-17 -3.318960979384781e-17 -8.687120453712817e-17 -3.318960979384781e-17 0.7893651445014946 0.6139239925642005
12664194666.666666 0.7952003845881594 0.6063467228827715 -8.717049343865193e-17 -3.2343304994697846e-17 -8.717049343865193e-17 -3.2343304994697846e-17 0.795199990984524 0.60634723907844
12664812000.0 0.8009625029683813 0.5987145136360564 -8.746154422463114e-17 -3.1494316845946783e-17 -8.746154422463114e-17 -3.1494316845946783e-17 0.8009621143380561 0.5987150335467991
12665429333.333334 0.8066513712228064 0.5910275503766304 -8.77443329965288e-17 -3.064272547552695e-17 -8.77443329965288e-17 -3.064272547552695e-17 0.8066509876008462 0.5910280739545402
12666046666.666666 0.812266469089498 0.5832865360975799 -8.80188366345572e-17 -2.9788611222571993e-17 -8.80188366345572e-17 -2.9788611222571993e-17 0.8122660905104965 0.5832870632944194
12666664000.0 0.8178072830531495 0.5754921787349149 -8.828503279953589e-17 -2.893205462982657e-17 -8.828503279953589e-17 -2.893205462982657e-17 0.8178069095512353 0.5754927095021198
12667281333.333334 0.8232733063917472 0.56764519110324 -8.854289993465598e-17 -2.807313643610281e-17 -8.854289993465598e-17 -2.807313643610281e-17 0.8232729380005817 0.5676457253919249
12667898666.666666 0.8286640392231763 0.5597462908301966 -8.87924172671903e-17 -2.7211937568661068e-17 -8.87924172671903e-17 -2.7211937568661068e-17 0.82866367597595 0.5597468285911585
12668516000.0 0.8339789885508688 0.5517962002909254 -8.903356481012174e-17 -2.6348539135601297e-17 -8.903356481012174e-17 -2.6348539135601297e-17 0.8339786304802982 0.5517967414746484
12669133333.333334 0.8392176683087618 0.5437956465421913 -8.926632336369113e-17 -2.5483022418263362e-17 -8.926632336369113e-17 -2.5483022418263362e-17 0.8392173154470869 0.5437961910988514
12669750666.666666 0.8443795994059076 0.5357453612556563 -8.949067451688568e-17 -2.46154688635661e-17 -8.949067451688568e-17 -2.46154688635661e-17 0.84437925178489 0.5357459091351264
12670368000.0 0.8494643097702266 0.5276460806510618 -8.970660064884241e-17 -2.3745960076369252e-17 -8.970660064884241e-17 -2.3745960076369252e-17 0.8494639674211452 0.5276466318029156
12670985333.333334 0.8544713343916329 0.5194985454289707 -8.991408493017948e-17 -2.2874577811821525e-17 -8.991408493017948e-17 -2.2874577811821525e-17 0.8544709973452811 0.5194990998024875
