! Parameters = {f0=12700.012000; bw=77.238000; Q=6100.000000; N=10; m_0_1=1.328824; m_1_1=1.167612; m_1_2=1.163636; m_2_2=1.166963; m_2_3=0.800599; m_2_8=0.003505; m_2_9=0.040209; m_3_3=1.165026; m_3_4=0.689128; m_3_7=0.004105; m_3_8=-0.092983; m_3_9=0.003505; m_4_4=1.162101; m_4_5=0.525463; m_4_6=0.007622; m_4_7=-0.113532; m_4_8=0.004105; m_5_5=1.162483; m_5_6=0.932818; m_5_7=0.007622; m_6_6=1.162482; m_6_7=0.525805; m_7_7=1.162115; m_7_8=0.689246; m_8_8=1.165024; m_8_9=0.800912; m_9_9=1.166958; m_9_10=1.164714; m_10_10=1.167602; m_10_11=1.329619}
!
! Created with skrf (http://scikit-rf.org).
# Hz S RI R 50.0 
!freq ReS11 ImS11 ReS21 ImS21 ReS12 ImS12 ReS22 ImS22
12607400000.0 -0.9771697925130021 0.21245987056360507 1.2694984632278216e-16 -6.969968375018092e-17 1.2694984632278216e-16 -6.969968375018092e-17 -0.9771699412328559 0.2124591865530489
12608017333.333334 -0.9744912285800021 0.224425589941177 1.2605466511553267e-16 -7.124828438611797e-17 1.2605466511553267e-16 -7.124828438611797e-17 -0.9744913856680675 0.22442490783898314
12608634666.666666 -0.9716661468266996 0.23635756622279458 1.2514060669568402e-16 -7.278541081777237e-17 1.2514060669568402e-16 -7.278541081777237e-17 -0.9716663122585394 0.23635688613132733
12609252000.0 -0.9686949720131256 0.24825400539829512 1.2420781786307515e-16 -7.431083310218313e-17 1.2420781786307515e-16 -7.431083310218313e-17 -0.9686951457630517 0.24825332741960668
12609869333.333334 -0.9655781508648508 0.26011311880068927 1.2325644821637753e-16 -7.582432317128112e-17 1.2325644821637753e-16 -7.582432317128112e-17 -0.9655783329059262 0.260112443036504
12610486666.666666 -0.9623161520058666 0.2719331233749001 1.2228665012921492e-16 -7.732565486588843e-17 1.2228665012921492e-16 -7.732565486588843e-17 -0.96231634230991 0.27193244992659943
12611104000.0 -0.9589094658880123 0.2837122419462616 1.2129857872580147e-16 -7.881460396952078e-17 1.2129857872580147e-16 -7.881460396952078e-17 -0.9589096644256034 0.2837115709148688
12611721333.333334 -0.9553586047173963 0.2954487034871479 1.2029239185625868e-16 -8.029094824174254e-17 1.2029239185625868e-16 -8.029094824174254e-17 -0.9553588114578805 0.2954480349733134
12612338666.666666 -0.9516641023772447 0.30714074338374536 1.1926825007145074e-16 -8.17544674513245e-17 1.1926825007145074e-16 -8.17544674513245e-17 -0.9516643172887365 0.307140077487731
12612956000.0 -0.9478265143476906 0.3187866037011486 1.1822631659743953e-16 -8.32049434090476e-17 1.1822631659743953e-16 -8.32049434090476e-17 -0.9478267373970793 0.31878594052281284
12613573333.333334 -0.9438464176222683 0.3303845334476451 1.1716675730958646e-16 -8.464216000011838e-17 1.1716675730958646e-16 -8.464216000011838e-17 -0.9438466487752225 0.33038387308642786
12614190666.666666 -0.9397244106211307 0.34193278883806283 1.1608974070618116e-16 -8.606590321637032e-17 1.1608974070618116e-16 -8.606590321637032e-17 -0.9397246498421052 0.3419321313929712
12614808000.0 -0.9354611131010996 0.35342963355590173 1.14995437881753e-16 -8.747596118802683e-17 1.14995437881753e-16 -8.747596118802683e-17 -0.9354613603533384 0.35342897912549426
12615425333.333334 -0.9310571660624376 0.36487333901449925 1.138840224999458e-16 -8.887212421519999e-17 1.138840224999458e-16 -8.887212421519999e-17 -0.9310574213079814 0.36487268769687176
12616042666.666666 -0.9265132316525454 0.37626218461674354 1.1275567076605195e-16 -9.025418479898924e-17 1.1275567076605195e-16 -9.025418479898924e-17 -0.9265134948522371 0.3762615365095143
12616660000.0 -0.9218299930663225 0.3875944580139822 1.1161056139913053e-16 -9.162193767228495e-17 1.1161056139913053e-16 -9.162193767228495e-17 -0.9218302641798127 0.3875938132142772
12617277333.333334 -0.9170081544435067 0.3988684553633198 1.1044887560378742e-16 -9.297517983017388e-17 1.1044887560378742e-16 -9.297517983017388e-17 -0.9170084334292616 0.39886781396775906
12617894666.666666 -0.9120484407628374 0.4100824815837481 1.0927079704158019e-16 -9.431371056000255e-17 1.0927079704158019e-16 -9.431371056000255e-17 -0.9120487275781409 0.4100818436884289
12618512000.0 -0.9069515977328821 0.4212348506113667 1.0807651180201354e-16 -9.563733147112698e-17 1.0807651180201354e-16 -9.563733147112698e-17 -0.9069518923338477 0.42123421631185176
12619129333.333334 -0.9017183916801539 0.43232388565237057 1.0686620837327219e-16 -9.694584652418977e-17 1.0686620837327219e-16 -9.694584652418977e-17 -0.901718694021728 0.4323232550436725
12619746666.666666 -0.8963496094337412 0.4433479194354998 1.0564007761249302e-16 -9.823906206014685e-17 1.0564007761249302e-16 -9.823906206014685e-17 -0.8963499194697109 0.4433472926120671
12620364000.0 -0.8908460582069627 0.4543052944627927 1.0439831271575594e-16 -9.95167868288433e-17 1.0439831271575594e-16 -9.95167868288433e-17 -0.8908463758899623 0.45430467151849513
12620981333.333334 -0.8852085654761999 0.46519436325838687 1.0314110918772784e-16 -1.0077883201721462e-16 1.0314110918772784e-16 -1.0077883201721462e-16 -0.8852088907577192 0.465193744286502
12621598666.666666 -0.8794379788562592 0.47601348861668275 1.0186866481091279e-16 -1.0202501127716163e-16 1.0186866481091279e-16 -1.0202501127716163e-16 -0.8794383116866509 0.47601287370988205
12622216000.0 -0.8735351659730963 0.4867610438481718 1.0058117961463752e-16 -1.0325514075296464e-16 1.0058117961463752e-16 -1.0325514075296464e-16 -0.8735355063015822 0.4867604330985065
12622833333.333334 -0.8675010143332311 0.49743541302426575 9.927885584364384e-17 -1.0446903910837129e-16 9.927885584364384e-17 -1.0446903910837129e-16 -0.8675013621079108 0.4974348065231527
12623450666.666666 -0.861336431190461 0.5080349912199824 9.796189792641687e-17 -1.0566652755322986e-16 9.796189792641687e-17 -1.0566652755322986e-16 -0.8613367863583199 0.508034389058191
12624068000.0 -0.8550423434093416 0.5185581847554506 9.663051244313617e-17 -1.0684742986977693e-16 9.663051244313617e-17 -1.0684742986977693e-16 -0.8550427059162592 0.5185575870230894
12624685333.333334 -0.84861969732577 0.5290034114356216 9.528490809332336e-17 -1.0801157243851178e-16 9.528490809332336e-17 -1.0801157243851178e-16 -0.8486200671165268 0.5290028182221236
12625302666.666666 -0.8420694586049476 0.5393691007877416 9.392529566324315e-17 -1.091587842636068e-16 9.392529566324315e-17 -1.091587842636068e-16 -0.8420698356232352 0.5393685121818523
12625920000.0 -0.8353926120958501 0.5496536942980366 9.255188799287612e-17 -1.1028889699801635e-16 9.255188799287612e-17 -1.1028889699801635e-16 -0.8353929962842783 0.5496531103877997
12626537333.333334 -0.8285901616834663 0.5598556456455319 9.116489994272778e-17 -1.114017449680542e-16 9.116489994272778e-17 -1.114017449680542e-16 -0.8285905529835729 0.5598550665182767
12627154666.666666 -0.8216631301377274 0.569973420934765 8.97645483602493e-17 -1.1249716519763406e-16 8.97645483602493e-17 -1.1249716519763406e-16 -0.8216635284899879 0.5699728466770941
12627772000.0 -0.8146125589595866 0.5800054989266226 8.835105204596698e-17 -1.1357499743208714e-16 8.835105204596698e-17 -1.1357499743208714e-16 -0.8146129643034207 0.5800049296243968
12628389333.333334 -0.8074395082247608 0.5899503712665698 8.69246317194241e-17 -1.146350841614805e-16 8.69246317194241e-17 -1.146350841614805e-16 -0.8074399204985425 0.5899498070048964
12629006666.666666 -0.80014505642397 0.599806542711972 8.548550998470144e-17 -1.15677270643618e-16 8.548550998470144e-17 -1.15677270643618e-16 -0.8001454755650388 0.5998059835751931
12629624000.0 -0.7927303003010824 0.6095725313564937 8.40339112958005e-17 -1.167014049265063e-16 8.40339112958005e-17 -1.167014049265063e-16 -0.7927307262457509 0.6095719774281719
12630241333.333334 -0.7851963546880455 0.6192468688531361 8.257006192164961e-17 -1.1770733787046674e-16 8.257006192164961e-17 -1.1770733787046674e-16 -0.7851967873716097 0.6192463202160434
12630858666.666666 -0.7775443523374089 0.6288281006348291 8.1094189910941e-17 -1.186949231697443e-16 8.1094189910941e-17 -1.186949231697443e-16 -0.7775447916941585 0.6288275573709338
12631476000.0 -0.7697754437517464 0.6383147861334643 7.960652505659807e-17 -1.1966401737375114e-16 7.960652505659807e-17 -1.1966401737375114e-16 -0.7697758897149731 0.6383142483239183
12632093333.333334 -0.7618907970110076 0.647705498996064 7.810729886012349e-17 -1.206144799077783e-16 7.810729886012349e-17 -1.206144799077783e-16 -0.7618912495130176 0.6477049667211922
12632710666.666666 -0.7538915975967396 0.6569988272994426 7.659674449560232e-17 -1.2154617309332716e-16 7.659674449560232e-17 -1.2154617309332716e-16 -0.7538920565688627 0.6569983006387297
12633328000.0 -0.7457790482137148 0.6661933737626428 7.507509677346633e-17 -1.2245896216798662e-16 7.507509677346633e-17 -1.2245896216798662e-16 -0.7457795135863137 0.6661928527947211
12633945333.333334 -0.7375543686092998 0.6752877559567809 7.354259210410684e-17 -1.2335271530480787e-16 7.354259210410684e-17 -1.2335271530480787e-16 -0.7375548403117819 0.675287240759419
12634562666.666666 -0.7292187953900089 0.684280606512965 7.199946846115696e-17 -1.2422730363128513e-16 7.199946846115696e-17 -1.2422730363128513e-16 -0.7292192733508377 0.6842800971630575
12635180000.0 -0.7207735818355621 0.6931705733279089 7.044596534462662e-17 -1.2508260124783285e-16 7.044596534462662e-17 -1.2508260124783285e-16 -0.7207740659822666 0.6931700699014628
12635797333.333334 -0.7122199977103658 0.7019563197673018 6.888232374375586e-17 -1.2591848524583895e-16 6.888232374375586e-17 -1.2591848524583895e-16 -0.7122204879695524 0.7019558223394265
12636414666.666666 -0.7035593290727998 0.710636524866573 6.73087860997267e-17 -1.2673483572521473e-16 6.73087860997267e-17 -1.2673483572521473e-16 -0.7035598253701628 0.7106360335114686
12637032000.0 -0.6947928780816772 0.7192098835296878 6.572559626809706e-17 -1.275315358115201e-16 6.572559626809706e-17 -1.275315358115201e-16 -0.6947933803420108 0.7192093983206348
12637649333.333334 -0.6859219628004772 0.7276751067253492 6.413299948106879e-17 -1.283084716725989e-16 6.413299948106879e-17 -1.283084716725989e-16 -0.6859224709476861 0.7276746277346959
12638266666.666666 -0.6769479169992935 0.7360309216806897 6.253124230957944e-17 -1.2906553253473666e-16 6.253124230957944e-17 -1.2906553253473666e-16 -0.6769484309564046 0.736030448979843
12638884000.0 -0.667872089954132 0.7442760720727933 6.092057262515363e-17 -1.2980261069837092e-16 6.092057262515363e-17 -1.2980261069837092e-16 -0.6678726096433076 0.7442756057322082
12639501333.333334 -0.6586958462441712 0.7524093182174734 5.930123956162186e-17 -1.3051960155330087e-16 5.930123956162186e-17 -1.3051960155330087e-16 -0.6586963715867168 0.7524088583066396
12640118666.666666 -0.6494205655466522 0.760429437255603 5.767349347665169e-17 -1.3121640359342703e-16 5.767349347665169e-17 -1.3121640359342703e-16 -0.6494210964630338 0.7604289838430395
12640736000.0 -0.64004764242904 0.7683352233373368 5.603758591302473e-17 -1.3189291843104697e-16 5.603758591302473e-17 -1.3189291843104697e-16 -0.6400481788388919 0.7683347764905772
12641353333.333334 -0.6305784861399848 0.7761254878028508 5.4393769559935134e-17 -1.325490508105894e-16 5.4393769559935134e-17 -1.325490508105894e-16 -0.6305790279621233 0.7761250475884354
12641970666.666666 -0.6210145203969233 0.7837990593615097 5.274229821390364e-17 -1.3318470862196116e-16 5.274229821390364e-17 -1.3318470862196116e-16 -0.6210150675493594 0.7837986258449753
12642588000.0 -0.6113571831721665 0.791354784267841 5.1083426739714486e-17 -1.3379980291333512e-16 5.1083426739714486e-17 -1.3379980291333512e-16 -0.6113577355721185 0.7913543575137117
12643205333.333334 -0.6016079264768324 0.7987915264949009 4.941741103110326e-17 -1.3439424790349432e-16 4.941741103110326e-17 -1.3439424790349432e-16 -0.6016084840407361 0.7987911065666762
12643822666.666666 -0.5917682161422585 0.8061081679052862 4.774450797135184e-17 -1.3496796099366648e-16 4.774450797135184e-17 -1.3496796099366648e-16 -0.5917687787857825 0.8061077548654344
12644440000.0 -0.581839531599906 0.8133036084190265 4.606497539372201e-17 -1.35520862778881e-16 4.606497539372201e-17 -1.35520862778881e-16 -0.5818400992379634 0.8133032023289745
12645057333.333334 -0.5718233656587182 0.8203767661791411 4.437907204179337e-17 -1.3605287705882045e-16 4.437907204179337e-17 -1.3605287705882045e-16 -0.5718239382054788 0.820376367099263
12645674666.666666 -0.5617212242808308 0.8273265777141774 4.26870575296443e-17 -1.365639308481933e-16 4.26870575296443e-17 -1.365639308481933e-16 -0.5617218016497362 0.82732618570379
12646292000.0 -0.5515346263548938 0.8341519980982938 4.0989192301887567e-17 -1.370539543866185e-16 4.0989192301887567e-17 -1.370539543866185e-16 -0.5515352084586681 0.834151613215644
12646909333.333334 -0.5412651034680492 0.8408520011081203 3.928573759370798e-17 -1.3752288114798063e-16 3.928573759370798e-17 -1.3752288114798063e-16 -0.5412656902187134 0.8408516234103778
12647526666.666666 -0.530914199675349 0.8474255793772647 3.7576955390670894e-17 -1.37970647849327e-16 3.7576955390670894e-17 -1.37970647849327e-16 -0.5309147909842339 0.8474252089205132
12648144000.0 -0.5204834712676677 0.85387174454772 3.5863108388478094e-17 -1.3839719445925072e-16 3.5863108388478094e-17 -1.3839719445925072e-16 -0.5204840670454282 0.8538713813869503
12648761333.333334 -0.5099744865378567 0.8601895274183806 3.414445995265897e-17 -1.3880246420576873e-16 3.414445995265897e-17 -1.3880246420576873e-16 -0.5099750866944834 0.8601891716074799
12649378666.666666 -0.49938882554489866 0.8663779780907952 3.24212740781597e-17 -1.3918640358370436e-16 3.24212740781597e-17 -1.3918640358370436e-16 -0.4993894299897331 0.8663776296825404
12649996000.0 -0.4887280798761448 0.8724361661121031 3.0693815348816706e-17 -1.395489623615775e-16 3.0693815348816706e-17 -1.395489623615775e-16 -0.48872868851789275 0.8724358251581535
12650613333.333334 -0.4779938524082335 0.8783631806147976 2.8962348896783487e-17 -1.3989009358798527e-16 2.8962348896783487e-17 -1.3989009358798527e-16 -0.4779944651549792 0.8783628471656877
12651230666.666666 -0.46718775706612237 0.884158130453673 2.7227140361933794e-17 -1.4020975359747235e-16 2.7227140361933794e-17 -1.4020975359747235e-16 -0.4671883738253409 0.8841578045588023
12651848000.0 -0.4563114185801017 0.8898201443399807 2.5488455851087532e-17 -1.4050790201592029e-16 2.5488455851087532e-17 -1.4050790201592029e-16 -0.4563120392586746 0.8898198260476095
12652465333.333334 -0.44536647224188713 0.89534837097223 2.374656189731706e-17 -1.4078450176540705e-16 2.374656189731706e-17 -1.4078450176540705e-16 -0.44536709674611535 0.89534806032947
12653082666.666666 -0.4343545636586755 0.9007419791642278 2.2001725419128678e-17 -1.4103951906857752e-16 2.2001725419128678e-17 -1.4103951906857752e-16 -0.43435519189429467 0.9007416762170375
12653700000.0 -0.4232773485053911 0.9060001579702147 2.025421367956096e-17 -1.412729234525135e-16 2.025421367956096e-17 -1.412729234525135e-16 -0.42327798037758446 0.9059998627633897
12654317333.333334 -0.4121364922762851 0.9111221168065277 1.8504294245382908e-17 -1.4148468775207801e-16 1.8504294245382908e-17 -1.4148468775207801e-16 -0.41213712768969857 0.9111218293836961
12654934666.666666 -0.4009336700340635 0.9161070855706915 1.675223494610532e-17 -1.416747881127777e-16 1.675223494610532e-17 -1.416747881127777e-16 -0.40093430889281945 0.9161068059743062
12655552000.0 -0.3896705661582384 0.9209543147571032 1.4998303833068222e-17 -1.4184320399310328e-16 1.4998303833068222e-17 -1.4184320399310328e-16 -0.38967120836595187 0.9209540430284384
12656169333.333334 -0.3783488740919077 0.9256630755697208 1.3242769138506896e-17 -1.419899181663683e-16 1.3242769138506896e-17 -1.419899181663683e-16 -0.3783495195516982 0.9256628117488611
12656786666.666666 -0.3669702960870573 0.9302326600316645 1.1485899234529315e-17 -1.4211491672204668e-16 1.1485899234529315e-17 -1.4211491672204668e-16 -0.36697094470156566 0.9302324041575034
12657404000.0 -0.3555365429486784 0.9346623810916491 9.727962592189331e-18 -1.4221818906659629e-16 9.727962592189331e-18 -1.4221818906659629e-16 -0.3555371946200805 0.9346621332018811
12658021333.333334 -0.34404933377740843 0.9389515727273314 7.969227740471837e-18 -1.4229972792378322e-16 7.969227740471837e-18 -1.4229972792378322e-16 -0.34404998840743006 0.9389513328584475
12658638666.666666 -0.3325103957113785 0.9430995900453313 6.209963225378087e-18 -1.4235952933449475e-16 6.209963225378087e-18 -1.4235952933449475e-16 -0.33251105320131014 0.9430993582326116
12659256000.0 -0.3209214636660515 0.9471058093783644 4.4504375688989304e-18 -1.4239759265605152e-16 4.4504375688989304e-18 -1.4239759265605152e-16 -0.32092212391676384 0.9471055856558769
12659873333.333334 -0.30928428007380165 0.950969628378866 2.6909192281453735e-18 -1.4241392056101065e-16 2.6909192281453735e-18 -1.4241392056101065e-16 -0.3092849429857591 0.9509694127794561
12660490666.666666 -0.29760059462185334 0.9546904661095805 9.316765544280035e-19 -1.4240851903546557e-16 9.316765544280035e-19 -1.4240851903546557e-16 -0.2976012600951305 0.9546902586648713
12661108000.0 -0.2858721639888592 0.9582677631310238 -8.270222476719411e-19 -1.423813973768413e-16 -8.270222476719411e-19 -1.423813973768413e-16 -0.28587283192315516 0.9582675638714082
12661725333.333334 -0.2741007515813192 0.9617009815854222 -2.5849091610555694e-18 -1.423325681911856e-16 -2.5849091610555694e-18 -1.423325681911856e-16 -0.27410142187597314 0.9617007905400611
12662342666.666666 -0.2622881272680682 0.9649896052777035 -4.3417163969767335e-18 -1.42262047389956e-16 -4.3417163969767335e-18 -1.42262047389956e-16 -0.2622887998220738 0.964989422474518
12662960000.0 -0.25043606711422317 0.9681331397530867 -6.097176435732212e-18 -1.421698541863059e-16 -6.097176435732212e-18 -1.421698541863059e-16 -0.25043674182624454 0.9681329652187571
12663577333.333334 -0.23854635311431077 0.9711311123713785 -7.851022067383963e-18 -1.420560110908662e-16 -7.851022067383963e-18 -1.420560110908662e-16 -0.23854702988269766 0.9711309461313401
12664194666.666666 -0.2266207729241203 0.9739830723780993 -9.602986432349592e-18 -1.4192054390702897e-16 -9.602986432349592e-18 -1.4192054390702897e-16 -0.22662145164692285 0.9739829144565368
12664812000.0 -0.21466111959214346 0.9766885909721971 -1.1352803061988205e-17 -1.4176348172572757e-16 -1.1352803061988205e-17 -1.4176348172572757e-16 -0.21466180016712788 0.9766884413920419
12665429333.333334 -0.20266919128973493 0.9792472613705766 -1.3100205919054233e-17 -1.4158485691972004e-16 -1.3100205919054233e-17 -1.4158485691972004e-16 -0.20266987361439912 0.9792471201535045
12666046666.666666 -0.1906467910410847 0.981658698869187 -1.484492943808613e-17 -1.413847051373761e-16 -1.484492943808613e-17 -1.413847051373761e-16 -0.19064747501267373 0.9816585660356152
12666664000.0 -0.17859572645171165 0.983922540900956 -1.6586708565771418e-17 -1.4116306529595776e-16 -1.6586708565771418e-17 -1.4116306529595776e-16 -0.17859641196723253 0.9839224164700378
12667281333.333334 -0.16651780943712882 0.9860384470902078 -1.8325278801081492e-17 -1.4091997957442008e-16 -1.8325278801081492e-17 -1.4091997957442008e-16 -0.1665184963933668 0.9860383310798323
12667898666.666666 -0.1544148559500543 0.9880060993039131 -2.006037623543913e-17 -1.4065549340570333e-16 -2.006037623543913e-17 -1.4065549340570333e-16 -0.15441554424358783 0.9880059917307004
12668516000.0 -0.14228868570743136 0.989825201699502 -2.1791737592739527e-17 -1.403696554685339e-16 -2.1791737592739527e-17 -1.403696554685339e-16 -0.14228937523464838 0.9898251025788051
12669133333.333334 -0.13014112191713872 0.9914954807693064 -2.3519100269183765e-17 -1.4006251767874727e-16 -2.3519100269183765e-17 -1.4006251767874727e-16 -0.13014181257425117 0.9914953901152018
12669750666.666666 -0.11797399100352693 0.9930166853817249 -2.5242202373129823e-17 -1.3973413518009919e-16 -2.5242202373129823e-17 -1.3973413518009919e-16 -0.11797468268658762 0.9930166032070196
12670368000.0 -0.10578912233283898 0.9943885868189839 -2.696078276470381e-17 -1.3938456633460634e-16 -2.696078276470381e-17 -1.3938456633460634e-16 -0.1057898149377561 0.9943885131352049
