! Parameters = {f0=12700.012000; bw=77.238000; Q=6100.000000; N=10; m_0_1=1.255551; m_1_1=0.068513; m_1_2=1.090363; m_2_2=0.067864; m_2_3=0.727326; m_2_8=-0.000159; m_2_9=0.036545; m_3_3=0.065927; m_3_4=0.615855; m_3_7=0.000441; m_3_8=-0.096647; m_3_9=-0.000159; m_4_4=0.063002; m_4_5=0.452190; m_4_6=0.003958; m_4_7=-0.117196; m_4_8=0.000441; m_5_5=0.063384; m_5_6=0.859545; m_5_7=0.003958; m_6_6=0.063383; m_6_7=0.452532; m_7_7=0.063016; m_7_8=0.615973; m_8_8=0.065925; m_8_9=0.727639; m_9_9=0.067859; m_9_10=1.091441; m_10_10=0.068503; m_10_11=1.256346}
!
! Created with skrf (http://scikit-rf.org).
# Hz S RI R 50.0 
!freq ReS11 ImS11 ReS21 ImS21 ReS12 ImS12 ReS22 ImS22
12607400000.0 -0.997502170207473 -0.07063582965612783 1.0083839476837069e-16 -2.2265236222953316e-17 1.0083839476837069e-16 -2.2265236222953316e-17 -0.9975021234799005 -0.0706364895285479
12608017333.333334 -0.9981644474310579 -0.060561835213931145 1.005867069006662e-16 -2.3286488218951124e-17 1.005867069006662e-16 -2.3286488218951124e-17 -0.9981644073696444 -0.06056249549213542
12608634666.666666 -0.9987249877661877 -0.050481668071248056 1.0032468364056015e-16 -2.4304924733577214e-17 1.0032468364056015e-16 -2.4304924733577214e-17 -0.9987249543743631 -0.0504823286879019
12609252000.0 -0.9991837340804417 -0.04039635563875885 1.0005235621077861e-16 -2.532044124557986e-17 1.0005235621077861e-16 -2.532044124557986e-17 -0.9991837073609564 -0.04039701652649976
12609869333.333334 -0.9995406396166451 -0.030306925851627597 9.976975689028724e-17 -2.6332933577419676e-17 9.976975689028724e-17 -2.6332933577419676e-17 -0.9995406195715688 -0.030307586943072007
12610486666.666666 -0.9997956679976413 -0.02021440706470273 9.947691901053151e-17 -2.73422979059386e-17 9.947691901053151e-17 -2.73422979059386e-17 -0.9997956546283644 -0.020215068292452943
12611104000.0 -0.9999487932300041 -0.010119827947475677 9.917387695156168e-17 -2.8348430773007155e-17 9.917387695156168e-17 -2.8348430773007155e-17 -0.9999487865372342 -0.010120489244126667
12611721333.333334 -0.9999999997066734 -2.4217379717752455e-05 9.886066613807195e-17 -2.9351229096059553e-17 9.886066613807195e-17 -2.9351229096059553e-17 -0.9999999996904395 -2.4878677864098608e-05
12612338666.666666 -0.9999492822085586 0.01007139565384194 9.853732303530602e-17 -3.035059017867871e-17 9.853732303530602e-17 -3.035059017867871e-17 -0.9999492888682092 0.01007073442159922
12612956000.0 -0.9997966459050637 0.020165982168309518 9.820388514487156e-17 -3.134641172108038e-17 9.820388514487156e-17 -3.134641172108038e-17 -0.9997966592392662 0.020165321069356094
12613573333.333334 -0.9995421063535646 0.030258513283163504 9.786039100045356e-17 -3.233859183054438e-17 9.786039100045356e-17 -3.233859183054438e-17 -0.9995421263603069 0.030257852384864867
12614190666.666666 -0.999185689497819 0.04034796032757713 9.750688016340958e-17 -3.33270290318354e-17 9.750688016340958e-17 -3.33270290318354e-17 -0.999185716174409 0.04034729969727172
12614808000.0 -0.9987274316653248 0.05043329494500875 9.714339321826502e-17 -3.4311622277562636e-17 9.714339321826502e-17 -3.4311622277562636e-17 -0.9987274650083909 0.05043263465000113
12615425333.333334 -0.9981673795636178 0.06051348919810139 9.676997176810804e-17 -3.5292270958479953e-17 9.676997176810804e-17 -3.5292270958479953e-17 -0.9981674195691084 0.06051282930565532
12616042666.666666 -0.9975055902755099 0.07058751567334037 9.638665842987552e-17 -3.6268874913750356e-17 9.638665842987552e-17 -3.6268874913750356e-17 -0.9975056369386968 0.07058685625067204
12616660000.0 -0.9967421312532706 0.08065434758594198 9.599349682954192e-17 -3.72413344411435e-17 9.599349682954192e-17 -3.72413344411435e-17 -0.9967421845687463 0.08065368870021315
12617277333.333334 -0.9958770803117494 0.09071295888445054 9.559053159719475e-17 -3.8209550307211936e-17 9.559053159719475e-17 -3.8209550307211936e-17 -0.9958771402734284 0.09071230060276157
12617894666.666666 -0.9949105256204637 0.10076232435509097 9.517780836202379e-17 -3.917342375737093e-17 9.517780836202379e-17 -3.917342375737093e-17 -0.9949105922215842 0.10076166674447412
12618512000.0 -0.9938425656945701 0.11080141972674398 9.475537374718503e-17 -4.01328565259844e-17 9.475537374718503e-17 -4.01328565259844e-17 -0.993842638927695 0.11080076285415663
12619129333.333334 -0.9926733093848692 0.12082922177486283 9.432327536459875e-17 -4.108775084631266e-17 9.432327536459875e-17 -4.108775084631266e-17 -0.9926733892418864 0.12082856570718063
12619746666.666666 -0.9914028758666945 0.13084470842596282 9.388156180960824e-17 -4.203800946049615e-17 9.388156180960824e-17 -4.203800946049615e-17 -0.991402962338816 0.13084405322997267
12620364000.0 -0.990031394627739 0.14084685886196366 9.343028265555974e-17 -4.298353562943099e-17 9.343028265555974e-17 -4.298353562943099e-17 -0.9900314877055049 0.14084620460435726
12620981333.333334 -0.9885590054549074 0.1508346536238692 9.296948844829515e-17 -4.39242331425635e-17 9.296948844829515e-17 -4.39242331425635e-17 -0.9885591051281851 0.15083400037123604
12621598666.666666 -0.9869858584200217 0.16080707471601255 9.249923070051181e-17 -4.4860006327700404e-17 9.249923070051181e-17 -4.4860006327700404e-17 -0.9869859646780074 0.16080642253483313
12622216000.0 -0.9853121138645629 0.1707631057095613 9.201956188605476e-17 -4.5790760060693004e-17 9.201956188605476e-17 -4.5790760060693004e-17 -0.9853122266957826 0.1707624546662004
12622833333.333334 -0.9835379423832928 0.18070173184634045 9.153053543409495e-17 -4.671639977509496e-17 9.153053543409495e-17 -4.671639977509496e-17 -0.9835380617756044 0.1807010820070406
12623450666.666666 -0.9816635248068978 0.1906219401420642 9.103220572322757e-17 -4.763683147172752e-17 9.103220572322757e-17 -4.763683147172752e-17 -0.9816636507474913 0.1906212915729386
12624068000.0 -0.9796890521835524 0.2005227194896403 9.052462807544835e-17 -4.855196172823155e-17 9.052462807544835e-17 -4.855196172823155e-17 -0.9796891846589508 0.20052207225666607
12624685333.333334 -0.9776147257594034 0.21040306076241996 9.000785875005205e-17 -4.9461697708518916e-17 9.000785875005205e-17 -4.9461697708518916e-17 -0.9776148647554664 0.21040241493143186
12625302666.666666 -0.975440756958141 0.2202619569166632 8.948195493744546e-17 -5.0365947172147844e-17 8.948195493744546e-17 -5.0365947172147844e-17 -0.9754409024600643 0.22026131255334647
12625920000.0 -0.9731673673593454 0.2300984030946524 8.894697475283793e-17 -5.1264618483680694e-17 8.894697475283793e-17 -5.1264618483680694e-17 -0.973167519351664 0.23009776026453654
12626537333.333334 -0.9707947886760179 0.23991139672661285 8.840297722986652e-17 -5.215762062192728e-17 8.840297722986652e-17 -5.215762062192728e-17 -0.9707949471426058 0.23991075549506452
12627154666.666666 -0.9683232627308859 0.24969993763323106 8.78500223141121e-17 -5.304486318914872e-17 8.78500223141121e-17 -5.304486318914872e-17 -0.96832342765496 0.2496992980654477
12627772000.0 -0.9657530414317334 0.25946302812767896 8.728817085652295e-17 -5.392625642019277e-17 8.728817085652295e-17 -5.392625642019277e-17 -0.9657532127958528 0.2594623902886818
12628389333.333334 -0.9630843867458442 0.269199673116834 8.671748460676497e-17 -5.480171119153306e-17 8.671748460676497e-17 -5.480171119153306e-17 -0.9630845645319137 0.2691990370714619
12629006666.666666 -0.9603175706731502 0.27890888020328053 8.613802620645092e-17 -5.567113903028501e-17 8.613802620645092e-17 -5.567113903028501e-17 -0.9603177548624225 0.27890824601618336
12629624000.0 -0.9574528752186116 0.2885896597860745 8.554985918231148e-17 -5.65344521231015e-17 8.554985918231148e-17 -5.65344521231015e-17 -0.9574530657916887 0.28858902752170634
12630241333.333334 -0.9544905923634516 0.29824102516168965 8.495304793926001e-17 -5.739156332502389e-17 8.495304793926001e-17 -5.739156332502389e-17 -0.9544907893002861 0.29824039488430226
12630858666.666666 -0.951431024035398 0.30786199262458724 8.434765775337261e-17 -5.824238616825562e-17 8.434765775337261e-17 -5.824238616825562e-17 -0.9514312273152965 0.3078613643982237
12631476000.0 -0.9482744820778404 0.3174515815676955 8.373375476476768e-17 -5.908683487087814e-17 8.373375476476768e-17 -5.908683487087814e-17 -0.9482746916794648 0.31745095545618346
12632093333.333334 -0.9450212882181821 0.327008814581923 8.311140597043e-17 -5.992482434545011e-17 8.311140597043e-17 -5.992482434545011e-17 -0.9450215041195525 0.32700819064886866
12632710666.666666 -0.9416717740349497 0.33653271755610703 8.24806792169267e-17 -6.075627020756217e-17 8.24806792169267e-17 -6.075627020756217e-17 -0.9416719962134446 0.3365320958648875
12633328000.0 -0.938226280923979 0.34602231977632236 8.184164319302204e-17 -6.158108878433614e-17 8.184164319302204e-17 -6.158108878433614e-17 -0.9382265093563412 0.346021700390081
12633945333.333334 -0.9346851600636866 0.3554766540246335 8.119436742224967e-17 -6.239919712279123e-17 8.119436742224967e-17 -6.239919712279123e-17 -0.9346853947260239 0.35547603700627234
12634562666.666666 -0.9310487723792708 0.3648947566777052 8.053892225536625e-17 -6.321051299817895e-17 8.053892225536625e-17 -6.321051299817895e-17 -0.9310490132470574 0.3648941420898787
12635180000.0 -0.9273174885058708 0.3742756678051511 7.987537886274339e-17 -6.401495492221139e-17 7.987537886274339e-17 -6.401495492221139e-17 -0.927317735553952 0.3742750557102601
12635797333.333334 -0.9234916887508129 0.3836184312673207 7.920380922665675e-17 -6.481244215123798e-17 7.920380922665675e-17 -6.481244215123798e-17 -0.9234919419534051 0.38361782172750536
12636414666.666666 -0.919571763054919 0.39292209481256757 7.852428613351809e-17 -6.560289469430907e-17 7.852428613351809e-17 -6.560289469430907e-17 -0.9195720223856153 0.39292148788970216
12637032000.0 -0.9155581109526375 0.4021857101746236 7.783688316600979e-17 -6.63862333211817e-17 7.783688316600979e-17 -6.63862333211817e-17 -0.9155583763844082 0.40218510593030943
12637649333.333334 -0.9114511415313934 0.4114083331690653 7.714167469514167e-17 -6.716237957024105e-17 7.714167469514167e-17 -6.716237957024105e-17 -0.9114514130365898 0.4114077316646245
12638266666.666666 -0.9072512733899174 0.42058902378949686 7.643873587223758e-17 -6.79312557563274e-17 7.643873587223758e-17 -6.79312557563274e-17 -0.9072515509402751 0.4205884250859667
12638884000.0 -0.9029589345955129 0.42972684630351643 7.572814262083604e-17 -6.869278497849147e-17 7.572814262083604e-17 -6.869278497849147e-17 -0.9029592181621529 0.42972625046164226
12639501333.333334 -0.8985745626404433 0.4388208693480352 7.500997162852262e-17 -6.944689112765368e-17 7.500997162852262e-17 -6.944689112765368e-17 -0.8985748521938779 0.4388202764282654
12640118666.666666 -0.8940986043974587 0.44787016602397756 7.428430033868161e-17 -7.019349889418599e-17 7.428430033868161e-17 -7.019349889418599e-17 -0.894098899907592 0.4478695760864565
12640736000.0 -0.889531516073971 0.4568738139913158 7.355120694214526e-17 -7.093253377543374e-17 7.355120694214526e-17 -7.093253377543374e-17 -0.889531817510103 0.4568732270958779
12641353333.333334 -0.8848737631659082 0.465830895562364 7.281077036885014e-17 -7.166392208306848e-17 7.281077036885014e-17 -7.166392208306848e-17 -0.8848740704967375 0.46583031176852785
12641970666.666666 -0.8801258204099747 0.4747404977958972 7.206307027931062e-17 -7.238759095046529e-17 7.206307027931062e-17 -7.238759095046529e-17 -0.8801261336036044 0.4747399171628601
12642588000.0 -0.8752881717354528 0.48360171258985046 7.130818705610352e-17 -7.310346833990726e-17 7.130818705610352e-17 -7.310346833990726e-17 -0.8752884907593886 0.48360113517648085
12643205333.333334 -0.8703613102147774 0.4924136367740484 7.054620179524825e-17 -7.381148304973425e-17 7.054620179524825e-17 -7.381148304973425e-17 -0.8703616350359351 0.49241306263888096
12643822666.666666 -0.8653457380132688 0.5011753722022859 6.977719629750998e-17 -7.4511564721408e-17 6.977719629750998e-17 -7.4511564721408e-17 -0.8653460685979771 0.5011748014035161
12644440000.0 -0.8602419663380612 0.5098860258436726 6.900125305966297e-17 -7.52036438464592e-17 6.900125305966297e-17 -7.52036438464592e-17 -0.8602423026520649 0.5098854584391501
12645057333.333334 -0.8550505153859016 0.5185447098738275 6.821845526565132e-17 -7.588765177337586e-17 6.821845526565132e-17 -7.588765177337586e-17 -0.8550508573943644 0.5185441459210499
12645674666.666666 -0.8497719142901872 0.5271505417652718 6.742888677770296e-17 -7.656352071438007e-17 6.742888677770296e-17 -7.656352071438007e-17 -0.8497722619576956 0.5271499813213795
12646292000.0 -0.8444067010668966 0.5357026443775962 6.663263212736133e-17 -7.723118375212568e-17 6.663263212736133e-17 -7.723118375212568e-17 -0.8444070543574643 0.5357020874993665
12646909333.333334 -0.8389554225600112 0.5442001460464527 6.582977650647621e-17 -7.789057484628324e-17 6.582977650647621e-17 -7.789057484628324e-17 -0.8389557814370827 0.5441995927902945
12647526666.666666 -0.8334186343855385 0.552642180672786 6.502040575810042e-17 -7.854162884005544e-17 6.502040575810042e-17 -7.854162884005544e-17 -0.8334189988119916 0.5526416310947325
12648144000.0 -0.8277969008749354 0.5610278878110074 6.420460636733307e-17 -7.918428146658831e-17 6.420460636733307e-17 -7.918428146658831e-17 -0.8277972708130862 0.5610273419667122
12648761333.333334 -0.8220907950177039 0.5693564127565335 6.338246545212126e-17 -7.981846935527272e-17 6.338246545212126e-17 -7.981846935527272e-17 -0.8220911704293108 0.5693558707012638
12649378666.666666 -0.8163008984028941 0.5776269066330416 6.255407075396731e-17 -8.04441300379748e-17 6.255407075396731e-17 -8.04441300379748e-17 -0.8163012792491616 0.5776263684216736
12649996000.0 -0.8104278011597937 0.5858385264790367 6.17195106285867e-17 -8.10612019551619e-17 6.17195106285867e-17 -8.10612019551619e-17 -0.8104281874013763 0.5858379921660495
12650613333.333334 -0.8044721018978785 0.5939904353336319 6.087887403651009e-17 -8.16696244619278e-17 6.087887403651009e-17 -8.16696244619278e-17 -0.8044724934948834 0.5939899049731009
12651230666.666666 -0.7984344076457649 0.6020818023218982 6.003225053364328e-17 -8.226933783390956e-17 6.003225053364328e-17 -8.226933783390956e-17 -0.7984348045577583 0.6020812759674917
12651848000.0 -0.7923153337892224 0.6101118027397125 5.917973026171267e-17 -8.286028327314727e-17 5.917973026171267e-17 -8.286028327314727e-17 -0.7923157359752331 0.6101112804446852
12652465333.333334 -0.7861155040086538 0.6180796181375408 5.832140393871939e-17 -8.344240291379772e-17 5.832140393871939e-17 -8.344240291379772e-17 -0.7861159114271771 0.6180790999547287
12653082666.666666 -0.7798355502154294 0.6259844364039961 5.745736284931663e-17 -8.401563982776522e-17 5.745736284931663e-17 -8.401563982776522e-17 -0.7798359628244296 0.6259839223858096
12653700000.0 -0.7734761124873659 0.6338254518487417 5.658769883508638e-17 -8.457993803026345e-17 5.658769883508638e-17 -8.457993803026345e-17 -0.773476530244285 0.6338249420471632
12654317333.333334 -0.7670378390037064 0.6416018652843462 5.571250428484367e-17 -8.513524248522247e-17 5.571250428484367e-17 -8.513524248522247e-17 -0.7670382618654654 0.6416013597509238
12654934666.666666 -0.7605213859789494 0.649312884107876 5.4831872124815896e-17 -8.568149911064365e-17 5.4831872124815896e-17 -8.568149911064365e-17 -0.760521813901951 0.6493123828937152
12655552000.0 -0.7539274175958472 0.6569577223818033 5.394589580880857e-17 -8.621865478382733e-17 5.394589580880857e-17 -8.621865478382733e-17 -0.7539278505359852 0.6569572255375666
12656169333.333334 -0.7472566059379385 0.6645356009138577 5.305466930831834e-17 -8.674665734650199e-17 5.305466930831834e-17 -8.674665734650199e-17 -0.7472570438505985 0.6645351084897569
12656786666.666666 -0.7405096309209129 0.6720457473365945 5.215828710257367e-17 -8.726545560986409e-17 5.215828710257367e-17 -8.726545560986409e-17 -0.7405100737609787 0.6720452593823858
12657404000.0 -0.7336871802232954 0.6794873961861385 5.125684416854931e-17 -8.777499935950251e-17 5.125684416854931e-17 -8.777499935950251e-17 -0.7336876279451519 0.6794869127511175
12658021333.333334 -0.7267899492163695 0.6868597889801792 5.035043597093007e-17 -8.82752393602208e-17 5.035043597093007e-17 -8.82752393602208e-17 -0.7267904017739087 0.6868593101131761
12658638666.666666 -0.7198186408934601 0.6941621742951146 4.9439158452021536e-17 -8.876612736076202e-17 4.9439158452021536e-17 -8.876612736076202e-17 -0.7198190982400873 0.6941617000444898
12659256000.0 -0.7127739657979713 0.70139380784297 4.8523108021601264e-17 -8.924761609843478e-17 4.8523108021601264e-17 -8.924761609843478e-17 -0.7127744278866063 0.7013933382566083
12659873333.333334 -0.7056566419512159 0.7085539525469903 4.7602381546759226e-17 -8.971965930361808e-17 4.7602381546759226e-17 -8.971965930361808e-17 -0.705657108734301 0.7085534876722966
12660490666.666666 -0.6984673947791952 0.7156418786168067 4.66770763416872e-17 -9.018221170416581e-17 4.66770763416872e-17 -9.018221170416581e-17 -0.6984678662086985 0.7156414185007013
12661108000.0 -0.6912069570385411 0.7226568636229437 4.5747290157374193e-17 -9.063522902973207e-17 4.5747290157374193e-17 -9.063522902973207e-17 -0.6912074330659616 0.7226564083118566
12661725333.333334 -0.6838760687419899 0.7295981925702875 4.481312117134578e-17 -9.107866801594808e-17 4.481312117134578e-17 -9.107866801594808e-17 -0.6838765493183631 0.7295977421101554
12662342666.666666 -0.6764754770827965 0.7364651579711238 4.387466797729863e-17 -9.151248640852556e-17 4.387466797729863e-17 -9.151248640852556e-17 -0.6764759621586989 0.736464712407384
12662960000.0 -0.6690059363587404 0.743257059917088 4.2932029574713906e-17 -9.193664296724457e-17 4.2932029574713906e-17 -9.193664296724457e-17 -0.6690064258842953 0.7432566192946749
12663577333.333334 -0.6614682078951013 0.7499732061506414 4.1985305358443265e-17 -9.235109746982988e-17 4.1985305358443265e-17 -9.235109746982988e-17 -0.6614687018199823 0.7499727705139805
12664194666.666666 -0.653863059967121 0.7566129121355663 4.103459510824476e-17 -9.27558107157264e-17 4.103459510824476e-17 -9.27558107157264e-17 -0.6538635582405594 0.7566124815285714
12664812000.0 -0.6461912677217654 0.7631755011266851 4.0079998978298715e-17 -9.315074452976016e-17 4.0079998978298715e-17 -9.315074452976016e-17 -0.6461917702925535 0.7631750755927531
12665429333.333334 -0.6384536130985662 0.769660304238965 3.9121617486659875e-17 -9.353586176570428e-17 3.9121617486659875e-17 -9.353586176570428e-17 -0.6384541199150633 0.7696598838209707
12666046666.666666 -0.6306508847501181 0.7760666605155278 3.815955150471846e-17 -9.391112630971904e-17 3.815955150471846e-17 -9.391112630971904e-17 -0.6306513957602563 0.7760662452558216
12666664000.0 -0.6227838779614108 0.7823939169952532 3.7193902246569714e-17 -9.4276503083707e-17 3.7193902246569714e-17 -9.4276503083707e-17 -0.6227843931127004 0.7823935069356557
12667281333.333334 -0.6148533945691699 0.7886414287790101 3.622477125843548e-17 -9.463195804852726e-17 3.622477125843548e-17 -9.463195804852726e-17 -0.6148539138087026 0.7886410239608063
12667898666.666666 -0.6068602428797722 0.7948085590956685 3.5252260407964094e-17 -9.497745820713614e-17 3.5252260407964094e-17 -9.497745820713614e-17 -0.6068607661542297 0.794808159559607
12668516000.0 -0.5988052375869285 0.8008946793669504 3.4276471873551805e-17 -9.531297160759788e-17 3.4276471873551805e-17 -9.531297160759788e-17 -0.5988057648425861 0.8008942851532369
12669133333.333334 -0.5906891996889165 0.806899169271289 3.3297508133661266e-17 -9.563846734597912e-17 3.3297508133661266e-17 -9.563846734597912e-17 -0.5906897308716483 0.8068987804195817
12669750666.666666 -0.582512956404539 0.8128214168073277 3.2315471956036614e-17 -9.595391556915896e-17 3.2315471956036614e-17 -9.595391556915896e-17 -0.5825134914598252 0.8128210333567365
12670368000.0 -0.5742773410889705 0.8186608183561808 3.133046638695818e-17 -9.625928747750725e-17 3.133046638695818e-17 -9.625928747750725e-17 -0.5742778799619007 0.8186604403452589
