! Parameters = {f0=12700.012000; bw=77.238000; Q=6100.000000; N=10; m_0_1=1.223919; m_1_1=-0.405962; m_1_2=1.058731; m_2_2=-0.406611; m_2_3=0.695694; m_2_8=-0.001740; m_2_9=0.034964; m_3_3=-0.408548; m_3_4=0.584223; m_3_7=-0.001140; m_3_8=-0.098228; m_3_9=-0.001740; m_4_4=-0.411473; m_4_5=0.420558; m_4_6=0.002377; m_4_7=-0.118777; m_4_8=-0.001140; m_5_5=-0.411091; m_5_6=0.827913; m_5_7=0.002377; m_6_6=-0.411092; m_6_7=0.420900; m_7_7=-0.411459; m_7_8=0.584341; m_8_8=-0.408550; m_8_9=0.696007; m_9_9=-0.406616; m_9_10=1.059809; m_10_10=-0.405972; m_10_11=1.224714}
!
! Created with skrf (http://scikit-rf.org).
# Hz S RI R 50.0 
!freq ReS11 ImS11 ReS21 ImS21 ReS12 ImS12 ReS22 ImS22
12607400000.0 -0.9457263686927276 -0.32496405271829953 8.84656842337063e-17 3.8032369870886315e-18 8.84656842337063e-17 3.8032369870886315e-18 -0.9457261591184478 -0.32496466263103785
12608017333.333334 -0.9486635338209729 -0.316287052530041 8.847974464051591e-17 2.9842506954346855e-18 8.847974464051591e-17 2.9842506954346855e-18 -0.9486633298526038 -0.3162876643070432
12608634666.666666 -0.9515210896933849 -0.30758351039766396 8.848622903601207e-17 2.1653298290267882e-18 8.848622903601207e-17 2.1653298290267882e-18 -0.9515208913474951 -0.3075841239874119
12609252000.0 -0.9542987965117279 -0.29885415669872173 8.848513983289822e-17 1.3465444150550912e-18 8.848513983289822e-17 1.3465444150550912e-18 -0.9542986038044105 -0.29885477204954963
12609869333.333334 -0.9569964211785136 -0.2900997239766941 8.847648009065473e-17 5.279644416942287e-19 8.847648009065473e-17 5.279644416942287e-19 -0.9569962341253867 -0.2901003410367934
12610486666.666666 -0.959613737316469 -0.28132094687981224 8.846025351502383e-17 -2.9034014785313404e-19 8.846025351502383e-17 -2.9034014785313404e-19 -0.9596135559326762 -0.2813215655972364
12611104000.0 -0.9621505252876641 -0.2725185620990039 8.843646445743965e-17 -1.1082994613467986e-18 8.843646445743965e-17 -1.1082994613467986e-18 -0.9621503495878695 -0.27251918242167167
12611721333.333334 -0.9646065722118122 -0.26369330830647764 8.840511791440369e-17 -1.925843663427469e-18 8.840511791440369e-17 -1.925843663427469e-18 -0.9646064022102031 -0.26369393018217874
12612338666.666666 -0.9669816719842219 -0.2548459260934648 8.83662195268045e-17 -2.742902981600905e-18 8.83662195268045e-17 -2.742902981600905e-18 -0.9669815076945062 -0.2548465494698637
12612956000.0 -0.9692756252930871 -0.24597715790807004 8.831977557918269e-17 -3.559407712164067e-18 8.831977557918269e-17 -3.559407712164067e-18 -0.9692754667284913 -0.24597778273271034
12613573333.333334 -0.9714882396361485 -0.23708774799321444 8.8265792998943e-17 -4.375288226125639e-18 8.8265792998943e-17 -4.375288226125639e-18 -0.9714880868094181 -0.23708837421352336
12614190666.666666 -0.973619329336919 -0.22817844232390544 8.820427935550857e-17 -5.190474975152932e-18 8.820427935550857e-17 -5.190474975152932e-18 -0.973619182260317 -0.22817906988719833
12614808000.0 -0.9756687155602257 -0.21924998854480257 8.813524285942338e-17 -6.004898497474473e-18 8.813524285942338e-17 -6.004898497474473e-18 -0.9756685742455301 -0.21925061739828694
12615425333.333334 -0.9776362263272455 -0.2103031359073378 8.805869236139873e-17 -6.818489423787896e-18 8.805869236139873e-17 -6.818489423787896e-18 -0.9776360907857504 -0.21030376599811837
12616042666.666666 -0.9795216965299015 -0.20133863520700757 8.797463735130639e-17 -7.631178483152652e-18 8.797463735130639e-17 -7.631178483152652e-18 -0.9795215667724164 -0.20133926648209038
12616660000.0 -0.9813249679447449 -0.19235723872025687 8.788308795711585e-17 -8.442896508884465e-18 8.788308795711585e-17 -8.442896508884465e-18 -0.9813248439815919 -0.19235787112655375
12617277333.333334 -0.9830458892462303 -0.1833597001413502 8.778405494377969e-17 -9.253574444416085e-18 8.778405494377969e-17 -9.253574444416085e-18 -0.9830457710872438 -0.18336033362568313
12617894666.666666 -0.9846843160193857 -0.17434677451926262 8.76775497120643e-17 -1.0063143349156375e-17 8.76775497120643e-17 -1.0063143349156375e-17 -0.9846842036739145 -0.1743474090283687
12618512000.0 -0.9862401107719948 -0.16531921819401196 8.756358429732309e-17 -1.0871534404364521e-17 8.756358429732309e-17 -1.0871534404364521e-17 -0.9862400042488961 -0.16531985367454705
12619129333.333334 -0.9877131429460569 -0.15627778873357898 8.744217136822368e-17 -1.167867891895186e-17 8.744217136822368e-17 -1.167867891895186e-17 -0.9877130422537003 -0.15627842513212287
12619746666.666666 -0.9891032889287996 -0.14722324487005567 8.73133242254131e-17 -1.2484508335330144e-17 8.73133242254131e-17 -1.2484508335330144e-17 -0.9891031940750626 -0.14722388213311616
12620364000.0 -0.9904104320630371 -0.13815634643600108 8.717705680013384e-17 -1.3288954235218798e-17 8.717705680013384e-17 -1.3288954235218798e-17 -0.990410343055309 -0.138156984510019
12620981333.333334 -0.9916344626569474 -0.12907785430081992 8.703338365278771e-17 -1.4091948345428098e-17 8.703338365278771e-17 -1.4091948345428098e-17 -0.9916343795021249 -0.12907849313217304
12621598666.666666 -0.9927752779932888 -0.11998853030679937 8.688231997144284e-17 -1.4893422543649933e-17 8.688231997144284e-17 -1.4893422543649933e-17 -0.9927752006977765 -0.11998916984180721
12622216000.0 -0.9938327823380155 -0.11088913720520549 8.672388157029007e-17 -1.5693308864221076e-17 8.672388157029007e-17 -1.5693308864221076e-17 -0.9938327109077276 -0.11088977739013395
12622833333.333334 -0.9948068869483194 -0.10178043859224746 8.655808488804531e-17 -1.649153950387574e-17 8.655808488804531e-17 -1.649153950387574e-17 -0.9948068213886754 -0.10178107937331292
12623450666.666666 -0.995697510080058 -0.09266319884511105 8.63849469863016e-17 -1.72880468274697e-17 8.63849469863016e-17 -1.72880468274697e-17 -0.9956974503959853 -0.09266384016848528
12624068000.0 -0.9965045769946358 -0.08353818305767347 8.620448554782391e-17 -1.8082763373709895e-17 8.620448554782391e-17 -1.8082763373709895e-17 -0.9965045231905683 -0.08353882486948795
12624685333.333334 -0.997228019965273 -0.07440615697626987 8.6016718874794e-17 -1.8875621860854597e-17 8.6016718874794e-17 -1.8875621860854597e-17 -0.9972279720451496 -0.0744067992226203
12625302666.666666 -0.9978677782826658 -0.06526788693571745 8.582166588700696e-17 -1.9666555192381517e-17 8.582166588700696e-17 -1.9666555192381517e-17 -0.9978677362499319 -0.06526852956266842
12625920000.0 -0.9984237982601136 -0.05612413979460999 8.561934612000611e-17 -2.0455496462674195e-17 8.561934612000611e-17 -2.0455496462674195e-17 -0.9984237621177212 -0.05612478274819945
12626537333.333334 -0.9988960332380018 -0.04697568287124871 8.540977972317814e-17 -2.1242378962643898e-17 8.540977972317814e-17 -2.1242378962643898e-17 -0.9988960029884083 -0.046976326097492464
12627154666.666666 -0.9992844435877233 -0.037823283879251136 8.519298745778714e-17 -2.2027136185368776e-17 8.519298745778714e-17 -2.2027136185368776e-17 -0.9992844192328901 -0.037823927324147355
12627772000.0 -0.9995889967150106 -0.02866771086284258 8.496899069495588e-17 -2.280970183171585e-17 8.496899069495588e-17 -2.280970183171585e-17 -0.9995889782564046 -0.028668354472376353
12628389333.333334 -0.9998096670626578 -0.01950973213283006 8.473781141360948e-17 -2.3590009815894958e-17 8.473781141360948e-17 -2.3590009815894958e-17 -0.9998096545012516 -0.019510375852977994
12629006666.666666 -0.9999464361126789 -0.010350116201701686 8.449947219834882e-17 -2.4367994271059613e-17 8.449947219834882e-17 -2.4367994271059613e-17 -0.9999464294489505 -0.010350759978436375
12629624000.0 -0.9999992923878541 -0.0011896317194476673 8.425399623728752e-17 -2.5143589554836486e-17 8.425399623728752e-17 -2.5143589554836486e-17 -0.999999291621786 -0.001190275498742233
12630241333.333334 -0.9999682314526929 0.00797095259111319 8.400140731983289e-17 -2.5916730254850268e-17 8.400140731983289e-17 -2.5916730254850268e-17 -0.9999682365837728 0.00797030886328056
12630858666.666666 -0.9998532559138106 0.01713086799867206 8.374172983441879e-17 -2.6687351194222198e-17 8.374172983441879e-17 -2.6687351194222198e-17 -0.9998532669410317 0.017130224376313587
12631476000.0 -0.9996543754197058 0.026289345828224196 8.3474988766178e-17 -2.7455387437074552e-17 8.3474988766178e-17 -2.7455387437074552e-17 -0.9996543923415648 0.026288702365337917
12632093333.333334 -0.9993716066599481 0.03544561752531806 8.320120969458287e-17 -2.822077429395791e-17 8.320120969458287e-17 -2.822077429395791e-17 -0.9993716294744508 0.035444974275883445
12632710666.666666 -0.9990049733637895 0.04459891472055066 8.292041879102117e-17 -2.898344732730039e-17 8.292041879102117e-17 -2.898344732730039e-17 -0.9990050020684448 0.04459827173852393
12633328000.0 -0.9985545062981569 0.05374846929430243 8.263264281632346e-17 -2.974334235682814e-17 8.263264281632346e-17 -2.974334235682814e-17 -0.9985545408899807 0.05374782663361213
12633945333.333334 -0.9980202432650823 0.06289351344091176 8.23379091182485e-17 -3.0500395464940756e-17 8.23379091182485e-17 -3.0500395464940756e-17 -0.998020283740596 0.06289287115545415
12634562666.666666 -0.9974022290985259 0.07203327973324922 8.203624562891653e-17 -3.125454300207149e-17 8.203624562891653e-17 -3.125454300207149e-17 -0.997402275453758 0.07203263787688383
12635180000.0 -0.9967005156606131 0.08116700118708937 8.172768086218976e-17 -3.200572159203187e-17 8.172768086218976e-17 -3.200572159203187e-17 -0.9967005678910992 0.08116635981363446
12635797333.333334 -0.9959151618372818 0.09029391132550249 8.141224391100698e-17 -3.275386813732373e-17 8.141224391100698e-17 -3.275386813732373e-17 -0.9959152199380654 0.09029327048873058
12636414666.666666 -0.9950462335333498 0.09941324424306183 8.108996444467346e-17 -3.349891982441623e-17 8.108996444467346e-17 -3.349891982441623e-17 -0.9950462974989822 0.09941260399669517
12637032000.0 -0.9940938036669713 0.10852423467028655 8.076087270609295e-17 -3.4240814129019517e-17 8.076087270609295e-17 -3.4240814129019517e-17 -0.9940938734915106 0.1085235950679924
12637649333.333334 -0.9930579521635245 0.11762611803771861 8.042499950896249e-17 -3.497948882130627e-17 8.042499950896249e-17 -3.497948882130627e-17 -0.9930580278405405 0.11762547913310527
12638266666.666666 -0.9919387659489004 0.12671813054022607 8.008237623490978e-17 -3.57148819711291e-17 8.008237623490978e-17 -3.57148819711291e-17 -0.99193884747147 0.12671749238683777
12638884000.0 -0.9907363389422154 0.13579950920092865 7.973303483059386e-17 -3.644693195318497e-17 7.973303483059386e-17 -3.644693195318497e-17 -0.990736426302927 0.13579887185224154
12639501333.333334 -0.9894507720479202 0.14486949193536655 7.937700780474735e-17 -3.717557745217658e-17 7.937700780474735e-17 -3.717557745217658e-17 -0.9894508652388733 0.144868855444784
12640118666.666666 -0.9880821731473595 0.1539273176152556 7.901432822518544e-17 -3.79007574679186e-17 7.901432822518544e-17 -3.79007574679186e-17 -0.9880822721601642 0.15392668203610368
12640736000.0 -0.98663065708965 0.16297222613280843 7.864502971574171e-17 -3.862241132046574e-17 7.864502971574171e-17 -3.862241132046574e-17 -0.9866307619154284 0.16297159151833146
12641353333.333334 -0.9850963456821438 0.17200345846384615 7.826914645320287e-17 -3.934047865512279e-17 7.826914645320287e-17 -3.934047865512279e-17 -0.9850964563115325 0.17200282486720253
12641970666.666666 -0.9834793676801199 0.18102025673208422 7.788671316414797e-17 -4.005489944752248e-17 7.788671316414797e-17 -4.005489944752248e-17 -0.9834794841032687 0.18101962420634155
12642588000.0 -0.9817798587760194 0.19002186427244963 7.749776512177113e-17 -4.0765614008615594e-17 7.749776512177113e-17 -4.0765614008615594e-17 -0.9817799809825932 0.19002123287058073
12643205333.333334 -0.9799979615880628 0.19900752569457927 7.710233814265765e-17 -4.1472562989632535e-17 7.710233814265765e-17 -4.1472562989632535e-17 -0.9799980895672425 0.1990068954694573
12643822666.666666 -0.9781338256482375 0.20797648694643303 7.670046858349999e-17 -4.2175687387042627e-17 7.670046858349999e-17 -4.2175687387042627e-17 -0.9781339593887197 0.20797585795082718
12644440000.0 -0.9761876073898087 0.21692799537726465 7.629219333778514e-17 -4.287492854745115e-17 7.629219333778514e-17 -4.287492854745115e-17 -0.9761877468798079 0.21692736766383583
12645057333.333334 -0.9741594701341644 0.225861299800922 7.587754983242929e-17 -4.357022817248001e-17 7.587754983242929e-17 -4.357022817248001e-17 -0.9741596153614143 0.22586067342221847
12645674666.666666 -0.9720495840771199 0.23477565055885724 7.545657602436956e-17 -4.426152832361393e-17 7.545657602436956e-17 -4.426152832361393e-17 -0.9720497350288745 0.2347750255673102
12646292000.0 -0.9698581262745881 0.24367029958322922 7.502931039710359e-17 -4.49487714270266e-17 7.502931039710359e-17 -4.49487714270266e-17 -0.9698582829376219 0.2436696760311484
12646909333.333334 -0.9675852806278058 0.2525445004593205 7.4595791957205e-17 -4.5631900278342e-17 7.4595791957205e-17 -4.5631900278342e-17 -0.9675854429884131 0.25254387839888903
12647526666.666666 -0.9652312378678323 0.2613975084884489 7.415606023077863e-17 -4.631085804738976e-17 7.415606023077863e-17 -4.631085804738976e-17 -0.9652314059118344 0.2613968879717207
12648144000.0 -0.9627961955395558 0.2702285807504353 7.37101552598741e-17 -4.698558828292469e-17 7.37101552598741e-17 -4.698558828292469e-17 -0.9627963692522958 0.2702279618293289
12648761333.333334 -0.9602803579851455 0.2790369761658079 7.32581175988671e-17 -4.765603491729505e-17 7.32581175988671e-17 -4.765603491729505e-17 -0.960280537351494 0.2790363588921035
12649378666.666666 -0.9576839363268795 0.28782195555810286 7.279998831079217e-17 -4.8322142271087096e-17 7.279998831079217e-17 -4.8322142271087096e-17 -0.9576841213312327 0.2878213399834367
12649996000.0 -0.9550071484494322 0.29658278171586544 7.233580896362566e-17 -4.898385505774443e-17 7.233580896362566e-17 -4.898385505774443e-17 -0.9550073390757163 0.2965821678917268
12650613333.333334 -0.9522502189815839 0.3053187194545429 7.186562162654018e-17 -4.964111838813374e-17 7.186562162654018e-17 -4.964111838813374e-17 -0.9522504152132539 0.3053181074322688
12651230666.666666 -0.949413379277412 0.3140290356780433 7.138946886611188e-17 -5.029387777508307e-17 7.138946886611188e-17 -5.029387777508307e-17 -0.9494135810974541 0.31402842550881443
12651848000.0 -0.9464968673967897 0.3227129994405249 7.090739374248063e-17 -5.094207913789167e-17 7.090739374248063e-17 -5.094207913789167e-17 -0.9464970747877235 0.32271239117536193
12652465333.333334 -0.9435009280854879 0.3313698820074929 7.041943980548272e-17 -5.1585668806785395e-17 7.041943980548272e-17 -5.1585668806785395e-17 -0.9435011410293663 0.3313692756972512
12653082666.666666 -0.9404258127546382 0.3399989569169527 6.9925651090738e-17 -5.222459352734372e-17 6.9925651090738e-17 -5.222459352734372e-17 -0.9404260312330506 0.3399983526123188
12653700000.0 -0.9372717794595407 0.34859950004064066 6.942607211567952e-17 -5.285880046491054e-17 6.942607211567952e-17 -5.285880046491054e-17 -0.9372720034536135 0.3485988977921281
12654317333.333334 -0.9340390928781516 0.35717078964438986 6.892074787558047e-17 -5.3488237208920555e-17 6.892074787558047e-17 -5.3488237208920555e-17 -0.9340393223685518 0.3571701895023348
12654934666.666666 -0.9307280242887397 0.36571210644907043 6.840972383950662e-17 -5.4112851777232774e-17 6.840972383950662e-17 -5.4112851777232774e-17 -0.9307282592556736 0.3657115084636273
12655552000.0 -0.9273388515471737 0.3742227336907877 6.789304594623718e-17 -5.473259262041558e-17 6.789304594623718e-17 -5.473259262041558e-17 -0.9273390919703893 0.3742221379119246
12656169333.333334 -0.923871859063661 0.3827019571808998 6.737076060017712e-17 -5.5347408625956757e-17 6.737076060017712e-17 -5.5347408625956757e-17 -0.923872104922452 0.38270136365839535
12656786666.666666 -0.9203273377787898 0.39114906536618993 6.684291466718563e-17 -5.59572491224903e-17 6.684291466718563e-17 -5.59572491224903e-17 -0.9203275890519935 0.3911484741496278
12657404000.0 -0.9167055851391588 0.39956334938844207 6.630955547039826e-17 -5.656206388394534e-17 6.630955547039826e-17 -5.656206388394534e-17 -0.9167058418051638 0.39956276052720885
12658021333.333334 -0.9130069050724033 0.4079441031439833 6.577073078599884e-17 -5.716180313367074e-17 6.577073078599884e-17 -5.716180313367074e-17 -0.9130071671091453 0.4079435166872622
12658638666.666666 -0.9092316079617432 0.4162906233428054 6.522648883896611e-17 -5.775641754850675e-17 6.522648883896611e-17 -5.775641754850675e-17 -0.9092318753467096 0.41629003933957326
12659256000.0 -0.9053800106198183 0.4246022095678426 6.46768782987599e-17 -5.834585826284182e-17 6.46768782987599e-17 -5.834585826284182e-17 -0.9053802833300513 0.424601628066866
12659873333.333334 -0.9014524362622267 0.43287816433349136 6.412194827499485e-17 -5.893007687260332e-17 6.412194827499485e-17 -5.893007687260332e-17 -0.9014527142743222 0.4328775853833216
12660490666.666666 -0.8974492144803461 0.4411177931442428 6.356174831307951e-17 -5.950902543920526e-17 6.356174831307951e-17 -5.950902543920526e-17 -0.8974494977704581 0.4411172167932127
12661108000.0 -0.8933706812136301 0.4493204045530664 6.299632838978631e-17 -6.008265649349098e-17 6.299632838978631e-17 -6.008265649349098e-17 -0.8933709697574725 0.449319830849286
12661725333.333334 -0.889217178721542 0.45748531021917893 6.242573890883581e-17 -6.065092303958217e-17 6.242573890883581e-17 -6.065092303958217e-17 -0.8892174724943891 0.45748473921053096
12662342666.666666 -0.8849890555547054 0.4656118249660621 6.185003069640121e-17 -6.121377855873192e-17 6.185003069640121e-17 -6.121377855873192e-17 -0.8849893545313968 0.4656112567001995
12662960000.0 -0.8806866665257216 0.47369926683883556 6.126925499660656e-17 -6.177117701310756e-17 6.126925499660656e-17 -6.177117701310756e-17 -0.8806869706806606 0.4736987013631752
12663577333.333334 -0.8763103726793764 0.48174695716150695 6.068346346698202e-17 -6.232307284953947e-17 6.068346346698202e-17 -6.232307284953947e-17 -0.8763106819865359 0.4817463945232278
12664194666.666666 -0.8718605412623465 0.4897542205939264 6.009270817387877e-17 -6.28694210032341e-17 6.009270817387877e-17 -6.28694210032341e-17 -0.8718608556952706 0.48975366083996535
12664812000.0 -0.8673375456923834 0.49772038518846123 5.949704158786801e-17 -6.341017690142627e-17 5.949704158786801e-17 -6.341017690142627e-17 -0.867337865224186 0.49771982836550704
12665429333.333334 -0.862741765526969 0.505644782446379 5.889651657908812e-17 -6.394529646700702e-17 5.889651657908812e-17 -6.394529646700702e-17 -0.8627420901303401 0.5056442286008709
12666046666.666666 -0.8580735864314867 0.5135267473739261 5.829118641257916e-17 -6.447473612208942e-17 5.829118641257916e-17 -6.447473612208942e-17 -0.8580739160786931 0.5135261965520486
12666664000.0 -0.8533334001467797 0.5213656185382518 5.768110474355413e-17 -6.499845279155784e-17 5.768110474355413e-17 -6.499845279155784e-17 -0.853333734809669 0.5213650707859316
12667281333.333334 -0.8485216044564264 0.5291607381226713 5.706632561268487e-17 -6.551640390653215e-17 5.706632561268487e-17 -6.551640390653215e-17 -0.848521944106426 0.5291601934855726
12667898666.666666 -0.8436386031532258 0.5369114519820867 5.644690344131471e-17 -6.602854740782519e-17 5.644690344131471e-17 -6.602854740782519e-17 -0.8436389477613492 0.5369109105056082
12668516000.0 -0.8386848060053103 0.544617109697879 5.582289302664855e-17 -6.653484174934602e-17 5.582289302664855e-17 -6.653484174934602e-17 -0.8386851555421576 0.5446165714271504
12669133333.333334 -0.8336606287218998 0.5522770646322774 5.519434953695e-17 -6.70352459014292e-17 5.519434953695e-17 -6.70352459014292e-17 -0.8336609831576587 0.5522765296121531
12669750666.666666 -0.8285664929182573 0.5598906739828565 5.4561328506652275e-17 -6.752971935416311e-17 5.4561328506652275e-17 -6.752971935416311e-17 -0.8285668522227092 0.5598901422579156
12670368000.0 -0.8234028260803744 0.5674572988363882 5.3923885831477057e-17 -6.801822212064371e-17 5.3923885831477057e-17 -6.801822212064371e-17 -0.8234031902228947 0.5674567704509283
