! Parameters = {f0=12700.012000; bw=77.238000; Q=6100.000000; N=10; m_0_1=1.246341; m_1_1=-0.069626; m_1_2=1.081153; m_2_2=-0.070275; m_2_3=0.718116; m_2_8=-0.000619; m_2_9=0.036085; m_3_3=-0.072212; m_3_4=0.606645; m_3_7=-0.000019; m_3_8=-0.097107; m_3_9=-0.000619; m_4_4=-0.075137; m_4_5=0.442980; m_4_6=0.003498; m_4_7=-0.117656; m_4_8=-0.000019; m_5_5=-0.074755; m_5_6=0.850335; m_5_7=0.003498; m_6_6=-0.074756; m_6_7=0.443322; m_7_7=-0.075123; m_7_8=0.606763; m_8_8=-0.072214; m_8_9=0.718429; m_9_9=-0.070280; m_9_10=1.082231; m_10_10=-0.069636; m_10_11=1.247136}
!
! Created with skrf (http://scikit-rf.org).
# Hz S RI R 50.0 
!freq ReS11 ImS11 ReS21 ImS21 ReS12 ImS12 ReS22 ImS22
12607400000.0 -0.7967684533959634 0.6042847273205201 5.851778891190151e-17 -7.960142194129038e-17 5.851778891190151e-17 -7.960142194129038e-17 -0.7967688502230551 0.6042842040911384
12608017333.333334 -0.7907938922807881 0.6120825270592444 5.7714594915461e-17 -8.016184116793914e-17 5.7714594915461e-17 -8.016184116793914e-17 -0.7907942942089315 0.6120820077787186
12608634666.666666 -0.7847430187172632 0.6198212601826002 5.690604439272121e-17 -8.071416414092417e-17 5.690604439272121e-17 -8.071416414092417e-17 -0.7847434257071737 0.6198207449006521
12609252000.0 -0.7786164166212001 0.627500179894629 5.609221887498722e-17 -8.125833977004147e-17 5.609221887498722e-17 -8.125833977004147e-17 -0.778616828633109 0.6274996686605896
12609869333.333334 -0.7724146772162236 0.6351185451715192 5.527320037975055e-17 -8.179431778535291e-17 5.527320037975055e-17 -8.179431778535291e-17 -0.7724150942098815 0.6351180380343243
12610486666.666666 -0.7661383989768593 0.64267562083294 5.44490714024655e-17 -8.23220487417876e-17 5.44490714024655e-17 -8.23220487417876e-17 -0.7661388209115402 0.6426751178411255
12611104000.0 -0.7597881875706368 0.6501706776131617 5.361991490822048e-17 -8.284148402370058e-17 5.361991490822048e-17 -8.284148402370058e-17 -0.7597886144051419 0.6501701788148588
12611721333.333334 -0.7533646557997857 0.6576029922312557 5.278581432344696e-17 -8.335257584929646e-17 5.278581432344696e-17 -8.335257584929646e-17 -0.7533650874924472 0.6576024976741861
12612338666.666666 -0.7468684235419928 0.6649718474610246 5.194685352752941e-17 -8.385527727500574e-17 5.194685352752941e-17 -8.385527727500574e-17 -0.7468688600506787 0.664971357192496
12612956000.0 -0.7403001176905425 0.672276532200254 5.1103116844376346e-17 -8.434954219977549e-17 5.1103116844376346e-17 -8.434954219977549e-17 -0.7403005589726593 0.6722760462671553
12613573333.333334 -0.7336603720940656 0.6795163415390595 5.025468903399653e-17 -8.483532536924766e-17 5.025468903399653e-17 -8.483532536924766e-17 -0.7336608181065641 0.6795158599878576
12614190666.666666 -0.7269498274950712 0.6866905768282519 4.940165528397577e-17 -8.531258237988923e-17 4.940165528397577e-17 -8.531258237988923e-17 -0.7269502781944497 0.6866900997049853
12614808000.0 -0.7201691314682646 0.6937985457465845 4.854410120096526e-17 -8.578126968300645e-17 4.854410120096526e-17 -8.578126968300645e-17 -0.720169586810574 0.6937980730968611
12615425333.333334 -0.7133189383580971 0.7008395623675276 4.768211280209414e-17 -8.624134458869742e-17 4.768211280209414e-17 -8.624134458869742e-17 -0.7133193982989439 0.7008390942365184
12616042666.666666 -0.7063999092155018 0.7078129472255796 4.681577650637091e-17 -8.669276526970175e-17 4.681577650637091e-17 -8.669276526970175e-17 -0.7064003737100532 0.707812483658015
12616660000.0 -0.6994127117341805 0.7147180273817567 4.594517912603475e-17 -8.713549076517363e-17 4.594517912603475e-17 -8.713549076517363e-17 -0.6994131807371692 0.714717568421923
12617277333.333334 -0.692358020186112 0.7215541364885925 4.507040785788389e-17 -8.756948098436131e-17 4.507040785788389e-17 -8.756948098436131e-17 -0.6923584936518389 0.7215536821803259
12617894666.666666 -0.6852365153566636 0.7283206148542605 4.419155027455944e-17 -8.799469671020482e-17 4.419155027455944e-17 -8.799469671020482e-17 -0.6852369932390051 0.7283201652409458
12618512000.0 -0.6780488844785512 0.7350168095065736 4.330869431578088e-17 -8.84110996028539e-17 4.330869431578088e-17 -8.84110996028539e-17 -0.6780493667309612 0.7350163646311374
12619129333.333334 -0.6707958211658672 0.7416420742556615 4.242192827959655e-17 -8.881865220307511e-17 4.242192827959655e-17 -8.881865220307511e-17 -0.6707963077413824 0.741641634160569
12619746666.666666 -0.6634780253470036 0.7481957697564665 4.1531340813557206e-17 -8.921731793559319e-17 4.1531340813557206e-17 -8.921731793559319e-17 -0.6634785161982482 0.7481953344837174
12620364000.0 -0.6560962031969796 0.7546772635705526 4.0637020905858376e-17 -8.960706111234384e-17 4.0637020905858376e-17 -8.960706111234384e-17 -0.6560966982761701 0.7546768331616777
12620981333.333334 -0.6486510670695503 0.7610859302269124 3.9739057876501354e-17 -8.998784693561627e-17 3.9739057876501354e-17 -8.998784693561627e-17 -0.6486515663284993 0.7610855047229681
12621598666.666666 -0.6411433354283134 0.767421151282454 3.883754136836115e-17 -9.035964150113585e-17 3.883754136836115e-17 -9.035964150113585e-17 -0.6411438388184358 0.7674207307240205
12622216000.0 -0.6335737327773584 0.7736823153817046 3.793256133827985e-17 -9.072241180103355e-17 3.793256133827985e-17 -9.072241180103355e-17 -0.6335742402496746 0.7736818998088801
12622833333.333334 -0.6259429895913886 0.7798688183157629 3.702420804808932e-17 -9.10761257267459e-17 3.702420804808932e-17 -9.10761257267459e-17 -0.6259435010965305 0.7798684077681618
12623450666.666666 -0.6182518422452797 0.7859800630805774 3.6112572055645895e-17 -9.142075207180889e-17 3.6112572055645895e-17 -9.142075207180889e-17 -0.6182523577334939 0.7859796575973237
12624068000.0 -0.6105010329429921 0.7920154599345705 3.519774420581619e-17 -9.175626053457128e-17 3.519774420581619e-17 -9.175626053457128e-17 -0.6105015523641469 0.7920150595542973
12624685333.333334 -0.6026913096457953 0.7979744264556767 3.427981562142543e-17 -9.208262172082383e-17 3.427981562142543e-17 -9.208262172082383e-17 -0.6026918329493832 0.7979740312165194
12625302666.666666 -0.5948234260003764 0.8038563875973159 3.3358877694236685e-17 -9.239980714631705e-17 3.3358877694236685e-17 -9.239980714631705e-17 -0.5948239531355208 0.8038559975369107
12625920000.0 -0.5868981412658435 0.8096607757440947 3.243502207582602e-17 -9.27077892392186e-17 3.243502207582602e-17 -9.27077892392186e-17 -0.5868986721813035 0.8096603908995751
12626537333.333334 -0.5789162202406393 0.8153870307664471 3.1508340668527856e-17 -9.300654134244739e-17 3.1508340668527856e-17 -9.300654134244739e-17 -0.5789167548848138 0.8153866511744393
12627154666.666666 -0.5708784331886667 0.8210346000747372 3.0578925616280096e-17 -9.329603771594491e-17 3.0578925616280096e-17 -9.329603771594491e-17 -0.5708789715096001 0.8210342257713568
12627772000.0 -0.5627855557648903 0.826602938672634 2.964686929547543e-17 -9.357625353884558e-17 2.964686929547543e-17 -9.357625353884558e-17 -0.5627860977102768 0.8266025696934826
12628389333.333334 -0.5546383689406683 0.8320915092095734 2.871226430583057e-17 -9.384716491154459e-17 2.871226430583057e-17 -9.384716491154459e-17 -0.554638914457858 0.832091145589736
12629006666.666666 -0.5464376589281328 0.8374997820327907 2.7775203461176075e-17 -9.410874885769388e-17 2.7775203461176075e-17 -9.410874885769388e-17 -0.546438207964136 0.8374994238068312
12629624000.0 -0.5381842171045289 0.8428272352382883 2.683577978027133e-17 -9.436098332609349e-17 2.683577978027133e-17 -9.436098332609349e-17 -0.5381847696060212 0.842826882440246
12630241333.333334 -0.5298788399358001 0.8480733547212306 2.589408647758423e-17 -9.460384719249664e-17 2.589408647758423e-17 -9.460384719249664e-17 -0.5298793958491288 0.8480730073846194
12630858666.666666 -0.5215223288997299 0.8532376342255619 2.495021695407156e-17 -9.483732026131918e-17 2.495021695407156e-17 -9.483732026131918e-17 -0.5215228881709176 0.853237292383364
12631476000.0 -0.5131154904084039 0.8583195753929737 2.400426478791471e-17 -9.506138326726424e-17 2.400426478791471e-17 -9.506138326726424e-17 -0.5131160529831552 0.8583192390776394
12632093333.333334 -0.5046591357307766 0.8633186878107622 2.3056323725279766e-17 -9.5276017876846e-17 2.3056323725279766e-17 -9.5276017876846e-17 -0.5046597015544821 0.8633183570542046
12632710666.666666 -0.49615408091409535 0.8682344890593325 2.2106487671040237e-17 -9.548120668982742e-17 2.2106487671040237e-17 -9.548120668982742e-17 -0.49615464993183744 0.8682341638929246
12633328000.0 -0.4876011467051218 0.8730665047587622 2.1154850679474064e-17 -9.567693324056781e-17 2.1154850679474064e-17 -9.567693324056781e-17 -0.4876017188616801 0.8730661852133351
12633945333.333334 -0.47900115847110125 0.877814268614479 2.0201506945004186e-17 -9.586318199926693e-17 2.0201506945004186e-17 -9.586318199926693e-17 -0.4790017337109585 0.877813954720319
12634562666.666666 -0.4703549461200937 0.88247732246228 1.9246550792863663e-17 -9.603993837313118e-17 1.9246550792863663e-17 -9.603993837313118e-17 -0.4703555243874394 0.8824770142491231
12635180000.0 -0.4616633440207571 0.8870552163126048 1.8290076669794992e-17 -9.620718870743683e-17 1.8290076669794992e-17 -9.620718870743683e-17 -0.4616639252594952 0.8870549138096386
12635797333.333334 -0.45292719092188355 0.8915475083939406 1.7332179134719444e-17 -9.636492028650622e-17 1.7332179134719444e-17 -9.636492028650622e-17 -0.45292777507563564 0.8915472116297962
12636414666.666666 -0.4441473298716323 0.8959537651953535 1.6372952849429133e-17 -9.651312133458548e-17 1.6372952849429133e-17 -9.651312133458548e-17 -0.4441479168837454 0.895953474198108
12637032000.0 -0.4353246081358752 0.9002735615084877 1.541249256921782e-17 -9.665178101663959e-17 1.541249256921782e-17 -9.665178101663959e-17 -0.43532519794942565 0.900273276305658
12637649333.333334 -0.4264598771166094 0.9045064804685026 1.4450893133558234e-17 -9.678088943904532e-17 1.4450893133558234e-17 -9.678088943904532e-17 -0.42646046967440826 0.9045062010870426
12638266666.666666 -0.4175539922698469 0.9086521135942744 1.3488249456761066e-17 -9.69004376501937e-17 1.3488249456761066e-17 -9.69004376501937e-17 -0.41755458751444663 0.9086518400605756
12638884000.0 -0.40860781302291166 0.9127100608278976 1.252465651860844e-17 -9.701041764100457e-17 1.252465651860844e-17 -9.701041764100457e-17 -0.40860841089661065 0.9127097931677829
12639501333.333334 -0.39962220269157644 0.9166799305732425 1.1560209355009056e-17 -9.711082234534223e-17 1.1560209355009056e-17 -9.711082234534223e-17 -0.3996228031364252 0.9166796688119663
12640118666.666666 -0.39059802839685914 0.9205613397337067 1.0595003048654607e-17 -9.720164564034093e-17 1.0595003048654607e-17 -9.720164564034093e-17 -0.3905986313546662 0.9205610838959531
12640736000.0 -0.3815361609810319 0.9243539137493205 9.629132719630751e-18 -9.728288234664006e-17 9.629132719630751e-18 -9.728288234664006e-17 -0.3815367663933684 0.9243536638591975
12641353333.333334 -0.37243747492405266 0.9280572866326873 8.662693516111276e-18 -9.735452822852035e-17 8.662693516111276e-18 -9.735452822852035e-17 -0.3724380827322587 0.9280570427137272
12641970666.666666 -0.3633028482587065 0.9316711010045025 7.695780604956104e-18 -9.741657999395475e-17 7.695780604956104e-18 -9.741657999395475e-17 -0.3633034584038967 0.9316708630796596
12642588000.0 -0.35413316248621585 0.9351950081278997 6.7284891623804484e-18 -9.74690352945613e-17 6.7284891623804484e-18 -9.74690352945613e-17 -0.3541337749092853 0.9351947762195476
12643205333.333334 -0.34492930249099035 0.9386286679421791 5.760914364612839e-18 -9.751189272546484e-17 5.760914364612839e-18 -9.751189272546484e-17 -0.34492991713262017 0.9386284420721089
12643822666.666666 -0.3356921564552336 0.9419717490956215 4.793151378520739e-18 -9.754515182506783e-17 4.793151378520739e-18 -9.754515182506783e-17 -0.3356927732558967 0.9419715292850396
12644440000.0 -0.326422615773313 0.9452239289774347 3.82529535229344e-18 -9.756881307472608e-17 3.82529535229344e-18 -9.756881307472608e-17 -0.32642323467327905 0.9452237152469593
12645057333.333334 -0.31712157496581916 0.9483848937488562 2.8574414060971426e-18 -9.758287789833351e-17 2.8574414060971426e-18 -9.758287789833351e-17 -0.31712219590516166 0.9483846861185178
12645674666.666666 -0.3077899315930841 0.9514543383735006 1.8896846227558606e-18 -9.75873486618143e-17 1.8896846227558606e-18 -9.75873486618143e-17 -0.30779055451168547 0.9514541368627392
12646292000.0 -0.29842858616845647 0.9544319666468256 9.221200383924614e-19 -9.758222867252261e-17 9.221200383924614e-19 -9.758222867252261e-17 -0.29842921100601444 0.9544317712744894
12646909333.333334 -0.2890384420718339 0.9573174912245773 -4.5157366841588534e-20 -9.756752217855031e-17 -4.5157366841588534e-20 -9.756752217855031e-17 -0.2890390687678662 0.9573173020089192
12647526666.666666 -0.2796204054620523 0.9601106336506587 -1.0120526780911887e-18 -9.754323436794225e-17 -1.0120526780911887e-18 -9.754323436794225e-17 -0.27962103395590376 0.960110450609336
12648144000.0 -0.27017538518954926 0.9628111243839627 -1.9784710551069395e-18 -9.750937136781961e-17 -1.9784710551069395e-18 -9.750937136781961e-17 -0.2701760154203972 0.9628109475340362
12648761333.333334 -0.260704292708849 0.965418702824329 -2.944317741507487e-18 -9.746594024341183e-17 -2.944317741507487e-18 -9.746594024341183e-17 -0.2607049246157088 0.9654185321822596
12649378666.666666 -0.2512080419904437 0.9679331173377417 -3.909498074057742e-18 -9.74129489969965e-17 -3.909498074057742e-18 -9.74129489969965e-17 -0.2512086755121751 0.9679329529193899
12649996000.0 -0.24168754943256598 0.9703541252806176 -4.873917491931558e-18 -9.735040656674759e-17 -4.873917491931558e-18 -9.735040656674759e-17 -0.24168818450787868 0.9703539671012412
12650613333.333334 -0.23214373377278233 0.9726814930232109 -5.837481545966267e-18 -9.727832282549198e-17 -5.837481545966267e-18 -9.727832282549198e-17 -0.23214437034024243 0.9726813410974654
12651230666.666666 -0.2225775159995558 0.9749149959721095 -6.800095907872203e-18 -9.71967085793762e-17 -6.800095907872203e-18 -9.71967085793762e-17 -0.22257815399759118 0.9749148503140446
12651848000.0 -0.21298981926292737 0.9770544185920137 -7.761666379482055e-18 -9.710557556643856e-17 -7.761666379482055e-18 -9.710557556643856e-17 -0.21299045862983376 0.9770542792150723
12652465333.333334 -0.20338156878576152 0.9790995544264508 -8.722098901914779e-18 -9.700493645509548e-17 -8.722098901914779e-18 -9.700493645509548e-17 -0.20338220945970897 0.9790994213434704
12653082666.666666 -0.1937536917745469 0.9810502061176916 -9.681299564774733e-18 -9.689480484253316e-17 -9.681299564774733e-18 -9.689480484253316e-17 -0.1937543336935851 0.9810500793408998
12653700000.0 -0.1841071173294739 0.982906185425884 -1.0639174615332573e-17 -9.677519525300786e-17 -1.0639174615332573e-17 -9.677519525300786e-17 -0.18410776043153862 0.9829060649668994
12654317333.333334 -0.17444277635524885 0.9846673132471214 -1.1595630467637525e-17 -9.664612313606125e-17 -1.1595630467637525e-17 -9.664612313606125e-17 -0.17444342057816747 0.9846671991169503
12654934666.666666 -0.1647616014710657 0.9863334196307663 -1.2550573711659328e-17 -9.650760486464032e-17 -1.2550573711659328e-17 -9.650760486464032e-17 -0.16476224675256385 0.9863333118398052
12655552000.0 -0.15506452692043987 0.987904343795882 -1.3503911122409205e-17 -9.635965773312713e-17 -1.3503911122409205e-17 -9.635965773312713e-17 -0.15506517319814683 0.9879042423539134
12656169333.333334 -0.1453524884814158 0.9893799341466808 -1.445554966898707e-17 -9.620229995528544e-17 -1.445554966898707e-17 -9.620229995528544e-17 -0.14535313569287123 0.9893798390628754
12656786666.666666 -0.13562642337592828 0.9907600482872152 -1.540539652367462e-17 -9.603555066210881e-17 -1.540539652367462e-17 -9.603555066210881e-17 -0.13562707145858727 0.9907599595701264
12657404000.0 -0.12588727017961074 0.9920445530350726 -1.6353359070947467e-17 -9.585942989958761e-17 -1.6353359070947467e-17 -9.585942989958761e-17 -0.12588791907085076 0.992044470692641
12658021333.333334 -0.11613596873099788 0.993233324434266 -1.7299344916509362e-17 -9.567395862637999e-17 -1.7299344916509362e-17 -9.567395862637999e-17 -0.11613661836812447 0.9932332484738156
12658638666.666666 -0.10637346004105515 0.994326247767163 -1.8243261896254843e-17 -9.547915871140179e-17 -1.8243261896254843e-17 -9.547915871140179e-17 -0.10637411036130788 0.9943261781954006
12659256000.0 -0.09660068620217269 0.995323217565581 -1.9185018085262874e-17 -9.52750529313177e-17 -1.9185018085262874e-17 -9.52750529313177e-17 -0.09660133714273142 0.9953231543885973
12659873333.333334 -0.08681859029733723 0.9962241376209543 -2.0124521806695573e-17 -9.506166496795709e-17 -2.0124521806695573e-17 -9.506166496795709e-17 -0.08681924179532813 0.9962240808442222
12660490666.666666 -0.07702811630923677 0.9970289209936097 -2.1061681640720896e-17 -9.483901940563277e-17 -2.1061681640720896e-17 -9.483901940563277e-17 -0.07702876830173827 0.9970288706219836
12661108000.0 -0.06723020902882541 0.9977374900211836 -2.1996406433408777e-17 -9.460714172836953e-17 -2.1996406433408777e-17 -9.460714172836953e-17 -0.06723086145287438 0.9977374460588998
12661725333.333334 -0.05742581396466003 0.9983497763260769 -2.292860530553345e-17 -9.436605831706159e-17 -2.292860530553345e-17 -9.436605831706159e-17 -0.05742646675725782 0.9983497387767519
12662342666.666666 -0.047615877251175893 0.9988657208220898 -2.385818766143661e-17 -9.411579644652117e-17 -2.385818766143661e-17 -9.411579644652117e-17 -0.047616530349294486 0.9988656896887218
12662960000.0 -0.037801345557610395 0.9992852737201052 -2.478506319778951e-17 -9.385638428245727e-17 -2.478506319778951e-17 -9.385638428245727e-17 -0.03780199889819843 0.9992852490050735
12663577333.333334 -0.02798316599670543 0.999608394532895 -2.570914191235507e-17 -9.358785087836015e-17 -2.570914191235507e-17 -9.358785087836015e-17 -0.027983819516694278 0.9996083762379588
12664194666.666666 -0.01816228603313959 0.9998350520790329 -2.6630334112698405e-17 -9.331022617230482e-17 -2.6630334112698405e-17 -9.331022617230482e-17 -0.018162939669449443 0.9998350402053306
12664812000.0 -0.008339653392181902 0.9999652244858965 -2.7548550424890013e-17 -9.302354098366159e-17 -2.7548550424890013e-17 -9.302354098366159e-17 -0.008340307081727918 0.999965219033949
12665429333.333334 0.0014837840317076566 0.9999988991917835 -2.8463701802150554e-17 -9.272782700972835e-17 -2.8463701802150554e-17 -9.272782700972835e-17 0.0014831303520093314 0.9999989001614902
12666046666.666666 0.011307078266379477 0.9999360729471204 -2.93756995334601e-17 -9.242311682227769e-17 -2.93756995334601e-17 -9.242311682227769e-17 0.011306424659605591 0.9999360803377624
12666664000.0 0.021129281353673573 0.9997767518147783 -3.028445525215721e-17 -9.210944386401125e-17 -3.028445525215721e-17 -9.210944386401125e-17 0.021128627882887684 0.9997767656250159
12667281333.333334 0.030949445440557437 0.9995209511694857 -3.118988094446188e-17 -9.178684244494331e-17 -3.118988094446188e-17 -9.178684244494331e-17 0.030948792168803835 0.9995209713973607
12667898666.666666 0.040766622870765525 0.9991686956963497 -3.209188895799687e-17 -9.145534773868789e-17 -3.209188895799687e-17 -9.145534773868789e-17 0.04076596986106316 0.9991687223392846
12668516000.0 0.05057986627641937 0.9987200193884628 -3.2990392010259543e-17 -9.111499577866542e-17 -3.2990392010259543e-17 -9.111499577866542e-17 0.05057921359175574 0.9987200524432615
12669133333.333334 0.06038822866910873 0.9981749655436357 -3.388530319701573e-17 -9.076582345424187e-17 -3.388530319701573e-17 -9.076582345424187e-17 0.06038757637243391 0.9981750050064844
12669750666.666666 0.07019076353147607 0.9975335867602154 -3.477653600072788e-17 -9.040786850675692e-17 -3.477653600072788e-17 -9.040786850675692e-17 0.07019011168569643 0.9975336326266804
12670368000.0 0.0799865249086127 0.9967959449319981 -3.566400429888251e-17 -9.004116952549211e-17 -3.566400429888251e-17 -9.004116952549211e-17 0.07998587357658508 0.99679599719703
