! Parameters = {f0=12700.012000; bw=77.238000; Q=6100.000000; N=10; m_0_1=1.251747; m_1_1=0.011456; m_1_2=1.086559; m_2_2=0.010807; m_2_3=0.723522; m_2_8=-0.000349; m_2_9=0.036355; m_3_3=0.008870; m_3_4=0.612051; m_3_7=0.000251; m_3_8=-0.096837; m_3_9=-0.000349; m_4_4=0.005945; m_4_5=0.448386; m_4_6=0.003768; m_4_7=-0.117386; m_4_8=0.000251; m_5_5=0.006327; m_5_6=0.855741; m_5_7=0.003768; m_6_6=0.006326; m_6_7=0.448728; m_7_7=0.005959; m_7_8=0.612169; m_8_8=0.008868; m_8_9=0.723835; m_9_9=0.010802; m_9_10=1.087637; m_10_10=0.011446; m_10_11=1.252542}
!
! Created with skrf (http://scikit-rf.org).
# Hz S RI R 50.0 
!freq ReS11 ImS11 ReS21 ImS21 ReS12 ImS12 ReS22 ImS22
12607400000.0 0.7159029216911063 -0.6981998329375096 -4.949376855931218e-17 8.850229109393911e-17 -4.949376855931218e-17 8.850229109393911e-17 0.71590338217296 -0.6981993607796738
12608017333.333334 0.7088970005032587 -0.7053120179589397 -4.8590358505513616e-17 8.897886688161628e-17 -4.8590358505513616e-17 8.897886688161628e-17 0.7088974656530193 -0.7053115504445926
12608634666.666666 0.7018204263125671 -0.7123539072752221 -4.76823725867776e-17 8.944622879727813e-17 -4.76823725867776e-17 8.944622879727813e-17 0.7018208960834198 -0.7123534444505015
12609252000.0 0.6946739044136468 -0.7193247990487521 -4.676990469631935e-17 8.990433304292713e-17 -4.676990469631935e-17 8.990433304292713e-17 0.6946743787583217 -0.7193243409593254
12609869333.333334 0.6874581470725684 -0.7262239985179354 -4.5853049145111087e-17 9.035313677659402e-17 -4.5853049145111087e-17 9.035313677659402e-17 0.687458625943344 -0.7262235452089928
12610486666.666666 0.6801738734558909 -0.7330508180664136 -4.4931900652183827e-17 9.079259811629282e-17 -4.4931900652183827e-17 9.079259811629282e-17 0.6801743568045984 -0.7330503695826632
12611104000.0 0.6728218095587771 -0.7398045772917885 -4.400655433482478e-17 9.122267614391096e-17 -4.400655433482478e-17 9.122267614391096e-17 0.6728222973368072 -0.7398041336774548
12611721333.333334 0.6654026881329491 -0.7464846030731468 -4.307710569881831e-17 9.164333090896054e-17 -4.307710569881831e-17 9.164333090896054e-17 0.6654031802912562 -0.7464841643719649
12612338666.666666 0.6579172486133671 -0.7530902296384188 -4.214365062857369e-17 9.205452343226801e-17 -4.214365062857369e-17 9.205452343226801e-17 0.6579177451024725 -0.7530897958936281
12612956000.0 0.6503662370446526 -0.759620798630611 -4.1206285377269676e-17 9.245621570953782e-17 -4.1206285377269676e-17 9.245621570953782e-17 0.6503667378146524 -0.7596203698849551
12613573333.333334 0.6427504060068465 -0.7660756591733365 -4.0265106556964075e-17 9.284837071481935e-17 -4.0265106556964075e-17 9.284837071481935e-17 0.642750911007414 -0.7660752354690546
12614190666.666666 0.6350705145402288 -0.7724541679358314 -3.932021112863593e-17 9.323095240388726e-17 -3.932021112863593e-17 9.323095240388726e-17 0.635071023720621 -0.7724537493146575
12614808000.0 0.6273273280696867 -0.7787556891970524 -3.837169639221994e-17 9.360392571751031e-17 -3.837169639221994e-17 9.360392571751031e-17 0.6273278413787486 -0.7787552757002085
12615425333.333334 0.6195216183285396 -0.7849795949089472 -3.7419659976621324e-17 9.396725658461536e-17 -3.7419659976621324e-17 9.396725658461536e-17 0.6195221357147109 -0.7849791865771425
12616042666.666666 0.6116541632815355 -0.7911252647591233 -3.646419982967984e-17 9.432091192535852e-17 -3.646419982967984e-17 9.432091192535852e-17 0.6116546846928532 -0.791124861632546
12616660000.0 0.6037257470473343 -0.7971920862326506 -3.5505414208105354e-17 9.466485965409436e-17 -3.5505414208105354e-17 9.466485965409436e-17 0.60372627243144 -0.7971916883509681
12617277333.333334 0.5957371598203606 -0.8031794546731125 -3.454340166740751e-17 9.499906868223492e-17 -3.454340166740751e-17 9.499906868223492e-17 0.5957376891245052 -0.8031790620754647
12617894666.666666 0.587689197792068 -0.8090867733428497 -3.357826105178844e-17 9.532350892101116e-17 -3.357826105178844e-17 9.532350892101116e-17 0.5876897309631167 -0.809086386067846
12618512000.0 0.5795826630714741 -0.8149134534825202 -3.261009148398277e-17 9.563815128414052e-17 -3.261009148398277e-17 9.563815128414052e-17 0.579583200055912 -0.8149130715682361
12619129333.333334 0.5714183636054437 -0.820658914369609 -3.163899235512536e-17 9.59429676903752e-17 -3.163899235512536e-17 9.59429676903752e-17 0.5714189043493818 -0.8206585378535829
12619746666.666666 0.5631971130979847 -0.8263225833764457 -3.066506331455733e-17 9.623793106595937e-17 -3.066506331455733e-17 9.623793106595937e-17 0.5631976575471638 -0.8263222122956734
12620364000.0 0.5549197309290513 -0.8319038960273347 -2.9688404259610005e-17 9.652301534698346e-17 -2.9688404259610005e-17 9.652301534698346e-17 0.5549202790288478 -0.8319035304182658
12620981333.333334 0.54658704207323 -0.8374022960545706 -2.8709115325408884e-17 9.679819548162282e-17 -2.8709115325408884e-17 9.679819548162282e-17 0.5465875937686627 -0.8374019359531075
12621598666.666666 0.5381998770171921 -0.8428172354541096 -2.7727296874588864e-17 9.706344743229333e-17 -2.7727296874588864e-17 9.706344743229333e-17 0.5382004322529269 -0.8428168808956017
12622216000.0 0.5297590716770628 -0.8481481745400886 -2.6743049487058955e-17 9.731874817768281e-17 -2.6743049487058955e-17 9.731874817768281e-17 0.5297596303974181 -0.8481478255593299
12622833333.333334 0.5212654673150844 -0.8533945819986292 -2.5756473949702423e-17 9.756407571469253e-17 -2.5756473949702423e-17 9.756407571469253e-17 0.5212660294640363 -0.8533942386298534
12623450666.666666 0.51271991045577 -0.8585559349407909 -2.4767671246092994e-17 9.779940906026545e-17 -2.4767671246092994e-17 9.779940906026545e-17 0.5127204759769589 -0.8585555972176699
12624068000.0 0.5041232528015603 -0.8636317189546727 -2.3776742546153632e-17 9.802472825312148e-17 -2.3776742546153632e-17 9.802472825312148e-17 0.5041238216382954 -0.8636313869103118
12624685333.333334 0.49547635114781313 -0.8686214281567524 -2.2783789195839103e-17 9.824001435537735e-17 -2.2783789195839103e-17 9.824001435537735e-17 0.49547692324307985 -0.8686211018236891
12625302666.666666 0.4867800672977077 -0.8735245652421391 -2.1788912706807985e-17 9.844524945406369e-17 -2.1788912706807985e-17 9.844524945406369e-17 0.48678064259417086 -0.8735242446523365
12625920000.0 0.4780352679758789 -0.8783406415343981 -2.0792214746028447e-17 9.864041666254782e-17 -2.0792214746028447e-17 9.864041666254782e-17 0.47803584641589125 -0.8783403267192456
12626537333.333334 0.4692428247425338 -0.8830691770339838 -1.9793797125437022e-17 9.882550012183923e-17 -1.9793797125437022e-17 9.882550012183923e-17 0.4692434062681395 -0.883068868024291
12627154666.666666 0.460403613906336 -0.8877097004662137 -1.879376179155846e-17 9.900048500179521e-17 -1.879376179155846e-17 9.900048500179521e-17 0.4604041984592782 -0.8877093972922099
12627772000.0 0.45151851643694296 -0.8922617493283074 -1.7792210815087943e-17 9.916535750222757e-17 -1.7792210815087943e-17 9.916535750222757e-17 0.4515191039586683 -0.8922614520196365
12628389333.333334 0.44258841787758 -0.8967248699352826 -1.6789246380538164e-17 9.932010485389151e-17 -1.6789246380538164e-17 9.932010485389151e-17 0.4425890083092451 -0.8967245785210015
12629006666.666666 0.4336142082563014 -0.9010986174654197 -1.5784970775779942e-17 9.946471531938578e-17 -1.5784970775779942e-17 9.946471531938578e-17 0.43361480153877824 -0.9010983319739941
12629624000.0 0.4245967819977149 -0.9053825560043742 -1.4779486381678265e-17 9.959917819393166e-17 -1.4779486381678265e-17 9.959917819393166e-17 0.4245973780715982 -0.9053822764636789
12630241333.333334 0.41553703783358553 -0.9095762585887551 -1.3772895661646634e-17 9.972348380605913e-17 -1.3772895661646634e-17 9.972348380605913e-17 0.4155376366391964 -0.9095759850260666
12630858666.666666 0.40643587871346704 -0.9136793072485779 -1.2765301151248066e-17 9.983762351818046e-17 -1.2765301151248066e-17 9.983762351818046e-17 0.40643648019086104 -0.9136790396905757
12631476000.0 0.39729421171432 -0.9176912930490985 -1.1756805447727525e-17 9.994158972706675e-17 -1.1756805447727525e-17 9.994158972706675e-17 0.3972948158032919 -0.9176910315218608
12632093333.333334 0.3881129479506001 -0.9216118161313492 -1.0747511199638855e-17 1.0003537586420833e-16 -1.0747511199638855e-17 1.0003537586420833e-16 0.38811355459069047 -0.921611560660351
12632710666.666666 0.37889300248319197 -0.9254404857521099 -9.737521096388133e-18 1.0011897639607981e-16 -9.737521096388133e-18 1.0011897639607981e-16 0.37889361161369284 -0.9254402363622197
12633328000.0 0.3696352942281022 -0.9291769203228915 -8.726937857796774e-18 1.0019238682429663e-16 -8.726937857796774e-18 1.0019238682429663e-16 0.36963590578806393 -0.9291766770383701
12633945333.333334 0.3603407458651388 -0.9328207474478605 -7.715864223688526e-18 1.0025560368566573e-16 -7.715864223688526e-18 1.0025560368566573e-16 0.3603413597933744 -0.9328205102923558
12634562666.666666 0.3510102837457115 -0.9363716039610475 -6.70440294346705e-18 1.0030862455213179e-16 -6.70440294346705e-18 1.0030862455213179e-16 0.3510108999808052 -0.9363713729575968
12635180000.0 0.34164483780069355 -0.9398291359624726 -5.692656765685197e-18 1.0035144803061916e-16 -5.692656765685197e-18 1.0035144803061916e-16 0.3416454562810049 -0.9398289111334964
12635797333.333334 0.3322453414476048 -0.9431929988534661 -4.680728427629901e-18 1.0038407376276873e-16 -4.680728427629901e-18 1.0038407376276873e-16 0.3322459621112761 -0.9431927802207681
12636414666.666666 0.3228127314977162 -0.9464628573709655 -3.668720644909405e-18 1.0040650242457001e-16 -3.668720644909405e-18 1.0040650242457001e-16 0.322813354282678 -0.9464626449557295
12637032000.0 0.3133479480625476 -0.9496383856209792 -2.6567361010467237e-18 1.0041873572588774e-16 -2.6567361010467237e-18 1.0041873572588774e-16 0.3133485729065253 -0.9496381794437679
12637649333.333334 0.3038519344601694 -0.9527192671110638 -1.644877437080479e-18 1.0042077640988512e-16 -1.644877437080479e-18 1.0042077640988512e-16 0.30385256130068855 -0.9527190671918142
12638266666.666666 0.2943256371213205 -0.9557051947818214 -6.332472411769277e-19 1.0041262825234154e-16 -6.332472411769277e-19 1.0041262825234154e-16 0.29432626589571464 -0.955705001139847
12638884000.0 0.28477000549497355 -0.9585958710375411 3.780519617628547e-19 1.0039429606086625e-16 3.780519617628547e-19 1.0039429606086625e-16 0.28477063614038955 -0.9585956836915277
12639501333.333334 0.27518599195373517 -0.961391007775852 1.3889177204596274e-18 1.0036578567400781e-16 1.3889177204596274e-18 1.0036578567400781e-16 0.27518662440713915 -0.9613908267438555
12640118666.666666 0.2655745516989796 -0.9640903264164178 2.399247667606854e-18 1.0032710396025972e-16 2.399247667606854e-18 1.0032710396025972e-16 0.26557518589716395 -0.9640901517158632
12640736000.0 0.25593664266537475 -0.9666935579287809 3.408939530271724e-18 1.0027825881695964e-16 3.408939530271724e-18 1.0027825881695964e-16 0.25593727854496406 -0.9666933895764607
12641353333.333334 0.24627322542595645 -0.9692004428590225 4.417891140142881e-18 1.0021925916909023e-16 4.417891140142881e-18 1.0021925916909023e-16 0.24627386292341386 -0.9692002808710948
12641970666.666666 0.23658526309584324 -0.9716107313557736 5.426000443920268e-18 1.0015011496796924e-16 5.426000443920268e-18 1.0015011496796924e-16 0.2365859021474769 -0.9716105757477603
12642588000.0 0.22687372123654825 -0.9739241831950316 6.433165513586699e-18 1.000708371898413e-16 6.433165513586699e-18 1.000708371898413e-16 0.22687436177851805 -0.9739240339818193
12643205333.333334 0.2171395677596092 -0.9761405678041457 7.439284556694067e-18 9.998143783436497e-17 7.439284556694067e-18 9.998143783436497e-17 0.217140209727932 -0.9761404249999789
12643822666.666666 0.20738377283017284 -0.978259664284771 8.444255926654484e-18 9.988192992299404e-17 8.444255926654484e-18 9.988192992299404e-17 0.20738441616073022 -0.9782595279032565
12644440000.0 0.19760730877033245 -0.9802812614348883 9.447978132958648e-18 9.977232749726076e-17 9.447978132958648e-18 9.977232749726076e-17 0.19760795339887632 -0.9802811314889915
12645057333.333334 0.18781114996224746 -0.9822051577698456 1.0450349851419874e-17 9.965264561695265e-17 1.0450349851419874e-17 9.965264561695265e-17 0.1878117958244064 -0.9822050342718881
12645674666.666666 0.17799627275091928 -0.9840311615424632 1.1451269934377408e-17 9.952290035818879e-17 1.1451269934377408e-17 9.952290035818879e-17 0.1779969197822056 -0.9840310445041237
12646292000.0 0.1681636553468546 -0.9857590907621463 1.245063742091453e-17 9.938310881138842e-17 1.245063742091453e-17 9.938310881138842e-17 0.1681643034826701 -0.985758980194458
12646909333.333334 0.15831427772882253 -0.987388773212979 1.3448351546969023e-17 9.923328907914897e-17 1.3448351546969023e-17 9.923328907914897e-17 0.15831492690446533 -0.987388669126329
12647526666.666666 0.14844912154596018 -0.9889200464709273 1.4444311755510176e-17 9.907346027401074e-17 1.4444311755510176e-17 9.907346027401074e-17 0.14844977169663137 -0.9889199488750583
12648144000.0 0.13856917001985172 -0.990352757920045 1.543841770665962e-17 9.890364251612342e-17 1.543841770665962e-17 9.890364251612342e-17 0.138569821080661 -0.9903526668240478
12648761333.333334 0.12867540784681392 -0.9916867647676287 1.6430569287752454e-17 9.872385693081648e-17 1.6430569287752454e-17 9.872385693081648e-17 0.128676059752787 -0.9916866801799482
12649378666.666666 0.11876882109964429 -0.992921934058479 1.7420666623410975e-17 9.853412564606375e-17 1.7420666623410975e-17 9.853412564606375e-17 0.11876947378572902 -0.9929218559869105
12649996000.0 0.10885039712923009 -0.9940581426881617 1.8408610085587366e-17 9.833447178984638e-17 1.8408610085587366e-17 9.833447178984638e-17 0.1088510505303028 -0.99405807113985
12650613333.333334 0.09892112446625553 -0.9950952774152645 1.9394300303571862e-17 9.812491948741683e-17 1.9394300303571862e-17 9.812491948741683e-17 0.09892177851712758 -0.9950952123967024
12651230666.666666 0.08898199272267841 -0.9960332348726776 2.0377638173940177e-17 9.790549385846862e-17 2.0377638173940177e-17 9.790549385846862e-17 0.088982647358103 -0.9960331763897092
12651848000.0 0.07903399249298705 -0.9968719215779168 2.1358524870536972e-17 9.767622101419351e-17 2.1358524870536972e-17 9.767622101419351e-17 0.07903464764766523 -0.9968718696357314
12652465333.333334 0.06907811525561221 -0.9976112539424179 2.23368618543576e-17 9.743712805425319e-17 2.23368618543576e-17 9.743712805425319e-17 0.06907877086419979 -0.997611208545554
12653082666.666666 0.059115353274167615 -0.9982511582798695 2.331255088343867e-17 9.718824306364329e-17 2.331255088343867e-17 9.718824306364329e-17 0.05911600927128161 -0.9982511194322136
12653700000.0 0.049146699498157885 -0.9987915708135839 2.4285494022714432e-17 9.692959510945814e-17 2.4285494022714432e-17 9.692959510945814e-17 0.049147355818382914 -0.9987915385183689
12654317333.333334 0.03917314746458232 -0.9992324376828184 2.525559365379986e-17 9.666121423756757e-17 2.525559365379986e-17 9.666121423756757e-17 0.0391738040424771 -0.9992324119426224
12654934666.666666 0.02919569119851561 -0.9995737149481625 2.6222752484787185e-17 9.63831314691826e-17 2.6222752484787185e-17 9.63831314691826e-17 0.029196347968619668 -0.9995736957649118
12655552000.0 0.01921532511406574 -0.9998153685959176 2.7186873559994337e-17 9.609537879732587e-17 2.7186873559994337e-17 9.609537879732587e-17 0.019215982010905797 -0.9998153559708843
12656169333.333334 0.009233043915548557 -0.9999573745414766 2.8147860269623883e-17 9.579798918322044e-17 2.8147860269623883e-17 9.579798918322044e-17 0.009233700873645086 -0.9999573684752794
12656786666.666666 -0.000750157502048245 -0.9999997186317372 2.9105616359462e-17 9.549099655255868e-17 2.9105616359462e-17 9.549099655255868e-17 -0.0007495005481744783 -0.9999997191243395
12657404000.0 -0.010733284151909892 -0.9999423966464991 3.00600459404806e-17 9.517443579169163e-17 3.00600459404806e-17 9.517443579169163e-17 -0.010732627267731311 -0.9999424036972135
12658021333.333334 -0.02071534105473148 -0.9997854142988972 3.1011053498433896e-17 9.484834274371195e-17 3.1011053498433896e-17 9.484834274371195e-17 -0.02071468430570717 -0.9997854279063803
12658638666.666666 -0.030695333337684746 -0.9995287872348244 3.1958543903367295e-17 9.451275420445578e-17 3.1958543903367295e-17 9.451275420445578e-17 -0.03069467678925396 -0.9995288073970815
12659256000.0 -0.04067226633397105 -0.9991725410313724 3.290242241915093e-17 9.416770791838742e-17 3.290242241915093e-17 9.416770791838742e-17 -0.040671610051546646 -0.9991725677457545
12659873333.333334 -0.05064514568152955 -0.9987167111942834 3.3842594712902424e-17 9.381324257441216e-17 3.3842594712902424e-17 9.381324257441216e-17 -0.05064448973049156 -0.9987167444574898
12660490666.666666 -0.060612977422255465 -0.9981613431544218 3.477896686440552e-17 9.344939780158195e-17 3.477896686440552e-17 9.344939780158195e-17 -0.060612321867944394 -0.9981613829624975
12661108000.0 -0.07057476810131899 -0.997506492263221 3.57114453754825e-17 9.307621416470517e-17 3.57114453754825e-17 9.307621416470517e-17 -0.07057411300902955 -0.9975065386115611
12661725333.333334 -0.08052952486575381 -0.9967522237871987 3.663993717928385e-17 9.269373315987977e-17 3.663993717928385e-17 9.269373315987977e-17 -0.08052887030072828 -0.9967522766705468
12662342666.666666 -0.09047625556383618 -0.9958986129014232 3.756434964958026e-17 9.230199720991265e-17 3.756434964958026e-17 9.230199720991265e-17 -0.09047560159125781 -0.9958986723138703
12662960000.0 -0.10041396884365676 -0.994945744682038 3.8484590609980216e-17 9.190104965965804e-17 3.8484590609980216e-17 9.190104965965804e-17 -0.10041331552864365 -0.9949458106170278
12663577333.333334 -0.11034167425206698 -0.9938937140977806 3.9400568343087585e-17 9.149093477126773e-17 3.9400568343087585e-17 9.149093477126773e-17 -0.11034102165966513 -0.9938937865481051
12664194666.666666 -0.12025838233333666 -0.9927426260005155 4.0312191599633207e-17 9.107169771934175e-17 4.0312191599633207e-17 9.107169771934175e-17 -0.12025773052851377 -0.9927427049583192
12664812000.0 -0.1301631047278822 -0.9914925951147733 4.121936960753924e-17 9.06433845859935e-17 4.121936960753924e-17 9.06433845859935e-17 -0.13016245377552124 -0.9914926805715533
12665429333.333334 -0.14005485427063152 -0.9901437460263343 4.2122012080950125e-17 9.020604235581807e-17 4.2122012080950125e-17 9.020604235581807e-17 -0.14005420423552417 -0.9901438379729404
12666046666.666666 -0.14993264508938287 -0.9886962131698144 4.3020029229169344e-17 8.975971891078901e-17 4.3020029229169344e-17 8.975971891078901e-17 -0.14993199603622284 -0.9886963115964497
12666664000.0 -0.15979549270334417 -0.9871501408152284 4.3913331765609114e-17 8.930446302503529e-17 4.3913331765609114e-17 8.930446302503529e-17 -0.15979484469672134 -0.9871502457114523
12667281333.333334 -0.16964241412083098 -0.9855056830536729 4.480183091660662e-17 8.884032435956783e-17 4.480183091660662e-17 8.884032435956783e-17 -0.16964176722522442 -0.9855057944084006
12667898666.666666 -0.17947242793763035 -0.9837630037819081 4.568543843026076e-17 8.836735345688056e-17 4.568543843026076e-17 8.836735345688056e-17 -0.1794717822174022 -0.9837631215834124
12668516000.0 -0.18928455443464473 -0.9819222766860463 4.656406658516195e-17 8.788560173548959e-17 4.656406658516195e-17 8.788560173548959e-17 -0.18928390995403374 -0.9819224009219587
12669133333.333334 -0.1990778156753976 -0.9799836852242702 4.7437628199067564e-17 8.739512148438458e-17 4.7437628199067564e-17 8.739512148438458e-17 -0.1990771724985128 -0.9799838158815827
12669750666.666666 -0.20885123560372457 -0.9779474226085101 4.830603663755175e-17 8.68959658573772e-17 4.830603663755175e-17 8.68959658573772e-17 -0.20885059379453852 -0.977947559673574
12670368000.0 -0.21860384014105136 -0.9758136917851765 4.916920582257614e-17 8.638818886737406e-17 4.916920582257614e-17 8.638818886737406e-17 -0.21860319976339446 -0.9758138352437088
