! Parameters = {f0=12700.012000; bw=77.238000; Q=6100.000000; N=10; m_0_1=1.152848; m_1_1=-1.472028; m_1_2=0.987660; m_2_2=-1.472677; m_2_3=0.624623; m_2_8=-0.005294; m_2_9=0.031410; m_3_3=-1.474614; m_3_4=0.513152; m_3_7=-0.004694; m_3_8=-0.101782; m_3_9=-0.005294; m_4_4=-1.477539; m_4_5=0.349487; m_4_6=-0.001177; m_4_7=-0.122331; m_4_8=-0.004694; m_5_5=-1.477157; m_5_6=0.756842; m_5_7=-0.001177; m_6_6=-1.477158; m_6_7=0.349829; m_7_7=-1.477525; m_7_8=0.513270; m_8_8=-1.474616; m_8_9=0.624936; m_9_9=-1.472682; m_9_10=0.988738; m_10_10=-1.472038; m_10_11=1.153643}
!
! Created with skrf (http://scikit-rf.org).
# Hz S RI R 50.0 
!freq ReS11 ImS11 ReS21 ImS21 ReS12 ImS12 ReS22 ImS22
12607400000.0 -0.7553117962761944 0.6553656158251533 3.30748934722204e-17 -5.181551396262054e-17 3.30748934722204e-17 -5.181551396262054e-17 -0.7553121944662947 0.6553651569090047
12608017333.333334 -0.7506663799495794 0.6606814557812628 3.26972519832569e-17 -5.2040421517234466e-17 3.26972519832569e-17 -5.2040421517234466e-17 -0.7506667813498444 0.6606809997099351
12608634666.666666 -0.7459835518778115 0.6659643686621827 3.231808704678695e-17 -5.226258082484764e-17 3.231808704678695e-17 -5.226258082484764e-17 -0.7459839564679229 0.6659639154581259
12609252000.0 -0.7412635454439686 0.6712140911778387 3.193741863412248e-17 -5.2481981610328124e-17 3.193741863412248e-17 -5.2481981610328124e-17 -0.7412639532034518 0.6712136408633583
12609869333.333334 -0.7365065958839504 0.6764303616923852 3.155526678554491e-17 -5.2698613743471943e-17 3.155526678554491e-17 -5.2698613743471943e-17 -0.7365070067921728 0.6764299142896393
12610486666.666666 -0.731712940274922 0.6816129202370523 3.1171651609260625e-17 -5.2912467239459654e-17 3.1171651609260625e-17 -5.2912467239459654e-17 -0.7317133543110989 0.6816124757680531
12611104000.0 -0.7268828175232758 0.6867615085233589 3.078659328033731e-17 -5.312353225931565e-17 3.078659328033731e-17 -5.312353225931565e-17 -0.7268832346664658 0.6867610670099683
12611721333.333334 -0.7220164683529858 0.6918758699556858 3.040011203965967e-17 -5.333179911034628e-17 3.040011203965967e-17 -5.333179911034628e-17 -0.7220168885820963 0.691875431419618
12612338666.666666 -0.7171141352934044 0.6969557496442998 3.0012228192861087e-17 -5.353725824658281e-17 3.0012228192861087e-17 -5.353725824658281e-17 -0.7171145585871914 0.6969553141071184
12612956000.0 -0.7121760626672494 0.702000894417969 2.9622962109259806e-17 -5.3739900269211836e-17 2.9622962109259806e-17 -5.3739900269211836e-17 -0.7121764890043175 0.7020004619010852
12613573333.333334 -0.7072024965784885 0.707011052836522 2.923233422080794e-17 -5.3939715926990496e-17 2.923233422080794e-17 -5.3939715926990496e-17 -0.7072029259372933 0.7070106233611951
12614190666.666666 -0.7021936848999536 0.7119859752034995 2.8840365021008124e-17 -5.413669611666881e-17 2.8840365021008124e-17 -5.413669611666881e-17 -0.7021941172588017 0.7119855487908352
12614808000.0 -0.6971498772610685 0.7169254135785198 2.844707506385089e-17 -5.433083188339288e-17 2.844707506385089e-17 -5.433083188339288e-17 -0.6971503125981188 0.716924990249468
12615425333.333334 -0.6920713250353854 0.7218291217896524 2.805248496273984e-17 -5.45221144211045e-17 2.805248496273984e-17 -5.45221144211045e-17 -0.6920717633286515 0.7218287015650082
12616042666.666666 -0.6869582813280591 0.7266968554456897 2.7656615389414427e-17 -5.471053507293343e-17 2.7656615389414427e-17 -5.471053507293343e-17 -0.6869587225554088 0.7266964383460915
12616660000.0 -0.6818110009632128 0.7315283719483463 2.7259487072877788e-17 -5.4896085331577977e-17 2.7259487072877788e-17 -5.4896085331577977e-17 -0.6818114451023696 0.7315279579942744
12617277333.333334 -0.6766297404712952 0.7363234305042877 2.686112079830495e-17 -5.5078756839685904e-17 2.686112079830495e-17 -5.5078756839685904e-17 -0.6766301874998412 0.7363230197160643
12617894666.666666 -0.6714147580762836 0.7410817921371575 2.6461537405973872e-17 -5.525854139021616e-17 2.6461537405973872e-17 -5.525854139021616e-17 -0.6714152079716575 0.7410813845349447
12618512000.0 -0.6661663136826599 0.7458032196996152 2.6060757790160554e-17 -5.543543092680729e-17 2.6060757790160554e-17 -5.543543092680729e-17 -0.6661667664221602 0.7458028153034136
12619129333.333334 -0.6608846688627331 0.7504874778849078 2.5658802898073447e-17 -5.560941754412014e-17 2.5658802898073447e-17 -5.560941754412014e-17 -0.6608851244235199 0.7504870767145582
12619746666.666666 -0.6555700868433749 0.7551343332388117 2.5255693728747214e-17 -5.578049348818928e-17 2.5255693728747214e-17 -5.578049348818928e-17 -0.6555705452024677 0.7551339353139899
12620364000.0 -0.6502228324930004 0.7597435541711658 2.4851451331950258e-17 -5.594865115675983e-17 2.4851451331950258e-17 -5.594865115675983e-17 -0.6502232936272831 0.759743159511385
12620981333.333334 -0.6448431723083284 0.7643149109674534 2.4446096807104408e-17 -5.611388309960972e-17 2.4446096807104408e-17 -5.611388309960972e-17 -0.6448436361945491 0.7643145195920632
12621598666.666666 -0.639431374401187 0.76884817580018 2.4039651302170598e-17 -5.62761820188784e-17 2.4039651302170598e-17 -5.62761820188784e-17 -0.6394318410159577 0.7688477877283624
12622216000.0 -0.6339877084850187 0.773343122740333 2.3632136012564536e-17 -5.643554076937369e-17 2.3632136012564536e-17 -5.643554076937369e-17 -0.6339881778048189 0.7733427379911052
12622833333.333334 -0.6285124458615055 0.7777995277685905 2.322357218004294e-17 -5.659195235888202e-17 2.322357218004294e-17 -5.659195235888202e-17 -0.6285129178626818 0.777799146360802
12623450666.666666 -0.6230058594071133 0.7822171687864302 2.281398109161382e-17 -5.67454099484606e-17 2.281398109161382e-17 -5.67454099484606e-17 -0.6230063340658806 0.7822167907387612
12624068000.0 -0.6174682235593816 0.7865958256272884 2.2403384078422115e-17 -5.689590685273029e-17 2.2403384078422115e-17 -5.689590685273029e-17 -0.6174687008518251 0.7865954509582508
12624685333.333334 -0.6118998143032242 0.7909352800675501 2.1991802514641588e-17 -5.704343654015745e-17 2.1991802514641588e-17 -5.704343654015745e-17 -0.6119002942052998 0.7909349087954847
12625302666.666666 -0.6063009091573744 0.7952353158372658 2.1579257816383034e-17 -5.718799263332137e-17 2.1579257816383034e-17 -5.718799263332137e-17 -0.6063013916449108 0.7952349479803429
12625920000.0 -0.6006717871603092 0.7994957186311233 2.116577144055976e-17 -5.732956890918819e-17 2.116577144055976e-17 -5.732956890918819e-17 -0.6006722722090079 0.7994953542073409
12626537333.333334 -0.5950127288565196 0.8037162761189873 2.075136488379904e-17 -5.746815929936037e-17 2.075136488379904e-17 -5.746815929936037e-17 -0.5950132164419587 0.8037159151461722
12627154666.666666 -0.5893240162824902 0.8078967779565224 2.0336059681317508e-17 -5.760375789032998e-17 2.0336059681317508e-17 -5.760375789032998e-17 -0.5893245063801215 0.8078964204523253
12627772000.0 -0.583605932952475 0.8120370157957859 1.991987740580308e-17 -5.773635892372097e-17 1.991987740580308e-17 -5.773635892372097e-17 -0.5836064255376293 0.8120366617776851
12628389333.333334 -0.5778587638446951 0.8161367832953839 1.9502839666312136e-17 -5.78659567965184e-17 1.9502839666312136e-17 -5.78659567965184e-17 -0.57785925889258 0.8161364327806799
12629006666.666666 -0.5720827953867624 0.8201958761310141 1.9084968107133723e-17 -5.799254606129963e-17 1.9084968107133723e-17 -5.799254606129963e-17 -0.5720832928724668 0.8201955291368337
12629624000.0 -0.5662783154417566 0.8242140920054092 1.86662844066871e-17 -5.811612142644596e-17 1.86662844066871e-17 -5.811612142644596e-17 -0.5662788153402492 0.8242137485486999
12630241333.333334 -0.560445613293595 0.8281912306586093 1.8246810276391638e-17 -5.823667775635532e-17 1.8246810276391638e-17 -5.823667775635532e-17 -0.5604461155797268 0.8281908907561412
12630858666.666666 -0.554584979632852 0.8321270938777823 1.7826567459555308e-17 -5.83542100716405e-17 1.7826567459555308e-17 -5.83542100716405e-17 -0.5545854842813586 0.8321267575461484
12631476000.0 -0.5486967065419903 0.8360214855072983 1.740557773023365e-17 -5.846871354932741e-17 1.740557773023365e-17 -5.846871354932741e-17 -0.5486972135274901 0.836021152762909
12632093333.333334 -0.542781087481105 0.8398742114582894 1.69838628921277e-17 -5.85801835230341e-17 1.69838628921277e-17 -5.85801835230341e-17 -0.5427815967781049 0.8398738823173785
12632710666.666666 -0.5368384172731658 0.8436850797184321 1.6561444777447418e-17 -5.868861548315124e-17 1.6561444777447418e-17 -5.868861548315124e-17 -0.536838928856058 0.8436847541970491
12633328000.0 -0.5308689920891718 0.8474539003615961 1.6138345245784056e-17 -5.879400507701109e-17 1.6138345245784056e-17 -5.879400507701109e-17 -0.5308695059322378 0.8474535784756099
12633945333.333334 -0.5248731094337057 0.8511804855571165 1.5714586182988448e-17 -5.889634810904748e-17 1.5714586182988448e-17 -5.889634810904748e-17 -0.524873625511117 0.8511801673222134
12634562666.666666 -0.5188510681298427 0.8548646495793225 1.5290189500041508e-17 -5.899564054094877e-17 1.5290189500041508e-17 -5.899564054094877e-17 -0.5188515864156616 0.8548643350110045
12635180000.0 -0.5128031683043767 0.8585062088167149 1.4865177131925653e-17 -5.909187849180264e-17 1.4865177131925653e-17 -5.909187849180264e-17 -0.5128036887725587 0.8585058979303007
12635797333.333334 -0.5067297113728161 0.8621049817811507 1.4439571036493767e-17 -5.91850582382331e-17 1.4439571036493767e-17 -5.91850582382331e-17 -0.50673023399721 0.862104674591774
12636414666.666666 -0.5006310000244574 0.8656607891168265 1.401339319334582e-17 -5.927517621452742e-17 1.401339319334582e-17 -5.927517621452742e-17 -0.5006315247788071 0.8656604856394348
12637032000.0 -0.494507338207155 0.8691734536093065 1.3586665602688016e-17 -5.936222901275899e-17 1.3586665602688016e-17 -5.936222901275899e-17 -0.49450786506510086 0.8691731538586608
12637649333.333334 -0.4883590311122442 0.8726428001943091 1.3159410284206446e-17 -5.944621338289835e-17 1.3159410284206446e-17 -5.944621338289835e-17 -0.48835956004732445 0.8726425041849835
12638266666.666666 -0.4821863851594076 0.8760686559663912 1.2731649275940232e-17 -5.952712623291634e-17 1.2731649275940232e-17 -5.952712623291634e-17 -0.4821869161450591 0.8760683637127715
12638884000.0 -0.475989707981253 0.8794508501876482 1.2303404633138978e-17 -5.960496462888249e-17 1.2303404633138978e-17 -5.960496462888249e-17 -0.47599024099081366 0.8794505617039324
12639501333.333334 -0.4697693084080577 0.8827892142961825 1.1874698427134991e-17 -5.967972579505188e-17 1.1874698427134991e-17 -5.967972579505188e-17 -0.4697698434147669 0.8827889295963791
12640118666.666666 -0.46352549645250113 0.8860835819144364 1.1445552744218514e-17 -5.975140711394346e-17 1.1445552744218514e-17 -5.975140711394346e-17 -0.4635260334295014 0.886083301012364
12640736000.0 -0.457258583293814 0.8893337888576986 1.1015989684476956e-17 -5.982000612641675e-17 1.1015989684476956e-17 -5.982000612641675e-17 -0.4572591222141523 0.8893335117669853
12641353333.333334 -0.4509688812628718 0.8925396731419671 1.058603136070197e-17 -5.988552053172845e-17 1.058603136070197e-17 -5.988552053172845e-17 -0.4509694220995008 0.8925393998760489
12641970666.666666 -0.44465670382607553 0.8957010749923123 1.0155699897219609e-17 -5.994794818759402e-17 1.0155699897219609e-17 -5.994794818759402e-17 -0.4446572465518553 0.8957008055644349
12642588000.0 -0.43832236557008364 0.8988178368506611 9.725017428773228e-18 -6.000728711023239e-17 9.725017428773228e-18 -6.000728711023239e-17 -0.438322910157782 0.8988175712738753
12643205333.333334 -0.4319661821859538 0.9018898033837319 9.294006099385817e-18 -6.006353547440581e-17 9.294006099385817e-18 -6.006353547440581e-17 -0.4319667286082495 0.9018895416708977
12643822666.666666 -0.42558847045341175 0.9049168214907826 8.862688061225676e-18 -6.011669161345105e-17 8.862688061225676e-18 -6.011669161345105e-17 -0.42558901868289417 0.904916563654565
12644440000.0 -0.41918954822516374 0.9078987403111864 8.431085473470495e-18 -6.016675401930292e-17 8.431085473470495e-18 -6.016675401930292e-17 -0.4191900982343349 0.907898486364056
12645057333.333334 -0.4127697344110308 0.9108354112319647 7.99922050117828e-18 -6.021372134250855e-17 7.99922050117828e-18 -6.021372134250855e-17 -0.41277028617230727 0.9108351611861979
12645674666.666666 -0.4063293489620309 0.9137266878952087 7.567115314151627e-18 -6.025759239223458e-17 7.567115314151627e-18 -6.025759239223458e-17 -0.4063299024477437 0.9137264417628846
12646292000.0 -0.3998687128543521 0.9165724262054027 7.134792085791868e-18 -6.029836613626738e-17 7.134792085791868e-18 -6.029836613626738e-17 -0.3998692680367501 0.9165721839984068
12646909333.333334 -0.39338814807354083 0.9193724843365314 6.7022729919878104e-18 -6.033604170100125e-17 6.7022729919878104e-18 -6.033604170100125e-17 -0.39338870492478983 0.9193722460665494
12647526666.666666 -0.38688797759829596 0.9221267227392106 6.26958020996361e-18 -6.037061837142329e-17 6.26958020996361e-18 -6.037061837142329e-17 -0.3868885360904821 0.9221264884177326
12648144000.0 -0.38036852538437316 0.9248350041476444 5.836735917154442e-18 -6.040209559108671e-17 5.836735917154442e-18 -6.040209559108671e-17 -0.3803690854895038 0.9248347737859631
12648761333.333334 -0.37383011634854424 0.9274971935864221 5.4037622900706504e-18 -6.043047296207799e-17 5.4037622900706504e-18 -6.043047296207799e-17 -0.37383067803854875 0.9274969671956313
12649378666.666666 -0.3672730763524045 0.9301131583772463 4.970681503172642e-18 -6.045575024497458e-17 4.970681503172642e-18 -6.045575024497458e-17 -0.3672736395991356 0.9301129359682401
12649996000.0 -0.3606977321859734 0.932682768145607 4.537515727729155e-18 -6.047792735879601e-17 4.537515727729155e-18 -6.047792735879601e-17 -0.36069829696120953 0.9326825497290804
12650613333.333334 -0.3541044115516198 0.9352058948271964 4.104287130691614e-18 -6.049700438094572e-17 4.104287130691614e-18 -6.049700438094572e-17 -0.3541049778270657 0.9352056804136447
12651230666.666666 -0.34749344304754476 0.9376824126743651 3.671017873570868e-18 -6.051298154714508e-17 3.671017873570868e-18 -6.051298154714508e-17 -0.34749401079483366 0.9376822022740836
12651848000.0 -0.34086515615151114 0.9401121982623467 3.2377301112905333e-18 -6.052585925136019e-17 3.2377301112905333e-18 -6.052585925136019e-17 -0.340865725342205 0.9401119918854282
12652465333.333334 -0.33421988120436874 0.9424951304954282 2.804445991073856e-18 -6.053563804571938e-17 2.804445991073856e-18 -6.053563804571938e-17 -0.33422045180996074 0.9424949281517653
12653082666.666666 -0.3275579493937252 0.944831090612938 2.3711876513141498e-18 -6.054231864042325e-17 2.3711876513141498e-18 -6.054231864042325e-17 -0.3275585213856409 0.9448308923122212
12653700000.0 -0.3208796927371457 0.94711996219527 1.937977220439273e-18 -6.054590190364706e-17 1.937977220439273e-18 -6.054590190364706e-17 -0.32088026608674436 0.9471197679469875
12654317333.333334 -0.3141854440659549 0.9493616311695635 1.5048368157908173e-18 -6.054638886143472e-17 1.5048368157908173e-18 -6.054638886143472e-17 -0.31418601874453045 0.9493614409829992
12654934666.666666 -0.3074755370084869 0.9515559858154421 1.0717885425060067e-18 -6.05437806975843e-17 1.0717885425060067e-18 -6.05437806975843e-17 -0.30747611298727046 0.9515557996996785
12655552000.0 -0.3007503059732976 0.9537029167706383 6.388544923748619e-19 -6.053807875352654e-17 6.388544923748619e-19 -6.053807875352654e-17 -0.30075088322345794 0.9537027347345532
12656169333.333334 -0.29401008613284807 0.9558023170363262 2.0605674274150188e-19 -6.052928452819453e-17 2.0605674274150188e-19 -6.052928452819453e-17 -0.29401066462549347 0.9558021390885932
12656786666.666666 -0.28725521340650384 0.9578540819825527 -2.265826446364064e-19 -6.051739967788583e-17 -2.265826446364064e-19 -6.051739967788583e-17 -0.28725579311268357 0.9578539081316412
12657404000.0 -0.2804860244439281 0.9598581093534069 -6.590416246994243e-19 -6.050242601611632e-17 -6.590416246994243e-19 -6.050242601611632e-17 -0.28048660533463343 0.9598579396075799
12658021333.333334 -0.2737028566082487 0.9618142992721306 -1.091298170208875e-18 -6.048436551346638e-17 -1.091298170208875e-18 -6.048436551346638e-17 -0.27370343865441554 0.961814133639449
12658638666.666666 -0.2669060479593559 0.9637225542460721 -1.5233302728577155e-18 -6.046322029741905e-17 -1.5233302728577155e-18 -6.046322029741905e-17 -0.26690663113186464 0.963722392734388
12659256000.0 -0.2600959372368882 0.9655827791715839 -1.955115944397193e-18 -6.043899265218982e-17 -1.955115944397193e-18 -6.043899265218982e-17 -0.26009652150656615 0.9655826217885446
12659873333.333334 -0.25327286384343284 0.9673948813387432 -2.3866332177465787e-18 -6.041168501854927e-17 -2.3866332177465787e-18 -6.041168501854927e-17 -0.25327344918105565 0.967394728091789
12660490666.666666 -0.24643716782772096 0.9691587704359423 -2.817860148099666e-18 -6.038129999363731e-17 -2.817860148099666e-18 -6.038129999363731e-17 -0.24643775420401368 0.9691586213323065
12661108000.0 -0.239589189867377 0.9708743585544678 -3.2487748140554477e-18 -6.034784033076884e-17 -3.2487748140554477e-18 -6.034784033076884e-17 -0.23958977725301603 0.9708742136011776
12661725333.333334 -0.23272927125232615 0.9725415601927847 -3.679355318704278e-18 -6.031130893923356e-17 -3.679355318704278e-18 -6.031130893923356e-17 -0.23272985961794032 0.9725414193966594
12662342666.666666 -0.22585775386745394 0.9741602922608799 -4.109579790755205e-18 -6.027170888408518e-17 -4.109579790755205e-18 -6.027170888408518e-17 -0.22585834318362613 0.9741601556285305
12662960000.0 -0.21897498017581615 0.9757304740843429 -4.539426385634174e-18 -6.022904338592517e-17 -4.539426385634174e-18 -6.022904338592517e-17 -0.2189755704130844 0.9757303416221714
12663577333.333334 -0.21208129320137697 0.9772520274084306 -4.968873286590668e-18 -6.018331582067704e-17 -4.968873286590668e-18 -6.018331582067704e-17 -0.21208188433023684 0.9772518991226323
12664194666.666666 -0.2051770365120245 0.9787248764019432 -5.3978987058025215e-18 -6.013452971935346e-17 -5.3978987058025215e-18 -6.013452971935346e-17 -0.20517762850292987 0.9787247522985045
12664812000.0 -0.19826255420242067 0.9801489476610112 -5.826480885470296e-18 -6.008268876781611e-17 -5.826480885470296e-18 -6.008268876781611e-17 -0.19826314702578518 0.9801488277457086
12665429333.333334 -0.1913381908768236 0.9815241702127563 -6.2545980989284585e-18 -6.002779680652593e-17 -6.2545980989284585e-18 -6.002779680652593e-17 -0.1913387845030224 0.9815240544911579
12666046666.666666 -0.1844042916320252 0.9828504755188082 -6.6822286517272344e-18 -5.996985783028823e-17 -6.6822286517272344e-18 -5.996985783028823e-17 -0.18440488603139613 0.9828503639962715
12666664000.0 -0.1774612020399845 0.984127797478752 -7.109350882748196e-18 -5.990887598798621e-17 -7.109350882748196e-18 -5.990887598798621e-17 -0.17746179718283014 0.9841276901604266
12667281333.333334 -0.17050926813068926 0.9853560724334088 -7.535943165273466e-18 -5.984485558231205e-17 -7.535943165273466e-18 -5.984485558231205e-17 -0.17050986398727763 0.9853559693242319
12667898666.666666 -0.16354883637502182 0.9865352391679845 -7.961983908093537e-18 -5.977780106948498e-17 -7.961983908093537e-18 -5.977780106948498e-17 -0.16354943291558852 0.9865351402726844
12668516000.0 -0.1565802536671843 0.9876652389151784 -8.387451556595859e-18 -5.970771705896374e-17 -8.387451556595859e-18 -5.970771705896374e-17 -0.1565808508619337 0.9876651442382731
12669133333.333334 -0.14960386730780167 0.9887460153580417 -8.812324593837576e-18 -5.963460831315352e-17 -8.812324593837576e-18 -5.963460831315352e-17 -0.14960446512690856 0.988745924903839
12669750666.666666 -0.1426200249863055 0.9897775146328399 -9.236581541639676e-18 -5.955847974710185e-17 -9.236581541639676e-18 -5.955847974710185e-17 -0.14262062339991607 0.9897774284054346
12670368000.0 -0.1356290747637166 0.9907596853317125 -9.66020096167187e-18 -5.947933642818707e-17 -9.66020096167187e-18 -5.947933642818707e-17 -0.13562967374195078 0.9907596033349908
