! Parameters = {f0=12700.012000; bw=77.238000; Q=6100.000000; N=10; m_0_1=1.163458; m_1_1=-1.312869; m_1_2=0.998270; m_2_2=-1.313518; m_2_3=0.635233; m_2_8=-0.004763; m_2_9=0.031941; m_3_3=-1.315455; m_3_4=0.523762; m_3_7=-0.004163; m_3_8=-0.101251; m_3_9=-0.004763; m_4_4=-1.318380; m_4_5=0.360097; m_4_6=-0.000646; m_4_7=-0.121800; m_4_8=-0.004163; m_5_5=-1.317998; m_5_6=0.767452; m_5_7=-0.000646; m_6_6=-1.317999; m_6_7=0.360439; m_7_7=-1.318366; m_7_8=0.523880; m_8_8=-1.315457; m_8_9=0.635546; m_9_9=-1.313523; m_9_10=0.999348; m_10_10=-1.312879; m_10_11=1.164253}
!
! Created with skrf (http://scikit-rf.org).
# Hz S RI R 50.0 
!freq ReS11 ImS11 ReS21 ImS21 ReS12 ImS12 ReS22 ImS22
12607400000.0 -0.6661639530972979 0.7458053282148317 2.776164382418353e-17 -5.880995029015884e-17 2.776164382418353e-17 -5.880995029015884e-17 -0.6661644103943454 0.7458049197503367
12608017333.333334 -0.6606468491970595 0.7506968367096334 2.7316683982205403e-17 -5.900390790297718e-17 2.7316683982205403e-17 -5.900390790297718e-17 -0.6606473094708372 0.7506964316478373
12608634666.666666 -0.6550938290403516 0.7555475333512129 2.687037693192808e-17 -5.919450308841495e-17 2.687037693192808e-17 -5.919450308841495e-17 -0.6550942922655463 0.7555471317138028
12609252000.0 -0.6495051945188042 0.7603571544300365 2.6422748051375348e-17 -5.938172655146172e-17 2.6422748051375348e-17 -5.938172655146172e-17 -0.6495056606699449 0.7603567562385112
12609869333.333334 -0.6438812494601447 0.7651254384697282 2.5973822782200628e-17 -5.956556918842103e-17 2.5973822782200628e-17 -5.956556918842103e-17 -0.6438817185116038 0.7651250437453971
12610486666.666666 -0.6382222996118782 0.7698521262411231 2.5523626628253412e-17 -5.974602208733922e-17 2.5523626628253412e-17 -5.974602208733922e-17 -0.638222771537872 0.7698517350051038
12611104000.0 -0.6325286526243995 0.7745369607765742 2.5072185154123706e-17 -5.992307652843093e-17 2.5072185154123706e-17 -5.992307652843093e-17 -0.6325291273989924 0.7745365730497954
12611721333.333334 -0.6268006180345571 0.7791796873836929 2.461952398370965e-17 -6.009672398448378e-17 2.461952398370965e-17 -6.009672398448378e-17 -0.6268010956316593 0.7791793031868873
12612338666.666666 -0.621038507248689 0.7837800536592981 2.416566879875641e-17 -6.026695612126198e-17 2.416566879875641e-17 -6.026695612126198e-17 -0.621038987642061 0.7837796730130067
12612956000.0 -0.6152426335255637 0.7883378095032497 2.371064533740972e-17 -6.04337647978923e-17 2.371064533740972e-17 -6.04337647978923e-17 -0.6152431166888163 0.7883374324278175
12613573333.333334 -0.6094133119596129 0.7928527071318275 2.325447939276696e-17 -6.059714206723972e-17 2.325447939276696e-17 -6.059714206723972e-17 -0.609413797866209 0.7928523336474044
12614190666.666666 -0.6035508594636488 0.7973245010913322 2.2797196811409985e-17 -6.075708017627731e-17 2.2797196811409985e-17 -6.075708017627731e-17 -0.6035513480869049 0.79732413121787
12614808000.0 -0.5976555947516115 0.8017529482714422 2.233882349195309e-17 -6.091357156643935e-17 2.233882349195309e-17 -6.091357156643935e-17 -0.597656086064698 0.801752582028694
12615425333.333334 -0.5917278383213062 0.8061378079183772 2.187938538357795e-17 -6.106660887396649e-17 2.187938538357795e-17 -6.106660887396649e-17 -0.5917283322972514 0.8061374453258983
12616042666.666666 -0.5857679124369384 0.8104788416480244 2.1418908484577146e-17 -6.121618493023744e-17 2.1418908484577146e-17 -6.121618493023744e-17 -0.5857684090486276 0.8104784827251685
12616660000.0 -0.5797761411116831 0.81477581345883 2.0957418840877743e-17 -6.136229276209446e-17 2.0957418840877743e-17 -6.136229276209446e-17 -0.579776640331861 0.81477545822475
12617277333.333334 -0.5737528500899091 0.819028489744745 2.049494254457871e-17 -6.150492559215335e-17 2.049494254457871e-17 -6.150492559215335e-17 -0.573753351891182 0.8190281382183917
12617894666.666666 -0.5676983668296793 0.82323663930778 2.003150573248806e-17 -6.164407683910162e-17 2.003150573248806e-17 -6.164407683910162e-17 -0.5676988711845148 0.8232362915078997
12618512000.0 -0.5616130204846664 0.827400033370765 1.9567134584631695e-17 -6.177974011799391e-17 1.9567134584631695e-17 -6.177974011799391e-17 -0.5616135273653966 0.8273996893159004
12619129333.333334 -0.5554971418865636 0.8315184455895795 1.9101855322802684e-17 -6.191190924052329e-17 1.9101855322802684e-17 -6.191190924052329e-17 -0.5554976512653865 0.8315181052980689
12619746666.666666 -0.5493510635269612 0.835591652065559 1.863569420907539e-17 -6.204057821529211e-17 1.863569420907539e-17 -6.204057821529211e-17 -0.5493515753759403 0.8355913155555318
12620364000.0 -0.5431751195391221 0.8396194313577509 1.8168677544317755e-17 -6.216574124807108e-17 1.8168677544317755e-17 -6.216574124807108e-17 -0.5431756338301912 0.8396190986471319
12620981333.333334 -0.5369696456801315 0.84360156449476 1.770083166673574e-17 -6.228739274203802e-17 1.770083166673574e-17 -6.228739274203802e-17 -0.5369701623850927 0.8436012356012637
12621598666.666666 -0.530734979312353 0.8475378349868333 1.7232182950371966e-17 -6.240552729801796e-17 1.7232182950371966e-17 -6.240552729801796e-17 -0.5307354984028809 0.8475375099279661
12622216000.0 -0.5244714593853053 0.8514280288374929 1.676275780364012e-17 -6.252013971470179e-17 1.676275780364012e-17 -6.252013971470179e-17 -0.524471980832948 0.8514277076305514
12622833333.333334 -0.518179426417044 0.8552719345552939 1.629258266782796e-17 -6.263122498886212e-17 1.629258266782796e-17 -6.263122498886212e-17 -0.5181799501932227 0.8552716172173618
12623450666.666666 -0.5118592224758378 0.8590693431651967 1.5821684015627407e-17 -6.273877831555047e-17 1.5821684015627407e-17 -6.273877831555047e-17 -0.5118597485518512 0.8590690297131469
12624068000.0 -0.5055111911614076 0.862820048220037 1.5350088349636797e-17 -6.284279508828992e-17 1.5350088349636797e-17 -6.284279508828992e-17 -0.5055117195084317 0.8628197386705293
12624685333.333334 -0.4991356775863155 0.8665238458117016 1.4877822200879902e-17 -6.29432708992527e-17 1.4877822200879902e-17 -6.29432708992527e-17 -0.49913620817540594 0.8665235401811827
12625302666.666666 -0.4927330283573034 0.8701805345821602 1.4404912127325814e-17 -6.30402015394262e-17 1.4404912127325814e-17 -6.30402015394262e-17 -0.49273356115939626 0.8701802328868606
12625920000.0 -0.4863035915561765 0.8737899157345634 1.393138471238081e-17 -6.313358299877322e-17 1.393138471238081e-17 -6.313358299877322e-17 -0.48630412654209154 0.8737896179905009
12626537333.333334 -0.4798477167212034 0.8773517930438738 1.3457266563422733e-17 -6.322341146637277e-17 1.3457266563422733e-17 -6.322341146637277e-17 -0.4798482538616433 0.8773514992668469
12627154666.666666 -0.47336575482793786 0.8808659728676261 1.298258431030033e-17 -6.330968333055632e-17 1.298258431030033e-17 -6.330968333055632e-17 -0.47336629409349146 0.8808656830732172
12627772000.0 -0.46685805827008914 0.8843322641564845 1.2507364603830082e-17 -6.33923951790332e-17 1.2507364603830082e-17 -6.33923951790332e-17 -0.4668585996312333 0.8843319783600588
12628389333.333334 -0.4603249808405643 0.8877504784645216 1.2031634114337594e-17 -6.347154379899617e-17 1.2031634114337594e-17 -6.347154379899617e-17 -0.4603255242676638 0.8877501966812246
12629006666.666666 -0.4537668777119312 0.8911204299596197 1.1555419530128136e-17 -6.354712617722958e-17 1.1555419530128136e-17 -6.354712617722958e-17 -0.45376742317524216 0.8911201522043776
12629624000.0 -0.44718410541746373 0.894441935433393 1.1078747556021635e-17 -6.36191395001936e-17 1.1078747556021635e-17 -6.36191395001936e-17 -0.4471846528871342 0.8944416617209117
12630241333.333334 -0.4405770218314553 0.8977148143113031 1.0601644911847748e-17 -6.368758115410518e-17 1.0601644911847748e-17 -6.368758115410518e-17 -0.440577571277527 0.8977145446560663
12630858666.666666 -0.4339459861500157 0.9009388886623455 1.0124138330962285e-17 -6.375244872500382e-17 1.0124138330962285e-17 -6.375244872500382e-17 -0.4339465375424262 0.9009386230786159
12631476000.0 -0.4272913588712131 0.9041139832088897 9.646254558741714e-18 -6.381373999880951e-17 9.646254558741714e-18 -6.381373999880951e-17 -0.4272919121797967 0.9041137217107068
12632093333.333334 -0.4206135017759087 0.9072399253359937 9.168020351103092e-18 -6.387145296136624e-17 9.168020351103092e-18 -6.387145296136624e-17 -0.42061405697039916 0.9072396679371744
12632710666.666666 -0.4139127779077836 0.9103165451009412 8.689462473007502e-18 -6.392558579847615e-17 8.689462473007502e-18 -6.392558579847615e-17 -0.4139133349578145 0.9103162918150772
12633328000.0 -0.4071895515535728 0.9133436752424866 8.21060769695458e-18 -6.397613689592404e-17 8.21060769695458e-18 -6.397613689592404e-17 -0.4071901104286799 0.913343426082945
12633945333.333334 -0.4004441882234424 0.9163211511898661 7.731482801513546e-18 -6.402310483948591e-17 7.731482801513546e-18 -6.402310483948591e-17 -0.4004447488930654 0.9163209061697885
12634562666.666666 -0.393677054631093 0.9192488110717575 7.252114569810819e-18 -6.406648841493205e-17 7.252114569810819e-18 -6.406648841493205e-17 -0.3936776170645774 0.91924857020406
12635180000.0 -0.386888518673694 0.9221264957251405 6.7725297880470755e-18 -6.410628660801514e-17 6.7725297880470755e-18 -6.410628660801514e-17 -0.3868890828402918 0.9221262590225109
12635797333.333334 -0.3800789494119589 0.9249540487039095 6.292755244001997e-18 -6.414249860444906e-17 6.292755244001997e-18 -6.414249860444906e-17 -0.3800795152808311 0.9249538161788086
12636414666.666666 -0.3732487170501617 0.9277313162873512 5.8128177255486136e-18 -6.417512378987554e-17 5.8128177255486136e-18 -6.417512378987554e-17 -0.3732492845903798 0.9277310879520111
12637032000.0 -0.3663981929158257 0.9304581474885744 5.33274401915906e-18 -6.420416174982013e-17 5.33274401915906e-18 -6.420416174982013e-17 -0.3663987620963736 0.9304579233549992
12637649333.333334 -0.35952774943974775 0.9331343940626354 4.852560908411115e-18 -6.422961226963814e-17 4.852560908411115e-18 -6.422961226963814e-17 -0.3595283202295229 0.9331341741425991
12638266666.666666 -0.3526377601355653 0.9357599105146706 4.3722951725044485e-18 -6.425147533444731e-17 4.3722951725044485e-18 -6.425147533444731e-17 -0.3526383325033806 0.9357596948197159
12638884000.0 -0.34572859957952945 0.9383345541077711 3.891973584770531e-18 -6.42697511290511e-17 3.891973584770531e-18 -6.42697511290511e-17 -0.3457291734941155 0.9383343426492117
12639501333.333334 -0.3388006433901953 0.9408581848707294 3.4116229111833593e-18 -6.428444003785042e-17 3.4116229111833593e-18 -6.428444003785042e-17 -0.3388012188202012 0.9408579776596457
12640118666.666666 -0.3318542682080003 0.9433306656056432 2.9312699088821878e-18 -6.429554264474362e-17 2.9312699088821878e-18 -6.429554264474362e-17 -0.3318548451219965 0.9433304626528861
12640736000.0 -0.3248898516744679 0.9457518618954943 2.450941324664234e-18 -6.430305973301709e-17 2.450941324664234e-18 -6.430305973301709e-17 -0.324890430040947 0.9457516632116814
12641353333.333334 -0.317907772412293 0.9481216421112352 1.9706638935334025e-18 -6.43069922852227e-17 1.9706638935334025e-18 -6.43069922852227e-17 -0.3179083521996713 0.9481214477067496
12641970666.666666 -0.31090841000416736 0.9504398774191516 1.4904643371862273e-18 -6.430734148304599e-17 1.4904643371862273e-18 -6.430734148304599e-17 -0.3109089911807873 0.9504396873041434
12642588000.0 -0.30389214497252015 0.9527064417877386 1.0103693625448714e-18 -6.43041087071624e-17 1.0103693625448714e-18 -6.43041087071624e-17 -0.30389272750665147 0.9527062559721234
12643205333.333334 -0.2968593587586414 0.9549212119946123 5.3040566028235965e-19 -6.429729553708229e-17 5.3040566028235965e-19 -6.429729553708229e-17 -0.2968599426184838 0.9549210304880729
12643822666.666666 -0.2898104337019195 0.957084067633224 5.0599903325556483e-20 -6.428690375098613e-17 5.0599903325556483e-20 -6.428690375098613e-17 -0.2898110188556031 0.9570838904452056
12644440000.0 -0.28274575301926935 0.9591948911193281 -4.29021254605586e-19 -6.427293532554725e-17 -4.29021254605586e-19 -6.427293532554725e-17 -0.2827463394348573 0.9591947182590412
12645057333.333334 -0.2756657007841106 0.9612535676974406 -9.084311804772276e-19 -6.425539243574465e-17 -9.084311804772276e-19 -6.425539243574465e-17 -0.2756662884296006 0.9612533991738605
12645674666.666666 -0.26857066190559614 0.9632599854470457 -1.3876032634172935e-18 -6.42342774546647e-17 -1.3876032634172935e-18 -6.42342774546647e-17 -0.2685712507489222 0.9632598212689099
12646292000.0 -0.2614610221074675 0.9652140352887391 -1.8665109161929532e-18 -6.420959295329098e-17 -1.8665109161929532e-18 -6.420959295329098e-17 -0.26146161211650154 0.9652138754645485
12646909333.333334 -0.2543371679074126 0.9671156109900662 -2.3451275766679743e-18 -6.418134170028493e-17 -2.3451275766679743e-18 -6.418134170028493e-17 -0.25433775904996636 0.9671154555280843
12647526666.666666 -0.24719948659588944 0.9689646091713467 -2.8234267092818196e-18 -6.414952666175382e-17 -2.8234267092818196e-18 -6.414952666175382e-17 -0.2472000788397162 0.968964458079599
12648144000.0 -0.24004836621493292 0.9707609293113286 -3.301381806517566e-18 -6.411415100100857e-17 -3.301381806517566e-18 -6.411415100100857e-17 -0.24004895952772898 0.9707607825976011
12648761333.333334 -0.23288419553727838 0.9725044737525934 -3.778966390351284e-18 -6.407521807831134e-17 -3.778966390351284e-18 -6.407521807831134e-17 -0.23288478988668548 0.9725043314244349
12649378666.666666 -0.22570736404517117 0.9741951477068818 -4.256154013724749e-18 -6.40327314506114e-17 -4.256154013724749e-18 -6.40327314506114e-17 -0.22570795939877786 0.9741950097716022
12649996000.0 -0.21851826190916593 0.9758328592602578 -4.732918262006706e-18 -6.398669487126996e-17 -4.732918262006706e-18 -6.398669487126996e-17 -0.218518858234509 0.9758327257249262
12650613333.333334 -0.21131727996683003 0.9774175193781182 -5.2092327544463195e-18 -6.393711228977495e-17 -5.2092327544463195e-18 -6.393711228977495e-17 -0.21131787723139686 0.9774173902495642
12651230666.666666 -0.20410480970171818 0.9789490419099856 -5.685071145622359e-18 -6.388398785144517e-17 -5.685071145622359e-18 -6.388398785144517e-17 -0.20410540787294829 0.9789489171947995
12651848000.0 -0.19688124322175618 0.9804273435942663 -6.160407126906205e-18 -6.382732589712221e-17 -6.160407126906205e-18 -6.382732589712221e-17 -0.19688184226704278 0.9804272232987964
12652465333.333334 -0.18964697323828464 0.9818523440626952 -6.6352144279058684e-18 -6.376713096285287e-17 -6.6352144279058684e-18 -6.376713096285287e-17 -0.18964757312497693 0.981852228193051
12653082666.666666 -0.18240239304454378 0.98322396584475 -7.1094668179056e-18 -6.370340777956197e-17 -7.1094668179056e-18 -6.370340777956197e-17 -0.1824029937399479 0.9832238544067964
12653700000.0 -0.1751478964941219 0.9845421343718805 -7.583138107329752e-18 -6.363616127270991e-17 -7.583138107329752e-18 -6.363616127270991e-17 -0.1751484979655038 0.9845420273712446
12654317333.333334 -0.1678838779799088 0.9858067779815064 -8.056202149160468e-18 -6.3565396561946e-17 -8.056202149160468e-18 -6.3565396561946e-17 -0.16788448019449523 0.9858066754235724
12654934666.666666 -0.16061073241234644 0.9870178279209666 -8.528632840386823e-18 -6.349111896074664e-17 -8.528632840386823e-18 -6.349111896074664e-17 -0.1606113353373267 0.9870177298108752
12655552000.0 -0.1533288551980699 0.9881752183512301 -9.000404123450781e-18 -6.341333397604179e-17 -9.000404123450781e-18 -6.341333397604179e-17 -0.15332945880059828 0.9881751246938817
12656169333.333334 -0.14603864221849752 0.9892788863504719 -9.471489987656007e-18 -6.333204730783722e-17 -9.471489987656007e-18 -6.333204730783722e-17 -0.1460392464656943 0.9892787971505229
12656786666.666666 -0.13874048980811038 0.9903287719175176 -9.941864470618383e-18 -6.324726484881816e-17 -9.941864470618383e-18 -6.324726484881816e-17 -0.13874109466706416 0.9903286871793815
12657404000.0 -0.13143479473313097 0.9913248179750737 -1.0411501659675578e-17 -6.315899268394891e-17 -1.0411501659675578e-17 -6.315899268394891e-17 -0.13143540017090047 0.9913247377029227
12658021333.333334 -0.12412195416972797 0.9922669703728643 -1.0880375693323866e-17 -6.306723709005718e-17 -1.0880375693323866e-17 -6.306723709005718e-17 -0.12412256015334337 0.9922668945706254
12658638666.666666 -0.11680236568267655 0.9931551778905368 -1.1348460762620942e-17 -6.297200453541225e-17 -1.1348460762620942e-17 -6.297200453541225e-17 -0.11680297217914191 0.9931551065618964
12659256000.0 -0.10947642720340713 0.9939893922404957 -1.1815731112621188e-17 -6.287330167928714e-17 -1.1815731112621188e-17 -6.287330167928714e-17 -0.10947703417970162 0.9939893253888942
12659873333.333334 -0.10214453700873775 0.9947695680704767 -1.2282161043771554e-17 -6.277113537151648e-17 -1.2282161043771554e-17 -6.277113537151648e-17 -0.10214514443181777 0.9947695056991122
12660490666.666666 -0.0948070936990528 0.9954956629660378 -1.2747724913321679e-17 -6.266551265204059e-17 -1.2747724913321679e-17 -6.266551265204059e-17 -0.09480770153585359 0.9954956050778633
12661108000.0 -0.08746449617646312 0.9961676374528793 -1.3212397136739244e-17 -6.255644075043754e-17 -1.3212397136739244e-17 -6.255644075043754e-17 -0.08746510439390066 0.9961675840506037
12661725333.333334 -0.08011714362348706 0.9967854549989512 -1.3676152189096578e-17 -6.244392708544982e-17 -1.3676152189096578e-17 -6.244392708544982e-17 -0.08011775218846 0.9967854060850416
12662342666.666666 -0.07276543548100965 0.9973490820164779 -1.4138964606480092e-17 -6.232797926449507e-17 -1.4138964606480092e-17 -6.232797926449507e-17 -0.07276604436040093 0.9973490375931553
12662960000.0 -0.0654097714268216 0.9978584878637569 -1.4600808987378004e-17 -6.220860508317049e-17 -1.4600808987378004e-17 -6.220860508317049e-17 -0.06541038058750018 0.9978584479329976
12663577333.333334 -0.058050551353692116 0.9983136448468407 -1.5061659994064045e-17 -6.208581252474653e-17 -1.5061659994064045e-17 -6.208581252474653e-17 -0.05805116076251506 0.9983136094103786
12664194666.666666 -0.0506881753477423 0.9987145282210368 -1.5521492353993048e-17 -6.195960975964744e-17 -1.5521492353993048e-17 -6.195960975964744e-17 -0.05068878497155631 0.998714497280359
12664812000.0 -0.043323043666637445 0.9990611161922529 -1.5980280861174683e-17 -6.183000514492512e-17 -1.5980280861174683e-17 -6.183000514492512e-17 -0.04332365347228076 0.9990610897486027
12665429333.333334 -0.03595555671791209 0.9993533899181798 -1.6438000377553428e-17 -6.169700722372032e-17 -1.6438000377553428e-17 -6.169700722372032e-17 -0.03595616667221635 0.9993533679725565
12666046666.666666 -0.02858611503717341 0.9995913335093163 -1.689462583437391e-17 -6.15606247247169e-17 -1.689462583437391e-17 -6.15606247247169e-17 -0.028586725106965423 0.999591316062475
12666664000.0 -0.021215119266127232 0.9997749340298432 -1.7350132233560854e-17 -6.142086656158002e-17 -1.7350132233560854e-17 -6.142086656158002e-17 -0.02121572941823073 0.9997749210822935
12667281333.333334 -0.0138429701311377 0.999904181498308 -1.7804494649068622e-17 -6.127774183239242e-17 -1.7804494649068622e-17 -6.127774183239242e-17 -0.013843580332375175 0.9999041730503152
12667898666.666666 -0.006470068421271447 0.999979068888183 -1.825768822825041e-17 -6.11312598190729e-17 -1.825768822825041e-17 -6.11312598190729e-17 -0.006470678638465955 0.999979064939767
12668516000.0 0.0009031850336620725 0.9999995921282405 -1.8709688193214242e-17 -6.09814299867879e-17 -1.8709688193214242e-17 -6.09814299867879e-17 0.0009025748336850966 0.9999995926791784
12669133333.333334 0.008276389384532313 0.9999657501027767 -1.916046984215859e-17 -6.082826198335728e-17 -1.916046984215859e-17 -6.082826198335728e-17 0.008275779234943268 0.9999657551525989
12669750666.666666 0.01564914378502095 0.9998775446516679 -1.961000855072756e-17 -6.067176563864332e-17 -1.961000855072756e-17 -6.067176563864332e-17 0.01564853371898428 0.9998775541996627
12670368000.0 0.023021047413186693 0.9997349805702774 -2.005827977335434e-17 -6.051195096393176e-17 -2.005827977335434e-17 -6.051195096393176e-17 0.023020437463859043 0.9997349946154863
