! Parameters = {f0=12700.012000; bw=77.238000; Q=6100.000000; N=10; m_0_1=1.247342; m_1_1=-0.054611; m_1_2=1.082154; m_2_2=-0.055260; m_2_3=0.719117; m_2_8=-0.000569; m_2_9=0.036135; m_3_3=-0.057197; m_3_4=0.607646; m_3_7=0.000031; m_3_8=-0.097057; m_3_9=-0.000569; m_4_4=-0.060122; m_4_5=0.443981; m_4_6=0.003548; m_4_7=-0.117606; m_4_8=0.000031; m_5_5=-0.059740; m_5_6=0.851336; m_5_7=0.003548; m_6_6=-0.059741; m_6_7=0.444323; m_7_7=-0.060108; m_7_8=0.607764; m_8_8=-0.057199; m_8_9=0.719430; m_9_9=-0.055265; m_9_10=1.083232; m_10_10=-0.054621; m_10_11=1.248137}
!
! Created with skrf (http://scikit-rf.org).
# Hz S RI R 50.0 
!freq ReS11 ImS11 ReS21 ImS21 ReS12 ImS12 ReS22 ImS22
12607400000.0 -0.3118950016842739 0.9501165759653901 2.8962090957400428e-18 -9.92325176386582e-17 2.8962090957400428e-18 -9.92325176386582e-17 -0.3118956261149152 0.9501163709831627
12608017333.333334 -0.30251839388303375 0.953143547091548 1.9091569320440488e-18 -9.92369681712511e-17 1.9091569320440488e-18 -9.92369681712511e-17 -0.30251902027237565 0.9531433482815016
12608634666.666666 -0.29311241659168014 0.9560779838693155 9.223026165353112e-19 -9.923160755751076e-17 9.223026165353112e-19 -9.923160755751076e-17 -0.2931130448787214 0.9560777912501444
12609252000.0 -0.28367798297383984 0.9589196014138642 -6.425639833641998e-20 -9.921644016980913e-17 -6.425639833641998e-20 -9.921644016980913e-17 -0.2836786130974014 0.9589194150036615
12609869333.333334 -0.27421600895566484 0.9616681238516004 -1.0504227274791161e-18 -9.919147134781248e-17 -1.0504227274791161e-18 -9.919147134781248e-17 -0.27421664085439557 0.961667943667855
12610486666.666666 -0.2647274131372382 0.9643232843468506 -2.036099062719016e-18 -9.915670739757547e-17 -2.036099062719016e-18 -9.915670739757547e-17 -0.26472804674962036 0.9643231104064447
12611104000.0 -0.2552131167028736 0.9668848251279136 -3.0211881824371897e-18 -9.911215559053823e-17 -3.0211881824371897e-18 -9.911215559053823e-17 -0.2552137519672295 0.9668846574471225
12611721333.333334 -0.2456740433322591 0.9693524975119265 -4.005592961081085e-18 -9.905782416243202e-17 -4.005592961081085e-18 -9.905782416243202e-17 -0.2456746801867562 0.9693523361064152
12612338666.666666 -0.2361111191104271 0.9717260619291083 -4.98921637875864e-18 -9.89937223120868e-17 -4.98921637875864e-18 -9.89937223120868e-17 -0.23611175749308475 0.9717259068139309
12612956000.0 -0.2265252724377626 0.9740052879460295 -5.971961530789987e-18 -9.891986020014434e-17 -5.971961530789987e-18 -9.891986020014434e-17 -0.22652591228645813 0.9740051391356295
12613573333.333334 -0.21691743394028623 0.9761899542878889 -6.953731637190655e-18 -9.883624894768087e-17 -6.953731637190655e-18 -9.883624894768087e-17 -0.21691807519276066 0.976189811796096
12614190666.666666 -0.20728853637894692 0.9782798488600818 -7.934430052234325e-18 -9.874290063472919e-17 -7.934430052234325e-18 -9.874290063472919e-17 -0.2072891789728106 0.978279712700109
12614808000.0 -0.19763951455911985 0.9802747687687705 -8.913960273914223e-18 -9.863982829871176e-17 -8.913960273914223e-18 -9.863982829871176e-17 -0.1976401584318595 0.9802746389532163
12615425333.333334 -0.1879713052399929 0.9821745203405574 -9.892225953431647e-18 -9.852704593277768e-17 -9.892225953431647e-18 -9.852704593277768e-17 -0.18797195032897723 0.9821743968814043
12616042666.666666 -0.17828484704353903 0.9839789191413052 -1.0869130904662732e-17 -9.840456848404485e-17 -1.0869130904662732e-17 -9.840456848404485e-17 -0.17828549328602475 0.9839788020499163
12616660000.0 -0.1685810803633083 0.9856877899940574 -1.1844579113577497e-17 -9.82724118517522e-17 -1.1844579113577497e-17 -9.82724118517522e-17 -0.1685817276964461 0.9856876792811763
12617277333.333334 -0.1588609472732702 0.9873009669960163 -1.281847474768293e-17 -9.813059288531323e-17 -1.281847474768293e-17 -9.813059288531323e-17 -0.15886159563411112 0.987300862671766
12617894666.666666 -0.14912539143641082 0.9888182935346447 -1.3790722165385845e-17 -9.797912938228416e-17 -1.3790722165385845e-17 -9.797912938228416e-17 -0.14912604076191244 0.9888181956085281
12618512000.0 -0.13937535801272627 0.9902396223029324 -1.4761225925405625e-17 -9.781804008622856e-17 -1.4761225925405625e-17 -9.781804008622856e-17 -0.13937600823975854 0.9902395307838301
12619129333.333334 -0.12961179356802438 0.991564815313608 -1.5729890796094036e-17 -9.764734468450084e-17 -1.5729890796094036e-17 -9.764734468450084e-17 -0.12961244463337604 0.9915647302097779
12619746666.666666 -0.1198356459816644 0.9927937439125951 -1.6696621764772238e-17 -9.746706380592951e-17 -1.6696621764772238e-17 -9.746706380592951e-17 -0.11983629782204885 0.9927936652316707
12620364000.0 -0.11004786435444817 0.9939262887915056 -1.766132404703976e-17 -9.727721901840946e-17 -1.766132404703976e-17 -9.727721901840946e-17 -0.11004851690650991 0.993926216540497
12620981333.333334 -0.10024939891693 0.9949623399991703 -1.862390309603251e-17 -9.707783282640715e-17 -1.862390309603251e-17 -9.707783282640715e-17 -0.10025005211725063 0.9949622741844633
12621598666.666666 -0.09044120093665693 0.9959017969523728 -1.9584264611678395e-17 -9.686892866836905e-17 -1.9584264611678395e-17 -9.686892866836905e-17 -0.09044185472176122 0.9959017375797263
12622216000.0 -0.08062422262615557 0.9967445684455767 -2.0542314549925036e-17 -9.665053091403918e-17 -2.0542314549925036e-17 -9.665053091403918e-17 -0.08062487693251776 0.9967445155201242
12622833333.333334 -0.07079941705034645 0.9974905726597924 -2.149795913191647e-17 -9.64226648616897e-17 -2.149795913191647e-17 -9.64226648616897e-17 -0.07080007181439649 0.9974905261860417
12623450666.666666 -0.06096773803404627 0.9981397371705234 -2.2451104853151276e-17 -9.618535673525973e-17 -2.2451104853151276e-17 -9.618535673525973e-17 -0.0609683931921758 0.998139697152355
12624068000.0 -0.05113014006939513 0.9986919989547899 -2.3401658492634498e-17 -9.593863368139715e-17 -2.3401658492634498e-17 -9.593863368139715e-17 -0.051130795557963744 0.9986919653954567
12624685333.333334 -0.041287578223078034 0.9991473043972561 -2.4349527121962292e-17 -9.568252376641863e-17 -2.4349527121962292e-17 -9.568252376641863e-17 -0.04128823397841954 0.9991472772993848
12625302666.666666 -0.031441008043802496 0.9995056092954258 -2.5294618114369133e-17 -9.541705597318267e-17 -2.5294618114369133e-17 -9.541705597318267e-17 -0.03144166400223101 0.9995055886610147
12625920000.0 -0.02159138546927512 0.9997668788639419 -2.623683915380922e-17 -9.514226019785474e-17 -2.623683915380922e-17 -9.514226019785474e-17 -0.02159204156709127 0.9997668646943623
12626537333.333334 -0.011739666733708463 0.9999310877379559 -2.7176098243898063e-17 -9.485816724661175e-17 -2.7176098243898063e-17 -9.485816724661175e-17 -0.011740322907205579 0.9999310800339516
12627154666.666666 -0.0018868082747309622 0.9999982199755983 -2.811230371691383e-17 -9.456480883223294e-17 -2.811230371691383e-17 -9.456480883223294e-17 -0.0018874644602012505 0.9999982187372846
12627772000.0 0.007966233359467285 0.9999682690595201 -2.904536424272178e-17 -9.42622175706121e-17 -2.904536424272178e-17 -9.42622175706121e-17 0.007965577225726548 0.999968274286385
12628389333.333334 0.017818501602686748 0.9998412378975297 -2.9975188837635574e-17 -9.395042697719222e-17 -2.9975188837635574e-17 -9.395042697719222e-17 0.017817845584367047 0.9998412495884346
12629006666.666666 0.027669039964096663 0.9996171388223068 -3.0901686873318104e-17 -9.362947146328673e-17 -3.0901686873318104e-17 -9.362947146328673e-17 0.027668384124872037 0.9996171569754839
12629624000.0 0.03751689212058282 0.9992959935902093 -3.1824768085547824e-17 -9.329938633234554e-17 -3.1824768085547824e-17 -9.329938633234554e-17 0.037516236524103665 0.9992960182032639
12630241333.333334 0.04736110200998825 0.9988778333791523 -3.2744342583030924e-17 -9.296020777610611e-17 -3.2744342583030924e-17 -9.296020777610611e-17 0.04736044671987528 0.998877864449065
12630858666.666666 0.057200713923561956 0.9983626987855989 -3.3660320856101503e-17 -9.261197287068275e-17 -3.3660320856101503e-17 -9.261197287068275e-17 0.057200059003399834 0.9983627363087217
12631476000.0 0.06703477259913952 0.997750639820597 -3.4572613785452005e-17 -9.225471957254442e-17 -3.4572613785452005e-17 -9.225471957254442e-17 0.06703411811247084 0.9977506837926567
12632093333.333334 0.07686232331359952 0.9970417159049394 -3.5481132650758516e-17 -9.188848671443105e-17 -3.5481132650758516e-17 -9.188848671443105e-17 0.07686166932391843 0.9970417663210359
12632710666.666666 0.08668241197555099 0.9962359958633953 -3.6385789139286985e-17 -9.151331400117531e-17 -3.6385789139286985e-17 -9.151331400117531e-17 0.08668175854629737 0.996236052718005
12633328000.0 0.09649408521818699 0.9953335579180158 -3.7286495354492225e-17 -9.112924200542602e-17 -3.7286495354492225e-17 -9.112924200542602e-17 0.09649343241274004 0.9953336212049898
12633945333.333334 0.10629639049166997 0.9943344896805459 -3.818316382449689e-17 -9.073631216331708e-17 -3.818316382449689e-17 -9.073631216331708e-17 0.10629573837334227 0.9943345593931132
12634562666.666666 0.11608837615558101 0.9932388881439302 -3.9075707510587876e-17 -9.03345667700285e-17 -3.9075707510587876e-17 -9.03345667700285e-17 0.11608772478761198 0.9932389642746935
12635180000.0 0.12586909157136406 0.9920468596728836 -3.99640398156506e-17 -8.992404897526961e-17 -3.99640398156506e-17 -8.992404897526961e-17 0.12586844101691427 0.9920469422138257
12635797333.333334 0.1356375871947304 0.990758519993556 -4.0848074592538615e-17 -8.950480277868793e-17 -4.0848074592538615e-17 -8.950480277868793e-17 0.13563693751687542 0.9907586089360382
12636414666.666666 0.14539291466756155 0.9893739941823325 -4.172772615240587e-17 -8.90768730251916e-17 -4.172772615240587e-17 -8.90768730251916e-17 0.14539226592928536 0.9893740895170939
12637032000.0 0.15513412691023246 0.9878934166536546 -4.2602909273015604e-17 -8.864030540017794e-17 -4.2602909273015604e-17 -8.864030540017794e-17 0.15513347917442186 0.987893518370816
12637649333.333334 0.1648602782135289 0.9863169311469757 -4.3473539206949446e-17 -8.819514642470508e-17 -4.3473539206949446e-17 -8.819514642470508e-17 0.16485963154296737 0.9863170392360396
12638266666.666666 0.17457042433029188 0.9846446907128337 -4.433953168981673e-17 -8.774144345055834e-17 -4.433953168981673e-17 -8.774144345055834e-17 0.17456977878765315 0.9846448051626843
12638884000.0 0.18426362256731224 0.9828768576979529 -4.5200802948372795e-17 -8.727924465525654e-17 -4.5200802948372795e-17 -8.727924465525654e-17 0.18426297821515436 0.9828769784968573
12639501333.333334 0.19393893187668212 0.9810136037295107 -4.605726970861307e-17 -8.680859903696458e-17 -4.605726970861307e-17 -8.680859903696458e-17 0.19393828877744185 0.9810137308651231
12640118666.666666 0.20359541294707276 0.9790551096984998 -4.690884920379754e-17 -8.632955640933683e-17 -4.690884920379754e-17 -8.632955640933683e-17 0.20359477116305869 0.9790552431578582
12640736000.0 0.21323212829545413 0.9770015657420524 -4.775545918245071e-17 -8.584216739626412e-17 -4.775545918245071e-17 -8.584216739626412e-17 0.2132314878888412 0.9770017055115827
12641353333.333334 0.22284814235727388 0.9748531712251554 -4.8597017916247496e-17 -8.534648342657894e-17 -4.8597017916247496e-17 -8.534648342657894e-17 0.22284750339009765 0.9748533172906739
12641970666.666666 0.23244252157795403 0.9726101347211601 -4.943344420791662e-17 -8.484255672864038e-17 -4.943344420791662e-17 -8.484255672864038e-17 0.23244188411210356 0.9726102870678706
12642588000.0 0.24201433450332663 0.9702726739915655 -5.0264657399037824e-17 -8.433044032487198e-17 -5.0264657399037824e-17 -8.433044032487198e-17 0.24201369860053978 0.9702728326040658
12643205333.333334 0.2515626518699259 0.9678410159649167 -5.109057737780934e-17 -8.381018802620787e-17 -5.109057737780934e-17 -8.381018802620787e-17 0.25156201759178237 0.9678411808271963
12643822666.666666 0.2610865466953965 0.965315396714723 -5.1911124586741523e-17 -8.32818544264729e-17 -5.1911124586741523e-17 -8.32818544264729e-17 0.2610859141033129 0.9653155678101685
12644440000.0 0.2705850943684335 0.9626960614365556 -5.272622003030687e-17 -8.274549489667894e-17 -5.272622003030687e-17 -8.274549489667894e-17 0.270584463523656 0.9626962387479477
12645057333.333334 0.2800573727384086 0.9599832644242765 -5.3535785282510656e-17 -8.220116557926046e-17 -5.3535785282510656e-17 -8.220116557926046e-17 0.2800567437020083 0.9599834479337954
12645674666.666666 0.2895024622049798 0.9571772690453347 -5.433974249442336e-17 -8.164892338222244e-17 -5.433974249442336e-17 -8.164892338222244e-17 0.2895018350378459 0.9571774587345597
12646292000.0 0.29891944580763985 0.9542783477151114 -5.5138014401669126e-17 -8.108882597320355e-17 -5.5138014401669126e-17 -8.108882597320355e-17 0.2989188205704746 0.9542785435650255
12646909333.333334 0.308307409314222 0.9512867818706319 -5.593052433178671e-17 -8.052093177351245e-17 -5.593052433178671e-17 -8.052093177351245e-17 0.30830678606753376 0.9512869838616198
12647526666.666666 0.31766544131000934 0.9482028619431333 -5.671719621160285e-17 -7.994529995204147e-17 -5.671719621160285e-17 -7.994529995204147e-17 0.31766482011410785 0.9482030700549864
12648144000.0 0.32699263328627143 0.9450268873298479 -5.749795457451781e-17 -7.936199041912569e-17 -5.749795457451781e-17 -7.936199041912569e-17 0.3269920142012615 0.9450271015417666
12648761333.333334 0.33628807972816904 0.9417591663650384 -5.827272456769933e-17 -7.877106382035314e-17 -5.827272456769933e-17 -7.877106382035314e-17 0.3362874628139443 0.9417593866556309
12649378666.666666 0.34555087820287966 0.9384000162899876 -5.904143195925574e-17 -7.817258153027322e-17 -5.904143195925574e-17 -7.817258153027322e-17 0.34555026351911766 0.9384002426372761
12649996000.0 0.35478012944715553 0.9349497632222222 -5.980400314532256e-17 -7.756660564605221e-17 -5.980400314532256e-17 -7.756660564605221e-17 0.3547795170533111 0.9349499956036417
12650613333.333334 0.36397493745462656 0.9314087421238492 -6.056036515708857e-17 -7.695319898105645e-17 -6.056036515708857e-17 -7.695319898105645e-17 0.3639743274099263 0.9314089805162509
12651230666.666666 0.3731344095627609 0.9277772967690469 -6.131044566775455e-17 -7.633242505836924e-17 -6.131044566775455e-17 -7.633242505836924e-17 0.37313380192619805 0.9277775411487015
12651848000.0 0.3822576565396341 0.9240557797106497 -6.205417299943419e-17 -7.570434810423276e-17 -6.205417299943419e-17 -7.570434810423276e-17 0.3822570513699622 0.9240560300532494
12652465333.333334 0.39134379267009983 0.9202445522459844 -6.279147612997996e-17 -7.506903304143067e-17 -6.279147612997996e-17 -7.506903304143067e-17 0.39134319002582685 0.920244808526644
12653082666.666666 0.4003919358418569 0.9163439843817612 -6.35222846997285e-17 -7.442654548261474e-17 -6.35222846997285e-17 -7.442654548261474e-17 0.4003913357812404 0.9163442465750219
12653700000.0 0.40940120763119237 0.9123544547981075 -6.42465290182204e-17 -7.37769517235303e-17 -6.42465290182204e-17 -7.37769517235303e-17 0.4094006102122335 0.9123547228779392
12654317333.333334 0.41837073338797603 0.9082763508119313 -6.496414007080104e-17 -7.312031873622045e-17 -6.496414007080104e-17 -7.312031873622045e-17 0.4183701386684136 0.9082766247517349
12654934666.666666 0.4272996423209106 0.9041100683391665 -6.567504952518062e-17 -7.245671416213993e-17 -6.567504952518062e-17 -7.245671416213993e-17 0.42729905035821575 0.9041103481117766
12655552000.0 0.4361870675819167 0.8998560118564082 -6.637918973793549e-17 -7.178620630519716e-17 -6.637918973793549e-17 -7.178620630519716e-17 0.4361864784332871 0.8998562974340952
12656169333.333334 0.44503214635013333 0.8955145943617139 -6.707649376088868e-17 -7.110886412477734e-17 -6.707649376088868e-17 -7.110886412477734e-17 0.4450315600724884 0.8955148857161885
12656786666.666666 0.4538340199160194 0.8910862373343539 -6.776689534747943e-17 -7.042475722865021e-17 -6.776689534747943e-17 -7.042475722865021e-17 0.4538334365659942 0.8910865344367688
12657404000.0 0.4625918337644119 0.8865713706940402 -6.845032895902955e-17 -6.973395586584374e-17 -6.845032895902955e-17 -6.973395586584374e-17 0.4625912533983515 0.8865716735149921
12658021333.333334 0.47130473765773867 0.8819704327590588 -6.912672977093376e-17 -6.903653091946155e-17 -6.912672977093376e-17 -6.903653091946155e-17 0.4713041603316929 0.8819707412685915
12658638666.666666 0.4799718857182602 0.8772838702038744 -6.979603367878192e-17 -6.833255389943758e-17 -6.979603367878192e-17 -6.833255389943758e-17 0.47997131148797884 0.8772841843714844
12659256000.0 0.4885924365105176 0.872512138015596 -7.045817730443581e-17 -6.762209693520064e-17 -7.045817730443581e-17 -6.762209693520064e-17 0.4885918654314441 0.8725124578102322
12659873333.333334 0.49716555312286953 0.8676556994498809 -7.111309800197602e-17 -6.6905232768339e-17 -7.111309800197602e-17 -6.6905232768339e-17 0.49716498525013625 0.8676560248399494
12660490666.666666 0.5056904032485952 0.8627150259860458 -7.176073386362103e-17 -6.618203474515962e-17 -7.176073386362103e-17 -6.618203474515962e-17 0.5056898386370178 0.8627153569394128
12661108000.0 0.5141661592670194 0.857690597281114 -7.240102372556014e-17 -6.545257680919974e-17 -7.240102372556014e-17 -6.545257680919974e-17 0.5141655979710908 0.8576909337651074
12661725333.333334 0.5225919983235863 0.8525829011233992 -7.30339071736859e-17 -6.471693349371199e-17 -7.30339071736859e-17 -6.471693349371199e-17 0.5225914403974738 0.8525832431048155
12662342666.666666 0.530967102409873 0.8473924333850841 -7.365932454929555e-17 -6.397517991404188e-17 -7.365932454929555e-17 -6.397517991404188e-17 0.5309665479074105 0.847392780830188
12662960000.0 0.5392906584429519 0.8421196979741059 -7.42772169546682e-17 -6.32273917600052e-17 -7.42772169546682e-17 -6.32273917600052e-17 0.5392901074176356 0.8421200508486342
12663577333.333334 0.547561858344424 0.8367652067851721 -7.488752625860294e-17 -6.247364528816754e-17 -7.488752625860294e-17 -6.247364528816754e-17 0.5475613108494081 0.8367655650543399
12664194666.666666 0.5557798991187283 0.8313294796501614 -7.549019510185037e-17 -6.171401731410467e-17 -7.549019510185037e-17 -6.171401731410467e-17 0.5557793552068183 0.831329843278662
12664812000.0 0.5639439829311681 0.8258130442876045 -7.608516690248319e-17 -6.094858520458933e-17 -7.608516690248319e-17 -6.094858520458933e-17 0.5639434426548172 0.8258134132396153
12665429333.333334 0.5720533171854646 0.8202164362513943 -7.667238586119027e-17 -6.017742686972486e-17 -7.667238586119027e-17 -6.017742686972486e-17 0.5720527805967675 0.8202168104905787
12666046666.666666 0.5801071146004209 0.8145401988789788 -7.725179696646293e-17 -5.940062075506219e-17 -7.725179696646293e-17 -5.940062075506219e-17 0.580106581751109 0.8145405783684904
12666664000.0 0.5881045932867974 0.8087848832383068 -7.782334599975485e-17 -5.861824583359997e-17 -7.782334599975485e-17 -5.861824583359997e-17 0.5881040642282352 0.8087852679407944
12667281333.333334 0.5960449768227345 0.8029510480746737 -7.838697954049386e-17 -5.783038159782329e-17 -7.838697954049386e-17 -5.783038159782329e-17 0.5960444516059126 0.8029514379522823
12667898666.666666 0.6039274943294298 0.7970392597562604 -7.894264497107032e-17 -5.703710805161943e-17 -7.894264497107032e-17 -5.703710805161943e-17 0.603926973004961 0.7970396547706372
12668516000.0 0.6117513805460447 0.7910500922190965 -7.949029048172646e-17 -5.623850570216767e-17 -7.949029048172646e-17 -5.623850570216767e-17 0.6117508631641584 0.7910504923313922
12669133333.333334 0.619515875903656 0.7849841269115938 -8.002986507533597e-17 -5.543465555182365e-17 -8.002986507533597e-17 -5.543465555182365e-17 0.6195153625141955 0.7849845320824708
12669750666.666666 0.627220226599297 0.7788419527378824 -8.056131857214619e-17 -5.4625639089894873e-17 -8.056131857214619e-17 -5.4625639089894873e-17 0.6272197172517123 0.7788423629275137
12670368000.0 0.6348636846691104 0.7726241660006448 -8.108460161441469e-17 -5.3811538284402183e-17 -8.108460161441469e-17 -5.3811538284402183e-17 0.6348631794124542 0.7726245811687207
