! Parameters = {f0=12700.012000; bw=77.238000; Q=6100.000000; N=10; m_0_1=1.339434; m_1_1=1.326771; m_1_2=1.174246; m_2_2=1.326122; m_2_3=0.811209; m_2_8=0.004035; m_2_9=0.040739; m_3_3=1.324185; m_3_4=0.699738; m_3_7=0.004635; m_3_8=-0.092453; m_3_9=0.004035; m_4_4=1.321260; m_4_5=0.536073; m_4_6=0.008152; m_4_7=-0.113002; m_4_8=0.004635; m_5_5=1.321642; m_5_6=0.943428; m_5_7=0.008152; m_6_6=1.321641; m_6_7=0.536415; m_7_7=1.321274; m_7_8=0.699856; m_8_8=1.324183; m_8_9=0.811522; m_9_9=1.326117; m_9_10=1.175324; m_10_10=1.326761; m_10_11=1.340229}
!
! Created with skrf (http://scikit-rf.org).
# Hz S RI R 50.0 
!freq ReS11 ImS11 ReS21 ImS21 ReS12 ImS12 ReS22 ImS22
12607400000.0 -0.9423649324132026 0.3345868110934215 1.2273345337643804e-16 -8.933192535591051e-17 1.2273345337643804e-16 -8.933192535591051e-17 -0.9423651684842389 0.3345861461977711
12608017333.333334 -0.9380828948437997 0.3464108577993482 1.2156850798905286e-16 -9.086125967988267e-17 1.2156850798905286e-16 -9.086125967988267e-17 -0.9380831392454543 0.34641019595733263
12608634666.666666 -0.9336525051632788 0.3581801217294684 1.2038452160880672e-16 -9.2375422902665e-17 1.2038452160880672e-16 -9.2375422902665e-17 -0.9336527578560869 0.35817946304544984
12609252000.0 -0.9290744640109594 0.36989274164621433 1.1918169155592508e-16 -9.387417815250049e-17 1.1918169155592508e-16 -9.387417815250049e-17 -0.9290747249541487 0.36989208622404496
12609869333.333334 -0.9243494953763413 0.38154686526992615 1.179602180947727e-16 -9.535729112094203e-17 1.179602180947727e-16 -9.535729112094203e-17 -0.9243497645278408 0.38154621321293314
12610486666.666666 -0.919478346484615 0.3931406495717807 1.1672030440063556e-16 -9.682453009935862e-17 1.1672030440063556e-16 -9.682453009935862e-17 -0.9194786238010584 0.3931400009827484
12611104000.0 -0.91446178767849 0.40467226106525395 1.154621565259649e-16 -9.827566601511956e-17 1.154621565259649e-16 -9.827566601511956e-17 -0.9144620731152233 0.4046716160464079
12611721333.333334 -0.9093006122963673 0.41613987609607517 1.1418598336625996e-16 -9.97104724672348e-17 1.1418598336625996e-16 -9.97104724672348e-17 -0.9093009058074586 0.416139234749067
12612338666.666666 -0.9039956365469054 0.42754168113057656 1.1289199662542572e-16 -1.0112872576165234e-16 1.1289199662542572e-16 -1.0112872576165234e-16 -0.9039959380851499 0.42754104355646716
12612956000.0 -0.8985476993798206 0.4388758730427495 1.1158041078074836e-16 -1.0253020494604126e-16 1.1158041078074836e-16 -1.0253020494604126e-16 -0.8985480088967489 0.43887523934199335
12613573333.333334 -0.8929576623534778 0.4501406593988324 1.1025144304744313e-16 -1.0391469184412417e-16 1.1025144304744313e-16 -1.0391469184412417e-16 -0.892957979799363 0.45014002967126127
12614190666.666666 -0.8872264094982985 0.46133425874149137 1.0890531334272238e-16 -1.0528197108960636e-16 1.0890531334272238e-16 -1.0528197108960636e-16 -0.8872267348221647 0.46133363308629916
12614808000.0 -0.8813548471772269 0.47245490087098346 1.0754224424949785e-16 -1.066318301595851e-16 1.0754224424949785e-16 -1.066318301595851e-16 -0.8813551803268579 0.4724542793867104
12615425333.333334 -0.8753439039422719 0.48350082712535913 1.06162460979671e-16 -1.0796405940749083e-16 1.06162460979671e-16 -1.0796405940749083e-16 -0.8753442448642188 0.48350020990987613
12616042666.666666 -0.869194530387686 0.4944702906585325 1.0476619133696101e-16 -1.0927845209560905e-16 1.0476619133696101e-16 -1.0927845209560905e-16 -0.8691948790272761 0.49446967780902606
12616660000.0 -0.8629076989996348 0.5053615567165347 1.0335366567938668e-16 -1.1057480442706806e-16 1.0335366567938668e-16 -1.1057480442706806e-16 -0.8629080553009809 0.5053609483294913
12617277333.333334 -0.856484404002404 0.5161729029118542 1.0192511688134789e-16 -1.1185291557734975e-16 1.0192511688134789e-16 -1.1185291557734975e-16 -0.856484767908412 0.5161722990830455
12617894666.666666 -0.849925661201199 0.5269026194957744 1.0048078029530028e-16 -1.1311258772532957e-16 1.0048078029530028e-16 -1.1311258772532957e-16 -0.849926032653578 0.5269020203202412
12618512000.0 -0.843232507821351 0.5375490096290001 9.902089371300817e-17 -1.1435362608385612e-16 9.902089371300817e-17 -1.1435362608385612e-16 -0.8432328867606237 0.5375484152010391
12619129333.333334 -0.8364060023445872 0.548110389649521 9.754569732654383e-17 -1.1557583892972421e-16 9.754569732654383e-17 -1.1557583892972421e-16 -0.8364063887100968 0.5481098000626682
12619746666.666666 -0.8294472243413693 0.5585850893393075 9.605543368880209e-17 -1.1677903763324844e-16 9.605543368880209e-17 -1.1677903763324844e-16 -0.8294476180712905 0.5585845046863241
12620364000.0 -0.8223572743001888 0.5689714521883926 9.455034767365009e-17 -1.1796303668732675e-16 9.455034767365009e-17 -1.1796303668732675e-16 -0.8223576753315388 0.568970872561251
12620981333.333334 -0.8151372734536909 0.5792678356566037 9.30306864358468e-17 -1.1912765373588896e-16 9.30306864358468e-17 -1.1912765373588896e-16 -0.8151376817223385 0.5792672611464726
12621598666.666666 -0.807788363601235 0.5894726114335109 9.149669937044601e-17 -1.2027270960196449e-16 9.149669937044601e-17 -1.2027270960196449e-16 -0.8077887790419093 0.5894720421307403
12622216000.0 -0.8003117069283524 0.5995841656958846 8.994863807199757e-17 -1.2139802831511732e-16 8.994863807199757e-17 -1.2139802831511732e-16 -0.8003121294746566 0.599583601689993
12622833333.333334 -0.7927084858229594 0.6096008993629148 8.838675629329591e-17 -1.2250343713844534e-16 8.838675629329591e-17 -1.2250343713844534e-16 -0.7927089154073782 0.6096003407425736
12623450666.666666 -0.7849799026883654 0.6195212283490932 8.681130990390897e-17 -1.2358876659496826e-16 8.681130990390897e-17 -1.2358876659496826e-16 -0.7849803392422774 0.6195206752021135
12624068000.0 -0.7771271797531569 0.6293435838146829 8.522255684827993e-17 -1.246538504935586e-16 8.522255684827993e-17 -1.246538504935586e-16 -0.7771276232068464 0.6293430362280027
12624685333.333334 -0.7691515588777335 0.6390664124140448 8.362075710358241e-17 -1.256985259542859e-16 8.362075710358241e-17 -1.256985259542859e-16 -0.7691520091603992 0.6390658704737134
12625302666.666666 -0.761054301358304 0.6486881765407998 8.200617263726692e-17 -1.2672263343322086e-16 8.200617263726692e-17 -1.2672263343322086e-16 -0.7610547583980732 0.6486876403319662
12625920000.0 -0.752836687726923 0.6582073545716127 8.037906736423309e-17 -1.2772601674674215e-16 8.037906736423309e-17 -1.2772601674674215e-16 -0.7528371514508595 0.6582068241785095
12626537333.333334 -0.7445000175493347 0.6676224411063817 7.873970710380695e-17 -1.287085230952293e-16 7.873970710380695e-17 -1.287085230952293e-16 -0.7445004878834545 0.6676219166123157
12627154666.666666 -0.7360456092194706 0.6769319472063227 7.708835953636614e-17 -1.296700030862476e-16 7.708835953636614e-17 -1.296700030862476e-16 -0.7360460860887498 0.6769314286936581
12627772000.0 -0.727474799750564 0.6861344006298493 7.542529415964414e-17 -1.3061031075719535e-16 7.542529415964414e-17 -1.3061031075719535e-16 -0.7274752830789536 0.6861338881799971
12628389333.333334 -0.718788944564288 0.6952283460647734 7.375078224491025e-17 -1.3152930359730904e-16 7.375078224491025e-17 -1.3152930359730904e-16 -0.7187894342747261 0.6952278397581788
12629006666.666666 -0.7099894172758263 0.7042123453590802 7.206509679270322e-17 -1.3242684256920765e-16 7.206509679270322e-17 -1.3242684256920765e-16 -0.7099899132902471 0.7042118452752072
12629624000.0 -0.701077609477107 0.7130849777478632 7.036851248841717e-17 -1.333027921298093e-16 7.036851248841717e-17 -1.333027921298093e-16 -0.701078111716456 0.7130844839651844
12630241333.333334 -0.6920549305163355 0.7218448400784166 6.866130565761956e-17 -1.341570202506868e-16 6.866130565761956e-17 -1.341570202506868e-16 -0.6920554389005827 0.721844352674402
12630858666.666666 -0.6829228072756028 0.7304905470316603 6.694375422110215e-17 -1.3498939843786693e-16 6.694375422110215e-17 -1.3498939843786693e-16 -0.6829233217237539 0.7304900660827626
12631476000.0 -0.6736826839446168 0.7390207313418079 6.521613764964615e-17 -1.3579980175107446e-16 6.521613764964615e-17 -1.3579980175107446e-16 -0.6736832043747267 0.7390202569234521
12632093333.333334 -0.6643360217929333 0.7474340440120083 6.347873691870324e-17 -1.365881088223284e-16 6.347873691870324e-17 -1.365881088223284e-16 -0.6643365481221171 0.7474335761985774
12632710666.666666 -0.6548842989384464 0.7557291545280651 6.17318344627074e-17 -1.3735420187403144e-16 6.17318344627074e-17 -1.3735420187403144e-16 -0.6548848310828973 0.7557286933928935
12633328000.0 -0.645329010113677 0.7639047510688135 5.997571412921581e-17 -1.3809796673645104e-16 5.997571412921581e-17 -1.3809796673645104e-16 -0.6453295479886753 0.76390429668417
12633945333.333334 -0.6356716664296006 0.7719595407133847 5.821066113286533e-17 -1.3881929286460706e-16 5.821066113286533e-17 -1.3881929286460706e-16 -0.6356722099495284 0.7719590931504646
12634562666.666666 -0.6259137951365024 0.7798922496458245 5.64369620091353e-17 -1.395180733545676e-16 5.64369620091353e-17 -1.395180733545676e-16 -0.6259143442148583 0.7798918089747374
12635180000.0 -0.6160569393824984 0.7877016233565052 5.4654904567846474e-17 -1.4019420495918572e-16 5.4654904567846474e-17 -1.4019420495918572e-16 -0.6160574939319101 0.7877011896462636
12635797333.333334 -0.6061026579694924 0.7953864268405141 5.286477784654393e-17 -1.4084758810321285e-16 5.286477784654393e-17 -1.4084758810321285e-16 -0.6061032179017315 0.7953860001590238
12636414666.666666 -0.5960525251066638 0.8029454447929663 5.1066872063702554e-17 -1.414781268978198e-16 5.1066872063702554e-17 -1.414781268978198e-16 -0.5960530903326586 0.8029450252070139
12637032000.0 -0.5859081301615132 0.8103774818011938 4.926147857168076e-17 -1.4208572915454982e-16 4.926147857168076e-17 -1.4208572915454982e-16 -0.5859087005913639 0.8103770693764382
12637649333.333334 -0.575671077408515 0.8176813625337952 4.744888980963173e-17 -1.4267030639863012e-16 4.744888980963173e-17 -1.4267030639863012e-16 -0.5756716529515078 0.8176809573347563
12638266666.666666 -0.5653429857754589 0.8248559319264754 4.562939925613772e-17 -1.4323177388172504e-16 4.562939925613772e-17 -1.4323177388172504e-16 -0.5653435663400799 0.8248555340165235
12638884000.0 -0.5549254885872369 0.831900055364838 4.380330138177702e-17 -1.4377005059405884e-16 4.380330138177702e-17 -1.4377005059405884e-16 -0.5549260740811878 0.8318996648061859
12639501333.333334 -0.5444202333077771 0.8388126188636583 4.197089160154247e-17 -1.4428505927593776e-16 4.197089160154247e-17 -1.4428505927593776e-16 -0.5444208236379888 0.8388122357173495
12640118666.666666 -0.5338288812796076 0.845592529242996 4.01324662271032e-17 -1.4477672642867557e-16 4.01324662271032e-17 -1.4477672642867557e-16 -0.5338294763522548 0.8455921535688954
12640736000.0 -0.5231531074604521 0.8522387143015019 3.8288322418890895e-17 -1.4524498232492246e-16 3.8288322418890895e-17 -1.4524498232492246e-16 -0.5231537071809693 0.852238346158288
12641353333.333334 -0.512394600159306 0.858750122985371 3.643875813822605e-17 -1.456897610183451e-16 3.643875813822605e-17 -1.456897610183451e-16 -0.5123952044324017 0.8587497624305245
12641970666.666666 -0.5015550607687198 0.8651257255550152 3.4584072099177284e-17 -1.4611100035273715e-16 3.4584072099177284e-17 -1.4611100035273715e-16 -0.5015556694983917 0.8651253726448118
12642588000.0 -0.4906362034960221 0.8713645137477279 3.272456372036877e-17 -1.4650864197050715e-16 3.272456372036877e-17 -1.4650864197050715e-16 -0.4906368165855738 0.8713641685372303
12643205333.333334 -0.47963975509223145 0.8774655009371409 3.086053307672619e-17 -1.4688263132054384e-16 3.086053307672619e-17 -1.4688263132054384e-16 -0.4796403724442853 0.8774651634801873
12643822666.666666 -0.46856745457878096 0.8834277222893603 2.89922808511035e-17 -1.4723291766547812e-16 2.89922808511035e-17 -1.4723291766547812e-16 -0.46856807609529466 0.883427392638557
12644440000.0 -0.45742105297279945 0.8892502349153814 2.712010828583094e-17 -1.475594540883294e-16 2.712010828583094e-17 -1.475594540883294e-16 -0.45742167855508226 0.889249913122096
12645057333.333334 -0.4462023130099514 0.8949321180203409 2.5244317134225863e-17 -1.478621974985314e-16 2.5244317134225863e-17 -1.478621974985314e-16 -0.44620294255867987 0.8949318041346952
12645674666.666666 -0.4349130088659756 0.9004724730489816 2.33652096119987e-17 -1.4814110863735e-16 2.33652096119987e-17 -1.4814110863735e-16 -0.4349136422812074 0.9004721671198387
12646292000.0 -0.4235549258755466 0.9058704238280252 2.148308834859504e-17 -1.4839615208268433e-16 2.148308834859504e-17 -1.4839615208268433e-16 -0.42355556305673847 0.9058701259029873
12646909333.333334 -0.41212986025070314 0.9111251167043635 1.95982563385749e-17 -1.4862729625323941e-16 1.95982563385749e-17 -1.4862729625323941e-16 -0.4121305010967267 0.911124826829763
12647526666.666666 -0.40063961879602034 0.9162357206804288 1.7711016892834328e-17 -1.4883451341209882e-16 1.7711016892834328e-17 -1.4883451341209882e-16 -0.4006402632051764 0.9162354389013188
12648144000.0 -0.38908601862348874 0.9212014275453153 1.5821673589888043e-17 -1.4901777966966512e-16 1.5821673589888043e-17 -1.4901777966966512e-16 -0.38908666649352525 0.9212011539054652
12648761333.333334 -0.3774708868646335 0.9260214520028316 1.3930530227077647e-17 -1.4917707498599082e-16 1.3930530227077647e-17 -1.4917707498599082e-16 -0.37747153809276107 0.9260211865447197
12649378666.666666 -0.36579606038213736 0.9306950317954389 1.203789077181461e-17 -1.4931238317248533e-16 1.203789077181461e-17 -1.4931238317248533e-16 -0.3657967148650455 0.9306947745602451
12649996000.0 -0.35406338547882954 0.9352214278250226 1.014405931272168e-17 -1.4942369189301238e-16 1.014405931272168e-17 -1.4942369189301238e-16 -0.35406404311270345 0.9352211788526233
12650613333.333334 -0.34227471760596634 0.9395999242696658 8.249340010892726e-18 -1.4951099266435893e-16 8.249340010892726e-18 -1.4951099266435893e-16 -0.3422753782865023 0.9395996835986251
12651230666.666666 -0.330431921069802 0.9438298286968498 6.354037051083675e-18 -1.495742808560941e-16 6.354037051083675e-18 -1.495742808560941e-16 -0.33043258469222575 0.9438295963644179
12651848000.0 -0.31853686873654824 0.9479104721730425 4.458454592876077e-18 -1.4961355568980969e-16 4.458454592876077e-18 -1.4961355568980969e-16 -0.3185375351956297 0.9479102482151451
12652465333.333334 -0.3065914417364569 0.951841209369381 2.5628967220253288e-18 -1.496288202377374e-16 2.5628967220253288e-18 -1.496288202377374e-16 -0.3065921109265281 0.9518409938206173
12653082666.666666 -0.2945975291663885 0.9556214186637213 6.676674016867118e-19 -1.4962008142075731e-16 6.676674016867118e-19 -1.4962008142075731e-16 -0.29459820098135997 0.955621211557357
12653700000.0 -0.28255702779057507 0.9592505022390977 -1.2269295763199551e-18 -1.4958735000578513e-16 -1.2269295763199551e-18 -1.4958735000578513e-16 -0.2825577021239522 0.95925030360706
12654317333.333334 -0.27047184174119887 0.9627278861780879 -3.120590640046066e-18 -1.4953064060254532e-16 -3.120590640046066e-18 -1.4953064060254532e-16 -0.2704725184860996 0.9627276960509608
12654934666.666666 -0.25834388221705035 0.9660530205536481 -5.013012486048907e-18 -1.4944997165973093e-16 -5.013012486048907e-18 -1.4944997165973093e-16 -0.25834456126622174 0.966052838960669
12655552000.0 -0.2461750671810638 0.9692253795161389 -6.903892127964206e-18 -1.4934536546054478e-16 -6.903892127964206e-18 -1.4934536546054478e-16 -0.24617574842689874 0.9692252064851914
12656169333.333334 -0.23396732105755125 0.972244461376335 -8.792926944856048e-18 -1.4921684811763518e-16 -8.792926944856048e-18 -1.4921684811763518e-16 -0.2339680043921055 0.972244296933945
12656786666.666666 -0.22172257442737248 0.975109788684897 -1.0679814729650748e-17 -1.4906444956741381e-16 -1.0679814729650748e-17 -1.4906444956741381e-16 -0.22172325974238283 0.975109632856233
12657404000.0 -0.20944276372268014 0.9778209083078613 -1.2564253737434456e-17 -1.488882035637634e-16 -1.2564253737434456e-17 -1.488882035637634e-16 -0.20944345090958028 0.977820761116725
12658021333.333334 -0.1971298309209049 0.9803773914982438 -1.444594273363238e-17 -1.4868814767113777e-16 -1.444594273363238e-17 -1.4868814767113777e-16 -0.19713051987084307 0.9803772529670689
12658638666.666666 -0.18478572323770087 0.9827788339638402 -1.6324581042079158e-17 -1.484643232570567e-16 -1.6324581042079158e-17 -1.484643232570567e-16 -0.1847864138415572 0.982778704113689
12659256000.0 -0.1724123928185036 0.9850248559312613 -1.8199868593056842e-17 -1.482167754839842e-16 -1.8199868593056842e-17 -1.482167754839842e-16 -0.17241308496690746 0.9850247347818221
12659873333.333334 -0.16001179643036792 0.9871151022058837 -2.007150597114101e-17 -1.479455533006114e-16 -2.007150597114101e-17 -1.479455533006114e-16 -0.16001249001371481 0.9871149897754649
12660490666.666666 -0.1475858951522934 0.9890492422280603 -2.1939194462923406e-17 -1.4765070943253524e-16 -2.1939194462923406e-17 -1.4765070943253524e-16 -0.1475865900607629 0.9890491385335926
12661108000.0 -0.13513665406486766 0.990826970125439 -2.3802636104687504e-17 -1.4733230037232467e-16 -2.3802636104687504e-17 -1.4733230037232467e-16 -0.13513735018844028 0.990826875182467
12661725333.333334 -0.12266604194006205 0.992448004761239 -2.5661533729819353e-17 -1.4699038636900465e-16 -2.5661533729819353e-17 -1.4699038636900465e-16 -0.12266673916853704 0.9924479185839243
12662342666.666666 -0.11017603092932055 0.9939120897788027 -2.7515591016206277e-17 -1.4662503141692135e-16 -2.7515591016206277e-17 -1.4662503141692135e-16 -0.1101767291523331 0.9939120123799182
12662960000.0 -0.09766859625195701 0.9952189936420917 -2.936451253334779e-17 -1.4623630324403328e-16 -2.936451253334779e-17 -1.4623630324403328e-16 -0.09766929535899584 0.9952189250330212
12663577333.333334 -0.08514571588278663 0.9963685096723062 -3.120800378943066e-17 -1.4582427329958738e-16 -3.120800378943066e-17 -1.4582427329958738e-16 -0.0851464157632115 0.9963684498630432
12664194666.666666 -0.0726093702390949 0.997360456080592 -3.304577127814315e-17 -1.4538901674121857e-16 -3.304577127814315e-17 -1.4538901674121857e-16 -0.07261007078215392 0.9973604050797364
12664812000.0 -0.06006154186778608 0.9981946759967557 -3.48775225253632e-17 -1.4493061242145182e-16 -3.48775225253632e-17 -1.4493061242145182e-16 -0.060062242962633454 0.9981946338115143
12665429333.333334 -0.04750421513157244 0.9988710374940993 -3.6702966135621307e-17 -1.4444914287362488e-16 -3.6702966135621307e-17 -1.4444914287362488e-16 -0.04750491666728586 0.998871004130283
12666046666.666666 -0.034939375895499725 0.9993894336102612 -3.8521811838406026e-17 -1.4394469429722122e-16 -3.8521811838406026e-17 -1.4394469429722122e-16 -0.03494007776109803 0.9993894090722866
12666664000.0 -0.022369011212327046 0.9997497823641611 -4.033377053431928e-17 -1.4341735654260464e-16 -4.033377053431928e-17 -1.4341735654260464e-16 -0.02236971329678776 0.9997497666550492
12667281333.333334 -0.009795109008854287 0.9999520267689394 -4.213855434087104e-17 -1.4286722309521796e-16 -4.213855434087104e-17 -1.4286722309521796e-16 -0.009795811201131085 0.9999520198903135
12667898666.666666 0.00278034222868355 0.9999961348409792 -4.3935876638208326e-17 -1.422943910591657e-16 -4.3935876638208326e-17 -1.422943910591657e-16 0.0027796400396432 0.9999961367930654
12668516000.0 0.0153553537693107 0.9998820996049604 -4.572545211462302e-17 -1.4169896114022027e-16 -4.572545211462302e-17 -1.4169896114022027e-16 0.01535465169454801 0.9998821103865919
12669133333.333334 0.027927936951247987 0.9996099390949711 -4.7506996811687046e-17 -1.4108103762830283e-16 -4.7506996811687046e-17 -1.4108103762830283e-16 0.027927235101775257 0.9996099587035815
12669750666.666666 0.04049610349691919 0.9991796963516485 -4.928022816930658e-17 -1.4044072837934935e-16 -4.928022816930658e-17 -1.4044072837934935e-16 0.040495401983702266 0.9991797247832762
