! Parameters = {f0=12700.012000; bw=77.238000; Q=6100.000000; N=10; m_0_1=1.337432; m_1_1=1.296741; m_1_2=1.172244; m_2_2=1.296092; m_2_3=0.809207; m_2_8=0.003935; m_2_9=0.040639; m_3_3=1.294155; m_3_4=0.697736; m_3_7=0.004535; m_3_8=-0.092553; m_3_9=0.003935; m_4_4=1.291230; m_4_5=0.534071; m_4_6=0.008052; m_4_7=-0.113102; m_4_8=0.004535; m_5_5=1.291612; m_5_6=0.941426; m_5_7=0.008052; m_6_6=1.291611; m_6_7=0.534413; m_7_7=1.291244; m_7_8=0.697854; m_8_8=1.294153; m_8_9=0.809520; m_9_9=1.296087; m_9_10=1.173322; m_10_10=1.296731; m_10_11=1.338227}
!
! Created with skrf (http://scikit-rf.org).
# Hz S RI R 50.0 
!freq ReS11 ImS11 ReS21 ImS21 ReS12 ImS12 ReS22 ImS22
12607400000.0 -0.6461124893900577 -0.7632421968510307 1.258332308802631e-16 8.249724285094546e-17 1.258332308802631e-16 8.249724285094546e-17 -0.6461119516782589 -0.7632426520434474
12608017333.333334 -0.6556146957756812 -0.7550956036706651 1.268382546082979e-16 8.088874780014544e-17 1.268382546082979e-16 8.088874780014544e-17 -0.655614163829277 -0.7550960655348712
12608634666.666666 -0.6650141942777233 -0.7468307180405446 1.278227321957554e-16 7.926803058268616e-17 1.278227321957554e-16 7.926803058268616e-17 -0.6650136681794793 -0.746831186503535
12609252000.0 -0.6743095123811828 -0.7384488347286193 1.287865152882262e-16 7.76353534599391e-17 1.287865152882262e-16 7.76353534599391e-17 -0.6743089922129404 -0.7384493097163634
12609869333.333334 -0.683499193891719 -0.7299512668316805 1.2972945887663369e-16 7.599098049036422e-17 1.2972945887663369e-16 7.599098049036422e-17 -0.6834986797343825 -0.7299517482691312
12610486666.666666 -0.6925817991639069 -0.7213393455695385 1.30651421318935e-16 7.433517748690433e-17 1.30651421318935e-16 7.433517748690433e-17 -0.6925812910974316 -0.7213398333806471
12611104000.0 -0.7015559053268947 -0.712614420076359 1.3155226436134536e-16 7.266821197399775e-17 1.3155226436134536e-16 7.266821197399775e-17 -0.7015554034302731 -0.7126149141840852
12611721333.333334 -0.7104201065070181 -0.7037778571895822 1.3243185315891165e-16 7.099035314452281e-17 1.3243185315891165e-16 7.099035314452281e-17 -0.71041961085827 -0.7037783575159078
12612338666.666666 -0.7191730140483342 -0.6948310412355221 1.3329005629563667e-16 6.930187181631473e-17 1.3329005629563667e-16 6.930187181631473e-17 -0.7191725247244906 -0.6948315477014603
12612956000.0 -0.7278132567300349 -0.6857753738126097 1.3412674580400762e-16 6.760304038851587e-17 1.3412674580400762e-16 6.760304038851587e-17 -0.7278127738071312 -0.6857758863382222
12613573333.333334 -0.7363394809811924 -0.6766122735719127 1.3494179718393716e-16 6.589413279776115e-17 1.3494179718393716e-16 6.589413279776115e-17 -0.736339004534252 -0.6766127920763184
12614190666.666666 -0.7447503510928825 -0.6673431759948039 1.3573508942121794e-16 6.417542447399122e-17 1.3573508942121794e-16 6.417542447399122e-17 -0.7447498811959085 -0.667343700396194
12614808000.0 -0.7530445494275524 -0.6579695331679567 1.3650650500535983e-16 6.244719229616077e-17 1.3650650500535983e-16 6.244719229616077e-17 -0.7530440861535128 -0.657970063383605
12615425333.333334 -0.7612207766251693 -0.6484928135561547 1.3725592994688602e-16 6.07097145476876e-17 1.3725592994688602e-16 6.07097145476876e-17 -0.7612203200459892 -0.6484933495024341
12616042666.666666 -0.7692777518070831 -0.6389145017719069 1.379832537940598e-16 5.896327087170422e-17 1.379832537940598e-16 5.896327087170422e-17 -0.7692773019936306 -0.6389150433642995
12616660000.0 -0.7772142127763867 -0.6292360983432107 1.3868836964904277e-16 5.720814222611082e-17 1.3868836964904277e-16 5.720814222611082e-17 -0.7772137697984636 -0.6292366454963226
12617277333.333334 -0.7850289162159785 -0.6194591194780892 1.3937117418348197e-16 5.5444610838436933e-17 1.3937117418348197e-16 5.5444610838436933e-17 -0.7850284801423103 -0.6194596721056657
12617894666.666666 -0.7927206378828795 -0.6095850968276422 1.4003156765352561e-16 5.3672960160519607e-17 1.4003156765352561e-16 5.3672960160519607e-17 -0.7927202087811007 -0.6095856548425764
12618512000.0 -0.8002881728006831 -0.5996155772452452 1.4066945391426083e-16 5.1893474823004025e-17 1.4066945391426083e-16 5.1893474823004025e-17 -0.8002877507373319 -0.599616140559597
12619129333.333334 -0.8077303354475655 -0.5895521225452137 1.4128474043357746e-16 5.0106440589675704e-17 1.4128474043357746e-16 5.0106440589675704e-17 -0.8077299204880707 -0.5895526910702213
12619746666.666666 -0.815045959942629 -0.5793963092573189 1.4187733830545046e-16 4.831214431162994e-17 1.4187733830545046e-16 4.831214431162994e-17 -0.8150455521512983 -0.5793968829034115
12620364000.0 -0.8222339002282658 -0.5691497283801669 1.4244716226264183e-16 4.6510873881286613e-17 1.4244716226264183e-16 4.6510873881286613e-17 -0.8222334996682803 -0.569150307056982
12620981333.333334 -0.8292930302496437 -0.5588139851320548 1.4299413068882008e-16 4.4702918186257887e-17 1.4299413068882008e-16 4.4702918186257887e-17 -0.8292926369830429 -0.558814568748449
12621598666.666666 -0.8362222441313324 -0.5483906986991682 1.4351816563009508e-16 4.288856706307573e-17 1.4351816563009508e-16 4.288856706307573e-17 -0.8362218582190102 -0.5483912871632353
12622216000.0 -0.8430204563503004 -0.537881501982302 1.4401919280596618e-16 4.1068111250786675e-17 1.4401919280596618e-16 4.1068111250786675e-17 -0.8430200778519896 -0.5378820952013831
12622833333.333334 -0.8496866019062445 -0.5272880413406185 1.444971416196854e-16 3.924184234441344e-17 1.444971416196854e-16 3.924184234441344e-17 -0.8496862308805131 -0.5272886392213205
12623450666.666666 -0.8562196364880702 -0.5166119763343097 1.449519451680208e-16 3.7410052748339906e-17 1.449519451680208e-16 3.7410052748339906e-17 -0.8562192729923103 -0.5166125787825188
12624068000.0 -0.8626185366378888 -0.5058549794639884 1.45383540250449e-16 3.557303562951174e-17 1.45383540250449e-16 3.557303562951174e-17 -0.862618180728305 -0.505855586384883
12624685333.333334 -0.8688822999111295 -0.4950187359090071 1.4579186737774565e-16 3.37310848705667e-17 1.4579186737774565e-16 3.37310848705667e-17 -0.8688819516427335 -0.49501934720707497
12625302666.666666 -0.8750099450335334 -0.4841049432635635 1.461768707799642e-16 3.188449502296131e-17 1.461768707799642e-16 3.188449502296131e-17 -0.8750096044601353 -0.48410555884261636
12625920000.0 -0.8810005120550762 -0.4731153112704118 1.465384984138665e-16 3.003356125980195e-17 1.465384984138665e-16 3.003356125980195e-17 -0.8810001792292748 -0.47311593103359956
12626537333.333334 -0.8868530625001563 -0.4620515615533618 1.4687670196970496e-16 2.8178579328845036e-17 1.4687670196970496e-16 2.8178579328845036e-17 -0.8868527374733315 -0.4620521854031888
12627154666.666666 -0.892566679514699 -0.4509154273474232 1.4719143687745355e-16 2.6319845505216493e-17 1.4719143687745355e-16 2.6319845505216493e-17 -0.8925663623370051 -0.45091605518576355
12627772000.0 -0.8981404680098715 -0.43970865322712865 1.4748266231242216e-16 2.4457656544148572e-17 1.4748266231242216e-16 2.4457656544148572e-17 -0.8981401587302262 -0.43970928495524003
12628389333.333334 -0.9035735548021171 -0.4284329948335808 1.477503412002634e-16 2.259230963374341e-17 1.477503412002634e-16 2.259230963374341e-17 -0.9035732534681987 -0.42843363035212273
12629006666.666666 -0.9088650887501581 -0.4170902185990128 1.4799444022141361e-16 2.0724102347484783e-17 1.4799444022141361e-16 2.0724102347484783e-17 -0.9088647954083939 -0.4170908578080597
12629624000.0 -0.9140142408881338 -0.40568210147046807 1.4821492981490244e-16 1.8853332596917024e-17 1.4821492981490244e-16 1.8853332596917024e-17 -0.9140139555836941 -0.4056827442695261
12630241333.333334 -0.919020204555654 -0.3942104306310136 1.4841178418158553e-16 1.6980298584146006e-17 1.4841178418158553e-16 1.6980298584146006e-17 -0.9190199273324476 -0.39421107691903684
12630858666.666666 -0.9238821955239905 -0.38267700322017756 1.4858498128676709e-16 1.5105298754413673e-17 1.4858498128676709e-16 1.5105298754413673e-17 -0.923881926424655 -0.3826776528955834
12631476000.0 -0.9285994521191082 -0.371083626051994 1.4873450286223608e-16 1.3228631748508786e-17 1.4873450286223608e-16 1.3228631748508786e-17 -0.9285991911850048 -0.37108427901267904
12632093333.333334 -0.9331712353408361 -0.35943211533231517 1.4886033440768574e-16 1.1350596355368137e-17 1.4886033440768574e-16 1.1350596355368137e-17 -0.9331709826120413 -0.3594327714756707
12632710666.666666 -0.9375968289787042 -0.34772429637413016 1.4896246519154944e-16 9.471491464512206e-18 1.4896246519154944e-16 9.471491464512206e-18 -0.9375965844940067 -0.3477249555970597
12633328000.0 -0.9418755397242035 -0.33596200331145354 1.490408882512335e-16 7.591616018491643e-18 1.490408882512335e-16 7.591616018491643e-18 -0.9418753035210973 -0.3359626655103882
12633945333.333334 -0.9460066972792609 -0.3241470788123649 1.4909560039274628e-16 5.711268965458388e-18 1.4909560039274628e-16 5.711268965458388e-18 -0.9460064693939383 -0.32414774388327966
12634562666.666666 -0.9499896544614004 -0.3122813737899103 1.4912660218973414e-16 3.830749211656978e-18 1.4912660218973414e-16 3.830749211656978e-18 -0.9499894349287469 -0.31228204162834033
12635180000.0 -0.9538237873049816 -0.30036674711257016 1.4913389798191886e-16 1.9503555739495633e-18 1.4913389798191886e-16 1.9503555739495633e-18 -0.9538235761585713 -0.30036741761362734
12635797333.333334 -0.9575084951590921 -0.2884050653126193 1.491174958729361e-16 7.038673240754624e-20 1.491174958729361e-16 7.038673240754624e-20 -0.9575082924311819 -0.2884057383710086
12636414666.666666 -0.961043200781524 -0.27639820229409673 1.490774077275778e-16 -1.8088588170777108e-18 1.490774077275778e-16 -1.8088588170777108e-18 -0.9610430065030493 -0.276398877804133
12637032000.0 -0.9644273504292573 -0.26434803903908044 1.4901364916843804e-16 -3.6870828101321826e-18 1.4901364916843804e-16 -3.6870828101321826e-18 -0.9644271646298278 -0.2643487168947049
12637649333.333334 -0.9676604139452528 -0.2522564633128495 1.4892623957196355e-16 -5.563987261181198e-18 1.4892623957196355e-16 -5.563987261181198e-18 -0.9676602366531448 -0.2522571434076459
12638266666.666666 -0.9707418848413985 -0.24012536936853238 1.4881520206391005e-16 -7.439274510668741e-18 1.4881520206391005e-16 -7.439274510668741e-18 -0.9707417160835542 -0.2401260515957442
12638884000.0 -0.9736712803779742 -0.22795665764991596 1.4868056351420418e-16 -9.312647272206499e-18 1.4868056351420418e-16 -9.312647272206499e-18 -0.9736711201799964 -0.22795734190246333
12639501333.333334 -0.976448141639178 -0.21575223449410996 1.485223545312127e-16 -1.118380867965369e-17 1.485223545312127e-16 -1.118380867965369e-17 -0.9764479900253252 -0.21575292066460589
12640118666.666666 -0.9790720336050492 -0.203514011832792 1.4834060945542432e-16 -1.3052462334061151e-17 1.4834060945542432e-16 -1.3052462334061151e-17 -0.9790718905982347 -0.2035146998135599
12640736000.0 -0.9815425452197154 -0.19124390689224252 1.4813536635252906e-16 -1.4918312350657752e-17 1.4813536635252906e-16 -1.4918312350657752e-17 -0.9815424108415 -0.19124459657533244
12641353333.333334 -0.9838592894555821 -0.17894384189393833 1.4790666700592964e-16 -1.678106340552626e-17 1.4790666700592964e-16 -1.678106340552626e-17 -0.9838591637261741 -0.17894453317114437
12641970666.666666 -0.9860219033741762 -0.16661574375241853 1.4765455690864259e-16 -1.864042078238227e-17 1.4765455690864259e-16 -1.864042078238227e-17 -0.9860217863124271 -0.16661643651529567
12642588000.0 -0.9880300481828599 -0.15426154377414097 1.473790852546291e-16 -2.0496090419103842e-17 1.473790852546291e-16 -2.0496090419103842e-17 -0.9880299398062606 -0.15426223791402185
12643205333.333334 -0.9898834092879845 -0.14188317735447806 1.4708030492953683e-16 -2.2347778954181162e-17 1.4708030492953683e-16 -2.2347778954181162e-17 -0.9898833096126648 -0.14188387276249045
12643822666.666666 -0.9915816963441457 -0.12948258367468826 1.467582725008528e-16 -2.419519377307008e-17 1.467582725008528e-16 -2.419519377307008e-17 -0.9915816053848704 -0.12948328024177175
12644440000.0 -0.9931246432996527 -0.11706170539823813 1.4641304820748797e-16 -2.603804305433386e-17 1.4641304820748797e-16 -2.603804305433386e-17 -0.9931245610698193 -0.11706240301516145
12645057333.333334 -0.9945120084382335 -0.10462248836629882 1.4604469594877703e-16 -2.78760358156828e-17 1.4604469594877703e-16 -2.78760358156828e-17 -0.9945119349498724 -0.10462318692367706
12645674666.666666 -0.9957435744168889 -0.09216688129302515 1.456532832728925e-16 -2.9708881959904074e-17 1.456532832728925e-16 -2.9708881959904074e-17 -0.9957435096806581 -0.09216758068133653
12646292000.0 -0.9968191482999611 -0.07969683546004593 1.4523888136469707e-16 -3.153629232055813e-17 1.4523888136469707e-16 -3.153629232055813e-17 -0.996819092325147 -0.07969753556964922
12646909333.333334 -0.9977385615893208 -0.0672143044111742 1.4480156503301713e-16 -3.335797870755131e-17 1.4480156503301713e-16 -3.335797870755131e-17 -0.9977385143838373 -0.06721500513232599
12647526666.666666 -0.9985016702508034 -0.0547212436459714 1.4434141269734555e-16 -3.5173653952526974e-17 1.4434141269734555e-16 -3.5173653952526974e-17 -0.9985016318211888 -0.05472194486884315
12648144000.0 -0.99910835473675 -0.042219610313570154 1.4385850637397924e-16 -3.6983031954068596e-17 1.4385850637397924e-16 -3.6983031954068596e-17 -0.9991083250881686 -0.042220311928265475
12648761333.333334 -0.9995585200047379 -0.029711362906183564 1.4335293166157885e-16 -3.878582772276507e-17 1.4335293166157885e-16 -3.878582772276507e-17 -0.9995584991409772 -0.02971206480275539
12649378666.666666 -0.9998520955324753 -0.017198460952176284 1.428247777261955e-16 -4.0581757425958824e-17 1.428247777261955e-16 -4.0581757425958824e-17 -0.9998520834559453 -0.017199163020644097
12649996000.0 -0.9999890353288499 -0.004682864708916439 1.4227413728569522e-16 -4.237053843245636e-17 1.4227413728569522e-16 -4.237053843245636e-17 -0.9999890320405855 -0.004683566839283576
12650613333.333334 -0.9999693179411275 0.00783346514397516 1.4170110659365519e-16 -4.415188935691629e-17 1.4170110659365519e-16 -4.415188935691629e-17 -0.9999693234407867 0.007832763061704346
12651230666.666666 -0.9997929464583198 0.020348567811953423 1.411057854227061e-16 -4.592553010402246e-17 1.411057854227061e-16 -4.592553010402246e-17 -0.999792960744183 0.020347865887756306
12651848000.0 -0.9994599485106946 0.03286048269283858 1.4048827704728708e-16 -4.769118191254783e-17 1.4048827704728708e-16 -4.769118191254783e-17 -0.9994599715796668 0.032859781036657036
12652465333.333334 -0.9989703762654448 0.045367249683905 1.3984868822589912e-16 -4.9448567399036337e-17 1.3984868822589912e-16 -4.9448567399036337e-17 -0.9989704081130559 0.04536654840562824
12653082666.666666 -0.9983243064185383 0.05786690948849454 1.3918712918279056e-16 -5.1197410601321696e-17 1.3918712918279056e-16 -5.1197410601321696e-17 -0.9983243470389429 0.05786620869794182
12653700000.0 -0.9975218401826601 0.07035750392392308 1.385037135890692e-16 -5.2937437021882353e-17 1.385037135890692e-16 -5.2937437021882353e-17 -0.997521889568639 0.07035680373082656
12654317333.333334 -0.9965631032713985 0.08283707622728198 1.3779855854334423e-16 -5.4668373670756986e-17 1.3779855854334423e-16 -5.4668373670756986e-17 -0.9965631614143603 0.08283637674126951
12654934666.666666 -0.9954482458795364 0.09530367136243696 1.3707178455176125e-16 -5.638994910839359e-17 1.3707178455176125e-16 -5.638994910839359e-17 -0.9954483127695181 0.09530297269301487
12655552000.0 -0.9941774426595015 0.10775533632641457 1.3632351550753474e-16 -5.810189348814824e-17 1.3632351550753474e-16 -5.810189348814824e-17 -0.9941775182851716 0.10775463858295066
12656169333.333334 -0.9927508926940469 0.12019012045496148 1.3555387866996619e-16 -5.980393859848405e-17 1.3555387866996619e-16 -5.980393859848405e-17 -0.9927509770427069 0.12018942374666787
12656786666.666666 -0.9911688194650145 0.13260607572858574 1.3476300464290517e-16 -6.149581790496356e-17 1.3476300464290517e-16 -6.149581790496356e-17 -0.9911689125226002 0.1326053801645017
12657404000.0 -0.9894314708183758 0.14500125707727954 1.3395102735270458e-16 -6.317726659191973e-17 1.3395102735270458e-16 -6.317726659191973e-17 -0.9894315725694603 0.14500056276625445
12658021333.333334 -0.9875391189253407 0.15737372268573896 1.3311808402565007e-16 -6.484802160385307e-17 1.3311808402565007e-16 -6.484802160385307e-17 -0.9875392293531366 0.15737302973641532
12658638666.666666 -0.9854920602398244 0.16972153429683567 1.32264315164896e-16 -6.650782168648779e-17 1.32264315164896e-16 -6.650782168648779e-17 -0.9854921793261875 0.1697208428176322
12659256000.0 -0.9832906154518496 0.1820427575162731 1.313898645268344e-16 -6.815640742763889e-17 1.313898645268344e-16 -6.815640742763889e-17 -0.9832907431772802 0.1820420676153674
12659873333.333334 -0.9809351294374586 0.19433546211467218 1.3049487909702712e-16 -6.979352129762753e-17 1.3049487909702712e-16 -6.979352129762753e-17 -0.9809352657811055 0.19433477389998413
12660490666.666666 -0.9784259712046154 0.2065977223304082 1.2957950906560238e-16 -7.14189076894504e-17 1.2957950906560238e-16 -7.14189076894504e-17 -0.9784261161442801 0.20659703590958317
12661108000.0 -0.9757635338353704 0.21882761717140933 1.286439078021103e-16 -7.303231295870084e-17 1.286439078021103e-16 -7.303231295870084e-17 -0.9757636873475101 0.21882693265180114
12661725333.333334 -0.9729482344243616 0.23102323071570746 1.2768823182998075e-16 -7.463348546298622e-17 1.2768823182998075e-16 -7.463348546298622e-17 -0.9729483964840936 0.2310225482043618
12662342666.666666 -0.969980514013378 0.24318265241202902 1.2671264080038824e-16 -7.622217560119571e-17 1.2671264080038824e-16 -7.622217560119571e-17 -0.9699806845944807 0.24318197201566608
12662960000.0 -0.966860837522363 0.25530397737865573 1.257172974656958e-16 -7.779813585231115e-17 1.257172974656958e-16 -7.779813585231115e-17 -0.9668610165972845 0.25530329920365435
12663577333.333334 -0.9635896936764798 0.2673853067022845 1.2470236765239265e-16 -7.93611208139166e-17 1.2470236765239265e-16 -7.93611208139166e-17 -0.9635898812163398 0.26738463085466524
12664194666.666666 -0.9601675949296562 0.2794247477350674 1.2366802023355724e-16 -8.091088724034866e-17 1.2366802023355724e-16 -8.091088724034866e-17 -0.9601677909042514 0.2794240743204757
12664812000.0 -0.9565950773841893 0.2914204143915518 1.2261442710084868e-16 -8.244719408049022e-17 1.2261442710084868e-16 -8.244719408049022e-17 -0.956595281761998 0.2914197435152418
12665429333.333334 -0.9528727007068636 0.3033704274437682 1.2154176313602793e-16 -8.39698025151998e-17 1.2154176313602793e-16 -8.39698025151998e-17 -0.9528729134550512 0.3033697592105863
12666046666.666666 -0.9490010480412334 0.3152729148157936 1.204502061820172e-16 -8.547847599437315e-17 1.204502061820172e-16 -8.547847599437315e-17 -0.9490012691256564 0.3152722493301617
12666664000.0 -0.9449807259162121 0.3271260118771904 1.193399370134984e-16 -8.697298027362885e-17 1.193399370134984e-16 -8.697298027362885e-17 -0.9449809553014246 0.3271253492430897
12667281333.333334 -0.9408123641511563 0.3389278617347916 1.1821113930705918e-16 -8.845308345061434e-17 1.1821113930705918e-16 -8.845308345061434e-17 -0.9408126018004164 0.33892720205574695
12667898666.666666 -0.9364966157571752 0.3506766155237117 1.170639996108888e-16 -8.991855600092565e-17 1.170639996108888e-16 -8.991855600092565e-17 -0.9364968616324488 0.3506759589027744
12668516000.0 -0.9320341568346817 0.3623704326973574 1.1589870731402942e-16 -9.136917081363462e-17 1.1589870731402942e-16 -9.136917081363462e-17 -0.9320344108966517 0.36236977923709035
12669133333.333334 -0.9274256864677194 0.3740074813151282 1.1471545461519002e-16 -9.280470322642093e-17 1.1471545461519002e-16 -9.280470322642093e-17 -0.9274259486757881 0.3740068311175885
12669750666.666666 -0.9226719266143035 0.38558593832977883 1.1351443649112383e-16 -9.422493106029931e-17 1.1351443649112383e-16 -9.422493106029931e-17 -0.9226721969266023 0.3855852914965029
