! Parameters = {f0=12700.012000; bw=77.238000; Q=6100.000000; N=10; m_0_1=1.325821; m_1_1=1.122567; m_1_2=1.160633; m_2_2=1.121918; m_2_3=0.797596; m_2_8=0.003355; m_2_9=0.040059; m_3_3=1.119981; m_3_4=0.686125; m_3_7=0.003955; m_3_8=-0.093133; m_3_9=0.003355; m_4_4=1.117056; m_4_5=0.522460; m_4_6=0.007472; m_4_7=-0.113682; m_4_8=0.003955; m_5_5=1.117438; m_5_6=0.929815; m_5_7=0.007472; m_6_6=1.117437; m_6_7=0.522802; m_7_7=1.117070; m_7_8=0.686243; m_8_8=1.119979; m_8_9=0.797909; m_9_9=1.121913; m_9_10=1.161711; m_10_10=1.122557; m_10_11=1.326616}
!
! Created with skrf (http://scikit-rf.org).
# Hz S RI R 50.0 
!freq ReS11 ImS11 ReS21 ImS21 ReS12 ImS12 ReS22 ImS22
12607400000.0 0.02933251222393035 -0.9995697092881723 3.6552775213401755e-17 1.381433025717678e-16 3.6552775213401755e-17 1.381433025717678e-16 0.029333210338629116 -0.9995696888016545
12608017333.333334 0.017162719970241005 -0.9998527096742956 3.8236388451853826e-17 1.3765776534740094e-16 3.8236388451853826e-17 1.3765776534740094e-16 0.017163418248408988 -0.9998526976879331
12608634666.666666 0.004990384479972289 -0.9999875479537481 3.9913593608017435e-17 1.3715172135497432e-16 3.9913593608017435e-17 1.3715172135497432e-16 0.004991082818124936 -0.9999875444684847
12609252000.0 -0.007182690502275774 -0.9999742041457648 4.158414105496404e-17 1.3662525469841064e-16 4.158414105496404e-17 1.3662525469841064e-16 -0.0071819922076217695 -0.9999742091612849
12609869333.333334 -0.019354701122466504 -0.9998126802277857 4.324778226423547e-17 1.3607845251847336e-16 4.324778226423547e-17 1.3607845251847336e-16 -0.019354002974777858 -0.9998126937425127
12610486666.666666 -0.03152384368405927 -0.999503000135163 4.490426984275814e-17 1.3551140497848377e-16 4.490426984275814e-17 1.3551140497848377e-16 -0.03152314578677082 -0.9995030221462632
12611104000.0 -0.04368831491582829 -0.9990452097576082 4.655335756963387e-17 1.3492420524956876e-16 4.655335756963387e-17 1.3492420524956876e-16 -0.043687617372327604 -0.9990452402609886
12611721333.333334 -0.05584631223848172 -0.9984393769324055 4.8194800432605526e-17 1.3431694949550764e-16 4.8194800432605526e-17 1.3431694949550764e-16 -0.05584561515209385 -0.9984394159227143
12612338666.666666 -0.06799603403214452 -0.9976855914343499 4.98283546644726e-17 1.3368973685708557e-16 4.98283546644726e-17 1.3368973685708557e-16 -0.06799533750611668 -0.9976856389049793
12612956000.0 -0.08013567990341408 -0.9967839649624319 5.1453777779228436e-17 1.3304266943603072e-16 5.1453777779228436e-17 1.3304266943603072e-16 -0.08013498404090033 -0.9967840209055178
12613573333.333334 -0.09226345095169625 -0.9957346311233194 5.3070828607961216e-17 1.3237585227852706e-16 5.3070828607961216e-17 1.3237585227852706e-16 -0.09226275585574224 -0.9957346955297434
12614190666.666666 -0.10437755003628353 -0.9945377454115213 5.467926733462981e-17 1.316893933582565e-16 5.467926733462981e-17 1.316893933582565e-16 -0.10437685580981136 -0.9945378182709123
12614808000.0 -0.11647618204229437 -0.9931934851863754 5.627885553156895e-17 1.3098340355902749e-16 5.627885553156895e-17 1.3098340355902749e-16 -0.11647548878808707 -0.9931935664871092
12615425333.333334 -0.12855755414693473 -0.9917020496457422 5.786935619475766e-17 1.302579966569811e-16 5.786935619475766e-17 1.302579966569811e-16 -0.12855686196762134 -0.9917021393749467
12616042666.666666 -0.14061987608496815 -0.9900636597965088 5.945053377891164e-17 1.2951328930234587e-16 5.945053377891164e-17 1.2951328930234587e-16 -0.14061918508300814 -0.9900637579400626
12616660000.0 -0.15266136041408865 -0.9882785584218297 6.10221542322837e-17 1.287494010007951e-16 6.10221542322837e-17 1.287494010007951e-16 -0.15266067069175726 -0.9882786649643667
12617277333.333334 -0.16468022277990346 -0.9863470100451309 6.258398503128845e-17 1.2796645409435254e-16 6.258398503128845e-17 1.2796645409435254e-16 -0.1646795344392764 -0.9863471249700438
12617894666.666666 -0.17667468218000917 -0.9842693008909711 6.41357952148039e-17 1.2716457374191915e-16 6.41357952148039e-17 1.2716457374191915e-16 -0.17667399532294728 -0.9842694241804097
12618512000.0 -0.18864296122843974 -0.9820457388425308 6.567735541834028e-17 1.2634388789932515e-16 6.567735541834028e-17 1.2634388789932515e-16 -0.18864227595657415 -0.9820458704774089
12619129333.333334 -0.2005832864184591 -0.9796766533960979 6.720843790781179e-17 1.2550452729904406e-16 6.720843790781179e-17 1.2550452729904406e-16 -0.20058260283317583 -0.9796767933560928
12619746666.666666 -0.21249388838572947 -0.977162395612173 6.872881661317201e-17 1.2464662542943374e-16 6.872881661317201e-17 1.2464662542943374e-16 -0.212493206588155 -0.9771625438757319
12620364000.0 -0.22437300217058626 -0.9745033380634295 7.023826716175008e-17 1.2377031851358953e-16 7.023826716175008e-17 1.2377031851358953e-16 -0.22437232226157214 -0.9745034946077706
12620981333.333334 -0.23621886747913112 -0.9716998747795971 7.173656691125176e-17 1.2287574548783278e-16 7.173656691125176e-17 1.2287574548783278e-16 -0.23621818955923962 -0.9717000395807154
12621598666.666666 -0.2480297289445806 -0.968752421188968 7.322349498260743e-17 1.2196304797973238e-16 7.322349498260743e-17 1.2196304797973238e-16 -0.2480290531140686 -0.9687525942216343
12622216000.0 -0.2598038363870207 -0.965661414056912 7.469883229243335e-17 1.210323702857926e-16 7.469883229243335e-17 1.210323702857926e-16 -0.2598031627458267 -0.965661595294684
12622833333.333334 -0.27153944507303374 -0.9624273114210948 7.616236158529057e-17 1.2008385934870154e-16 7.616236158529057e-17 1.2008385934870154e-16 -0.27153877372076146 -0.9624275008363142
12623450666.666666 -0.28323481597393574 -0.959050592523678 7.761386746558074e-17 1.191176647342375e-16 7.761386746558074e-17 1.191176647342375e-16 -0.28323414700984006 -0.9590507900874784
12624068000.0 -0.2948882160236939 -0.9555317577402496 7.905313642923553e-17 1.1813393860773603e-16 7.905313642923553e-17 1.1813393860773603e-16 -0.2948875495466659 -0.9555319634225591
12624685333.333334 -0.30649791837584506 -0.9518713285056347 8.047995689504086e-17 1.17132835710219e-16 8.047995689504086e-17 1.17132835710219e-16 -0.3064972544843982 -0.9518715422751826
12625302666.666666 -0.3180622026589267 -0.9480698472367741 8.189411923567779e-17 1.1611451333413553e-16 8.189411923567779e-17 1.1611451333413553e-16 -0.3180615414511813 -0.9480700690610938
12625920000.0 -0.32957935523203086 -0.9441278772521484 8.329541580848691e-17 1.1507913129870824e-16 8.329541580848691e-17 1.1507913129870824e-16 -0.32957869680569996 -0.9441281070975827
12626537333.333334 -0.3410476694381698 -0.9400460026884859 8.46836409858797e-17 1.1402685192493938e-16 8.46836409858797e-17 1.1402685192493938e-16 -0.3410470138905452 -0.940046240520194
12627154666.666666 -0.3524654458574213 -0.9358248284141311 8.605859118544884e-17 1.1295784001024209e-16 8.605859118544884e-17 1.1295784001024209e-16 -0.3524647932853583 -0.9358250741960903
12627772000.0 -0.3638309925589918 -0.9314649799393143 8.742006489981015e-17 1.118722628026696e-16 8.742006489981015e-17 1.118722628026696e-16 -0.36383034305889556 -0.9314652336343288
12628389333.333334 -0.3751426253513761 -0.9269671033236757 8.876786272600638e-17 1.1077028997487542e-16 8.876786272600638e-17 1.1077028997487542e-16 -0.37514197901918683 -0.9269673648933798
12629006666.666666 -0.3863986680325102 -0.9223318650803033 9.010178739472599e-17 1.0965209359760726e-16 9.010178739472599e-17 1.0965209359760726e-16 -0.38639802496369 -0.9223321344851692
12629624000.0 -0.3975974526377876 -0.9175599520771112 9.142164379905756e-17 1.0851784811295642e-16 9.142164379905756e-17 1.0851784811295642e-16 -0.3975968129273053 -0.9175602292764535
12630241333.333334 -0.40873731968733046 -0.9126520714350163 9.272723902301111e-17 1.0736773030717755e-16 9.272723902301111e-17 1.0736773030717755e-16 -0.40873668342964764 -0.912652356386998
12630858666.666666 -0.41981661843179363 -0.9076089504231998 9.401838236961274e-17 1.0620191928323921e-16 9.401838236961274e-17 1.0620191928323921e-16 -0.41981598572085166 -0.907609243084841
12631476000.0 -0.43083370709734303 -0.9024313363511759 9.5294885388755e-17 1.0502059643294968e-16 9.5294885388755e-17 1.0502059643294968e-16 -0.4308330780265482 -0.9024316366783569
12632093333.333334 -0.4417869531284472 -0.897119996458273 9.655656190458136e-17 1.0382394540885419e-16 9.655656190458136e-17 1.0382394540885419e-16 -0.4417863277906574 -0.8971203044057433
12632710666.666666 -0.4526747334300306 -0.8916757177998398 9.780322804260548e-17 1.026121520957258e-16 9.780322804260548e-17 1.026121520957258e-16 -0.4526741119175417 -0.8916760333212242
12633328000.0 -0.4634954346081666 -0.8860993071305238 9.903470225646961e-17 1.0138540458173282e-16 9.903470225646961e-17 1.0138540458173282e-16 -0.4634948170126986 -0.8860996301783299
12633945333.333334 -0.47424745320887696 -0.8803915907848635 1.0025080535427341e-16 1.0014389312935419e-16 1.0025080535427341e-16 1.0014389312935419e-16 -0.4742468396215599 -0.8803919213104866
12634562666.666666 -0.48492919595578826 -0.8745534145548118 1.014513605246228e-16 9.888781014589831e-17 1.014513605246228e-16 9.888781014589831e-17 -0.4849285864671503 -0.874553752508546
12635180000.0 -0.4955390799863826 -0.8685856435643284 1.0263619336224744e-16 9.761735015377285e-17 1.0263619336224744e-16 9.761735015377285e-17 -0.49553847468633494 -0.8685859888953704
12635797333.333334 -0.5060755330863995 -0.8624891621412566 1.0380513189329754e-16 9.633270976039686e-17 1.0380513189329754e-16 9.633270976039686e-17 -0.506074932064224 -0.8624895147977155
12636414666.666666 -0.5165369939227905 -0.8562648736863007 1.0495800660020727e-16 9.503408762787252e-17 1.0495800660020727e-16 9.503408762787252e-17 -0.5165363972671276 -0.8562652336152065
12637032000.0 -0.5269219122753057 -0.8499137005390274 1.0609465044625057e-16 9.372168444228371e-17 1.0609465044625057e-16 9.372168444228371e-17 -0.5269213200741394 -0.8499140676863363
12637649333.333334 -0.537228749265941 -0.8434365838413468 1.0721489889964369e-16 9.239570288277877e-17 1.0721489889964369e-16 9.239570288277877e-17 -0.537228161606586 -0.843436958151951
12638266666.666666 -0.5474559775871928 -0.8368344833979184 1.0831858995731873e-16 9.105634759030391e-17 1.0831858995731873e-16 9.105634759030391e-17 -0.5474553945562828 -0.8368348648156535
12638884000.0 -0.5576020817282118 -0.8301083775340263 1.0940556416826226e-16 8.970382513610466e-17 1.0940556416826226e-16 8.970382513610466e-17 -0.5576015034116867 -0.8301087660016814
12639501333.333334 -0.567665558199476 -0.8232592629505521 1.1047566465650662e-16 8.833834398989837e-17 1.1047566465650662e-16 8.833834398989837e-17 -0.5676649846825684 -0.8232596584098771
12640118666.666666 -0.5776449157554868 -0.8162881545763385 1.1152873714366555e-16 8.696011448784446e-17 1.1152873714366555e-16 8.696011448784446e-17 -0.5776443471227101 -0.8162885569680528
12640736000.0 -0.5875386756160758 -0.8091960854175679 1.1256462997116595e-16 8.556934880012746e-17 1.1256462997116595e-16 8.556934880012746e-17 -0.5875381119512106 -0.809196494681369
12641353333.333334 -0.597345371684929 -0.8019841064051099 1.1358319412194223e-16 8.416626089845177e-17 1.1358319412194223e-16 8.416626089845177e-17 -0.5973448130710123 -0.8019845224796833
12641970666.666666 -0.6070635507673984 -0.7946532862383995 1.1458428324185892e-16 8.275106652310286e-17 1.1458428324185892e-16 8.275106652310286e-17 -0.6070629972867102 -0.7946537090614272
12642588000.0 -0.6166917727855632 -0.7872047112272685 1.1556775366064992e-16 8.132398314985476e-17 1.1556775366064992e-16 8.132398314985476e-17 -0.6166912245196161 -0.7872051407354405
12643205333.333334 -0.6262286109917201 -0.7796394851309095 1.1653346441244862e-16 7.98852299566265e-17 1.1653346441244862e-16 7.98852299566265e-17 -0.626228068021245 -0.779639921259929
12643822666.666666 -0.6356726521798434 -0.7719587289942721 1.1748127725594338e-16 7.843502778984045e-17 1.1748127725594338e-16 7.843502778984045e-17 -0.6356721145847786 -0.7719591716788687
12644440000.0 -0.6450224968948477 -0.7641635809820724 1.1841105669407228e-16 7.697359913060568e-17 1.1841105669407228e-16 7.697359913060568e-17 -0.6450219647543274 -0.7641640301560105
12645057333.333334 -0.6542767596400317 -0.7562551962100816 1.193226699933134e-16 7.550116806064552e-17 1.193226699933134e-16 7.550116806064552e-17 -0.6542762330323739 -0.7562556518061702
12645674666.666666 -0.663434069082451 -0.7482347465739014 1.2021598720256006e-16 7.401796022798845e-17 1.2021598720256006e-16 7.401796022798845e-17 -0.6634335480851472 -0.7482352085240056
12646292000.0 -0.6724930682561477 -0.7401034205752873 1.2109088117158528e-16 7.252420281240862e-17 1.2109088117158528e-16 7.252420281240862e-17 -0.6724925529458496 -0.7401038888103361
12646909333.333334 -0.68145241476302 -0.7318624231462213 1.219472275690188e-16 7.102012449074951e-17 1.219472275690188e-16 7.102012449074951e-17 -0.6814519052155291 -0.7318628975962193
12647526666.666666 -0.6903107809719955 -0.7235129754701318 1.2278490489995945e-16 6.950595540192629e-17 1.2278490489995945e-16 6.950595540192629e-17 -0.6903102772622529 -0.7235134560641705
12648144000.0 -0.6990668542157016 -0.7150563148009896 1.236037945231298e-16 6.798192711176319e-17 1.236037945231298e-16 6.798192711176319e-17 -0.6990663564177758 -0.7150568014672571
12648761333.333334 -0.7077193369848578 -0.7064936942800851 1.2440378066758064e-16 6.644827257765448e-17 1.2440378066758064e-16 6.644827257765448e-17 -0.7077188451719335 -0.7064941869458752
12649378666.666666 -0.716266947120589 -0.6978263827502943 1.2518475044896695e-16 6.490522611301672e-17 1.2518475044896695e-16 6.490522611301672e-17 -0.7162664613649576 -0.6978268813420205
12649996000.0 -0.7247084180045809 -0.6890556645678968 1.259465938854005e-16 6.335302335151921e-17 1.259465938854005e-16 6.335302335151921e-17 -0.7247079383776291 -0.6890561690111012
12650613333.333334 -0.7330424987465921 -0.6801828394124351 1.266892039128454e-16 6.179190121115407e-17 1.266892039128454e-16 6.179190121115407e-17 -0.7330420253187907 -0.6801833496317995
12651230666.666666 -0.7412679543697963 -0.6712092220941447 1.2741247640005146e-16 6.022209785816766e-17 1.2741247640005146e-16 6.022209785816766e-17 -0.741267487210692 -0.6712097380135031
12651848000.0 -0.7493835659940236 -0.6621361423588737 1.2811631016309083e-16 5.864385267071368e-17 1.2811631016309083e-16 5.864385267071368e-17 -0.7493831051722265 -0.6621366639012228
12652465333.333334 -0.7573881310161584 -0.6529649446912595 1.288006069793859e-16 5.705740620246483e-17 1.288006069793859e-16 5.705740620246483e-17 -0.7573876765993336 -0.6529654717787704
12653082666.666666 -0.7652804632882988 -0.6436969881155701 1.294652716013302e-16 5.5463000145971766e-17 1.294652716013302e-16 5.5463000145971766e-17 -0.7652800153431552 -0.6436975206695994
12653700000.0 -0.773059393293836 -0.6343336459939474 1.3011021176944427e-16 5.386087729588617e-17 1.3011021176944427e-16 5.386087729588617e-17 -0.7730589518861175 -0.6343341839350499
12654317333.333334 -0.780723768320374 -0.6248763058233556 1.307353382250676e-16 5.225128151206287e-17 1.307353382250676e-16 5.225128151206287e-17 -0.7807233335148493 -0.6248768490712956
12654934666.666666 -0.7882724526307795 -0.615326369029692 1.3134056472260515e-16 5.0634457682486134e-17 1.3134056472260515e-16 5.0634457682486134e-17 -0.788272024491232 -0.6153269175034547
12655552000.0 -0.7957043276315302 -0.6056852507600489 1.3192580804132547e-16 4.901065168603381e-17 1.3192580804132547e-16 4.901065168603381e-17 -0.7957039062207507 -0.6056858043778541
12656169333.333334 -0.8030182920381934 -0.5959543796733714 1.3249098799666451e-16 4.738011035520054e-17 1.3249098799666451e-16 4.738011035520054e-17 -0.8030178774179678 -0.5959549383526832
12656786666.666666 -0.810213262038929 -0.5861351977283457 1.3303602745111687e-16 4.5743081438560884e-17 1.3303602745111687e-16 4.5743081438560884e-17 -0.8102128542700334 -0.5861357613858882
12657404000.0 -0.8172881714548744 -0.5762291599700223 1.335608523246229e-16 4.409981356322595e-17 1.335608523246229e-16 4.409981356322595e-17 -0.8172877705970615 -0.5762297285217886
12658021333.333334 -0.824241971898297 -0.5662377343139682 1.340653916045226e-16 4.2450556197095995e-17 1.340653916045226e-16 4.2450556197095995e-17 -0.8242415780102911 -0.566238307675235
12658638666.666666 -0.831073632927757 -0.5561624013290272 1.3454957735501648e-16 4.079555961108869e-17 1.3454957735501648e-16 4.079555961108869e-17 -0.8310732460672432 -0.5561629794143664
12659256000.0 -0.8377821422010091 -0.5460046540176172 1.3501334472619633e-16 3.9135074841143066e-17 1.3501334472619633e-16 3.9135074841143066e-17 -0.8377817624246258 -0.5460052367409096
12659873333.333334 -0.8443665056249194 -0.5357659975946335 1.3545663196256963e-16 3.746935365025329e-17 1.3545663196256963e-16 3.746935365025329e-17 -0.8443661329882501 -0.535766584869081
12660490666.666666 -0.8508257475026672 -0.5254479492645661 1.3587938041113903e-16 3.5798648490335845e-17 1.3587938041113903e-16 3.5798648490335845e-17 -0.8508253820602314 -0.5254485410027042
12661108000.0 -0.8571589106786013 -0.5150520379962438 1.3628153452901936e-16 3.412321246396844e-17 1.3628153452901936e-16 3.412321246396844e-17 -0.8571585524838479 -0.5150526341099556
12661725333.333334 -0.8633650566797436 -0.5045798042967947 1.3666304189055252e-16 3.2443299286178176e-17 1.3666304189055252e-16 3.2443299286178176e-17 -0.8633647057850429 -0.504580404697324
12662342666.666666 -0.8694432658551415 -0.4940327999829101 1.3702385319398912e-16 3.0759163245997374e-17 1.3702385319398912e-16 3.0759163245997374e-17 -0.8694429223117756 -0.49403340458087325
12662960000.0 -0.8753926375119636 -0.48341258795117886 1.373639222676681e-16 2.907105916807235e-17 1.373639222676681e-16 2.907105916807235e-17 -0.8753923013701208 -0.48341319665657917
12663577333.333334 -0.8812122900490316 -0.47272074194639646 1.376832060757436e-16 2.7379242374121168e-17 1.376832060757436e-16 2.7379242374121168e-17 -0.881211961357798 -0.47272135466863724
12664194666.666666 -0.8869013610874945 -0.4619588463282838 1.379816647234232e-16 2.5683968644397852e-17 1.379816647234232e-16 2.5683968644397852e-17 -0.8869010398948498 -0.46195946297618307
12664812000.0 -0.8924590075985311 -0.4511284958368886 1.3825926146174645e-16 2.3985494179040523e-17 1.3825926146174645e-16 2.3985494179040523e-17 -0.8924586939513374 -0.45112911631869057
12665429333.333334 -0.8978844060283878 -0.4402312953560415 1.3851596269187591e-16 2.228407555942581e-17 1.3851596269187591e-16 2.228407555942581e-17 -0.8978840999723838 -0.44023191957943136
12666046666.666666 -0.9031767524202493 -0.42926885967586886 1.387517379689189e-16 2.057996970946596e-17 1.387517379689189e-16 2.057996970946596e-17 -0.9031764540000465 -0.42926948754798677
12666664000.0 -0.9083352625336125 -0.4182428132530219 1.3896656000528152e-16 1.887343385680611e-17 1.3896656000528152e-16 1.887343385680611e-17 -0.9083349717926855 -0.4182434446804763
12667281333.333334 -0.9133591719602377 -0.4071547899704966 1.3916040467352689e-16 1.7164725494129154e-17 1.3916040467352689e-16 1.7164725494129154e-17 -0.9133588889409183 -0.4071554248593777
12667898666.666666 -0.9182477362375807 -0.3960064328951837 1.393332510087797e-16 1.5454102340286048e-17 1.393332510087797e-16 1.5454102340286048e-17 -0.9182474609810545 -0.39600707115107925
12668516000.0 -0.9230002309591437 -0.38479939403431573 1.3948508121064134e-16 1.3741822301485914e-17 1.3948508121064134e-16 1.3741822301485914e-17 -0.9229999635054404 -0.3848000355623225
12669133333.333334 -0.9276159518816363 -0.37353533409108014 1.3961588064462816e-16 1.2028143432505213e-17 1.3961588064462816e-16 1.2028143432505213e-17 -0.9276156922696261 -0.3735359787958199
12669750666.666666 -0.9320942150295368 -0.3622159222180616 1.3972563784314207e-16 1.0313323897798371e-17 1.3972563784314207e-16 1.0313323897798371e-17 -0.9320939632969242 -0.36221657000369456
12670368000.0 -0.9364343567963234 -0.35084283577018743 1.398143445059587e-16 8.597621932658594e-18 1.398143445059587e-16 8.597621932658594e-18 -0.936434112979641 -0.35084348654042663
