! Parameters = {f0=12700.012000; bw=77.238000; Q=6100.000000; N=10; m_0_1=1.169464; m_1_1=-1.222779; m_1_2=1.004276; m_2_2=-1.223428; m_2_3=0.641239; m_2_8=-0.004463; m_2_9=0.032241; m_3_3=-1.225365; m_3_4=0.529768; m_3_7=-0.003863; m_3_8=-0.100951; m_3_9=-0.004463; m_4_4=-1.228290; m_4_5=0.366103; m_4_6=-0.000346; m_4_7=-0.121500; m_4_8=-0.003863; m_5_5=-1.227908; m_5_6=0.773458; m_5_7=-0.000346; m_6_6=-1.227909; m_6_7=0.366445; m_7_7=-1.228276; m_7_8=0.529886; m_8_8=-1.225367; m_8_9=0.641552; m_9_9=-1.223433; m_9_10=1.005354; m_10_10=-1.222789; m_10_11=1.170259}
!
! Created with skrf (http://scikit-rf.org).
# Hz S RI R 50.0 
!freq ReS11 ImS11 ReS21 ImS21 ReS12 ImS12 ReS22 ImS22
12607400000.0 0.23983519742704626 -0.9708136165479856 3.0738836700643286e-18 6.704937254328947e-17 3.0738836700643286e-18 6.704937254328947e-17 0.23983579575289843 -0.9708134687340425
12608017333.333334 0.23249795978961352 -0.9725968839624756 3.585312922070183e-18 6.701080442536187e-17 3.585312922070183e-18 6.701080442536187e-17 0.2324985591851634 -0.9725967406775907
12608634666.666666 0.2251474662601458 -0.9743246986690258 4.096332530716515e-18 6.696833934899475e-17 4.096332530716515e-18 6.696833934899475e-17 0.22514806669111578 -0.9743245599209241
12609252000.0 0.21778413592776857 -0.9759969621561566 4.6069128331360895e-18 6.692198131911698e-17 4.6069128331360895e-18 6.692198131911698e-17 0.2177847373598254 -0.9759968279523054
12609869333.333334 0.21040838861344313 -0.9776135790796616 5.117024203719709e-18 6.687173456620777e-17 5.117024203719709e-18 6.687173456620777e-17 0.21040899101219965 -0.977613449427266
12610486666.666666 0.2030206448463075 -0.9791744572679785 5.626637055814254e-18 6.681760354596296e-17 5.626637055814254e-18 6.681760354596296e-17 0.20302124817732514 -0.979174332173986
12611104000.0 0.19562132583908912 -0.9806795077275791 6.135721843448129e-18 6.67595929389451e-17 6.135721843448129e-18 6.67595929389451e-17 0.19562193006787917 -0.9806793871986745
12611721333.333334 0.18821085346486793 -0.9821286446478776 6.644249063023391e-18 6.66977076502246e-17 6.644249063023391e-18 6.66977076502246e-17 0.18821145855689386 -0.982128528690485
12612338666.666666 0.18078965023241034 -0.9835217854062484 7.15218925503309e-18 6.663195280900378e-17 7.15218925503309e-18 6.663195280900378e-17 0.18079025615309 -0.9835216740265312
12612956000.0 0.1733581392623031 -0.9848588505726915 7.659513005756447e-18 6.656233376823049e-17 7.659513005756447e-18 6.656233376823049e-17 0.1733587459770104 -0.9848587437765519
12613573333.333334 0.1659167442629969 -0.9861397639143339 8.166190948950794e-18 6.648885610419966e-17 8.166190948950794e-18 6.648885610419966e-17 0.1659173517370641 -0.9861396617074123
12614190666.666666 0.158465889506313 -0.9873644523998337 8.67219376755692e-18 6.641152561613834e-17 8.67219376755692e-18 6.641152561613834e-17 0.1584664977050321 -0.9873643547875077
12614808000.0 0.15100599980347681 -0.988532846203505 9.177492195384063e-18 6.633034832578163e-17 9.177492195384063e-18 6.633034832578163e-17 0.1510066086921021 -0.9885327531908897
12615425333.333334 0.14353750048084157 -0.989644878709309 9.68205701879113e-18 6.624533047693443e-17 9.68205701879113e-18 6.624533047693443e-17 0.1435381100245913 -0.9896447903012566
12616042666.666666 0.1360608173556382 -0.9907004865146516 1.0185859078381303e-17 6.615647853501956e-17 1.0185859078381303e-17 6.615647853501956e-17 0.13606142751969671 -0.9907004027157515
12616660000.0 0.1285763767116407 -0.9916996094340046 1.0688869270675715e-17 6.606379918661389e-17 1.0688869270675715e-17 6.606379918661389e-17 0.12857698746116056 -0.9916995302485843
12617277333.333334 0.12108460527508762 -0.9926421905023111 1.1191058549785198e-17 6.596729933897285e-17 1.1191058549785198e-17 6.596729933897285e-17 0.12108521657519125 -0.9926421159344333
12617894666.666666 0.11358593019001365 -0.9935281759782764 1.1692397929083724e-17 6.586698611954118e-17 1.1692397929083724e-17 6.586698611954118e-17 0.11358654200579547 -0.9935281060317399
12618512000.0 0.10608077899406462 -0.9943575153474046 1.2192858482890564e-17 6.576286687544744e-17 1.2192858482890564e-17 6.576286687544744e-17 0.10608139129059317 -0.9943574500257455
12619129333.333334 0.09856957959429147 -0.9951301613248666 1.2692411348101824e-17 6.565494917299638e-17 1.2692411348101824e-17 6.565494917299638e-17 0.09857019233661135 -0.9951301006313571
12619746666.666666 0.09105276024247083 -0.9958460698582277 1.3191027725879093e-17 6.554324079713558e-17 1.3191027725879093e-17 6.554324079713558e-17 0.09105337339560443 -0.9958460137958739
12620364000.0 0.08353074951063055 -0.9965052001299555 1.3688678883298302e-17 6.542774975091699e-17 1.3688678883298302e-17 6.542774975091699e-17 0.08353136303958045 -0.9965051487015009
12620981333.333334 0.07600397626712475 -0.9971075145597074 1.4185336154977388e-17 6.530848425494955e-17 1.4185336154977388e-17 6.530848425494955e-17 0.07600459013687547 -0.9971074677676306
12621598666.666666 0.06847286965161553 -0.9976529788065209 1.468097094475142e-17 6.51854527468282e-17 1.468097094475142e-17 6.51854527468282e-17 0.06847348382713554 -0.9976529366530357
12622216000.0 0.060937859050831725 -0.9981415617707492 1.517555472729655e-17 6.505866388056052e-17 1.517555472729655e-17 6.505866388056052e-17 0.06093847349707565 -0.9981415242578064
12622833333.333334 0.05339937407425818 -0.9985732355958318 1.5669059049773412e-17 6.492812652597562e-17 1.5669059049773412e-17 6.492812652597562e-17 0.053399988756168415 -0.9985732027251141
12623450666.666666 0.045857844529300494 -0.9989479756698936 1.6161455533443404e-17 6.479384976812595e-17 1.6161455533443404e-17 6.479384976812595e-17 0.04585845941180961 -0.9989479474428219
12624068000.0 0.03831370039700686 -0.9992657606271415 1.6652715875315042e-17 6.465584290666817e-17 1.6652715875315042e-17 6.465584290666817e-17 0.038314315445039354 -0.9992657370448708
12624685333.333334 0.030767371807439037 -0.9995265723490869 1.7142811849761337e-17 6.45141154552377e-17 1.7142811849761337e-17 6.45141154552377e-17 0.030767986985913424 -0.9995265534125072
12625302666.666666 0.02321928901543243 -0.9997303959655672 1.7631715310111904e-17 6.436867714081653e-17 1.7631715310111904e-17 6.436867714081653e-17 0.02321990428926319 -0.9997303816753036
12625920000.0 0.015669882375440102 -0.9998772198556134 1.8119398190302004e-17 6.421953790307188e-17 1.8119398190302004e-17 6.421953790307188e-17 0.01567049770953975 -0.999877210212027
12626537333.333334 0.0081195823177348 -0.9999670356480943 1.8605832506445083e-17 6.40667078937026e-17 1.8605832506445083e-17 6.40667078937026e-17 0.008120197677015804 -0.9999670306512797
12627154666.666666 0.0005688193235269522 -0.9999998382222007 1.9090990358447265e-17 6.391019747575996e-17 1.9090990358447265e-17 6.391019747575996e-17 0.0005694346729037972 -0.9999998378719889
12627772000.0 -0.0069819760999202925 -0.9999756257077427 1.9574843931605327e-17 6.375001722295923e-17 1.9574843931605327e-17 6.375001722295923e-17 -0.006981360795529126 -0.9999756300036984
12628389333.333334 -0.014532373443097553 -0.9998943994852462 2.0057365498181155e-17 6.358617791898555e-17 2.0057365498181155e-17 6.358617791898555e-17 -0.014531758218767598 -0.9998944084266711
12629006666.666666 -0.02208194221942003 -0.9997561641858821 2.0538527419006397e-17 6.341869055677543e-17 2.0538527419006397e-17 6.341869055677543e-17 -0.022081327110218818 -0.9997561777718117
12629624000.0 -0.029630251989487516 -0.9995609276911984 2.101830214503466e-17 6.324756633780233e-17 2.101830214503466e-17 6.324756633780233e-17 -0.02962963703047259 -0.9995609459204042
12630241333.333334 -0.0371768723857396 -0.9993087011326703 2.1496662218934543e-17 6.307281667133456e-17 2.1496662218934543e-17 6.307281667133456e-17 -0.037176257611956504 -0.9993087240036588
12630858666.666666 -0.044721373136709056 -0.9989994988910742 2.197358027663898e-17 6.289445317369403e-17 2.197358027663898e-17 6.289445317369403e-17 -0.04472075858318934 -0.9989995264020874
12631476000.0 -0.052263324092178674 -0.998633338595646 2.2449029048919025e-17 6.271248766749288e-17 2.2449029048919025e-17 6.271248766749288e-17 -0.05226270979393793 -0.9986333707446619
12632093333.333334 -0.05980229524696783 -0.9982102411231033 2.2922981362924638e-17 6.252693218086758e-17 2.2922981362924638e-17 6.252693218086758e-17 -0.0598016812390037 -0.9982102779078361
12632710666.666666 -0.06733785676579046 -0.9977302305964469 2.3395410143737208e-17 6.233779894669542e-17 2.3395410143737208e-17 6.233779894669542e-17 -0.06733724308308055 -0.9977302720143458
12633328000.0 -0.07486957900810211 -0.9971933343835584 2.3866288415913782e-17 6.214510040179938e-17 2.3866288415913782e-17 6.214510040179938e-17 -0.0748689656856021 -0.9971933804318094
12633945333.333334 -0.08239703255185858 -0.9965995830956875 2.4335589305016156e-17 6.19488491861451e-17 2.4335589305016156e-17 6.19488491861451e-17 -0.08239641962450014 -0.996599633771212
12634562666.666666 -0.08991978821862348 -0.995949010585667 2.4803286039140544e-17 6.174905814202372e-17 2.4803286039140544e-17 6.174905814202372e-17 -0.0899191757213124 -0.9959490658851238
12635180000.0 -0.09743741709775408 -0.9952416539459998 2.5269351950440613e-17 6.154574031322298e-17 2.5269351950440613e-17 6.154574031322298e-17 -0.09743680506536827 -0.9952417138657845
12635797333.333334 -0.10494949057096932 -0.9944775535067373 2.5733760476636858e-17 6.133890894418974e-17 2.5733760476636858e-17 6.133890894418974e-17 -0.10494887903835667 -0.994477618042982
12636414666.666666 -0.11245558033656088 -0.9936567528331995 2.6196485162528134e-17 6.112857747917806e-17 2.6196485162528134e-17 6.112857747917806e-17 -0.11245496933853755 -0.9936568219817745
12637032000.0 -0.11995525843415256 -0.9927792987234599 2.6657499661497747e-17 6.091475956138418e-17 2.6657499661497747e-17 6.091475956138418e-17 -0.1199546480055007 -0.9927793724799722
12637649333.333334 -0.1274480972688742 -0.9918452412057003 2.7116777736995607e-17 6.069746903207885e-17 2.7116777736995607e-17 6.069746903207885e-17 -0.12744748744434 -0.9918453195654934
12638266666.666666 -0.13493366963579725 -0.9908546335353483 2.7574293264037438e-17 6.0476719929717e-17 2.7574293264037438e-17 6.0476719929717e-17 -0.13493306045008918 -0.9908547164935049
12638884000.0 -0.14241154874434828 -0.9898075321920354 2.803002023067959e-17 6.025252648904419e-17 2.803002023067959e-17 6.025252648904419e-17 -0.14241094023213507 -0.9898076197433773
12639501333.333334 -0.14988130824241788 -0.9887039968764122 2.848393273948863e-17 6.002490314019153e-17 2.848393273948863e-17 6.002490314019153e-17 -0.14988070043832646 -0.9887040890154988
12640118666.666666 -0.1573425222409502 -0.987544090506701 2.893600500900698e-17 5.979386450775766e-17 2.893600500900698e-17 5.979386450775766e-17 -0.15734191517956364 -0.9875441872278313
12640736000.0 -0.16479476533828055 -0.9863278792150972 2.938621137523148e-17 5.955942540986971e-17 2.938621137523148e-17 5.955942540986971e-17 -0.16479415905413636 -0.9863279805123093
12641353333.333334 -0.17223761264394127 -0.9850554323440723 2.983452629302721e-17 5.932160085726219e-17 2.983452629302721e-17 5.932160085726219e-17 -0.1722370071715291 -0.9850555382111437
12641970666.666666 -0.17967063980322326 -0.9837268224423649 3.0280924337599416e-17 5.908040605231149e-17 3.0280924337599416e-17 5.908040605231149e-17 -0.17967003517698318 -0.9837269328728135
12642588000.0 -0.18709342302142684 -0.9823421252608361 3.0725380205922706e-17 5.883585638807809e-17 3.0725380205922706e-17 5.883585638807809e-17 -0.18709281927574742 -0.9823422402479206
12643205333.333334 -0.1945055390878565 -0.9809014197481797 3.1167868718165825e-17 5.858796744733598e-17 3.1167868718165825e-17 5.858796744733598e-17 -0.19450493625707244 -0.9809015392848983
12643822666.666666 -0.20190656540000507 -0.9794047880464052 3.160836481911365e-17 5.833675500158861e-17 3.160836481911365e-17 5.833675500158861e-17 -0.20190596351839613 -0.9794049121255001
12644440000.0 -0.2092960799877062 -0.9778523154861531 3.2046843579581484e-17 5.808223501007463e-17 3.2046843579581484e-17 5.808223501007463e-17 -0.2092954790894941 -0.9778524441001055
12645057333.333334 -0.21667366153696838 -0.9762440905818658 3.248328019781491e-17 5.782442361876652e-17 3.248328019781491e-17 5.782442361876652e-17 -0.21667306165631584 -0.9762442237229007
12645674666.666666 -0.22403888941433153 -0.9745802050266787 3.291765000088974e-17 5.756333715935428e-17 3.291765000088974e-17 5.756333715935428e-17 -0.2240382905853398 -0.9745803426867639
12646292000.0 -0.23139134369062628 -0.9728607536872362 3.334992844610535e-17 5.72989921482169e-17 3.334992844610535e-17 5.72989921482169e-17 -0.23139074594733303 -0.9728608958580808
12646909333.333334 -0.23873060516502678 -0.9710858345982559 3.378009112235419e-17 5.703140528539446e-17 3.378009112235419e-17 5.703140528539446e-17 -0.23873000854140491 -0.9710859812713145
12647526666.666666 -0.24605625538867631 -0.96925554895701 3.4208113751505165e-17 5.676059345353515e-17 3.4208113751505165e-17 5.676059345353515e-17 -0.24605565991863118 -0.9692557001234804
12648144000.0 -0.2533678766891513 -0.9673700011174026 3.4633972189761234e-17 5.64865737168433e-17 3.4633972189761234e-17 5.64865737168433e-17 -0.25336728240651946 -0.967370156768228
12648761333.333334 -0.26066505219350317 -0.9654292985842147 3.50576424290184e-17 5.620936332001132e-17 3.50576424290184e-17 5.620936332001132e-17 -0.26066445913205055 -0.9654294587100846
12649378666.666666 -0.2679473658526339 -0.9634335520068246 3.5479100598208035e-17 5.592897968714648e-17 3.5479100598208035e-17 5.592897968714648e-17 -0.26794677404605255 -0.9634337165981709
12649996000.0 -0.27521440246479373 -0.961382875172945 3.589832296463875e-17 5.564544042068257e-17 3.589832296463875e-17 5.564544042068257e-17 -0.27521381194670175 -0.961383044219949
12650613333.333334 -0.2824657476990926 -0.9592773850021923 3.631528593533134e-17 5.535876330028062e-17 3.631528593533134e-17 5.535876330028062e-17 -0.2824651585030309 -0.9592775584947816
12651230666.666666 -0.2897009881194505 -0.9571172015393238 3.6729966058329185e-17 5.5068966281730033e-17 3.6729966058329185e-17 5.5068966281730033e-17 -0.2897004002788812 -0.9571173794671721
12651848000.0 -0.29691971120795035 -0.9549024479474533 3.714234002402179e-17 5.4776067495825014e-17 3.714234002402179e-17 5.4776067495825014e-17 -0.29691912475625565 -0.954902630299985
12652465333.333334 -0.3041215053884676 -0.9526332505010014 3.755238466644413e-17 5.448008524724227e-17 3.755238466644413e-17 5.448008524724227e-17 -0.3041209203589469 -0.9526334372673877
12653082666.666666 -0.31130596004986494 -0.9503097385785774 3.796007696456555e-17 5.418103801340984e-17 3.796007696456555e-17 5.418103801340984e-17 -0.3113053764757331 -0.9503099297477393
12653700000.0 -0.31847266556999815 -0.9479320446554127 3.8365394043594054e-17 5.3878944443348744e-17 3.8365394043594054e-17 5.3878944443348744e-17 -0.3184720834843843 -0.9479322402160221
12654317333.333334 -0.3256212133383153 -0.9455003042960568 3.876831317622598e-17 5.3573823356538296e-17 3.876831317622598e-17 5.3573823356538296e-17 -0.3256206327742599 -0.9455005042365349
12654934666.666666 -0.33275119577974605 -0.9430146561464471 3.916881178393826e-17 5.3265693741734235e-17 3.916881178393826e-17 5.3265693741734235e-17 -0.33275061677020007 -0.943014860454968
12655552000.0 -0.3398622063777243 -0.940475241926079 3.95668674382425e-17 5.295457475579837e-17 3.95668674382425e-17 5.295457475579837e-17 -0.33986162895554706 -0.9404754505905689
12656169333.333334 -0.3469538396972059 -0.9378822064199837 3.9962457861916566e-17 5.264048572252935e-17 3.9962457861916566e-17 5.264048572252935e-17 -0.34695326389516246 -0.9378824194281208
12656786666.666666 -0.35402569140810514 -0.9352356974703573 4.03555609302688e-17 5.232344613145242e-17 4.03555609302688e-17 5.232344613145242e-17 -0.3540251172588649 -0.9352359148095726
12657404000.0 -0.36107735830813287 -0.9325358659682061 4.074615467235681e-17 5.200347563662699e-17 4.074615467235681e-17 5.200347563662699e-17 -0.3610767858442686 -0.9325360876256874
12658021333.333334 -0.36810843834589346 -0.9297828658447089 4.113421727220736e-17 5.168059405543736e-17 4.113421727220736e-17 5.168059405543736e-17 -0.36810786759987796 -0.9297830918073968
12658638666.666666 -0.37511853064354145 -0.9269768540625394 4.1519727070030045e-17 5.1354821367372395e-17 4.1519727070030045e-17 5.1354821367372395e-17 -0.3751179616477468 -0.9269770843171319
12659256000.0 -0.38210723552022036 -0.9241179906066905 4.1902662563427956e-17 5.102617771278939e-17 4.1902662563427956e-17 5.102617771278939e-17 -0.3821066683069155 -0.9241182251396411
12659873333.333334 -0.3890741545141099 -0.9212064384756448 4.228300240858021e-17 5.0694683391685114e-17 4.228300240858021e-17 5.0694683391685114e-17 -0.38907358911545936 -0.9212066772731654
12660490666.666666 -0.3960188904057271 -0.918242363671852 4.2660725421419564e-17 5.0360358862454856e-17 4.2660725421419564e-17 5.0360358862454856e-17 -0.396018326853788 -0.9182426067199112
12661108000.0 -0.4029410472403583 -0.9152259351923413 4.3035810578828016e-17 5.0023224740617495e-17 4.3035810578828016e-17 5.0023224740617495e-17 -0.40294048556708045 -0.9152261824766689
12661725333.333334 -0.40984023035048295 -0.9121573250191626 4.340823701977611e-17 4.968330179757282e-17 4.340823701977611e-17 4.968330179757282e-17 -0.40983967058770554 -0.9121575765252474
12662342666.666666 -0.4167160463785864 -0.9090367081094426 4.37779840464878e-17 4.934061095931956e-17 4.37779840464878e-17 4.934061095931956e-17 -0.4167154885580359 -0.9090369638225327
12662960000.0 -0.4235681032993776 -0.9058642623854958 4.4145031125585124e-17 4.899517330517319e-17 4.4145031125585124e-17 4.899517330517319e-17 -0.4235675474526679 -0.9058645222906034
12663577333.333334 -0.43039601044219566 -0.9026401687246653 4.450935788921901e-17 4.8647010066479356e-17 4.450935788921901e-17 4.8647010066479356e-17 -0.43039545660082396 -0.9026404328065631
12664194666.666666 -0.4371993785132808 -0.8993646109490037 4.4870944136188174e-17 4.8296142625319924e-17 4.4870944136188174e-17 4.8296142625319924e-17 -0.4371988267086271 -0.899364879192228
12664812000.0 -0.44397781961802246 -0.8960377758147692 4.522976983306093e-17 4.794259251319974e-17 4.522976983306093e-17 4.794259251319974e-17 -0.4439772698813483 -0.8960380482036219
12665429333.333334 -0.4507309472828713 -0.8926598530018799 4.558581511527377e-17 4.7586381409736234e-17 4.558581511527377e-17 4.7586381409736234e-17 -0.45073039964531647 -0.8926601295204267
12666046666.666666 -0.4574583764776794 -0.889231035102946 4.593906028822011e-17 4.7227531141341226e-17 4.593906028822011e-17 4.7227531141341226e-17 -0.4574578309702616 -0.8892313157350199
12666664000.0 -0.46415972363744984 -0.8857515176123928 4.628948582834198e-17 4.686606367988149e-17 4.628948582834198e-17 4.686606367988149e-17 -0.4641591802910621 -0.8857518023415933
12667281333.333334 -0.4708346066843057 -0.8822214989152591 4.6637072384191406e-17 4.650200114135124e-17 4.6637072384191406e-17 4.650200114135124e-17 -0.4708340655297145 -0.8822217877249531
12667898666.666666 -0.4774826450490234 -0.8786411802760208 4.6981800777501133e-17 4.6135365784516666e-17 4.6981800777501133e-17 4.6135365784516666e-17 -0.4774821061168678 -0.8786414731493454
12668516000.0 -0.4841034596932835 -0.8750107658268236 4.73236520042316e-17 4.576618000956611e-17 4.73236520042316e-17 4.576618000956611e-17 -0.48410292301407243 -0.8750110627466846
12669133333.333334 -0.49069667313058013 -0.8713304625562182 4.766260723560765e-17 4.539446635675258e-17 4.766260723560765e-17 4.539446635675258e-17 -0.4906961387346908 -0.8713307635052927
12669750666.666666 -0.4972619094482914 -0.8676004802970606 4.7998647819157124e-17 4.502024750501493e-17 4.7998647819157124e-17 4.502024750501493e-17 -0.4972613773659693 -0.8676007852577994
12670368000.0 -0.5037987943289157 -0.8638210317146612 4.8331755279721214e-17 4.4643546270610784e-17 4.8331755279721214e-17 4.4643546270610784e-17 -0.5037982645902704 -0.8638213406692863
