! Parameters = {f0=12700.012000; bw=77.238000; Q=6100.000000; N=10; m_0_1=1.241336; m_1_1=-0.144701; m_1_2=1.076148; m_2_2=-0.145350; m_2_3=0.713111; m_2_8=-0.000869; m_2_9=0.035835; m_3_3=-0.147287; m_3_4=0.601640; m_3_7=-0.000269; m_3_8=-0.097357; m_3_9=-0.000869; m_4_4=-0.150212; m_4_5=0.437975; m_4_6=0.003248; m_4_7=-0.117906; m_4_8=-0.000269; m_5_5=-0.149830; m_5_6=0.845330; m_5_7=0.003248; m_6_6=-0.149831; m_6_7=0.438317; m_7_7=-0.150198; m_7_8=0.601758; m_8_8=-0.147289; m_8_9=0.713424; m_9_9=-0.145355; m_9_10=1.077226; m_10_10=-0.144711; m_10_11=1.242131}
!
! Created with skrf (http://scikit-rf.org).
# Hz S RI R 50.0 
!freq ReS11 ImS11 ReS21 ImS21 ReS12 ImS12 ReS22 ImS22
12607400000.0 0.7201676127798733 -0.6938001221553441 -4.758265791173631e-17 8.387437620115326e-17 -4.758265791173631e-17 8.387437620115326e-17 0.7201680665673775 -0.6937996511215871
12608017333.333334 0.7134210936613076 -0.7007355728938957 -4.675227332906101e-17 8.431846347330068e-17 -4.675227332906101e-17 8.431846347330068e-17 0.7134215519625801 -0.700735106295621
12608634666.666666 0.7066077869173721 -0.7076054235713322 -4.5917756124005256e-17 8.475433704494647e-17 -4.5917756124005256e-17 8.475433704494647e-17 0.7066082496890692 -0.7076049614517846
12609252000.0 0.699728330382663 -0.7144090310597437 -4.507918747049512e-17 8.518195858083873e-17 -4.507918747049512e-17 8.518195858083873e-17 0.699728797581025 -0.7144085734617437
12609869333.333334 0.6927833680843514 -0.721145758432742 -4.42366488968217e-17 8.560129054725218e-17 -4.42366488968217e-17 8.560129054725218e-17 0.6927838396652098 -0.721145305398683
12610486666.666666 0.6857735501821577 -0.7278149750248285 -4.339022227772652e-17 8.601229621525567e-17 -4.339022227772652e-17 8.601229621525567e-17 0.6857740261009386 -0.7278145265966735
12611104000.0 0.6786995329070991 -0.7344160564908134 -4.2539989826455986e-17 8.641493966389977e-17 -4.2539989826455986e-17 8.641493966389977e-17 0.6787000131188264 -0.734415612710089
12611721333.333334 0.6715619785005063 -0.7409483848638282 -4.168603408680958e-17 8.680918578331678e-17 -4.168603408680958e-17 8.680918578331678e-17 0.671562462959807 -0.7409479457716234
12612338666.666666 0.6643615551516583 -0.7474113486135336 -4.082843792513957e-17 8.7195000277751e-17 -4.082843792513957e-17 8.7195000277751e-17 0.6643620438127649 -0.7474109142504924
12612956000.0 0.6570989369353671 -0.7538043427032246 -3.996728452230819e-17 8.75723496685171e-17 -3.996728452230819e-17 8.75723496685171e-17 0.6570994297521242 -0.7538039131095459
12613573333.333334 0.64977480374901 -0.7601267686463672 -3.910265736568045e-17 8.794120129685153e-17 -3.910265736568045e-17 8.794120129685153e-17 0.649775300674877 -0.7601263438617981
12614190666.666666 0.6423898412485949 -0.7663780345628621 -3.823464024100335e-17 8.830152332672337e-17 -3.823464024100335e-17 8.830152332672337e-17 0.6423903422366527 -0.766377614626698
12614808000.0 0.6349447407848376 -0.7725575552342403 -3.736331722433758e-17 8.865328474753213e-17 -3.736331722433758e-17 8.865328474753213e-17 0.6349452457877897 -0.7725571401853161
12615425333.333334 0.6274401993382389 -0.7786647521586049 -3.648877267390922e-17 8.899645537674894e-17 -3.648877267390922e-17 8.899645537674894e-17 0.6274407083084186 -0.7786643420352966
12616042666.666666 0.6198769194540139 -0.7846990536046492 -3.561109122198099e-17 8.933100586246049e-17 -3.561109122198099e-17 8.933100586246049e-17 0.6198774323433872 -0.7846986484448665
12616660000.0 0.612255609176146 -0.7906598946653218 -3.473035776665963e-17 8.965690768584878e-17 -3.473035776665963e-17 8.965690768584878e-17 0.612256125936317 -0.790659494506506
12617277333.333334 0.6045769819812563 -0.7965467173105835 -3.3846657463717016e-17 8.997413316357672e-17 -3.3846657463717016e-17 8.997413316357672e-17 0.6045775025634719 -0.7965463221897054
12617894666.666666 0.5968417567117471 -0.8023589704397067 -3.296007571837991e-17 9.028265545009772e-17 -3.296007571837991e-17 9.028265545009772e-17 0.5968422810669008 -0.8023585803932614
12618512000.0 0.5890506575084136 -0.8080961099329316 -3.207069817705761e-17 9.058244853989841e-17 -3.207069817705761e-17 9.058244853989841e-17 0.5890511855870503 -0.8080957249969345
12619129333.333334 0.5812044137429032 -0.8137575987022173 -3.117861071914033e-17 9.087348726962921e-17 -3.117861071914033e-17 9.087348726962921e-17 0.5812049454952248 -0.8137572189122037
12619746666.666666 0.5733037599491391 -0.819342906741744 -3.028389944867785e-17 9.115574732018876e-17 -3.028389944867785e-17 9.115574732018876e-17 0.5733042953250082 -0.8193425321327628
12620364000.0 0.5653494357547152 -0.8248515111774101 -2.938665068610706e-17 9.142920521870333e-17 -2.938665068610706e-17 9.142920521870333e-17 0.5653499747036589 -0.8248511417840209
12620981333.333334 0.557342185811677 -0.8302828963157639 -2.84869509599444e-17 9.169383834043246e-17 -2.84869509599444e-17 9.169383834043246e-17 0.5573427282828951 -0.8302825321720373
12621598666.666666 0.5492827597267683 -0.8356365536923188 -2.7584886998453633e-17 9.194962491059448e-17 -2.7584886998453633e-17 9.194962491059448e-17 0.5492833056691347 -0.835636194831829
12622216000.0 0.5411719119911826 -0.8409119821191983 -2.6680545721295157e-17 9.219654400611086e-17 -2.6680545721295157e-17 9.219654400611086e-17 0.541172461353251 -0.8409116285750219
12622833333.333334 0.533010401910071 -0.8461086877319582 -2.5774014231184145e-17 9.243457555726255e-17 -2.5774014231184145e-17 9.243457555726255e-17 0.53301095464008 -0.8461083395366708
12623450666.666666 0.524798993531366 -0.8512261840358863 -2.48653798055082e-17 9.266370034927173e-17 -2.48653798055082e-17 9.266370034927173e-17 0.5247995495772447 -0.8512258412215596
12624068000.0 0.5165384555743281 -0.856263991951501 -2.395472988794995e-17 9.2883900023796e-17 -2.395472988794995e-17 9.2883900023796e-17 0.5165390148836998 -0.8562636545497001
12624685333.333334 0.5082295613573594 -0.8612216398595297 -2.304215208006544e-17 9.309515708034862e-17 -2.304215208006544e-17 9.309515708034862e-17 0.5082301238775475 -0.8612213079013104
12625302666.666666 0.49987308872602493 -0.8660986636448155 -2.2127734132922365e-17 9.329745487761952e-17 -2.2127734132922365e-17 9.329745487761952e-17 0.4998736544040569 -0.86609833716072
12625920000.0 0.49146981997979394 -0.8708946067400243 -2.121156393861841e-17 9.349077763473874e-17 -2.121156393861841e-17 9.349077763473874e-17 0.49147038876240695 -0.8708942857600799
12626537333.333334 0.48302054179907156 -0.8756090201682274 -2.0293729521909088e-17 9.367511043243057e-17 -2.0293729521909088e-17 9.367511043243057e-17 0.4830211136327181 -0.8756087047219443
12627154666.666666 0.47452604517158253 -0.8802414625849253 -1.937431903173063e-17 9.385043921410704e-17 -1.937431903173063e-17 9.385043921410704e-17 0.4745266200024337 -0.880241152701291
12627772000.0 0.4659871253179705 -0.8847915003195531 -1.845342073275657e-17 9.401675078686795e-17 -1.845342073275657e-17 9.401675078686795e-17 0.46598770309192244 -0.8847911960270326
12628389333.333334 0.45740458161790265 -0.88925870741578 -1.753112299695771e-17 9.41740328224178e-17 -1.753112299695771e-17 9.41740328224178e-17 0.4574051622805812 -0.8892584087423112
12629006666.666666 0.4487792175346584 -0.8936426656716944 -1.6607514295120072e-17 9.432227385790544e-17 -1.6607514295120072e-17 9.432227385790544e-17 0.44877980103142473 -0.8936423726446879
12629624000.0 0.4401118405403913 -0.8979429646787044 -1.568268318838379e-17 9.446146329667697e-17 -1.568268318838379e-17 9.446146329667697e-17 0.4401124268163462 -0.8979426773250384
12630241333.333334 0.43140326204018165 -0.9021592018601385 -1.4756718319773844e-17 9.459159140894549e-17 -1.4756718319773844e-17 9.459159140894549e-17 0.43140385104017154 -0.9021589202061584
12630858666.666666 0.4226542972964076 -0.9062909825087699 -1.3829708405715695e-17 9.471264933238081e-17 -1.3829708405715695e-17 9.471264933238081e-17 0.4226548889650289 -0.9062907065802843
12631476000.0 0.4138657653520656 -0.9103379198239417 -1.2901742227544402e-17 9.482462907261527e-17 -1.2901742227544402e-17 9.482462907261527e-17 0.4138663596336704 -0.9103376496462208
12632093333.333334 0.40503848895435 -0.9142996349476517 -1.1972908623032554e-17 9.492752350366476e-17 -1.1972908623032554e-17 9.492752350366476e-17 0.4050390857930516 -0.9142993705454254
12632710666.666666 0.3961732944776596 -0.9181757570000144 -1.1043296477905311e-17 9.502132636826803e-17 -1.1043296477905311e-17 9.502132636826803e-17 0.39617389381733714 -0.9181754983974695
12633328000.0 0.3872710118458965 -0.9219659231141286 -1.0112994717329842e-17 9.510603227814547e-17 -1.0112994717329842e-17 9.510603227814547e-17 0.3872716136302005 -0.9219656703349062
12633945333.333334 0.37833247445521484 -0.9256697784698525 -9.182092297442262e-18 9.518163671417151e-17 -9.182092297442262e-18 9.518163671417151e-17 0.3783330786275724 -0.9256695315370463
12634562666.666666 0.3693585190956621 -0.9292869763271683 -8.250678196864006e-18 9.524813602646481e-17 -8.250678196864006e-18 9.524813602646481e-17 0.36935912559928236 -0.9292867352633228
12635180000.0 0.3603499858730782 -0.9328171780585434 -7.318841408195097e-18 9.53055274343979e-17 -7.318841408195097e-18 9.53055274343979e-17 0.3603505946509578 -0.9328169428856514
12635797333.333334 0.351307718130211 -0.9362600531807262 -6.386670929547279e-18 9.535380902652091e-17 -6.386670929547279e-18 9.535380902652091e-17 0.3513083291251392 -0.9362598239202272
12636414666.666666 0.342232562368057 -0.9396152793855715 -5.454255756050168e-18 9.539297976040499e-17 -5.454255756050168e-18 9.539297976040499e-17 0.3422331755226211 -0.9396150560583494
12637032000.0 0.3331253681663769 -0.9428825425703075 -4.521684871377228e-18 9.542303946240151e-17 -4.521684871377228e-18 9.542303946240151e-17 0.3331259834229675 -0.9428823251966881
12637649333.333334 0.3239869881041874 -0.946061536866926 -3.589047239259913e-18 9.544398882731981e-17 -3.589047239259913e-18 9.544398882731981e-17 0.32398760540500393 -0.9460613254666759
12638266666.666666 0.31481827768010573 -0.94915196467076 -2.6564317950368316e-18 9.545582941802043e-17 -2.6564317950368316e-18 9.545582941802043e-17 0.31481889696716236 -0.9491517592630861
12638884000.0 0.30562009523204847 -0.9521535366684225 -1.7239274371682492e-18 9.545856366492808e-17 -1.7239274371682492e-18 9.545856366492808e-17 0.30562071644717886 -0.9521533372719677
12639501333.333334 0.2963933018570644 -0.9550659718648231 -7.916230187981072e-19 9.545219486546022e-17 -7.916230187981072e-19 9.545219486546022e-17 0.29639392494192707 -0.9550657784976652
12640118666.666666 0.28713876133066885 -0.9578889976094941 1.4039266070076003e-19 9.543672718337495e-17 1.4039266070076003e-19 9.543672718337495e-17 0.2871393862267536 -0.9578888102891462
12640736000.0 0.27785734002576307 -0.9606223496221808 1.0720308641892598e-18 9.541216564803456e-17 1.0720308641892598e-18 9.541216564803456e-17 0.2778579666743954 -0.9606221683655873
12641353333.333334 0.2685499068319629 -0.9632657720174512 2.0032029251503408e-18 9.537851615358942e-17 2.0032029251503408e-18 9.537851615358942e-17 0.2685505351743101 -0.9632655968409876
12641970666.666666 0.2592173330738756 -0.9658190173287643 2.9338202561459405e-18 9.533578545807753e-17 2.9338202561459405e-18 9.533578545807753e-17 0.2592179630509523 -0.9658188482482348
12642588000.0 0.24986049242972147 -0.9682818465315821 3.8637943572224106e-18 9.528398118244327e-17 3.8637943572224106e-18 9.528398118244327e-17 0.24986112398239488 -0.9682816835622196
12643205333.333334 0.2404802608494327 -0.970654029065774 4.793036824290793e-18 9.52231118094747e-17 4.793036824290793e-18 9.52231118094747e-17 0.24048089391842878 -0.9706538722222386
12643822666.666666 0.23107751647273467 -0.9729353428571835 5.721459357546126e-18 9.515318668265692e-17 5.721459357546126e-18 9.515318668265692e-17 0.2310781509986425 -0.9729351921535581
12644440000.0 0.22165313954685306 -0.9751255743384318 6.648973769805882e-18 9.50742160049476e-17 6.648973769805882e-18 9.50742160049476e-17 0.22165377547013151 -0.9751254297882241
12645057333.333334 0.2122080123443037 -0.9772245184688687 7.575491994893929e-18 9.498621083746768e-17 7.575491994893929e-18 9.498621083746768e-17 0.21220864960528685 -0.9772243800850104
12645674666.666666 0.20274301908007647 -0.9792319787538231 8.500926095963734e-18 9.488918309811349e-17 8.500926095963734e-18 9.488918309811349e-17 0.2027436576189787 -0.979231846548666
12646292000.0 0.19325904582888553 -0.9811477672629851 9.425188273868082e-18 9.47831455600833e-17 9.425188273868082e-18 9.47831455600833e-17 0.1932596855858075 -0.9811476412483021
12646909333.333334 0.18375698044235733 -0.9829717046479716 1.0348190875417981e-17 9.466811185033068e-17 1.0348190875417981e-17 9.466811185033068e-17 0.1837576213572916 -0.9829715848349545
12647526666.666666 0.17423771246583097 -0.9847036201591354 1.1269846401713485e-17 9.454409644792973e-17 1.1269846401713485e-17 9.454409644792973e-17 0.1742383544786675 -0.9847035065583944
12648144000.0 0.16470213305502587 -0.9863433516615585 1.2190067516426741e-17 9.441111468236121e-17 1.2190067516426741e-17 9.441111468236121e-17 0.16470277610555778 -0.9863432442831219
12648761333.333334 0.15515113489264337 -0.9878907456502248 1.3108767054031533e-17 9.426918273172364e-17 1.3108767054031533e-17 9.426918273172364e-17 0.1551517789205725 -0.9878906445035371
12649378666.666666 0.1455856121049938 -0.9893456572643593 1.402585802806432e-17 9.411831762085758e-17 1.402585802806432e-17 9.411831762085758e-17 0.1455862570499363 -0.9893455623582804
12649996000.0 0.13600646017792703 -0.9907079503010476 1.494125363933547e-17 9.395853721939373e-17 1.494125363933547e-17 9.395853721939373e-17 0.1360071059794192 -0.9907078616438526
12650613333.333334 0.12641457587330965 -0.9919774972279383 1.5854867284140844e-17 9.378986023971807e-17 1.5854867284140844e-17 9.378986023971807e-17 0.12641522247081355 -0.9919774148273168
12651230666.666666 0.11681085714496141 -0.9931541791952 1.6766612562406215e-17 9.361230623486555e-17 1.6766612562406215e-17 9.361230623486555e-17 0.11681150447787053 -0.993154103058256
12651848000.0 0.10719620305453606 -0.9942378860466559 1.7676403285888975e-17 9.342589559631943e-17 1.7676403285888975e-17 9.342589559631943e-17 0.10719685106218069 -0.9942378161799038
12652465333.333334 0.09757151368738234 -0.9952285163300868 1.8584153486263384e-17 9.32306495517497e-17 1.8584153486263384e-17 9.32306495517497e-17 0.09757216230903577 -0.9952284527394558
12653082666.666666 0.08793769006850832 -0.9961259773067098 1.948977742324821e-17 9.302659016265987e-17 1.948977742324821e-17 9.302659016265987e-17 0.0879383392433923 -0.9961259199975405
12653700000.0 0.07829563407772187 -0.9969301849599097 2.0393189592693327e-17 9.281374032195766e-17 2.0393189592693327e-17 9.281374032195766e-17 0.07829628374501217 -0.9969301339369537
12654317333.333334 0.06864624836579442 -0.9976410640030484 2.1294304734619745e-17 9.25921237514527e-17 2.1294304734619745e-17 9.25921237514527e-17 0.0686468984646267 -0.9976410192704683
12654934666.666666 0.0589904362695905 -0.998258547886547 2.2193037841254222e-17 9.236176499927134e-17 2.2193037841254222e-17 9.236176499927134e-17 0.05899108673906598 -0.9982585094479164
12655552000.0 0.049329101727415614 -0.9987825788041151 2.3089304165052468e-17 9.212268943718972e-17 2.3089304165052468e-17 9.212268943718972e-17 0.04932975250660683 -0.9987825466624198
12656169333.333334 0.03966314919484727 -0.9992131076981426 2.3983019226628886e-17 9.187492325790567e-17 2.3983019226628886e-17 9.187492325790567e-17 0.03966380022280358 -0.999213081855776
12656786666.666666 0.029993483559552395 -0.9995500942643126 2.48740988227494e-17 9.161849347221083e-17 2.48740988227494e-17 9.161849347221083e-17 0.02999413477530588 -0.9995500747230792
12657404000.0 0.02032101005694459 -0.999793506955361 2.576245903421355e-17 9.13534279061056e-17 2.576245903421355e-17 9.13534279061056e-17 0.020321661399515696 -0.9997934937164753
12658021333.333334 0.010646634185155584 -0.9999433229840379 2.6648016233766733e-17 9.107975519782292e-17 2.6648016233766733e-17 9.107975519782292e-17 0.010647285593558846 -0.9999433160481255
12658638666.666666 0.0009712616206355045 -0.9999995283252373 2.7530687093921724e-17 9.07975047947921e-17 2.7530687093921724e-17 9.07975047947921e-17 0.0009719130338852205 -0.9999995276923317
12659256000.0 -0.008704201867144499 -0.9999621177173112 2.841038859482859e-17 9.050670695050265e-17 2.841038859482859e-17 9.050670695050265e-17 -0.00870355051002852 -0.9999621233868567
12659873333.333334 -0.018378850500031994 -0.9998310946625591 2.928703803202219e-17 9.020739272132058e-17 2.928703803202219e-17 9.020739272132058e-17 -0.01837819926001876 -0.9998311066334115
12660490666.666666 -0.02805177857607388 -0.9996064714269067 3.0160553024200875e-17 8.989959396320951e-17 3.0160553024200875e-17 8.989959396320951e-17 -0.028051127514115495 -0.9996064896973311
12661108000.0 -0.03772208055467399 -0.9992882690387487 3.1030851520955765e-17 8.958334332838086e-17 3.1030851520955765e-17 8.958334332838086e-17 -0.037721429731699924 -0.9992882936064195
12661725333.333334 -0.0473888511407696 -0.9988765172869934 3.1897851810445395e-17 8.925867426187762e-17 3.1897851810445395e-17 8.925867426187762e-17 -0.04738820061768091 -0.998876548148995
12662342666.666666 -0.05705118537012079 -0.998371254718252 3.2761472527060155e-17 8.892562099807373e-17 3.2761472527060155e-17 8.892562099807373e-17 -0.0570505352077848 -0.9983712918710844
12662960000.0 -0.06670817869366127 -0.9977725286332592 3.362163265903601e-17 8.85842185571065e-17 3.362163265903601e-17 8.85842185571065e-17 -0.06670752895290533 -0.9977725720728297
12663577333.333334 -0.07635892706243319 -0.9970803950824163 3.4478251556046245e-17 8.823450274122874e-17 3.4478251556046245e-17 8.823450274122874e-17 -0.07635827780403939 -0.997080444804046
12664194666.666666 -0.0860025270119942 -0.9962949188605673 3.533124893672837e-17 8.787651013109884e-17 3.533124893672837e-17 8.787651013109884e-17 -0.08600187829669352 -0.9962949748589892
12664812000.0 -0.09563807574722277 -0.9954161735009142 3.6180544896210585e-17 8.751027808198368e-17 3.6180544896210585e-17 8.751027808198368e-17 -0.09563742763568939 -0.9954162357702737
12665429333.333334 -0.1052646712266641 -0.9944442412681442 3.702605991356171e-17 8.713584471990353e-17 3.702605991356171e-17 8.713584471990353e-17 -0.10526402377950987 -0.9944443098020017
12666046666.666666 -0.1148814122469197 -0.9933792131507415 3.7867714859227036e-17 8.675324893769605e-17 3.7867714859227036e-17 8.675324893769605e-17 -0.11488076552468829 -0.9933792879420705
12666664000.0 -0.12448739852740942 -0.9922211888524203 3.870543100242319e-17 8.636253039100685e-17 3.870543100242319e-17 8.636253039100685e-17 -0.12448675259057079 -0.9922212698936097
12667281333.333334 -0.13408173079405947 -0.9909702767828616 3.9539130018470815e-17 8.596372949422066e-17 3.9539130018470815e-17 8.596372949422066e-17 -0.1340810857030041 -0.9909703640657154
12667898666.666666 -0.1436635108639969 -0.989626594047504 4.036873399610464e-17 8.555688741631148e-17 4.036873399610464e-17 8.555688741631148e-17 -0.14366286667903017 -0.9896266875632428
12668516000.0 -0.15323184172940743 -0.9881902664366036 4.119416544475626e-17 8.514204607661641e-17 4.119416544475626e-17 8.514204607661641e-17 -0.15323119851074432 -0.9881903661758671
12669133333.333334 -0.16278582764148286 -0.9866614284134702 4.201534730173326e-17 8.471924814056817e-17 4.201534730173326e-17 8.471924814056817e-17 -0.16278518544924167 -0.9866615343663141
12669750666.666666 -0.17232457419433292 -0.9850402231018659 4.2832202939439505e-17 8.428853701531753e-17 4.2832202939439505e-17 8.428853701531753e-17 -0.17232393308853014 -0.9850403352577664
12670368000.0 -0.18184718840882833 -0.9833268022725898 4.364465617247851e-17 8.384995684532181e-17 4.364465617247851e-17 8.384995684532181e-17 -0.1818465484493729 -0.9833269206204428
