! Parameters = {f0=12700.012000; bw=77.238000; Q=6100.000000; N=10; m_0_1=1.302998; m_1_1=0.780224; m_1_2=1.137810; m_2_2=0.779575; m_2_3=0.774773; m_2_8=0.002214; m_2_9=0.038918; m_3_3=0.777638; m_3_4=0.663302; m_3_7=0.002814; m_3_8=-0.094274; m_3_9=0.002214; m_4_4=0.774713; m_4_5=0.499637; m_4_6=0.006331; m_4_7=-0.114823; m_4_8=0.002814; m_5_5=0.775095; m_5_6=0.906992; m_5_7=0.006331; m_6_6=0.775094; m_6_7=0.499979; m_7_7=0.774727; m_7_8=0.663420; m_8_8=0.777636; m_8_9=0.775086; m_9_9=0.779570; m_9_10=1.138888; m_10_10=0.780214; m_10_11=1.303793}
!
! Created with skrf (http://scikit-rf.org).
# Hz S RI R 50.0 
!freq ReS11 ImS11 ReS21 ImS21 ReS12 ImS12 ReS22 ImS22
12607400000.0 0.949322645521522 -0.31430322095045643 -1.0582041836988e-16 7.360315724768108e-17 -1.0582041836988e-16 7.360315724768108e-17 0.9493228612700736 -0.31430256930196254
12608017333.333334 0.945645967400032 -0.32519794639553223 -1.0493993072322769e-16 7.480969344486505e-17 -1.0493993072322769e-16 7.480969344486505e-17 0.9456461906161777 -0.325197297302616
12608634666.666666 0.9418442625848831 -0.33604967644048156 -1.0404569832509832e-16 7.600571302500531e-17 -1.0404569832509832e-16 7.600571302500531e-17 0.9418444932383814 -0.3360490299887072
12609252000.0 0.9379180337109688 -0.3468569763455293 -1.0313784660286413e-16 7.719105954826338e-17 -1.0313784660286413e-16 7.719105954826338e-17 0.9379182717705987 -0.3468563326201038
12609869333.333334 0.933867799876874 -0.35761841724517146 -1.0221650276283234e-16 7.836557806864063e-17 -1.0221650276283234e-16 7.836557806864063e-17 0.9338680453104357 -0.35761777633093195
12610486666.666666 0.9296940965763171 -0.3683325763368751 -1.0128179577247348e-16 7.952911515419453e-17 -1.0128179577247348e-16 7.952911515419453e-17 0.929694349350642 -0.36833193831827993
12611104000.0 0.9253974756271759 -0.37899803706967167 -1.0033385634241549e-16 8.068151890704495e-17 -1.0033385634241549e-16 8.068151890704495e-17 0.9253977357081269 -0.3789974020307875
12611721333.333334 0.9209785050987537 -0.38961338933085965 -9.937281690823413e-17 8.182263898314256e-17 -9.937281690823413e-17 8.182263898314256e-17 0.9209787724512302 -0.3896127573553507
12612338666.666666 0.9164377692364939 -0.4001772296328887 -9.839881161199857e-17 8.295232661184277e-17 -9.839881161199857e-17 8.295232661184277e-17 0.916438043824439 -0.40017660080400685
12612956000.0 0.9117758683847653 -0.4106881612988388 -9.741197628358462e-17 8.407043461527517e-17 -9.741197628358462e-17 8.407043461527517e-17 0.9117761501711693 -0.4106875356994115
12613573333.333334 0.9069934189076271 -0.42114479464676774 -9.641244842181366e-17 8.51768174274391e-17 -9.641244842181366e-17 8.51768174274391e-17 0.9069937078545306 -0.4211441723591869
12614190666.666666 0.9020910531071394 -0.4315457471738852 -9.540036717532859e-17 8.62713311131269e-17 -9.540036717532859e-17 8.62713311131269e-17 0.9020913491756413 -0.43154512828009733
12614808000.0 0.897069419139918 -0.4418896437390022 -9.43758733232723e-17 8.735383338660622e-17 -9.43758733232723e-17 8.735383338660622e-17 0.8970697222901799 -0.4418890283204975
12615425333.333334 0.891929180931336 -0.4521751167445761 -9.333910925575997e-17 8.842418363006359e-17 -9.333910925575997e-17 8.842418363006359e-17 0.8919294911225848 -0.4521745048823758
12616042666.666666 0.8866710180878312 -0.4624008063173144 -9.229021895414687e-17 8.948224291181542e-17 -9.229021895414687e-17 8.948224291181542e-17 0.8866713352783698 -0.46240019809196337
12616660000.0 0.8812956258069801 -0.4725653604881533 -9.122934797106788e-17 9.052787400431e-17 -9.122934797106788e-17 9.052787400431e-17 0.8812959499541879 -0.4725647559797065
12617277333.333334 0.8758037147855952 -0.48266743537094775 -9.015664341029277e-17 9.156094140187085e-17 -9.015664341029277e-17 9.156094140187085e-17 0.8758040458459374 -0.4826668346589616
12617894666.666666 0.8701960111258765 -0.4927056953399545 -8.907225390639849e-17 9.258131133818887e-17 -8.907225390639849e-17 9.258131133818887e-17 0.8701963490549095 -0.49270509850347616
12618512000.0 0.8644732562391673 -0.5026788132068678 -8.797632960417526e-17 9.358885180363927e-17 -8.797632960417526e-17 9.358885180363927e-17 0.8644736009915424 -0.5026782203244238
12619129333.333334 0.8586362067482302 -0.5125854703957439 -8.686902213794321e-17 9.45834325622549e-17 -8.686902213794321e-17 9.45834325622549e-17 0.8586365582777005 -0.5125848815453297
12619746666.666666 0.8526856343869744 -0.5224243571177535 -8.57504846105749e-17 9.556492516855386e-17 -8.57504846105749e-17 9.556492516855386e-17 0.852685992646403 -0.5224237723768248
12620364000.0 0.8466223258984642 -0.5321941725442795 -8.462087157238037e-17 9.65332029840684e-17 -8.462087157238037e-17 9.65332029840684e-17 0.8466226908398283 -0.5321935919897409
12620981333.333334 0.8404470829310768 -0.5418936249786102 -8.348033899983278e-17 9.748814119360502e-17 -8.348033899983278e-17 9.748814119360502e-17 0.8404474545054756 -0.5418930486868055
12621598666.666666 0.8341607219322641 -0.5515214320271322 -8.232904427403099e-17 9.842961682132314e-17 -8.232904427403099e-17 9.842961682132314e-17 0.8341611000899241 -0.551520860073834
12622216000.0 0.8277640740408014 -0.5610763207685656 -8.11671461590641e-17 9.935750874648799e-17 -8.11671461590641e-17 9.935750874648799e-17 0.8277644587310835 -0.5610757532289654
12622833333.333334 0.8212579849767443 -0.570557027922497 -7.99948047801359e-17 1.0027169771902378e-16 -7.99948047801359e-17 1.0027169771902378e-16 0.8212583761481516 -0.5705564648711956
12623450666.666666 0.814643314929807 -0.5799623000161219 -7.881218160157655e-17 1.0117206637475834e-16 -7.881218160157655e-17 1.0117206637475834e-16 0.81464371252999 -0.5799617415271197
12624068000.0 0.8079209384454408 -0.589290893550251 -7.761943940461534e-17 1.0205849925046366e-16 -7.761943940461534e-17 1.0205849925046366e-16 0.8079213424212052 -0.5892903396969372
12624685333.333334 0.8010917443092349 -0.598541575163666 -7.641674226502478e-17 1.0293088279860321e-16 -7.641674226502478e-17 1.0293088279860321e-16 0.8010921546065493 -0.5985410260188107
12625302666.666666 0.7941566354296292 -0.6077131217958907 -7.520425553063262e-17 1.0378910540179318e-16 -7.520425553063262e-17 1.0378910540179318e-16 0.7941570519936311 -0.6077125774316338
12625920000.0 0.7871165287181627 -0.6168043208493957 -7.398214579857197e-17 1.0463305738707258e-16 -7.398214579857197e-17 1.0463305738707258e-16 0.7871169514931677 -0.6168037813372388
12626537333.333334 0.7799723549686273 -0.6258139703494235 -7.2750580892485e-17 1.0546263103982554e-16 -7.2750580892485e-17 1.0546263103982554e-16 0.7799727838981338 -0.6258134357602188
12627154666.666666 0.7727250587337756 -0.6347408791031964 -7.15097298395112e-17 1.0627772061747729e-16 -7.15097298395112e-17 1.0627772061747729e-16 0.7727254937604748 -0.6347403495071389
12627772000.0 0.7653755982003859 -0.6435838668574729 -7.025976284709377e-17 1.0707822236294154e-16 -7.025976284709377e-17 1.0707822236294154e-16 0.7653760392661684 -0.6435833423240901
12628389333.333334 0.7579249450628821 -0.6523417644542182 -6.90008512797415e-17 1.0786403451772385e-16 -6.90008512797415e-17 1.0786403451772385e-16 0.7579253921088457 -0.6523412450523625
12629006666.666666 0.7503740843944651 -0.6610134139856652 -6.77331676355116e-17 1.0863505733484089e-16 -6.77331676355116e-17 1.0863505733484089e-16 0.7503745373609226 -0.6610128997835029
12629624000.0 0.7427240145172188 -0.6695976689469888 -6.64568855224619e-17 1.0939119309139071e-16 -6.64568855224619e-17 1.0939119309139071e-16 0.7427244733437073 -0.6695971600119932
12630241333.333334 0.7349757468698633 -0.6780933943881936 -6.517217963489345e-17 1.1013234610089218e-16 -6.517217963489345e-17 1.1013234610089218e-16 0.7349762114951492 -0.678092890787134
12630858666.666666 0.7271303058742893 -0.6864994670638691 -6.387922572951182e-17 1.1085842272531146e-16 -6.387922572951182e-17 1.1085842272531146e-16 0.7271307762363804 -0.6864989688628041
12631476000.0 0.7191887287997777 -0.6948147755820792 -6.257820060136812e-17 1.1156933138686158e-16 -6.257820060136812e-17 1.1156933138686158e-16 0.7191892048359271 -0.6948142828463452
12632093333.333334 0.7111520656261594 -0.7030382205509618 -6.126928205979202e-17 1.1226498257944846e-16 -6.126928205979202e-17 1.1226498257944846e-16 0.7111525472728777 -0.7030377333451682
12632710666.666666 0.703021378904945 -0.7111687147241534 -5.995264890408847e-17 1.1294528887989943e-16 -5.995264890408847e-17 1.1294528887989943e-16 0.7030218660980078 -0.7111682331121721
12633328000.0 0.6947977436186011 -0.7192051831447793 -5.862848089916404e-17 1.1361016495887543e-16 -5.862848089916404e-17 1.1361016495887543e-16 0.6947982362930564 -0.7192047071897358
12633945333.333334 0.6864822470387603 -0.7271465632872295 -5.729695875103056e-17 1.142595275915013e-16 -5.729695875103056e-17 1.142595275915013e-16 0.6864827451289371 -0.7271460930514954
12634562666.666666 0.678075988582232 -0.7349918051978838 -5.595826408217919e-17 1.148932956677157e-16 -5.595826408217919e-17 1.148932956677157e-16 0.6780764920217502 -0.7349913407430677
12635180000.0 0.6695800796657218 -0.7427398716338441 -5.461257940686055e-17 1.1551139020232404e-16 -5.461257940686055e-17 1.1551139020232404e-16 0.6695805883875016 -0.7427394130207864
12635797333.333334 0.6609956435589349 -0.7503897382000396 -5.3260088106215463e-17 1.1611373434478014e-16 -5.3260088106215463e-17 1.1611373434478014e-16 0.660996157495203 -0.7503892854888001
12636414666.666666 0.6523238152359977 -0.757940393484717 -5.19009744033653e-17 1.167002533886485e-16 -5.19009744033653e-17 1.167002533886485e-16 0.6523243343182988 -0.7579399467345705
12637032000.0 0.6435657412254443 -0.7653908391931271 -5.0535423338315855e-17 1.172708747808111e-16 -5.0535423338315855e-17 1.172708747808111e-16 0.6435662653846504 -0.7653903984625553
12637649333.333334 0.6347225794585455 -0.7727400902795878 -4.91636207428282e-17 1.1782552813035319e-16 -4.91636207428282e-17 1.1782552813035319e-16 0.6347231086248629 -0.7727396556262698
12638266666.666666 0.6257954991163635 -0.779987175077588 -4.778575321517622e-17 1.183641452171621e-16 -4.778575321517622e-17 1.183641452171621e-16 0.6257960332193441 -0.7799867465583943
12638884000.0 0.616785680475022 -0.7871311354283859 -4.6402008094784866e-17 1.1888666000024394e-16 -4.6402008094784866e-17 1.1888666000024394e-16 0.6167862194435713 -0.7871307130993698
12639501333.333334 0.6076943147496969 -0.7941710268076464 -4.5012573436804806e-17 1.1939300862573114e-16 -4.5012573436804806e-17 1.1939300862573114e-16 0.6076948585120848 -0.7941706107240386
12640118666.666666 0.5985226039373296 -0.8011059184501717 -4.36176379866258e-17 1.1988312943458746e-16 -4.36176379866258e-17 1.1988312943458746e-16 0.5985231524211992 -0.8011055086663713
12640736000.0 0.5892717606571852 -0.807934893473352 -4.221739115419771e-17 1.2035696297005303e-16 -4.221739115419771e-17 1.2035696297005303e-16 0.5892723137895616 -0.8079344900429193
12641353333.333334 0.5799430079912541 -0.8146570489978416 -4.081202298846068e-17 1.2081445198472584e-16 -4.081202298846068e-17 1.2081445198472584e-16 0.5799435656985559 -0.8146566519734924
12641970666.666666 0.5705375793218856 -0.8212714962674266 -3.9401724151493834e-17 1.2125554144741413e-16 -3.9401724151493834e-17 1.2125554144741413e-16 0.5705381415299339 -0.821271105701025
12642588000.0 0.5610567181691312 -0.8277773607662263 -3.7986685892732527e-17 1.2168017854964144e-16 -3.7986685892732527e-17 1.2168017854964144e-16 0.5610572848031583 -0.8277769767087768
12643205333.333334 0.5515016780261482 -0.8341737823344472 -3.656710002307916e-17 1.2208831271186335e-16 -3.656710002307916e-17 1.2208831271186335e-16 0.5515022490108096 -0.834173404836089
12643822666.666666 0.5418737221934491 -0.8404599152821223 -3.5143158888907276e-17 1.2247989558939618e-16 -3.5143158888907276e-17 1.2247989558939618e-16 0.541874297452832 -0.8404595443921229
12644440000.0 0.5321741236120643 -0.846634928500795 -3.371505534606605e-17 1.228548810780233e-16 -3.371505534606605e-17 1.228548810780233e-16 0.5321747030696983 -0.8466345642675437
12645057333.333334 0.522404164695055 -0.852698005573531 -3.2282982733802684e-17 1.2321322531930732e-16 -3.2282982733802684e-17 1.2321322531930732e-16 0.5224047482739221 -0.8526976480445314
12645674666.666666 0.5125651371581523 -0.8586483448827342 -3.084713484861961e-17 1.2355488670560158e-16 -3.084713484861961e-17 1.2355488670560158e-16 0.5125657247806976 -0.8586479941046004
12646292000.0 0.5026583418486144 -0.8644851597163585 -2.9407705918055534e-17 1.238798258847625e-16 -2.9407705918055534e-17 1.238798258847625e-16 0.5026589334367545 -0.8644848157348047
12646909333.333334 0.4926850885737432 -0.8702076783716045 -2.79648905745035e-17 1.2418800576453726e-16 -2.79648905745035e-17 1.2418800576453726e-16 0.4926856840488806 -0.8702073412314459
12647526666.666666 0.4826466959273033 -0.8758151442572072 -2.6518883828907564e-17 1.24479391516666e-16 -2.6518883828907564e-17 1.24479391516666e-16 0.482647295210332 -0.8758148140023471
12648144000.0 0.472544491115277 -0.8813068159933968 -2.506988104442567e-17 1.2475395058067542e-16 -2.506988104442567e-17 1.2475395058067542e-16 0.4725450941265967 -0.8813064926668256
12648761333.333334 0.46237980978056775 -0.886681967509829 -2.3618077910098004e-17 1.2501165266735766e-16 -2.3618077910098004e-17 1.2501165266735766e-16 0.4623804164400921 -0.8866816511536159
12649378666.666666 0.4521539958262363 -0.8919398881416756 -2.2163670414468094e-17 1.2525246976194755e-16 -2.2163670414468094e-17 1.2525246976194755e-16 0.4521546060534046 -0.8919395787969641
12649996000.0 0.44186840123789367 -0.8970798827235422 -2.0706854819123883e-17 1.2547637612700116e-16 -2.0706854819123883e-17 1.2547637612700116e-16 0.44186901495168224 -0.8970795804305463
12650613333.333334 0.43152438590482545 -0.9021012716814448 -1.9247827632273153e-17 1.256833483049575e-16 -1.9247827632273153e-17 1.256833483049575e-16 0.4315250030237572 -0.9021009764794417
12651230666.666666 0.4211233174405016 -0.9070033911225044 -1.7786785582299765e-17 1.2587336512039262e-16 -1.7786785582299765e-17 1.2587336512039262e-16 0.4211239378826569 -0.9070031030498296
12651848000.0 0.4106665710013256 -0.9117855929229355 -1.632392559121843e-17 1.2604640768197932e-16 -1.632392559121843e-17 1.2604640768197932e-16 0.4106671946843537 -0.9117853120169784
12652465333.333334 0.4001555291051276 -0.9164472448135852 -1.4859444748214117e-17 1.2620245938412513e-16 -1.4859444748214117e-17 1.2620245938412513e-16 0.40015615594625725 -0.9164469711107841
12653082666.666666 0.38959158144845757 -0.920987730463498 -1.3393540283137057e-17 1.263415059083076e-16 -1.3393540283137057e-17 1.263415059083076e-16 0.38959221136450845 -0.9209874639993358
12653700000.0 0.37897612472240716 -0.9254064495615976 -1.1926409539917501e-17 1.264635352241104e-16 -1.1926409539917501e-17 1.264635352241104e-16 0.37897675762979977 -0.9254061903705956
12654317333.333334 0.3683105624285219 -0.9297028178958053 -1.0458249950115568e-17 1.2656853758993655e-16 -1.0458249950115568e-17 1.2656853758993655e-16 0.36831119824329006 -0.9297025660115212
12654934666.666666 0.3575963046927967 -0.933876267430473 -8.989259006329541e-18 1.2665650555342937e-16 -8.989259006329541e-18 1.2665650555342937e-16 0.35759694333059777 -0.9338760228854944
12655552000.0 0.3468347680793142 -0.9379262463814432 -7.519634235678147e-18 1.2672743395157667e-16 -7.519634235678147e-18 1.2672743395157667e-16 0.3468354094554411 -0.9379260092073853
12656169333.333334 0.33602737540327754 -0.941852219288886 -6.0495731733211085e-18 1.2678131991050922e-16 -6.0495731733211085e-18 1.2678131991050922e-16 0.3360280194326688 -0.9418519895163853
12656786666.666666 0.3251755555424428 -0.9456536670882629 -4.579273335884427e-18 1.268181628449962e-16 -4.579273335884427e-18 1.268181628449962e-16 0.3251762021396948 -0.945653444746975
12657404000.0 0.3142807432485491 -0.9493300871788246 -3.1089321950065855e-18 1.2683796445762845e-16 -3.1089321950065855e-18 1.2683796445762845e-16 0.31428139232792685 -0.9493298722974195
12658021333.333334 0.3033443789573581 -0.9528809934901582 -1.6387471508182791e-18 1.2684072873769912e-16 -1.6387471508182791e-18 1.2684072873769912e-16 0.303345030432807 -0.952880786096317
12658638666.666666 0.2923679085985598 -0.9563059165463318 -1.6891550552494356e-19 1.2682646195977536e-16 -1.6891550552494356e-19 1.2682646195977536e-16 0.2923685623837169 -0.9563057166667435
12659256000.0 0.28135278340414305 -0.9596044035281188 1.3003655630953997e-18 1.2679517268196523e-16 1.3003655630953997e-18 1.2679517268196523e-16 0.2813534394123486 -0.9596042111884762
12659873333.333334 0.2703004597168472 -0.9627760183327569 2.768899028062717e-18 1.2674687174387794e-16 2.768899028062717e-18 1.2674687174387794e-16 0.27030111786115557 -0.9627758335577526
12660490666.666666 0.25921239879769814 -0.9658203416315887 4.236488039567506e-18 1.2668157226428078e-16 4.236488039567506e-18 1.2668157226428078e-16 0.2592130589908902 -0.9658201644449139
12661108000.0 0.24809006663234642 -0.968736970925635 5.702935951377646e-18 1.2659928963844679e-16 5.702935951377646e-18 1.2659928963844679e-16 0.2480907287869403 -0.9687368013499744
12661725333.333334 0.23693493373784558 -0.9715255205986395 7.16804634708887e-18 1.26500041535204e-16 7.16804634708887e-18 1.26500041535204e-16 0.23693559776610928 -0.9715253586556717
12662342666.666666 0.22574847496773945 -0.9741856219681929 8.63162306642412e-18 1.2638384789367587e-16 8.63162306642412e-18 1.2638384789367587e-16 0.22574914078170125 -0.974185467678583
12662960000.0 0.2145321693172844 -0.9767169233344103 1.0093470231463071e-17 1.2625073091971964e-16 1.0093470231463071e-17 1.2625073091971964e-16 0.21453283682874505 -0.9767167767178092
12663577333.333334 0.2032874997279638 -0.9791190900264223 1.1553392272812779e-17 1.2610071508206307e-16 1.1553392272812779e-17 1.2610071508206307e-16 0.20328816884850864 -0.979118951101467
12664194666.666666 0.19201595289122994 -0.9813918044466686 1.3011193955723119e-17 1.2593382710813873e-16 1.3011193955723119e-17 1.2593382710813873e-16 0.19201662353223994 -0.9813916732309759
12664812000.0 0.18071901905216642 -0.9835347661128403 1.4466680406183082e-17 1.257500959796149e-16 1.4466680406183082e-17 1.257500959796149e-16 0.1807196911248301 -0.9835346426230053
12665429333.333334 0.16939819181220658 -0.9855476916976523 1.591965713690817e-17 1.2554955292762862e-16 1.591965713690817e-17 1.2554955292762862e-16 0.1693988652275321 -0.9855475759492488
12666046666.666666 0.15805496793202475 -0.9874303150662446 1.736993007329825e-17 1.2533223142771804e-16 1.736993007329825e-17 1.2533223142771804e-16 0.15805564260085128 -0.9874302070738206
12666664000.0 0.14669084713313996 -0.989182387311449 1.8817305579350904e-17 1.2509816719444946e-16 1.8817305579350904e-17 1.2509816719444946e-16 0.14669152296614973 -0.9891822870885263
12667281333.333334 0.13530733190011007 -0.9908036767866223 2.026159048341715e-17 1.2484739817576115e-16 2.026159048341715e-17 1.2484739817576115e-16 0.1353080088078401 -0.9908035843456936
12667898666.666666 0.1239059272816879 -0.9922939691363045 2.1702592104002015e-17 1.2457996454699113e-16 2.1702592104002015e-17 1.2457996454699113e-16 0.12390660517454175 -0.9922938844888327
12668516000.0 0.11248814069163635 -0.9936530673245845 2.3140118275421657e-17 1.2429590870461808e-16 2.3140118275421657e-17 1.2429590870461808e-16 0.11248881947989608 -0.9936529904810003
12669133333.333334 0.10105548170990818 -0.9948807916610884 2.4573977373349784e-17 1.2399527525971436e-16 2.4573977373349784e-17 1.2399527525971436e-16 0.10105616130374642 -0.9948807226307921
12669750666.666666 0.08960946188258061 -0.9959769798248003 2.6003978340383678e-17 1.2367811103108411e-16 2.6003978340383678e-17 1.2367811103108411e-16 0.08961014219207206 -0.9959769186161559
12670368000.0 0.07815159452220606 -0.9969414868854902 2.7429930711421912e-17 1.2334446503812758e-16 2.7429930711421912e-17 1.2334446503812758e-16 0.0781522754573396 -0.9969414335058283
