! Parameters = {f0=12700.012000; bw=77.238000; Q=6100.000000; N=10; m_0_1=1.153649; m_1_1=-1.460016; m_1_2=0.988461; m_2_2=-1.460665; m_2_3=0.625424; m_2_8=-0.005254; m_2_9=0.031450; m_3_3=-1.462602; m_3_4=0.513953; m_3_7=-0.004654; m_3_8=-0.101742; m_3_9=-0.005254; m_4_4=-1.465527; m_4_5=0.350288; m_4_6=-0.001137; m_4_7=-0.122291; m_4_8=-0.004654; m_5_5=-1.465145; m_5_6=0.757643; m_5_7=-0.001137; m_6_6=-1.465146; m_6_7=0.350630; m_7_7=-1.465513; m_7_8=0.514071; m_8_8=-1.462604; m_8_9=0.625737; m_9_9=-1.460670; m_9_10=0.989539; m_10_10=-1.460026; m_10_11=1.154444}
!
! Created with skrf (http://scikit-rf.org).
# Hz S RI R 50.0 
!freq ReS11 ImS11 ReS21 ImS21 ReS12 ImS12 ReS22 ImS22
12607400000.0 -0.3637927449402379 0.9314799185858492 5.1997970575659226e-18 -6.151583868871105e-17 5.1997970575659226e-18 -6.151583868871105e-17 -0.36379331128515113 0.9314796973976617
12608017333.333334 -0.35718572664066517 0.9340333809259892 4.757544429012294e-18 -6.153949186079125e-17 4.757544429012294e-18 -6.153949186079125e-17 -0.35718629451028583 0.9340331637655409
12608634666.666666 -0.35056078731338153 0.9365399801386357 4.315220240781343e-18 -6.155996920209759e-17 4.315220240781343e-18 -6.155996920209759e-17 -0.35056135667907007 0.9365397670164274
12609252000.0 -0.34391825935050735 0.9389995904605983 3.872847272587508e-18 -6.157727090355787e-17 3.872847272587508e-18 -6.157727090355787e-17 -0.34391883018355196 0.9389993813869271
12609869333.333334 -0.33725847602671444 0.9414120884862225 3.4304482977268792e-18 -6.159139731930859e-17 3.4304482977268792e-18 -6.159139731930859e-17 -0.33725904829833264 0.9414118834711812
12610486666.666666 -0.33058177148242585 0.9437773531736154 2.988046081912694e-18 -6.160234896661276e-17 2.988046081912694e-18 -6.160234896661276e-17 -0.33058234516376545 0.943777152227092
12611104000.0 -0.32388848070694176 0.9460952658507513 2.5456633821011643e-18 -6.161012652576927e-17 2.5456633821011643e-18 -6.161012652576927e-17 -0.32388905576908283 0.9460950689824285
12611721333.333334 -0.31717893952192877 0.9483657102213253 2.1033229453357793e-18 -6.16147308400142e-17 2.1033229453357793e-18 -6.16147308400142e-17 -0.3171795159358853 0.9483655174406815
12612338666.666666 -0.31045348456422217 0.9505885723707114 1.6610475075767505e-18 -6.161616291541343e-17 1.6610475075767505e-18 -6.161616291541343e-17 -0.31045406230094247 0.9505883836870176
12612956000.0 -0.3037124532690945 0.9527637407716153 1.2188597925315161e-18 -6.161442392074726e-17 1.2188597925315161e-18 -6.161442392074726e-17 -0.3037130322994643 0.9527635561939377
12613573333.333334 -0.29695618385349076 0.954891106289626 7.767825105021003e-19 -6.160951518738699e-17 7.767825105021003e-19 -6.160951518738699e-17 -0.29695676414833283 0.9548909258268222
12614190666.666666 -0.2901850152987053 0.9569705621887983 3.3483835721781924e-19 -6.160143820916212e-17 3.3483835721781924e-19 -6.160143820916212e-17 -0.2901855968287822 0.9569703858495192
12614808000.0 -0.2833992873336729 0.9590020041369159 -1.0694998733077355e-19 -6.159019464222043e-17 -1.0694998733077355e-19 -6.159019464222043e-17 -0.2833998700696881 0.9590018319296046
12615425333.333334 -0.2765993404178154 0.9609853302107603 -5.485598600391856e-19 -6.15757863048791e-17 -5.485598600391856e-19 -6.15757863048791e-17 -0.276599924330415 0.960985162143653
12616042666.666666 -0.2697855157238779 0.9629204409012494 -9.899686158612225e-19 -6.155821517746796e-17 -9.899686158612225e-19 -6.155821517746796e-17 -0.2697861007836513 0.962920276982372
12616660000.0 -0.26295815512097404 0.9648072391183794 -1.431153628953578e-18 -6.153748340216386e-17 -1.431153628953578e-18 -6.153748340216386e-17 -0.2629587412984564 0.9648070793555497
12617277333.333334 -0.2561176011573253 0.9666456301961291 -1.872092293838252e-18 -6.151359328281763e-17 -1.872092293838252e-18 -6.151359328281763e-17 -0.25611818842299855 0.9666454745969565
12617894666.666666 -0.24926419704312902 0.9684355218971976 -2.3127620265529604e-18 -6.148654728477224e-17 -2.3127620265529604e-18 -6.148654728477224e-17 -0.2492647853674234 0.9684353704690812
12618512000.0 -0.24239828663322838 0.9701768244176574 -2.753140265810476e-18 -6.145634803467255e-17 -2.753140265810476e-18 -6.145634803467255e-17 -0.24239887598652357 0.970176677167785
12619129333.333334 -0.23552021441002455 0.971869450391415 -3.1932044741388818e-18 -6.142299832026764e-17 -3.1932044741388818e-18 -6.142299832026764e-17 -0.23552080476265172 0.9718693073267657
12619746666.666666 -0.22863032546611164 0.9735133148946216 -3.632932139035887e-18 -6.138650109020432e-17 -3.632932139035887e-18 -6.138650109020432e-17 -0.2286309167883549 0.9735131760219635
12620364000.0 -0.22172896548687904 0.97510833544995 -4.072300774121366e-18 -6.134685945381194e-17 -4.072300774121366e-18 -6.134685945381194e-17 -0.22172955774897668 0.9751082007758407
12620981333.333334 -0.2148164807333335 0.9766544320306959 -4.5112879202724666e-18 -6.130407668088089e-17 -4.5112879202724666e-18 -6.130407668088089e-17 -0.21481707390547927 0.9766543015614799
12621598666.666666 -0.20789321802461455 0.9781515270648132 -4.949871146772504e-18 -6.125815620143089e-17 -4.949871146772504e-18 -6.125815620143089e-17 -0.20789381207695987 0.9781514008066257
12622216000.0 -0.20095952472065035 0.9795995454388007 -5.388028052457977e-18 -6.120910160547181e-17 -5.388028052457977e-18 -6.120910160547181e-17 -0.20096011962330534 0.9795994233975645
12622833333.333334 -0.19401574870459026 0.9809984145014976 -5.825736266847943e-18 -6.115691664275728e-17 -5.825736266847943e-18 -6.115691664275728e-17 -0.1940163444276252 0.9809982966829227
12623450666.666666 -0.18706223836565616 0.982348064067663 -6.262973451288777e-18 -6.1101605222529e-17 -6.262973451288777e-18 -6.1101605222529e-17 -0.18706283487910308 0.982347950477247
12624068000.0 -0.18009934258130122 0.9836484264215734 -6.699717300086417e-18 -6.104317141325364e-17 -6.699717300086417e-18 -6.104317141325364e-17 -0.1800999398551555 0.9836483170646019
12624685333.333334 -0.17312741069987264 0.9848994363203856 -7.135945541646848e-18 -6.098161944235048e-17 -7.135945541646848e-18 -6.098161944235048e-17 -0.17312800870409426 0.9848993312019301
12625302666.666666 -0.1661467925232794 0.9861010309973732 -7.571635939595398e-18 -6.091695369591372e-17 -7.571635939595398e-18 -6.091695369591372e-17 -0.1661473912277949 0.9861009301222935
12625920000.0 -0.15915783828893842 0.9872531501651673 -8.006766293921399e-18 -6.084917871842258e-17 -8.006766293921399e-18 -6.084917871842258e-17 -0.15915843766364227 0.9872530535381103
12626537333.333334 -0.1521608986527905 0.9883557360186822 -8.441314442086035e-18 -6.07782992124487e-17 -8.441314442086035e-18 -6.07782992124487e-17 -0.15216149866754594 0.9883556436440785
12627154666.666666 -0.14515632467131387 0.9894087332380752 -8.87525826016233e-18 -6.070432003835023e-17 -8.87525826016233e-18 -6.070432003835023e-17 -0.14515692529595545 0.9894086451201439
12627772000.0 -0.1381444677839387 0.9904120889915204 -9.308575663955403e-18 -6.062724621396032e-17 -9.308575663955403e-18 -6.062724621396032e-17 -0.1381450689882733 0.9904120051342671
12628389333.333334 -0.13112567979572445 0.9913657529378169 -9.741244610111754e-18 -6.054708291426961e-17 -9.741244610111754e-18 -6.054708291426961e-17 -0.13112628154953263 0.9913656733450311
12629006666.666666 -0.1241003128592012 0.9922696772289801 -1.017324309724999e-17 -6.046383547109626e-17 -1.017324309724999e-17 -6.046383547109626e-17 -0.12410091513223896 0.9922696019042381
12629624000.0 -0.11706871945718042 0.9931238165125793 -1.0604549167061502e-17 -6.037750937275284e-17 -1.0604549167061502e-17 -6.037750937275284e-17 -0.11706932221918079 0.9931237454592432
12630241333.333334 -0.11003125238481636 0.9939281279340489 -1.1035140905437711e-17 -6.028811026370059e-17 -1.1035140905437711e-17 -6.028811026370059e-17 -0.11003185560549071 0.9939280611552663
12630858666.666666 -0.10298826473198991 0.9946825711388276 -1.1464996443556848e-17 -6.019564394420215e-17 -1.1464996443556848e-17 -6.019564394420215e-17 -0.10298886838102947 0.9946825086375296
12631476000.0 -0.09594010986545151 0.9953871082743942 -1.1894093959022727e-17 -6.010011636995615e-17 -1.1894093959022727e-17 -6.010011636995615e-17 -0.09594071391252915 0.995387050053299
12632093333.333334 -0.08888714141137459 0.9960417039921418 -1.2322411676932397e-17 -6.000153365173756e-17 -1.2322411676932397e-17 -6.000153365173756e-17 -0.0888877458261461 0.9960416500537518
12632710666.666666 -0.08182971323735891 0.996646325449177 -1.2749927871000653e-17 -5.98999020550183e-17 -1.2749927871000653e-17 -5.98999020550183e-17 -0.08183031798946457 0.9966462757957795
12633328000.0 -0.0747681794347321 0.9972009423099594 -1.3176620864654278e-17 -5.9795227999585e-17 -1.3176620864654278e-17 -5.9795227999585e-17 -0.07476878449379833 0.9972008969436269
12633945333.333334 -0.06770289430081237 0.997705526747821 -1.3602469032116533e-17 -5.968751805915107e-17 -1.3602469032116533e-17 -5.968751805915107e-17 -0.06770349963645311 0.9977054856704111
12634562666.666666 -0.06063421232118923 0.9981600534463618 -1.4027450799512472e-17 -5.957677896095585e-17 -1.4027450799512472e-17 -5.957677896095585e-17 -0.06063481790300746 0.998160016659515
12635180000.0 -0.053562488151880965 0.9985644996007192 -1.445154464594557e-17 -5.946301758536113e-17 -1.445154464594557e-17 -5.946301758536113e-17 -0.05356309394947037 0.9985644671058622
12635797333.333334 -0.04648807660142731 0.9989188449187224 -1.4874729104589946e-17 -5.934624096543617e-17 -1.4874729104589946e-17 -5.934624096543617e-17 -0.04648868258437366 0.9989188167170661
12636414666.666666 -0.0394113326133997 0.9992230716218932 -1.5296982763770957e-17 -5.922645628653731e-17 -1.5296982763770957e-17 -5.922645628653731e-17 -0.039411938751282495 0.9992230477144328
12637032000.0 -0.03233261124819541 0.9994771644463557 -1.5718284268042387e-17 -5.9103670885879e-17 -1.5718284268042387e-17 -5.9103670885879e-17 -0.03233321751058934 0.9994771448338716
12637649333.333334 -0.02525226766553544 0.9996811106435906 -1.6138612319268863e-17 -5.89778922520958e-17 -1.6138612319268863e-17 -5.89778922520958e-17 -0.025252874022011873 0.9996810953266463
12638266666.666666 -0.018170657106531544 0.9998348999810782 -1.6557945677686407e-17 -5.884912802480147e-17 -1.6557945677686407e-17 -5.884912802480147e-17 -0.018171263526660125 0.9998348889600222
12638884000.0 -0.011088134875777509 0.9999385247428122 -1.6976263162984702e-17 -5.871738599413353e-17 -1.6976263162984702e-17 -5.871738599413353e-17 -0.011088741329127693 0.9999385180177784
12639501333.333334 -0.0040050563236646445 0.999991979729688 -1.7393543655360777e-17 -5.858267410029734e-17 -1.7393543655360777e-17 -5.858267410029734e-17 -0.004005662779807166 0.9999919773005931
12640118666.666666 0.0030782231713903725 0.999995262259758 -1.780976609658427e-17 -5.844500043309856e-17 -1.780976609658427e-17 -5.844500043309856e-17 0.0030776167428819344 0.9999952641263051
12640736000.0 0.010161348221173703 0.999948372168375 -1.822490949107057e-17 -5.830437323146382e-17 -1.822490949107057e-17 -5.830437323146382e-17 0.01016074185072142 0.9999483783300508
12641353333.333334 0.017243963444908385 0.999851311808194 -1.8638952906900778e-17 -5.816080088297048e-17 -1.8638952906900778e-17 -5.816080088297048e-17 0.01724335716292843 0.9998513222642688
12641970666.666666 0.024325713487624755 0.9997040860490537 -1.9051875476912382e-17 -5.801429192334445e-17 -1.9051875476912382e-17 -5.801429192334445e-17 0.0243251073245259 0.9997041007985839
12642588000.0 0.031406243037648586 0.9995067022777356 -1.9463656399719967e-17 -5.786485503597201e-17 -1.9463656399719967e-17 -5.786485503597201e-17 0.0314056370238307 0.9995067213195628
12643205333.333334 0.038485196844541915 0.9992591703975964 -1.987427494076544e-17 -5.771249905139402e-17 -1.987427494076544e-17 -5.771249905139402e-17 0.038484591010394316 0.9992591937303442
12643822666.666666 0.04556221973698348 0.9989615028280591 -2.0283710433368963e-17 -5.755723294679022e-17 -2.0283710433368963e-17 -5.755723294679022e-17 0.04556161411288361 0.9989615304501388
12644440000.0 0.05263695664056056 0.9986137145039997 -2.06919422797451e-17 -5.739906584546756e-17 -2.06919422797451e-17 -5.739906584546756e-17 0.05263635125687229 0.9986137464136062
12645057333.333334 0.059709052595413446 0.9982158228749999 -2.1098949952049295e-17 -5.7238007016329e-17 -2.1098949952049295e-17 -5.7238007016329e-17 0.05970844748248571 0.9982158590701145
12645674666.666666 0.06677815277427232 0.9977678479044667 -2.150471299339427e-17 -5.70740658733444e-17 -2.150471299339427e-17 -5.70740658733444e-17 0.06677754796243736 0.997767888382854
12646292000.0 0.07384390250023104 0.9972698120686251 -2.1909211018889934e-17 -5.690725197500369e-17 -2.1909211018889934e-17 -5.690725197500369e-17 0.07384329801980315 0.9972698568278364
12646909333.333334 0.08090594726440083 0.996721740355404 -2.2312423716646887e-17 -5.673757502377567e-17 -2.2312423716646887e-17 -5.673757502377567e-17 0.08090534314567466 0.9967217893927753
12647526666.666666 0.08796393274378189 0.9961236602631738 -2.271433084879669e-17 -5.656504486555082e-17 -2.271433084879669e-17 -5.656504486555082e-17 0.08796332901703102 0.9961237135758273
12648144000.0 0.09501750481912592 0.9954756017993622 -2.311491225251443e-17 -5.638967148907491e-17 -2.311491225251443e-17 -5.638967148907491e-17 0.09501690151460129 0.9954756593842061
12648761333.333334 0.10206630959253324 0.9947775974789622 -2.3514147841006494e-17 -5.621146502538765e-17 -2.3514147841006494e-17 -5.621146502538765e-17 0.10206570674046166 0.99477765933269
12649378666.666666 0.10910999340532221 0.9940296823228905 -2.3912017604526153e-17 -5.603043574724106e-17 -2.3912017604526153e-17 -5.603043574724106e-17 0.1091093910359048 0.9940297484419818
12649996000.0 0.11614820285571659 0.9932318938562348 -2.4308501611368638e-17 -5.584659406851731e-17 -2.4308501611368638e-17 -5.584659406851731e-17 0.11614760099912741 0.9932319642369564
12650613333.333334 0.1231805848167183 0.9923842721063589 -2.4703580008865264e-17 -5.56599505436387e-17 -2.4703580008865264e-17 -5.56599505436387e-17 0.12317998350310258 0.9923843467447634
12651230666.666666 0.13020678645351347 0.991486859600925 -2.5097233024371306e-17 -5.547051586697072e-17 -2.5097233024371306e-17 -5.547051586697072e-17 0.13020618571298653 0.991486938492853
12651848000.0 0.1372264552415433 0.9905397013657233 -2.548944096625734e-17 -5.527830087221499e-17 -2.548944096625734e-17 -5.527830087221499e-17 0.13722585510418847 0.9905397845068007
12652465333.333334 0.14423923898402052 0.9895428449224252 -2.5880184224880286e-17 -5.508331653180224e-17 -2.5880184224880286e-17 -5.508331653180224e-17 0.1442386394798881 0.9895429323080663
12653082666.666666 0.1512447858294321 0.9884963402862271 -2.6269443273564086e-17 -5.4885573956272174e-17 -2.6269443273564086e-17 -5.4885573956272174e-17 0.1512441869885377 0.988496431911634
12653700000.0 0.15824274428955837 0.9874002399632913 -2.6657198669575526e-17 -5.4685084393646076e-17 -2.6657198669575526e-17 -5.4685084393646076e-17 0.15824214614188128 0.9874003358234527
12654317333.333334 0.16523276325679842 0.9862545989481506 -2.7043431055081492e-17 -5.448185922879953e-17 -2.7043431055081492e-17 -5.448185922879953e-17 0.16523216583228034 0.9862546990378441
12654934666.666666 0.17221449202189945 0.9850594747209397 -2.7428121158115567e-17 -5.4275909982821833e-17 -2.7428121158115567e-17 -5.4275909982821833e-17 0.17221389535044287 0.9850595790347312
12655552000.0 0.179187580291636 0.9838149272444913 -2.7811249793539465e-17 -5.4067248312367825e-17 -2.7811249793539465e-17 -5.4067248312367825e-17 0.17918698440310266 0.9838150357767346
12656169333.333334 0.1861516782062176 0.9825210189613582 -2.8192797863986206e-17 -5.385588600901107e-17 -2.8192797863986206e-17 -5.385588600901107e-17 0.1861510831304269 0.9825211317061959
12656786666.666666 0.19310643635692584 0.981177814790665 -2.857274636081187e-17 -5.364183499858228e-17 -2.857274636081187e-17 -5.364183499858228e-17 0.19310584212365392 0.9811779317420312
12657404000.0 0.20005150580372977 0.9797853821248382 -2.895107636504271e-17 -5.342510734050189e-17 -2.895107636504271e-17 -5.342510734050189e-17 0.2000509124427073 0.9797855032764546
12658021333.333334 0.20698653809262496 0.9783437908262546 -2.932776904830327e-17 -5.320571522711273e-17 -2.932776904830327e-17 -5.320571522711273e-17 0.20698594563353592 0.9783439161716324
12658638666.666666 0.21391118527320035 0.9768531132237182 -2.970280567375359e-17 -5.298367098299927e-17 -2.970280567375359e-17 -5.298367098299927e-17 0.21391059374568072 0.9768532427561601
12659256000.0 0.22082509991617943 0.9753134241088166 -3.0076167597020684e-17 -5.2758987064299664e-17 -3.0076167597020684e-17 -5.2758987064299664e-17 0.2208245093498156 0.9753135578214159
12659873333.333334 0.22772793513068518 0.9737248007322037 -3.044783626711201e-17 -5.253167605801949e-17 -3.044783626711201e-17 -5.253167605801949e-17 0.2277273455550122 0.9737249386178436
12660490666.666666 0.23461934458172742 0.9720873227997042 -3.081779322733703e-17 -5.230175068133139e-17 -3.081779322733703e-17 -5.230175068133139e-17 0.23461875602622798 0.97208746485106
12661108000.0 0.24149898250769053 0.9704010724682895 -3.118602011622326e-17 -5.206922378086741e-17 -3.118602011622326e-17 -5.206922378086741e-17 0.24149839500179301 0.9704012186778276
12661725333.333334 0.24836650373737665 0.9686661343420273 -3.1552498668414356e-17 -5.18341083320142e-17 -3.1552498668414356e-17 -5.18341083320142e-17 0.2483659173104545 0.9686662847020081
12662342666.666666 0.2552215637077118 0.9668825954677467 -3.191721071557695e-17 -5.159641743819166e-17 -3.191721071557695e-17 -5.159641743819166e-17 0.25522097838908064 0.9668827499702203
12662960000.0 0.26206381848072824 0.9650505453307383 -3.2280138187293977e-17 -5.1356164330131735e-17 -3.2280138187293977e-17 -5.1356164330131735e-17 0.26206323429964584 0.9650507039675499
12663577333.333334 0.2688929247609328 0.9631700758502452 -3.2641263111960967e-17 -5.111336236514489e-17 -3.2641263111960967e-17 -5.111336236514489e-17 0.2688923417465969 0.963170238613033
12664194666.666666 0.27570853991261246 0.9612412813748233 -3.300056761766108e-17 -5.086802502639059e-17 -3.300056761766108e-17 -5.086802502639059e-17 0.2757079580941591 0.9612414482550182
12664812000.0 0.2825103219768331 0.959264258677661 -3.335803393305635e-17 -5.062016592212783e-17 -3.335803393305635e-17 -5.062016592212783e-17 0.28250974138333607 0.95926442966649
12665429333.333334 0.289297929688844 0.9572391069516567 -3.371364438825184e-17 -5.0369798784973494e-17 -3.371364438825184e-17 -5.0369798784973494e-17 0.2892973503493123 0.9572392820401401
12666046666.666666 0.2960710224948712 0.9551659278045345 -3.4067381415668594e-17 -5.01169374711451e-17 -3.4067381415668594e-17 -5.01169374711451e-17 0.29607044443824837 0.9551661069834886
12666664000.0 0.30282926056958687 0.9530448252536358 -3.4419227550912267e-17 -4.98615959596965e-17 -3.4419227550912267e-17 -4.98615959596965e-17 0.30282868382474903 0.9530450085136721
12667281333.333334 0.3095723048328585 0.9508759057207873 -3.476916543361511e-17 -4.960378835176237e-17 -3.476916543361511e-17 -4.960378835176237e-17 0.3095717294286134 0.950876093052314
12667898666.666666 0.31629981696687115 0.948659278026931 -3.5117177808305886e-17 -4.934352886977288e-17 -3.5117177808305886e-17 -4.934352886977288e-17 0.3162992429319565 0.9486594694201531
12668516000.0 0.32301145943318393 0.9463950533866394 -3.546324752524752e-17 -4.908083185668135e-17 -3.546324752524752e-17 -4.908083185668135e-17 0.3230108867962654 0.9463952488315573
12669133333.333334 0.3297068954895003 0.9440833454025822 -3.5807357541268936e-17 -4.881571177518607e-17 -3.5807357541268936e-17 -4.881571177518607e-17 0.32970632427917135 0.9440835448889963
12669750666.666666 0.33638578920664736 0.9417242700598069 -3.6149490920617605e-17 -4.854818320692722e-17 -3.6149490920617605e-17 -4.854818320692722e-17 0.33638521945142674 0.9417244735773148
