! Parameters = {f0=12700.012000; bw=77.238000; Q=6100.000000; N=10; m_0_1=1.272367; m_1_1=0.320765; m_1_2=1.107179; m_2_2=0.320116; m_2_3=0.744142; m_2_8=0.000682; m_2_9=0.037386; m_3_3=0.318179; m_3_4=0.632671; m_3_7=0.001282; m_3_8=-0.095806; m_3_9=0.000682; m_4_4=0.315254; m_4_5=0.469006; m_4_6=0.004799; m_4_7=-0.116355; m_4_8=0.001282; m_5_5=0.315636; m_5_6=0.876361; m_5_7=0.004799; m_6_6=0.315635; m_6_7=0.469348; m_7_7=0.315268; m_7_8=0.632789; m_8_8=0.318177; m_8_9=0.744455; m_9_9=0.320111; m_9_10=1.108257; m_10_10=0.320755; m_10_11=1.273162}
!
! Created with skrf (http://scikit-rf.org).
# Hz S RI R 50.0 
!freq ReS11 ImS11 ReS21 ImS21 ReS12 ImS12 ReS22 ImS22
12607400000.0 0.7874187169948863 -0.6164184975533673 -6.48570920949136e-17 9.111711094430901e-17 -6.48570920949136e-17 9.111711094430901e-17 0.7874191302135979 -0.6164179697035801
12608017333.333334 0.7808449816651212 -0.624724831112242 -6.386762264480173e-17 9.178670052828219e-17 -6.386762264480173e-17 9.178670052828219e-17 0.780845400431518 -0.6247243076948142
12608634666.666666 0.7741836283670731 -0.6329610648122174 -6.287125323578302e-17 9.244555481564344e-17 -6.287125323578302e-17 9.244555481564344e-17 0.7741840526336247 -0.6329605458854443
12609252000.0 0.7674354045657348 -0.6411262744723925 -6.186810023905528e-17 9.309360284642394e-17 -6.186810023905528e-17 9.309360284642394e-17 0.7674358342842983 -0.6411257600940597
12609869333.333334 0.7606010674737456 -0.6492195438814371 -6.085828075401074e-17 9.37307749210458e-17 -6.085828075401074e-17 9.37307749210458e-17 0.7606015025955708 -0.6492190341088144
12610486666.666666 0.7536813839665745 -0.6572399649002274 -5.984191259459437e-17 9.435700260778017e-17 -5.984191259459437e-17 9.435700260778017e-17 0.7536818244423105 -0.6572394597900624
12611104000.0 0.7466771304961546 -0.6651866375641133 -5.881911427556551e-17 9.497221875006716e-17 -5.881911427556551e-17 9.497221875006716e-17 0.7466775762758543 -0.6651861371726248
12611721333.333334 0.7395890930040753 -0.6730586701835383 -5.779000499875403e-17 9.557635747364787e-17 -5.779000499875403e-17 9.557635747364787e-17 0.7395895440372009 -0.6730581745664097
12612338666.666666 0.7324180668332597 -0.680855179444244 -5.675470463915345e-17 9.616935419360133e-17 -5.675470463915345e-17 9.616935419360133e-17 0.7324185230686906 -0.680854688656619
12612956000.0 0.7251648566386077 -0.6885752905065136 -5.5713333730994e-17 9.675114562119956e-17 -5.5713333730994e-17 9.675114562119956e-17 0.7251653180246426 -0.6885748046029871
12613573333.333334 0.7178302762969342 -0.6962181371030848 -5.466601345377172e-17 9.732166977059964e-17 -5.466601345377172e-17 9.732166977059964e-17 0.7178307427812997 -0.6962176561376987
12614190666.666666 0.7104151488155112 -0.7037828616364983 -5.361286561813144e-17 9.788086596542749e-17 -5.361286561813144e-17 9.788086596542749e-17 0.7104156203453665 -0.7037823856627352
12614808000.0 0.7029203062396772 -0.711268615275369 -5.255401265175015e-17 9.842867484517284e-17 -5.255401265175015e-17 9.842867484517284e-17 0.7029207827616222 -0.7112681443461472
12615425333.333334 0.6953465895596163 -0.718674558049492 -5.1489577585138634e-17 9.896503837144051e-17 -5.1489577585138634e-17 9.896503837144051e-17 0.6953470710196944 -0.7186740922171575
12616042666.666666 0.6876948486158484 -0.7259998589442347 -5.041968403735801e-17 9.948989983406153e-17 -5.041968403735801e-17 9.948989983406153e-17 0.6876953349595544 -0.725999398260556
12616660000.0 0.679965942003929 -0.7332436959937213 -4.934445620169927e-17 1.0000320385703556e-16 -4.934445620169927e-17 1.0000320385703556e-16 0.6799664331762159 -0.7332432405098858
12617277333.333334 0.6721607369781504 -0.7404052563730307 -4.8264018831300816e-17 1.0050489640432153e-16 -4.8264018831300816e-17 1.0050489640432153e-16 0.6721612329234341 -0.7404048061396362
12617894666.666666 0.6642801093542074 -0.7474837364894206 -4.7178497224699176e-17 1.0099492478547758e-16 -4.7178497224699176e-17 1.0099492478547758e-16 0.6642806100163743 -0.7474832915564714
12618512000.0 0.656324943410753 -0.7544783420726505 -4.6088017211302756e-17 1.0147323766115372e-16 -4.6088017211302756e-17 1.0147323766115372e-16 0.6563254487331651 -0.7544779024895512
12619129333.333334 0.6482961317905338 -0.7613882882637831 -4.499270513688278e-17 1.0193978504839566e-16 -4.499270513688278e-17 1.0193978504839566e-16 0.6482966417160367 -0.7613878540793333
12619746666.666666 0.6401945753998899 -0.768212799703557 -4.38926878489163e-17 1.0239451832583579e-16 -4.38926878489163e-17 1.0239451832583579e-16 0.6401950898708176 -0.7682123709659456
12620364000.0 0.6320211833077228 -0.7749511106193269 -4.27880926819316e-17 1.0283739023870025e-16 -4.27880926819316e-17 1.0283739023870025e-16 0.6320217022659049 -0.7749506873761266
12620981333.333334 0.6237768726437557 -0.7816024649107751 -4.167904744283135e-17 1.0326835490364972e-16 -4.167904744283135e-17 1.0326835490364972e-16 0.6237773960305241 -0.7816020472089378
12621598666.666666 0.6154625684952696 -0.788166116235041 -4.0565680396085e-17 1.0368736781349465e-16 -4.0565680396085e-17 1.0368736781349465e-16 0.6154630962514654 -0.7881657041208928
12622216000.0 0.607079203803479 -0.7946413280903258 -3.944812024894524e-17 1.0409438584172263e-16 -3.944812024894524e-17 1.0409438584172263e-16 0.6070797358694586 -0.7946409216095608
12622833333.333334 0.5986277192588668 -0.8010273738985142 -3.832649613659952e-17 1.0448936724687618e-16 -3.832649613659952e-17 1.0448936724687618e-16 0.5986282555745089 -0.8010269730961898
12623450666.666666 0.5901090631955653 -0.8073235370867583 -3.7200937607269414e-17 1.0487227167677327e-16 -3.7200937607269414e-17 1.0487227167677327e-16 0.5901096037002777 -0.8073231420072908
12624068000.0 0.5815241914850129 -0.8135291111678336 -3.6071574607271854e-17 1.0524306017256713e-16 -3.6071574607271854e-17 1.0524306017256713e-16 0.581524736117739 -0.8135287218549921
12624685333.333334 0.5728740674285104 -0.8196433998195423 -3.4938537466034434e-17 1.056016951726466e-16 -3.4938537466034434e-17 1.056016951726466e-16 0.572874616127737 -0.8196430163164461
12625302666.666666 0.5641596616494547 -0.8256657169626196 -3.3801956881124433e-17 1.059481405163601e-16 -3.3801956881124433e-17 1.059481405163601e-16 0.5641602143532178 -0.8256653393117304
12625920000.0 0.5553819519840304 -0.8315953868379936 -3.26619639031331e-17 1.0628236144761258e-16 -3.26619639031331e-17 1.0628236144761258e-16 0.5553825086299231 -0.8315950150811132
12626537333.333334 0.5465419233719075 -0.8374317440823217 -3.15186899206583e-17 1.0660432461825924e-16 -3.15186899206583e-17 1.0660432461825924e-16 0.5465424838970872 -0.8374313782605864
12627154666.666666 0.537640567745421 -0.8431741338028609 -3.0372266645149037e-17 1.0691399809137067e-16 -3.0372266645149037e-17 1.0691399809137067e-16 0.5376411320866149 -0.843173773956737
12627772000.0 0.528678883918308 -0.8488219116509158 -2.922282609574863e-17 1.072113513443245e-16 -2.922282609574863e-17 1.072113513443245e-16 0.5286794520118219 -0.8488215578201951
12628389333.333334 0.5196578774738028 -0.8543744438940372 -2.807050058417028e-17 1.0749635527171981e-16 -2.807050058417028e-17 1.0749635527171981e-16 0.5196584492555275 -0.8543740961178324
12629006666.666666 0.5105785606515107 -0.8598311074873103 -2.691542269942915e-17 1.0776898218815936e-16 -2.691542269942915e-17 1.0776898218815936e-16 0.51057913605693 -0.8598307658040516
12629624000.0 0.5014419522341649 -0.8651912901430594 -2.5757725292658498e-17 1.0802920583083953e-16 -2.5757725292658498e-17 1.0802920583083953e-16 0.5014425311983619 -0.8651909545904896
12630241333.333334 0.49224907743301827 -0.8704543903997302 -2.4597541461831824e-17 1.0827700136199549e-16 -2.4597541461831824e-17 1.0827700136199549e-16 0.492249659890683 -0.8704540610148995
12630858666.666666 0.48300096777302404 -0.875619817689245 -2.3435004536517873e-17 1.0851234537116947e-16 -2.3435004536517873e-17 1.0851234537116947e-16 0.48300155365846076 -0.8756194945085085
12631476000.0 0.4736986609768933 -0.8806869924033861 -2.2270248062532214e-17 1.0873521587733446e-16 -2.2270248062532214e-17 1.0873521587733446e-16 0.4736992502240292 -0.8806866754624006
12632093333.333334 0.46434320084880154 -0.88565534595875 -2.110340578667177e-17 1.0894559233083118e-16 -2.110340578667177e-17 1.0894559233083118e-16 0.46434379339119203 -0.8856550352924669
12632710666.666666 0.4549356371573151 -0.8905243208605209 -1.993461164137399e-17 1.0914345561515498e-16 -1.993461164137399e-17 1.0914345561515498e-16 0.45493623292815266 -0.8905240165031848
12633328000.0 0.4454770255172946 -0.8952933707651846 -1.876399972933566e-17 1.0932878804858116e-16 -1.876399972933566e-17 1.0932878804858116e-16 0.44547762444941646 -0.8952930727503299
12633945333.333334 0.43596842727174917 -0.8999619605416774 -1.7591704308190046e-17 1.0950157338561465e-16 -1.7591704308190046e-17 1.0950157338561465e-16 0.43596902929764375 -0.8999616689021224
12634562666.666666 0.42641090937269255 -0.9045295663314588 -1.641785977512854e-17 1.096617968182819e-16 -1.641785977512854e-17 1.096617968182819e-16 0.4264115144245076 -0.9045292810993024
12635180000.0 0.416805544261294 -0.9089956756073537 -1.5242600651503378e-17 1.098094449772609e-16 -1.5242600651503378e-17 1.098094449772609e-16 0.4168061522708452 -0.9089953968139749
12635797333.333334 0.4071534097475921 -0.9133597872310407 -1.4066061567443745e-17 1.0994450593284203e-16 -1.4066061567443745e-17 1.0994450593284203e-16 0.40715402064636963 -0.913359514907092
12636414666.666666 0.39745558888973537 -0.9176214115092006 -1.2888377246481299e-17 1.1006696919572362e-16 -1.2888377246481299e-17 1.1006696919572362e-16 0.39745620260891135 -0.9176211456846048
12637032000.0 0.3877131698721416 -0.9217800702486033 -1.1709682490111613e-17 1.1017682571764976e-16 -1.1709682490111613e-17 1.1017682571764976e-16 0.3877137863425794 -0.9217798109525528
12637649333.333334 0.37792724588357607 -0.9258352968096859 -1.0530112162412117e-17 1.1027406789187635e-16 -1.0530112162412117e-17 1.1027406789187635e-16 0.37792786503583653 -0.9258350440706368
12638266666.666666 0.3680989149945378 -0.9297866361588917 -9.349801174643377e-18 1.1035868955347496e-16 -9.349801174643377e-18 1.1035868955347496e-16 0.3680995367588879 -0.9297863900045619
12638884000.0 0.3582292800338893 -0.9336336449197962 -8.168884469825923e-18 1.1043068597947449e-16 -8.168884469825923e-18 1.1043068597947449e-16 0.3582299043403097 -0.9336334053771618
12639501333.333334 0.3483194484651605 -0.9373758914228326 -6.987497007344454e-18 1.1049005388883522e-16 -6.987497007344454e-18 1.1049005388883522e-16 0.34832007524335296 -0.9373756585181249
12640118666.666666 0.3383705322625199 -0.9410129557536401 -5.8057737475783315e-18 1.1053679144225855e-16 -5.8057737475783315e-18 1.1053679144225855e-16 0.3383711614419165 -0.9410127295123437
12640736000.0 0.32838364778539 -0.9445444298004111 -4.623849636440488e-18 1.1057089824183683e-16 -4.623849636440488e-18 1.1057089824183683e-16 0.32838427929516 -0.9445442102472608
12641353333.333334 0.31835991565403493 -0.9479699172993726 -3.4418595900780118e-18 1.1059237533053187e-16 -3.4418595900780118e-18 1.1059237533053187e-16 0.31836054942309266 -0.947969704458349
12641970666.666666 0.30830046062306693 -0.9512890338795185 -2.259938479440693e-18 1.1060122519149548e-16 -2.259938479440693e-18 1.1060122519149548e-16 0.3083010965800809 -0.9512888277738486
12642588000.0 0.298206411455588 -0.9545014071056173 -1.0782211149298902e-18 1.1059745174722314e-16 -1.0782211149298902e-18 1.1059745174722314e-16 0.29820704952898774 -0.9545012077577689
12643205333.333334 0.28807890079658605 -0.9576066765199865 1.0315776894599457e-19 1.1058106035854456e-16 1.0315776894599457e-19 1.1058106035854456e-16 0.28807954091457055 -0.9576064839516666
12643822666.666666 0.27791906504557123 -0.9606044936830243 1.2840635289108222e-18 1.1055205782344997e-16 1.2840635289108222e-18 1.1055205782344997e-16 0.27791970713611724 -0.9606043079151781
12644440000.0 0.26772804422927743 -0.963494522212238 2.464361628243619e-18 1.1051045237575417e-16 2.464361628243619e-18 1.1051045237575417e-16 0.26772868822014784 -0.9634943432650466
12645057333.333334 0.257506981873798 -0.9662764378199807 3.6439176520739285e-18 1.1045625368359648e-16 3.6439176520739285e-18 1.1045625368359648e-16 0.2575076276925486 -0.966276265712855
12645674666.666666 0.24725702487610585 -0.9689499283498818 4.822597322654176e-18 1.103894728477788e-16 4.822597322654176e-18 1.103894728477788e-16 0.24725767245009503 -0.9689497631014653
12646292000.0 0.23697932337525118 -0.9715146938119007 6.000266514660613e-18 1.1031012239993803e-16 6.000266514660613e-18 1.1031012239993803e-16 0.23697997263164766 -0.9715145354400662
12646909333.333334 0.22667503062374667 -0.9739704464158792 7.176791270379944e-18 1.1021821630056074e-16 7.176791270379944e-18 1.1021821630056074e-16 0.22667568148953704 -0.9739702949377247
12647526666.666666 0.21634530285771975 -0.9763169106039418 8.352037814943068e-18 1.1011376993683218e-16 8.352037814943068e-18 1.1011376993683218e-16 0.21634595525971734 -0.9763167660357905
12648144000.0 0.2059912991672827 -0.978553823081387 9.525872571525667e-18 1.0999680012032287e-16 9.525872571525667e-18 1.0999680012032287e-16 0.20599195303213566 -0.978553685438786
12648761333.333334 0.19561418136666645 -0.9806809328461897 1.0698162176482778e-17 1.0986732508451709e-16 1.0698162176482778e-17 1.0986732508451709e-16 0.19561483662086598 -0.9806808021439066
12649378666.666666 0.1852151138636601 -0.9826980012172075 1.1868773494465675e-17 1.0972536448217931e-16 1.1868773494465675e-17 1.0972536448217931e-16 0.1852157704335487 -0.9826978774692307
12649996000.0 0.17479526352903754 -0.9846048018609488 1.3037573633550531e-17 1.0957093938255555e-16 1.3037573633550531e-17 1.0957093938255555e-16 0.17479592134081712 -0.984604685080484
12650613333.333334 0.16435579956551122 -0.9864011208169859 1.420442996028028e-17 1.0940407226841893e-16 1.420442996028028e-17 1.0940407226841893e-16 0.1643564585452517 -0.9864010110164565
12651230666.666666 0.15389789337673335 -0.9880867565219306 1.536921011466823e-17 1.0922478703295743e-16 1.536921011466823e-17 1.0922478703295743e-16 0.15389855345038075 -0.988086653712975
12651848000.0 0.14342271843565735 -0.9896615198320838 1.6531782025236002e-17 1.0903310897649129e-16 1.6531782025236002e-17 1.0903310897649129e-16 0.1434233795290424 -0.9896614240255566
12652465333.333334 0.13293145015294774 -0.9911252340446483 1.7692013923925752e-17 1.088290648030437e-16 1.7692013923925752e-17 1.088290648030437e-16 0.13293211219179368 -0.991125145250615
12653082666.666666 0.12242526574517225 -0.992477734917539 1.8849774361000062e-17 1.0861268261674943e-16 1.8849774361000062e-17 1.0861268261674943e-16 0.1224259286551036 -0.9924776531452781
12653700000.0 0.1119053441025107 -0.9937188706878441 2.0004932219958268e-17 1.0838399191809445e-16 2.0004932219958268e-17 1.0838399191809445e-16 0.11190600780906153 -0.993718795945846
12654317333.333334 0.10137286565669776 -0.994848502088822 2.1157356732307234e-17 1.0814302360001646e-16 2.1157356732307234e-17 1.0814302360001646e-16 0.1013735300853202 -0.9948484343847886
12654934666.666666 0.09082901224837099 -0.995866502365558 2.2306917492360593e-17 1.0788980994383401e-16 2.2306917492360593e-17 1.0788980994383401e-16 0.09082967732444307 -0.9958664417063973
12655552000.0 0.08027496699454102 -0.9967727572891675 2.3453484471987674e-17 1.0762438461501934e-16 2.3453484471987674e-17 1.0762438461501934e-16 0.08027563264337569 -0.9967727036809998
12656169333.333334 0.06971191415592083 -0.9975671651696155 2.4596928035255516e-17 1.0734678265882776e-16 2.4596928035255516e-17 1.0734678265882776e-16 0.06971258030277383 -0.9975671186177667
12656786666.666666 0.05914103900384201 -0.9982496368671366 2.5737118953096777e-17 1.0705704049575384e-16 2.5737118953096777e-17 1.0705704049575384e-16 0.05914170557392073 -0.998249597376143
12657404000.0 0.04856352768748372 -0.9988200958022281 2.6873928417861552e-17 1.0675519591684822e-16 2.6873928417861552e-17 1.0675519591684822e-16 0.04856419460595518 -0.9988200633758307
12658021333.333334 0.037980567100520064 -0.9992784779642501 2.800722805787021e-17 1.0644128807886593e-16 2.800722805787021e-17 1.0644128807886593e-16 0.03798123429251961 -0.9992784526053992
12658638666.666666 0.027393344748309078 -0.9996247319185958 2.9136889951844044e-17 1.0611535749927831e-16 2.9136889951844044e-17 1.0611535749927831e-16 0.027394012138948633 -0.9996247136294475
12659256000.0 0.016803048614160983 -0.9998588188124838 3.0262786643369886e-17 1.0577744605110785e-16 3.0262786643369886e-17 1.0577744605110785e-16 0.016803716128537448 -0.9998588075944003
12659873333.333334 0.006210867026376132 -0.9999807123792964 3.138479115521503e-17 1.0542759695763383e-16 3.138479115521503e-17 1.0542759695763383e-16 0.006211534589579876 -0.9999807082328473
12660490666.666666 -0.00438201147501073 -0.9999903989415383 3.250277700362792e-17 1.0506585478693602e-16 3.250277700362792e-17 1.0506585478693602e-16 -0.004381343937887541 -0.9999904018664988
12661108000.0 -0.014974398272050443 -0.9998878774123701 3.361661821258814e-17 1.0469226544628076e-16 3.361661821258814e-17 1.0469226544628076e-16 -0.014973730835905391 -0.9998878874077223
12661725333.333334 -0.025565104801770044 -0.9996731592957273 3.47261893279517e-17 1.0430687617637127e-16 3.47261893279517e-17 1.0430687617637127e-16 -0.02556443754148207 -0.9996731763596599
12662342666.666666 -0.03615294268976777 -0.9993462686850314 3.583136543157859e-17 1.0390973554543207e-16 3.583136543157859e-17 1.0390973554543207e-16 -0.036152275680188854 -0.999346292814942
12662960000.0 -0.04673672388358813 -0.9989072422604882 3.693202215534636e-17 1.0350089344316016e-16 3.693202215534636e-17 1.0350089344316016e-16 -0.04673605719953474 -0.9989072734529798
12663577333.333334 -0.057315260785975215 -0.9983561292849663 3.802803569514003e-17 1.0308040107451325e-16 3.802803569514003e-17 1.0308040107451325e-16 -0.05731459450222001 -0.99835616753585
12664194666.666666 -0.06788736638804697 -0.9976929915984772 3.911928282474236e-17 1.0264831095335982e-16 3.911928282474236e-17 1.0264831095335982e-16 -0.06788670057931048 -0.9976930369027736
12664812000.0 -0.07845185440265887 -0.9969179036112293 4.020564090965324e-17 1.0220467689598334e-16 4.020564090965324e-17 1.0220467689598334e-16 -0.07845118914360093 -0.9969179559631669
12665429333.333334 -0.08900753939745905 -0.996030952295276 4.128698792086527e-17 1.0174955401442924e-16 4.128698792086527e-17 1.0174955401442924e-16 -0.08900687476267063 -0.996031011688294
12666046666.666666 -0.09955323692767845 -0.995032237174779 4.236320244852123e-17 1.012829987097235e-16 4.236320244852123e-17 1.012829987097235e-16 -0.09955257299167324 -0.9950323036015272
12666664000.0 -0.110087763669546 -0.9939218703147962 4.343416371554189e-17 1.008050686649281e-16 4.343416371554189e-17 1.008050686649281e-16 -0.11008710050675191 -0.9939219437671355
12667281333.333334 -0.12060993755244563 -0.9926999763087639 4.44997515911307e-17 1.0031582283807322e-16 4.44997515911307e-17 1.0031582283807322e-16 -0.12060927523719657 -0.9927000567777675
12667898666.666666 -0.13111857789203638 -0.9913666922644692 4.5559846604239035e-17 9.981532145492808e-17 4.5559846604239035e-17 9.981532145492808e-17 -0.13111791649856405 -0.9913667797404248
12668516000.0 -0.14161250552265087 -0.989922167788671 4.661432995693985e-17 9.930362600163604e-17 4.661432995693985e-17 9.930362600163604e-17 -0.14161184512507619 -0.9899222622610807
12669133333.333334 -0.15209054292927018 -0.9883665649703576 4.7663083537676953e-17 9.878079921722814e-17 4.7663083537676953e-17 9.878079921722814e-17 -0.1520898836015952 -0.9883666664279394
12669750666.666666 -0.162551514380103 -0.9867000583624987 4.8705989934515345e-17 9.824690508595696e-17 4.8705989934515345e-17 9.824690508595696e-17 -0.1625508561962025 -0.9867001667931882
12670368000.0 -0.17299424605831587 -0.9849228349624851 4.9742932448225177e-17 9.77020088295305e-17 4.9742932448225177e-17 9.77020088295305e-17 -0.17299358909192897 -0.9849229503534358
