! Parameters = {f0=12700.012000; bw=77.238000; Q=6100.000000; N=10; m_0_1=1.272167; m_1_1=0.317762; m_1_2=1.106979; m_2_2=0.317113; m_2_3=0.743942; m_2_8=0.000672; m_2_9=0.037376; m_3_3=0.315176; m_3_4=0.632471; m_3_7=0.001272; m_3_8=-0.095816; m_3_9=0.000672; m_4_4=0.312251; m_4_5=0.468806; m_4_6=0.004789; m_4_7=-0.116365; m_4_8=0.001272; m_5_5=0.312633; m_5_6=0.876161; m_5_7=0.004789; m_6_6=0.312632; m_6_7=0.469148; m_7_7=0.312265; m_7_8=0.632589; m_8_8=0.315174; m_8_9=0.744255; m_9_9=0.317108; m_9_10=1.108057; m_10_10=0.317752; m_10_11=1.272962}
!
! Created with skrf (http://scikit-rf.org).
# Hz S RI R 50.0 
!freq ReS11 ImS11 ReS21 ImS21 ReS12 ImS12 ReS22 ImS22
12607400000.0 0.8560395015707976 -0.5169104097909459 -7.530594186014137e-17 8.254844080136036e-17 -7.530594186014137e-17 8.254844080136036e-17 0.8560398480294705 -0.5169098360309109
12608017333.333334 0.8505190918478517 -0.5259441742258658 -7.440583105530321e-17 8.333134340588424e-17 -7.440583105530321e-17 8.333134340588424e-17 0.8505194443441415 -0.5259436041937908
12608634666.666666 0.8449033526946292 -0.5349189888246618 -7.349759226663155e-17 8.410444164614958e-17 -7.349759226663155e-17 8.410444164614958e-17 0.8449037111884369 -0.5349184225840695
12609252000.0 0.8391929135446821 -0.5438338476558907 -7.258133217725989e-17 8.48676512619926e-17 -7.258133217725989e-17 8.48676512619926e-17 0.8391932779952413 -0.5438332852698734
12609869333.333334 0.833388414445947 -0.5526877515081116 -7.165715834245784e-17 8.562088915294475e-17 -7.165715834245784e-17 8.562088915294475e-17 0.8333887848118281 -0.5526871930393236
12610486666.666666 0.8274905059889599 -0.5614797080019522 -7.072517917706884e-17 8.636407338721892e-17 -7.072517917706884e-17 8.636407338721892e-17 0.8274908822280735 -0.561479153512602
12611104000.0 0.8214998492338839 -0.5702087317014083 -6.978550394277605e-17 8.709712321062306e-17 -6.978550394277605e-17 8.709712321062306e-17 0.8215002313034862 -0.5702081812532521
12611721333.333334 0.8154171156365142 -0.5788738442241546 -6.88382427353786e-17 8.781995905525526e-17 -6.88382427353786e-17 8.781995905525526e-17 0.8154175034932126 -0.5788732978784903
12612338666.666666 0.8092429869729866 -0.5874740743512532 -6.788350647188081e-17 8.853250254813683e-17 -6.788350647188081e-17 8.853250254813683e-17 0.8092433805727449 -0.5874735321689132
12612956000.0 0.8029781552632276 -0.5960084581361959 -6.692140687754208e-17 8.923467651966626e-17 -6.692140687754208e-17 8.923467651966626e-17 0.8029785545613699 -0.5960079201775393
12613573333.333334 0.7966233226936762 -0.604476039012556 -6.595205647286387e-17 8.992640501191676e-17 -6.595205647286387e-17 8.992640501191676e-17 0.7966237276448916 -0.604475505337463
12614190666.666666 0.7901792015382738 -0.6128758679016156 -6.497556856041663e-17 9.060761328684678e-17 -6.497556856041663e-17 9.060761328684678e-17 0.7901796120966224 -0.6128753385694801
12614808000.0 0.7836465140788531 -0.6212070033184467 -6.399205721165968e-17 9.127822783431225e-17 -6.399205721165968e-17 9.127822783431225e-17 0.7836469301977719 -0.6212064783881701
12615425333.333334 0.7770259925240272 -0.6294685114776389 -6.300163725362227e-17 9.193817637997662e-17 -6.300163725362227e-17 9.193817637997662e-17 0.7770264141563332 -0.6294679910076239
12616042666.666666 0.7703183789272576 -0.6376594663977825 -6.200442425554756e-17 9.258738789304604e-17 -6.200442425554756e-17 9.258738789304604e-17 0.7703188060251566 -0.6376589504459264
12616660000.0 0.7635244251035455 -0.6457789500054354 -6.100053451541588e-17 9.322579259388878e-17 -6.100053451541588e-17 9.322579259388878e-17 0.7635248576186341 -0.6457784386291231
12617277333.333334 0.7566448925452862 -0.6538260522378678 -5.999008504642912e-17 9.385332196148182e-17 -5.999008504642912e-17 9.385332196148182e-17 0.7566453304285582 -0.6538255454939654
12617894666.666666 0.7496805523368665 -0.6617998711451331 -5.897319356339337e-17 9.446990874073027e-17 -5.897319356339337e-17 9.446990874073027e-17 0.7496809955387194 -0.6617993690899823
12618512000.0 0.7426321850681811 -0.6696995129912237 -5.794997846902596e-17 9.507548694963761e-17 -5.794997846902596e-17 9.507548694963761e-17 0.7426326335384213 -0.6696990156806354
12619129333.333334 0.7355005807472554 -0.677524092354119 -5.692055884021448e-17 9.566999188631473e-17 -5.692055884021448e-17 9.566999188631473e-17 0.7355010344351044 -0.6775235998433674
12619746666.666666 0.7282865387116607 -0.68527273222507 -5.588505441418223e-17 9.625336013585264e-17 -5.588505441418223e-17 9.625336013585264e-17 0.7282869975657583 -0.6852722445688841
12620364000.0 0.7209908675387643 -0.6929445641070603 -5.484358557457063e-17 9.682552957705453e-17 -5.484358557457063e-17 9.682552957705453e-17 0.7209913315071782 -0.6929440813596216
12620981333.333334 0.7136143849554336 -0.7005387281118017 -5.3796273337505125e-17 9.738643938898702e-17 -5.3796273337505125e-17 9.738643938898702e-17 0.7136148539856627 -0.7005382503267358
12621598666.666666 0.7061579177460514 -0.7080543730564655 -5.274323933754258e-17 9.793603005741122e-17 -5.274323933754258e-17 9.793603005741122e-17 0.7061583917850324 -0.7080539002868358
12622216000.0 0.6986223016599985 -0.7154906565589161 -5.168460581356725e-17 9.847424338105419e-17 -5.168460581356725e-17 9.847424338105419e-17 0.6986227806541121 -0.7154901888572199
12622833333.333334 0.6910083813179847 -0.7228467451321344 -5.0620495594645816e-17 9.900102247771646e-17 -5.0620495594645816e-17 9.900102247771646e-17 0.6910088652130614 -0.722846282550295
12623450666.666666 0.6833170101174212 -0.7301218142775979 -4.955103208579286e-17 9.951631179024202e-17 -4.955103208579286e-17 9.951631179024202e-17 0.6833174988587469 -0.7301213568669594
12624068000.0 0.675549050136624 -0.7373150485778307 -4.8476339253695824e-17 1.0002005709232448e-16 -4.8476339253695824e-17 1.0002005709232448e-16 0.6755495436689476 -0.7373145963891532
12624685333.333334 0.6677053720382071 -0.7444256417877761 -4.7396541612347656e-17 1.0051220549417637e-16 -4.7396541612347656e-17 1.0051220549417637e-16 0.6677058703057462 -0.7444251948712303
12625302666.666666 0.659786854971771 -0.7514527969249178 -4.631176420869968e-17 1.0099270544800722e-16 -4.631176420869968e-17 1.0099270544800722e-16 0.6597873579182176 -0.7514523553300775
12625920000.0 0.6517943864748981 -0.7583957263590254 -4.5222132608141906e-17 1.0146150675340105e-16 -4.5222132608141906e-17 1.0146150675340105e-16 0.6517948940434249 -0.7583952901348634
12626537333.333334 0.6437288623741195 -0.7652536519000384 -4.4127772880059554e-17 1.0191856056248005e-16 -4.4127772880059554e-17 1.0191856056248005e-16 0.6437293745073871 -0.7652532210949204
12627154666.666666 0.6355911866843187 -0.7720258048854602 -4.302881158323671e-17 1.0236381938495686e-16 -4.302881158323671e-17 1.0236381938495686e-16 0.635591703324482 -0.7720253795471408
12627772000.0 0.62738227150723 -0.7787114262666576 -4.192537575123866e-17 1.0279723709301682e-16 -4.192537575123866e-17 1.0279723709301682e-16 0.6273827925959439 -0.7787110064422732
12628389333.333334 0.6191030369295545 -0.7853097666936455 -4.081759287780447e-17 1.0321876892601995e-16 -4.081759287780447e-17 1.0321876892601995e-16 0.6191035624079811 -0.78530935242971
12629006666.666666 0.610754410919571 -0.7918200865992928 -3.970559090207858e-17 1.0362837149509104e-16 -3.970559090207858e-17 1.0362837149509104e-16 0.6107549407283874 -0.7918196779416937
12629624000.0 0.6023373292232151 -0.798241656282148 -3.8589498193918013e-17 1.0402600278750438e-16 -3.8589498193918013e-17 1.0402600278750438e-16 0.6023378633026175 -0.7982412532761386
12630241333.333334 0.5938527352592405 -0.8045737559881888 -3.7469443539058794e-17 1.0441162217094727e-16 -3.7469443539058794e-17 1.0441162217094727e-16 0.5938532735489523 -0.8045733586783842
12630858666.666666 0.585301580013433 -0.8108156759915305 -3.634555612432393e-17 1.0478519039759437e-16 -3.634555612432393e-17 1.0478519039759437e-16 0.5853021224527122 -0.810815284421904
12631476000.0 0.5766848219319509 -0.8169667166740259 -3.5217965522693065e-17 1.0514666960805657e-16 -3.5217965522693065e-17 1.0514666960805657e-16 0.5766853684595965 -0.8169663308879032
12632093333.333334 0.568003426814014 -0.8230261886035957 -3.408680167845356e-17 1.0549602333513034e-16 -3.408680167845356e-17 1.0549602333513034e-16 0.5680039773683718 -0.8230258086436492
12632710666.666666 0.5592583677037002 -0.8289934126114731 -3.295219489221044e-17 1.0583321650742169e-16 -3.295219489221044e-17 1.0583321650742169e-16 0.5592589222226727 -0.8289930385197201
12633328000.0 0.5504506247805807 -0.8348677198685382 -3.181427580591228e-17 1.0615821545279262e-16 -3.181427580591228e-17 1.0615821545279262e-16 0.5504511832016299 -0.8348673516863315
12633945333.333334 0.5415811852502526 -0.8406484519600065 -3.0673175387841396e-17 1.0647098790164832e-16 -3.0673175387841396e-17 1.0647098790164832e-16 0.5415817475104105 -0.8406480897280343
12634562666.666666 0.5326510432333861 -0.8463349609594357 -2.952902491756036e-17 1.0677150299006672e-16 -2.952902491756036e-17 1.0677150299006672e-16 0.5326516092692601 -0.8463346047177146
12635180000.0 0.5236611996545114 -0.8519266095012062 -2.838195597084744e-17 1.0705973126276188e-16 -2.838195597084744e-17 1.0705973126276188e-16 0.5236617694022931 -0.851926259289079
12635797333.333334 0.5146126621296174 -0.8574227708520978 -2.7232100404567483e-17 1.0733564467589532e-16 -2.7232100404567483e-17 1.0733564467589532e-16 0.5146132355250876 -0.8574224267082265
12636414666.666666 0.5055064448535037 -0.8628228289813585 -2.607959034157777e-17 1.0759921659971008e-16 -2.607959034157777e-17 1.0759921659971008e-16 0.5055070218320398 -0.8628224909437194
12637032000.0 0.4963435684857626 -0.8681261786299511 -2.492455815552997e-17 1.0785042182102181e-16 -2.492455815552997e-17 1.0785042182102181e-16 0.4963441489823484 -0.8681258467358357
12637649333.333334 0.4871250600366777 -0.8733322253782273 -2.376713645572912e-17 1.0808923654552927e-16 -2.376713645572912e-17 1.0808923654552927e-16 0.48712564398590796 -0.8733318996642329
12638266666.666666 0.4778519527518872 -0.8784403857126745 -2.26074580719072e-17 1.083156383999763e-16 -2.26074580719072e-17 1.083156383999763e-16 0.4778525400879768 -0.8784400662147028
12638884000.0 0.4685252859967741 -0.883450087091209 -2.144565603902981e-17 1.085296064341402e-16 -2.144565603902981e-17 1.085296064341402e-16 0.46852587665356477 -0.8834497738444623
12639501333.333334 0.45914610513974524 -0.8883607680074715 -2.0281863582033166e-17 1.0873112112266808e-16 -2.0281863582033166e-17 1.0873112112266808e-16 0.45914669905071276 -0.8883604610464476
12640118666.666666 0.44971546143541435 -0.8931718780535781 -1.9116214100616296e-17 1.0892016436673645e-16 -1.9116214100616296e-17 1.0892016436673645e-16 0.44971605853367613 -0.893171577412066
12640736000.0 0.440234411906166 -0.8978828779821205 -1.794884115390167e-17 1.0909671949556816e-16 -1.794884115390167e-17 1.0909671949556816e-16 0.4402350121244891 -0.8978825836931988
12641353333.333334 0.43070401922449303 -0.9024932397661997 -1.677987844525736e-17 1.0926077126775782e-16 -1.677987844525736e-17 1.0926077126775782e-16 0.43070462249530106 -0.9024929518622309
12641970666.666666 0.4211253515931503 -0.907002446658976 -1.560945980692249e-17 1.0941230587246338e-16 -1.560945980692249e-17 1.0941230587246338e-16 0.4211259578485318 -0.9070021651716051
12642588000.0 0.41149948262588615 -0.9114099932513645 -1.4437719184751184e-17 1.095513109304142e-16 -1.4437719184751184e-17 1.095513109304142e-16 0.4115000917976015 -0.911409718211513
12643205333.333334 0.4018274912269018 -0.9157153855287774 -1.3264790622915593e-17 1.0967777549476164e-16 -1.3264790622915593e-17 1.0967777549476164e-16 0.40182810324639134 -0.9157151169666424
12643822666.666666 0.39211046146989814 -0.9199181409265111 -1.2090808248563005e-17 1.0979169005177058e-16 -1.2090808248563005e-17 1.0979169005177058e-16 0.3921110762682893 -0.919917878871559
12644440000.0 0.38234948247674816 -0.9240177883837446 -1.0915906256544447e-17 1.0989304652133907e-16 -1.0915906256544447e-17 1.0989304652133907e-16 0.3823500999848644 -0.9240175328647116
12645057333.333334 0.3725456482953502 -0.9280138683963844 -9.740218894072862e-18 1.0998183825736208e-16 -9.740218894072862e-18 1.0998183825736208e-16 0.37254626844371747 -0.9280136194412699
12645674666.666666 0.3627000577769475 -0.9319059330685808 -8.563880445434375e-18 1.1005806004792612e-16 -8.563880445434375e-18 1.1005806004792612e-16 0.3627006804958031 -0.9319056907046472
12646292000.0 0.35281381445283433 -0.935693546162987 -7.387025216629407e-18 1.1012170811534669e-16 -7.387025216629407e-18 1.1012170811534669e-16 0.35281443967213344 -0.9356933104167532
12646909333.333334 0.3428880264110614 -0.9393762831494904 -6.20978752012994e-18 1.1017278011603369e-16 -6.20978752012994e-18 1.1017278011603369e-16 0.34288865406048685 -0.9393760540467336
12647526666.666666 0.3329238061719239 -0.9429537312529298 -5.032301659523102e-18 1.1021127514020233e-16 -5.032301659523102e-18 1.1021127514020233e-16 0.33292443618089257 -0.942953508818679
12648144000.0 0.32292227056323575 -0.9464254894993624 -3.8547019142274486e-18 1.1023719371141565e-16 -3.8547019142274486e-18 1.1023719371141565e-16 0.3229229028609068 -0.9464252737578965
12648761333.333334 0.31288454059531107 -0.9497911687609467 -2.6771225242273806e-18 1.1025053778596439e-16 -2.6771225242273806e-18 1.1025053778596439e-16 0.31288517511059416 -0.949790959735792
12649378666.666666 0.3028117413354 -0.9530503917995355 -1.4996976747741944e-18 1.1025131075208612e-16 -1.4996976747741944e-18 1.1025131075208612e-16 0.3028123779969631 -0.9530501895134631
12649996000.0 0.29270500178126213 -0.9562027933090634 -3.2256148113060925e-19 1.102395174290194e-16 -3.2256148113060925e-19 1.102395174290194e-16 0.2927056405175402 -0.9562025977840891
12650613333.333334 0.2825654547348953 -0.959248019956406 8.541520266957938e-19 1.102151640658967e-16 8.541520266957938e-19 1.102151640658967e-16 0.28256609547409733 -0.9592478312137833
12651230666.666666 0.27239423667559415 -0.9621857304209753 2.0303089191502426e-18 1.1017825834047422e-16 2.0303089191502426e-18 1.1017825834047422e-16 0.2723948793457113 -0.9621855484811958
12651848000.0 0.2621924876322411 -0.9650155954330699 3.2057753824050105e-18 1.101288093576989e-16 3.2057753824050105e-18 1.101288093576989e-16 0.26219313216105583 -0.9650154203158616
12652465333.333334 0.2519613510558284 -0.9677372978106951 4.380417733504923e-18 1.1006682764811541e-16 4.380417733504923e-18 1.1006682764811541e-16 0.25196199737092173 -0.96773712953502
12653082666.666666 0.2417019736913791 -0.9703505324950953 5.554102435567198e-18 1.0999232516610964e-16 5.554102435567198e-18 1.0999232516610964e-16 0.24170262172013873 -0.9703503710791455
12653700000.0 0.23141550544894765 -0.9728550065850675 6.726696112958644e-18 1.0990531528798969e-16 6.726696112958644e-18 1.0990531528798969e-16 0.2314161551185763 -0.9728548520462647
12654317333.333334 0.22110309927533897 -0.9752504393696338 7.898065566373618e-18 1.0980581280991046e-16 7.898065566373618e-18 1.0980581280991046e-16 0.22110375051286255 -0.975250291724627
12654934666.666666 0.2107659110243861 -0.9775365623596314 9.0680777879922e-18 1.0969383394563064e-16 9.0680777879922e-18 1.0969383394563064e-16 0.21076656375666203 -0.9775364216242958
12655552000.0 0.20040509932761774 -0.9797131193177482 1.0236599976532564e-17 1.0956939632411391e-16 1.0236599976532564e-17 1.0956939632411391e-16 0.20040575348134318 -0.9797129855071839
12656169333.333334 0.1900218254644231 -0.9817798662872417 1.1403499552295858e-17 1.0943251898696921e-16 1.1403499552295858e-17 1.0943251898696921e-16 0.19002248096614271 -0.9817797394157692
12656786666.666666 0.17961725323183517 -0.9837365716192906 1.256864417218929e-17 1.0928322238572959e-16 1.256864417218929e-17 1.0928322238572959e-16 0.17961791000795022 -0.9837364517004543
12657404000.0 0.16919254881400486 -0.9855830159989805 1.373190174471947e-17 1.0912152837897115e-16 1.373190174471947e-17 1.0912152837897115e-16 0.1691932067907804 -0.985582903045541
12658021333.333334 0.15874888065165713 -0.9873189924698458 1.4893140444923342e-17 1.0894746022927637e-16 1.4893140444923342e-17 1.0894746022927637e-16 0.15874953975523123 -0.9873188864937843
12658638666.666666 0.14828741931104503 -0.9889443064570903 1.605222872929087e-17 1.0876104260003532e-16 1.605222872929087e-17 1.0876104260003532e-16 0.14828807946743658 -0.9889442074696042
12659256000.0 0.1378093373526912 -0.9904587757894002 1.7209035350646674e-17 1.0856230155208838e-16 1.7209035350646674e-17 1.0856230155208838e-16 0.13780999848780828 -0.9904586838009017
12659873333.333334 0.12731580919999094 -0.9918622307193553 1.836342937298281e-17 1.0835126454021269e-16 1.836342937298281e-17 1.0835126454021269e-16 0.12731647123963916 -0.9918621457394724
12660490666.666666 0.11680801100780397 -0.9931545139424305 1.9515280186228927e-17 1.0812796040945529e-16 1.9515280186228927e-17 1.0812796040945529e-16 0.11680867387769472 -0.9931544359800035
12661108000.0 0.10628712053011867 -0.9943354806146871 2.066445752105627e-17 1.0789241939129531e-16 2.066445752105627e-17 1.0789241939129531e-16 0.10628778415587765 -0.9943354096777697
12661725333.333334 0.09575431698866597 -0.9954049983689348 2.1810831463532748e-17 1.0764467309966921e-16 2.1810831463532748e-17 1.0764467309966921e-16 0.09575498129584138 -0.9954049344647922
12662342666.666666 0.08521078094021117 -0.9963629473296289 2.2954272469808527e-17 1.073847545268255e-16 2.2954272469808527e-17 1.073847545268255e-16 0.08521144585428211 -0.9963628904647377
12662960000.0 0.07465769414459965 -0.9972092201262659 2.409465138073517e-17 1.0711269803902695e-16 2.409465138073517e-17 1.0711269803902695e-16 0.07465835959098457 -0.997209170306314
12663577333.333334 0.06409623943204669 -0.9979437219054457 2.523183943640809e-17 1.0682853937210533e-16 2.523183943640809e-17 1.0682853937210533e-16 0.06409690533611152 -0.9979436791353294
12664194666.666666 0.05352760057078733 -0.9985663703414803 2.6365708290703216e-17 1.0653231562685001e-16 2.6365708290703216e-17 1.0653231562685001e-16 0.05352826685785398 -0.9985663346253058
12664812000.0 0.04295296213416863 -0.999077095645639 2.7496130025712487e-17 1.0622406526425535e-16 2.7496130025712487e-17 1.0622406526425535e-16 0.04295362872952343 -0.9990770669867218
12665429333.333334 0.03237350936807666 -0.9994758405739579 2.862297716617635e-17 1.059038281006021e-16 2.862297716617635e-17 1.059038281006021e-16 0.03237417619697863 -0.999475818974822
12666046666.666666 0.02179042805803296 -0.9997625604336623 2.974612269379389e-17 1.055716453024038e-16 2.974612269379389e-17 1.055716453024038e-16 0.021791095045722256 -0.9997625458960404
12666664000.0 0.011204904396059829 -0.999937223088179 3.08654400615714e-17 1.052275593811743e-16 3.08654400615714e-17 1.052275593811743e-16 0.0112055714677661 -0.9999372156130129
12667281333.333334 0.0006181248481819996 -0.9999998089607297 3.198080320798892e-17 1.0487161418808002e-16 3.198080320798892e-17 1.0487161418808002e-16 0.0006187919291327411 -0.9999998085481683
12667898666.666666 -0.009968723978897993 -0.9999503110365323 3.309208657122258e-17 1.0450385490840713e-16 3.309208657122258e-17 1.0450385490840713e-16 -0.009968056963469007 -0.9999503176859325
12668516000.0 -0.02055445547085602 -0.9997887348635816 3.4199165103244484e-17 1.0412432805589606e-16 3.4199165103244484e-17 1.0412432805589606e-16 -0.02055378859570041 -0.9997887485735111
12669133333.333334 -0.03113788313843407 -0.9995150985520337 3.530191428383246e-17 1.0373308146693713e-16 3.530191428383246e-17 1.0373308146693713e-16 -0.031137216478280435 -0.9995151193202677
12669750666.666666 -0.0417178207506254 -0.9991294327721723 3.6400210134599697e-17 1.0333016429458876e-16 3.6400210134599697e-17 1.0333016429458876e-16 -0.04171715438017097 -0.9991294605956955
12670368000.0 -0.052293082467717064 -0.9986317807509681 3.7493929232871487e-17 1.0291562700247625e-16 3.7493929232871487e-17 1.0291562700247625e-16 -0.05229241646161927 -0.9986318156259737
