! Parameters = {f0=12700.012000; bw=77.238000; Q=6100.000000; N=10; m_0_1=1.224119; m_1_1=-0.402959; m_1_2=1.058931; m_2_2=-0.403608; m_2_3=0.695894; m_2_8=-0.001730; m_2_9=0.034974; m_3_3=-0.405545; m_3_4=0.584423; m_3_7=-0.001130; m_3_8=-0.098218; m_3_9=-0.001730; m_4_4=-0.408470; m_4_5=0.420758; m_4_6=0.002387; m_4_7=-0.118767; m_4_8=-0.001130; m_5_5=-0.408088; m_5_6=0.828113; m_5_7=0.002387; m_6_6=-0.408089; m_6_7=0.421100; m_7_7=-0.408456; m_7_8=0.584541; m_8_8=-0.405547; m_8_9=0.696207; m_9_9=-0.403613; m_9_10=1.060009; m_10_10=-0.402969; m_10_11=1.224914}
!
! Created with skrf (http://scikit-rf.org).
# Hz S RI R 50.0 
!freq ReS11 ImS11 ReS21 ImS21 ReS12 ImS12 ReS22 ImS22
12607400000.0 -0.9780256209577455 -0.2084847350528419 8.836565298719437e-17 -6.905082307456081e-18 8.836565298719437e-17 -6.905082307456081e-18 -0.9780254864807585 -0.20848536589869093
12608017333.333334 -0.9798955981042341 -0.19951094410027187 8.828066732055684e-17 -7.721110832778916e-18 8.828066732055684e-17 -7.721110832778916e-18 -0.9798954694218217 -0.1995115761213456
12608634666.666666 -0.9816832387989043 -0.19052038909557634 8.81881518020291e-17 -8.536158273824471e-18 8.81881518020291e-17 -8.536158273824471e-18 -0.9816831159213102 -0.19052102223865602
12609252000.0 -0.9833883928339848 -0.1815138254768197 8.80881173050971e-17 -9.350155204147893e-18 8.80881173050971e-17 -9.350155204147893e-18 -0.9833882757709652 -0.1815144596885978
12609869333.333334 -0.9850109169327173 -0.17249201002714515 8.798057534286031e-17 -1.0163032314466165e-17 8.798057534286031e-17 -1.0163032314466165e-17 -0.9850108056935388 -0.17249264525422955
12610486666.666666 -0.986550674761365 -0.16345570081135322 8.786553806679901e-17 -1.0974720418518573e-17 8.786553806679901e-17 -1.0974720418518573e-17 -0.9865505693548045 -0.16345633700027176
12611104000.0 -0.9880075369407216 -0.1544056571119253 8.774301826547941e-17 -1.178515045897932e-17 8.774301826547941e-17 -1.178515045897932e-17 -0.9880074373750631 -0.15440629420913002
12611721333.333334 -0.9893813810569236 -0.1453426393655032 8.76130293632141e-17 -1.2594253513279348e-17 8.76130293632141e-17 -1.2594253513279348e-17 -0.989381287339962 -0.1453432773173754
12612338666.666666 -0.9906720916717668 -0.13626740909888238 8.747558541865965e-17 -1.3401960799489248e-17 8.747558541865965e-17 -1.3401960799489248e-17 -0.9906720038108032 -0.13626804785173652
12612956000.0 -0.9918795603324161 -0.1271807288649105 8.733070112336586e-17 -1.4208203682137862e-17 8.733070112336586e-17 -1.4208203682137862e-17 -0.9918794783342592 -0.12718136836499908
12613573333.333334 -0.9930036855804736 -0.11808336217872313 8.717839180027264e-17 -1.501291367801873e-17 8.717839180027264e-17 -1.501291367801873e-17 -0.9930036094514398 -0.11808400237224126
12614190666.666666 -0.9940443729605638 -0.10897607345319506 8.701867340214781e-17 -1.5816022462013465e-17 8.701867340214781e-17 -1.5816022462013465e-17 -0.9940443027064745 -0.10897671428628469
12614808000.0 -0.995001535028221 -0.09985962793501914 8.685156250997477e-17 -1.66174618728769e-17 8.685156250997477e-17 -1.66174618728769e-17 -0.9950014706544045 -0.09986026935377387
12615425333.333334 -0.9958750913572617 -0.09073479164026549 8.66770763312893e-17 -1.7417163918996138e-17 8.66770763312893e-17 -1.7417163918996138e-17 -0.9958750328685505 -0.09073543359073492
12616042666.666666 -0.9966649685465331 -0.0816023312900727 8.649523269845977e-17 -1.8215060784152603e-17 8.649523269845977e-17 -1.8215060784152603e-17 -0.9966649159472663 -0.08160297371826712
12616660000.0 -0.9973711002260914 -0.07246301424611035 8.630605006691452e-17 -1.901108483326683e-17 8.630605006691452e-17 -1.901108483326683e-17 -0.9973710535201122 -0.07246365709800512
12617277333.333334 -0.9979934270627667 -0.0633176084462423 8.610954751331976e-17 -1.9805168618105602e-17 8.610954751331976e-17 -1.9805168618105602e-17 -0.9979933862534213 -0.06331825166778246
12617894666.666666 -0.9985318967651454 -0.054166882340028734 8.590574473370483e-17 -2.0597244882981142e-17 8.590574473370483e-17 -2.0597244882981142e-17 -0.9985318618552868 -0.054167525877133624
12618512000.0 -0.998986464087985 -0.045011604823901416 8.569466204152742e-17 -2.1387246570455536e-17 8.569466204152742e-17 -2.1387246570455536e-17 -0.9989864350799689 -0.04501224862246912
12619129333.333334 -0.9993570908359923 -0.03585254517684002 8.547632036569938e-17 -2.217510682697999e-17 8.547632036569938e-17 -2.217510682697999e-17 -0.9993570677316801 -0.035853189182752015
12619746666.666666 -0.9996437458670495 -0.026690472995619843 8.525074124855129e-17 -2.2960759008548277e-17 8.525074124855129e-17 -2.2960759008548277e-17 -0.9996437286678028 -0.026691117154745328
12620364000.0 -0.9998464050948219 -0.017526158130031683 8.501794684374521e-17 -2.3744136686330026e-17 8.501794684374521e-17 -2.3744136686330026e-17 -0.9998463938015081 -0.01752680238823239
12620981333.333334 -0.9999650514907799 -0.008360370618507558 8.477795991414663e-17 -2.4525173652247298e-17 8.477795991414663e-17 -2.4525173652247298e-17 -0.9999650461037709 -0.008361014921642186
12621598666.666666 -0.9999996750856408 0.000806119376980241 8.453080382962755e-17 -2.5303803924590263e-17 8.453080382962755e-17 -2.5303803924590263e-17 -0.9999996756048112 0.000805475083051499
12622216000.0 -0.9999502729701957 0.009972541635320055 8.427650256483547e-17 -2.6079961753551025e-17 8.427650256483547e-17 -2.6079961753551025e-17 -0.9999502793949235 0.00997189740473092
12622833333.333334 -0.9998168492955576 0.019138125941149685 8.401508069690109e-17 -2.6853581626774097e-17 8.401508069690109e-17 -2.6853581626774097e-17 -0.9998168616247269 0.019137481828023283
12623450666.666666 -0.9995994152728188 0.028302102149403915 8.374656340309903e-17 -2.762459827486988e-17 8.374656340309903e-17 -2.762459827486988e-17 -0.9995994335048144 0.028301458207848164
12624068000.0 -0.9992979891720953 0.0374637002502821 8.347097645845813e-17 -2.8392946676905135e-17 8.347097645845813e-17 -2.8392946676905135e-17 -0.9992980133048089 0.03746305653438526
12624685333.333334 -0.9989125963210014 0.04662215043380685 8.318834623331691e-17 -2.915856206588433e-17 8.318834623331691e-17 -2.915856206588433e-17 -0.9989126263518279 0.04662150699763289
12625302666.666666 -0.9984432691025246 0.055776683154337384 8.289869969084318e-17 -2.992137993416705e-17 8.289869969084318e-17 -2.992137993416705e-17 -0.9984433050283643 0.055776040051921535
12625920000.0 -0.997890046952291 0.06492652919562891 8.26020643844772e-17 -3.0681336038933837e-17 8.26020643844772e-17 -3.0681336038933837e-17 -0.9978900887695479 0.06492588648097296
12626537333.333334 -0.9972529763552686 0.07407091973504043 8.229846845535942e-17 -3.1438366407535896e-17 8.229846845535942e-17 -3.1438366407535896e-17 -0.9972530240598533 0.07407027746210845
12627154666.666666 -0.99653211084185 0.08320908640841984 8.198794062968248e-17 -3.219240734288976e-17 8.198794062968248e-17 -3.219240734288976e-17 -0.9965321644291788 0.08320844463113344
12627772000.0 -0.9957275109833483 0.09234026137466575 8.167051021599935e-17 -3.294339542883217e-17 8.167051021599935e-17 -3.294339542883217e-17 -0.9957275704483444 0.09233962014689971
12628389333.333334 -0.9948392443869372 0.10146367737996322 8.134620710249564e-17 -3.369126753541631e-17 8.134620710249564e-17 -3.369126753541631e-17 -0.9948393097240278 0.10146303675554066
12629006666.666666 -0.9938673856899287 0.11057856782261997 8.101506175419521e-17 -3.443596082422542e-17 8.101506175419521e-17 -3.443596082422542e-17 -0.9938674568930519 0.11057792785530844
12629624000.0 -0.9928120165535307 0.11968416681728375 8.067710521013459e-17 -3.5177412753620325e-17 8.067710521013459e-17 -3.5177412753620325e-17 -0.9928120936161292 0.11968352756078994
12630241333.333334 -0.9916732256559759 0.12877970925929522 8.033236908047184e-17 -3.5915561083998414e-17 8.033236908047184e-17 -3.5915561083998414e-17 -0.9916733085710017 0.12877907076726097
12630858666.666666 -0.9904511086850833 0.13786443088892092 7.99808855435694e-17 -3.665034388297673e-17 7.99808855435694e-17 -3.665034388297673e-17 -0.9904511974449979 0.13786379321491868
12631476000.0 -0.9891457683301864 0.1469375683558243 7.962268734300115e-17 -3.738169953060822e-17 7.962268734300115e-17 -3.738169953060822e-17 -0.9891458629269609 0.14693693155335255
12632093333.333334 -0.9877573142735331 0.15599835928295272 7.925780778454412e-17 -3.810956672450111e-17 7.925780778454412e-17 -3.810956672450111e-17 -0.9877574146986493 0.15599772340543153
12632710666.666666 -0.9862858631810778 0.16504604233059797 7.888628073309681e-17 -3.8833884484965877e-17 7.888628073309681e-17 -3.8833884484965877e-17 -0.986285969425527 0.16504540743136425
12633328000.0 -0.9847315386926324 0.17407985726062 7.850814060956167e-17 -3.95545921601072e-17 7.850814060956167e-17 -3.95545921601072e-17 -0.9847316507469196 0.17407922339292345
12633945333.333334 -0.9830944714115313 0.18309904500001856 7.812342238768685e-17 -4.02716294308775e-17 7.812342238768685e-17 -4.02716294308775e-17 -0.9830945892656736 0.18309841221701698
12634562666.666666 -0.9813747988936129 0.19210284770496677 7.773216159085244e-17 -4.0984936316117694e-17 7.773216159085244e-17 -4.0984936316117694e-17 -0.9813749225371418 0.1921022160597217
12635180000.0 -0.9795726656356966 0.2010905088242937 7.733439428881082e-17 -4.169445317756696e-17 7.733439428881082e-17 -4.169445317756696e-17 -0.9795727950576565 0.20108987836976558
12635797333.333334 -0.977688223063414 0.2100612731631936 7.69301570943904e-17 -4.240012072482331e-17 7.69301570943904e-17 -4.240012072482331e-17 -0.9776883582523663 0.21006064395223803
12636414666.666666 -0.975721629518521 0.21901438694651493 7.651948716015098e-17 -4.310188002028204e-17 7.651948716015098e-17 -4.310188002028204e-17 -0.975721770462545 0.219013759031878
12637032000.0 -0.9736730502455365 0.22794909788237536 7.610242217498022e-17 -4.3799672484062965e-17 7.610242217498022e-17 -4.3799672484062965e-17 -0.9736731969322261 0.22794847131668852
12637649333.333334 -0.9715426573779116 0.23686465522509464 7.567900036067004e-17 -4.4493439898864303e-17 7.567900036067004e-17 -4.4493439898864303e-17 -0.9715428097943801 0.2368640300608711
12638266666.666666 -0.9693306299235376 0.24576030983841599 7.524926046842949e-17 -4.518312441481591e-17 7.524926046842949e-17 -4.518312441481591e-17 -0.9693307880564204 0.24575968612804627
12638884000.0 -0.9670371537497218 0.25463531425839775 7.481324177536317e-17 -4.5868668554284336e-17 7.481324177536317e-17 -4.5868668554284336e-17 -0.9670373175851732 0.254634692054145
12639501333.333334 -0.9646624215675301 0.2634889227563572 7.437098408089639e-17 -4.655001521665888e-17 7.437098408089639e-17 -4.655001521665888e-17 -0.9646625910912272 0.26348830211035285
12640118666.666666 -0.9622066329156818 0.27232039140120057 7.392252770317925e-17 -4.7227107683067273e-17 7.392252770317925e-17 -4.7227107683067273e-17 -0.9622068081128251 0.2723197723654401
12640736000.0 -0.959669994143636 0.28112897812248144 7.346791347540565e-17 -4.7899889621124745e-17 7.346791347540565e-17 -4.7899889621124745e-17 -0.9596701749989514 0.28112836074881997
12641353333.333334 -0.9570527183944498 0.28991394277204197 7.300718274215148e-17 -4.8568305089551505e-17 7.300718274215148e-17 -4.8568305089551505e-17 -0.957052904892189 0.28991332711218987
12641970666.666666 -0.9543550255866757 0.29867454718688763 7.254037735560072e-17 -4.923229854286124e-17 7.254037735560072e-17 -4.923229854286124e-17 -0.9543552177106172 0.29867393329240616
12642588000.0 -0.951577142396008 0.3074100552507751 7.20675396717861e-17 -4.9891814835928816e-17 7.20675396717861e-17 -4.9891814835928816e-17 -0.9515773401294599 0.3074094431730724
12643205333.333334 -0.9487193022361969 0.31611973295620155 7.15887125467607e-17 -5.0546799228563467e-17 7.15887125467607e-17 -5.0546799228563467e-17 -0.9487195055619981 0.3161191227465281
12643822666.666666 -0.9457817452394099 0.3248028484661612 7.110393933272315e-17 -5.119719739005127e-17 7.110393933272315e-17 -5.119719739005127e-17 -0.9457819541399303 0.32480224017560533
12644440000.0 -0.9427647182361069 0.3334586721754764 7.061326387412827e-17 -5.184295540362433e-17 7.061326387412827e-17 -5.184295540362433e-17 -0.9427649326932489 0.33345806585495996
12645057333.333334 -0.9396684747342521 0.34208647677223686 7.011673050373397e-17 -5.2484019770925377e-17 7.011673050373397e-17 -5.2484019770925377e-17 -0.9396686947294545 0.3420858724725115
12645674666.666666 -0.9364932748980749 0.3506855372987535 6.96143840386181e-17 -5.312033741642074e-17 6.96143840386181e-17 -5.312033741642074e-17 -0.9364935004123136 0.3506849350703966
12646292000.0 -0.9332393855261011 0.3592551312127673 6.910626977613531e-17 -5.375185569180056e-17 6.910626977613531e-17 -5.375185569180056e-17 -0.9332396165398881 0.35925453110617644
12646909333.333334 -0.9299070800288795 0.3677945384477598 6.859243348988059e-17 -5.437852238028232e-17 6.859243348988059e-17 -5.437852238028232e-17 -0.9299073165222681 0.36779394051314995
12647526666.666666 -0.926496638405872 0.3763030414738317 6.807292142556292e-17 -5.5000285700940106e-17 6.807292142556292e-17 -5.5000285700940106e-17 -0.9264968803584571 0.3763024457612304
12648144000.0 -0.9230083472219951 0.3847799253578065 6.754778029686615e-17 -5.561709431296176e-17 6.754778029686615e-17 -5.561709431296176e-17 -0.9230085946129137 0.38477933191704916
12648761333.333334 -0.9194424995835401 0.39322447782330294 6.701705728126683e-17 -5.62288973198724e-17 6.701705728126683e-17 -5.62288973198724e-17 -0.9194427523914759 0.39322388670403
12649378666.666666 -0.9157993951135717 0.4016359893105345 6.648080001582386e-17 -5.683564427370715e-17 6.648080001582386e-17 -5.683564427370715e-17 -0.9157996533167548 0.4016354005621865
12649996000.0 -0.9120793399266509 0.41001375303616583 6.593905659290772e-17 -5.743728517917022e-17 6.593905659290772e-17 -5.743728517917022e-17 -0.9120796035028589 0.4100131667079781
12650613333.333334 -0.908282646603208 0.4183570650524622 6.53918755559051e-17 -5.803377049773826e-17 6.53918755559051e-17 -5.803377049773826e-17 -0.9082829155297707 0.41835648119346314
12651230666.666666 -0.9044096341632861 0.4266652243064437 6.483930589490345e-17 -5.862505115170482e-17 6.483930589490345e-17 -5.862505115170482e-17 -0.9044099084170862 0.42666464296544926
12651848000.0 -0.9004606280396413 0.43493753269899826 6.428139704229908e-17 -5.921107852822805e-17 6.428139704229908e-17 -5.921107852822805e-17 -0.9004609075971153 0.4349369539246078
12652465333.333334 -0.8964359600504489 0.4431732951434069 6.37181988684106e-17 -5.979180448329071e-17 6.37181988684106e-17 -5.979180448329071e-17 -0.896436244887591 0.44317271898399996
12653082666.666666 -0.8923359683715073 0.45137181962360134 6.314976167703227e-17 -6.036718134564698e-17 6.314976167703227e-17 -6.036718134564698e-17 -0.8923362584638689 0.451371246127332
12653700000.0 -0.8881609975076378 0.45953241725266286 6.257613620095012e-17 -6.093716192072549e-17 6.257613620095012e-17 -6.093716192072549e-17 -0.8881612928303315 0.4595318464674571
12654317333.333334 -0.883911398263946 0.46765440233030275 6.19973735974494e-17 -6.150169949446674e-17 6.19973735974494e-17 -6.150169949446674e-17 -0.8839116987916498 0.4676538343038552
12654934666.666666 -0.8795875277161658 0.47573709240083395 6.141352544375473e-17 -6.206074783714888e-17 6.141352544375473e-17 -6.206074783714888e-17 -0.8795878334231202 0.47573652718060166
12655552000.0 -0.8751897491807291 0.4837798083103612 6.082464373244323e-17 -6.261426120716332e-17 6.082464373244323e-17 -6.261426120716332e-17 -0.8751900600407417 0.4837792459435606
12656169333.333334 -0.8707184321843063 0.49178187426372216 6.02307808668581e-17 -6.31621943547147e-17 6.02307808668581e-17 -6.31621943547147e-17 -0.870718748170757 0.4917813147973265
12656786666.666666 -0.8661739524326549 0.4997426178814755 5.96319896564384e-17 -6.370450252552522e-17 5.96319896564384e-17 -6.370450252552522e-17 -0.8661742735184925 0.49974206136220845
12657404000.0 -0.8615566917790529 0.507661370256367 5.902832331204303e-17 -6.424114146446948e-17 5.902832331204303e-17 -6.424114146446948e-17 -0.8615570179368022 0.507660816730701
12658021333.333334 -0.8568670381922759 0.51553746600944 5.841983544124561e-17 -6.477206741916174e-17 5.841983544124561e-17 -6.477206741916174e-17 -0.8568673693940383 0.5155369155235912
12658638666.666666 -0.8521053857240135 0.523370243345919 5.780658004359222e-17 -6.529723714350412e-17 5.780658004359222e-17 -6.529723714350412e-17 -0.8521057219414689 0.5233696959458439
12659256000.0 -0.8472721344756265 0.5311590441110393 5.718861150581029e-17 -6.581660790120463e-17 5.718861150581029e-17 -6.581660790120463e-17 -0.8472724756800356 0.5311584998424299
12659873333.333334 -0.842367690564672 0.5389032138451011 5.656598459701082e-17 -6.633013746922907e-17 5.656598459701082e-17 -6.633013746922907e-17 -0.8423680367268798 0.5389026727533824
12660490666.666666 -0.8373924660907232 0.5466021018385618 5.593875446386127e-17 -6.683778414120576e-17 5.593875446386127e-17 -6.683778414120576e-17 -0.8373928171811622 0.546601563968888
12661108000.0 -0.8323468791006818 0.5542550611868071 5.530697662569035e-17 -6.733950673081715e-17 5.530697662569035e-17 -6.733950673081715e-17 -0.8323472350893714 0.5542545265840562
12661725333.333334 -0.8272313535538027 0.5618614488442686 5.467070696962037e-17 -6.7835264575098e-17 5.467070696962037e-17 -6.7835264575098e-17 -0.8272317144103539 0.5618609175530399
12662342666.666666 -0.8220463192859319 0.56942062567867 5.403000174560971e-17 -6.832501753773572e-17 5.403000174560971e-17 -6.832501753773572e-17 -0.8220466849795515 0.5694200977432812
12662960000.0 -0.816792211973406 0.5769319565247082 5.338491756151708e-17 -6.880872601228433e-17 5.338491756151708e-17 -6.880872601228433e-17 -0.8167925824728949 0.5769314319891893
12663577333.333334 -0.8114694730965197 0.5843948102373031 5.273551137810755e-17 -6.928635092535474e-17 5.273551137810755e-17 -6.928635092535474e-17 -0.8114698483702801 0.5843942891453955
12664194666.666666 -0.8060785499023715 0.5918085597447272 5.2081840504032576e-17 -6.975785373975685e-17 5.2081840504032576e-17 -6.975785373975685e-17 -0.8060789299184061 0.5918080421398777
12664812000.0 -0.8006198953673104 0.5991725821012462 5.1423962590799395e-17 -7.022319645758028e-17 5.1423962590799395e-17 -7.022319645758028e-17 -0.8006202800932278 0.599172068026605
12665429333.333334 -0.7950939681587953 0.6064862585395794 5.076193562769195e-17 -7.068234162324523e-17 5.076193562769195e-17 -7.068234162324523e-17 -0.7950943575618115 0.6064857480379962
12666046666.666666 -0.7895012325970393 0.6137489745226409 5.009581793668832e-17 -7.113525232648725e-17 5.009581793668832e-17 -7.113525232648725e-17 -0.7895016266439793 0.6137484676366599
12666664000.0 -0.7838421586157371 0.6209601197955147 4.9425668167307516e-17 -7.158189220532611e-17 4.9425668167307516e-17 -7.158189220532611e-17 -0.7838425572730399 0.6209596165673731
12667281333.333334 -0.7781172217228562 0.628119088436373 4.875154529150112e-17 -7.202222544893692e-17 4.875154529150112e-17 -7.202222544893692e-17 -0.7781176249565772 0.6281185889079969
12667898666.666666 -0.7723269029604406 0.6352252789077049 4.8073508598450385e-17 -7.245621680052086e-17 4.8073508598450385e-17 -7.245621680052086e-17 -0.7723273107362527 0.635224783120704
12668516000.0 -0.7664716888642892 0.6422780941067212 4.739161768937023e-17 -7.288383156010449e-17 4.739161768937023e-17 -7.288383156010449e-17 -0.7664721011474874 0.6422776021023878
12669133333.333334 -0.7605520714231696 0.6492769414154214 4.67059324722956e-17 -7.330503558728718e-17 4.67059324722956e-17 -7.330503558728718e-17 -0.7605524881786742 0.6492764532347257
12669750666.666666 -0.7545685480373332 0.6562212327505628 4.60165131568243e-17 -7.371979530395081e-17 4.60165131568243e-17 -7.371979530395081e-17 -0.7545689692296925 0.6562207484341509
12670368000.0 -0.7485216214767195 0.6631103846130747 4.5323420248846853e-17 -7.412807769691432e-17 4.5323420248846853e-17 -7.412807769691432e-17 -0.7485220470701115 0.6631099042012624
