! Parameters = {f0=12700.012000; bw=77.238000; Q=6100.000000; N=10; m_0_1=1.192487; m_1_1=-0.877433; m_1_2=1.027299; m_2_2=-0.878082; m_2_3=0.664262; m_2_8=-0.003312; m_2_9=0.033392; m_3_3=-0.880019; m_3_4=0.552791; m_3_7=-0.002712; m_3_8=-0.099800; m_3_9=-0.003312; m_4_4=-0.882944; m_4_5=0.389126; m_4_6=0.000805; m_4_7=-0.120349; m_4_8=-0.002712; m_5_5=-0.882562; m_5_6=0.796481; m_5_7=0.000805; m_6_6=-0.882563; m_6_7=0.389468; m_7_7=-0.882930; m_7_8=0.552909; m_8_8=-0.880021; m_8_9=0.664575; m_9_9=-0.878087; m_9_10=1.028377; m_10_10=-0.877443; m_10_11=1.193282}
!
! Created with skrf (http://scikit-rf.org).
# Hz S RI R 50.0 
!freq ReS11 ImS11 ReS21 ImS21 ReS12 ImS12 ReS22 ImS22
12607400000.0 -0.891430086988391 -0.45315825051709496 7.435880507259862e-17 1.3707490461325083e-17 7.435880507259862e-17 1.3707490461325083e-17 -0.8914298022203699 -0.45315881069796843
12608017333.333334 -0.8951300047048077 -0.44580519812695624 7.445569210687867e-17 1.308578230641562e-17 7.445569210687867e-17 1.308578230641562e-17 -0.8951297245712152 -0.44580576060533933
12608634666.666666 -0.8987692713018837 -0.43842193941832447 7.454738588703105e-17 1.2463411610836087e-17 7.454738588703105e-17 1.2463411610836087e-17 -0.8987689958212456 -0.43842250415588224
12609252000.0 -0.9023476401947298 -0.43100897465696447 7.463388210026125e-17 1.1840421715069771e-17 7.463388210026125e-17 1.1840421715069771e-17 -0.9023473693852546 -0.43100954161521243
12609869333.333334 -0.9058648689246621 -0.4235668061214766 7.471517679514388e-17 1.1216855985471924e-17 7.471517679514388e-17 1.1216855985471924e-17 -0.9058646028042422 -0.4235673752617847
12610486666.666666 -0.9093207191756496 -0.4160959380692424 7.479126638175367e-17 1.0592757811265825e-17 7.479126638175367e-17 1.0592757811265825e-17 -0.9093204577618557 -0.41609650935283526
12611104000.0 -0.9127149567905504 -0.4085968767020468 7.486214763177414e-17 9.968170601517165e-18 7.486214763177414e-17 9.968170601517165e-18 -0.9127147001006327 -0.4085974500900079
12611721333.333334 -0.9160473517867774 -0.4010701301322209 7.492781767857715e-17 9.343137782140138e-18 7.492781767857715e-17 9.343137782140138e-18 -0.9160470998376653 -0.4010707055854954
12612338666.666666 -0.9193176783720829 -0.393516208347774 7.498827401728146e-17 8.717702792871664e-18 7.498827401728146e-17 8.717702792871664e-18 -0.9193174311803823 -0.3935167858271706
12612956000.0 -0.9225257149597611 -0.3859356231780444 7.504351450478339e-17 8.091909084267055e-18 7.504351450478339e-17 8.091909084267055e-18 -0.9225254725417557 -0.38593620264423906
12613573333.333334 -0.9256712441836453 -0.3783288882590749 7.509353735976302e-17 7.465800114696212e-18 7.509353735976302e-17 7.465800114696212e-18 -0.9256710065552909 -0.37832946967261155
12614190666.666666 -0.9287540529129058 -0.37069651899862277 7.513834116266711e-17 6.839419347319053e-18 7.513834116266711e-17 6.839419347319053e-18 -0.9287538200898343 -0.37069710231991837
12614808000.0 -0.9317739322664115 -0.3630390325414518 7.517792485566398e-17 6.212810247093826e-18 7.517792485566398e-17 6.212810247093826e-18 -0.9317737042639274 -0.36303961773079774
12615425333.333334 -0.9347306776269543 -0.35535694773410587 7.521228774257657e-17 5.586016277754461e-18 7.521228774257657e-17 5.586016277754461e-18 -0.934730454460033 -0.3553575347516703
12616042666.666666 -0.9376240886550796 -0.347650785089832 7.524142948878817e-17 4.959080898810516e-18 7.524142948878817e-17 4.959080898810516e-18 -0.9376238703383687 -0.3476513738956637
12616660000.0 -0.9404539693026345 -0.3399210667533931 7.52653501211239e-17 4.3320475625486245e-18 7.52653501211239e-17 4.3320475625486245e-18 -0.9404537558504507 -0.3399216573074234
12617277333.333334 -0.9432201278261185 -0.33216831646550266 7.528405002770807e-17 3.704959711014216e-18 7.528405002770807e-17 3.704959711014216e-18 -0.9432199192524481 -0.33216890872754845
12617894666.666666 -0.9459223767995973 -0.32439305952755026 7.52975299577951e-17 3.0778607730272164e-18 7.52975299577951e-17 3.0778607730272164e-18 -0.9459221731180948 -0.3243936534573167
12618512000.0 -0.9485605331274817 -0.31659582276579656 7.530579102157698e-17 2.450794161165593e-18 7.530579102157698e-17 2.450794161165593e-18 -0.9485603343514682 -0.3165964183228796
12619129333.333334 -0.951134418056855 -0.3087771344958902 7.530883468996456e-17 1.823803268785447e-18 7.530883468996456e-17 1.823803268785447e-18 -0.951134224199317 -0.30877773163977923
12619746666.666666 -0.9536438571896486 -0.30093752448688293 7.530666279434526e-17 1.1969314670115033e-18 7.530666279434526e-17 1.1969314670115033e-18 -0.953643668263241 -0.3009381231769645
12620364000.0 -0.956088680494436 -0.29307752392541575 7.529927752631462e-17 5.702221017517066e-19 7.529927752631462e-17 5.702221017517066e-19 -0.9560884965114762 -0.2930781241209751
12620981333.333334 -0.9584687223179229 -0.28519766537980784 7.528668143738422e-17 -5.628150928525678e-20 7.528668143738422e-17 -5.628150928525678e-20 -0.9584685432903925 -0.2851982670400323
12621598666.666666 -0.960783821396233 -0.27729848276378166 7.526887743866406e-17 -6.825360795907308e-19 7.526887743866406e-17 -6.825360795907308e-19 -0.9607836473357774 -0.2772990858477636
12622216000.0 -0.9630338208657695 -0.2693805113005054 7.524586880052046e-17 -1.3084983568214277e-18 7.524586880052046e-17 -1.3084983568214277e-18 -0.9630336517836953 -0.2693811157672441
12622833333.333334 -0.9652185682739042 -0.2614442874861075 7.521765915220916e-17 -1.934125125795472e-18 7.521765915220916e-17 -1.934125125795472e-18 -0.9652184041811808 -0.2614448932945133
12623450666.666666 -0.9673379155892571 -0.25349034905351914 7.518425248148415e-17 -2.559373211450486e-18 7.518425248148415e-17 -2.559373211450486e-18 -0.967337756496514 -0.2534909561624151
12624068000.0 -0.96939171921174 -0.24551923493598354 7.514565313418096e-17 -3.1841994818298088e-18 7.514565313418096e-17 -3.1841994818298088e-18 -0.9693915651292673 -0.2455198433041087
12624685333.333334 -0.9713798399823359 -0.2375314852303466 7.510186581377621e-17 -3.80856085104319e-18 7.510186581377621e-17 -3.80856085104319e-18 -0.9713796909200837 -0.2375320948163589
12625302666.666666 -0.9733021431924381 -0.22952764116082047 7.505289558092261e-17 -4.432414282223155e-18 7.505289558092261e-17 -4.432414282223155e-18 -0.9733019991600135 -0.22952825192329893
12625920000.0 -0.9751584985930579 -0.2215082450419803 7.49987478529582e-17 -5.055716790498156e-18 7.49987478529582e-17 -5.055716790498156e-18 -0.9751583595997281 -0.22150885693942868
12626537333.333334 -0.9769487804035965 -0.21347384024223984 7.493942840339301e-17 -5.678425445931095e-18 7.493942840339301e-17 -5.678425445931095e-18 -0.9769486464582866 -0.21347445323308908
12627154666.666666 -0.9786728673203923 -0.20542497114695277 7.487494336137042e-17 -6.3004973764721316e-18 7.487494336137042e-17 -6.3004973764721316e-18 -0.9786727384316832 -0.2054255851895636
12627772000.0 -0.980330642524951 -0.19736218312144185 7.480529921110166e-17 -6.921889770918995e-18 7.480529921110166e-17 -6.921889770918995e-18 -0.9803305187010815 -0.197362798174108
12628389333.333334 -0.9819219936918234 -0.18928602247424253 7.473050279128273e-17 -7.542559881816746e-18 7.473050279128273e-17 -7.542559881816746e-18 -0.9819218749406871 -0.18928663849519317
12629006666.666666 -0.9834468129962561 -0.18119703641989135 7.465056129447789e-17 -8.162465028434822e-18 7.465056129447789e-17 -8.162465028434822e-18 -0.9834466993254036 -0.1811976533672944
12629624000.0 -0.9849049971214737 -0.17309577304196022 7.456548226648658e-17 -8.78156259966395e-18 7.456548226648658e-17 -8.78156259966395e-18 -0.9849048885381094 -0.17309639087392473
12630241333.333334 -0.9862964472656954 -0.16498278125583613 7.447527360568284e-17 -9.39981005694325e-18 7.447527360568284e-17 -9.39981005694325e-18 -0.9862963437766793 -0.16498339993041547
12630858666.666666 -0.9876210691487861 -0.15685861077178045 7.437994356233102e-17 -1.0017164937174813e-17 7.437994356233102e-17 -1.0017164937174813e-17 -0.987620970760631 -0.15685923024697468
12631476000.0 -0.9888787730187247 -0.14872381205720595 7.427950073787484e-17 -1.0633584855648754e-17 7.427950073787484e-17 -1.0633584855648754e-17 -0.9888786797375979 -0.1487244322909652
12632093333.333334 -0.9900694736576084 -0.14057893629982698 7.417395408420995e-17 -1.1249027508911053e-17 7.417395408420995e-17 -1.1249027508911053e-17 -0.9900693854893318 -0.14057955725005428
12632710666.666666 -0.9911930903874504 -0.13242453537023033 7.406331290292408e-17 -1.1863450677683838e-17 7.406331290292408e-17 -1.1863450677683838e-17 -0.991193007337497 -0.13242515699478402
12633328000.0 -0.9922495470756802 -0.12426116178417125 7.394758684451566e-17 -1.2476812229757401e-17 7.394758684451566e-17 -1.2476812229757401e-17 -0.9922494691491778 -0.1242617840408683
12633945333.333334 -0.9932387721402623 -0.11608936866547523 7.382678590759409e-17 -1.3089070122845791e-17 7.382678590759409e-17 -1.3089070122845791e-17 -0.9932386993419894 -0.1160899915120938
12634562666.666666 -0.9941606985545501 -0.10790970970850369 7.370092043804818e-17 -1.3700182407483346e-17 7.370092043804818e-17 -1.3700182407483346e-17 -0.9941606308889377 -0.1079103331027861
12635180000.0 -0.9950152638518476 -0.09972273914049654 7.357000112819567e-17 -1.4310107229882163e-17 7.357000112819567e-17 -1.4310107229882163e-17 -0.9950152013229784 -0.0997233630401521
12635797333.333334 -0.9958024101296307 -0.09152901168407546 7.343403901590923e-17 -1.4918802834786076e-17 7.343403901590923e-17 -1.4918802834786076e-17 -0.9958023527412393 -0.09152963604678344
12636414666.666666 -0.9965220840534559 -0.0833290825198563 7.329304548371697e-17 -1.552622756832508e-17 7.329304548371697e-17 -1.552622756832508e-17 -0.9965220318089293 -0.08332970730326876
12637032000.0 -0.9971742368606052 -0.07512350724849205 7.314703225787918e-17 -1.6132339880861543e-17 7.314703225787918e-17 -1.6132339880861543e-17 -0.9971741897629793 -0.0751241324102366
12637649333.333334 -0.9977588243633684 -0.0669128418532251 7.299601140744364e-17 -1.673709832981983e-17 7.299601140744364e-17 -1.673709832981983e-17 -0.997758782415331 -0.06691346735090786
12638266666.666666 -0.9982758069520352 -0.05869764266227238 7.283999534327812e-17 -1.734046158250531e-17 7.283999534327812e-17 -1.734046158250531e-17 -0.9982757701559262 -0.05869826845348096
12638884000.0 -0.9987251495975947 -0.05047846631096055 7.267899681707546e-17 -1.794238841893343e-17 7.267899681707546e-17 -1.794238841893343e-17 -0.9987251179554035 -0.05047909235326674
12639501333.333334 -0.9991068218540989 -0.0422558697040665 7.251302892033879e-17 -1.8542837734633086e-17 7.251302892033879e-17 -1.8542837734633086e-17 -0.999106795367466 -0.04225649595502924
12640118666.666666 -0.9994207978607166 -0.034030409978339005 7.234210508334811e-17 -1.9141768543426794e-17 7.234210508334811e-17 -1.9141768543426794e-17 -0.9994207765309328 -0.03403103639550724
12640736000.0 -0.999667056343512 -0.02580264446412417 7.216623907408655e-17 -1.97391399802651e-17 7.216623907408655e-17 -1.97391399802651e-17 -0.9996670401715188 -0.02580327100503973
12641353333.333334 -0.9998455806168574 -0.017573130648369375 7.19854449971712e-17 -2.03349113039511e-17 7.19854449971712e-17 -2.03349113039511e-17 -0.9998455696032462 -0.017573757270569857
12641970666.666666 -0.9999563585845791 -0.009342426136338454 7.179973729273554e-17 -2.0929041899947457e-17 7.179973729273554e-17 -2.0929041899947457e-17 -0.9999563527295935 -0.0093430527973601
12642588000.0 -0.9999993827407777 -0.001111088613915408 7.160913073530134e-17 -2.1521491283128502e-17 7.160913073530134e-17 -2.1521491283128502e-17 -0.9999993820443098 -0.0011117152712959676
12643205333.333334 -0.9999746501703303 0.007120324189983714 7.14136404326274e-17 -2.2112219100526542e-17 7.14136404326274e-17 -2.2112219100526542e-17 -0.999974654631923 0.0071196975787020935
12643822666.666666 -0.9998821625490907 0.01535125454151331 7.121328182453344e-17 -2.27011851340739e-17 7.121328182453344e-17 -2.27011851340739e-17 -0.9998821721679382 0.015350628018781204
12644440000.0 -0.9997219261437755 0.02358114473946108 7.100807068170156e-17 -2.328834930333472e-17 7.100807068170156e-17 -2.328834930333472e-17 -0.9997219409187228 0.02358051834771894
12645057333.333334 -0.9994939518115432 0.03180943715297932 7.079802310445785e-17 -2.38736716682179e-17 7.079802310445785e-17 -2.38736716682179e-17 -0.9994939717410853 0.03180881093465454
12645674666.666666 -0.9991982549992541 0.04003557425953859 7.058315552152869e-17 -2.445711243168959e-17 7.058315552152869e-17 -2.445711243168959e-17 -0.9991982800815368 0.04003494825704268
12646292000.0 -0.9988348557424183 0.04825899868281725 7.036348468877338e-17 -2.503863194247647e-17 7.036348468877338e-17 -2.503863194247647e-17 -0.99883488597524 0.04825837293854301
12646909333.333334 -0.9984037786638557 0.0564791532300131 7.013902768790263e-17 -2.561819069773811e-17 7.013902768790263e-17 -2.561819069773811e-17 -0.9984038140446649 0.056478527786331646
12647526666.666666 -0.9979050529720122 0.06469548093005141 6.990980192516407e-17 -2.6195749345755777e-17 6.990980192516407e-17 -2.6195749345755777e-17 -0.9979050934979088 0.06469485582930934
12648144000.0 -0.997338712458978 0.07290742507120954 6.967582513001444e-17 -2.6771268688587956e-17 6.967582513001444e-17 -2.6771268688587956e-17 -0.997338758126714 0.07290680035572612
12648761333.333334 -0.9967047954982131 0.08111442923863957 6.943711535376508e-17 -2.7344709684725996e-17 6.943711535376508e-17 -2.7344709684725996e-17 -0.9967048463041929 0.08111380495070385
12649378666.666666 -0.9960033450419412 0.08931593735223953 6.919369096821004e-17 -2.7916033451728227e-17 6.919369096821004e-17 -2.7916033451728227e-17 -0.9960034009822202 0.08931531353410742
12649996000.0 -0.9952344086182279 0.09751139370438792 6.894557066422822e-17 -2.84852012688517e-17 6.894557066422822e-17 -2.84852012688517e-17 -0.9952344696885149 0.09751077039827936
12650613333.333334 -0.9943980383277766 0.10570024299742675 6.869277345036315e-17 -2.905217457967373e-17 6.869277345036315e-17 -2.905217457967373e-17 -0.9943981045234338 0.10569962024552303
12651230666.666666 -0.9934942908403968 0.11388193038134373 6.843531865138977e-17 -2.9616914994681446e-17 6.843531865138977e-17 -2.9616914994681446e-17 -0.9934943621564388 0.11388130822578428
12651848000.0 -0.9925232273911411 0.1220559014915647 6.817322590684836e-17 -3.017938429387631e-17 6.817322590684836e-17 -3.017938429387631e-17 -0.9925233038222354 0.12205527997444447
12652465333.333334 -0.9914849137761894 0.13022160248617626 6.790651516956498e-17 -3.0739544429346036e-17 6.790651516956498e-17 -3.0739544429346036e-17 -0.9914849953166586 0.13022098164954285
12653082666.666666 -0.9903794203483797 0.13837848008362236 6.76352067041519e-17 -3.129735752782406e-17 6.76352067041519e-17 -3.129735752782406e-17 -0.9903795069922003 0.13837785996947324
12653700000.0 -0.9892068220124075 0.14652598160038965 6.73593210854775e-17 -3.185278589325491e-17 6.73593210854775e-17 -3.185278589325491e-17 -0.9892069137532123 0.1465253622506693
12654317333.333334 -0.9879671982198227 0.15466355498797726 6.707887919712894e-17 -3.240579200931766e-17 6.707887919712894e-17 -3.240579200931766e-17 -0.9879672950508973 0.15466293644457396
12654934666.666666 -0.9866606329635719 0.16279064887077946 6.679390222984063e-17 -3.295633854196461e-17 6.679390222984063e-17 -3.295633854196461e-17 -0.9866607348778592 0.1627900311755231
12655552000.0 -0.9852872147723434 0.1709067125832208 6.650441167991078e-17 -3.350438834192721e-17 6.650441167991078e-17 -3.350438834192721e-17 -0.9852873217624426 0.17090609577787963
12656169333.333334 -0.9838470367045787 0.17901119620701106 6.62104293475982e-17 -3.4049904447208474e-17 6.62104293475982e-17 -3.4049904447208474e-17 -0.9838471487627459 0.17901058033328895
12656786666.666666 -0.9823401963421331 0.18710355060860215 6.591197733548848e-17 -3.459285008558017e-17 6.591197733548848e-17 -3.459285008558017e-17 -0.9823403134602804 0.18710293570813566
12657404000.0 -0.9807667957837019 0.1951832274761715 6.560907804685476e-17 -3.513318867703773e-17 6.560907804685476e-17 -3.513318867703773e-17 -0.9807669179534025 0.19518261359052766
12658021333.333334 -0.9791269416378675 0.20324967935699864 6.530175418398268e-17 -3.5670883836270916e-17 6.530175418398268e-17 -3.5670883836270916e-17 -0.9791270688503487 0.20324906652767083
12658638666.666666 -0.977420745015908 0.21130235969433322 6.499002874649103e-17 -3.620589937509022e-17 6.499002874649103e-17 -3.620589937509022e-17 -0.9774208772620607 0.21130174796274012
12659256000.0 -0.975648321524241 0.21934072286462564 6.467392502961715e-17 -3.6738199304866307e-17 6.467392502961715e-17 -3.6738199304866307e-17 -0.9756484587946135 0.21934011227210698
12659873333.333334 -0.973809791256601 0.22736422421441158 6.435346662249368e-17 -3.726774783893674e-17 6.435346662249368e-17 -3.726774783893674e-17 -0.9738099335414022 0.2273636148022259
12660490666.666666 -0.971905278785921 0.23537232009713285 6.402867740640573e-17 -3.77945093949955e-17 6.402867740640573e-17 -3.77945093949955e-17 -0.9719054260750222 0.23537171190645492
12661108000.0 -0.9699349131558505 0.24336446791016778 6.369958155301176e-17 -3.831844859749662e-17 6.369958155301176e-17 -3.831844859749662e-17 -0.9699350654387838 0.24336386098208546
12661725333.333334 -0.9678988278720615 0.25134012613137424 6.336620352257793e-17 -3.8839530279988575e-17 6.336620352257793e-17 -3.8839530279988575e-17 -0.9678989851380224 0.25133952050688596
12662342666.666666 -0.965797160893151 0.2592987543560031 6.302856806215458e-17 -3.935771948749626e-17 6.302856806215458e-17 -3.935771948749626e-17 -0.9657973231309983 0.2592981500760147
12662960000.0 -0.9636300546213471 0.2672398133330929 6.268670020376084e-17 -3.987298147884211e-17 6.268670020376084e-17 -3.987298147884211e-17 -0.9636302218196031 0.2672392104384153
12663577333.333334 -0.9613976558928098 0.2751627650022007 6.234062526254424e-17 -4.0385281728962945e-17 6.234062526254424e-17 -4.0385281728962945e-17 -0.9613978280396636 0.27516216353354733
12664194666.666666 -0.9591001159677066 0.2830670725297774 6.19903688349121e-17 -4.0894585931224745e-17 6.19903688349121e-17 -4.0894585931224745e-17 -0.9591002930510112 0.28306647252776057
12664812000.0 -0.9567375905199826 0.29095220034545877 6.163595679665433e-17 -4.14008599997056e-17 6.163595679665433e-17 -4.14008599997056e-17 -0.9567377725272597 0.29095160185058777
12665429333.333334 -0.954310239626762 0.2988176141785462 6.127741530104653e-17 -4.190407007146413e-17 6.127741530104653e-17 -4.190407007146413e-17 -0.9543104265451989 0.29881701723122406
12666046666.666666 -0.9518182277575628 0.3066627810939883 6.091477077693169e-17 -4.240418250879739e-17 6.091477077693169e-17 -4.240418250879739e-17 -0.9518184195740166 0.3066621857345095
12666664000.0 -0.9492617237630875 0.3144871695287088 6.054804992677416e-17 -4.2901163901493555e-17 6.054804992677416e-17 -4.2901163901493555e-17 -0.9492619204640845 0.3144865757972562
12667281333.333334 -0.9466409008638517 0.32229024932740646 6.017727972472663e-17 -4.339498106902565e-17 6.017727972472663e-17 -4.339498106902565e-17 -0.9466411024355887 0.3222896572640487
12667898666.666666 -0.9439559366383852 0.3300714917786663 5.980248741463836e-17 -4.3885601062784935e-17 5.980248741463836e-17 -4.3885601062784935e-17 -0.9439561430667309 0.3300709014233554
12668516000.0 -0.9412070130112268 0.33783036965070207 5.94237005080687e-17 -4.4372991168264567e-17 5.94237005080687e-17 -4.4372991168264567e-17 -0.9412072242817209 0.33782978104326994
12669133333.333334 -0.9383943162406243 0.3455663572269992 5.90409467822946e-17 -4.485711890721148e-17 5.90409467822946e-17 -4.485711890721148e-17 -0.93839453233848 0.34556577040715536
12669750666.666666 -0.9355180369058486 0.3532789303421226 5.865425427826519e-17 -4.5337952039808216e-17 5.865425427826519e-17 -4.5337952039808216e-17 -0.9355182578159543 0.3532783453494522
