! Parameters = {f0=12700.012000; bw=77.238000; Q=6100.000000; N=10; m_0_1=1.188283; m_1_1=-0.940496; m_1_2=1.023095; m_2_2=-0.941145; m_2_3=0.660058; m_2_8=-0.003522; m_2_9=0.033182; m_3_3=-0.943082; m_3_4=0.548587; m_3_7=-0.002922; m_3_8=-0.100010; m_3_9=-0.003522; m_4_4=-0.946007; m_4_5=0.384922; m_4_6=0.000595; m_4_7=-0.120559; m_4_8=-0.002922; m_5_5=-0.945625; m_5_6=0.792277; m_5_7=0.000595; m_6_6=-0.945626; m_6_7=0.385264; m_7_7=-0.945993; m_7_8=0.548705; m_8_8=-0.943084; m_8_9=0.660371; m_9_9=-0.941150; m_9_10=1.024173; m_10_10=-0.940506; m_10_11=1.189078}
!
! Created with skrf (http://scikit-rf.org).
# Hz S RI R 50.0 
!freq ReS11 ImS11 ReS21 ImS21 ReS12 ImS12 ReS22 ImS22
12607400000.0 0.9913830131774496 -0.13099511892832938 -6.758824570969907e-17 3.0132950350815505e-17 -6.758824570969907e-17 3.0132950350815505e-17 0.9913830952062467 -0.13099449812540667
12608017333.333334 0.9902884431449168 -0.13902805246950467 -6.732582280640685e-17 3.0679866347315385e-17 -6.732582280640685e-17 3.0679866347315385e-17 0.9902885301996647 -0.1390274323823668
12608634666.666666 0.9891287853106887 -0.14705184823608103 -6.705897923331802e-17 3.122450681318971e-17 -6.705897923331802e-17 3.122450681318971e-17 0.9891288773851735 -0.14705122890541183
12609252000.0 0.9879041158946081 -0.15506597885525342 -6.678773464559492e-17 3.176683605718783e-17 -6.678773464559492e-17 3.176683605718783e-17 0.987904212982287 -0.15506536032168308
12609869333.333334 0.9866145153894759 -0.16306991758947 -6.651210898622426e-17 3.230681855723928e-17 -6.651210898622426e-17 3.230681855723928e-17 0.9866146174834762 -0.16306929989357208
12610486666.666666 0.9852600685557755 -0.17106313837093995 -6.623212248457002e-17 3.2844418962762535e-17 -6.623212248457002e-17 3.2844418962762535e-17 0.9852601756488977 -0.1710625215532293
12611104000.0 0.9838408644160568 -0.17904511583651897 -6.594779565489316e-17 3.3379602096991767e-17 -6.594779565489316e-17 3.3379602096991767e-17 0.9838409765007728 -0.1790444999374486
12611721333.333334 0.9823569962491477 -0.18701532536184665 -6.565914929487631e-17 3.391233295924389e-17 -6.565914929487631e-17 3.391233295924389e-17 0.982357113317603 -0.1870147104218054
12612338666.666666 0.980808561583978 -0.19497324309610864 -6.536620448410567e-17 3.4442576727219694e-17 -6.536620448410567e-17 3.4442576727219694e-17 0.9808086836279893 -0.19497262915541808
12612956000.0 0.9791956621931611 -0.20291834599646566 -6.506898258255058e-17 3.4970298759262274e-17 -6.506898258255058e-17 3.4970298759262274e-17 0.9791957892042217 -0.2029177330953781
12613573333.333334 0.9775184040863644 -0.21085011186218205 -6.476750522901811e-17 3.549546459661569e-17 -6.476750522901811e-17 3.549546459661569e-17 0.977518536055638 -0.21084950004087694
12614190666.666666 0.9757768975032733 -0.2187680193692244 -6.446179433959484e-17 3.6018039965658924e-17 -6.446179433959484e-17 3.6018039965658924e-17 0.9757770344216031 -0.21876740866780706
12614808000.0 0.9739712569063865 -0.22667154810438908 -6.415187210606117e-17 3.653799078014538e-17 -6.415187210606117e-17 3.653799078014538e-17 0.973971398764289 -0.22667093856288686
12615425333.333334 0.9721016009734723 -0.234560178599561 -6.383776099429786e-17 3.705528314341038e-17 -6.383776099429786e-17 3.705528314341038e-17 0.9721017477611408 -0.23455957025792123
12616042666.666666 0.9701680525897984 -0.24243339236574646 -6.351948374266925e-17 3.756988335057411e-17 -6.351948374266925e-17 3.756988335057411e-17 0.9701682042971028 -0.2424327852638336
12616660000.0 0.9681707388400138 -0.2502906719273167 -6.319706336039041e-17 3.8081757890729375e-17 -6.319706336039041e-17 3.8081757890729375e-17 0.9681708954565023 -0.25029006610491
12617277333.333334 0.9661097909998159 -0.25813150085593684 -6.287052312587517e-17 3.8590873449116777e-17 -6.287052312587517e-17 3.8590873449116777e-17 0.9661099525147142 -0.25813089635272735
12617894666.666666 0.9639853445273509 -0.26595536380439855 -6.25398865850738e-17 3.909719690927568e-17 -6.25398865850738e-17 3.909719690927568e-17 0.963985510929565 -0.26595476065998697
12618512000.0 0.9617975390542332 -0.2737617465407946 -6.220517754977521e-17 3.9600695355209056e-17 -6.220517754977521e-17 3.9600695355209056e-17 0.9617977103323481 -0.2737611447946883
12619129333.333334 0.959546518376468 -0.28155013598193257 -6.186642009592028e-17 4.010133607349005e-17 -6.186642009592028e-17 4.010133607349005e-17 0.9595466945187492 -0.281549535673543
12619746666.666666 0.9572324304449268 -0.2893200202273319 -6.152363856187074e-17 4.059908655539616e-17 -6.152363856187074e-17 4.059908655539616e-17 0.9572326114393226 -0.2893194213959728
12620364000.0 0.9548554273556229 -0.29707088859286945 -6.117685754667274e-17 4.1093914499011643e-17 -6.117685754667274e-17 4.1093914499011643e-17 0.9548556131897621 -0.29707029127775286
12620981333.333334 0.9524156653397836 -0.3048022316440983 -6.082610190831384e-17 4.1585787811299177e-17 -6.082610190831384e-17 4.1585787811299177e-17 0.9524158560009802 -0.3048016358843334
12621598666.666666 0.9499133047535065 -0.31251354123000485 -6.047139676194136e-17 4.20746746101899e-17 -6.047139676194136e-17 4.20746746101899e-17 0.9499135002287564 -0.3125129470645943
12622216000.0 0.9473485100672444 -0.32020431051629644 -6.011276747808146e-17 4.256054322663246e-17 -6.011276747808146e-17 4.256054322663246e-17 0.9473487103432304 -0.32020371798413483
12622833333.333334 0.944721449855031 -0.32787403401863535 -5.97502396808339e-17 4.304336220663905e-17 -5.97502396808339e-17 4.304336220663905e-17 0.94472165491812 -0.3278734431585056
12623450666.666666 0.9420322967833311 -0.33552220763604884 -5.93838392460574e-17 4.3523100313305975e-17 -5.93838392460574e-17 4.3523100313305975e-17 0.9420325066195775 -0.3355216184866204
12624068000.0 0.9392812275997783 -0.3431483286838208 -5.901359229952687e-17 4.399972652883582e-17 -5.901359229952687e-17 4.399972652883582e-17 0.9392814421949244 -0.3431477412836469
12624685333.333334 0.9364684231214441 -0.35075189592685263 -5.863952521508639e-17 4.447321005652702e-17 -5.863952521508639e-17 4.447321005652702e-17 0.9364686424609204 -0.3507513103143679
12625302666.666666 0.9335940682230991 -0.358332409612207 -5.8261664612781e-17 4.4943520322756786e-17 -5.8261664612781e-17 4.4943520322756786e-17 0.9335942922920255 -0.3583318258257244
12625920000.0 0.9306583518249005 -0.36588937150237966 -5.788003735697132e-17 4.5410626978947375e-17 -5.788003735697132e-17 4.5410626978947375e-17 0.9306585806080887 -0.3658887895800892
12626537333.333334 0.9276614668801204 -0.37342228490767626 -5.749467055443925e-17 4.5874499903510944e-17 -5.749467055443925e-17 4.5874499903510944e-17 0.9276617003620731 -0.37342170488764115
12627154666.666666 0.9246036103624014 -0.38093065471901677 -5.710559155247174e-17 4.63351092037843e-17 -5.710559155247174e-17 4.63351092037843e-17 0.9246038485273141 -0.38093007663917167
12627772000.0 0.9214849832527459 -0.3884139874406343 -5.671282793692152e-17 4.679242521795714e-17 -5.671282793692152e-17 4.679242521795714e-17 0.9214852260845071 -0.38841341133878227
12628389333.333334 0.9183057905264553 -0.3958717912221427 -5.631640753028097e-17 4.724641851695075e-17 -5.631640753028097e-17 4.724641851695075e-17 0.9183060380086501 -0.3958712171359538
12629006666.666666 0.915066241139498 -0.4033035758912581 -5.591635838970132e-17 4.7697059906326326e-17 -5.591635838970132e-17 4.7697059906326326e-17 0.9150664932554055 -0.40330300385826545
12629624000.0 0.9117665480148814 -0.41070885298575316 -5.551270880503242e-17 4.8144320428135604e-17 -5.551270880503242e-17 4.8144320428135604e-17 0.9117668047474788 -0.41070828304335166
12630241333.333334 0.9084069280286383 -0.418087135785615 -5.510548729682453e-17 4.858817136278183e-17 -5.510548729682453e-17 4.858817136278183e-17 0.908407189360601 -0.4180865679710586
12630858666.666666 0.9049876019955723 -0.4254379393450353 -5.469472261433168e-17 4.9028584230845106e-17 -5.469472261433168e-17 4.9028584230845106e-17 0.9049878679092757 -0.4254373736954346
12631476000.0 0.9015087946546617 -0.4327607805244652 -5.428044373347697e-17 4.946553079491733e-17 -5.428044373347697e-17 4.946553079491733e-17 0.9015090651321814 -0.4327602170767848
12632093333.333334 0.8979707346544316 -0.4400551780220602 -5.386267985483704e-17 4.989898306138309e-17 -5.386267985483704e-17 4.989898306138309e-17 0.897971009677544 -0.4400546168131157
12632710666.666666 0.8943736545378517 -0.4473206524054683 -5.3441460401585724e-17 5.0328913282212935e-17 -5.3441460401585724e-17 5.0328913282212935e-17 0.8943739340880376 -0.4473200934719254
12633328000.0 0.8907177907269934 -0.4545567261434705 -5.3016815017424215e-17 5.075529395673731e-17 -5.3016815017424215e-17 5.075529395673731e-17 0.8907180747854375 -0.4545561695218415
12633945333.333334 0.8870033835076008 -0.4617629236371357 -5.258877356451834e-17 5.117809783338283e-17 -5.258877356451834e-17 5.117809783338283e-17 0.8870036720551933 -0.46176236936377757
12634562666.666666 0.8832306770132329 -0.46893877125120764 -5.2157366121400684e-17 5.159729791141126e-17 -5.2157366121400684e-17 5.159729791141126e-17 0.8832309700305709 -0.4689382193623192
12635180000.0 0.8793999192092359 -0.47608379734521106 -5.172262298086878e-17 5.201286744263302e-17 -5.172262298086878e-17 5.201286744263302e-17 0.8794002166766246 -0.47608324787683104
12635797333.333334 0.8755113618764256 -0.48319753230447365 -5.128457464786601e-17 5.242477993310525e-17 -5.128457464786601e-17 5.242477993310525e-17 0.8755116637738799 -0.48319698529247823
12636414666.666666 0.8715652605945978 -0.4902795085708942 -5.0843251837357016e-17 5.283300914480528e-17 -5.0843251837357016e-17 5.283300914480528e-17 0.8715655669018425 -0.49027896405099425
12637032000.0 0.8675618747256462 -0.49732926067382155 -5.03986854721731e-17 5.3237529097302027e-17 -5.03986854721731e-17 5.3237529097302027e-17 0.8675621854221189 -0.49732871868156087
12637649333.333334 0.8635014673965546 -0.504346325260573 -4.995090668086715e-17 5.363831406938784e-17 -4.995090668086715e-17 5.363831406938784e-17 0.8635017824614075 -0.5043457858313263
12638266666.666666 0.8593843054821502 -0.5113302411268166 -4.949994679553303e-17 5.403533860071387e-17 -4.949994679553303e-17 5.403533860071387e-17 0.8593846248942495 -0.5113297042957866
12638884000.0 0.855210659587474 -0.5182805492470315 -4.904583734962895e-17 5.442857749339187e-17 -4.904583734962895e-17 5.442857749339187e-17 0.8552109833254014 -0.5182800150492456
12639501333.333334 0.8509808040300363 -0.5251967928046017 -4.858861007577842e-17 5.481800581358539e-17 -4.858861007577842e-17 5.481800581358539e-17 0.8509811320720927 -0.5251962612749123
12640118666.666666 0.8466950168218652 -0.5320785172217231 -4.812829690357197e-17 5.520359889307269e-17 -4.812829690357197e-17 5.520359889307269e-17 0.8466953491460704 -0.5320779883948029
12640736000.0 0.8423535796509932 -0.5389252701896661 -4.7664929957321356e-17 5.558533233082041e-17 -4.7664929957321356e-17 5.558533233082041e-17 0.8423539162350872 -0.5389247441000071
12641353333.333334 0.8379567778633021 -0.545736601697925 -4.7198541553865017e-17 5.59631819944849e-17 -4.7198541553865017e-17 5.59631819944849e-17 0.8379571186847474 -0.5457360783798358
12641970666.666666 0.833504900443453 -0.5525120640643018 -4.6729164200290044e-17 5.633712402195548e-17 -4.6729164200290044e-17 5.633712402195548e-17 0.8335052454794368 -0.5525115435519066
12642588000.0 0.8289982399960457 -0.5592512119640912 -4.625683059169159e-17 5.67071348228373e-17 -4.625683059169159e-17 5.67071348228373e-17 0.8289985892234787 -0.5592506942913246
12643205333.333334 0.824437092726368 -0.565953602459372 -4.5781573608902904e-17 5.707319107993011e-17 -4.5781573608902904e-17 5.707319107993011e-17 0.8244374461218887 -0.5659530876599796
12643822666.666666 0.8198217584208505 -0.5726187950282384 -4.5303426316209124e-17 5.743526975069217e-17 -4.5303426316209124e-17 5.743526975069217e-17 0.8198221159608255 -0.5726182831357741
12644440000.0 0.8151525404275058 -0.5792463515935433 -4.482242195906392e-17 5.779334806867306e-17 -4.482242195906392e-17 5.779334806867306e-17 0.8151529020880318 -0.5792458426413657
12645057333.333334 0.8104297456358959 -0.5858358365518312 -4.4338593961785626e-17 5.814740354493583e-17 -4.4338593961785626e-17 5.814740354493583e-17 0.8104301113928014 -0.5858353305731034
12645674666.666666 0.805653684456944 -0.5923868168019929 -4.3851975925243396e-17 5.849741396945807e-17 -4.3851975925243396e-17 5.849741396945807e-17 0.8056540542857906 -0.5923863138296789
12646292000.0 0.800824670802563 -0.5988988617736822 -4.336260162452104e-17 5.884335741252264e-17 -4.336260162452104e-17 5.884335741252264e-17 0.8008250446786471 -0.5988983618405457
12646909333.333334 0.7959430220650786 -0.6053715434555514 -4.28705050066033e-17 5.918521222606438e-17 -4.28705050066033e-17 5.918521222606438e-17 0.795943399963432 -0.6053710465941519
12647526666.666666 0.7910090590962783 -0.6118044364234929 -4.237572018801313e-17 5.952295704502547e-17 -4.237572018801313e-17 5.952295704502547e-17 0.7910094409916718 -0.6118039426661858
12648144000.0 0.7860231061863263 -0.6181971178686021 -4.1878281452455084e-17 5.985657078867914e-17 -4.1878281452455084e-17 5.985657078867914e-17 0.7860234920532705 -0.6181966272475357
12648761333.333334 0.7809854910425162 -0.6245491676248763 -4.1378223248464016e-17 6.018603266192308e-17 -4.1378223248464016e-17 6.018603266192308e-17 0.7809858808552638 -0.6245486801719895
12649378666.666666 0.7758965447677355 -0.6308601681968325 -4.08755801870094e-17 6.051132215657701e-17 -4.08755801870094e-17 6.051132215657701e-17 0.7758969385002811 -0.6308596839438527
12649996000.0 0.7707566018386115 -0.6371297047870565 -4.037038703912366e-17 6.083241905263659e-17 -4.037038703912366e-17 6.083241905263659e-17 0.7707569994646953 -0.6371292237654983
12650613333.333334 0.7655660000835836 -0.6433573653234018 -3.9862678733491897e-17 6.114930341952752e-17 -3.9862678733491897e-17 6.114930341952752e-17 0.7655664015766919 -0.6433568875645631
12651230666.666666 0.7603250806607689 -0.6495427404859833 -3.935249035406128e-17 6.146195561732076e-17 -3.935249035406128e-17 6.146195561732076e-17 0.7603254859941374 -0.6495422660209458
12651848000.0 0.755034188035342 -0.6556854237343228 -3.883985713760573e-17 6.177035629794905e-17 -3.883985713760573e-17 6.177035629794905e-17 0.7550345971819562 -0.6556849525939481
12652465333.333334 0.7496936699571292 -0.6617850113337844 -3.832481447131668e-17 6.207448640638217e-17 -3.832481447131668e-17 6.207448640638217e-17 0.7496940828897268 -0.661784543548713
12653082666.666666 0.7443038774376468 -0.667841102382244 -3.780739789036902e-17 6.237432718179198e-17 -3.780739789036902e-17 6.237432718179198e-17 0.7443042941287186 -0.6678406379828922
12653700000.0 0.7388651647269124 -0.6738532988365633 -3.7287643075459847e-17 6.266986015870737e-17 -3.7287643075459847e-17 6.266986015870737e-17 0.738865585148706 -0.6738528378531224
12654317333.333334 0.7333778892904107 -0.6798212055384769 -3.676558585038154e-17 6.296106716812392e-17 -3.676558585038154e-17 6.296106716812392e-17 0.7333783134149304 -0.679820748000911
12654934666.666666 0.7278424117854074 -0.6857444302407774 -3.6241262179542993e-17 6.324793033861829e-17 -3.6241262179542993e-17 6.324793033861829e-17 0.7278428395844172 -0.6857439761788203
12655552000.0 0.7222590960372423 -0.6916225836330911 -3.5714708165500496e-17 6.353043209743162e-17 -3.5714708165500496e-17 6.353043209743162e-17 0.7222595274822677 -0.6916221330762469
12656169333.333334 0.7166283090155937 -0.6974552793672851 -3.5185960046496526e-17 6.380855517152374e-17 -3.5185960046496526e-17 6.380855517152374e-17 0.7166287440779231 -0.6974548323448231
12656786666.666666 0.7109504208101627 -0.7032421340830618 -3.465505419395593e-17 6.408228258862563e-17 -3.465505419395593e-17 6.408228258862563e-17 0.7109508594608495 -0.703241690624017
12657404000.0 0.7052258046064472 -0.7089827674330572 -3.412202711000143e-17 6.435159767825642e-17 -3.412202711000143e-17 6.435159767825642e-17 0.7052262468163117 -0.708982327566227
12658021333.333334 0.6994548366611729 -0.714676802107876 -3.3586915424948574e-17 6.461648407272671e-17 -3.3586915424948574e-17 6.461648407272671e-17 0.6994552824008048 -0.7146763658618196
12658638666.666666 0.6936378962776646 -0.7203238638607933 -3.304975589480588e-17 6.487692570811445e-17 -3.304975589480588e-17 6.487692570811445e-17 0.6936383455174249 -0.7203234312638291
12659256000.0 0.6877753657806961 -0.7259235815325729 -3.2510585398739996e-17 6.513290682523416e-17 -3.2510585398739996e-17 6.513290682523416e-17 0.6877758184907168 -0.7259231526127756
12659873333.333334 0.6818676304916194 -0.7314755870755979 -3.196944093656838e-17 6.538441197056744e-17 -3.196944093656838e-17 6.538441197056744e-17 0.6818680866418099 -0.7314751618608002
12660490666.666666 0.6759150787029258 -0.7369795155781902 -3.1426359626226834e-17 6.563142599718239e-17 -3.1426359626226834e-17 6.563142599718239e-17 0.6759155382629706 -0.7369790940959763
12661108000.0 0.6699181016525928 -0.7424350052887019 -3.088137870122021e-17 6.587393406563573e-17 -3.088137870122021e-17 6.587393406563573e-17 0.6699185645919545 -0.7424345875664075
12661725333.333334 0.6638770934986412 -0.7478416976390416 -3.033453550809306e-17 6.611192164484244e-17 -3.033453550809306e-17 6.611192164484244e-17 0.663877559786566 -0.7478412837037557
12662342666.666666 0.6577924512930033 -0.7531992372684594 -2.978586750386519e-17 6.634537451293676e-17 -2.978586750386519e-17 6.634537451293676e-17 0.6577929208985184 -0.753198827147017
12662960000.0 0.6516645749555264 -0.7585072720468016 -2.923541225348156e-17 6.657427875810288e-17 -2.923541225348156e-17 6.657427875810288e-17 0.6516650478474443 -0.758506865765785
12663577333.333334 0.645493867247668 -0.763765453097675 -2.8683207427246564e-17 6.679862077938867e-17 -2.8683207427246564e-17 6.679862077938867e-17 0.6454943433945887 -0.763765050683412
12664194666.666666 0.639280733746025 -0.7689734348213799 -2.81292907982542e-17 6.701838728749771e-17 -2.81292907982542e-17 6.701838728749771e-17 0.6392812131163371 -0.7689730362999414
12664812000.0 0.6330255828156747 -0.7741308749176218 -2.7573700239812153e-17 6.723356530555965e-17 -2.7573700239812153e-17 6.723356530555965e-17 0.6330260653775585 -0.7741304803148199
12665429333.333334 0.626728825583314 -0.779237434408029 -2.7016473722858377e-17 6.744414216988021e-17 -2.7016473722858377e-17 6.744414216988021e-17 0.6267293113047427 -0.7792370437494159
12666046666.666666 0.6203908759103255 -0.7842927776583599 -2.6457649313383662e-17 6.765010553066564e-17 -2.6457649313383662e-17 6.765010553066564e-17 0.6203913647590683 -0.7842923909692271
12666664000.0 0.6140121503654216 -0.7892965724006902 -2.5897265169818e-17 6.785144335273741e-17 -2.5897265169818e-17 6.785144335273741e-17 0.6140126423090448 -0.7892961897060643
12667281333.333334 0.6075930681974415 -0.7942484897551056 -2.5335359540459877e-17 6.804814391620707e-17 -2.5335359540459877e-17 6.804814391620707e-17 0.6075935632033117 -0.7942481110797494
12667898666.666666 0.6011340513076636 -0.7991482042514282 -2.4771970760854386e-17 6.824019581714751e-17 -2.4771970760854386e-17 6.824019581714751e-17 0.6011345493429487 -0.7991478296198369
12668516000.0 0.5946355242220508 -0.8039953938506206 -2.4207137251185623e-17 6.842758796823501e-17 -2.4207137251185623e-17 6.842758796823501e-17 0.5946360252537236 -0.8039950232870227
12669133333.333334 0.5880979140635519 -0.8087897399657997 -2.3640897513682098e-17 6.861030959936417e-17 -2.3640897513682098e-17 6.861030959936417e-17 0.588098418058391 -0.8087893734941528
12669750666.666666 0.5815216505238041 -0.8135309274833491 -2.307329012998057e-17 6.878835025825389e-17 -2.307329012998057e-17 6.878835025825389e-17 0.5815221574483964 -0.8135305651273398
12670368000.0 0.5749071658349778 -0.8182186447835575 -2.250435375851287e-17 6.896169981102236e-17 -2.250435375851287e-17 6.896169981102236e-17 0.5749076756557215 -0.8182182865666003
