! Parameters = {f0=12700.012000; bw=77.238000; Q=6100.000000; N=10; m_0_1=1.175270; m_1_1=-1.135692; m_1_2=1.010082; m_2_2=-1.136341; m_2_3=0.647045; m_2_8=-0.004173; m_2_9=0.032531; m_3_3=-1.138278; m_3_4=0.535574; m_3_7=-0.003573; m_3_8=-0.100661; m_3_9=-0.004173; m_4_4=-1.141203; m_4_5=0.371909; m_4_6=-0.000056; m_4_7=-0.121210; m_4_8=-0.003573; m_5_5=-1.140821; m_5_6=0.779264; m_5_7=-0.000056; m_6_6=-1.140822; m_6_7=0.372251; m_7_7=-1.141189; m_7_8=0.535692; m_8_8=-1.138280; m_8_9=0.647358; m_9_9=-1.136346; m_9_10=1.011160; m_10_10=-1.135702; m_10_11=1.176065}
!
! Created with skrf (http://scikit-rf.org).
# Hz S RI R 50.0 
!freq ReS11 ImS11 ReS21 ImS21 ReS12 ImS12 ReS22 ImS22
12607400000.0 0.1233975363295029 0.9923573187252955 -2.7687631150531633e-17 -6.340485649128956e-17 -2.7687631150531633e-17 -6.340485649128956e-17 0.12339692169948908 0.9923573951530461
12608017333.333334 0.13105724728145626 0.9913748019466982 -2.817652762616585e-17 -6.317427458741454e-17 -2.817652762616585e-17 -6.317427458741454e-17 0.13105663329004655 0.9913748831146206
12608634666.666666 0.13870914243428345 0.9903331630340342 -2.8663512956215175e-17 -6.293992741731342e-17 -2.8663512956215175e-17 -6.293992741731342e-17 0.13870852911802964 0.9903332489368224
12609252000.0 0.14635276545563317 0.9892324641070656 -2.9148558177508403e-17 -6.270183075395611e-17 -2.9148558177508403e-17 -6.270183075395611e-17 0.14635215285104353 0.9892325547391341
12609869333.333334 0.15398766050650478 0.9880727708076882 -2.9631634456558383e-17 -6.246000059282233e-17 -2.9631634456558383e-17 -6.246000059282233e-17 0.15398704865004129 0.9880728661631685
12610486666.666666 0.16161337226837538 0.9868541522960178 -3.011271309125686e-17 -6.221445315084512e-17 -3.011271309125686e-17 -6.221445315084512e-17 0.1616127611964521 0.9868542523687617
12611104000.0 0.16922944597046657 0.9855766812462529 -3.05917655125889e-17 -6.196520486532737e-17 -3.05917655125889e-17 -6.196520486532737e-17 0.16922883571944702 0.9855767860298299
12611721333.333334 0.17683542741669644 0.9842404338423631 -3.106876328630172e-17 -6.171227239286399e-17 -3.106876328630172e-17 -6.171227239286399e-17 0.1768348180228917 0.9842405433300639
12612338666.666666 0.18443086301282285 0.9828454897735419 -3.154367811460837e-17 -6.145567260822878e-17 -3.154367811460837e-17 -6.145567260822878e-17 0.18443025451248948 0.9828456039583773
12612956000.0 0.19201529979371795 0.9813919322294118 -3.2016481837847473e-17 -6.119542260326633e-17 -3.2016481837847473e-17 -6.119542260326633e-17 0.19201469222305523 0.9813920511041112
12613573333.333334 0.19958828544990548 0.9798798478951471 -3.248714643614435e-17 -6.093153968576577e-17 -3.248714643614435e-17 -6.093153968576577e-17 0.19958767884505427 0.9798799714521635
12614190666.666666 0.20714936835503878 0.9783093269462155 -3.2955644031068286e-17 -6.066404137831907e-17 -3.2955644031068286e-17 -6.066404137831907e-17 0.2071487627520785 0.9783094551777224
12614808000.0 0.2146980975924988 0.9766804630430626 -3.34219468872821e-17 -6.039294541716576e-17 -3.34219468872821e-17 -6.039294541716576e-17 0.2146974930274456 0.976680595940955
12615425333.333334 0.22223402298239667 0.9749933533255032 -3.388602741416531e-17 -6.011826975103447e-17 -3.388602741416531e-17 -6.011826975103447e-17 0.22223341949120132 0.9749934908813992
12616042666.666666 0.22975669510850413 0.9732480984069104 -3.434785816745318e-17 -5.98400325399573e-17 -3.434785816745318e-17 -5.98400325399573e-17 0.22975609272704997 0.9732482406121516
12616660000.0 0.2372656653448614 0.9714448023682607 -3.480741185083955e-17 -5.955825215408825e-17 -3.480741185083955e-17 -5.955825215408825e-17 0.23726506410896195 0.9714449492139118
12617277333.333334 0.24476048588278038 0.9695835727518669 -3.526466131759821e-17 -5.927294717249135e-17 -3.526466131759821e-17 -5.927294717249135e-17 0.24475988582817726 0.969583724228716
12617894666.666666 0.2522407097571913 0.9676645205550519 -3.5719579572157793e-17 -5.898413638193951e-17 -3.5719579572157793e-17 -5.898413638193951e-17 0.25224011091955234 0.9676646766536128
12618512000.0 0.2597058908738223 0.9656877602233985 -3.6172139771720437e-17 -5.869183877566808e-17 -3.6172139771720437e-17 -5.869183877566808e-17 0.2597052932887393 0.965687920933911
12619129333.333334 0.26715558403519707 0.9636534096440807 -3.662231522780192e-17 -5.839607355215876e-17 -3.662231522780192e-17 -5.839607355215876e-17 0.26715498773818364 0.963653574956509
12619746666.666666 0.27458934496767984 0.961561590138702 -3.707007940782865e-17 -5.80968601138701e-17 -3.707007940782865e-17 -5.80968601138701e-17 0.27458874999416943 0.9615617600427385
12620364000.0 0.28200673034775087 0.9594124264561198 -3.751540593668079e-17 -5.77942180659824e-17 -3.751540593668079e-17 -5.77942180659824e-17 0.2820061367330941 0.9594126009411823
12620981333.333334 0.2894072978284167 0.9572060467650128 -3.795826859823764e-17 -5.748816721512488e-17 -3.795826859823764e-17 -5.748816721512488e-17 0.28940670560787995 0.9572062258202476
12621598666.666666 0.2967906060656725 0.9549425826462138 -3.8398641336916846e-17 -5.71787275680864e-17 -3.8398641336916846e-17 -5.71787275680864e-17 0.2967900152744357 0.9549427662604968
12622216000.0 0.3041562147447681 0.9526221690848811 -3.883649825920529e-17 -5.686591933051424e-17 -3.883649825920529e-17 -5.686591933051424e-17 0.3041556254179225 0.9526223572468167
12622833333.333334 0.3115036846066031 0.9502449444624059 -3.9271813635164657e-17 -5.654976290561065e-17 -3.9271813635164657e-17 -5.654976290561065e-17 0.31150309677914884 0.9502451371603274
12623450666.666666 0.3188325774736223 0.9478110505482491 -3.9704561899942896e-17 -5.62302788928074e-17 -3.9704561899942896e-17 -5.62302788928074e-17 0.3188319911804674 0.9478112477702231
12624068000.0 0.3261424562763027 0.9453206324913843 -4.013471765526509e-17 -5.590748808643496e-17 -4.013471765526509e-17 -5.590748808643496e-17 0.32614187155225927 0.9453208342252055
12624685333.333334 0.33343288507902497 0.9427738388116887 -4.056225567092312e-17 -5.558141147437367e-17 -4.056225567092312e-17 -5.558141147437367e-17 0.33343230195880924 0.9427740450448868
12625302666.666666 0.3407034291060211 0.9401708213911164 -4.098715088623752e-17 -5.5252070236706775e-17 -4.098715088623752e-17 -5.5252070236706775e-17 0.34070284762424985 0.9401710321109535
12625920000.0 0.34795365476749035 0.9375117354645734 -4.140937841153148e-17 -5.4919485744344037e-17 -4.140937841153148e-17 -5.4919485744344037e-17 0.3479530749586786 0.937511950658043
12626537333.333334 0.35518312968529303 0.9347967396107076 -4.1828913529570734e-17 -5.458367955765252e-17 -4.1828913529570734e-17 -5.458367955765252e-17 0.35518255158385387 0.934796959264541
12627154666.666666 0.36239142271871455 0.9320259957424764 -4.2245731697007965e-17 -5.4244673425064376e-17 -4.2245731697007965e-17 -5.4244673425064376e-17 0.36239084635895497 0.9320262198431379
12627772000.0 0.3695781039904132 0.9291996690973908 -4.2659808545817175e-17 -5.390248928167202e-17 -4.2659808545817175e-17 -5.390248928167202e-17 0.36957752940653316 0.9291998976310815
12628389333.333334 0.3767427449117649 0.9263179282277751 -4.30711198846928e-17 -5.35571492478326e-17 -4.30711198846928e-17 -5.35571492478326e-17 0.37674217213785544 0.9263181611804333
12629006666.666666 0.38388491820863596 0.9233809449906348 -4.347964170048284e-17 -5.3208675627724557e-17 -4.347964170048284e-17 -5.3208675627724557e-17 0.3838843472786765 0.9233811823479365
12629624000.0 0.3910041979467832 0.9203888945374351 -4.3885350159556186e-17 -5.285709090793798e-17 -4.3885350159556186e-17 -5.285709090793798e-17 0.39100362889464013 0.9203891362847954
12630241333.333334 0.39810015955720374 0.9173419553036799 -4.428822160920661e-17 -5.250241775601474e-17 -4.428822160920661e-17 -5.250241775601474e-17 0.39809959241662785 0.9173422014262527
12630858666.666666 0.4051723798615066 0.9142403089982482 -4.468823257900342e-17 -5.214467901901333e-17 -4.468823257900342e-17 -5.214467901901333e-17 0.40517181466613206 0.9142405594809293
12631476000.0 0.4122204370972294 0.9110841405925242 -4.5085359782179283e-17 -5.1783897722021316e-17 -4.5085359782179283e-17 -5.1783897722021316e-17 0.41221987388057046 0.9110843954199501
12632093333.333334 0.419243910942858 0.9078736383094216 -4.5479580116947326e-17 -5.1420097066708657e-17 -4.5479580116947326e-17 -5.1420097066708657e-17 0.41924334973830785 0.9078738974659709
12632710666.666666 0.4262423825428696 0.904608993612172 -4.58708706678582e-17 -5.1053300429826225e-17 -4.58708706678582e-17 -5.1053300429826225e-17 0.4262418233836985 0.9046092570819677
12633328000.0 0.4332154345329186 0.901290401192814 -4.6259208707119696e-17 -5.06835313617155e-17 -4.6259208707119696e-17 -5.06835313617155e-17 0.4332148774522707 0.901290668959722
12633945333.333334 0.4401626510645692 0.8979180589606488 -4.664457169590789e-17 -5.031081358480621e-17 -4.664457169590789e-17 -5.031081358480621e-17 0.4401620960954624 0.8979183310082817
12634562666.666666 0.44708361783004735 0.8944921680304676 -4.702693728566327e-17 -4.993517099210656e-17 -4.702693728566327e-17 -4.993517099210656e-17 0.4470830650053698 0.8944924443421831
12635180000.0 0.4539779220871249 0.8910129327104666 -4.740628331938889e-17 -4.95566276456704e-17 -4.740628331938889e-17 -4.95566276456704e-17 0.4539773714396341 0.891013213269371
12635797333.333334 0.46084515268355725 0.8874805604901537 -4.778258783291662e-17 -4.917520777507331e-17 -4.778258783291662e-17 -4.917520777507331e-17 0.4608446042458779 0.887480845279102
12636414666.666666 0.4676849000817059 0.8838952620279256 -4.815582905617668e-17 -4.8790935775864506e-17 -4.815582905617668e-17 -4.8790935775864506e-17 0.4676843538863267 0.88389555102952
12637032000.0 0.4744967563829067 0.8802572511385233 -4.852598541444637e-17 -4.840383620801709e-17 -4.852598541444637e-17 -4.840383620801709e-17 0.4744962124621809 0.8802575443351193
12637649333.333334 0.48128031535190324 0.8765667447802388 -4.8893035529594564e-17 -4.8013933794360696e-17 -4.8893035529594564e-17 -4.8013933794360696e-17 0.4812797737380431 0.8765670421539398
12638266666.666666 0.4880351724409137 0.8728239630420432 -4.925695822130031e-17 -4.762125341901882e-17 -4.925695822130031e-17 -4.762125341901882e-17 0.4880346331659936 0.87282426457471
12638884000.0 0.49476092481384104 0.8690291291304355 -4.961773250827093e-17 -4.7225820125824263e-17 -4.961773250827093e-17 -4.7225820125824263e-17 0.4947603879097909 0.8690294348036794
12639501333.333334 0.5014571713703894 0.8651824693560647 -4.997533760944778e-17 -4.682765911672558e-17 -4.997533760944778e-17 -4.682765911672558e-17 0.5014566368689952 0.8651827791512532
12640118666.666666 0.5081235127696667 0.8612842131204226 -5.0329752945184146e-17 -4.642679575019987e-17 -5.0329752945184146e-17 -4.642679575019987e-17 0.5081229807025676 0.8612845270186777
12640736000.0 0.5147595514545873 0.8573345929018156 -5.068095813843998e-17 -4.6023255539625343e-17 -5.068095813843998e-17 -4.6023255539625343e-17 0.5147590218532752 0.8573349108840189
12641353333.333334 0.5213648916747994 0.8533338442419668 -5.102893301591629e-17 -4.561706415169687e-17 -5.102893301591629e-17 -4.561706415169687e-17 0.5213643645706152 0.8533341662887566
12641970666.666666 0.5279391395109945 0.8492822057315463 -5.13736576092371e-17 -4.5208247404766604e-17 -5.13736576092371e-17 -4.5208247404766604e-17 0.5279386149351271 0.8492825318233205
12642588000.0 0.5344819028979579 0.8451799189962025 -5.171511215606444e-17 -4.479683126723472e-17 -5.171511215606444e-17 -4.479683126723472e-17 0.534481380881443 0.84518024911312
12643205333.333334 0.540992791648173 0.8410272286820247 -5.205327710123484e-17 -4.4382841855894676e-17 -5.205327710123484e-17 -4.4382841855894676e-17 0.5409922722218901 0.8410275628040061
12643822666.666666 0.5474714174750136 0.836824382440993 -5.23881330978653e-17 -4.396630543428839e-17 -5.23881330978653e-17 -4.396630543428839e-17 0.5474709006696852 0.8368247205477226
12644440000.0 0.5539173940158556 0.8325716309162436 -5.271966100845554e-17 -4.354724841104322e-17 -5.271966100845554e-17 -4.354724841104322e-17 0.5539168798620445 0.8325719729871693
12645057333.333334 0.5603303368552116 0.8282692277270567 -5.304784190596429e-17 -4.312569733821549e-17 -5.304784190596429e-17 -4.312569733821549e-17 0.5603298253833198 0.8282695737413927
12645674666.666666 0.5667098635474926 0.8239174294538456 -5.337265707489115e-17 -4.270167890960354e-17 -5.337265707489115e-17 -4.270167890960354e-17 0.566709354787759 0.8239177793905724
12646292000.0 0.5730555936401669 0.8195164956226122 -5.369408801233366e-17 -4.2275219959066104e-17 -5.369408801233366e-17 -4.2275219959066104e-17 0.5730550876226657 0.8195168494604789
12646909333.333334 0.5793671486959557 0.8150666886898076 -5.4012116429026506e-17 -4.184634745883911e-17 -5.4012116429026506e-17 -4.184634745883911e-17 0.5793666454505954 0.8150670464073334
12647526666.666666 0.5856441523158271 0.8105682740263932 -5.432672425037578e-17 -4.1415088517834094e-17 -5.432672425037578e-17 -4.1415088517834094e-17 0.5856436518723469 0.8105686356018665
12648144000.0 0.5918862301612503 0.8060215199021381 -5.463789361748521e-17 -4.0981470379920937e-17 -5.463789361748521e-17 -4.0981470379920937e-17 0.59188573254922 0.8060218853136207
12648761333.333334 0.5980930099765017 0.8014266974696432 -5.494560688814685e-17 -4.054552042223254e-17 -5.494560688814685e-17 -4.054552042223254e-17 0.5980925152253188 0.8014270666949689
12649378666.666666 0.6042641216109312 0.796784080748116 -5.524984663784173e-17 -4.010726615343137e-17 -5.524984663784173e-17 -4.010726615343137e-17 0.6042636297498207 0.796784453764895
12649996000.0 0.6103991970409941 0.7920939466070682 -5.555059566071347e-17 -3.966673521198512e-17 -5.555059566071347e-17 -3.966673521198512e-17 0.6103987080990046 0.7920943233926852
12650613333.333334 0.616497870392286 0.7873565747497299 -5.584783697053794e-17 -3.9223955364423166e-17 -5.584783697053794e-17 -3.9223955364423166e-17 0.6164973843982906 0.7873569552813487
12651230666.666666 0.6225597779612068 0.7825722476964949 -5.614155380165972e-17 -3.8778954503612507e-17 -5.614155380165972e-17 -3.8778954503612507e-17 0.6225592949438992 0.7825726319510571
12651848000.0 0.6285845582368284 0.7777412507679283 -5.64317296099479e-17 -3.833176064697886e-17 -5.64317296099479e-17 -3.833176064697886e-17 0.6285840782247224 0.777741638722157
12652465333.333334 0.634571851922299 0.7728638720678779 -5.671834807370002e-17 -3.7882401934777104e-17 -5.671834807370002e-17 -3.7882401934777104e-17 0.6345713749437264 0.7728642636982761
12653082666.666666 0.6405213019563385 0.7679404024662382 -5.700139309455928e-17 -3.743090662831476e-17 -5.700139309455928e-17 -3.743090662831476e-17 0.6405208280394459 0.7679407977490921
12653700000.0 0.646432553534593 0.7629711355815477 -5.728084879841042e-17 -3.697730310817787e-17 -5.728084879841042e-17 -3.697730310817787e-17 0.6464320827073439 0.7629715344929295
12654317333.333334 0.652305254130668 0.7579563677635905 -5.755669953625436e-17 -3.6521619872464183e-17 -5.755669953625436e-17 -3.6521619872464183e-17 0.652304786420838 0.7579567702793576
12654934666.666666 0.6581390535172159 0.7528963980756674 -5.782892988507734e-17 -3.6063885534994475e-17 -5.782892988507734e-17 -3.6063885534994475e-17 0.6581385889523916 0.7528968041714642
12655552000.0 0.6639336037868855 0.7477915282767037 -5.809752464870616e-17 -3.5604128823517785e-17 -5.809752464870616e-17 -3.5604128823517785e-17 0.6639331423944645 0.7477919379279651
12656169333.333334 0.6696885593729437 0.742642062803368 -5.836246885864042e-17 -3.514237857792542e-17 -5.836246885864042e-17 -3.514237857792542e-17 0.6696881011801301 0.7426424759853169
12656786666.666666 0.675403577069944 0.7374483087518564 -5.862374777487892e-17 -3.467866374844343e-17 -5.862374777487892e-17 -3.467866374844343e-17 0.67540312210375 0.7374487254395091
12657404000.0 0.681078316054263 0.7322105758595263 -5.888134688673264e-17 -3.421301339381966e-17 -5.888134688673264e-17 -3.421301339381966e-17 0.6810778643415046 0.7322109960276922
12658021333.333334 0.6867124379042946 0.7269291764865347 -5.91352519136137e-17 -3.374545667951925e-17 -5.91352519136137e-17 -3.374545667951925e-17 0.6867119894715911 0.7269296001098173
12658638666.666666 0.692305606620697 0.7216044255971543 -5.938544880581967e-17 -3.327602287590007e-17 -5.938544880581967e-17 -3.327602287590007e-17 0.692305161494471 0.7216048526499556
12659256000.0 0.697857488646474 0.7162366407409541 -5.963192374530171e-17 -3.280474135638332e-17 -5.963192374530171e-17 -3.280474135638332e-17 0.6978570468529471 0.7162370711974724
12659873333.333334 0.7033677528868428 0.7108261420338756 -5.987466314641575e-17 -3.2331641595624097e-17 -5.987466314641575e-17 -3.2331641595624097e-17 0.7033673144520357 0.7108265758681092
12660490666.666666 0.7088360707288385 0.7053732521392846 -6.011365365665319e-17 -3.1856753167688524e-17 -6.011365365665319e-17 -3.1856753167688524e-17 0.7088356356785693 0.7053736893250333
12661108000.0 0.7142621160611757 0.6998782962484703 -6.034888215737996e-17 -3.13801057441807e-17 -6.034888215737996e-17 -3.13801057441807e-17 0.7142616844210575 0.6998787367593358
12661725333.333334 0.7196455652934731 0.6943416020614691 -6.058033576452572e-17 -3.0901729092433324e-17 -6.058033576452572e-17 -3.0901729092433324e-17 0.7196451370889139 0.6943420458708579
12662342666.666666 0.7249860973756336 0.6887634997674449 -6.080800182929488e-17 -3.0421653073622686e-17 -6.080800182929488e-17 -3.0421653073622686e-17 0.724985672631833 0.688763946848569
12662960000.0 0.7302833938170475 0.6831443220249332 -6.103186793883429e-17 -2.993990764093359e-17 -6.103186793883429e-17 -2.993990764093359e-17 0.7302829725589975 0.683144772350813
12663577333.333334 0.7355371387054506 0.6774844039421488 -6.125192191690622e-17 -2.945652283768166e-17 -6.125192191690622e-17 -2.945652283768166e-17 0.7355367209579328 0.6774848574856135
12664194666.666666 0.7407470187259196 0.6717840830568347 -6.146815182453143e-17 -2.897152879546015e-17 -6.146815182453143e-17 -2.897152879546015e-17 0.7407466045135028 0.6717845397905234
12664812000.0 0.7459127231794018 0.6660436993162985 -6.168054596063158e-17 -2.848495573225443e-17 -6.168054596063158e-17 -2.848495573225443e-17 0.7459123125264427 0.666044159212664
12665429333.333334 0.7510339440014163 0.6602635950569505 -6.188909286264363e-17 -2.799683395057782e-17 -6.188909286264363e-17 -2.799683395057782e-17 0.751033536932056 0.6602640580882587
12666046666.666666 0.7561103757801987 0.6544441149841421 -6.209378130712887e-17 -2.7507193835586033e-17 -6.209378130712887e-17 -2.7507193835586033e-17 0.7561099723183639 0.6544445811224759
12666664000.0 0.7611417157751802 0.6485856061513122 -6.229460031036561e-17 -2.7016065853186586e-17 -6.229460031036561e-17 -2.7016065853186586e-17 0.7611413159445783 0.6485860753685708
12667281333.333334 0.7661276639348324 0.6426884179395226 -6.249153912892143e-17 -2.6523480548160624e-17 -6.249153912892143e-17 -2.6523480548160624e-17 0.7661272677589533 0.6426888902074248
12667898666.666666 0.7710679229146216 0.6367529020365603 -6.268458726021646e-17 -2.6029468542264214e-17 -6.268458726021646e-17 -2.6029468542264214e-17 0.7710675304167337 0.6367533773266455
12668516000.0 0.775962198094883 0.630779412415788 -6.287373444307197e-17 -2.5534060532325898e-17 -6.287373444307197e-17 -2.5534060532325898e-17 0.7759618092980345 0.6307798906994186
12669133333.333334 0.7808101975980865 0.6247683053154083 -6.305897065823795e-17 -2.5037287288356533e-17 -6.305897065823795e-17 -2.5037287288356533e-17 0.7808098125251014 0.6247687865637703
12669750666.666666 0.785611632306564 0.6187199392168202 -6.324028612891143e-17 -2.4539179651639077e-17 -6.324028612891143e-17 -2.4539179651639077e-17 0.7856112509800429 0.6187204234009264
12670368000.0 0.7903662158795403 0.6126346748235092 -6.341767132124119e-17 -2.4039768532813238e-17 -6.341767132124119e-17 -2.4039768532813238e-17 0.7903658383218575 0.6126351619141993
