! Parameters = {f0=12700.012000; bw=77.238000; Q=6100.000000; N=10; m_0_1=1.203699; m_1_1=-0.709265; m_1_2=1.038511; m_2_2=-0.709914; m_2_3=0.675474; m_2_8=-0.002751; m_2_9=0.033953; m_3_3=-0.711851; m_3_4=0.564003; m_3_7=-0.002151; m_3_8=-0.099239; m_3_9=-0.002751; m_4_4=-0.714776; m_4_5=0.400338; m_4_6=0.001366; m_4_7=-0.119788; m_4_8=-0.002151; m_5_5=-0.714394; m_5_6=0.807693; m_5_7=0.001366; m_6_6=-0.714395; m_6_7=0.400680; m_7_7=-0.714762; m_7_8=0.564121; m_8_8=-0.711853; m_8_9=0.675787; m_9_9=-0.709919; m_9_10=1.039589; m_10_10=-0.709275; m_10_11=1.204494}
!
! Created with skrf (http://scikit-rf.org).
# Hz S RI R 50.0 
!freq ReS11 ImS11 ReS21 ImS21 ReS12 ImS12 ReS22 ImS22
12607400000.0 -0.9998076126464436 0.019614731557178227 7.628431791519448e-17 -2.423635700547072e-17 7.628431791519448e-17 -2.423635700547072e-17 -0.9998076250877768 0.01961409738378355
12608017333.333334 -0.9996030011882749 0.02817516664078424 7.605688278105948e-17 -2.489054656740052e-17 7.605688278105948e-17 -2.489054656740052e-17 -0.9996030190585773 0.02817453262822065
12608634666.666666 -0.9993250959246309 0.03673353583675029 7.582384282728756e-17 -2.5542616497526897e-17 7.582384282728756e-17 -2.5542616497526897e-17 -0.9993251192220608 0.03673290203148742
12609252000.0 -0.9989739172323945 0.0452892116205047 7.558521769110455e-17 -2.619251882224507e-17 7.558521769110455e-17 -2.619251882224507e-17 -0.9989739459547129 0.04528857806899244
12609869333.333334 -0.9985494908610687 0.05384156666499386 7.534102741995958e-17 -2.6840205748927465e-17 7.534102741995958e-17 -2.6840205748927465e-17 -0.998549525005639 0.05384093341365896
12610486666.666666 -0.9980518479308975 0.06238997388653786 7.509129246986082e-17 -2.7485629669441102e-17 7.509129246986082e-17 -2.7485629669441102e-17 -0.9980518874946832 0.062389340981780374
12611104000.0 -0.9974810249305607 0.07093380649112188 7.483603370368659e-17 -2.8128743163629975e-17 7.483603370368659e-17 -2.8128743163629975e-17 -0.9974810699101319 0.0709331739793121
12611721333.333334 -0.9968370637145301 0.07947243801995788 7.457527238946849e-17 -2.876949900278264e-17 7.457527238946849e-17 -2.876949900278264e-17 -0.9968371141060584 0.0794718059474327
12612338666.666666 -0.9961200114999772 0.08800524239570164 7.430903019863745e-17 -2.940785015310076e-17 7.430903019863745e-17 -2.940785015310076e-17 -0.9961200672992385 0.08800461080876117
12612956000.0 -0.9953299208633133 0.09653159396835874 7.403732920424348e-17 -3.0043749779143186e-17 7.403732920424348e-17 -3.0043749779143186e-17 -0.9953299820656861 0.09653096291326291
12613573333.333334 -0.9944668497363519 0.10505086756090384 7.376019187915542e-17 -3.0677151247233164e-17 7.376019187915542e-17 -3.0677151247233164e-17 -0.99446691633682 0.1050502370838691
12614190666.666666 -0.993530861402039 0.11356243851540382 7.347764109421395e-17 -3.1308008128888516e-17 7.347764109421395e-17 -3.1308008128888516e-17 -0.9935309333951916 0.11356180866259984
12614808000.0 -0.992522024489826 0.1220656827386781 7.318970011636987e-17 -3.193627420420422e-17 7.318970011636987e-17 -3.193627420420422e-17 -0.9925221018698562 0.12206505355622407
12615425333.333334 -0.9914404129706297 0.13055997674811518 7.289639260678721e-17 -3.2561903465230207e-17 7.289639260678721e-17 -3.2561903465230207e-17 -0.9914404957313375 0.13055934828207683
12616042666.666666 -0.990286106151426 0.1390446977172758 7.259774261891907e-17 -3.318485011933013e-17 7.259774261891907e-17 -3.318485011933013e-17 -0.9902861942862159 0.13904407001366156
12616660000.0 -0.9890591886694079 0.14751922352172891 7.229377459655466e-17 -3.380506859252264e-17 7.229377459655466e-17 -3.380506859252264e-17 -0.9890592821712934 0.14751859662648728
12617277333.333334 -0.9877597504857961 0.15598293278458403 7.198451337183686e-17 -3.4422513532806974e-17 7.198451337183686e-17 -3.4422513532806974e-17 -0.9877598493473945 0.15598230674359903
12617894666.666666 -0.9863878868792555 0.16443520492193886 7.166998416325776e-17 -3.503713981345861e-17 7.166998416325776e-17 -3.503713981345861e-17 -0.9863879910927944 0.1644345797810279
12618512000.0 -0.984943698438863 0.17287542018869204 7.135021257360964e-17 -3.5648902536339085e-17 7.135021257360964e-17 -3.5648902536339085e-17 -0.9849438079961781 0.17287479599360203
12619129333.333334 -0.9834272910567953 0.1813029597235915 7.102522458793379e-17 -3.625775703513691e-17 7.102522458793379e-17 -3.625775703513691e-17 -0.9834274059493321 0.18130233651999567
12619746666.666666 -0.9818387759205207 0.18971720559489227 7.069504657141672e-17 -3.686365887863831e-17 7.069504657141672e-17 -3.686365887863831e-17 -0.9818388961393322 0.18971658342838624
12620364000.0 -0.9801782695046388 0.19811754084566346 7.035970526726854e-17 -3.746656387395877e-17 7.035970526726854e-17 -3.746656387395877e-17 -0.9801783950403894 0.1981169197617626
12620981333.333334 -0.9784458935623925 0.20650334953877497 7.001922779458495e-17 -3.8066428069738005e-17 7.001922779458495e-17 -3.8066428069738005e-17 -0.9784460244053574 0.2065027295829107
12621598666.666666 -0.9766417751166853 0.21487401680233842 6.967364164615994e-17 -3.866320775935287e-17 6.967364164615994e-17 -3.866320775935287e-17 -0.9766419112567525 0.21487339801985522
12622216000.0 -0.9747660464507969 0.2232289288746526 6.932297468628871e-17 -3.9256859484081406e-17 6.932297468628871e-17 -3.9256859484081406e-17 -0.9747661878774665 0.22322831131080442
12622833333.333334 -0.972818845098669 0.23156747314926088 6.896725514853554e-17 -3.984734003626061e-17 6.896725514853554e-17 -3.984734003626061e-17 -0.9728189918010545 0.23156685684920786
12623450666.666666 -0.9708003138348488 0.2398890382197592 6.860651163348193e-17 -4.0434606462412744e-17 6.860651163348193e-17 -4.0434606462412744e-17 -0.9708004658016782 0.23988842322856452
12624068000.0 -0.9687106006639875 0.2481930139247647 6.824077310643762e-17 -4.101861606636869e-17 6.824077310643762e-17 -4.101861606636869e-17 -0.9687107578836037 0.24819240028739095
12624685333.333334 -0.9665498588099799 0.256478791392681 6.787006889512987e-17 -4.159932641236311e-17 6.787006889512987e-17 -4.159932641236311e-17 -0.9665500212703411 0.2564781791539871
12625302666.666666 -0.9643182467047992 0.2647457630860678 6.74944286873798e-17 -4.2176695328087915e-17 6.74944286873798e-17 -4.2176695328087915e-17 -0.9643184143934824 0.2647451522908062
12625920000.0 -0.9620159279767746 0.2729933228465996 6.711388252872251e-17 -4.2750680907772577e-17 6.711388252872251e-17 -4.2750680907772577e-17 -0.962016100880973 0.272992713539412
12626537333.333334 -0.9596430714386944 0.28122086593912676 6.67284608200366e-17 -4.3321241515187955e-17 6.67284608200366e-17 -4.3321241515187955e-17 -0.9596432495452205 0.2812202581645416
12627154666.666666 -0.9571998510753854 0.2894277890961807 6.633819431512377e-17 -4.388833578666707e-17 6.633819431512377e-17 -4.388833578666707e-17 -0.9572000343706724 0.28942718289860986
12627772000.0 -0.954686446030907 0.2976134905623712 6.594311411826252e-17 -4.445192263410389e-17 6.594311411826252e-17 -4.445192263410389e-17 -0.9546866345010087 0.2976128859861065
12628389333.333334 -0.9521030405955206 0.30577737013815454 6.554325168176216e-17 -4.5011961247893096e-17 6.554325168176216e-17 -4.5011961247893096e-17 -0.9521032342261128 0.30577676722736474
12629006666.666666 -0.9494498241920882 0.3139188292241415 6.513863880345433e-17 -4.556841109990177e-17 6.513863880345433e-17 -4.556841109990177e-17 -0.949450022968468 0.3139182280228683
12629624000.0 -0.94672699136222 0.32203727086485084 6.472930762419376e-17 -4.612123194637073e-17 6.472930762419376e-17 -4.612123194637073e-17 -0.9467271952693112 0.32203667141700715
12630241333.333334 -0.9439347417519992 0.3301320997925366 6.431529062531165e-17 -4.6670383830824883e-17 6.431529062531165e-17 -4.6670383830824883e-17 -0.9439349507743495 0.330131502141902
12630858666.666666 -0.9410732800973841 0.338202722470698 6.389662062606106e-17 -4.721582708693904e-17 6.389662062606106e-17 -4.721582708693904e-17 -0.9410734942191684 0.3382021266609162
12631476000.0 -0.9381428162090979 0.34624854713789643 6.347333078101448e-17 -4.7757522341411466e-17 6.347333078101448e-17 -4.7757522341411466e-17 -0.9381430354141183 0.3462479532124718
12632093333.333334 -0.9351435649573637 0.3542689838507952 6.30454545774705e-17 -4.8295430516771415e-17 6.30454545774705e-17 -4.8295430516771415e-17 -0.9351437892290512 0.3542683918530897
12632710666.666666 -0.9320757462560956 0.36226344452757747 6.261302583281029e-17 -4.8829512834197383e-17 6.261302583281029e-17 -4.8829512834197383e-17 -0.9320759755775108 0.36226285450080736
12633328000.0 -0.9289395850467221 0.370231342991199 6.217607869183188e-17 -4.9359730816310166e-17 6.217607869183188e-17 -4.9359730816310166e-17 -0.9289398194005584 0.37023075497843216
12633945333.333334 -0.9257353112817832 0.3781720950121286 6.173464762408048e-17 -4.9886046289917384e-17 6.173464762408048e-17 -4.9886046289917384e-17 -0.9257355506503663 0.37817150905628105
12634562666.666666 -0.9224631599080209 0.38608511835131926 6.128876742113597e-17 -5.0408421388758997e-17 6.128876742113597e-17 -5.0408421388758997e-17 -0.92246340427331 0.38608453449515173
12635180000.0 -0.9191233708491585 0.39396983280287146 6.083847319388572e-17 -5.092681855621818e-17 6.083847319388572e-17 -5.092681855621818e-17 -0.9191236201927493 0.39396925108898695
12635797333.333334 -0.9157161889883023 0.4018256602366039 6.038380036977187e-17 -5.14412005480115e-17 6.038380036977187e-17 -5.14412005480115e-17 -0.9157164432914258 0.40182508070744344
12636414666.666666 -0.9122418641500268 0.40965202464033684 5.992478469002324e-17 -5.1951530434846084e-17 5.992478469002324e-17 -5.1951530434846084e-17 -0.9122421233935528 0.4096514473381779
12637032000.0 -0.9087006510819913 0.41744835216228543 5.946146220685026e-17 -5.245777160506928e-17 5.946146220685026e-17 -5.245777160506928e-17 -0.9087009152464306 0.417447777129238
12637649333.333334 -0.9050928094363065 0.42521407115303095 5.89938692806322e-17 -5.295988776727649e-17 5.89938692806322e-17 -5.295988776727649e-17 -0.9050930785018098 0.4252134984310344
12638266666.666666 -0.9014186037504857 0.43294861220746317 5.852204257707541e-17 -5.345784295290249e-17 5.852204257707541e-17 -5.345784295290249e-17 -0.9014188776968447 0.43294804183828245
12638884000.0 -0.8976783034280417 0.4406514082065273 5.804601906435119e-17 -5.3951601518786014e-17 5.804601906435119e-17 -5.3951601518786014e-17 -0.8976785822346953 0.44065084023175227
12639501333.333334 -0.8938721827187298 0.44832189435883674 5.756583601021038e-17 -5.444112814971039e-17 5.756583601021038e-17 -5.444112814971039e-17 -0.8938724663647615 0.4483213288198771
12640118666.666666 -0.8900005206984979 0.4559595082419556 5.70815309790882e-17 -5.492638786090783e-17 5.70815309790882e-17 -5.492638786090783e-17 -0.8900008091626372 0.455958945180038
12640736000.0 -0.8860636012488678 0.46356368984394136 5.659314182915256e-17 -5.5407346000572684e-17 5.659314182915256e-17 -5.5407346000572684e-17 -0.8860638945094954 0.46356312930010757
12641353333.333334 -0.8820617130363584 0.4711338816039523 5.610070670939567e-17 -5.588396825228538e-17 5.610070670939567e-17 -5.588396825228538e-17 -0.8820620110715032 0.4711333236190549
12641970666.666666 -0.8779951494910951 0.4786695284535587 5.560426405663308e-17 -5.635622063748197e-17 5.560426405663308e-17 -5.635622063748197e-17 -0.877995452278439 0.4786689730682585
12642588000.0 -0.8738642087854113 0.4861700778572133 5.510385259253188e-17 -5.68240695178479e-17 5.510385259253188e-17 -5.68240695178479e-17 -0.8738645163022908 0.4861695251119775
12643205333.333334 -0.8696691938119774 0.49363497985279325 5.459951132059952e-17 -5.728748159770469e-17 5.459951132059952e-17 -5.728748159770469e-17 -0.8696695060353825 0.49363442978789035
12643822666.666666 -0.8654104121615308 0.5010636870920212 5.409127952315601e-17 -5.774642392636675e-17 5.409127952315601e-17 -5.774642392636675e-17 -0.8654107290681108 0.5010631397475203
12644440000.0 -0.8610881761003969 0.5084556548804771 5.3579196758284944e-17 -5.820086390047318e-17 5.3579196758284944e-17 -5.820086390047318e-17 -0.861088497666458 0.5084551102962427
12645057333.333334 -0.8567028025475744 0.5158103412175589 5.306330285677297e-17 -5.865076926628481e-17 5.306330285677297e-17 -5.865076926628481e-17 -0.8567031287490855 0.5158097994332506
12645674666.666666 -0.8522546130515052 0.5231272068362275 5.2543637919014006e-17 -5.909610812196978e-17 5.2543637919014006e-17 -5.909610812196978e-17 -0.8522549438640956 0.5231266678912947
12646292000.0 -0.8477439337663865 0.5304057152427142 5.202024231190883e-17 -5.953684891984761e-17 5.202024231190883e-17 -5.953684891984761e-17 -0.8477442691653528 0.5304051791763955
12646909333.333334 -0.8431710954284563 0.5376453327555458 5.1493156665746496e-17 -5.997296046860666e-17 5.1493156665746496e-17 -5.997296046860666e-17 -0.8431714353887577 0.5376447996068633
12647526666.666666 -0.8385364333315862 0.5448455285449136 5.0962421871053756e-17 -6.040441193550575e-17 5.0962421871053756e-17 -6.040441193550575e-17 -0.8385367778278529 0.5448449983526731
12648144000.0 -0.8338402873027173 0.5520057746715745 5.042807907543436e-17 -6.083117284854037e-17 5.042807907543436e-17 -6.083117284854037e-17 -0.8338406363092483 0.5520052474743609
12648761333.333334 -0.8290830016769999 0.5591255461254628 4.9890169680397283e-17 -6.125321309857541e-17 4.9890169680397283e-17 -6.125321309857541e-17 -0.8290833551677663 0.5591250219616376
12649378666.666666 -0.824264925272552 0.5662043208641891 4.934873533816095e-17 -6.167050294145637e-17 4.934873533816095e-17 -6.167050294145637e-17 -0.824265283221197 0.5662037997718865
12649996000.0 -0.8193864113647955 0.5732415798514308 4.880381794843035e-17 -6.208301300009842e-17 4.880381794843035e-17 -6.208301300009842e-17 -0.8193867737446401 0.5732410618685578
12650613333.333334 -0.8144478176606095 0.5802368070949243 4.825545965517147e-17 -6.24907142665367e-17 4.825545965517147e-17 -6.24907142665367e-17 -0.814448184444652 0.5802362922591559
12651230666.666666 -0.8094495062721624 0.5871894896842031 4.770370284337046e-17 -6.289357810394686e-17 4.770370284337046e-17 -6.289357810394686e-17 -0.8094498774330797 0.5871889780329789
12651848000.0 -0.8043918436901808 0.5940991178284606 4.7148590135750846e-17 -6.329157624865557e-17 4.7148590135750846e-17 -6.329157624865557e-17 -0.8043922192003327 0.5940986093989835
12652465333.333334 -0.7992752007573085 0.6009651848936061 4.6590164389508493e-17 -6.368468081209736e-17 4.6590164389508493e-17 -6.368468081209736e-17 -0.7992755805887395 0.6009646797228404
12653082666.666666 -0.7940999526407362 0.6077871874396692 4.602846869301416e-17 -6.407286428275433e-17 4.602846869301416e-17 -6.407286428275433e-17 -0.7941003367651744 0.607786685564335
12653700000.0 -0.7888664788047528 0.614564625257616 4.546354636248167e-17 -6.445609952808019e-17 4.546354636248167e-17 -6.445609952808019e-17 -0.7888668671936154 0.6145641267141886
12654317333.333334 -0.7835751629829789 0.6212970014059619 4.489544093866439e-17 -6.483435979636377e-17 4.489544093866439e-17 -6.483435979636377e-17 -0.7835755556073748 0.6212965062306702
12654934666.666666 -0.7782263931501453 0.6279838222473231 4.4324196183492e-17 -6.520761871859462e-17 4.4324196183492e-17 -6.520761871859462e-17 -0.7782267899808732 0.6279833304761433
12655552000.0 -0.7728205614936218 0.6346245974846282 4.374985607671036e-17 -6.557585031028582e-17 4.374985607671036e-17 -6.557585031028582e-17 -0.7728209625011755 0.6346241091532846
12656169333.333334 -0.7673580643848229 0.6412188401968714 4.3172464812523484e-17 -6.593902897325673e-17 4.3172464812523484e-17 -6.593902897325673e-17 -0.7673584695393939 0.6412183553408327
12656786666.666666 -0.761839302349969 0.6477660668750371 4.259206679618504e-17 -6.62971294974096e-17 4.259206679618504e-17 -6.62971294974096e-17 -0.7618397116214468 0.6477655855295137
12657404000.0 -0.7562646800408049 0.6542657974574406 4.2008706640603617e-17 -6.665012706245766e-17 4.2008706640603617e-17 -6.665012706245766e-17 -0.756265093398781 0.654265319657382
12658021333.333334 -0.7506346062048955 0.6607175553649718 4.142242916292046e-17 -6.69979972396321e-17 4.142242916292046e-17 -6.69979972396321e-17 -0.7506350236186631 0.6607170811450636
12658638666.666666 -0.7449494936557449 0.6671208675359299 4.0833279381086885e-17 -6.734071599335111e-17 4.0833279381086885e-17 -6.734071599335111e-17 -0.7449499150943044 0.6671203969305928
12659256000.0 -0.7392097592423454 0.6734752644609276 4.024130251039908e-17 -6.767825968287605e-17 4.024130251039908e-17 -6.767825968287605e-17 -0.7392101846744044 0.6734747975043132
12659873333.333334 -0.7334158238187773 0.6797802802171207 3.964654396005587e-17 -6.801060506391513e-17 3.964654396005587e-17 -6.801060506391513e-17 -0.7334162532127539 0.6797798169431101
12660490666.666666 -0.7275681122133552 0.6860354525023752 3.904904932968639e-17 -6.833772929020822e-17 3.904904932968639e-17 -6.833772929020822e-17 -0.72756854553738 0.6860349929445761
12661108000.0 -0.7216670531972823 0.6922403226693704 3.844886440584505e-17 -6.865960991509115e-17 3.844886440584505e-17 -6.865960991509115e-17 -0.7216674904192015 0.6922398668611153
12661725333.333334 -0.715713079453487 0.6983944357589408 3.784603515854095e-17 -6.897622489300412e-17 3.784603515854095e-17 -6.897622489300412e-17 -0.7157135205408636 0.6983939837332833
12662342666.666666 -0.7097066275446798 0.7044973405336595 3.724060773770581e-17 -6.9287552580996e-17 3.724060773770581e-17 -6.9287552580996e-17 -0.7097070724647966 0.7044968923233734
12662960000.0 -0.703648137881443 0.7105485895108239 3.663262846968133e-17 -6.959357174018102e-17 3.663262846968133e-17 -6.959357174018102e-17 -0.7036485866013044 0.7105481451483987
12663577333.333334 -0.6975380546899155 0.7165477389952823 3.6022143853682886e-17 -6.989426153717103e-17 3.6022143853682886e-17 -6.989426153717103e-17 -0.6975385071762519 0.7165472985129241
12664194666.666666 -0.6913768259792054 0.722494349111993 3.540920055825368e-17 -7.018960154547585e-17 3.540920055825368e-17 -7.018960154547585e-17 -0.691377282198473 0.7224939125416187
12664812000.0 -0.6851649035086187 0.7283879838381934 3.479384541770758e-17 -7.047957174687256e-17 3.479384541770758e-17 -7.047957174687256e-17 -0.6851653634270038 0.7283875512114306
12665429333.333334 -0.678902742754393 0.7342282110355101 3.4176125428559e-17 -7.076415253274491e-17 3.4176125428559e-17 -7.076415253274491e-17 -0.6789032063378144 0.7342277823836946
12666046666.666666 -0.6725908028764861 0.7400146024814692 3.3556087745954e-17 -7.104332470538545e-17 3.3556087745954e-17 -7.104332470538545e-17 -0.6725912700905966 0.7400141778356416
12666664000.0 -0.6662295466846593 0.7457467339011258 3.2933779680058666e-17 -7.131706947928172e-17 3.2933779680058666e-17 -7.131706947928172e-17 -0.6662300174948493 0.7457463132920307
12667281333.333334 -0.6598194406048361 0.7514241849979048 3.230924869248807e-17 -7.158536848234813e-17 3.230924869248807e-17 -7.158536848234813e-17 -0.659819914976235 0.7514237684559865
12667898666.666666 -0.6533609546446913 0.757046539484608 3.1682542392676364e-17 -7.1848203757148e-17 3.1682542392676364e-17 -7.1848203757148e-17 -0.6533614325421727 0.7570461270400125
12668516000.0 -0.6468545623591908 0.762613385113941 3.105370853425756e-17 -7.210555776207517e-17 3.105370853425756e-17 -7.210555776207517e-17 -0.6468550437473705 0.7626129767965073
12669133333.333334 -0.6403007408160558 0.7681243137085643 3.042279501145557e-17 -7.235741337249631e-17 3.042279501145557e-17 -7.235741337249631e-17 -0.6403012256592997 0.7681239095478289
12669750666.666666 -0.633699970560576 0.7735789211912173 2.9789849855426105e-17 -7.260375388187818e-17 2.9789849855426105e-17 -7.260375388187818e-17 -0.6337004588229985 0.7735785212164077
12670368000.0 -0.6270527355804549 0.7789768076142654 2.915492123061826e-17 -7.28445630028705e-17 2.915492123061826e-17 -7.28445630028705e-17 -0.6270532272259228 0.7789764118542984
