! Parameters = {f0=12700.012000; bw=77.238000; Q=6100.000000; N=10; m_0_1=1.334229; m_1_1=1.248693; m_1_2=1.169041; m_2_2=1.248044; m_2_3=0.806004; m_2_8=0.003775; m_2_9=0.040479; m_3_3=1.246107; m_3_4=0.694533; m_3_7=0.004375; m_3_8=-0.092713; m_3_9=0.003775; m_4_4=1.243182; m_4_5=0.530868; m_4_6=0.007892; m_4_7=-0.113262; m_4_8=0.004375; m_5_5=1.243564; m_5_6=0.938223; m_5_7=0.007892; m_6_6=1.243563; m_6_7=0.531210; m_7_7=1.243196; m_7_8=0.694651; m_8_8=1.246105; m_8_9=0.806317; m_9_9=1.248039; m_9_10=1.170119; m_10_10=1.248683; m_10_11=1.335024}
!
! Created with skrf (http://scikit-rf.org).
# Hz S RI R 50.0 
!freq ReS11 ImS11 ReS21 ImS21 ReS12 ImS12 ReS22 ImS22
12607400000.0 0.9433854809572929 -0.3316984086768922 -1.2020705532004476e-16 8.693100509559008e-17 -1.2020705532004476e-16 8.693100509559008e-17 0.9433857140841891 -0.33169774563851084
12608017333.333334 0.9391925371409306 -0.3433909989772391 -1.1908681205021608e-16 8.841068984935899e-17 -1.1908681205021608e-16 8.841068984935899e-17 0.9391927784739001 -0.3433903389180895
12608634666.666666 0.9348546783159963 -0.3550306049208989 -1.1794836952908854e-16 8.98759583716171e-17 -1.1794836952908854e-16 8.98759583716171e-17 0.934854927817001 -0.35502994794253
12609252000.0 0.930372573803125 -0.36661543054644236 -1.1679191303475354e-16 9.132658701091842e-17 -1.1679191303475354e-16 9.132658701091842e-17 0.9303728314328689 -0.3666147767499174
12609869333.333334 0.9257469151796702 -0.3781436883449584 -1.1561763059136756e-16 9.27623544940737e-17 -1.1561763059136756e-16 9.27623544940737e-17 0.9257471808976082 -0.37814303783084013
12610486666.666666 0.9209784161730932 -0.3896135995356247 -1.1442571293868718e-16 9.418304195980442e-17 -1.1442571293868718e-16 9.418304195980442e-17 0.9209786899374354 -0.3896129524039595
12611104000.0 0.9160678125506516 -0.4010233943406165 -1.1321635350110584e-16 9.558843299211063e-17 -1.1321635350110584e-16 9.558843299211063e-17 0.9160680943183722 -0.40102275069091936
12611721333.333334 0.9110158620060698 -0.41237131225770596 -1.1198974835641727e-16 9.69783136530811e-17 -1.1198974835641727e-16 9.69783136530811e-17 0.9110161517329115 -0.4123706721889448
12612338666.666666 0.9058233440425084 -0.42365560233219235 -1.1074609620404372e-16 9.835247251546156e-17 -1.1074609620404372e-16 9.835247251546156e-17 0.9058236416829899 -0.42365496594277263
12612956000.0 0.9004910598522831 -0.4348745234270667 -1.0948559833293618e-16 9.971070069473266e-17 -1.0948559833293618e-16 9.971070069473266e-17 0.9004913653597063 -0.4348738908148165
12613573333.333334 0.8950198321933518 -0.44602634449143397 -1.0820845858909239e-16 1.0105279188077007e-16 -1.0820845858909239e-16 1.0105279188077007e-16 0.8950201455198108 -0.4460257157535895
12614190666.666666 0.889410505262246 -0.4571093448278675 -1.069148833426359e-16 1.0237854236914468e-16 -1.069148833426359e-16 1.0237854236914468e-16 0.8894108263586332 -0.457108720061058
12614808000.0 0.8836639445638743 -0.46812181435778 -1.056050814545559e-16 1.0368775109195675e-16 -1.056050814545559e-16 1.0368775109195675e-16 0.8836642733798871 -0.4681211936580118
12615425333.333334 0.8777810367779632 -0.47906205388530865 -1.042792642430533e-16 1.0498021964826386e-16 -1.042792642430533e-16 1.0498021964826386e-16 0.8777813732621127 -0.47906143734795126
12616042666.666666 0.8717626896222442 -0.48992837535949707 -1.029376454495184e-16 1.0625575233407693e-16 -1.029376454495184e-16 1.0625575233407693e-16 0.8717630337218648 -0.4899277630792693
12616660000.0 0.8656098317123982 -0.5007191021347583 -1.0158044120414337e-16 1.0751415617192271e-16 -1.0158044120414337e-16 1.0751415617192271e-16 0.8656101833736536 -0.500718494205712
12617277333.333334 0.859323412418741 -0.5114325692296248 -1.0020786999117025e-16 1.0875524093997029e-16 -1.0020786999117025e-16 1.0875524093997029e-16 0.8593237715866332 -0.5114319657451314
12617894666.666666 0.8529044017198696 -0.5220671235834312 -9.882015261380426e-17 1.0997881920069943e-16 -9.882015261380426e-17 1.0997881920069943e-16 0.8529047683382476 -0.5220665246361672
12618512000.0 0.8463537900527468 -0.5326211243117913 -9.741751215872712e-17 1.1118470632916572e-16 -9.741751215872712e-17 1.1118470632916572e-16 0.8463541640643173 -0.5326205299937248
12619129333.333334 0.8396725881601484 -0.543092942959346 -9.600017396034293e-17 1.1237272054074883e-16 -9.600017396034293e-17 1.1237272054074883e-16 0.8396729695064813 -0.5430923533617212
12619746666.666666 0.8328618269345415 -0.5534809637512961 -9.45683655646297e-17 1.135426829184951e-16 -9.45683655646297e-17 1.135426829184951e-16 0.8328622155560819 -0.5534803789646203
12620364000.0 0.8259225572590188 -0.5637835838427098 -9.312231669263899e-17 1.146944174400165e-16 -9.312231669263899e-17 1.146944174400165e-16 0.8259229530950944 -0.5637830039567391
12620981333.333334 0.8188558498452895 -0.5739992135656231 -9.166225920377987e-17 1.1582775100383525e-16 -9.166225920377987e-17 1.1582775100383525e-16 0.8188562528341219 -0.5739986386693491
12621598666.666666 0.8116627950683195 -0.5841262766745633 -9.018842705864013e-17 1.1694251345537896e-16 -9.018842705864013e-17 1.1694251345537896e-16 0.8116632051470315 -0.5841257068561982
12622216000.0 0.8043445027981623 -0.5941632105896357 -8.870105628159357e-17 1.1803853761242151e-16 -8.870105628159357e-17 1.1803853761242151e-16 0.8043449199027891 -0.5941626459366001
12622833333.333334 0.7969021022286595 -0.6041084666376966 -8.720038492305715e-17 1.1911565929008378e-16 -8.720038492305715e-17 1.1911565929008378e-16 0.7969025262941596 -0.6041079072366057
12623450666.666666 0.7893367417033503 -0.6139605102911296 -8.568665302146953e-17 1.201737173253383e-16 -8.568665302146953e-17 1.201737173253383e-16 0.789337172663614 -0.6139599562277802
12624068000.0 0.7816495885380935 -0.6237178214048685 -8.416010256494241e-17 1.212125536010533e-16 -8.416010256494241e-17 1.212125536010533e-16 0.7816500263259534 -0.6237172727642244
12624685333.333334 0.7738418288410026 -0.6333788944508805 -8.262097745263568e-17 1.22232013069541e-16 -8.262097745263568e-17 1.22232013069541e-16 0.7738422733882447 -0.6333783513170612
12625302666.666666 0.7659146673295936 -0.6429422387502662 -8.106952345588674e-17 1.2323194377559053e-16 -8.106952345588674e-17 1.2323194377559053e-16 0.7659151185669684 -0.6429417012065338
12625920000.0 0.757869327144633 -0.6524063787036016 -7.950598817897552e-17 1.2421219687906707e-16 -7.950598817897552e-17 1.2421219687906707e-16 0.7578697850018651 -0.6524058468323474
12626537333.333334 0.749707049661661 -0.6617698540183088 -7.793062101971931e-17 1.251726266769476e-16 -7.793062101971931e-17 1.251726266769476e-16 0.7497075140674603 -0.66176932790104
12627154666.666666 0.741429094299345 -0.6710312199341099 -7.634367312973211e-17 1.261130906249029e-16 -7.634367312973211e-17 1.261130906249029e-16 0.741429565181418 -0.6710306996514385
12627772000.0 0.7330367383250177 -0.6801890474460949 -7.474539737442137e-17 1.270334493583785e-16 -7.474539737442137e-17 1.270334493583785e-16 0.7330372156100793 -0.6801885330777254
12628389333.333334 0.7245312766579632 -0.6892419235248154 -7.313604829282565e-17 1.2793356671311432e-16 -7.313604829282565e-17 1.2793356671311432e-16 0.7245317602717473 -0.6892414151495315
12629006666.666666 0.7159140216691333 -0.6981884513348342 -7.151588205704744e-17 1.2881330974524922e-16 -7.151588205704744e-17 1.2881330974524922e-16 0.7159145115364042 -0.6981879490304869
12629624000.0 0.7071863029790547 -0.7070272504498136 -6.988515643161289e-17 1.2967254875081662e-16 -6.988515643161289e-17 1.2967254875081662e-16 0.7071867990236196 -0.70702675429331
12630241333.333334 0.6983494672524411 -0.7157569570657616 -6.824413073247851e-17 1.3051115728479516e-16 -6.824413073247851e-17 1.3051115728479516e-16 0.6983499693971615 -0.7157564671330527
12630858666.666666 0.6894048779906472 -0.7243762242112227 -6.659306578589944e-17 1.3132901217959343e-16 -6.659306578589944e-17 1.3132901217959343e-16 0.6894053861574515 -0.7243757405772924
12631476000.0 0.6803539153208349 -0.7328837219555477 -6.493222388695069e-17 1.3212599356308e-16 -6.493222388695069e-17 1.3212599356308e-16 0.6803544294307294 -0.7328832446944
12632093333.333334 0.671197975783576 -0.7412781376135656 -6.326186875801848e-17 1.3290198487599897e-16 -6.326186875801848e-17 1.3290198487599897e-16 0.6711984957566581 -0.7412776667982146
12632710666.666666 0.6619384721170221 -0.7495581759484636 -6.158226550692296e-17 1.3365687288894028e-16 -6.158226550692296e-17 1.3365687288894028e-16 0.6619389978724923 -0.7495577116509214
12633328000.0 0.6525768330389187 -0.757722559371635 -5.989368058488573e-17 1.3439054771875988e-16 -5.989368058488573e-17 1.3439054771875988e-16 0.6525773644950933 -0.7577221016629012
12633945333.333334 0.6431145030263266 -0.7657700281396544 -5.819638174437151e-17 1.3510290284443818e-16 -5.819638174437151e-17 1.3510290284443818e-16 0.64311504010065 -0.7657695770897048
12634562666.666666 0.6335529420926371 -0.773699340548749 -5.649063799665595e-17 1.357938351224472e-16 -5.649063799665595e-17 1.357938351224472e-16 0.6335534847016955 -0.7736988962265258
12635180000.0 0.6238936255623184 -0.7815092731263731 -5.477671956925468e-17 1.3646324480156422e-16 -5.477671956925468e-17 1.3646324480156422e-16 0.6238941736218518 -0.7815088355997734
12635797333.333334 0.614138043843229 -0.7891986208200178 -5.3054897863163236e-17 1.3711103553715483e-16 -5.3054897863163236e-17 1.3711103553715483e-16 0.614138597268145 -0.7891981901558834
12636414666.666666 0.6042877021968343 -0.7967661971830112 -5.1325445409969386e-17 1.3773711440490332e-16 -5.1325445409969386e-17 1.3773711440490332e-16 0.6042882609012203 -0.7967657734471187
12637032000.0 0.5943441205056761 -0.8042108345577917 -4.9588635828727e-17 1.3834139191403184e-16 -4.9588635828727e-17 1.3834139191403184e-16 0.5943446844028148 -0.8042104178148434
12637649333.333334 0.5843088330390425 -0.8115313842559375 -4.784474378275511e-17 1.3892378201994837e-16 -4.784474378275511e-17 1.3892378201994837e-16 0.5843094020414228 -0.8115309745695489
12638266666.666666 0.574183388216184 -0.8187267167354367 -4.6094044936250936e-17 1.39484202136364e-16 -4.6094044936250936e-17 1.39484202136364e-16 0.5741839622355157 -0.818726314168129
12638884000.0 0.5639693483674003 -0.8257957217749777 -4.433681591077159e-17 1.4002257314686334e-16 -4.433681591077159e-17 1.4002257314686334e-16 0.5639699273146277 -0.8257953263881671
12639501333.333334 0.5536682894929503 -0.8327373086452639 -4.257333424157477e-17 1.4053881941592874e-16 -4.257333424157477e-17 1.4053881941592874e-16 0.5536688732782669 -0.8327369204992541
12640118666.666666 0.5432818010200228 -0.83955040627722 -4.080387833388164e-17 1.4103286879940197e-16 -4.080387833388164e-17 1.4103286879940197e-16 0.5432823895528843 -0.8395500254311916
12640736000.0 0.5328114855571141 -0.8462339634275071 -3.9028727418892493e-17 1.415046526544329e-16 -3.9028727418892493e-17 1.415046526544329e-16 0.5328120787462514 -0.8462335899395064
12641353333.333334 0.522258958647315 -0.852786948840346 -3.724816150989117e-17 1.4195410584881958e-16 -3.724816150989117e-17 1.4195410584881958e-16 0.5222595564007511 -0.8527865827672813
12641970666.666666 0.5116258485185188 -0.859208351406987 -3.5462461358042964e-17 1.423811667698509e-16 -3.5462461358042964e-17 1.423811667698509e-16 0.5116264507435797 -0.8592079928046144
12642588000.0 0.500913795832519 -0.8654971803214988 -3.3671908408223525e-17 1.4278577733256087e-16 -3.3671908408223525e-17 1.4278577733256087e-16 0.5009144024358513 -0.8654968292444175
12643205333.333334 0.49012445343171984 -0.871652465233744 -3.1876784754716193e-17 1.4316788298743873e-16 -3.1876784754716193e-17 1.4316788298743873e-16 0.49012506431930386 -0.8716521217353884
12643822666.666666 0.4792594860840064 -0.8776732563991569 -3.0077373096792126e-17 1.4352743272758906e-16 -3.0077373096792126e-17 1.4352743272758906e-16 0.4792601011611695 -0.8776729205317846
12644440000.0 0.46832057022609314 -0.8835586248251519 -2.8273956694286836e-17 1.4386437909532e-16 -2.8273956694286836e-17 1.4386437909532e-16 0.4683211893975262 -0.8835582966398386
12645057333.333334 0.4573093937048357 -0.8893076624144888 -2.6466819323057242e-17 1.4417867818818404e-16 -2.6466819323057242e-17 1.4417867818818404e-16 0.45731001687460693 -0.8893073419611205
12645674666.666666 0.44622765551667376 -0.8949194821054572 -2.4656245230383858e-17 1.4447028966445908e-16 -2.4656245230383858e-17 1.4447028966445908e-16 0.4462282825882444 -0.8949191694327218
12646292000.0 0.4350770655454026 -0.9003932180087808 -2.2842519090258713e-17 1.4473917674807868e-16 -2.2842519090258713e-17 1.4473917674807868e-16 0.43507769642164096 -0.9003929131641614
12646909333.333334 0.4238593442986477 -0.9057280255410709 -2.1025925958788598e-17 1.4498530623297626e-16 -2.1025925958788598e-17 1.4498530623297626e-16 0.4238599788818445 -0.9057277285708376
12647526666.666666 0.4125762226421405 -0.9109230815552708 -1.9206751229366734e-17 1.4520864848689952e-16 -1.9206751229366734e-17 1.4520864848689952e-16 0.41257686083402373 -0.9109227925044739
12648144000.0 0.40122944153267354 -0.9159775844676474 -1.7385280587899693e-17 1.4540917745464958e-16 -1.7385280587899693e-17 1.4540917745464958e-16 0.4012300832344249 -0.9159773033801123
12648761333.333334 0.3898207517495541 -0.920890754381441 -1.5561799968030758e-17 1.455868706607563e-16 -1.5561799968030758e-17 1.455868706607563e-16 0.38982139686182293 -0.9208904812997596
12649378666.666666 0.3783519136245681 -0.9256618332071567 -1.3736595506309167e-17 1.457417092115982e-16 -1.3736595506309167e-17 1.457417092115982e-16 0.3783525620474874 -0.9256615681726819
12649996000.0 0.36682469677007834 -0.9302900847796599 -1.1909953497303657e-17 1.458736777969648e-16 -1.1909953497303657e-17 1.458736777969648e-16 0.36682534840327974 -0.9302898278324981
12650613333.333334 0.35524087980615926 -0.934774794971683 -1.008216034878318e-17 1.4598276469104911e-16 -1.008216034878318e-17 1.4598276469104911e-16 0.3552415345487892 -0.9347745461506897
12651230666.666666 0.34360225008624234 -0.9391152718039881 -8.253502536856199e-18 1.4606896175288509e-16 -8.253502536856199e-18 1.4606896175288509e-16 0.34360290783697695 -0.9391150311467603
12651848000.0 0.3319106034210646 -0.9433108455522347 -6.4242665611248926e-18 1.461322644262209e-16 -6.4242665611248926e-18 1.461322644262209e-16 0.33191126407812627 -0.943310613095107
12652465333.333334 0.32016774380182 -0.9473608688502274 -4.594738899853335e-18 1.4617267173883393e-16 -4.594738899853335e-18 1.4617267173883393e-16 0.32016840726299256 -0.9473606446282665
12653082666.666666 0.30837548312180973 -0.9512647167898095 -2.7652059651564517e-18 1.461901863012844e-16 -2.7652059651564517e-18 1.461901863012844e-16 0.30837614928445406 -0.9512645008368062
12653700000.0 0.29653564089660056 -0.9550217870173687 -9.359540582167638e-19 1.4618481430510775e-16 -9.359540582167638e-19 1.4618481430510775e-16 0.29653630965767114 -0.9550215793658364
12654317333.333334 0.2846500439836574 -0.9586314998266579 8.927306754639561e-19 1.4615656552045036e-16 8.927306754639561e-19 1.4615656552045036e-16 0.28465071523971747 -0.9586313005078245
12654934666.666666 0.2727205263001937 -0.9620932982483312 2.720562290771287e-18 1.4610545329314331e-16 2.720562290771287e-18 1.4610545329314331e-16 0.2727211999474318 -0.9620931072921369
12655552000.0 0.2607489285402003 -0.9654066481358747 4.547255087644228e-18 1.460314945412199e-16 4.547255087644228e-18 1.460314945412199e-16 0.2607496044744463 -0.9654064655709665
12656169333.333334 0.24873709789065127 -0.9685710382479671 6.372523655644039e-18 1.4593470975087613e-16 6.372523655644039e-18 1.4593470975087613e-16 0.24873777600739225 -0.9685708641016944
12656786666.666666 0.2366868877463229 -0.9715859803274061 8.19608291854337e-18 1.4581512297187235e-16 8.19608291854337e-18 1.4581512297187235e-16 0.23668756794071957 -0.9715858146258174
12657404000.0 0.22460015742379294 -0.9744510091764567 1.0017648178762728e-17 1.4567276181238114e-16 1.0017648178762728e-17 1.4567276181238114e-16 0.22460083959069543 -0.974450851944294
12658021333.333334 0.2124787718746062 -0.9771656827286076 1.1836935161771859e-17 1.4550765743328007e-16 1.1836935161771859e-17 1.4550765743328007e-16 0.2124794559085708 -0.9771655339893052
12658638666.666666 0.2003246013976294 -0.9797295821167633 1.3653660060399389e-17 1.4531984454189094e-16 1.3653660060399389e-17 1.4531984454189094e-16 0.20032528719293444 -0.9797294418924415
12659256000.0 0.1881395213501909 -0.9821423117379315 1.5467539579051964e-17 1.4510936138516601e-16 1.5467539579051964e-17 1.4510936138516601e-16 0.18814020880085322 -0.9821421800493947
12659873333.333334 0.17592541185896765 -0.9844034993142088 1.7278290977836245e-17 1.4487624974232456e-16 1.7278290977836245e-17 1.4487624974232456e-16 0.17592610085875923 -0.9844033761809432
12660490666.666666 0.16368415752988735 -0.9865127959502284 1.9085632116576727e-17 1.4462055491693878e-16 1.9085632116576727e-17 1.4462055491693878e-16 0.16368484797235155 -0.986512681390399
12661108000.0 0.15141764715705905 -0.9884698761870424 2.0889281498722425e-17 1.4434232572847081e-16 2.0889281498722425e-17 1.4434232572847081e-16 0.15141833893552664 -0.9884697702174873
12661725333.333334 0.13912777343172816 -0.9902744380522686 2.2688958315136144e-17 1.4404161450326565e-16 2.2688958315136144e-17 1.4404161450326565e-16 0.13912846643933463 -0.9902743406885012
12662342666.666666 0.1268164326499316 -0.9919262031067391 2.4484382487758622e-17 1.4371847706499552e-16 2.4484382487758622e-17 1.4371847706499552e-16 0.1268171267796329 -0.9919261143629421
12662960000.0 0.11448552442004399 -0.9934249164874389 2.6275274713141716e-17 1.433729727245635e-16 2.6275274713141716e-17 1.433729727245635e-16 0.11448621956463353 -0.9934248363764641
12663577333.333334 0.10213695136961658 -0.9947703469468359 2.8061356505843205e-17 1.4300516426946448e-16 2.8061356505843205e-17 1.4300516426946448e-16 0.1021376474217417 -0.9947702754802027
12664194666.666666 0.08977261885191987 -0.995962286888552 2.98423502416769e-17 1.426151179526069e-16 2.98423502416769e-17 1.426151179526069e-16 0.08977331570409836 -0.9959622240764453
12664812000.0 0.07739443465178307 -0.997000552399414 3.1617979200810887e-17 1.4220290348059618e-16 3.1617979200810887e-17 1.4220290348059618e-16 0.07739513219641964 -0.997000498250681
12665429333.333334 0.06500430869131221 -0.9978849832778183 3.338796761071581e-17 1.4176859400148061e-16 3.338796761071581e-17 1.4176859400148061e-16 0.06500500682071517 -0.9978849377999681
12666046666.666666 0.052604152735307476 -0.9986154430584419 3.515204068889995e-17 1.4131226609197648e-16 3.515204068889995e-17 1.4131226609197648e-16 0.0526048513417055 -0.9986154062576466
12666664000.0 0.04019588009597108 -0.9991918190333213 3.6909924685601064e-17 1.4083399974412814e-16 3.6909924685601064e-17 1.4083399974412814e-16 0.04019657907152983 -0.9991917909144139
12667281333.333334 0.027781405338056845 -0.9996140222692211 3.866134692609977e-17 1.4033387835149145e-16 3.866134692609977e-17 1.4033387835149145e-16 0.02778210457489541 -0.9996140028356928
12667898666.666666 0.015362643983287419 -0.9998819876213639 4.0406035853040476e-17 1.3981198869474018e-16 4.0406035853040476e-17 1.3981198869474018e-16 0.015363343373495191 -0.9998819768753686
12668516000.0 0.0029415122146238502 -0.9999956737434915 4.214372106848055e-17 1.3926842092676792e-16 4.214372106848055e-17 1.3926842092676792e-16 0.002942211650276998 -0.9999956716858388
12669133333.333334 -0.009480073418998931 -0.9999550630942261 4.387413337567084e-17 1.387032685572908e-16 4.387413337567084e-17 1.387032685572908e-16 -0.009479374045820702 -0.9999550697243883
12669750666.666666 -0.021900196298845254 -0.9997601619397918 4.559700482078256e-17 1.3811662843688634e-16 4.559700482078256e-17 1.3811662843688634e-16 -0.02189949709604209 -0.9997601772558994
12670368000.0 -0.03431694003171026 -0.9994110003530416 4.731206873431241e-17 1.3750860074054854e-16 4.731206873431241e-17 1.3750860074054854e-16 -0.034316241107145505 -0.9994110243518847
