! Parameters = {f0=12700.012000; bw=77.238000; Q=6100.000000; N=10; m_0_1=1.153849; m_1_1=-1.457013; m_1_2=0.988661; m_2_2=-1.457662; m_2_3=0.625624; m_2_8=-0.005244; m_2_9=0.031460; m_3_3=-1.459599; m_3_4=0.514153; m_3_7=-0.004644; m_3_8=-0.101732; m_3_9=-0.005244; m_4_4=-1.462524; m_4_5=0.350488; m_4_6=-0.001127; m_4_7=-0.122281; m_4_8=-0.004644; m_5_5=-1.462142; m_5_6=0.757843; m_5_7=-0.001127; m_6_6=-1.462143; m_6_7=0.350830; m_7_7=-1.462510; m_7_8=0.514271; m_8_8=-1.459601; m_8_9=0.625937; m_9_9=-1.457667; m_9_10=0.989739; m_10_10=-1.457023; m_10_11=1.154644}
!
! Created with skrf (http://scikit-rf.org).
# Hz S RI R 50.0 
!freq ReS11 ImS11 ReS21 ImS21 ReS12 ImS12 ReS22 ImS22
12607400000.0 -0.24874864795319748 0.9685680720224621 -2.2627158351352104e-18 -6.175973805535893e-17 -2.2627158351352104e-18 -6.175973805535893e-17 -0.2487492369498025 0.9685679207555581
12608017333.333334 -0.24187606885364732 0.9703071510175326 -2.705428981949789e-18 -6.172981110172937e-17 -2.705428981949789e-18 -6.172981110172937e-17 -0.24187665887890783 0.9703070039371202
12608634666.666666 -0.23499133385366308 0.9719974655386361 -3.147829264981364e-18 -6.169671427165979e-17 -3.147829264981364e-18 -6.169671427165979e-17 -0.2349919248778272 0.9719973226516972
12609252000.0 -0.22809478895753107 0.9736389306361335 -3.58989401364251e-18 -6.166045051223113e-17 -3.58989401364251e-18 -6.166045051223113e-17 -0.22809538095079981 0.9736387919494396
12609869333.333334 -0.22118678076314782 0.9752314638153811 -4.031600583517377e-18 -6.162102293247368e-17 -4.031600583517377e-18 -6.162102293247368e-17 -0.22118737369567557 0.9752313293354883
12610486666.666666 -0.21426765644451604 0.9767749850408897 -4.472926357494481e-18 -6.157843480314504e-17 -4.472926357494481e-18 -6.157843480314504e-17 -0.21426825028641364 0.9767748547741452
12611104000.0 -0.2073377637342155 0.9782694167403724 -4.913848746953648e-18 -6.153268955649569e-17 -4.913848746953648e-18 -6.153268955649569e-17 -0.20733835845555115 0.9782692906929114
12611721333.333334 -0.2003974509060935 0.9797146838086054 -5.3543451928793275e-18 -6.14837907860325e-17 -5.3543451928793275e-18 -6.14837907860325e-17 -0.20039804647689327 0.9797145619863469
12612338666.666666 -0.19344706675770476 0.9811107136112084 -5.7943931670418545e-18 -6.143174224626755e-17 -5.7943931670418545e-18 -6.143174224626755e-17 -0.1934476631479558 0.9811105960198625
12612956000.0 -0.18648696059256092 0.9824574359883497 -6.233970173131235e-18 -6.137654785246302e-17 -6.233970173131235e-18 -6.137654785246302e-17 -0.18648755777221176 0.9824573226334109
12613573333.333334 -0.1795174822030488 0.983754783258172 -6.673053747901116e-18 -6.131821168036724e-17 -6.673053747901116e-18 -6.131821168036724e-17 -0.1795180801420112 0.9837546741449215
12614190666.666666 -0.1725389818523482 0.9850026902202899 -7.11162146231576e-18 -6.125673796594106e-17 -7.11162146231576e-18 -6.125673796594106e-17 -0.172539580520499 0.985002585353797
12614808000.0 -0.16555181025719337 0.9862010941590058 -7.549650922694884e-18 -6.119213110507716e-17 -7.549650922694884e-18 -6.119213110507716e-17 -0.16555240962437537 0.9862009935441237
12615425333.333334 -0.1585563185699939 0.9873499348464989 -7.987119771849218e-18 -6.11243956533112e-17 -7.987119771849218e-18 -6.11243956533112e-17 -0.15855691860601792 0.9873498384878676
12616042666.666666 -0.1515528583614117 0.9884491545458166 -8.424005690212015e-18 -6.105353632552554e-17 -8.424005690212015e-18 -6.105353632552554e-17 -0.15155345903605805 0.9884490624478632
12616660000.0 -0.14454178160246828 0.9894986980138174 -8.86028639698557e-18 -6.097955799564245e-17 -8.86028639698557e-18 -6.097955799564245e-17 -0.14454238288548782 0.9894986101807516
12617277333.333334 -0.1375234406470512 0.9904985125039065 -9.295939651260962e-18 -6.090246569631258e-17 -9.295939651260962e-18 -6.090246569631258e-17 -0.13752404250816747 0.9904984289397263
12617894666.666666 -0.1304981882141229 0.9914485477687113 -9.730943253152732e-18 -6.08222646185933e-17 -9.730943253152732e-18 -6.08222646185933e-17 -0.13049879062303313 0.9914484684771971
12618512000.0 -0.12346637736990895 0.9923487560626085 -1.016527504493083e-17 -6.073896011161792e-17 -1.016527504493083e-17 -6.073896011161792e-17 -0.12346698029628597 0.9923486810473278
12619129333.333334 -0.1164283615103232 0.9931990921441064 -1.0598912912134595e-17 -6.065255768226082e-17 -1.0598912912134595e-17 -6.065255768226082e-17 -0.11642896492381666 0.9931990214084099
12619746666.666666 -0.10938449434315103 0.9939995132781239 -1.1031834784697745e-17 -6.056306299479123e-17 -1.1031834784697745e-17 -6.056306299479123e-17 -0.1093850982133893 0.9939994468251486
12620364000.0 -0.10233512987004774 0.9947499792381683 -1.146401863808101e-17 -6.047048187051758e-17 -1.146401863808101e-17 -6.047048187051758e-17 -0.10233573416663885 0.9947499170708333
12620981333.333334 -0.09528062236922645 0.995450452308294 -1.1895442494358977e-17 -6.037482028743173e-17 -1.1895442494358977e-17 -6.037482028743173e-17 -0.09528122706176034 0.995450394429305
12621598666.666666 -0.08822132637714616 0.9961008972850645 -1.2326084423364274e-17 -6.027608437983411e-17 -1.2326084423364274e-17 -6.027608437983411e-17 -0.08822193143519573 0.9961008436969111
12622216000.0 -0.0811575966710605 0.9967012814792766 -1.275592254377559e-17 -6.017428043796097e-17 -1.275592254377559e-17 -6.017428043796097e-17 -0.08115820206418307 0.9967012321842303
12622833333.333334 -0.0740897882509048 0.9972515747176294 -1.3184935024240498e-17 -6.00694149075964e-17 -1.3184935024240498e-17 -6.00694149075964e-17 -0.07409039394864408 0.9972515297177484
12623450666.666666 -0.06701825632179519 0.9977517493442147 -1.36131000844679e-17 -5.996149438968221e-17 -1.36131000844679e-17 -5.996149438968221e-17 -0.0670188622936825 0.9977517086413407
12624068000.0 -0.05994335627580879 0.9982017802219383 -1.4040395996334465e-17 -5.985052563991618e-17 -1.4040395996334465e-17 -5.985052563991618e-17 -0.05994396249136458 0.9982017438176956
12624685333.333334 -0.052865443674320854 0.9986016447337606 -1.4466801084987934e-17 -5.97365155683424e-17 -1.4466801084987934e-17 -5.97365155683424e-17 -0.05286605010305641 0.9986016126295589
12625302666.666666 -0.045784874230192604 0.9989513227838384 -1.4892293729930374e-17 -5.961947123893844e-17 -1.4892293729930374e-17 -5.961947123893844e-17 -0.04578548084161138 0.9989512949808698
12625920000.0 -0.03870200378969536 0.9992507967985402 -1.5316852366123422e-17 -5.949939986918736e-17 -1.5316852366123422e-17 -5.949939986918736e-17 -0.0387026105532947 0.9992507732977814
12626537333.333334 -0.03161718831482567 0.9995000517273224 -1.574045548506508e-17 -5.937630882964969e-17 -1.574045548506508e-17 -5.937630882964969e-17 -0.03161779520009821 0.9995000325295336
12627154666.666666 -0.02453078386533067 0.999699075043489 -1.6163081635880002e-17 -5.925020564352259e-17 -1.6163081635880002e-17 -5.925020564352259e-17 -0.02453139084176594 0.9996990601492143
12627772000.0 -0.017443146580699995 0.9998478567448243 -1.6584709426406265e-17 -5.912109798619117e-17 -1.6584709426406265e-17 -5.912109798619117e-17 -0.017443753617785922 0.9998478461543919
12628389333.333334 -0.010354632662608353 0.9999463893540883 -1.7005317524262107e-17 -5.898899368477764e-17 -1.7005317524262107e-17 -5.898899368477764e-17 -0.010355239729832773 0.9999463830676084
12629006666.666666 -0.003265598356502464 0.9999946679193992 -1.7424884657932375e-17 -5.885390071767486e-17 -1.7424884657932375e-17 -5.885390071767486e-17 -0.003266205423354712 0.999994665936767
12629624000.0 0.003823600065791104 0.9999926900144779 -1.784338961783502e-17 -5.871582721407875e-17 -1.784338961783502e-17 -5.871582721407875e-17 0.0038229930298187003 0.9999926923353731
12630241333.333334 0.010912606324368902 0.9999404557387728 -1.826081125738528e-17 -5.857478145351099e-17 -1.826081125738528e-17 -5.857478145351099e-17 0.01091199934977948 0.9999404623626573
12630858666.666666 0.01800106414875816 0.9998379677174534 -1.867712849406325e-17 -5.843077186533362e-17 -1.867712849406325e-17 -5.843077186533362e-17 0.018000457266048788 0.9998379786435737
12631476000.0 0.02508861729636177 0.999685231101276 -1.909232031047902e-17 -5.828380702825431e-17 -1.909232031047902e-17 -5.828380702825431e-17 0.025088010536021922 0.9996852463286624
12632093333.333334 0.03217490956976508 0.9994822535663318 -1.9506365755419477e-17 -5.813389566982998e-17 -1.9506365755419477e-17 -5.813389566982998e-17 0.03217430296227508 0.9994822730937981
12632710666.666666 0.039259584835035034 0.9992290453136536 -1.9919243944905937e-17 -5.798104666595744e-17 -1.9919243944905937e-17 -5.798104666595744e-17 0.039258978410864585 0.999229069139799
12633328000.0 0.04634228703953312 0.9989256190687075 -2.0330934063246284e-17 -5.782526904035707e-17 -2.0330934063246284e-17 -5.782526904035707e-17 0.046341680829139725 0.998925647191914
12633945333.333334 0.05342266022978092 0.9985719900807498 -2.0741415364076755e-17 -5.766657196405203e-17 -2.0741415364076755e-17 -5.766657196405203e-17 0.05342205426360831 0.9985720224991838
12634562666.666666 0.06050034856926394 0.9981681761220664 -2.1150667171397894e-17 -5.750496475483988e-17 -2.1150667171397894e-17 -5.750496475483988e-17 0.0604997428777407 0.9981682128336796
12635180000.0 0.06757499635651375 0.9977141974870721 -2.1558668880623023e-17 -5.734045687675154e-17 -2.1558668880623023e-17 -5.734045687675154e-17 0.06757439097005156 0.9977142384895993
12635797333.333334 0.07464624804278536 0.9972100769912977 -2.196539995959965e-17 -5.7173057939511e-17 -2.196539995959965e-17 -5.7173057939511e-17 0.07464564299177771 0.997210122282259
12636414666.666666 0.08171374825003984 0.9966558399702398 -2.2370839949644796e-17 -5.700277769798129e-17 -2.2370839949644796e-17 -5.700277769798129e-17 0.08171314356486035 0.9966558895469405
12637032000.0 0.08877714178874742 0.9960515142780898 -2.277496846656622e-17 -5.682962605160658e-17 -2.277496846656622e-17 -5.682962605160658e-17 0.08877653749974833 0.9960515681376192
12637649333.333334 0.09583607367585162 0.9953971302863253 -2.3177765201689288e-17 -5.665361304384366e-17 -2.3177765201689288e-17 -5.665361304384366e-17 0.09583546981336234 0.9953971884255581
12638266666.666666 0.10289018915241131 0.9946927208822007 -2.357920992286169e-17 -5.647474886159303e-17 -2.357920992286169e-17 -5.647474886159303e-17 0.10288958574673686 0.9946927832977974
12638884000.0 0.10993913370165614 0.9939383214670736 -2.3979282475477985e-17 -5.629304383461302e-17 -2.3979282475477985e-17 -5.629304383461302e-17 0.10993853078307567 0.9939383881554802
12639501333.333334 0.1169825530666054 0.9931339699546451 -2.4377962783475732e-17 -5.610850843493689e-17 -2.4377962783475732e-17 -5.610850843493689e-17 0.11698195066537041 0.9931340409120913
12640118666.666666 0.12402009326792833 0.9922797067690483 -2.4775230850341616e-17 -5.592115327627694e-17 -2.4775230850341616e-17 -5.592115327627694e-17 0.12401949141426166 0.9922797819915526
12640736000.0 0.1310514006219601 0.9913755748427926 -2.517106676012241e-17 -5.573098911341661e-17 -2.517106676012241e-17 -5.573098911341661e-17 0.13105079934605382 0.9913756543261567
12641353333.333334 0.13807612175799644 0.9904216196146592 -2.556545067839211e-17 -5.553802684161433e-17 -2.556545067839211e-17 -5.553802684161433e-17 0.13807552109001098 0.9904217033544737
12641970666.666666 0.14509390363656163 0.9894178890273613 -2.5958362853269496e-17 -5.534227749597434e-17 -2.5958362853269496e-17 -5.534227749597434e-17 0.14509330360662348 0.9894179770190004
12642588000.0 0.15210439356681132 0.9883644335251688 -2.6349783616382316e-17 -5.514375225083349e-17 -2.6349783616382316e-17 -5.514375225083349e-17 0.15210379420501244 0.9883645257637965
12643205333.333334 0.1591072392243441 0.987261306051373 -2.673969338385991e-17 -5.494246241912577e-17 -2.673969338385991e-17 -5.494246241912577e-17 0.15910664056073967 0.9872614025319388
12643822666.666666 0.16610208866910334 0.9861085620455882 -2.7128072657302003e-17 -5.4738419451748454e-17 -2.7128072657302003e-17 -5.4738419451748454e-17 0.16610149073371044 0.9861086627628286
12644440000.0 0.17308859036272783 0.9849062594410191 -2.7514902024753944e-17 -5.453163493691654e-17 -2.7514902024753944e-17 -5.453163493691654e-17 0.17308799318552434 0.9849063643894597
12645057333.333334 0.18006639318644393 0.9836544586615156 -2.790016216166146e-17 -5.432212059951797e-17 -2.790016216166146e-17 -5.432212059951797e-17 0.18006579679736662 0.9836545678354695
12645674666.666666 0.187035146458628 0.9823532226185522 -2.8283833831843876e-17 -5.410988830045046e-17 -2.8283833831843876e-17 -5.410988830045046e-17 0.18703455088757082 0.9823533360121196
12646292000.0 0.19399449995254062 0.9810026167080379 -2.866589788844803e-17 -5.38949500359579e-17 -2.866589788844803e-17 -5.38949500359579e-17 0.1939939052293538 0.9810027343151088
12646909333.333334 0.2009441039137622 0.9796027088070705 -2.9046335274890464e-17 -5.367731793696568e-17 -2.9046335274890464e-17 -5.367731793696568e-17 0.20094351006825015 0.979602830621322
12647526666.666666 0.20788360907785275 0.9781535692705013 -2.942512702581344e-17 -5.34570042683969e-17 -2.942512702581344e-17 -5.34570042683969e-17 0.20788301613977314 0.9781536952854016
12648144000.0 0.21481266668796142 0.9766552709273938 -2.980225426802143e-17 -5.3234021428491515e-17 -2.980225426802143e-17 -5.3234021428491515e-17 0.21481207468702337 0.9766554011361999
12648761333.333334 0.2217309285122979 0.975107889077372 -3.0177698221413655e-17 -5.3008381948117637e-17 -3.0177698221413655e-17 -5.3008381948117637e-17 0.22173033747816048 0.9751080234731311
12649378666.666666 0.2286380468615775 0.9735115014868481 -3.055144019991768e-17 -5.278009849007291e-17 -3.055144019991768e-17 -5.278009849007291e-17 0.22863745682384823 0.9735116400623969
12649996000.0 0.23553367460657873 0.9718661883850975 -3.09234616124192e-17 -5.254918384837845e-17 -3.09234616124192e-17 -5.254918384837845e-17 0.23553308559481229 0.971866331133064
12650613333.333334 0.24241746519556073 0.9701720324602309 -3.1293743963672945e-17 -5.23156509475739e-17 -3.1293743963672945e-17 -5.23156509475739e-17 0.24241687723925723 0.9701721793730337
12651230666.666666 0.24928907267165237 0.968429118855047 -3.166226885522226e-17 -5.207951284199901e-17 -3.166226885522226e-17 -5.207951284199901e-17 0.24928848580025634 0.9684292699248976
12651848000.0 0.2561481516903221 0.9666375351627347 -3.202901798631111e-17 -5.184078271506839e-17 -3.202901798631111e-17 -5.184078271506839e-17 0.25614756593322036 0.9666376903816349
12652465333.333334 0.2629943575366779 0.964797371422479 -3.2393973154786926e-17 -5.159947387854379e-17 -3.2393973154786926e-17 -5.159947387854379e-17 0.2629937729231985 0.964797530782224
12653082666.666666 0.26982734614270926 0.9629087201149636 -3.2757116257987306e-17 -5.135559977180577e-17 -3.2757116257987306e-17 -5.135559977180577e-17 0.26982676270211997 0.9629088836071402
12653700000.0 0.27664677410477184 0.9609716761576685 -3.3118429293659543e-17 -5.110917396109532e-17 -3.3118429293659543e-17 -5.110917396109532e-17 0.27664619186627837 0.960971843773657
12654317333.333334 0.28345229870065236 0.9589863369001513 -3.347789436081616e-17 -5.0860210138786445e-17 -3.347789436081616e-17 -5.0860210138786445e-17 0.2834517176933976 0.9589865086311264
12654934666.666666 0.2902435779068774 0.9569528021191376 -3.383549366064326e-17 -5.060872212261529e-17 -3.383549366064326e-17 -5.060872212261529e-17 0.29024299815993915 0.9569529779560672
12655552000.0 0.29702027041598134 0.9548711740134757 -3.419120949736509e-17 -5.035472385492686e-17 -3.419120949736509e-17 -5.035472385492686e-17 0.29701969195837125 0.9548713539471217
12656169333.333334 0.3037820356534975 0.9527415571990512 -3.4545024279113776e-17 -5.009822940191015e-17 -3.4545024279113776e-17 -5.009822940191015e-17 0.3037814585141599 0.9527417412199723
12656786666.666666 0.31052853379515594 0.9505640587035076 -3.489692051879711e-17 -4.9839252952823285e-17 -3.489692051879711e-17 -4.9839252952823285e-17 0.3105279580029661 0.9505642468020575
12657404000.0 0.3172594257840433 0.9483387879608398 -3.5246880834962307e-17 -4.957780881921226e-17 -3.5246880834962307e-17 -4.957780881921226e-17 0.3172588513678055 0.9483389801271672
12658021333.333334 0.3239743733474786 0.9460658568059428 -3.559488795264096e-17 -4.931391143413202e-17 -3.559488795264096e-17 -4.931391143413202e-17 0.3239738003359259 0.9460660530299946
12658638666.666666 0.3306730390140982 0.9437453794689737 -3.594092470420016e-17 -4.904757535135473e-17 -3.594092470420016e-17 -4.904757535135473e-17 0.33067246743588913 0.9437455797404913
12659256000.0 0.33735508613086546 0.941377472569581 -3.628497403019357e-17 -4.877881524456522e-17 -3.628497403019357e-17 -4.877881524456522e-17 0.33735451601458505 0.9413776768781065
12659873333.333334 0.3440201788799401 0.9389622551110722 -3.662701898018128e-17 -4.850764590657185e-17 -3.662701898018128e-17 -4.850764590657185e-17 0.3440196102540962 0.9389624634459435
12660490666.666666 0.35066798229547225 0.9364998484744559 -3.696704271356949e-17 -4.823408224849097e-17 -3.696704271356949e-17 -4.823408224849097e-17 0.3506674151884956 0.9365000608248112
12661108000.0 0.35729816228062516 0.933990376412276 -3.730502850043734e-17 -4.795813929893077e-17 -3.730502850043734e-17 -4.795813929893077e-17 0.3572975967208669 0.9339905927670514
12661725333.333334 0.3639103856241784 0.9314339650424598 -3.764095972234695e-17 -4.7679832203178424e-17 -3.764095972234695e-17 -4.7679832203178424e-17 0.36390982163990976 0.9314341853903926
12662342666.666666 0.3705043200173548 0.9288307428419522 -3.797481987315951e-17 -4.739917622237137e-17 -3.797481987315951e-17 -4.739917622237137e-17 0.3705037576367647 0.92883096717158
12662960000.0 0.37707963407060013 0.9261808406402267 -3.830659255984536e-17 -4.71161867326633e-17 -3.830659255984536e-17 -4.71161867326633e-17 0.37707907332179413 0.9261810689398872
12663577333.333334 0.3836359973300785 0.923484391612772 -3.863626150327429e-17 -4.683087922439509e-17 -3.863626150327429e-17 -4.683087922439509e-17 0.3836354382410774 0.9234846238706044
12664194666.666666 0.39017308029435954 0.9207415312743675 -3.8963810539020195e-17 -4.654326930124445e-17 -3.8963810539020195e-17 -4.654326930124445e-17 0.3901725228930981 0.9207417674783143
12664812000.0 0.39669055443105716 0.9179523974722418 -3.9289223618137546e-17 -4.625337267938658e-17 -3.9289223618137546e-17 -4.625337267938658e-17 0.3966899987453826 0.9179526376100475
12665429333.333334 0.4031880921931826 0.9151171303792086 -3.961248480795341e-17 -4.596120518663276e-17 -3.961248480795341e-17 -4.596120518663276e-17 0.4031875382508533 0.9151173744384223
12666046666.666666 0.40966536703568496 0.9122358724865918 -3.9933578292831864e-17 -4.5666782761580814e-17 -3.9933578292831864e-17 -4.5666782761580814e-17 0.40966481486436906 0.9122361204545663
12666664000.0 0.41612205343194025 0.9093087685970274 -4.025248837495283e-17 -4.537012145274202e-17 -4.025248837495283e-17 -4.537012145274202e-17 0.4161215030592136 0.9093090204609191
12667281333.333334 0.4225578268899284 0.9063359658172663 -4.056919947506549e-17 -4.5071237417680365e-17 -4.056919947506549e-17 -4.5071237417680365e-17 0.4225572783432748 0.9063362215640393
12667898666.666666 0.42897236396872485 0.9033176135507041 -4.0883696133247826e-17 -4.4770146922134466e-17 -4.0883696133247826e-17 -4.4770146922134466e-17 0.4289718172755328 0.9033178731671271
12668516000.0 0.43536534229467566 0.9002538634899027 -4.119596300965983e-17 -4.446686633913452e-17 -4.119596300965983e-17 -4.446686633913452e-17 0.435364797482238 0.900254126962551
12669133333.333334 0.4417364405775481 0.8971448696089914 -4.1505984885277663e-17 -4.4161412148125824e-17 -4.1505984885277663e-17 -4.4161412148125824e-17 0.44173589767306093 0.8971451369242492
12669750666.666666 0.4480853386267306 0.8939907881559097 -4.18137466626401e-17 -4.385380093406937e-17 -4.18137466626401e-17 -4.385380093406937e-17 0.4480847976572911 0.8939910592999685
