! Parameters = {f0=12700.012000; bw=77.238000; Q=6100.000000; N=10; m_0_1=1.280976; m_1_1=0.449894; m_1_2=1.115788; m_2_2=0.449245; m_2_3=0.752751; m_2_8=0.001112; m_2_9=0.037816; m_3_3=0.447308; m_3_4=0.641280; m_3_7=0.001712; m_3_8=-0.095376; m_3_9=0.001112; m_4_4=0.444383; m_4_5=0.477615; m_4_6=0.005229; m_4_7=-0.115925; m_4_8=0.001712; m_5_5=0.444765; m_5_6=0.884970; m_5_7=0.005229; m_6_6=0.444764; m_6_7=0.477957; m_7_7=0.444397; m_7_8=0.641398; m_8_8=0.447306; m_8_9=0.753064; m_9_9=0.449240; m_9_10=1.116866; m_10_10=0.449884; m_10_11=1.281771}
!
! Created with skrf (http://scikit-rf.org).
# Hz S RI R 50.0 
!freq ReS11 ImS11 ReS21 ImS21 ReS12 ImS12 ReS22 ImS22
12607400000.0 0.9138126970827619 0.40613588200274703 -1.1545890422021342e-16 -1.5119735690193506e-17 -1.1545890422021342e-16 -1.5119735690193506e-17 0.9138124229919609 0.40613649871118773
12608017333.333334 0.9181643774195294 0.39619966688227914 -1.1559470702505753e-16 -1.3853471641565995e-17 -1.1559470702505753e-16 -1.3853471641565995e-17 0.9181641100475126 0.39620028649722056
12608634666.666666 0.9224080214914768 0.3862168327351876 -1.1571663120687677e-16 -1.2586046551573979e-17 -1.1571663120687677e-16 -1.2586046551573979e-17 0.9224077608690455 0.38621745518344164
12609252000.0 0.9265431299682008 0.37618855419662894 -1.158246676206404e-16 -1.1317612438113523e-17 -1.158246676206404e-16 -1.1317612438113523e-17 0.9265428761253595 0.3761891794046811
12609869333.333334 0.9305692162902148 0.3661160112489426 -1.1591880878538304e-16 -1.0048321380178278e-17 -1.1591880878538304e-16 -1.0048321380178278e-17 0.9305689692561662 0.3661166391429607
12610486666.666666 0.9344858067261262 0.35600038908299214 -1.1599904888444385e-16 -8.778325499691481e-18 -1.1599904888444385e-16 -8.778325499691481e-18 0.9344855665292696 0.35600101958883545
12611104000.0 0.9382924404285337 0.3458428779583124 -1.1606538376551398e-16 -7.507776943254218e-18 -1.1606538376551398e-16 -7.507776943254218e-18 0.9382922070964609 0.34584351100154
12611721333.333334 0.9419886694880458 0.33564467306358664 -1.1611781094047805e-16 -6.2368278640001635e-18 -1.1611781094047805e-16 -6.2368278640001635e-18 0.9419884430475398 0.33564530856946667
12612338666.666666 0.9455740589861326 0.3254069743756439 -1.1615632958506263e-16 -4.9656304033576525e-18 -1.1615632958506263e-16 -4.9656304033576525e-18 0.945573839463161 0.3254076122691617
12612956000.0 0.9490481870462805 0.3151309865182868 -1.1618094053828148e-16 -3.69433667288623e-18 -1.1618094053828148e-16 -3.69433667288623e-18 0.9490479744659955 0.31513162672415435
12613573333.333334 0.9524106448835463 0.30481791862081936 -1.1619164630168488e-16 -2.4230987361207147e-18 -1.1619164630168488e-16 -2.4230987361207147e-18 0.9524104392702801 0.30481856106348376
12614190666.666666 0.9556610368527804 0.2944689841753963 -1.161884510384095e-16 -1.1520685903850552e-18 -1.161884510384095e-16 -1.1520685903850552e-18 0.9556608382300436 0.294469628779049
12614808000.0 0.9587989804950837 0.28408540089453377 -1.161713605720305e-16 1.1860185134897577e-19 -1.161713605720305e-16 1.1860185134897577e-19 0.958798788885563 0.2840860475831197
12615425333.333334 0.9618241065828483 0.2736683905677197 -1.1614038238521515e-16 1.3887607785727384e-18 -1.1614038238521515e-16 1.3887607785727384e-18 0.9618239220084006 0.2736690392649451
12616042666.666666 0.964736059163222 0.26321917891756785 -1.1609552561817906e-16 2.658256501358749e-18 -1.1609552561817906e-16 2.658256501358749e-18 0.9647358816448757 0.2632198295469107
12616660000.0 0.9675344955999434 0.2527389954557566 -1.1603680106694442e-16 3.926937468457194e-18 -1.1603680106694442e-16 3.926937468457194e-18 0.9675343251578961 0.2527396479404753
12617277333.333334 0.9702190866137023 0.2422290733382221 -1.1596422118140156e-16 5.194652285342375e-18 -1.1596422118140156e-16 5.194652285342375e-18 0.9702189232673157 0.24222972760136388
12617894666.666666 0.9727895163208324 0.2316906492202506 -1.1587780006317444e-16 6.461249732243329e-18 -1.1587780006317444e-16 6.461249732243329e-18 0.9727893600886315 0.2316913051846609
12618512000.0 0.9752454822705804 0.22112496311055213 -1.157775534632849e-16 7.726578782199101e-18 -1.157775534632849e-16 7.726578782199101e-18 0.9752453331702512 0.22112562069888403
12619129333.333334 0.9775866954805609 0.21053325822590757 -1.1566349877962937e-16 8.990488618972058e-18 -1.1566349877962937e-16 8.990488618972058e-18 0.9775865535289487 0.21053391736063043
12619746666.666666 0.9798128804708547 0.19991678084449782 -1.1553565505425085e-16 1.0252828655040852e-17 -1.1553565505425085e-16 1.0252828655040852e-17 0.9798127456839615 0.1999174414479066
12620364000.0 0.981923775296404 0.18927678015931412 -1.153940429704196e-16 1.1513448549506344e-17 -1.153940429704196e-16 1.1513448549506344e-17 0.9819236476893887 0.18927744215353887
12620981333.333334 0.9839191315778092 0.1786145081313112 -1.1523868484951997e-16 1.2772198225951257e-17 -1.1523868484951997e-16 1.2772198225951257e-17 0.9839190111649828 0.17861517143832567
12621598666.666666 0.9857987145305758 0.16793121934198268 -1.150696046477398e-16 1.402892789029074e-17 -1.150696046477398e-16 1.402892789029074e-17 0.985798601325403 0.16793188388361407
12622216000.0 0.9875623029927347 0.1572281708457684 -1.1488682795256754e-16 1.5283488048565846e-17 -1.1488682795256754e-16 1.5283488048565846e-17 0.9875621970078308 0.1572288365437062
12622833333.333334 0.9892096894508717 0.14650662202211417 -1.1469038197909466e-16 1.6535729524697334e-17 -1.1469038197909466e-16 1.6535729524697334e-17 0.9892095906979995 0.14650728879791927
12623450666.666666 0.9907406800645193 0.13576783442742668 -1.1448029556612619e-16 1.7785503478194737e-17 -1.1448029556612619e-16 1.7785503478194737e-17 0.990740588554592 0.13576850220254122
12624068000.0 0.9921550946890093 0.12501307164637945 -1.1425659917209803e-16 1.9032661421814912e-17 -1.1425659917209803e-16 1.9032661421814912e-17 0.9921550104320848 0.1250137403421353
12624685333.333334 0.9934527668966403 0.11424359914337213 -1.1401932487079942e-16 2.027705523919106e-17 -1.1401932487079942e-16 2.027705523919106e-17 0.9934526899019219 0.1142442686810006
12625302666.666666 0.9946335439962396 0.10346068411382672 -1.137685063469143e-16 2.151853720235545e-17 -1.137685063469143e-16 2.151853720235545e-17 0.9946334742720779 0.10346135441446802
12625920000.0 0.9956972870511951 0.09266559533457523 -1.1350417889135264e-16 2.2756959989309145e-17 -1.1350417889135264e-16 2.2756959989309145e-17 0.9956972246050824 0.09266626631928732
12626537333.333334 0.9966438708957305 0.08185960301513215 -1.1322637939641556e-16 2.3992176701410183e-17 -1.1322637939641556e-16 2.3992176701410183e-17 0.9966438157343026 0.08186027460490024
12627154666.666666 0.9974731841496737 0.07104397864795302 -1.129351463507539e-16 2.5224040880798302e-17 -1.129351463507539e-16 2.5224040880798302e-17 0.9974731362787091 0.07104465076369891
12627772000.0 0.998185129231568 0.0602199948586815 -1.1263051983413566e-16 2.6452406527759646e-17 -1.1263051983413566e-16 2.6452406527759646e-17 0.9981850886559853 0.06022066742127276
12628389333.333334 0.9987796223701183 0.04938892525683013 -1.1231254151204703e-16 2.7677128117937076e-17 -1.1231254151204703e-16 2.7677128117937076e-17 0.9987795890939792 0.04938959818708956
12629006666.666666 0.9992565936140921 0.038552044285382114 -1.1198125463007824e-16 2.8898060619598746e-17 -1.1198125463007824e-16 2.8898060619598746e-17 0.9992565676405984 0.03855271750409699
12629624000.0 0.9996159868405144 0.027710627071315296 -1.1163670400814191e-16 3.01150595107577e-17 -1.1163670400814191e-16 3.01150595107577e-17 0.999615968172008 0.02771130049924666
12630241333.333334 0.9998577597612898 0.016865949275280057 -1.1127893603449922e-16 3.132798079624951e-17 -1.1127893603449922e-16 3.132798079624951e-17 0.999857748399253 0.016866622833172102
12630858666.666666 0.9999818839281713 0.006019286941725304 -1.1090799865960386e-16 3.2536681024734064e-17 -1.1090799865960386e-16 3.2536681024734064e-17 0.9999818798732273 0.006019960550314694
12631476000.0 0.9999883447361135 -0.004828083651674146 -1.1052394138975009e-16 3.374101730566018e-17 -1.1052394138975009e-16 3.374101730566018e-17 0.9999883479880255 -0.004827410071648985
12632093333.333334 0.9998771414249872 -0.015674886143651517 -1.1012681528055512e-16 3.494084732610001e-17 -1.1012681528055512e-16 3.494084732610001e-17 0.9998771519826578 -0.015674212671441045
12632710666.666666 0.9996482870796692 -0.026519844239815918 -1.0971667293025007e-16 3.613602936753614e-17 -1.0971667293025007e-16 3.613602936753614e-17 0.9996483049411422 -0.026519170954650166
12633328000.0 0.9993018086285018 -0.03736168186291337 -1.0929356847277947e-16 3.732642232259898e-17 -1.0929356847277947e-16 3.732642232259898e-17 0.9993018337909622 -0.03736100884399262
12633945333.333334 0.9988377468401258 -0.04819912330283501 -1.0885755757074171e-16 3.8511885711662597e-17 -1.0885755757074171e-16 3.8511885711662597e-17 0.998837779299899 -0.04819845062932047
12634562666.666666 0.9982561563186834 -0.0590308933666957 -1.0840869740812731e-16 3.9692279699420835e-17 -1.0840869740812731e-16 3.9692279699420835e-17 0.9982561960712377 -0.059030221117700225
12635180000.0 0.9975571054973941 -0.0698557175289371 -1.0794704668289572e-16 4.086746511133043e-17 -1.0794704668289572e-16 4.086746511133043e-17 0.9975571525373393 -0.06985504578351584
12635797333.333334 0.9967406766304941 -0.0806723220814088 -1.0747266559936128e-16 4.203730345000601e-17 -1.0747266559936128e-16 4.203730345000601e-17 0.9967407309515834 -0.08067165091854993
12636414666.666666 0.9958069657835752 -0.09147943428295603 -1.0698561586041473e-16 4.3201656911493866e-17 -1.0698561586041473e-16 4.3201656911493866e-17 0.9958070273787071 -0.09147876378157159
12637032000.0 0.9947560828222664 -0.10227578250946148 -1.0648596065954853e-16 4.4360388401505114e-17 -1.0648596065954853e-16 4.4360388401505114e-17 0.9947561516834809 -0.1022751127483777
12637649333.333334 0.9935881513993066 -0.1130600964033288 -1.0597376467273257e-16 4.551336155149705e-17 -1.0597376467273257e-16 4.551336155149705e-17 0.9935882275177931 -0.1130594274612774
12638266666.666666 0.9923033089400086 -0.12383110702296117 -1.0544909405009824e-16 4.666044073470395e-17 -1.0544909405009824e-16 4.666044073470395e-17 0.9923033923061011 -0.12383043897856956
12638884000.0 0.9909017066260655 -0.1345875469921838 -1.0491201640745062e-16 4.780149108206987e-17 -1.0491201640745062e-16 4.780149108206987e-17 0.9909017972292479 -0.13458687992396634
12639501333.333334 0.9893835093777825 -0.1453281506492297 -1.0436260081761874e-16 4.893637849806033e-17 -1.0436260081761874e-16 4.893637849806033e-17 0.9893836072066877 -0.14532748463557812
12640118666.666666 0.987748895834688 -0.15605165419558054 -1.0380091780163445e-16 5.006496967638229e-17 -1.0380091780163445e-16 5.006496967638229e-17 0.9877490008770993 -0.1560509893147548
12640736000.0 0.9859980583344282 -0.16675679584520556 -1.0322703931970805e-16 5.118713211566754e-17 -1.0322703931970805e-16 5.118713211566754e-17 0.985998170577282 -0.1667561321753247
12641353333.333334 0.9841312028902695 -0.1774423159721878 -1.0264103876210739e-16 5.230273413491018e-17 -1.0264103876210739e-16 5.230273413491018e-17 0.984131322319656 -0.17744165359122077
12641970666.666666 0.9821485491667444 -0.18810695725964033 -1.0204299093978932e-16 5.3411644888961444e-17 -1.0204299093978932e-16 5.3411644888961444e-17 0.9821486757679107 -0.18810629624539701
12642588000.0 0.9800503304538586 -0.198749464847341 -1.0143297207491895e-16 5.451373438380983e-17 -1.0143297207491895e-16 5.451373438380983e-17 0.9800504642112071 -0.19874880527746247
12643205333.333334 0.977836793639637 -0.2093685864793855 -1.0081105979119924e-16 5.560887349180369e-17 -1.0081105979119924e-16 5.560887349180369e-17 0.977836934536732 -0.20936792843133573
12643822666.666666 0.9755081991810314 -0.21996307265175824 -1.0017733310404644e-16 5.669693396674317e-17 -1.0017733310404644e-16 5.669693396674317e-17 0.9755083472005973 -0.2199624162028143
12644440000.0 0.9730648210733357 -0.23053167675904912 -9.95318724106029e-17 5.777778845886491e-17 -9.95318724106029e-17 5.777778845886491e-17 0.9730649761972615 -0.23053102198629252
12645057333.333334 0.970506946817918 -0.24107315524127554 -9.887475947958787e-17 5.885131052971294e-17 -9.887475947958787e-17 5.885131052971294e-17 0.970507109027258 -0.241072502221583
12645674666.666666 0.9678348773884077 -0.2515862677301517 -9.820607744098014e-17 5.991737466690942e-17 -9.820607744098014e-17 5.991737466690942e-17 0.9678350466633847 -0.2515856165401862
12646292000.0 0.9650489271952006 -0.26206977719533947 -9.752591077554682e-17 6.097585629879997e-17 -9.752591077554682e-17 6.097585629879997e-17 0.9650491035152079 -0.2620691279115412
12646909333.333334 0.9621494240485976 -0.27252245008948084 -9.683434530423393e-17 6.202663180895071e-17 -9.683434530423393e-17 6.202663180895071e-17 0.962149607392202 -0.27252180278805843
12647526666.666666 0.9591367091201378 -0.28294305649373047 -9.613146817736098e-17 6.306957855058895e-17 -9.613146817736098e-17 6.306957855058895e-17 0.959136899465081 -0.28294241125065145
12648144000.0 0.9560111369024685 -0.2933303702623901 -9.541736786369568e-17 6.410457486086713e-17 -9.541736786369568e-17 6.410457486086713e-17 0.9560113342256717 -0.293329727153373
12648761333.333334 0.9527730751676372 -0.3036831691671846 -9.469213413936334e-17 6.513150007502309e-17 -9.469213413936334e-17 6.513150007502309e-17 0.9527732794452024 -0.30368252826768916
12649378666.666666 0.949422904923866 -0.31400023504091257 -9.39558580766078e-17 6.615023454040982e-17 -9.39558580766078e-17 6.615023454040982e-17 0.949423116131079 -0.31399959642613107
12649996000.0 0.9459610203706466 -0.32428035392102755 -9.320863203238175e-17 6.716065963042871e-17 -9.320863203238175e-17 6.716065963042871e-17 0.9459612384819797 -0.3242797176658761
12650613333.333334 0.9423878288523858 -0.33452231619236955 -9.245054963682048e-17 6.816265775828578e-17 -9.245054963682048e-17 6.816265775828578e-17 0.9423880538415034 -0.3345216823714799
12651230666.666666 0.9387037508105289 -0.34472491672936323 -9.16817057815551e-17 6.915611239064092e-17 -9.16817057815551e-17 6.915611239064092e-17 0.9387039826502871 -0.3447242854170727
12651848000.0 0.9349092197339491 -0.3548869550381922 -9.090219660784976e-17 7.0140908061161e-17 -9.090219660784976e-17 7.0140908061161e-17 0.9349094583964015 -0.3548863263085363
12652465333.333334 0.9310046821080881 -0.3650072353976558 -9.011211949465077e-17 7.111693038386836e-17 -9.011211949465077e-17 7.111693038386836e-17 0.9310049275644875 -0.36500660932435836
12653082666.666666 0.9269905973623922 -0.375084566999945 -8.931157304645457e-17 7.208406606640379e-17 -8.931157304645457e-17 7.208406606640379e-17 0.9269908495831962 -0.3750839436564109
12653700000.0 0.9228674378161206 -0.3851177640911038 -8.85006570810251e-17 7.304220292316362e-17 -8.85006570810251e-17 7.304220292316362e-17 0.922867696770992 -0.3851171435504087
12654317333.333334 0.9186356886229735 -0.3951056461100212 -8.767947261700835e-17 7.399122988825392e-17 -8.767947261700835e-17 7.399122988825392e-17 0.9186359542807873 -0.3951050284449045
12654934666.666666 0.914295847713866 -0.4050470378277145 -8.684812186137922e-17 7.493103702834108e-17 -8.684812186137922e-17 7.493103702834108e-17 0.9142961200427108 -0.40504642311057
12655552000.0 0.9098484257383515 -0.41494076948555775 -8.600670819675024e-17 7.586151555536125e-17 -8.600670819675024e-17 7.586151555536125e-17 0.9098487047055341 -0.41494015778842513
12656169333.333334 0.9052939460045957 -0.4247856769327923 -8.515533616857868e-17 7.678255783905257e-17 -8.515533616857868e-17 7.678255783905257e-17 0.9052942315766462 -0.42478506832734947
12656786666.666666 0.9006329444177572 -0.434580601763612 -8.429411147218367e-17 7.769405741940353e-17 -8.429411147218367e-17 7.769405741940353e-17 0.900633236560431 -0.43457999632116584
12657404000.0 0.8958659694169389 -0.44432439145344094 -8.34231409396864e-17 7.859590901889666e-17 -8.34231409396864e-17 7.859590901889666e-17 0.8958662680952211 -0.44432378924491867
12658021333.333334 0.8909935819106432 -0.45401589949457055 -8.25425325267846e-17 7.948800855464499e-17 -8.25425325267846e-17 7.948800855464499e-17 0.8909938870887543 -0.45401530059051287
12658638666.666666 0.8860163552108514 -0.463653985530914 -8.165239529941294e-17 8.037025315036387e-17 -8.165239529941294e-17 8.037025315036387e-17 0.8860166668522498 -0.4636533900014651
12659256000.0 0.880934874965381 -0.47323751549253834 -8.075283942026219e-17 8.124254114820753e-17 -8.075283942026219e-17 8.124254114820753e-17 0.8809351930327696 -0.47323692340743956
12659873333.333334 0.8757497390891721 -0.48276536172872825 -7.984397613519382e-17 8.210477212043558e-17 -7.984397613519382e-17 8.210477212043558e-17 0.8757500635444994 -0.48276477315730765
12660490666.666666 0.8704615576938947 -0.49223640314074757 -7.892591775952316e-17 8.295684688093414e-17 -7.892591775952316e-17 8.295684688093414e-17 0.8704618884983633 -0.4922358181519141
12661108000.0 0.8650709530159839 -0.5016495253140782 -7.799877766414264e-17 8.379866749662048e-17 -7.799877766414264e-17 8.379866749662048e-17 0.8650712901300522 -0.5016489439763121
12661725333.333334 0.8595785593436956 -0.5110036206490496 -7.706267026160401e-17 8.463013729861666e-17 -7.706267026160401e-17 8.463013729861666e-17 0.8595789027270838 -0.511003043030395
12662342666.666666 0.8539850229422703 -0.5202975884915398 -7.611771099200192e-17 8.545116089334458e-17 -7.611771099200192e-17 8.545116089334458e-17 0.8539853725539643 -0.5202970146595964
12662960000.0 0.8482910019779827 -0.529530335262309 -7.516401630877731e-17 8.626164417342768e-17 -7.516401630877731e-17 8.626164417342768e-17 0.8482913577762395 -0.529529765284224
12663577333.333334 0.8424971664406263 -0.5387007745857971 -7.420170366441249e-17 8.706149432842834e-17 -7.420170366441249e-17 8.706149432842834e-17 0.842497528382981 -0.5387002085282593
12664194666.666666 0.8366041980647717 -0.5478078274178115 -7.323089149599153e-17 8.785061985544643e-17 -7.323089149599153e-17 8.785061985544643e-17 0.8366045661080382 -0.5478072653470403
12664812000.0 0.8306127902494854 -0.5568504221725858 -7.225169921066239e-17 8.862893056954385e-17 -7.225169921066239e-17 8.862893056954385e-17 0.8306131643497653 -0.5568498641543255
12665429333.333334 0.8245236479767424 -0.5658274948488697 -7.126424717097155e-17 8.9396337614022e-17 -7.126424717097155e-17 8.9396337614022e-17 0.8245240280894292 -0.565826940948382
12666046666.666666 0.8183374877285702 -0.5747379891549848 -7.026865668013045e-17 9.015275347050399e-17 -7.026865668013045e-17 9.015275347050399e-17 0.8183378738083535 -0.57473743943704
12666664000.0 0.8120550374025002 -0.5835808566334634 -6.926504996710935e-17 9.089809196890554e-17 -6.926504996710935e-17 9.089809196890554e-17 0.8120554294033726 -0.5835803111623337
12667281333.333334 0.8056770362262451 -0.5923550567839498 -6.825355017170568e-17 9.163226829717893e-17 -6.825355017170568e-17 9.163226829717893e-17 0.8056774341015068 -0.5923545156234011
12667898666.666666 0.7992042346705069 -0.6010595571859355 -6.723428132943199e-17 9.235519901095011e-17 -6.723428132943199e-17 9.235519901095011e-17 0.7992046383727713 -0.6010590203992204
12668516000.0 0.7926373943606151 -0.6096933336203026 -6.620736835635391e-17 9.306680204294839e-17 -6.620736835635391e-17 9.306680204294839e-17 0.7926378038418148 -0.6096928012701531
12669133333.333334 0.7859772879871689 -0.6182553701895013 -6.517293703383045e-17 9.376699671227041e-17 -6.517293703383045e-17 9.376699671227041e-17 0.7859777031985616 -0.6182548423381216
12669750666.666666 0.7792246992148777 -0.6267446594374021 -6.413111399310518e-17 9.445570373350839e-17 -6.413111399310518e-17 9.445570373350839e-17 0.7792251201070516 -0.6267441361464607
12670368000.0 0.7723804225904354 -0.6351602024677255 -6.308202669986336e-17 9.513284522566595e-17 -6.308202669986336e-17 9.513284522566595e-17 0.7723808491133144 -0.6351596837983479
