! Parameters = {f0=12700.012000; bw=77.238000; Q=6100.000000; N=10; m_0_1=1.201897; m_1_1=-0.736292; m_1_2=1.036709; m_2_2=-0.736941; m_2_3=0.673672; m_2_8=-0.002841; m_2_9=0.033863; m_3_3=-0.738878; m_3_4=0.562201; m_3_7=-0.002241; m_3_8=-0.099329; m_3_9=-0.002841; m_4_4=-0.741803; m_4_5=0.398536; m_4_6=0.001276; m_4_7=-0.119878; m_4_8=-0.002241; m_5_5=-0.741421; m_5_6=0.805891; m_5_7=0.001276; m_6_6=-0.741422; m_6_7=0.398878; m_7_7=-0.741789; m_7_8=0.562319; m_8_8=-0.738880; m_8_9=0.673985; m_9_9=-0.736946; m_9_10=1.037787; m_10_10=-0.736302; m_10_11=1.202692}
!
! Created with skrf (http://scikit-rf.org).
# Hz S RI R 50.0 
!freq ReS11 ImS11 ReS21 ImS21 ReS12 ImS12 ReS22 ImS22
12607400000.0 -0.4810722407545382 -0.8766809563206276 5.633633033006182e-17 5.583287917752815e-17 5.633633033006182e-17 5.583287917752815e-17 -0.4810716855093469 -0.8766812610071223
12608017333.333334 -0.4885149721605187 -0.8725555122597367 5.680318341337437e-17 5.5335582608363576e-17 5.680318341337437e-17 5.5335582608363576e-17 -0.48851441955523406 -0.8725558216449277
12608634666.666666 -0.495922328466257 -0.8683668833669603 5.7265653322988e-17 5.483438902703545e-17 5.7265653322988e-17 5.483438902703545e-17 -0.49592177854063535 -0.8683671974279861
12609252000.0 -0.5032937732789204 -0.8641153729557813 5.772370758732957e-17 5.432933701123645e-17 5.772370758732957e-17 5.432933701123645e-17 -0.5032932260725191 -0.8641156916694421
12609869333.333334 -0.5106287728061528 -0.8598012888931514 5.817731407388821e-17 5.382046540871528e-17 5.817731407388821e-17 5.382046540871528e-17 -0.5106282283583288 -0.8598016122359138
12610486666.666666 -0.5179267958946584 -0.8554249435772459 5.862644099145874e-17 5.3307813334299296e-17 5.862644099145874e-17 5.3307813334299296e-17 -0.517926254244565 -0.8554252715252434
12611104000.0 -0.5251873140688348 -0.85098665391474 5.907105689236703e-17 5.2791420166887654e-17 5.907105689236703e-17 5.2791420166887654e-17 -0.5251867752554186 -0.8509869864437744
12611721333.333334 -0.5324098015688457 -0.8464867412979752 5.951113067463971e-17 5.2271325546460286e-17 5.951113067463971e-17 5.2271325546460286e-17 -0.5324092656308447 -0.8464870783835197
12612338666.666666 -0.5395937353888409 -0.8419255315816008 5.99466315841833e-17 5.1747569371028224e-17 5.99466315841833e-17 5.1747569371028224e-17 -0.5395932023647807 -0.8419258731988007
12612956000.0 -0.5467385953148501 -0.8373033550589576 6.037752921691407e-17 5.1220191793591095e-17 6.037752921691407e-17 5.1220191793591095e-17 -0.5467380652430421 -0.8373037011826336
12613573333.333334 -0.5538438639622639 -0.8326205464382869 6.080379352086371e-17 5.068923321907614e-17 6.080379352086371e-17 5.068923321907614e-17 -0.5538433368808012 -0.8326208970429345
12614190666.666666 -0.5609090268134419 -0.8278774448183984 6.12253947982699e-17 5.0154734301243234e-17 6.12253947982699e-17 5.0154734301243234e-17 -0.5609085027601978 -0.8278777998781917
12614808000.0 -0.5679335722549937 -0.8230743936640987 6.164230370762685e-17 4.961673593959102e-17 6.164230370762685e-17 4.961673593959102e-17 -0.5679330512676188 -0.8230747531528919
12615425333.333334 -0.5749169916147577 -0.8182117407813689 6.205449126571448e-17 4.907527927623662e-17 6.205449126571448e-17 4.907527927623662e-17 -0.5749164737306767 -0.8182121046726982
12616042666.666666 -0.5818587791986807 -0.813289838292145 6.246192884960162e-17 4.853040569277922e-17 6.246192884960162e-17 4.853040569277922e-17 -0.5818582644550891 -0.813290206559229
12616660000.0 -0.5887584323273444 -0.8083090426088841 6.286458819861408e-17 4.798215680715581e-17 6.286458819861408e-17 4.798215680715581e-17 -0.5887579207612075 -0.8083094152246288
12617277333.333334 -0.5956154513725282 -0.8032697144086425 6.326244141629053e-17 4.743057447046101e-17 6.326244141629053e-17 4.743057447046101e-17 -0.5956149430205783 -0.8032700913456419
12617894666.666666 -0.6024293397931839 -0.7981722186071065 6.365546097228902e-17 4.687570076377981e-17 6.365546097228902e-17 4.687570076377981e-17 -0.6024288346919155 -0.7981725998376432
12618512000.0 -0.6091996041716641 -0.7930169243319656 6.404361970429378e-17 4.631757799496653e-17 6.404361970429378e-17 4.631757799496653e-17 -0.6091991023573338 -0.7930173098280144
12619129333.333334 -0.615925754249156 -0.7878042048964017 6.44268908198609e-17 4.575624869545359e-17 6.44268908198609e-17 4.575624869545359e-17 -0.6159252557577782 -0.7878045946296311
12619746666.666666 -0.6226073029613216 -0.7825344377719567 6.480524789826124e-17 4.5191755617010644e-17 6.480524789826124e-17 4.5191755617010644e-17 -0.6226068078286674 -0.7825348317137323
12620364000.0 -0.6292437664737002 -0.7772080045610915 6.517866489229454e-17 4.462414172848828e-17 6.517866489229454e-17 4.462414172848828e-17 -0.6292432747352933 -0.7772084026824762
12620981333.333334 -0.6358346642164548 -0.771825290969783 6.554711613005157e-17 4.405345021258248e-17 6.554711613005157e-17 4.405345021258248e-17 -0.63583417590757 -0.7718256932415396
12621598666.666666 -0.6423795189194378 -0.7663866867793783 6.59105763166777e-17 4.347972446253961e-17 6.59105763166777e-17 4.347972446253961e-17 -0.6423790340750984 -0.7663870931719727
12622216000.0 -0.6488778566465547 -0.7608925858185335 6.626902053608937e-17 4.2903008078875376e-17 6.626902053608937e-17 4.2903008078875376e-17 -0.6488773753015288 -0.760892996302135
12622833333.333334 -0.6553292068302571 -0.7553433859345483 6.662242425266448e-17 4.2323344866075847e-17 6.662242425266448e-17 4.2323344866075847e-17 -0.6553287290190563 -0.7553438004790336
12623450666.666666 -0.6617331023054451 -0.7497394889647037 6.69707633129088e-17 4.174077882927738e-17 6.69707633129088e-17 4.174077882927738e-17 -0.6617326280623218 -0.7497399075396579
12624068000.0 -0.6680890793434251 -0.7440813007070509 6.731401394709263e-17 4.1155354170934895e-17 6.731401394709263e-17 4.1155354170934895e-17 -0.6680886087023714 -0.7440817232817724
12624685333.333334 -0.6743966776855344 -0.7383692308909927 6.76521527708584e-17 4.056711528747437e-17 6.76521527708584e-17 4.056711528747437e-17 -0.6743962106802762 -0.7383696574344905
12625302666.666666 -0.6806554405761699 -0.7326036931478721 6.798515678678824e-17 3.9976106765954324e-17 6.798515678678824e-17 3.9976106765954324e-17 -0.6806549772401681 -0.7326041236288727
12625920000.0 -0.6868649147963106 -0.7267851049806262 6.831300338596368e-17 3.938237338067538e-17 6.831300338596368e-17 3.938237338067538e-17 -0.6868644551627556 -0.7267855393675722
12626537333.333334 -0.6930246506959535 -0.720913887733891 6.863567034947573e-17 3.8785960089814376e-17 6.863567034947573e-17 3.8785960089814376e-17 -0.6930241947977664 -0.7209143259949478
12627154666.666666 -0.6991342022268489 -0.7149904665633453 6.895313584991607e-17 3.8186912032026664e-17 6.895313584991607e-17 3.8186912032026664e-17 -0.6991337500966752 -0.7149909086663985
12627772000.0 -0.7051931269748334 -0.7090152704048753 6.926537845284408e-17 3.758527452302651e-17 6.926537845284408e-17 3.758527452302651e-17 -0.7051926786450436 -0.7090157163175371
12628389333.333334 -0.71120098619171 -0.7029887319436791 6.957237711820216e-17 3.698109305219726e-17 6.957237711820216e-17 3.698109305219726e-17 -0.7112005416943958 -0.702989181633288
12629006666.666666 -0.7171573448272371 -0.6969112875827099 6.987411120173273e-17 3.637441327913054e-17 6.987411120173273e-17 3.637441327913054e-17 -0.7171569041942101 -0.6969117410163347
12629624000.0 -0.7230617715604334 -0.6907833774112774 7.017056045633337e-17 3.5765281030215894e-17 7.017056045633337e-17 3.5765281030215894e-17 -0.7230613348232217 -0.690783834555719
12630241333.333334 -0.7289138388309488 -0.6846054451730367 7.046170503340966e-17 3.5153742295165536e-17 7.046170503340966e-17 3.5153742295165536e-17 -0.7289134060207964 -0.6846059059948308
12630858666.666666 -0.7347131228698334 -0.6783779382340633 7.074752548417616e-17 3.4539843223572644e-17 7.074752548417616e-17 3.4539843223572644e-17 -0.7347126940176959 -0.6783784026994825
12631476000.0 -0.7404592037305519 -0.6721013075501037 7.102800276094845e-17 3.3923630121414517e-17 7.102800276094845e-17 3.3923630121414517e-17 -0.7404587788670952 -0.6721017756251593
12632093333.333334 -0.7461516653190634 -0.6657760076342725 7.130311821838232e-17 3.3305149447594374e-17 7.130311821838232e-17 3.3305149447594374e-17 -0.7461512444746622 -0.6657764792847184
12632710666.666666 -0.7517900954241092 -0.6594024965239751 7.157285361469613e-17 3.268444781044481e-17 7.157285361469613e-17 3.268444781044481e-17 -0.7517896786288437 -0.6594029717153095
12633328000.0 -0.7573740857470801 -0.6529812357477176 7.183719111287109e-17 3.20615719642032e-17 7.183719111287109e-17 3.20615719642032e-17 -0.7573736730307353 -0.6529817144451865
12633945333.333334 -0.7629032319315258 -0.6465126902917486 7.209611328179865e-17 3.143656880552646e-17 7.209611328179865e-17 3.143656880552646e-17 -0.7629028233235875 -0.6465131724603465
12634562666.666666 -0.7683771335924543 -0.639997328566367 7.234960309741568e-17 3.080948536995822e-17 7.234960309741568e-17 3.080948536995822e-17 -0.7683767291221077 -0.63999781417084
12635180000.0 -0.7737953943453252 -0.6334356223720021 7.259764394380291e-17 3.0180368828399055e-17 7.259764394380291e-17 3.0180368828399055e-17 -0.7737949940414541 -0.6334361113768524
12635797333.333334 -0.7791576218347891 -0.6268280468650056 7.284021961425053e-17 2.95492664835744e-17 7.284021961425053e-17 2.95492664835744e-17 -0.779157225725973 -0.6268285392344927
12636414666.666666 -0.7844634277629585 -0.6201750805234214 7.307731431229748e-17 2.8916225766483885e-17 7.307731431229748e-17 2.8916225766483885e-17 -0.7844630358774686 -0.6201755762215629
12637032000.0 -0.7897124279177364 -0.6134772051120697 7.330891265274005e-17 2.828129423284245e-17 7.330891265274005e-17 2.828129423284245e-17 -0.789712040283537 -0.6134777041026475
12637649333.333334 -0.794904242200499 -0.6067349056478396 7.353499966260521e-17 2.7644519559524023e-17 7.353499966260521e-17 2.7644519559524023e-17 -0.7949038588452436 -0.6067354078944003
12638266666.666666 -0.8000384946536709 -0.5999486703644997 7.375556078209742e-17 2.7005949540987227e-17 7.375556078209742e-17 2.7005949540987227e-17 -0.8000381156046993 -0.5999491758303567
12638884000.0 -0.8051148134878808 -0.5931189906774332 7.397058186550994e-17 2.6365632085706432e-17 7.397058186550994e-17 2.6365632085706432e-17 -0.80511443877222 -0.5931194993256721
12639501333.333334 -0.8101328311090061 -0.5862463611478962 7.41800491821137e-17 2.5723615212572713e-17 7.41800491821137e-17 2.5723615212572713e-17 -0.8101324607533654 -0.586246872941374
12640118666.666666 -0.8150921841446189 -0.5793312794474299 7.438394941700204e-17 2.5079947047323675e-17 7.438394941700204e-17 2.5079947047323675e-17 -0.8150918181753908 -0.5793317943487813
12640736000.0 -0.8199925134705879 -0.5723742463214355 7.458226967192417e-17 2.4434675818909868e-17 7.458226967192417e-17 2.4434675818909868e-17 -0.8199921519138418 -0.5723747642930717
12641353333.333334 -0.8248334642366945 -0.5653757655534386 7.477499746605871e-17 2.3787849855941792e-17 7.477499746605871e-17 2.3787849855941792e-17 -0.8248331071181814 -0.5653762865575543
12641970666.666666 -0.8296146858926194 -0.5583363439282221 7.496212073678788e-17 2.3139517583033412e-17 7.496212073678788e-17 2.3139517583033412e-17 -0.8296143332377639 -0.5583368679267946
12642588000.0 -0.8343358322132536 -0.5512564911952151 7.514362784041597e-17 2.2489727517216386e-17 7.514362784041597e-17 2.2489727517216386e-17 -0.8343354840471562 -0.5512570181500099
12643205333.333334 -0.8389965613237257 -0.5441367200316541 7.53195075528707e-17 2.1838528264304295e-17 7.53195075528707e-17 2.1838528264304295e-17 -0.8389962176711582 -0.5441372499042254
12643822666.666666 -0.8435965357242492 -0.5369775460053133 7.548974907036826e-17 2.1185968515266476e-17 7.548974907036826e-17 2.1185968515266476e-17 -0.8435961966096546 -0.5369780787570078
12644440000.0 -0.8481354223144244 -0.5297794875373859 7.565434201004514e-17 2.053209704260571e-17 7.565434201004514e-17 2.053209704260571e-17 -0.8481350877619154 -0.5297800231293462
12645057333.333334 -0.8526128924174686 -0.5225430658647777 7.581327641056204e-17 1.9876962696718408e-17 7.581327641056204e-17 1.9876962696718408e-17 -0.8526125624508238 -0.5225436042579439
12645674666.666666 -0.8570286218039532 -0.5152688050024566 7.596654273267335e-17 1.9220614402263407e-17 7.596654273267335e-17 1.9220614402263407e-17 -0.8570282964466179 -0.5152693461575704
12646292000.0 -0.8613822907154041 -0.5079572317053149 7.611413185977352e-17 1.8563101154489833e-17 7.611413185977352e-17 1.8563101154489833e-17 -0.8613819699904876 -0.5079577755829212
12646909333.333334 -0.8656735838872759 -0.5006088754303136 7.625603509839729e-17 1.790447201562629e-17 7.625603509839729e-17 1.790447201562629e-17 -0.8656732678175496 -0.5006094219907647
12647526666.666666 -0.869902190571874 -0.4932242682980011 7.6392244178702e-17 1.7244776111205687e-17 7.6392244178702e-17 1.7244776111205687e-17 -0.8699018791797702 -0.4932248175014588
12648144000.0 -0.8740678045609255 -0.4858039450538535 7.652275125491313e-17 1.6584062626410728e-17 7.652275125491313e-17 1.6584062626410728e-17 -0.874067497868535 -0.4858044968602916
12648761333.333334 -0.878170124207637 -0.47834844302974994 7.664754890573482e-17 1.5922380802433866e-17 7.664754890573482e-17 1.5922380802433866e-17 -0.8781698222367094 -0.4783489973989585
12649378666.666666 -0.8822088524485722 -0.4708583021050146 7.676663013473529e-17 1.5259779932804076e-17 7.676663013473529e-17 1.5259779932804076e-17 -0.8822085552205114 -0.47085885899660107
12649996000.0 -0.8861836968251705 -0.463334064667295 7.687998837069809e-17 1.459630935972199e-17 7.687998837069809e-17 1.459630935972199e-17 -0.8861834043610363 -0.46333462404068887
12650613333.333334 -0.8900943695049713 -0.45577627557321304 7.69876174679408e-17 1.393201847039949e-17 7.69876174679408e-17 1.393201847039949e-17 -0.8900940818254763 -0.455776837387668
12651230666.666666 -0.8939405873023486 -0.4481854821091102 7.708951170660206e-17 1.3266956693399624e-17 7.708951170660206e-17 1.3266956693399624e-17 -0.8939403044278559 -0.4481860463237065
12651848000.0 -0.8977220716991573 -0.44056223395113714 7.718566579289968e-17 1.2601173494955073e-17 7.718566579289968e-17 1.2601173494955073e-17 -0.8977217936496809 -0.4405628005247859
12652465333.333334 -0.9014385488648028 -0.43290708312565407 7.7276074859355e-17 1.1934718375305168e-17 7.7276074859355e-17 1.1934718375305168e-17 -0.9014382756600056 -0.43290765201709963
12653082666.666666 -0.9050897496760199 -0.4252205839693593 7.736073446498433e-17 1.1267640865033882e-17 7.736073446498433e-17 1.1267640865033882e-17 -0.9050894813352123 -0.4252211551371821
12653700000.0 -0.9086754097365588 -0.4175032930887374 7.74396405954643e-17 1.0599990521374094e-17 7.74396405954643e-17 1.0599990521374094e-17 -0.9086751462786962 -0.4175038664913569
12654317333.333334 -0.9121952693961095 -0.40975576932021535 7.751278966325763e-17 9.931816924566346e-18 7.751278966325763e-17 9.931816924566346e-18 -0.9121950108397928 -0.4097563449158935
12654934666.666666 -0.9156490737692523 -0.4019785736893871 7.758017850771486e-17 9.263169674162249e-18 7.758017850771486e-17 9.263169674162249e-18 -0.9156488201327243 -0.40197915143623064
12655552000.0 -0.9190365727538602 -0.39417226937048916 7.764180439513988e-17 8.594098385360936e-18 7.764180439513988e-17 8.594098385360936e-18 -0.919036324055008 -0.394172849226454
12656169333.333334 -0.9223575210491839 -0.38633742164569923 7.769766501882506e-17 7.924652685343666e-18 7.769766501882506e-17 7.924652685343666e-18 -0.9223572773055336 -0.3863380035685922
12656786666.666666 -0.9256116781736778 -0.37847459786404514 7.774775849905605e-17 7.254882209589028e-18 7.774775849905605e-17 7.254882209589028e-18 -0.9256114394023951 -0.3784751818115273
12657404000.0 -0.9287988084823698 -0.37058436740042483 7.779208338308334e-17 6.584836598211083e-18 7.779208338308334e-17 6.584836598211083e-18 -0.9287985747002592 -0.3705849533300151
12658021333.333334 -0.9319186811839579 -0.3626673016142973 7.783063864506335e-17 5.914565492283118e-18 7.783063864506335e-17 5.914565492283118e-18 -0.9319184524074609 -0.36266788948337514
12658638666.666666 -0.9349710703574292 -0.3547239738085468 7.78634236859665e-17 5.244118530189334e-18 7.78634236859665e-17 5.244118530189334e-18 -0.9349708466026229 -0.3547245635743554
12659256000.0 -0.9379557549685847 -0.34675495918754434 7.789043833345717e-17 4.5735453439228e-18 7.789043833345717e-17 4.5735453439228e-18 -0.9379555362511819 -0.34675555080719384
12659873333.333334 -0.9408725188859113 -0.33876083481583874 7.791168284173785e-17 3.902895555449507e-18 7.791168284173785e-17 3.902895555449507e-18 -0.9408723052212575 -0.33876142824630917
12660490666.666666 -0.9437211508962545 -0.3307421795763181 7.792715789136488e-17 3.232218773043651e-18 7.792715789136488e-17 3.232218773043651e-18 -0.943720942299328 -0.3307427747744621
12661108000.0 -0.9465014447201696 -0.3226995741281284 7.793686458903208e-17 2.561564587603121e-18 7.793686458903208e-17 2.561564587603121e-18 -0.9465012412055819 -0.3227001710506759
12661725333.333334 -0.9492131990267865 -0.31463360086484293 7.79408044673216e-17 1.8909825690320036e-18 7.79408044673216e-17 1.8909825690320036e-18 -0.9492130006087781 -0.31463419946840243
12662342666.666666 -0.9518562174484521 -0.3065448438720991 7.793897948442616e-17 1.2205222625485097e-18 7.793897948442616e-17 1.2205222625485097e-18 -0.9518560241408925 -0.3065454441131616
12662960000.0 -0.9544303085949098 -0.29843388888541045 7.793139202383691e-17 5.502331850537305e-19 7.793139202383691e-17 5.502331850537305e-19 -0.9544301204112987 -0.2984344907203528
12663577333.333334 -0.9569352860671817 -0.29030132324769814 7.791804489400232e-17 -1.1983517852042662e-19 7.791804489400232e-17 -1.1983517852042662e-19 -0.9569351030206462 -0.2903019266327862
12664194666.666666 -0.9593709684710308 -0.2821477358668678 7.789894132795446e-17 -7.896333788573283e-19 7.789894132795446e-17 -7.896333788573283e-19 -0.9593707905743243 -0.28214834075825945
12664812000.0 -0.9617371794301448 -0.27397371717300145 7.787408498290479e-17 -1.4591120058865684e-18 7.787408498290479e-17 -1.4591120058865684e-18 -0.9617370066956471 -0.2739743235267495
12665429333.333334 -0.9640337475988863 -0.2657798590756839 7.784347993980831e-17 -2.1282216924349637e-18 7.784347993980831e-17 -2.1282216924349637e-18 -0.9640335800386004 -0.2657804668477395
12666046666.666666 -0.9662605066746729 -0.25756675492122216 7.78071307028972e-17 -2.7969131178375463e-18 7.78071307028972e-17 -2.7969131178375463e-18 -0.9662603443002276 -0.2575673640674382
12666664000.0 -0.9684172954100768 -0.24933499944948798 7.776504219918183e-17 -3.4651370115901557e-18 7.776504219918183e-17 -3.4651370115901557e-18 -0.9684171382327248 -0.24933560992562248
12667281333.333334 -0.9705039576244417 -0.24108518875107038 7.77172197779237e-17 -4.1328441569394376e-18 7.77172197779237e-17 -4.1328441569394376e-18 -0.9705038056550579 -0.2410858005127891
12667898666.666666 -0.9725203422152359 -0.23281792022394543 7.76636692100738e-17 -4.799985394522705e-18 7.76636692100738e-17 -4.799985394522705e-18 -0.9725201954643166 -0.23281853322682547
12668516000.0 -0.9744663031690046 -0.22453379253016076 7.760439668768252e-17 -5.466511625968998e-18 7.760439668768252e-17 -5.466511625968998e-18 -0.9744661616466664 -0.22453440672969333
12669133333.333334 -0.9763416995718572 -0.2162334055528436 7.753940882327848e-17 -6.132373817496485e-18 7.753940882327848e-17 -6.132373817496485e-18 -0.9763415632878398 -0.2162340209044382
12669750666.666666 -0.9781463956197802 -0.20791736035231945 7.746871264921487e-17 -6.797523003523488e-18 7.746871264921487e-17 -6.797523003523488e-18 -0.9781462645834398 -0.20791797681130592
12670368000.0 -0.9798802606284126 -0.19958625912280742 7.739231561698678e-17 -7.461910290253254e-18 7.739231561698678e-17 -7.461910290253254e-18 -0.9798801348487275 -0.19958687664444022
