! Parameters = {f0=12700.012000; bw=77.238000; Q=6100.000000; N=10; m_0_1=1.163859; m_1_1=-1.306863; m_1_2=0.998671; m_2_2=-1.307512; m_2_3=0.635634; m_2_8=-0.004743; m_2_9=0.031961; m_3_3=-1.309449; m_3_4=0.524163; m_3_7=-0.004143; m_3_8=-0.101231; m_3_9=-0.004743; m_4_4=-1.312374; m_4_5=0.360498; m_4_6=-0.000626; m_4_7=-0.121780; m_4_8=-0.004143; m_5_5=-1.311992; m_5_6=0.767853; m_5_7=-0.000626; m_6_6=-1.311993; m_6_7=0.360840; m_7_7=-1.312360; m_7_8=0.524281; m_8_8=-1.309451; m_8_9=0.635947; m_9_9=-1.307517; m_9_10=0.999749; m_10_10=-1.306873; m_10_11=1.164654}
!
! Created with skrf (http://scikit-rf.org).
# Hz S RI R 50.0 
!freq ReS11 ImS11 ReS21 ImS21 ReS12 ImS12 ReS22 ImS22
12607400000.0 -0.4681152818785459 0.8836674051200603 1.289297555009858e-17 -6.38826491370311e-17 1.289297555009858e-17 -6.38826491370311e-17 -0.4681158238928554 0.8836671179923835
12608017333.333334 -0.46157657189598716 0.8871003710272025 1.2412740326800524e-17 -6.396469179385868e-17 1.2412740326800524e-17 -6.396469179385868e-17 -0.4615771159893254 0.8871000879240337
12608634666.666666 -0.45501268753688906 0.8904849544940716 1.1931999651682924e-17 -6.40431282464808e-17 1.1931999651682924e-17 -6.40431282464808e-17 -0.45501323367937946 0.8904846754304567
12609252000.0 -0.44842398679541545 0.8938209709255852 1.1450780575229184e-17 -6.411795552648696e-17 1.1450780575229184e-17 -6.411795552648696e-17 -0.4484245349570722 0.8938206959163483
12609869333.333334 -0.4418108290192151 0.8971082383755069 1.0969110164035941e-17 -6.418917086815606e-17 1.0969110164035941e-17 -6.418917086815606e-17 -0.441811379169945 0.8971079674352486
12610486666.666666 -0.43517357488982156 0.9003465775563678 1.0487015499305116e-17 -6.425677170853023e-17 1.0487015499305116e-17 -6.425677170853023e-17 -0.43517412699942604 0.9003463106994659
12611104000.0 -0.42851258640298323 0.9035358118492469 1.0004523675306441e-17 -6.432075568748134e-17 1.0004523675306441e-17 -6.432075568748134e-17 -0.42851314044115985 0.9035355490898553
12611721333.333334 -0.4218282268489188 0.9066757673134029 9.521661797885614e-18 -6.438112064775953e-17 9.521661797885614e-18 -6.438112064775953e-17 -0.4218287827852633 0.9066755086654513
12612338666.666666 -0.41512086079250526 0.9097662726957629 9.038456982928464e-18 -6.443786463503695e-17 9.038456982928464e-18 -6.443786463503695e-17 -0.415121418596512 0.9097660181729536
12612956000.0 -0.4083908540533919 0.9128071594402585 8.554936354843436e-18 -6.449098589793701e-17 8.554936354843436e-18 -6.449098589793701e-17 -0.40839141369445714 0.9128069090560688
12613573333.333334 -0.4016385736860505 0.9157982616970217 8.071127045060743e-18 -6.454048288805078e-17 8.071127045060743e-18 -6.454048288805078e-17 -0.40163913513347316 0.9157980154647023
12614190666.666666 -0.3948643879597562 0.918739416331432 7.587056190496856e-18 -6.458635425994617e-17 7.587056190496856e-18 -6.458635425994617e-17 -0.3948649511827393 0.9187391742640044
12614808000.0 -0.3880686663384999 0.9216304629330074 7.102750932046774e-18 -6.462859887116244e-17 7.102750932046774e-18 -6.462859887116244e-17 -0.38806923130615345 0.9216302250432667
12615425333.333334 -0.38125177946084143 0.9244712438241623 6.618238413065701e-18 -6.466721578219462e-17 6.618238413065701e-18 -6.466721578219462e-17 -0.3812523461421826 0.9244710101246731
12616042666.666666 -0.3744140991196911 0.9272616040687989 6.133545777854816e-18 -6.470220425646641e-17 6.133545777854816e-18 -6.470220425646641e-17 -0.3744146674836467 0.9272613745718957
12616660000.0 -0.36755599824203455 0.9300013914807617 5.648700170138411e-18 -6.473356376029245e-17 5.648700170138411e-18 -6.473356376029245e-17 -0.3675565682574431 0.9300011661985501
12617277333.333334 -0.3606778508685662 0.9326904566321481 5.163728731558193e-18 -6.476129396282782e-17 5.163728731558193e-18 -6.476129396282782e-17 -0.3606784225041785 0.9326902355765009
12617894666.666666 -0.3537800321334206 0.9353286528614033 4.678658600160963e-18 -6.478539473600714e-17 4.678658600160963e-18 -6.478539473600714e-17 -0.35378060535790323 0.935328436043964
12618512000.0 -0.34686291824342297 0.9379158362814378 4.193516908866796e-18 -6.480586615447341e-17 4.193516908866796e-18 -6.480586615447341e-17 -0.3468634930253578 0.9379156237136148
12619129333.333334 -0.33992688645794017 0.9404518657873254 3.708330783982348e-18 -6.482270849549309e-17 3.708330783982348e-18 -6.482270849549309e-17 -0.33992746276582825 0.9404516574802971
12619746666.666666 -0.3329723150680421 0.9429366030641088 3.2231273436708634e-18 -6.483592223886217e-17 3.2231273436708634e-18 -6.483592223886217e-17 -0.33297289287030324 0.9429363990288173
12620364000.0 -0.3259995833758655 0.9453699125943311 2.7379336964416843e-18 -6.48455080668001e-17 2.7379336964416843e-18 -6.48455080668001e-17 -0.32600016264084203 0.9453697128414872
12620981333.333334 -0.31900907167417136 0.947751661665352 2.2527769396574707e-18 -6.485146686383184e-17 2.2527769396574707e-18 -6.485146686383184e-17 -0.31900965237012835 0.9477514662054296
12621598666.666666 -0.31200116122533317 0.9500817203766715 1.7676841580076074e-18 -6.485379971666007e-17 1.7676841580076074e-18 -6.485379971666007e-17 -0.3120017433204613 0.9500815292199113
12622216000.0 -0.304976234240679 0.9523599616469745 1.2826824220105635e-18 -6.485250791402496e-17 1.2826824220105635e-18 -6.485250791402496e-17 -0.30497681770309526 0.9523597748033801
12622833333.333334 -0.29793467385959027 0.9545862612210761 7.977987865047226e-19 -6.484759294655312e-17 7.977987865047226e-19 -6.484759294655312e-17 -0.2979352586573404 0.9545860787004153
12623450666.666666 -0.2908768641287141 0.9567604976766642 3.1306028915174787e-19 -6.483905650659579e-17 3.1306028915174787e-19 -6.483905650659579e-17 -0.2908774502297744 0.956760319488469
12624068000.0 -0.28380318998088305 0.9588825524309675 -1.7150605107511135e-19 -6.482690048805505e-17 -1.7150605107511135e-19 -6.482690048805505e-17 -0.28380377735316137 0.9588823785845315
12624685333.333334 -0.27671403721409144 0.9609523097472272 -6.558732353936911e-19 -6.481112698619932e-17 -6.558732353936911e-19 -6.481112698619932e-17 -0.27671462582542994 0.9609521402516068
12625302666.666666 -0.2696097924707281 0.9629696567409294 -1.140014286693617e-18 -6.479173829746788e-17 -1.140014286693617e-18 -6.479173829746788e-17 -0.26961038228890416 0.9629694916049429
12625920000.0 -0.26249084321607824 0.9649344833860813 -1.6239022510612578e-18 -6.476873691926335e-17 -1.6239022510612578e-18 -6.476873691926335e-17 -0.262491434208807 0.9649343226183092
12626537333.333334 -0.2553575777175752 0.966846682521104 -2.1075101992475572e-18 -6.474212554973459e-17 -2.1075101992475572e-18 -6.474212554973459e-17 -0.2553581698525104 0.9668465261298861
12627154666.666666 -0.24821038502345913 0.9687061498547213 -2.5908112281817706e-18 -6.471190708754682e-17 -2.5908112281817706e-18 -6.471190708754682e-17 -0.2482109782681956 0.9687059978481589
12627772000.0 -0.24104965494139385 0.9705127839716935 -3.073778462453693e-18 -6.467808463164139e-17 -3.073778462453693e-18 -6.467808463164139e-17 -0.24105024926346907 0.9705126363576476
12628389333.333334 -0.2338757780175916 0.9722664863382458 -3.556385055802997e-18 -6.464066148098513e-17 -3.556385055802997e-18 -6.464066148098513e-17 -0.2338763733844874 0.972266343124337
12629006666.666666 -0.22668914551509972 0.9739671613075496 -4.038604192613669e-18 -6.459964113430705e-17 -4.038604192613669e-18 -6.459964113430705e-17 -0.2266897418942444 0.9739670225011587
12629624000.0 -0.21949014939276434 0.975614716124862 -4.520409089387801e-18 -6.45550272898255e-17 -4.520409089387801e-18 -6.45550272898255e-17 -0.21949074675153388 0.9756145817331277
12630241333.333334 -0.21227918228368708 0.9772090609326246 -5.001772996237227e-18 -6.450682384496352e-17 -5.001772996237227e-18 -6.450682384496352e-17 -0.21227978058940744 0.977208930962445
12630858666.666666 -0.20505663747397773 0.9787501087753286 -5.482669198352518e-18 -6.445503489605425e-17 -5.482669198352518e-18 -6.445503489605425e-17 -0.2050572366939264 0.9787499832333603
12631476000.0 -0.19782290888099846 0.9802377756043235 -5.9630710175005346e-18 -6.439966473803207e-17 -5.9630710175005346e-18 -6.439966473803207e-17 -0.19782350898240614 0.9802376544969793
12632093333.333334 -0.1905783910322412 0.9816719802823219 -6.4429518134755074e-18 -6.434071786411813e-17 -6.4429518134755074e-18 -6.434071786411813e-17 -0.19057899198229367 0.9816718636157732
12632710666.666666 -0.18332347904364277 0.9830526445878608 -6.922284985582136e-18 -6.427819896549075e-17 -6.922284985582136e-18 -6.427819896549075e-17 -0.18332408080948306 0.9830525323680369
12633328000.0 -0.17605856859789684 0.9843796932195992 -7.401043974114079e-18 -6.421211293094504e-17 -7.401043974114079e-18 -6.421211293094504e-17 -0.17605917114662645 0.984379585452185
12633945333.333334 -0.16878405592312326 0.9856530538003686 -7.879202261803984e-18 -6.414246484654452e-17 -7.879202261803984e-18 -6.414246484654452e-17 -0.16878465922180427 0.9856529504908066
12634562666.666666 -0.161500337771119 0.9868726568811536 -8.356733375296188e-18 -6.40692599952592e-17 -8.356733375296188e-18 -6.40692599952592e-17 -0.1615009417867758 0.9868725580346417
12635180000.0 -0.15420781139574694 0.9880384359448706 -8.833610886605419e-18 -6.399250385659394e-17 -8.833610886605419e-18 -6.399250385659394e-17 -0.15420841609536803 0.9880383415663638
12635797333.333334 -0.14690687453124174 0.9891503274100026 -9.309808414576033e-18 -6.391220210620543e-17 -9.309808414576033e-18 -6.391220210620543e-17 -0.14690747988178157 0.9891502375042109
12636414666.666666 -0.13959792537062943 0.9902082706340463 -9.785299626328994e-18 -6.382836061550973e-17 -9.785299626328994e-18 -6.382836061550973e-17 -0.13959853133901026 0.9902081852054365
12637032000.0 -0.13228136254384196 0.9912122079168498 -1.0260058238723732e-17 -6.37409854512764e-17 -1.0260058238723732e-17 -6.37409854512764e-17 -0.13228196909695553 0.9912121269696434
12637649333.333334 -0.12495758509608802 0.9921620845037401 -1.0734058019798567e-17 -6.36500828752148e-17 -1.0734058019798567e-17 -6.36500828752148e-17 -0.1249581922007973 0.9921620080419129
12638266666.666666 -0.11762699246606065 0.9930578485885105 -1.120727279021666e-17 -6.35556593435477e-17 -1.120727279021666e-17 -6.35556593435477e-17 -0.11762760008920202 0.9930577766157955
12638884000.0 -0.11028998446415265 0.9938994513162531 -1.16796764247068e-17 -6.34577215065752e-17 -1.16796764247068e-17 -6.34577215065752e-17 -0.11029059257253725 0.9938993838361363
12639501333.333334 -0.10294696125065016 0.9946868467860165 -1.2151242853500504e-17 -6.335627620822757e-17 -1.2151242853500504e-17 -6.335627620822757e-17 -0.10294756981106601 0.9946867838017394
12640118666.666666 -0.09559832331393692 0.995419992053312 -1.262194606376373e-17 -6.325133048560802e-17 -1.262194606376373e-17 -6.325133048560802e-17 -0.09559893229315053 0.9954199335678697
12640736000.0 -0.08824447144850943 0.9960988471324644 -1.3091760101035515e-17 -6.314289156852218e-17 -1.3091760101035515e-17 -6.314289156852218e-17 -0.08824508081326786 0.9960987931486076
12641353333.333334 -0.08088580673340125 0.9967233749987702 -1.356065907063606e-17 -6.303096687900356e-17 -1.356065907063606e-17 -6.303096687900356e-17 -0.08088641645043364 0.9967233255190024
12641970666.666666 -0.07352273051002471 0.9972935415905397 -1.4028617139106625e-17 -6.291556403081994e-17 -1.4028617139106625e-17 -6.291556403081994e-17 -0.07352334054604441 0.997293496617121
12642588000.0 -0.06615564436042366 0.9978093158109468 -1.4495608535618627e-17 -6.279669082897548e-17 -1.4495608535618627e-17 -6.279669082897548e-17 -0.06615625468212968 0.9978092753458879
12643205333.333334 -0.05878495008534233 0.99827066952972 -1.4961607553387722e-17 -6.267435526920049e-17 -1.4961607553387722e-17 -6.267435526920049e-17 -0.05878556065942157 0.9982706335747888
12643822666.666666 -0.05141104968231185 0.9986775775846856 -1.5426588551090707e-17 -6.254856553742866e-17 -1.5426588551090707e-17 -6.254856553742866e-17 -0.051411660475440484 0.9986775461414011
12644440000.0 -0.044034345323724626 0.999030017783131 -1.589052595426239e-17 -6.241933000926819e-17 -1.589052595426239e-17 -6.241933000926819e-17 -0.04403495630257031 0.999029990852769
12645057333.333334 -0.036655239334871935 0.9993279709030242 -1.635339425669876e-17 -6.228665724945973e-17 -1.635339425669876e-17 -6.228665724945973e-17 -0.03665585046609536 0.9993279484866118
12645674666.666666 -0.029274134172142908 0.9995714206940516 -1.6815168021854032e-17 -6.215055601132447e-17 -1.6815168021854032e-17 -6.215055601132447e-17 -0.02927474542239972 0.99957140279237
12646292000.0 -0.02189143240076209 0.9997603538785154 -1.7275821884245543e-17 -6.201103523619818e-17 -1.7275821884245543e-17 -6.201103523619818e-17 -0.02189204373670475 0.9997603404921014
12646909333.333334 -0.014507536673231458 0.9998947601520511 -1.7735330550819122e-17 -6.186810405286571e-17 -1.7735330550819122e-17 -6.186810405286571e-17 -0.014508148061510948 0.9998947512811927
12647526666.666666 -0.007122849707085385 0.9999746321841881 -1.8193668802349988e-17 -6.17217717769725e-17 -1.8193668802349988e-17 -6.17217717769725e-17 -0.007123461114353135 0.9999746278289289
12648144000.0 0.00026222573704495837 0.9999999656187573 -1.8650811494820006e-17 -6.157204791043265e-17 -1.8650811494820006e-17 -6.157204791043265e-17 0.0002616143441353213 0.9999999657788933
12648761333.333334 0.007647286877284593 0.9999707590741178 -1.910673356078469e-17 -6.141894214082745e-17 -1.910673356078469e-17 -6.141894214082745e-17 0.007646675532075402 0.9999707637492008
12649378666.666666 0.015031930932482427 0.9998870141432452 -1.9561410010742643e-17 -6.126246434079256e-17 -1.9561410010742643e-17 -6.126246434079256e-17 0.015031319668310136 0.999887023332577
12649996000.0 0.02241575514432098 0.9997487353936303 -2.00148159345086e-17 -6.110262456739158e-17 -2.00148159345086e-17 -6.110262456739158e-17 0.022415143994514403 0.9997487490962708
12650613333.333334 0.029798356799197616 0.9995559303670405 -2.0466926502566023e-17 -6.093943306148521e-17 -2.0466926502566023e-17 -6.093943306148521e-17 0.029797745797076065 0.9995559485818019
12651230666.666666 0.037179333250074866 0.9993086095791088 -2.0917716967423216e-17 -6.077290024708701e-17 -2.0917716967423216e-17 -6.077290024708701e-17 0.037178722428946355 0.9993086323045571
12651848000.0 0.04455828193872494 0.9990067865187516 -2.1367162664960974e-17 -6.060303673071078e-17 -2.1367162664960974e-17 -6.060303673071078e-17 0.044557671331884284 0.9990068137532057
12652465333.333334 0.05193480041742938 0.9986504776474375 -2.1815239015785293e-17 -6.042985330070412e-17 -2.1815239015785293e-17 -6.042985330070412e-17 0.051934190058156575 0.9986505093889736
12653082666.666666 0.05930848637092884 0.9982397023982975 -2.226192152654745e-17 -6.025336092658216e-17 -2.226192152654745e-17 -6.025336092658216e-17 0.0593078762924871 0.9982397386447446
12653700000.0 0.06667893763864918 0.9977744831750482 -2.270718579130327e-17 -6.007357075833515e-17 -2.270718579130327e-17 -6.007357075833515e-17 0.06667832787428309 0.9977745239239888
12654317333.333334 0.07404575223623774 0.9972548453507875 -2.3151007492815583e-17 -5.989049412574492e-17 -2.3151007492815583e-17 -5.989049412574492e-17 0.07404514281917156 0.9972548905995603
12654934666.666666 0.08140852837777159 0.9966808172666 -2.359336240389416e-17 -5.970414253767629e-17 -2.359336240389416e-17 -5.970414253767629e-17 0.0814079193412075 0.9966808670122992
12655552000.0 0.0887668644976708 0.9960524302300083 -2.4034226388712697e-17 -5.951452768136419e-17 -2.4034226388712697e-17 -5.951452768136419e-17 0.08876625587478676 0.9960524844694804
12656169333.333334 0.09612035927234444 0.9953697185132813 -2.4473575404105222e-17 -5.932166142169812e-17 -2.4473575404105222e-17 -5.932166142169812e-17 0.09611975109629281 0.9953697772431306
12656786666.666666 0.10346861164236251 0.9946327193515477 -2.4911385500888894e-17 -5.912555580048366e-17 -2.4911385500888894e-17 -5.912555580048366e-17 0.10346800394626803 0.9946327825681335
12657404000.0 0.11081122083418801 0.9938414729407755 -2.5347632825155642e-17 -5.89262230357045e-17 -2.5347632825155642e-17 -5.89262230357045e-17 0.11081061365114589 0.9938415406402117
12658021333.333334 0.11814778638209121 0.9929960224355701 -2.5782293619569806e-17 -5.872367552077048e-17 -2.5782293619569806e-17 -5.872367552077048e-17 0.11814717974516566 0.9929960946137282
12658638666.666666 0.12547790814985096 0.9920964139468457 -2.621534422464834e-17 -5.851792582376111e-17 -2.621534422464834e-17 -5.851792582376111e-17 0.12547730209207283 0.9920964905993507
12659256000.0 0.1328011863528588 0.9911426965392655 -2.6646761080059716e-17 -5.830898668664812e-17 -2.6646761080059716e-17 -5.830898668664812e-17 0.13280058090722452 0.9911427776615014
12659873333.333334 0.14011722157967063 0.9901349222286054 -2.7076520725885488e-17 -5.809687102452337e-17 -2.7076520725885488e-17 -5.809687102452337e-17 0.14011661677913986 0.9901350078157123
12660490666.666666 0.14742561481379013 0.9890731459789155 -2.750459980389064e-17 -5.788159192481042e-17 -2.750459980389064e-17 -5.788159192481042e-17 0.14742501069128408 0.9890732360257896
12661108000.0 0.15472596745571263 0.9879574256994818 -2.793097505880412e-17 -5.766316264645885e-17 -2.793097505880412e-17 -5.766316264645885e-17 0.1547253640441124 0.9879575202007773
12661725333.333334 0.1620178813442709 0.9867878222417253 -2.8355623339553877e-17 -5.744159661914853e-17 -2.8355623339553877e-17 -5.744159661914853e-17 0.16201727867641566 0.9867879211918542
12662342666.666666 0.16930095877866022 0.9855643993958383 -2.877852160053628e-17 -5.721690744246429e-17 -2.877852160053628e-17 -5.721690744246429e-17 0.16930035688734532 0.9855645027889701
12662960000.0 0.17657480253998836 0.984287223887325 -2.919964690285338e-17 -5.698910888507487e-17 -2.919964690285338e-17 -5.698910888507487e-17 0.17657420145796363 0.984287331717388
12663577333.333334 0.18383901591296806 0.982956365373359 -2.961897641555319e-17 -5.675821488389736e-17 -2.961897641555319e-17 -5.675821488389736e-17 0.1838384156729359 0.9829564776340393
12664194666.666666 0.19109320270755378 0.9815718964389839 -3.003648741686042e-17 -5.652423954325464e-17 -3.003648741686042e-17 -5.652423954325464e-17 0.19109260334216763 0.981572013123727
12664812000.0 0.19833696728054967 0.9801338925931533 -3.0452157295408573e-17 -5.628719713401931e-17 -3.0452157295408573e-17 -5.628719713401931e-17 0.198336368822412 0.9801340136951643
12665429333.333334 0.20556991455721665 0.9786424322646103 -3.0865963551450954e-17 -5.604710209275643e-17 -3.0865963551450954e-17 -5.604710209275643e-17 0.20556931703887724 0.9786425577768536
12666046666.666666 0.21279165005267925 0.9770975967976333 -3.127788379807161e-17 -5.580396902085411e-17 -3.127788379807161e-17 -5.580396902085411e-17 0.21279105350663377 0.9770977267128349
12666664000.0 0.22000177989374842 0.9754994704475423 -3.168789576240661e-17 -5.555781268363508e-17 -3.168789576240661e-17 -5.555781268363508e-17 0.22000118435243582 0.9754996047581866
12667281333.333334 0.22719991084001243 0.973848140376179 -3.209597728682079e-17 -5.5308648009481436e-17 -3.209597728682079e-17 -5.5308648009481436e-17 0.22719931633581425 0.9738482790745133
12667898666.666666 0.23438565030556394 0.9721436966471007 -3.2502106330115414e-17 -5.5056490088928633e-17 -3.2502106330115414e-17 -5.5056490088928633e-17 0.23438505687080152 0.9721438397251323
12668516000.0 0.24155860638040924 0.9703862322206588 -3.290626096871281e-17 -5.480135417375954e-17 -3.290626096871281e-17 -5.480135417375954e-17 0.2415580140473428 0.9703863796701583
12669133333.333334 0.24871838785159586 0.9685758429489943 -3.330841939782048e-17 -5.454325567609912e-17 -3.330841939782048e-17 -5.454325567609912e-17 0.24871779665242216 0.9685759947614936
12669750666.666666 0.2558646042248246 0.9667126275707405 -3.3708559932617366e-17 -5.4282210167482073e-17 -3.3708559932617366e-17 -5.4282210167482073e-17 0.25586401419167576 0.9667127837375356
