! Parameters = {f0=12700.012000; bw=77.238000; Q=6100.000000; N=10; m_0_1=1.226321; m_1_1=-0.369926; m_1_2=1.061133; m_2_2=-0.370575; m_2_3=0.698096; m_2_8=-0.001620; m_2_9=0.035084; m_3_3=-0.372512; m_3_4=0.586625; m_3_7=-0.001020; m_3_8=-0.098108; m_3_9=-0.001620; m_4_4=-0.375437; m_4_5=0.422960; m_4_6=0.002497; m_4_7=-0.118657; m_4_8=-0.001020; m_5_5=-0.375055; m_5_6=0.830315; m_5_7=0.002497; m_6_6=-0.375056; m_6_7=0.423302; m_7_7=-0.375423; m_7_8=0.586743; m_8_8=-0.372514; m_8_9=0.698409; m_9_9=-0.370580; m_9_10=1.062211; m_10_10=-0.369936; m_10_11=1.227116}
!
! Created with skrf (http://scikit-rf.org).
# Hz S RI R 50.0 
!freq ReS11 ImS11 ReS21 ImS21 ReS12 ImS12 ReS22 ImS22
12607400000.0 -0.435316812710867 0.900277330921471 1.448605731606438e-17 -8.842478566975449e-17 1.448605731606438e-17 -8.842478566975449e-17 -0.43531739444863987 0.9002770496298804
12608017333.333334 -0.42698729953872083 0.9042576214953711 1.365861201425023e-17 -8.853861467577746e-17 1.365861201425023e-17 -8.853861467577746e-17 -0.42698788381985364 0.9042573455996248
12608634666.666666 -0.41862139701545353 0.9081608480663907 1.2830304119132986e-17 -8.864470681406074e-17 1.2830304119132986e-17 -8.864470681406074e-17 -0.41862198378990434 0.9081605775894706
12609252000.0 -0.4102198181125823 0.9119866779879602 1.2001205916569635e-17 -8.874305589967017e-17 1.2001205916569635e-17 -8.874305589967017e-17 -0.410220407330103 0.9119864129523862
12609869333.333334 -0.40178327884214227 0.915734785209502 1.1171389732726065e-17 -8.88336564225195e-17 1.1171389732726065e-17 -8.88336564225195e-17 -0.4017838704522806 0.9157345256373272
12610486666.666666 -0.39331249819563874 0.9194048503042287 1.0340927927801899e-17 -8.891650354758199e-17 1.0340927927801899e-17 -8.891650354758199e-17 -0.39331309214774396 0.9194045962170388
12611104000.0 -0.38480819808256317 0.9229965604964556 9.509892889714362e-18 -8.899159311504768e-17 9.509892889714362e-18 -8.899159311504768e-17 -0.3848087943257895 0.9229963119153661
12611721333.333334 -0.3762711032693136 0.9265096096880644 8.678357027822806e-18 -8.905892164041873e-17 8.678357027822806e-18 -8.905892164041873e-17 -0.3762717017526257 0.9265093666337212
12612338666.666666 -0.3677019413170105 0.9299436984847732 7.846392766615728e-18 -8.911848631454858e-17 7.846392766615728e-18 -8.911848631454858e-17 -0.3677025419891862 0.9299434609773469
12612956000.0 -0.3591014425195659 0.9332985342216082 7.014072539424335e-18 -8.917028500362088e-17 7.014072539424335e-18 -8.917028500362088e-17 -0.3591020453292027 0.9332983022807978
12613573333.333334 -0.35047033984176645 0.93657383098773 6.181468782137841e-18 -8.921431624907003e-17 6.181468782137841e-18 -8.921431624907003e-17 -0.3504709447372836 0.9365736046327549
12614190666.666666 -0.34180936885638113 0.939769309650958 5.348653926898105e-18 -8.925057926744414e-17 5.348653926898105e-18 -8.925057926744414e-17 -0.3418099757860258 0.9397690889005618
12614808000.0 -0.33311926768171335 0.9428846978814722 4.515700395819939e-18 -8.927907395020839e-17 4.515700395819939e-18 -8.927907395020839e-17 -0.3331198765935643 0.9428844827539186
12615425333.333334 -0.32440077691861513 0.9459197301750476 3.6826805947147386e-18 -8.929980086348964e-17 3.6826805947147386e-18 -8.929980086348964e-17 -0.32440138776058725 0.9459195206881191
12616042666.666666 -0.31565463958747847 0.9488741478756474 2.8496669067951437e-18 -8.931276124776434e-17 2.8496669067951437e-18 -8.931276124776434e-17 -0.3156552523073272 0.9488739440466437
12616660000.0 -0.306881601064751 0.9517476991975194 2.016731686406956e-18 -8.931795701748588e-17 2.016731686406956e-18 -8.931795701748588e-17 -0.30688221561007706 0.9517475010432576
12617277333.333334 -0.2980824090194655 0.9545401392466358 1.183947252763498e-18 -8.93153907606547e-17 1.183947252763498e-18 -8.93153907606547e-17 -0.2980830253377196 0.9545399467834483
12617894666.666666 -0.2892578133497396 0.9572512300414991 3.5138588367784987e-19 -8.930506573833051e-17 3.5138588367784987e-19 -8.930506573833051e-17 -0.2892584313882254 0.9572510432852289
12618512000.0 -0.280408566118403 0.9598807405335611 -4.808801907141069e-19 -8.9286985884085e-17 -4.808801907141069e-19 -8.9286985884085e-17 -0.2804091858242834 0.959880559499565
12619129333.333334 -0.2715354214893676 0.9624284466267755 -1.3127787941758074e-18 -8.926115580339741e-17 -1.3127787941758074e-18 -8.926115580339741e-17 -0.2715360428096686 0.9624282713299217
12619746666.666666 -0.2626391356631644 0.9648941311967554 -2.1442378106307104e-18 -8.9227580772992e-17 -2.1442378106307104e-18 -8.9227580772992e-17 -0.2626397585447799 0.964893961651422
12620364000.0 -0.2537204668123336 0.9672775841093223 -2.975185190415299e-18 -8.918626674011624e-17 -2.975185190415299e-18 -8.918626674011624e-17 -0.2537210912020289 0.9672774203293943
12620981333.333334 -0.24478017501713795 0.9695786022383209 -3.805548956478252e-18 -8.913722032176346e-17 -3.805548956478252e-18 -8.913722032176346e-17 -0.24478080086155532 0.9695784442371909
12621598666.666666 -0.23581902220059475 0.9717969894829843 -4.635257210619034e-18 -8.908044880383508e-17 -4.635257210619034e-18 -8.908044880383508e-17 -0.23581964944625813 0.9717968372735526
12622216000.0 -0.22683777206351532 0.973932556784656 -5.4642381397020206e-18 -8.90159601402469e-17 -5.4642381397020206e-18 -8.90159601402469e-17 -0.22683840065683408 0.9739324103793268
12622833333.333334 -0.21783719001944546 0.975985122142888 -6.292420021855679e-18 -8.894376295197635e-17 -6.292420021855679e-18 -8.894376295197635e-17 -0.21783781990671947 0.9759849815535705
12623450666.666666 -0.2088180431296295 0.9779545106309135 -7.119731232646317e-18 -8.886386652605491e-17 -7.119731232646317e-18 -8.886386652605491e-17 -0.2088186742570535 0.9779543758690188
12624068000.0 -0.19978110003733293 0.9798405544106185 -7.946100251286416e-18 -8.877628081449896e-17 -7.946100251286416e-18 -8.877628081449896e-17 -0.19978173235100172 0.9798404254870627
12624685333.333334 -0.19072713090239202 0.9816430927468383 -8.771455666796128e-18 -8.868101643318587e-17 -8.771455666796128e-18 -8.868101643318587e-17 -0.19072776434830402 0.9816429696720362
12625302666.666666 -0.18165690733593887 0.9833619720209739 -9.595726184140288e-18 -8.857808466067468e-17 -9.595726184140288e-18 -8.857808466067468e-17 -0.1816575418600014 0.9833618548048414
12625920000.0 -0.17257120233405757 0.9849970457442064 -1.0418840630400834e-17 -8.846749743696474e-17 -1.0418840630400834e-17 -8.846749743696474e-17 -0.17257183788209157 0.9849969343961601
12626537333.333334 -0.16347079021238084 0.9865481745698873 -1.1240727960888357e-17 -8.834926736220268e-17 -1.1240727960888357e-17 -8.834926736220268e-17 -0.16347142673012513 0.9865480690988419
12627154666.666666 -0.1543564465400167 0.9880152263054323 -1.2061317265267845e-17 -8.82234076953294e-17 -1.2061317265267845e-17 -8.82234076953294e-17 -0.15435708397313302 0.9880151267198024
12627772000.0 -0.14522894807311593 0.9893980759236459 -1.2880537773670243e-17 -8.808993235266975e-17 -1.2880537773670243e-17 -8.808993235266975e-17 -0.14522958636719294 0.9893979822313415
12628389333.333334 -0.13608907268914966 0.9906966055732923 -1.3698318862762021e-17 -8.794885590647059e-17 -1.3698318862762021e-17 -8.794885590647059e-17 -0.1360897117897083 0.9906965177817221
12629006666.666666 -0.12693759932028043 0.9919107045891982 -1.451459006184708e-17 -8.780019358337454e-17 -1.451459006184708e-17 -8.780019358337454e-17 -0.1269382391727781 0.991910622705267
12629624000.0 -0.1177753078871186 0.9930402695016606 -1.5329281058903013e-17 -8.764396126284546e-17 -1.5329281058903013e-17 -8.764396126284546e-17 -0.11777594843695394 0.9930401935317683
12630241333.333334 -0.10860297923217022 0.9940852040452735 -1.614232170662885e-17 -8.748017547553398e-17 -1.614232170662885e-17 -8.748017547553398e-17 -0.10860362042468785 0.9940851339953164
12630858666.666666 -0.09942139505354528 0.9950454191671063 -1.6953642028471075e-17 -8.730885340158788e-17 -1.6953642028471075e-17 -8.730885340158788e-17 -0.09942203683404043 0.9950453550424757
12631476000.0 -0.09023133783785857 0.9959208330343461 -1.7763172224652193e-17 -8.71300128689019e-17 -1.7763172224652193e-17 -8.71300128689019e-17 -0.09023198015158158 0.995920774839927
12632093333.333334 -0.08103359079399501 0.9967113710412194 -1.857084267812225e-17 -8.694367235132496e-17 -1.857084267812225e-17 -8.694367235132496e-17 -0.08103423358615623 0.9967113187813913
12632710666.666666 -0.0718289377862778 0.997416965815366 -1.9376583960561587e-17 -8.674985096679807e-17 -1.9376583960561587e-17 -8.674985096679807e-17 -0.07182958100205215 0.9974169194940026
12633328000.0 -0.06261816326735298 0.9980375572236039 -2.0180326838337263e-17 -8.654856847544086e-17 -2.0180326838337263e-17 -8.654856847544086e-17 -0.06261880685188465 0.9980375168440724
12633945333.333334 -0.053402052211675405 0.9985730923770268 -2.098200227842096e-17 -8.633984527758974e-17 -2.098200227842096e-17 -8.633984527758974e-17 -0.05340269611008246 0.9985730579421869
12634562666.666666 -0.044181390048553995 0.999023525635515 -2.17815414543066e-17 -8.612370241177528e-17 -2.17815414543066e-17 -8.612370241177528e-17 -0.0441820342059332 0.9990234971477205
12635180000.0 -0.03495696259507291 0.9993888186116366 -2.2578875751917693e-17 -8.590016155264364e-17 -2.2578875751917693e-17 -8.590016155264364e-17 -0.034957606956504315 0.9993887960727348
12635797333.333334 -0.025729555989178126 0.999668940173914 -2.3373936775476622e-17 -8.566924500882674e-17 -2.3373936775476622e-17 -8.566924500882674e-17 -0.025730200499729707 0.9996689235852436
12636414666.666666 -0.016499956622878766 0.9998638664494678 -2.4166656353340672e-17 -8.543097572076257e-17 -2.4166656353340672e-17 -8.543097572076257e-17 -0.016500601227611204 0.9998638558118615
12637032000.0 -0.0072689510748872675 0.999973580826067 -2.4956966543862453e-17 -8.51853772584483e-17 -2.4956966543862453e-17 -8.51853772584483e-17 -0.007269595718858568 0.9999735761398498
12637649333.333334 0.00196267395621684 0.9999980739535341 -2.5744799641181917e-17 -8.493247381915243e-17 -2.5744799641181917e-17 -8.493247381915243e-17 0.001962029327946642 0.9999980752185236
12638266666.666666 0.011194131718975256 0.9999373437445442 -2.653008818100785e-17 -8.467229022507043e-17 -2.653008818100785e-17 -8.467229022507043e-17 0.01119348716133942 0.9999373509600511
12638884000.0 0.02042463547627114 0.999791395374804 -2.7312764946395412e-17 -8.440485192092095e-17 -2.7312764946395412e-17 -8.440485192092095e-17 0.02042399104419155 0.9997914085396326
12639501333.333334 0.02965339857232076 0.9995602412826088 -2.809276297347824e-17 -8.41301849714956e-17 -2.809276297347824e-17 -8.41301849714956e-17 0.029652754320703214 0.9995602603950556
12640118666.666666 0.03887963449945933 0.9992439011677895 -2.8870015557174064e-17 -8.384831605915686e-17 -2.8870015557174064e-17 -8.384831605915686e-17 0.03887899048318894 0.9992439262256462
12640736000.0 0.04810255696579508 0.9988424019900185 -2.964445625690361e-17 -8.355927248127004e-17 -2.964445625690361e-17 -8.355927248127004e-17 0.04810191323973139 0.9988424329905659
12641353333.333334 0.05732137996145242 0.9983557779665275 -3.0416018902213206e-17 -8.326308214760846e-17 -3.0416018902213206e-17 -8.326308214760846e-17 0.05732073658042511 0.9983558149065458
12641970666.666666 0.06653531782607043 0.997784070569189 -3.118463759845705e-17 -8.295977357767546e-17 -3.118463759845705e-17 -8.295977357767546e-17 0.06653467484487423 0.9977841134449488
12642588000.0 0.07574358531564529 0.9971273285209712 -3.195024673237982e-17 -8.264937589800113e-17 -3.195024673237982e-17 -8.264937589800113e-17 0.0757429427890356 0.9971273773282395
12643205333.333334 0.08494539766936668 0.9963856077917977 -3.271278097772009e-17 -8.233191883937047e-17 -3.271278097772009e-17 -8.233191883937047e-17 0.08494475565205481 0.9963856625258358
12643822666.666666 0.09413997067666796 0.9955589715937639 -3.347217530076997e-17 -8.200743273400566e-17 -3.347217530076997e-17 -8.200743273400566e-17 0.09413932922331647 0.9955590322493287
12644440000.0 0.10332652074380415 0.9946474903757693 -3.422836496590022e-17 -8.167594851270033e-17 -3.422836496590022e-17 -8.167594851270033e-17 0.10332587990902223 0.9946475569471139
12645057333.333334 0.11250426496083127 0.9936512418175 -3.498128554105756e-17 -8.133749770190358e-17 -3.498128554105756e-17 -8.133749770190358e-17 0.11250362479916998 0.9936513142983732
12645674666.666666 0.12167242116824313 0.9925703108228124 -3.5730872903254213e-17 -8.099211242074418e-17 -3.5730872903254213e-17 -8.099211242074418e-17 0.1216717817341909 0.9925703892064602
12646292000.0 0.13083020802374312 0.9914047895124879 -3.6477063244023545e-17 -8.063982537800579e-17 -3.6477063244023545e-17 -8.063982537800579e-17 0.13082956937172108 0.9914048737916545
12646909333.333334 0.1399768450686353 0.9901547772164044 -3.72197930748008e-17 -8.028066986907386e-17 -3.72197930748008e-17 -8.028066986907386e-17 0.13997620725299262 0.9901548673833318
12647526666.666666 0.14911155279453525 0.9888203804650464 -3.7958999232347016e-17 -7.99146797727989e-17 -3.7958999232347016e-17 -7.99146797727989e-17 0.1491109158695445 0.988820476511476
12648144000.0 0.15823355270968942 0.9874017129804394 -3.86946188840967e-17 -7.954188954833092e-17 -3.86946188840967e-17 -7.954188954833092e-17 0.15823291672954196 0.9874018148976121
12648761333.333334 0.16734206740537766 0.9858988956664526 -3.9426589533468324e-17 -7.916233423190895e-17 -3.9426589533468324e-17 -7.916233423190895e-17 0.16734143242417904 0.9858990034451096
12649378666.666666 0.17643632062208206 0.9843120565985048 -4.0154849025172943e-17 -7.877604943358741e-17 -4.0154849025172943e-17 -7.877604943358741e-17 0.17643568669384746 0.9843121702288895
12649996000.0 0.18551553731569922 0.9826413310126458 -4.08793355504796e-17 -7.838307133391877e-17 -4.08793355504796e-17 -7.838307133391877e-17 0.18551490449434882 0.9826414504845037
12650613333.333334 0.19457894372367548 0.9808868612940106 -4.159998765244408e-17 -7.798343668059049e-17 -4.159998765244408e-17 -7.798343668059049e-17 0.19457831206302986 0.9808869865965898
12651230666.666666 0.20362576743075447 0.9790487969647236 -4.231674423108998e-17 -7.757718278502297e-17 -4.231674423108998e-17 -7.757718278502297e-17 0.2036251369845302 0.9790489280867776
12651848000.0 0.21265523743500067 0.97712729467112 -4.302954454860948e-17 -7.716434751889056e-17 -4.302954454860948e-17 -7.716434751889056e-17 0.21265460825680502 0.977127431600905
12652465333.333334 0.2216665842134216 0.9751225181704047 -4.3738328234468855e-17 -7.6744969310629e-17 -4.3738328234468855e-17 -7.6744969310629e-17 0.2216659563567493 0.9751226608956863
12653082666.666666 0.23065903978746832 0.9730346383167249 -4.4443035290500515e-17 -7.631908714188605e-17 -4.4443035290500515e-17 -7.631908714188605e-17 0.23065841330569606 0.9730347868247751
12653700000.0 0.23963183778867814 0.9708638330465594 -4.5143606096001393e-17 -7.588674054390032e-17 -4.5143606096001393e-17 -7.588674054390032e-17 0.2396312127350598 0.9708639873241569
12654317333.333334 0.24858421352376514 0.9686102873636059 -4.5839981412723244e-17 -7.544796959387776e-17 -4.5839981412723244e-17 -7.544796959387776e-17 0.24858358995142837 0.9686104473970414
12654934666.666666 0.2575154040399854 0.9662741933229722 -4.653210238989248e-17 -7.500281491128338e-17 -4.653210238989248e-17 -7.500281491128338e-17 0.2575147820019256 0.9662743590980445
12655552000.0 0.2664246481900729 0.9638557500148202 -4.7219910569159856e-17 -7.455131765410788e-17 -4.7219910569159856e-17 -7.455131765410788e-17 0.26642402773915064 0.9638559215168441
12656169333.333334 0.2753111866970277 0.961355163547433 -4.790334788951684e-17 -7.40935195150887e-17 -4.790334788951684e-17 -7.40935195150887e-17 0.2753105678859622 0.9613553407612326
12656786666.666666 0.28417426221901365 0.958772647029584 -4.858235669219596e-17 -7.362946271787112e-17 -4.858235669219596e-17 -7.362946271787112e-17 0.2841736451003798 0.9587728299395012
12657404000.0 0.29301311941368513 0.9561084205524489 -4.9256879725503626e-17 -7.315919001314682e-17 -4.9256879725503626e-17 -7.315919001314682e-17 0.2930125040399081 0.9561086091423399
12658021333.333334 0.301827005002776 0.9533627111707753 -4.9926860149648303e-17 -7.268274467472476e-17 -4.9926860149648303e-17 -7.268274467472476e-17 0.3018263914261273 0.9533629054240148
12658638666.666666 0.31061516783608045 0.950535752883604 -5.059224154149869e-17 -7.220017049558174e-17 -5.059224154149869e-17 -7.220017049558174e-17 0.3106145561086735 0.9505359527830853
12659256000.0 0.3193768589556585 0.9476277866142664 -5.125296789933408e-17 -7.171151178384705e-17 -5.125296789933408e-17 -7.171151178384705e-17 0.31937624912944396 0.9476279921424038
12659873333.333334 0.32811133165958273 0.9446390601898761 -5.190898364753617e-17 -7.121681335875915e-17 -5.190898364753617e-17 -7.121681335875915e-17 0.32811072378634404 0.9446392713286051
12660490666.666666 0.3368178415654943 0.9415698283202356 -5.2560233641240085e-17 -7.07161205465808e-17 -5.2560233641240085e-17 -7.07161205465808e-17 0.33681723569684374 0.9415700450510167
12661108000.0 0.3454956466742309 0.9384203525760683 -5.3206663170978193e-17 -7.020947917644793e-17 -5.3206663170978193e-17 -7.020947917644793e-17 0.3454950428616045 0.9384205748798856
12661725333.333334 0.3541440074328465 0.9351909013667958 -5.384821796722447e-17 -6.96969355762216e-17 -5.384821796722447e-17 -6.96969355762216e-17 0.35414340572750036 0.9351911292241619
12662342666.666666 0.36276218679785416 0.9318817499175926 -5.4484844204968516e-17 -6.91785365682453e-17 -5.4484844204968516e-17 -6.91785365682453e-17 0.36276158725085983 0.931881983308548
12662960000.0 0.37134945029782523 0.928493180246005 -5.5116488508199563e-17 -6.865432946509903e-17 -5.5116488508199563e-17 -6.865432946509903e-17 0.37134885296006487 0.92849341915012
12663577333.333334 0.3799050660961691 0.9250254811378457 -5.574309795436178e-17 -6.812436206530338e-17 -5.574309795436178e-17 -6.812436206530338e-17 0.3799044710183323 0.9250257255342239
12664194666.666666 0.3884283050534245 0.9214789481226151 -5.636462007878415e-17 -6.758868264897067e-17 -5.636462007878415e-17 -6.758868264897067e-17 0.3884277122860031 0.921479197989894
12664812000.0 0.3969184407893194 0.9178538834483471 -5.698100287904899e-17 -6.704733997343148e-17 -5.698100287904899e-17 -6.704733997343148e-17 0.3969178503826037 0.9178541387647003
12665429333.333334 0.40537474974486076 0.914150596055775 -5.759219481933274e-17 -6.650038326881047e-17 -5.759219481933274e-17 -6.650038326881047e-17 0.4053741617489341 0.9141508567989125
12666046666.666666 0.4137965112437871 0.9103694015520877 -5.819814483468147e-17 -6.594786223358254e-17 -5.819814483468147e-17 -6.594786223358254e-17 0.41379592570852364 0.9103696676992609
12666664000.0 0.42218300755419896 0.906510622183948 -5.879880233529275e-17 -6.538982703004709e-17 -5.879880233529275e-17 -6.538982703004709e-17 0.42218242452925725 0.9065108937119479
12667281333.333334 0.430533523949515 0.9025745868101145 -5.939411721069108e-17 -6.48263282798201e-17 -5.939411721069108e-17 -6.48263282798201e-17 0.43053294348433563 0.9025748636952783
12667898666.666666 0.43884734876956816 0.8985616308733411 -5.998403983390487e-17 -6.425741705924844e-17 -5.998403983390487e-17 -6.425741705924844e-17 0.4388467709133683 0.8985619130915501
12668516000.0 0.4471237734811747 0.8944720963718161 -6.056852106559736e-17 -6.368314489478735e-17 -6.056852106559736e-17 -6.368314489478735e-17 0.44712319828294506 0.8944723838985007
12669133333.333334 0.4553620927384452 0.890306331830062 -6.114751225812164e-17 -6.31035637583723e-17 -6.114751225812164e-17 -6.31035637583723e-17 0.4553615202469442 0.890306624640201
12669750666.666666 0.4635616044430714 0.8860646922691376 -6.17209652595648e-17 -6.251872606272038e-17 -6.17209652595648e-17 -6.251872606272038e-17 0.463561034706823 0.8860649903372643
12670368000.0 0.4717216098039865 0.8817475391764769 -6.228883241773948e-17 -6.192868465660472e-17 -6.228883241773948e-17 -6.192868465660472e-17 0.47172104287127425 0.8817478424766764
