! Parameters = {f0=12700.012000; bw=77.238000; Q=6100.000000; N=10; m_0_1=1.316411; m_1_1=0.981425; m_1_2=1.151223; m_2_2=0.980776; m_2_3=0.788186; m_2_8=0.002884; m_2_9=0.039588; m_3_3=0.978839; m_3_4=0.676715; m_3_7=0.003484; m_3_8=-0.093604; m_3_9=0.002884; m_4_4=0.975914; m_4_5=0.513050; m_4_6=0.007001; m_4_7=-0.114153; m_4_8=0.003484; m_5_5=0.976296; m_5_6=0.920405; m_5_7=0.007001; m_6_6=0.976295; m_6_7=0.513392; m_7_7=0.975928; m_7_8=0.676833; m_8_8=0.978837; m_8_9=0.788499; m_9_9=0.980771; m_9_10=1.152301; m_10_10=0.981415; m_10_11=1.317206}
!
! Created with skrf (http://scikit-rf.org).
# Hz S RI R 50.0 
!freq ReS11 ImS11 ReS21 ImS21 ReS12 ImS12 ReS22 ImS22
12607400000.0 -0.5390240038575967 -0.8422904031657589 1.0357280855663454e-16 8.965771380342556e-17 1.0357280855663454e-16 8.965771380342556e-17 -0.5390234197490918 -0.8422907769658909
12608017333.333334 -0.549004670955966 -0.8358192814648042 1.0461928595270725e-16 8.839281123066682e-17 1.0461928595270725e-16 8.839281123066682e-17 -0.5490040913634038 -0.8358196621676554
12608634666.666666 -0.5589076598578318 -0.8292299004208984 1.0565032947299667e-16 8.711571008389836e-17 1.0565032947299667e-16 8.711571008389836e-17 -0.5589070848627715 -0.8292302879719289
12609252000.0 -0.5687315693979229 -0.8225231923599395 1.0666579711526204e-16 8.582659851658852e-17 1.0666579711526204e-16 8.582659851658852e-17 -0.5687309990812667 -0.8225235867036481
12609869333.333334 -0.5784750095998884 -0.8157001062082924 1.0766554916908715e-16 8.452566633284893e-17 1.0766554916908715e-16 8.452566633284893e-17 -0.5784744440418677 -0.8157005072882214
12610486666.666666 -0.5881366018727991 -0.8087616073586377 1.0864944823502186e-16 8.321310495956387e-17 1.0864944823502186e-16 8.321310495956387e-17 -0.5881360411529645 -0.8087620151173821
12611104000.0 -0.597714979206551 -0.8017086775331316 1.0961735924343624e-16 8.188910741822867e-17 1.0961735924343624e-16 8.188910741822867e-17 -0.5977144234037606 -0.801709091912347
12611721333.333334 -0.6072087863648208 -0.7945423146448347 1.1056914947294826e-16 8.05538682966825e-17 1.1056914947294826e-16 8.05538682966825e-17 -0.6072082355572298 -0.7945427355852459
12612338666.666666 -0.6166166800771178 -0.7872635326563044 1.1150468856859893e-16 7.92075837205063e-17 1.1150468856859893e-16 7.92075837205063e-17 -0.6166161343421664 -0.7872639600977135
12612956000.0 -0.6259373292289048 -0.7798733614360707 1.1242384855962122e-16 7.785045132428796e-17 1.1242384855962122e-16 7.785045132428796e-17 -0.6259367886433086 -0.779873795317366
12613573333.333334 -0.6351694150495807 -0.7723728466132049 1.1332650387686466e-16 7.648267022268127e-17 1.1332650387686466e-16 7.648267022268127e-17 -0.6351688796893183 -0.7723732868723691
12614190666.666666 -0.6443116312994708 -0.7647630494290537 1.1421253136990885e-16 7.51044409812016e-17 1.1421253136990885e-16 7.51044409812016e-17 -0.6443111012397758 -0.7647634960031746
12614808000.0 -0.6533626844543835 -0.7570450465873034 1.1508181032377088e-16 7.37159655869021e-17 1.1508181032377088e-16 7.37159655869021e-17 -0.6533621597697307 -0.7570454994125805
12615425333.333334 -0.6623212938887144 -0.7492199301015622 1.1593422247528987e-16 7.231744741880952e-17 1.1593422247528987e-16 7.231744741880952e-17 -0.6623207746528115 -0.7492203891133171
12616042666.666666 -0.6711861920567074 -0.741288807140798 1.167696520291496e-16 7.090909121817407e-17 1.167696520291496e-16 7.090909121817407e-17 -0.6711856783424835 -0.7412892722734833
12616660000.0 -0.6799561246716688 -0.7332527998727975 1.1758798567352123e-16 6.949110305856917e-17 1.1758798567352123e-16 6.949110305856917e-17 -0.6799556165512657 -0.7332532710600065
12617277333.333334 -0.6886298508835418 -0.7251130453052964 1.18389112595375e-16 6.806369031575779e-17 1.18389112595375e-16 6.806369031575779e-17 -0.688629348428302 -0.725113522479772
12617894666.666666 -0.69720614345433 -0.7168706951252447 1.1917292449538672e-16 6.662706163745498e-17 1.1917292449538672e-16 6.662706163745498e-17 -0.6972056467347872 -0.716871178218889
12618512000.0 -0.7056837889320418 -0.708526915535555 1.1993931560252817e-16 6.51814269128273e-17 1.1993931560252817e-16 6.51814269128273e-17 -0.7056832980179126 -0.7085274044794406
12619129333.333334 -0.7140615878219774 -0.7000828870904985 1.2068818268823244e-16 6.372699724193259e-17 1.2068818268823244e-16 6.372699724193259e-17 -0.7140611027821488 -0.7000833818148753
12619746666.666666 -0.7223383547567043 -0.6915398045284068 1.2141942508024267e-16 6.226398490489446e-17 1.2141942508024267e-16 6.226398490489446e-17 -0.722337875659227 -0.6915403049627158
12620364000.0 -0.7305129186638358 -0.6828988766025712 1.2213294467605053e-16 6.079260333099181e-17 1.2213294467605053e-16 6.079260333099181e-17 -0.7305124455759118 -0.6828993826754504
12620981333.333334 -0.7385841229314247 -0.6741613259105186 1.2282864595597223e-16 5.931306706757513e-17 1.2282864595597223e-16 5.931306706757513e-17 -0.7385836559193996 -0.6741618375498162
12621598666.666666 -0.7465508255718702 -0.6653283887207649 1.2350643599585494e-16 5.782559174882033e-17 1.2350643599585494e-16 5.782559174882033e-17 -0.7465503647012237 -0.6653289058535489
12622216000.0 -0.754411899383455 -0.6564013147979353 1.2416622447939738e-16 5.633039406435621e-17 1.2416622447939738e-16 5.633039406435621e-17 -0.7544114447187914 -0.6564018373505031
12622833333.333334 -0.7621662321097555 -0.6473813672260185 1.248079237101024e-16 5.482769172772818e-17 1.248079237101024e-16 5.482769172772818e-17 -0.7621657837147949 -0.6473818951239082
12623450666.666666 -0.7698127265970158 -0.6382698222296577 1.2543144862282582e-16 5.3317703444780444e-17 1.2543144862282582e-16 5.3317703444780444e-17 -0.7698122845345854 -0.6382703553976588
12624068000.0 -0.7773503009494402 -0.6290679689935145 1.2603671679497035e-16 5.180064888184423e-17 1.2603671679497035e-16 5.180064888184423e-17 -0.7773498652814643 -0.6290685073556775
12624685333.333334 -0.7847778886823565 -0.6197771094797498 1.2662364845728957e-16 5.027674863381448e-17 1.2662364845728957e-16 5.027674863381448e-17 -0.7847774594698492 -0.6197776529593981
12625302666.666666 -0.7920944388728082 -0.6103985582441878 1.2719216650427672e-16 4.874622419218151e-17 1.2719216650427672e-16 4.874622419218151e-17 -0.7920940161758636 -0.6103991067639281
12625920000.0 -0.7992989163086558 -0.6009336422498075 1.2774219650422352e-16 4.720929791280217e-17 1.2774219650422352e-16 4.720929791280217e-17 -0.7992985001864422 -0.600934195731542
12626537333.333334 -0.8063903016346818 -0.5913837006794646 1.282736667088308e-16 4.56661929837188e-17 1.282736667088308e-16 4.56661929837188e-17 -0.8063898921454291 -0.5913842590443996
12627154666.666666 -0.8133675914969913 -0.5817500847461847 1.2878650806247206e-16 4.4117133392758775e-17 1.2878650806247206e-16 4.4117133392758775e-17 -0.8133671886979881 -0.5817506479148452
12627772000.0 -0.8202297986850621 -0.5720341575018698 1.292806542110596e-16 4.256234389505001e-17 1.292806542110596e-16 4.256234389505001e-17 -0.8202294026326413 -0.5720347253941064
12628389333.333334 -0.8269759522711673 -0.5622372936447804 1.2975604151049495e-16 4.100204998051231e-17 1.2975604151049495e-16 4.100204998051231e-17 -0.8269755630207051 -0.5622378661797857
12629006666.666666 -0.8336050977480705 -0.5523608793245961 1.3021260903476823e-16 3.9436477841131126e-17 1.3021260903476823e-16 3.9436477841131126e-17 -0.8336047153539735 -0.5523614564209125
12629624000.0 -0.8401162971637809 -0.5424063119467069 1.306502985836201e-16 3.786585433827951e-17 1.306502985836201e-16 3.786585433827951e-17 -0.8401159216794813 -0.5424068935222396
12630241333.333334 -0.8465086292544907 -0.5323749999741676 1.3106905468984666e-16 3.6290406969838646e-17 1.3106905468984666e-16 3.6290406969838646e-17 -0.8465082607324367 -0.532375585946196
12630858666.666666 -0.8527811895747164 -0.5222683627287235 1.3146882462617892e-16 3.4710363837343854e-17 1.3146882462617892e-16 3.4710363837343854e-17 -0.8527808280663683 -0.522268953013914
12631476000.0 -0.8589330906254903 -0.5120878301896593 1.3184955841179935e-16 3.3125953612933553e-17 1.3184955841179935e-16 3.3125953612933553e-17 -0.8589327361813086 -0.512088424704075
12632093333.333334 -0.8649634619797713 -0.5018348427917095 1.3221120881842386e-16 3.1537405506375247e-17 1.3221120881842386e-16 3.1537405506375247e-17 -0.8649631146492133 -0.5018354414508239
12632710666.666666 -0.8708714504056086 -0.49151085122125615 1.325537313760153e-16 2.99449492319148e-17 1.325537313760153e-16 2.99449492319148e-17 -0.8708711102371195 -0.49151145393996415
12633328000.0 -0.8766562199869774 -0.4811173162108745 1.3287708437809101e-16 2.834881497509241e-17 1.3287708437809101e-16 2.834881497509241e-17 -0.8766558870279869 -0.4811179229035066
12633945333.333334 -0.8823169522419686 -0.47065570833280523 1.331812288866262e-16 2.6749233359534137e-17 1.331812288866262e-16 2.6749233359534137e-17 -0.8823166265388789 -0.47065631891313603
12634562666.666666 -0.8878528462385771 -0.460127507790906 1.3346612873655895e-16 2.51464354136821e-17 1.3346612873655895e-16 2.51464354136821e-17 -0.8878525278367597 -0.46012812217216925
12635180000.0 -0.8932631187080554 -0.44953420421117096 1.337317505399045e-16 2.3540652537445775e-17 1.337317505399045e-16 2.3540652537445775e-17 -0.8932628076518462 -0.4495348223060716
12635797333.333334 -0.8985470041557908 -0.4388772964308645 1.339780636894576e-16 2.1932116468861928e-17 1.339780636894576e-16 2.1932116468861928e-17 -0.8985467004884815 -0.43887791815159055
12636414666.666666 -0.9037037549694842 -0.42815829228670405 1.3420504036210044e-16 2.032105925069664e-17 1.3420504036210044e-16 2.032105925069664e-17 -0.9037034587333156 -0.42815891754493857
12637032000.0 -0.9087326415250555 -0.4173787084012638 1.3441265552171098e-16 1.8707713197001155e-17 1.3441265552171098e-16 1.8707713197001155e-17 -0.908732352761214 -0.4173793371081983
12637649333.333334 -0.9136329522898051 -0.4065400699685429 1.3460088692166797e-16 1.7092310859657176e-17 1.3460088692166797e-16 1.7092310859657176e-17 -0.9136326710384158 -0.4065407020348897
12638266666.666666 -0.9184039939231435 -0.3956439105380366 1.347697151069514e-16 1.5475084994920113e-17 1.347697151069514e-16 1.5475084994920113e-17 -0.9184037202232657 -0.3956445458740417
12638884000.0 -0.9230450913746275 -0.3846917717979131 1.349191234158471e-16 1.3856268529915715e-17 1.349191234158471e-16 1.3856268529915715e-17 -0.9230448252642461 -0.384692410313368
12639501333.333334 -0.9275555879795221 -0.3736852033567491 1.3504909798124816e-16 1.2236094529121123e-17 1.3504909798124816e-16 1.2236094529121123e-17 -0.9275553294955458 -0.37368584496100493
12640118666.666666 -0.9319348455516315 -0.36262576252448964 1.3515962773154983e-16 1.0614796160904768e-17 1.3515962773154983e-16 1.0614796160904768e-17 -0.931934594729887 -0.36262640712646915
12640736000.0 -0.9361822444738048 -0.3515150140915766 1.352507043911536e-16 8.99260666392215e-18 1.352507043911536e-16 8.99260666392215e-18 -0.9361820013490297 -0.351515661599787
12641353333.333334 -0.940297183785287 -0.3403545301083399 1.3532232248055485e-16 7.369759313726131e-18 1.3532232248055485e-16 7.369759313726131e-18 -0.9402969483911289 -0.34035518043088697
12641970666.666666 -0.9442790812670067 -0.3291458896619373 1.353744793160441e-16 5.74648738916967e-18 1.353744793160441e-16 5.74648738916967e-18 -0.9442788536360143 -0.329146542706537
12642588000.0 -0.948127373523871 -0.31789067865311255 1.354071750089965e-16 4.123024138963414e-18 1.354071750089965e-16 4.123024138963414e-18 -0.9481271536874916 -0.3178913343271047
12643205333.333334 -0.9518415160644291 -0.3065904895719703 1.3542041246476643e-16 2.4996027481854015e-18 1.3542041246476643e-16 2.4996027481854015e-18 -0.9518413040530044 -0.30659114778233204
12643822666.666666 -0.955420983378019 -0.2952469212723329 1.3541419738117763e-16 8.76456304843635e-19 1.3541419738117763e-16 8.76456304843635e-19 -0.9554207792207811 -0.2952475819256914
12644440000.0 -0.9588652690090143 -0.28386157874584295 1.353885382466155e-16 -7.461822335573457e-19 1.353885382466155e-16 -7.461822335573457e-19 -0.958865072734081 -0.2838622417484892
12645057333.333334 -0.9621738856285296 -0.272436072894741 1.3534344633771918e-16 -2.3680800733835217e-18 1.3534344633771918e-16 -2.3680800733835217e-18 -0.962173697262901 -0.2724367381526424
12645674666.666666 -0.9653463651033561 -0.26097202030399463 1.3527893571667404e-16 -3.989004618236538e-18 1.3527893571667404e-16 -3.989004618236538e-18 -0.9653461846729103 -0.26097268772280896
12646292000.0 -0.9683822585622798 -0.24947104301226736 1.3519502322810414e-16 -5.608723502304385e-18 1.3519502322810414e-16 -5.608723502304385e-18 -0.9683820860917703 -0.2494717124973559
12646909333.333334 -0.9712811364594471 -0.23793476828293889 1.350917284955702e-16 -7.227004623554504e-18 1.350917284955702e-16 -7.227004623554504e-18 -0.9712809719724979 -0.23793543973937947
12647526666.666666 -0.974042588635242 -0.2263648283735086 1.3496907391766595e-16 -8.843616176999058e-18 1.3496907391766595e-16 -8.843616176999058e-18 -0.9740424321543455 -0.2263655017061096
12648144000.0 -0.9766662243743259 -0.21476286030459252 1.3482708466371882e-16 -1.0458326687862287e-17 1.3482708466371882e-16 -1.0458326687862287e-17 -0.9766660759208408 -0.21476353541790644
12648761333.333334 -0.9791516724608549 -0.2031305056285793 1.346657886690971e-16 -1.2070905044641452e-17 1.346657886690971e-16 -1.2070905044641452e-17 -0.9791515320550006 -0.20313118242691572
12649378666.666666 -0.9814985812310245 -0.19146941019728606 1.3448521663012046e-16 -1.3681120532152734e-17 1.3448521663012046e-16 -1.3681120532152734e-17 -0.9814984488918814 -0.1914700885847257
12649996000.0 -0.9837066186228752 -0.1797812239288659 1.342854019985725e-16 -1.5288742864526325e-17 1.342854019985725e-16 -1.5288742864526325e-17 -0.9837064943683788 -0.17978190380927375
12650613333.333334 -0.9857754722232162 -0.16806760057461168 1.3406638097582603e-16 -1.689354221806197e-17 1.3406638097582603e-16 -1.689354221806197e-17 -0.9857753560701574 -0.16806828185165115
12651230666.666666 -0.9877048493118342 -0.15633019748499793 1.338281925065751e-16 -1.849528926403622e-17 1.338281925065751e-16 -1.849528926403622e-17 -0.9877047412758568 -0.15633088006214418
12651848000.0 -0.989494476902969 -0.14457067537481932 1.3357087827216625e-16 -2.0093755201478744e-17 1.3357087827216625e-16 -2.0093755201478744e-17 -0.9894943769985658 -0.144571359155373
12652465333.333334 -0.9911441017838649 -0.13279069808863722 1.3329448268355516e-16 -2.1688711789753822e-17 1.3329448268355516e-16 -2.1688711789753822e-17 -0.9911440100243774 -0.13279138297573806
12653082666.666666 -0.992653490550619 -0.12099193236528105 1.3299905287386563e-16 -2.3279931381117215e-17 1.3299905287386563e-16 -2.3279931381117215e-17 -0.9926534069482342 -0.12099261826192166
12653700000.0 -0.9940224296412496 -0.10917604760165585 1.3268463869055186e-16 -2.4867186953212714e-17 1.3268463869055186e-16 -2.4867186953212714e-17 -0.9940223542070009 -0.10917673441069568
12654317333.333334 -0.9952507253658428 -0.09734471561710502 1.3235129268719816e-16 -2.6450252141341814e-17 1.3235129268719816e-16 -2.6450252141341814e-17 -0.9952506581096058 -0.09734540324128378
12654934666.666666 -0.9963382039340053 -0.08549961041649945 1.3199907011490925e-16 -2.8028901270750804e-17 1.3199907011490925e-16 -2.8028901270750804e-17 -0.9963381448644969 -0.08550029875845096
12655552000.0 -0.9972847114794512 -0.07364240795329821 1.3162802891332395e-16 -2.9602909388768387e-17 1.3162802891332395e-16 -2.9602909388768387e-17 -0.9972846606042308 -0.07364309691556435
12656169333.333334 -0.9980901140817421 -0.061774785892844575 1.3123822970126125e-16 -3.1172052296759845e-17 1.3123822970126125e-16 -3.1172052296759845e-17 -0.9980900714072087 -0.06177547537788894
12656786666.666666 -0.9987542977852667 -0.04989842337459802 1.3082973576696289e-16 -3.273610658206538e-17 1.3082973576696289e-16 -3.273610658206538e-17 -0.998754263316658 -0.04989911328481973
12657404000.0 -0.9992771686153481 -0.03801500077475248 1.304026130579676e-16 -3.4294849649756716e-17 1.304026130579676e-16 -3.4294849649756716e-17 -0.9992771423567408 -0.038015691012500054
12658021333.333334 -0.9996586525915501 -0.02612619946831125 1.299569301706111e-16 -3.5848059754256914e-17 1.299569301706111e-16 -3.5848059754256914e-17 -0.999658634545858 -0.026126889935896336
12658638666.666666 -0.9998986957381314 -0.014233701591502956 1.2949275833914872e-16 -3.7395516030833506e-17 1.2949275833914872e-16 -3.7395516030833506e-17 -0.9998986859071066 -0.014234392191214248
12659256000.0 -0.9999972640916954 -0.0023391898034083804 1.2901017142448612e-16 -3.8936998527007846e-17 1.2901017142448612e-16 -3.8936998527007846e-17 -0.9999972624759277 -0.0023398804375254173
12659873333.333334 -0.999954343705988 0.009555652951947073 1.285092459025685e-16 -4.047228823371831e-17 1.285092459025685e-16 -4.047228823371831e-17 -0.9999543503049061 0.009554962381140106
12660490666.666666 -0.9997699406538764 0.021449143683541165 1.2799006085238008e-16 -4.200116711640259e-17 1.2799006085238008e-16 -4.200116711640259e-17 -0.9997699554657441 0.021448453273741574
12661108000.0 -0.9994440810264803 0.03333959959187754 1.2745269794356075e-16 -4.3523418145963514e-17 1.2745269794356075e-16 -4.3523418145963514e-17 -0.9994441040484022 0.03333890944075036
12661725333.333334 -0.9989768109294949 0.04522533830662898 1.2689724142369825e-16 -4.503882532945554e-17 1.2689724142369825e-16 -4.503882532945554e-17 -0.9989768421574128 0.0452246485117931
12662342666.666666 -0.9983681964766501 0.057104678125100575 1.2632377810520512e-16 -4.654717374075516e-17 1.2632377810520512e-16 -4.654717374075516e-17 -0.9983682359053471 0.05710398878411502
12662960000.0 -0.9976183237803736 0.06897593824986012 1.2573239735187212e-16 -4.8048249550954476e-17 1.2573239735187212e-16 -4.8048249550954476e-17 -0.997618371403471 0.06897524946021014
12663577333.333334 -0.996727298939595 0.08083743902666606 1.2512319106503974e-16 -4.954184005864282e-17 1.2512319106503974e-16 -4.954184005864282e-17 -0.9967273547495555 0.08083675088574933
12664194666.666666 -0.9956952480247339 0.09268750218220545 1.2449625366941262e-16 -5.1027733720011343e-17 1.2449625366941262e-16 -5.1027733720011343e-17 -0.9956953120128631 0.09268681478731843
12664812000.0 -0.9945223170598684 0.10452445106138113 1.2385168209852909e-16 -5.2505720178747434e-17 1.2385168209852909e-16 -5.2505720178747434e-17 -0.9945223892163167 0.1045237645097053
12665429333.333334 -0.993208672002073 0.11634661086465382 1.231895757798611e-16 -5.3975590295786185e-17 1.231895757798611e-16 -5.3975590295786185e-17 -0.9932087523158353 0.11634592525324186
12666046666.666666 -0.9917544987179376 0.12815230888495135 1.2251003661958001e-16 -5.543713617883342e-17 1.2251003661958001e-16 -5.543713617883342e-17 -0.9917545871768566 0.1281516243107135
12666664000.0 -0.9901600029572551 0.13993987474447958 1.2181316898693802e-16 -5.689015121177482e-17 1.2181316898693802e-16 -5.689015121177482e-17 -0.990160099548021 0.13993919130416982
12667281333.333334 -0.9884254103239467 0.15170764063075245 1.2109907969835912e-16 -5.833443008376541e-17 1.2109907969835912e-16 -5.833443008376541e-17 -0.9884255150321011 0.15170695842095494
12667898666.666666 -0.9865509662440959 0.16345394153293583 1.20367878001123e-16 -5.976976881825562e-17 1.20367878001123e-16 -5.976976881825562e-17 -0.9865510790540335 0.16345326065005122
12668516000.0 -0.9845369359312419 0.17517711547725892 1.1961967555674575e-16 -6.119596480172759e-17 1.1961967555674575e-16 -6.119596480172759e-17 -0.984537056826213 0.17517643601749078
12669133333.333334 -0.9823836043488875 0.18687550376199796 1.1885458642402112e-16 -6.261281681222928e-17 1.1885458642402112e-16 -6.261281681222928e-17 -0.9823837333109992 0.18687482582133902
12669750666.666666 -0.9800912761701145 0.198547451192528 1.180727270416899e-16 -6.402012504776137e-17 1.180727270416899e-16 -6.402012504776137e-17 -0.9800914131803344 0.1985467748667468
