! Parameters = {f0=12700.012000; bw=77.238000; Q=6100.000000; N=10; m_0_1=1.259354; m_1_1=0.125570; m_1_2=1.094166; m_2_2=0.124921; m_2_3=0.731129; m_2_8=0.000031; m_2_9=0.036735; m_3_3=0.122984; m_3_4=0.619658; m_3_7=0.000631; m_3_8=-0.096457; m_3_9=0.000031; m_4_4=0.120059; m_4_5=0.455993; m_4_6=0.004148; m_4_7=-0.117006; m_4_8=0.000631; m_5_5=0.120441; m_5_6=0.863348; m_5_7=0.004148; m_6_6=0.120440; m_6_7=0.456335; m_7_7=0.120073; m_7_8=0.619776; m_8_8=0.122982; m_8_9=0.731442; m_9_9=0.124916; m_9_10=1.095244; m_10_10=0.125560; m_10_11=1.260149}
!
! Created with skrf (http://scikit-rf.org).
# Hz S RI R 50.0 
!freq ReS11 ImS11 ReS21 ImS21 ReS12 ImS12 ReS22 ImS22
12607400000.0 0.6103695594480338 0.7921167848865723 -8.520315048551615e-17 -6.163616192596691e-17 -8.520315048551615e-17 -6.163616192596691e-17 0.6103690338609393 0.7921171898800641
12608017333.333334 0.6184237298909998 0.7858448258451098 -8.581647590838173e-17 -6.074368165014325e-17 -8.581647590838173e-17 -6.074368165014325e-17 0.618423208491017 0.7858452361626314
12608634666.666666 0.6264134561689312 0.7794909761699116 -8.642046170367521e-17 -5.984511001618335e-17 -8.642046170367521e-17 -5.984511001618335e-17 0.6264129390099812 0.779491391768186
12609252000.0 0.6343379056953952 0.7730558979775045 -8.701504749793349e-17 -5.894054467132914e-17 -8.701504749793349e-17 -5.894054467132914e-17 0.6343373928309519 0.7730563188127088
12609869333.333334 0.6421962526863089 0.7665402618489722 -8.760017393769591e-17 -5.803008385988262e-17 -8.760017393769591e-17 -5.803008385988262e-17 0.6421957441693923 0.7665406878767405
12610486666.666666 0.6499876782458552 0.7599447467601772 -8.817578269538512e-17 -5.711382641257559e-17 -8.817578269538512e-17 -5.711382641257559e-17 0.6499871741290293 0.7599451779356093
12611104000.0 0.6577113704520637 0.7532700400108143 -8.874181647511087e-17 -5.61918717358286e-17 -8.874181647511087e-17 -5.61918717358286e-17 0.6577108707874282 0.7532704762884775
12611721333.333334 0.6653665244410911 0.746516837153061 -8.929821901830591e-17 -5.526431980104116e-17 -8.929821901830591e-17 -5.526431980104116e-17 0.6653660292802749 0.7465172784869932
12612338666.666666 0.6729523424913925 0.7396858419188339 -8.984493510930439e-17 -5.433127113374073e-17 -8.984493510930439e-17 -5.433127113374073e-17 0.6729518518855521 0.7396862882625531
12612956000.0 0.6804680341067236 0.7327777661465699 -9.03819105807814e-17 -5.3392826802717143e-17 -9.03819105807814e-17 -5.3392826802717143e-17 0.680467548106535 0.7327782174530756
12613573333.333334 0.687912816098411 0.7257933297071427 -9.090909231907576e-17 -5.244908840911217e-17 -9.090909231907576e-17 -5.244908840911217e-17 0.6879123347540653 0.7257937859289217
12614190666.666666 0.6952859126671532 0.7187332604286726 -9.1426428269412e-17 -5.1500158075433294e-17 -9.1426428269412e-17 -5.1500158075433294e-17 0.6952854360283528 0.7187337215177053
12614808000.0 0.7025865554837631 0.711598294020782 -9.193386744100108e-17 -5.0546138434529725e-17 -9.193386744100108e-17 -5.0546138434529725e-17 0.7025860835997135 0.7115987599285454
12615425333.333334 0.7098139837692313 0.7043891739979263 -9.243135991202769e-17 -4.9587132618516004e-17 -9.243135991202769e-17 -4.9587132618516004e-17 0.7098135166886379 0.7043896446753996
12616042666.666666 0.7169674443740848 0.6971066516018344 -9.291885683452076e-17 -4.862324424764954e-17 -9.291885683452076e-17 -4.862324424764954e-17 0.7169669821451488 0.6971071269995056
12616660000.0 0.7240461918567513 0.6897514857233461 -9.339631043911561e-17 -4.7654577419147843e-17 -9.339631043911561e-17 -4.7654577419147843e-17 0.7240457345271636 0.6897519657912164
12617277333.333334 0.731049488561341 0.6823244428232286 -9.386367403968703e-17 -4.66812366959831e-17 -9.386367403968703e-17 -4.66812366959831e-17 0.731049036178276 0.6823249275108163
12617894666.666666 0.7379766046943934 0.6748262968524279 -9.432090203787194e-17 -4.570332709562149e-17 -9.432090203787194e-17 -4.570332709562149e-17 0.737976157304507 0.6748267861087761
12618512000.0 0.7448268184011462 0.6672578291711928 -9.476794992748902e-17 -4.472095407868919e-17 -9.476794992748902e-17 -4.472095407868919e-17 0.7448263760505682 0.6672583229448725
12619129333.333334 0.7515994158404636 0.6596198284679605 -9.520477429880855e-17 -4.3734223537662885e-17 -9.520477429880855e-17 -4.3734223537662885e-17 0.751598978574795 0.6596203267070775
12619746666.666666 0.7582936912594935 0.6519130906768774 -9.563133284274143e-17 -4.274324178544098e-17 -9.563133284274143e-17 -4.274324178544098e-17 0.7582932591238012 0.6519135933290778
12620364000.0 0.7649089470670983 0.6441384188949844 -9.604758435488456e-17 -4.174811554392854e-17 -9.604758435488456e-17 -4.174811554392854e-17 0.7649085201059094 0.6441389259074586
12620981333.333334 0.771444493906454 0.6362966232986332 -9.645348873944952e-17 -4.074895193258101e-17 -9.645348873944952e-17 -4.074895193258101e-17 0.7714440721637522 0.636297134618123
12621598666.666666 0.7778996507270545 0.6283885210588702 -9.684900701308757e-17 -3.9745858456874755e-17 -9.684900701308757e-17 -3.9745858456874755e-17 0.7778992342462766 0.628389036631674
12622216000.0 0.7842737448555723 0.6204149362564085 -9.72341013085842e-17 -3.873894299676561e-17 -9.72341013085842e-17 -3.873894299676561e-17 0.7842733336796015 0.6204154560283865
12622833333.333334 0.7905661120660616 0.6123766997956218 -9.76087348784309e-17 -3.77283137951206e-17 -9.76087348784309e-17 -3.77283137951206e-17 0.7905657062372248 0.6123772237122022
12623450666.666666 0.7967760966489996 0.6042746493181804 -9.797287209828204e-17 -3.671407944610508e-17 -9.797287209828204e-17 -3.671407944610508e-17 0.7967756962090617 0.6042751773243644
12624068000.0 0.802903051479775 0.5961096291155625 -9.832647847029478e-17 -3.569634888352563e-17 -9.832647847029478e-17 -3.569634888352563e-17 0.8029026564699346 0.5961101611559303
12624685333.333334 0.808946338086117 0.5878824900410692 -9.866952062634484e-17 -3.467523136914984e-17 -9.866952062634484e-17 -3.467523136914984e-17 0.8089459485470052 0.5878830260597873
12625302666.666666 0.8149053267144674 0.5795940894213923 -9.900196633111095e-17 -3.3650836481030056e-17 -9.900196633111095e-17 -3.3650836481030056e-17 0.8149049426861396 0.5795946293622173
12625920000.0 0.8207793963958344 0.5712452909669513 -9.932378448506534e-17 -3.2623274101713274e-17 -9.932378448506534e-17 -3.2623274101713274e-17 0.8207790179177678 0.5712458347732362
12626537333.333334 0.8265679350103349 0.5628369646821164 -9.963494512730674e-17 -3.159265440653356e-17 -9.963494512730674e-17 -3.159265440653356e-17 0.8265675621214251 0.562837512296818
12627154666.666666 0.8322703393509876 0.5543699867745538 -9.993541943829991e-17 -3.0559087851793484e-17 -9.993541943829991e-17 -3.0559087851793484e-17 0.8322699720895443 0.5543705381402371
12627772000.0 0.837886015186728 0.5458452395636805 -1.0022517974248711e-16 -2.952268516293407e-17 -1.0022517974248711e-16 -2.952268516293407e-17 0.8378856535904708 0.5458457946225255
12628389333.333334 0.8434143773240974 0.5372636113890756 -1.0050419951076148e-16 -2.848355732273813e-17 -1.0050419951076148e-16 -2.848355732273813e-17 0.8434140214301505 0.5372641700828826
12629006666.666666 0.8488548496684538 0.5286259965175519 -1.0077245336284537e-16 -2.7441815559413764e-17 -1.0077245336284537e-16 -2.7441815559413764e-17 0.8488544995133442 0.5286265587877482
12629624000.0 0.854206865283822 0.5199332950502531 -1.0102991706951731e-16 -2.639757133475946e-17 -1.0102991706951731e-16 -2.639757133475946e-17 0.8542065209034768 0.5199338608379002
12630241333.333334 0.8594698664521264 0.5111864128286185 -1.012765675547376e-16 -2.5350936332231868e-17 -1.012765675547376e-16 -2.5350936332231868e-17 0.8594695278818658 0.5111869820744158
12630858666.666666 0.8646433047311277 0.5023862613402763 -1.0151238289763713e-16 -2.4302022445046336e-17 -1.0151238289763713e-16 -2.4302022445046336e-17 0.8646429720056638 0.5023868339845695
12631476000.0 0.8697266410117964 0.4935337576236966 -1.0173734233439915e-16 -2.3250941764193598e-17 -1.0173734233439915e-16 -2.3250941764193598e-17 0.8697263141652276 0.4935343336064824
12632093333.333334 0.8747193455742847 0.48462982417296874 -1.0195142625999424e-16 -2.2197806566538262e-17 -1.0195142625999424e-16 -2.2197806566538262e-17 0.8747190246400953 0.4846304034339026
12632710666.666666 0.8796208981432215 0.47567538884152905 -1.0215461622981247e-16 -2.1142729302818757e-17 -1.0215461622981247e-16 -2.1142729302818757e-17 0.8796205831542756 0.4756759713199304
12633328000.0 0.8844307879419778 0.46667138474536796 -1.0234689496116584e-16 -2.0085822585650435e-17 -1.0234689496116584e-16 -2.0085822585650435e-17 0.884430478930517 0.46667197038022706
12633945333.333334 0.8891485137458253 0.45761875016591874 -1.0252824633466035e-16 -1.9027199177557147e-17 -1.0252824633466035e-16 -1.9027199177557147e-17 0.8891482107434645 0.45761933889590245
12634562666.666666 0.8937735839341536 0.4485184284523059 -1.0269865539545454e-16 -1.7966971978936355e-17 -1.0269865539545454e-16 -1.7966971978936355e-17 0.8937732869718793 0.4485190202157649
12635180000.0 0.8983055165417428 0.4393713679229672 -1.0285810835438499e-16 -1.6905254016060758e-17 -1.0285810835438499e-16 -1.6905254016060758e-17 0.8983052256499093 0.4393719626579425
12635797333.333334 0.9027438393089867 0.43017852176683213 -1.030065925889753e-16 -1.5842158429036532e-17 -1.030065925889753e-16 -1.5842158429036532e-17 0.9027435545173121 0.43017911941106063
12636414666.666666 0.9070880897310548 0.42094084794409437 -1.0314409664431497e-16 -1.4777798459783212e-17 -1.0314409664431497e-16 -1.4777798459783212e-17 0.9070878110686185 0.4209414484350158
12637032000.0 0.9113378151061513 0.4116593090862575 -1.0327061023381963e-16 -1.3712287439978342e-17 -1.0327061023381963e-16 -1.3712287439978342e-17 0.9113375426013917 0.41165991236102134
12637649333.333334 0.9154925725826862 0.40233487239582094 -1.0338612423986404e-16 -1.2645738779011872e-17 -1.0338612423986404e-16 -1.2645738779011872e-17 0.9154923062633985 0.4023354783912934
12638266666.666666 0.9195519292053715 0.39296850954562235 -1.0349063071429034e-16 -1.1578265951951834e-17 -1.0349063071429034e-16 -1.1578265951951834e-17 0.9195516690987003 0.3929691181983907
12638884000.0 0.9235154619603746 0.38356119657747473 -1.0358412287879409e-16 -1.0509982487481166e-17 -1.0358412287879409e-16 -1.0509982487481166e-17 0.9235152080928184 0.38356180782385724
12639501333.333334 0.9273827578194078 0.37411391380045905 -1.0366659512518595e-16 -9.44100195584548e-18 -1.0366659512518595e-16 -9.44100195584548e-18 0.9273825102168101 0.3741145275765091
12640118666.666666 0.9311534137826913 0.3646276456889527 -1.037380430155273e-16 -8.371437956821692e-18 -1.037380430155273e-16 -8.371437956821692e-18 0.9311531724702411 0.36462826193046644
12640736000.0 0.9348270369211568 0.3551033807795107 -1.0379846328214727e-16 -7.301404107608578e-18 -1.0379846328214727e-16 -7.301404107608578e-18 0.934826801923385 0.35510399942203386
12641353333.333334 0.9384032444170827 0.34554211156864806 -1.0384785382752604e-16 -6.231014030867775e-18 -1.0384785382752604e-16 -6.231014030867775e-18 0.9384030157578598 0.3455427325474822
12641970666.666666 0.9418816636042472 0.3359448344087524 -1.0388621372406471e-16 -5.160381342606531e-18 -1.0388621372406471e-16 -5.160381342606531e-18 0.94188144130678 0.33594545765896194
12642588000.0 0.9452619320066435 0.3263125494045473 -1.0391354321372459e-16 -4.0896196401721965e-18 -1.0391354321372459e-16 -4.0896196401721965e-18 0.945261716093476 0.3263131748609667
12643205333.333334 0.9485436973762632 0.3166462603088769 -1.039298437075451e-16 -3.0188424902208605e-18 -1.039298437075451e-16 -3.0188424902208605e-18 0.9485434878692691 0.3166468879061166
12643822666.666666 0.9517266177298661 0.30694697441789015 -1.0393511778503779e-16 -1.948163416670336e-18 -1.0393511778503779e-16 -1.948163416670336e-18 0.9517264146502529 0.3069476040903448
12644440000.0 0.9548103613845264 0.2972157024663718 -1.0392936919345604e-16 -8.776958887184936e-19 -1.0392936919345604e-16 -8.776958887184936e-19 0.9548101647528259 0.297216334148225
12645057333.333334 0.9577946069922342 0.28745345852227994 -1.0391260284694243e-16 1.924466911751802e-19 -1.0391260284694243e-16 1.924466911751802e-19 0.9577944168283071 0.2874540921475133
12645674666.666666 0.960679043573382 0.2776612598811023 -1.0388482482555232e-16 1.2621509992756055e-18 -1.0388482482555232e-16 1.2621509992756055e-18 0.9606788598964117 0.27766189538350067
12646292000.0 0.9634633705492205 0.26784012695965387 -1.038460423741532e-16 2.33130380258347e-18 -1.038460423741532e-16 2.33130380258347e-18 0.9634631933777142 0.26784076427281367
12646909333.333334 0.9661472977730815 0.2579910831900985 -1.0379626390120366e-16 3.399791970743734e-18 -1.0379626390120366e-16 3.399791970743734e-18 0.9661471271248654 0.2579917222474337
12647526666.666666 0.9687305455606833 0.24811515491305353 -1.0373549897740673e-16 4.4675024880360206e-18 -1.0373549897740673e-16 4.4675024880360206e-18 0.9687303814529024 0.24811579564780256
12648144000.0 0.9712128447192945 0.23821337127055459 -1.0366375833424168e-16 5.534322465300921e-18 -1.0366375833424168e-16 5.534322465300921e-18 0.9712126871684107 0.23821401361578795
12648761333.333334 0.9735939365757146 0.22828676409908688 -1.0358105386237464e-16 6.6001391518394604e-18 -1.0358105386237464e-16 6.6001391518394604e-18 0.9735937855975042 0.2282874079877134
12649378666.666666 0.9758735730032579 0.21833636782195043 -1.0348739860994499e-16 7.66483994731971e-18 -1.0348739860994499e-16 7.66483994731971e-18 0.9758734286128132 0.21833701318672535
12649996000.0 0.9780515164476424 0.20836321934135643 -1.0338280678073101e-16 8.72831241364813e-18 -1.0338280678073101e-16 8.72831241364813e-18 0.9780513786593655 0.20836386611488725
12650613333.333334 0.9801275399517162 0.19836835793045582 -1.03267293732193e-16 9.790444286824936e-18 -1.03267293732193e-16 9.790444286824936e-18 0.9801274087793198 0.19836900604520968
12651230666.666666 0.9821014271790827 0.18835282512517945 -1.0314087597339713e-16 1.0851123488758827e-17 -1.0314087597339713e-16 1.0851123488758827e-17 0.9821013026355905 0.1883534745134908
12651848000.0 0.9839729724367274 0.17831766461531337 -1.0300357116281349e-16 1.1910238139098427e-17 -1.0300357116281349e-16 1.1910238139098427e-17 0.9839728545344694 0.1783183152093902
12652465333.333334 0.9857419806963611 0.16826392213615549 -1.0285539810599741e-16 1.29676765669971e-17 -1.0285539810599741e-16 1.29676765669971e-17 0.9857418694469757 0.16826457386808702
12653082666.666666 0.9874082676147758 0.15819264535943303 -1.026963767531515e-16 1.4023327322848165e-17 -1.026963767531515e-16 1.4023327322848165e-17 0.9874081630292056 0.1581932981611964
12653700000.0 0.9889716595530901 0.14810488378387393 -1.0252652819655853e-16 1.5077079190050382e-17 -1.0252652819655853e-16 1.5077079190050382e-17 0.9889715616415835 0.14810553758734152
12654317333.333334 0.990431993594779 0.13800168862626336 -1.0234587466790756e-16 1.612882119665974e-17 -1.0234587466790756e-16 1.612882119665974e-17 0.9904319023668867 0.13800234336320966
12654934666.666666 0.9917891175627099 0.12788411271150563 -1.0215443953548861e-16 1.7178442627080475e-17 -1.0215443953548861e-16 1.7178442627080475e-17 0.9917890330272867 0.12788476831361476
12655552000.0 0.9930428900349757 0.11775321036308119 -1.0195224730127084e-16 1.8225833033709945e-17 -1.0195224730127084e-16 1.8225833033709945e-17 0.9930428122001768 0.11775386676195358
12656169333.333334 0.9941931803596109 0.1076100372933192 -1.0173932359787108e-16 1.927088224849536e-17 -1.0173932359787108e-16 1.927088224849536e-17 0.9941931092328942 0.10761069442047913
12656786666.666666 0.9952398686682467 0.09745565049313182 -1.0151569518538909e-16 2.0313480394540517e-17 -1.0151569518538909e-16 2.0313480394540517e-17 0.9952398042563683 0.09745630828003417
12657404000.0 0.9961828458885749 0.08729110812200844 -1.0128138994813463e-16 2.135351789761915e-17 -1.0128138994813463e-16 2.135351789761915e-17 0.9961827881975924 0.08729176650004615
12658021333.333334 0.9970220137557235 0.07711746939772007 -1.0103643689123341e-16 2.2390885497672047e-17 -1.0103643689123341e-16 2.2390885497672047e-17 0.9970219627909935 0.0771181282982312
12658638666.666666 0.9977572848224963 0.0669357944859699 -1.0078086613711691e-16 2.3425474260260678e-17 -1.0078086613711691e-16 2.3425474260260678e-17 0.9977572405886713 0.06693645384024455
12659256000.0 0.9983885824684847 0.056747144389802356 -1.0051470892189074e-16 2.445717558799591e-17 -1.0051470892189074e-16 2.445717558799591e-17 0.9983885449695195 0.056747804129090335
12659873333.333334 0.9989158409080514 0.04655258083918148 -1.0023799759159387e-16 2.5485881231901125e-17 -1.0023799759159387e-16 2.5485881231901125e-17 0.9989158101471952 0.04655324089469898
12660490666.666666 0.9993390051971808 0.03635316618037919 -9.995076559833973e-17 2.651148330274259e-17 -9.995076559833973e-17 2.651148330274259e-17 0.999338981176982 0.03635382648331625
12661108000.0 0.9996580312392174 0.02614996326498738 -9.965304749632816e-17 2.7533874282362372e-17 -9.965304749632816e-17 2.7533874282362372e-17 0.9996580139615227 0.026150623746514997
12661725333.333334 0.9998728857894479 0.015944035339587322 -9.934487893776958e-17 2.855294703487147e-17 -9.934487893776958e-17 2.855294703487147e-17 0.9998728752553994 0.01594469593086453
12662342666.666666 0.9999835464585748 0.0057364459345255045 -9.902629666866669e-17 2.956859481789701e-17 -9.902629666866669e-17 2.956859481789701e-17 0.9999835426686131 0.005737106566706645
12662960000.0 0.9999900017150426 -0.004471741246601194 -9.869733852449824e-17 3.0580711293723994e-17 -9.869733852449824e-17 3.0580711293723994e-17 0.999990004668905 -0.004471080642359336
12663577333.333334 0.999892250886245 -0.014679462437933069 -9.83580434257847e-17 3.158919054040679e-17 -9.83580434257847e-17 3.158919054040679e-17 0.999892260582966 -0.014678801930464088
12664194666.666666 0.9996903041585901 -0.024885653922171173 -9.800845137353695e-17 3.2593927062843465e-17 -9.800845137353695e-17 3.2593927062843465e-17 0.9996903205965018 -0.02488499358029186
12664812000.0 0.9993841825764429 -0.03508925214139581 -9.7648603444601e-17 3.359481580377254e-17 -9.7648603444601e-17 3.359481580377254e-17 0.9993842057531755 -0.03508859203389902
12665429333.333334 0.9989739180399287 -0.045289193808038974 -9.727854178688086e-17 3.4591752154749796e-17 -9.727854178688086e-17 3.4591752154749796e-17 0.9989739479524102 -0.045288534003686376
12666046666.666666 0.9984595533016147 -0.055484416015373815 -9.689830961446009e-17 3.558463196704272e-17 -9.689830961446009e-17 3.558463196704272e-17 0.9984595899460718 -0.055483756582888864
12666664000.0 0.997841141962045 -0.06567385634870344 -9.650795120259631e-17 3.6573351562516143e-17 -9.650795120259631e-17 3.6573351562516143e-17 0.9978411853340025 -0.06567319735676408
12667281333.333334 0.9971187484641671 -0.07585645299564583 -9.610751188262576e-17 3.755780774440877e-17 -9.610751188262576e-17 3.755780774440877e-17 0.9971187985584504 -0.07585579451287744
12667898666.666666 0.9962924480866102 -0.08603114485706652 -9.569703803674315e-17 3.853789780809286e-17 -9.569703803674315e-17 3.853789780809286e-17 0.9962925048973433 -0.08603048695203466
12668516000.0 0.9953623269358325 -0.09619687165762374 -9.527657709267219e-17 3.951351955177746e-17 -9.527657709267219e-17 3.951351955177746e-17 0.9953623904564421 -0.09619621439882728
12669133333.333334 0.9943284819371646 -0.1063525740561154 -9.484617751824314e-17 4.048457128711645e-17 -9.484617751824314e-17 4.048457128711645e-17 0.9943285521603774 -0.10635191751197899
12669750666.666666 0.9931910208246997 -0.11649719375598312 -9.44058888158408e-17 4.145095184980924e-17 -9.44058888158408e-17 4.145095184980924e-17 0.9931910977425452 -0.11649653799485044
12670368000.0 0.9919500621300632 -0.12662967361559418 -9.395576151675467e-17 4.241256061011735e-17 -9.395576151675467e-17 4.241256061011735e-17 0.9919501457338741 -0.12662901870572052
