! Parameters = {f0=12700.012000; bw=77.238000; Q=6100.000000; N=10; m_0_1=1.226722; m_1_1=-0.363920; m_1_2=1.061534; m_2_2=-0.364569; m_2_3=0.698497; m_2_8=-0.001600; m_2_9=0.035104; m_3_3=-0.366506; m_3_4=0.587026; m_3_7=-0.001000; m_3_8=-0.098088; m_3_9=-0.001600; m_4_4=-0.369431; m_4_5=0.423361; m_4_6=0.002517; m_4_7=-0.118637; m_4_8=-0.001000; m_5_5=-0.369049; m_5_6=0.830716; m_5_7=0.002517; m_6_6=-0.369050; m_6_7=0.423703; m_7_7=-0.369417; m_7_8=0.587144; m_8_8=-0.366508; m_8_9=0.698810; m_9_9=-0.364574; m_9_10=1.062612; m_10_10=-0.363930; m_10_11=1.227517}
!
! Created with skrf (http://scikit-rf.org).
# Hz S RI R 50.0 
!freq ReS11 ImS11 ReS21 ImS21 ReS12 ImS12 ReS22 ImS22
12607400000.0 -0.20698626443649756 0.9783438487231674 -7.131426079087675e-18 -8.949680805721065e-17 -7.131426079087675e-18 -8.949680805721065e-17 -0.20698689682476612 0.9783437149298237
12608017333.333334 -0.19793420245521054 0.9802153087451017 -7.964746664270304e-18 -8.940884555439444e-17 -7.964746664270304e-18 -8.940884555439444e-17 -0.1979348360221425 0.9802151808091539
12608634666.666666 -0.18886522854478935 0.9820030170251818 -8.797047133988156e-18 -8.931312987440263e-17 -8.797047133988156e-18 -8.931312987440263e-17 -0.1888658632361386 0.9820028949569868
12609252000.0 -0.17978011757822668 0.9837068208177648 -9.628255409284334e-18 -8.920967238912588e-17 -9.628255409284334e-18 -8.920967238912588e-17 -0.17978075333965626 0.983706704627177
12609869333.333334 -0.17067964580727124 0.9853265745461959 -1.045829953452623e-17 -8.90984851400255e-17 -1.045829953452623e-17 -8.90984851400255e-17 -0.17068028258435827 0.9853264642425671
12610486666.666666 -0.16156459079624372 0.9868621398152216 -1.1287107683607754e-17 -8.897958083682364e-17 -1.1287107683607754e-17 -8.897958083682364e-17 -0.1615652285344837 0.9868620354073991
12611104000.0 -0.1524357313552914 0.9883133854228687 -1.2114608166178513e-17 -8.885297285613249e-17 -1.2114608166178513e-17 -8.885297285613249e-17 -0.15243637000010332 0.9883132869191967
12611721333.333334 -0.14329384747423804 0.98968018737159 -1.2940729433795446e-17 -8.871867524003306e-17 -1.2940729433795446e-17 -8.871867524003306e-17 -0.1432944869709684 0.9896800947799049
12612338666.666666 -0.13413972025565837 0.9909624288789001 -1.376540008612037e-17 -8.857670269458909e-17 -1.376540008612037e-17 -8.857670269458909e-17 -0.1341403605495866 0.9909623422065357
12612956000.0 -0.12497413184811128 0.9921600003873605 -1.4588548877076835e-17 -8.842707058830632e-17 -1.4588548877076835e-17 -8.842707058830632e-17 -0.12497477288445377 0.992159919641141
12613573333.333334 -0.11579786537967696 0.9932727995738861 -1.5410104720968743e-17 -8.826979495053961e-17 -1.5410104720968743e-17 -8.826979495053961e-17 -0.11579850710359231 0.9932727247601312
12614190666.666666 -0.1066117048905947 0.9943007313585547 -1.6229996698630178e-17 -8.810489246983467e-17 -1.6229996698630178e-17 -8.810489246983467e-17 -0.10661234724718784 0.9943006624830746
12614808000.0 -0.09741643526652545 0.9952437079126891 -1.7048154063520743e-17 -8.793238049221922e-17 -1.7048154063520743e-17 -8.793238049221922e-17 -0.09741707820085288 0.995243644980788
12615425333.333334 -0.08821284217143394 0.996101648666377 -1.7864506247818496e-17 -8.775227701943531e-17 -1.7864506247818496e-17 -8.775227701943531e-17 -0.08821348562850796 0.9961015916828488
12616042666.666666 -0.079001711980459 0.9968744803153463 -1.8678982868492543e-17 -8.756460070711594e-17 -1.8678982868492543e-17 -8.756460070711594e-17 -0.07900235590525292 0.996874429284479
12616660000.0 -0.06978383171272495 0.9975621368272384 -1.9491513733357092e-17 -8.736937086290505e-17 -1.9491513733357092e-17 -8.736937086290505e-17 -0.06978447605017728 0.9975620917528083
12617277333.333334 -0.0605599889640677 0.9981645594472425 -2.030202884710892e-17 -8.716660744452087e-17 -2.030202884710892e-17 -8.716660744452087e-17 -0.060560633659087135 0.9981645203325181
12617894666.666666 -0.0513309718398831 0.9986816967031127 -2.1110458417330765e-17 -8.695633105776778e-17 -2.1110458417330765e-17 -8.695633105776778e-17 -0.05133161683735322 0.9986816635508531
12618512000.0 -0.04209756888747745 0.9991135044095841 -2.191673286051394e-17 -8.673856295448178e-17 -2.191673286051394e-17 -8.673856295448178e-17 -0.042098214132261294 0.9991134772220369
12619129333.333334 -0.032860569029089244 0.999459945672121 -2.2720782807998963e-17 -8.651332503043696e-17 -2.2720782807998963e-17 -8.651332503043696e-17 -0.03286121446603426 0.999459924451027
12619746666.666666 -0.023620761494198582 0.9997209908900936 -2.352253911195416e-17 -8.628063982318101e-17 -2.352253911195416e-17 -8.628063982318101e-17 -0.02362140706814107 0.9997209756366807
12620364000.0 -0.014378935752093105 0.9998966177592925 -2.432193285130805e-17 -8.604053050982202e-17 -2.432193285130805e-17 -8.604053050982202e-17 -0.014379581407863145 0.9998966084742814
12620981333.333334 -0.005135881444670087 0.9999868112738405 -2.5118895337637858e-17 -8.579302090476742e-17 -2.5118895337637858e-17 -8.579302090476742e-17 -0.005136527127096113 0.9999868079574393
12621598666.666666 0.004107611681316633 0.9999915637274703 -2.5913358121081735e-17 -8.553813545739434e-17 -2.5913358121081735e-17 -8.553813545739434e-17 0.0041069660274030435 0.9999915663793799
12622216000.0 0.01335075384162059 0.99991087471419 -2.6705252996191394e-17 -8.52758992496767e-17 -2.6705252996191394e-17 -8.52758992496767e-17 0.013350108271380029 0.9999108833335989
12622833333.333334 0.02259275528192678 0.9997447511283104 -2.7494512007778133e-17 -8.500633799375285e-17 -2.7494512007778133e-17 -8.500633799375285e-17 0.022592109850507296 0.9997447657138988
12623450666.666666 0.031832826345386846 0.9994932071638617 -2.8281067456720446e-17 -8.472947802944427e-17 -2.8281067456720446e-17 -8.472947802944427e-17 0.03183218110791922 0.9994932277137993
12624068000.0 0.04107017754011742 0.9991562643133749 -2.906485190576858e-17 -8.444534632171307e-17 -2.906485190576858e-17 -8.444534632171307e-17 0.041069532551710544 0.999156290825324
12624685333.333334 0.05030401960671303 0.9987339513660497 -2.984579818531454e-17 -8.415397045806951e-17 -2.984579818531454e-17 -8.415397045806951e-17 0.050303374922449046 0.9987339838371613
12625302666.666666 0.05953356358539793 0.9982263044052984 -3.0623839399110145e-17 -8.385537864593565e-17 -3.0623839399110145e-17 -8.385537864593565e-17 0.05953291926032761 0.9982263428322152
12625920000.0 0.06875802088386249 0.9976333668056468 -3.139890893002106e-17 -8.354959970993344e-17 -3.139890893002106e-17 -8.354959970993344e-17 0.06875737697300055 0.9976334111845031
12626537333.333334 0.07797660334424487 0.9969551892290496 -3.217094044567361e-17 -8.323666308915053e-17 -3.217094044567361e-17 -8.323666308915053e-17 0.07797595990256533 0.9969552395554724
12627154666.666666 0.08718852331064358 0.9961918296205534 -3.293986790414568e-17 -8.291659883432681e-17 -3.293986790414568e-17 -8.291659883432681e-17 0.08718788039307487 0.9961918858896608
12627772000.0 0.0963929936965859 0.9953433532033287 -3.370562555960618e-17 -8.258943760499696e-17 -3.370562555960618e-17 -8.258943760499696e-17 0.09639235135800635 0.9953434154097318
12628389333.333334 0.10558922805188219 0.994409832473133 -3.4468147967891574e-17 -8.225521066659636e-17 -3.4468147967891574e-17 -8.225521066659636e-17 0.10558858634711538 0.994409900610937
12629006666.666666 0.11477644063024633 0.9933913471920763 -3.522736999211955e-17 -8.191394988748796e-17 -3.522736999211955e-17 -8.191394988748796e-17 0.11477579961405628 0.9933914212548799
12629624000.0 0.12395384645612038 0.9922879843818367 -3.598322680821285e-17 -8.15656877359634e-17 -3.598322680821285e-17 -8.15656877359634e-17 0.12395320618320693 0.9922880643627329
12630241333.333334 0.13312066139191447 0.991099838316209 -3.673565391043356e-17 -8.121045727717637e-17 -3.673565391043356e-17 -8.121045727717637e-17 0.13312002191690853 0.9910999242077854
12630858666.666666 0.14227610220483553 0.9898270105130668 -3.748458711685956e-17 -8.084829217003722e-17 -3.748458711685956e-17 -8.084829217003722e-17 0.14227546358229462 0.9898271023074074
12631476000.0 0.15141938663414697 0.9884696097256487 -3.8229962574869865e-17 -8.047922666403934e-17 -3.8229962574869865e-17 -8.047922666403934e-17 0.1514187489185503 0.9884697074143329
12632093333.333334 0.16054973345752746 0.9870277519333248 -3.897171676654394e-17 -8.010329559606087e-17 -3.897171676654394e-17 -8.010329559606087e-17 0.16054909670327167 0.9870278555074314
12632710666.666666 0.16966636255815928 0.9855015603316514 -3.970978651407369e-17 -7.972053438709674e-17 -3.970978651407369e-17 -7.972053438709674e-17 0.1696657268195534 0.9855016697817556
12633328000.0 0.17876849499140957 0.9838911653218269 -4.044410898514072e-17 -7.93309790389407e-17 -4.044410898514072e-17 -7.93309790389407e-17 0.1787678603226706 0.9838912806380035
12633945333.333334 0.18785535305116155 0.9821967044995926 -4.117462169823034e-17 -7.893466613083533e-17 -4.117462169823034e-17 -7.893466613083533e-17 0.18785471950640964 0.9821968256714149
12634562666.666666 0.19692616033640295 0.9804183226434507 -4.1901262527944234e-17 -7.853163281605638e-17 -4.1901262527944234e-17 -7.853163281605638e-17 0.19692552796965718 0.9804184496599949
12635180000.0 0.2059801418175361 0.9785561717023012 -4.2623969710266615e-17 -7.812191681845541e-17 -4.2623969710266615e-17 -7.812191681845541e-17 0.20597951068270948 0.9785563045521434
12635797333.333334 0.21501652390262543 0.9766104107824506 -4.3342681847801484e-17 -7.770555642895223e-17 -4.3342681847801484e-17 -7.770555642895223e-17 0.21501589405352056 0.9766105494536711
12636414666.666666 0.22403453450338418 0.9745812061340439 -4.405733791496472e-17 -7.72825905019851e-17 -4.405733791496472e-17 -7.72825905019851e-17 0.2240339059936883 0.9745813506142249
12637032000.0 0.23303340310130932 0.9724687311368208 -4.476787726316381e-17 -7.685305845190073e-17 -4.476787726316381e-17 -7.685305845190073e-17 0.2330327759845903 0.9724688814130515
12637649333.333334 0.24201236081340585 0.970273166285329 -4.547423962592088e-17 -7.641700024930995e-17 -4.547423962592088e-17 -7.641700024930995e-17 0.24201173514310712 0.9702733223442033
12638266666.666666 0.25097064045790934 0.9679946991734939 -4.61763651239715e-17 -7.597445641738994e-17 -4.61763651239715e-17 -7.597445641738994e-17 0.2509700162873457 0.9679948610011136
12638884000.0 0.25990747661983565 0.9656335244785912 -4.687419427032521e-17 -7.55254680281406e-17 -4.687419427032521e-17 -7.55254680281406e-17 0.25990685400218827 0.9656336920605664
12639501333.333334 0.26882210571640675 0.9631898439446047 -4.756766797529262e-17 -7.507007669859403e-17 -4.756766797529262e-17 -7.507007669859403e-17 0.26882148470471956 0.9631900172660565
12640118666.666666 0.2777137660621298 0.9606638663650384 -4.825672755146077e-17 -7.460832458698724e-17 -4.825672755146077e-17 -7.460832458698724e-17 0.2777131467093036 0.9606640454105968
12640736000.0 0.28658169793431304 0.958055807564947 -4.894131471867799e-17 -7.414025438885863e-17 -4.894131471867799e-17 -7.414025438885863e-17 0.286581080293102 0.9580559923187549
12641353333.333334 0.2954251436373505 0.9553658903826777 -4.962137160891745e-17 -7.366590933315558e-17 -4.962137160891745e-17 -7.366590933315558e-17 0.29542452776035777 0.9553660808283941
12641970666.666666 0.3042433475679268 0.9525943446507011 -5.0296840771197084e-17 -7.318533317823348e-17 -5.0296840771197084e-17 -7.318533317823348e-17 0.304242733507599 0.9525945407714972
12642588000.0 0.3130355562794655 0.9497414071759966 -5.096766517639653e-17 -7.269857020785406e-17 -5.096766517639653e-17 -7.269857020785406e-17 0.31303494408808963 0.9497416089545633
12643205333.333334 0.321801018546426 0.9468073217198515 -5.1633788222058613e-17 -7.220566522712449e-17 -5.1633788222058613e-17 -7.220566522712449e-17 0.32180040827612405 0.9468075291383967
12643822666.666666 0.33053898542862453 0.9437923389769868 -5.22951537371576e-17 -7.170666355838737e-17 -5.22951537371576e-17 -7.170666355838737e-17 0.33053837713134887 0.9437925520172376
12644440000.0 0.3392487103350892 0.9406967165541801 -5.295170598681188e-17 -7.120161103707975e-17 -5.295170598681188e-17 -7.120161103707975e-17 0.3392481040626189 0.9406969351973857
12645057333.333334 0.34792944908787876 0.937520718948249 -5.3603389676958986e-17 -7.06905540075476e-17 -5.3603389676958986e-17 -7.06905540075476e-17 0.34792884489181486 0.9375209431751821
12645674666.666666 0.3565804599856669 0.9342646175234535 -5.425014995900892e-17 -7.017353931880436e-17 -5.425014995900892e-17 -7.017353931880436e-17 0.3565798579174283 0.9342648473144125
12646292000.0 0.36520100386730164 0.9309286904882408 -5.489193243444961e-17 -6.965061432025042e-17 -5.489193243444961e-17 -6.965061432025042e-17 0.3652004039781199 0.9309289258230486
12646909333.333334 0.37379034417461304 0.9275132228715991 -5.55286831593829e-17 -6.912182685737545e-17 -5.55286831593829e-17 -6.912182685737545e-17 0.37378974651552843 0.9275134637296073
12647526666.666666 0.38234774701561425 0.924018506498609 -5.616034864906224e-17 -6.858722526738427e-17 -5.616034864906224e-17 -6.858722526738427e-17 0.38234715163747224 0.9240187528587008
12648144000.0 0.3908724812271787 0.9204448399655162 -5.678687588236669e-17 -6.804685837479871e-17 -5.678687588236669e-17 -6.804685837479871e-17 0.39087188818062446 0.9204450918061059
12648761333.333334 0.39936381843740704 0.9167925286142612 -5.740821230622738e-17 -6.750077548702397e-17 -5.740821230622738e-17 -6.750077548702397e-17 0.39936322777288125 0.9167927859132957
12649378666.666666 0.40782103312786094 0.9130618845063905 -5.802430584001933e-17 -6.69490263898683e-17 -5.802430584001933e-17 -6.69490263898683e-17 0.4078204448955967 0.9130621472413549
12649996000.0 0.41624340269568505 0.9092532263963407 -5.863510487991984e-17 -6.639166134301442e-17 -5.863510487991984e-17 -6.639166134301442e-17 0.41624281694570225 0.909253494544257
12650613333.333334 0.42463020751529296 0.9053668797042203 -5.92405583032081e-17 -6.582873107546436e-17 -5.92405583032081e-17 -6.582873107546436e-17 0.4246296242973948 0.9053671532416503
12651230666.666666 0.4329807309996493 0.9014031764881053 -5.984061547252044e-17 -6.526028678094788e-17 -5.984061547252044e-17 -6.526028678094788e-17 0.43298015036341736 0.9014034553911521
12651848000.0 0.4412942596619075 0.8973624554154723 -6.04352262400865e-17 -6.468638011326745e-17 -6.04352262400865e-17 -6.468638011326745e-17 0.4412936816566986 0.8973627396597836
12652465333.333334 0.4495700831760374 0.8932450617344198 -6.102434095188678e-17 -6.4107063181638e-17 -6.102434095188678e-17 -6.4107063181638e-17 0.4495695078509782 0.893245351295189
12653082666.666666 0.45780749443754426 0.8890513472441597 -6.160791045178233e-17 -6.352238854597378e-17 -6.160791045178233e-17 -6.352238854597378e-17 0.45780692184152766 0.8890516420961281
12653700000.0 0.4660057896241376 0.8847816702648295 -6.218588608561676e-17 -6.29324092121194e-17 -6.218588608561676e-17 -6.29324092121194e-17 0.46600521980581905 0.8847819703822897
12654317333.333334 0.4741642682555146 0.8804363956070586 -6.275821970523053e-17 -6.233717862708689e-17 -6.275821970523053e-17 -6.233717862708689e-17 0.47416370126330715 0.8804367009638554
12654934666.666666 0.48228223325346303 0.8760158945406695 -6.33248636724724e-17 -6.173675067421358e-17 -6.33248636724724e-17 -6.173675067421358e-17 0.4822816691355335 0.8760162051102023
12655552000.0 0.4903589910014186 0.8715205447629493 -6.388577086314655e-17 -6.113117966830136e-17 -6.388577086314655e-17 -6.113117966830136e-17 0.4903584298056838 0.8715208605181751
12656169333.333334 0.4983938514035066 0.8669507303665054 -6.44408946708986e-17 -6.052052035073688e-17 -6.44408946708986e-17 -6.052052035073688e-17 0.4983932931776287 0.8669510512799407
12656786666.666666 0.5063861279437526 0.8623068418063086 -6.499018901108748e-17 -5.99048278845421e-17 -6.499018901108748e-17 -5.99048278845421e-17 0.506385572735136 0.8623071678500328
12657404000.0 0.514335137744618 0.8575892758664031 -6.553360832458469e-17 -5.92841578494171e-17 -6.553360832458469e-17 -5.92841578494171e-17 0.5143345856004039 0.8575896070120586
12658021333.333334 0.5222402016253925 0.8527984356259728 -6.607110758153816e-17 -5.865856623673596e-17 -6.607110758153816e-17 -5.865856623673596e-17 0.5222396525924563 0.8527987718447694
12658638666.666666 0.5301006441601059 0.8479347304249765 -6.660264228507734e-17 -5.802810944452203e-17 -6.660264228507734e-17 -5.802810944452203e-17 0.5301000982850523 0.8479350716876934
12659256000.0 0.5379157937354802 0.8429985758290264 -6.712816847499457e-17 -5.739284427236095e-17 -6.712816847499457e-17 -5.739284427236095e-17 0.5379152510646392 0.8429989221060143
12659873333.333334 0.545684982608116 0.8379903935939942 -6.764764273134753e-17 -5.675282791631708e-17 -6.764764273134753e-17 -5.675282791631708e-17 0.5456844431875407 0.8379907448551802
12660490666.666666 0.5534075469614574 0.8329106116300462 -6.816102217802824e-17 -5.61081179638006e-17 -6.816102217802824e-17 -5.61081179638006e-17 0.5534070108369182 0.8329109678449336
12661108000.0 0.5610828269628887 0.8277596639648311 -6.866826448629864e-17 -5.5458772388382405e-17 -6.866826448629864e-17 -5.5458772388382405e-17 0.5610822941798683 0.8277600251025006
12661725333.333334 0.5687101668196802 0.8225379907066708 -6.91693278782396e-17 -5.4804849544624773e-17 -6.91693278782396e-17 -5.4804849544624773e-17 0.5687096374233735 0.8225383567357887
12662342666.666666 0.5762889148353119 0.8172460380067769 -6.966417113018976e-17 -5.4146408162831743e-17 -6.966417113018976e-17 -5.4146408162831743e-17 0.5762883888706188 0.817246408895593
12662960000.0 0.5838184234650325 0.8118842580212042 -7.015275357611148e-17 -5.3483507343798237e-17 -7.015275357611148e-17 -5.3483507343798237e-17 0.5838179009765554 0.8118846337375557
12663577333.333334 0.5912980493712112 0.8064531088722003 -7.063503511090828e-17 -5.28162065535271e-17 -7.063503511090828e-17 -5.28162065535271e-17 0.5912975304032525 0.8064534893835177
12664194666.666666 0.598727153478309 0.8009530546090688 -7.111097619370644e-17 -5.2144565617898766e-17 -7.111097619370644e-17 -5.2144565617898766e-17 0.5987266380748644 0.8009534398823734
12664812000.0 0.6061051010274792 0.7953845651685139 -7.15805378510705e-17 -5.1468644717331224e-17 -7.15805378510705e-17 -5.1468644717331224e-17 0.6061045892322363 0.7953849551704245
12665429333.333334 0.6134312616308268 0.789748116334473 -7.204368168017734e-17 -5.078850438139937e-17 -7.204368168017734e-17 -5.078850438139937e-17 0.6134307534871609 0.7897485110312082
12666046666.666666 0.6207050093251582 0.7840441896975532 -7.250036985192939e-17 -5.010420548344052e-17 -7.250036985192939e-17 -5.010420548344052e-17 0.6207045048761275 0.7840445890549324
12666664000.0 0.6279257226257092 0.7782732726136866 -7.295056511403917e-17 -4.941580923509884e-17 -7.295056511403917e-17 -4.941580923509884e-17 0.6279252219140534 0.7782736765971361
12667281333.333334 0.6350927845789363 0.7724358581627407 -7.339423079402731e-17 -4.8723377180894426e-17 -7.339423079402731e-17 -4.8723377180894426e-17 0.6350922876470705 0.7724362667372933
12667898666.666666 0.6422055828154514 0.7665324451062087 -7.383133080220286e-17 -4.8026971192715704e-17 -7.383133080220286e-17 -4.8026971192715704e-17 0.6422050897054645 0.7665328582365096
12668516000.0 0.6492635096023434 0.760563537844594 -7.426182963457685e-17 -4.732665346430594e-17 -7.426182963457685e-17 -4.732665346430594e-17 0.6492630203559925 0.7605639554949014
12669133333.333334 0.6562659618949276 0.754529646374456 -7.468569237571268e-17 -4.6622486505743377e-17 -7.468569237571268e-17 -4.6622486505743377e-17 0.6562654765536372 0.7545300685086472
12669750666.666666 0.6632123413884073 0.7484312862447325 -7.510288470154916e-17 -4.5914533137855524e-17 -7.510288470154916e-17 -4.5914533137855524e-17 0.6632118599932625 0.748431712826303
12670368000.0 0.6701020545690297 0.742268978512643 -7.551337288215204e-17 -4.5202856486638245e-17 -7.551337288215204e-17 -4.5202856486638245e-17 0.6701015771607759 0.7422694095047139
