! Parameters = {f0=12700.012000; bw=77.238000; Q=6100.000000; N=10; m_0_1=1.209504; m_1_1=-0.622178; m_1_2=1.044316; m_2_2=-0.622827; m_2_3=0.681279; m_2_8=-0.002461; m_2_9=0.034243; m_3_3=-0.624764; m_3_4=0.569808; m_3_7=-0.001861; m_3_8=-0.098949; m_3_9=-0.002461; m_4_4=-0.627689; m_4_5=0.406143; m_4_6=0.001656; m_4_7=-0.119498; m_4_8=-0.001861; m_5_5=-0.627307; m_5_6=0.813498; m_5_7=0.001656; m_6_6=-0.627308; m_6_7=0.406485; m_7_7=-0.627675; m_7_8=0.569926; m_8_8=-0.624766; m_8_9=0.681592; m_9_9=-0.622832; m_9_10=1.045394; m_10_10=-0.622188; m_10_11=1.210299}
!
! Created with skrf (http://scikit-rf.org).
# Hz S RI R 50.0 
!freq ReS11 ImS11 ReS21 ImS21 ReS12 ImS12 ReS22 ImS22
12607400000.0 0.9266012070671533 -0.3760454800440156 -6.441743027206066e-17 5.140654875465966e-17 -6.441743027206066e-17 5.140654875465966e-17 0.9266014467375292 -0.3760448894796446
12608017333.333334 0.9232813181327979 -0.3841244688727907 -6.39488294761682e-17 5.196273068386299e-17 -6.39488294761682e-17 5.196273068386299e-17 0.9232815629402856 -0.38412388045314677
12608634666.666666 0.9198909904767387 -0.3921741521818646 -6.347543301057342e-17 5.2514648828916674e-17 -6.347543301057342e-17 5.2514648828916674e-17 0.9198912404021599 -0.39217356595162733
12609252000.0 0.9164304827529937 -0.4001939158470003 -6.299727960444992e-17 5.306226189686436e-17 -6.299727960444992e-17 5.306226189686436e-17 0.9164307377767802 -0.4001933318506773
12609869333.333334 0.9129000589696907 -0.40818314802668604 -6.251440834200229e-17 5.3605528945966374e-17 -6.251440834200229e-17 5.3605528945966374e-17 0.9129003190718888 -0.4081825663086107
12610486666.666666 0.9092999884690348 -0.41614123920858176 -6.202685865929984e-17 5.414440938873175e-17 -6.202685865929984e-17 5.414440938873175e-17 0.909300253629304 -0.416140659812909
12611104000.0 0.9056305459066022 -0.42406758225635466 -6.153467034104415e-17 5.4678862994967167e-17 -6.153467034104415e-17 5.4678862994967167e-17 0.905630816104219 -0.42406700522705815
12611721333.333334 0.9018920112306025 -0.43196157245553474 -6.103788351736525e-17 5.5208849894735836e-17 -6.103788351736525e-17 5.5208849894735836e-17 0.9018922864444615 -0.43196099783640346
12612338666.666666 0.8980846696603315 -0.43982260756006325 -6.053653866054506e-17 5.573433058133912e-17 -6.053653866054506e-17 5.573433058133912e-17 0.8980849498689453 -0.43982203539469733
12612956000.0 0.8942088116644401 -0.4476500878381576 -6.00306765817407e-17 5.625526591424119e-17 -6.00306765817407e-17 5.625526591424119e-17 0.8942090968459429 -0.44764951816996607
12613573333.333334 0.8902647329389293 -0.4554434161177629 -5.95203384276816e-17 5.677161712196612e-17 -5.95203384276816e-17 5.677161712196612e-17 0.8902650230710789 -0.45544284898996046
12614190666.666666 0.8862527343843877 -0.4632019978325179 -5.900556567732672e-17 5.728334580497996e-17 -5.900556567732672e-17 5.728334580497996e-17 0.886253029444566 -0.46320143328812097
12614808000.0 0.882173122083151 -0.4709252410668871 -5.848640013851218e-17 5.77904139385277e-17 -5.848640013851218e-17 5.77904139385277e-17 0.8821734220483657 -0.4709246791487105
12615425333.333334 0.8780262072759087 -0.47861255660139373 -5.796288394457458e-17 5.829278387544004e-17 -5.796288394457458e-17 5.829278387544004e-17 0.8780265121227965 -0.4786119973520483
12616042666.666666 0.8738123063380155 -0.4862633579574732 -5.743505955093544e-17 5.879041834892475e-17 -5.743505955093544e-17 5.879041834892475e-17 0.873812616042842 -0.4862628014193615
12616660000.0 0.869531740755272 -0.4938770614423661 -5.690296973167857e-17 5.928328047531068e-17 -5.690296973167857e-17 5.928328047531068e-17 0.8695320552939345 -0.4938765076576799
12617277333.333334 0.8651848370994374 -0.5014530861935736 -5.636665757609202e-17 5.977133375677216e-17 -5.636665757609202e-17 5.977133375677216e-17 0.865185156447468 -0.5014525352042908
12617894666.666666 0.860771927003361 -0.5089908542231003 -5.582616648520789e-17 6.025454208400366e-17 -5.582616648520789e-17 6.025454208400366e-17 0.8607722511359258 -0.5089903060709806
12618512000.0 0.8562933471355764 -0.5164897904617192 -5.52815401682739e-17 6.073286973890377e-17 -5.52815401682739e-17 6.073286973890377e-17 0.8562936760274811 -0.5164892451883033
12619129333.333334 0.8517494391747389 -0.5239493228026529 -5.473282263926333e-17 6.120628139717316e-17 -5.473282263926333e-17 6.120628139717316e-17 0.8517497728004261 -0.5239487804492562
12619746666.666666 0.8471405497834479 -0.531368882145387 -5.4180058213310256e-17 6.167474213092729e-17 -5.4180058213310256e-17 6.167474213092729e-17 0.8471408881170035 -0.5313683427530991
12620364000.0 0.84246703058185 -0.5387479024390173 -5.362329150315062e-17 6.21382174112526e-17 -5.362329150315062e-17 6.21382174112526e-17 0.8424673735970022 -0.5387473660486974
12620981333.333334 0.8377292381208552 -0.546085820725362 -5.306256741554033e-17 6.25966731107327e-17 -5.306256741554033e-17 6.25966731107327e-17 0.837729585790978 -0.546085287377637
12621598666.666666 0.8329275338548454 -0.5533820771820553 -5.249793114763525e-17 6.30500755059552e-17 -5.249793114763525e-17 6.30500755059552e-17 0.8329278861529607 -0.5533815469173152
12622216000.0 0.8280622841141426 -0.5606361151651839 -5.1929428183368285e-17 6.349839127997165e-17 -5.1929428183368285e-17 6.349839127997165e-17 0.8280626410129216 -0.5606355880235804
12622833333.333334 0.8231338600770942 -0.5678473812517085 -5.135710428979276e-17 6.394158752473505e-17 -5.135710428979276e-17 6.394158752473505e-17 0.8231342215488595 -0.5678468572731502
12623450666.666666 0.8181426377417224 -0.5750153252817315 -5.078100551342548e-17 6.437963174348872e-17 -5.078100551342548e-17 6.437963174348872e-17 0.8181430037584514 -0.5750148045058828
12624068000.0 0.8130889978970257 -0.5821394004004964 -5.020117817653456e-17 6.48124918531497e-17 -5.020117817653456e-17 6.48124918531497e-17 0.8130893684303503 -0.5821388828667723
12624685333.333334 0.8079733260938728 -0.5892190631001719 -4.961766887343286e-17 6.524013618663867e-17 -4.961766887343286e-17 6.524013618663867e-17 0.8079737011150839 -0.5892185488477372
12625302666.666666 0.8027960126158225 -0.5962537732609972 -4.9030524466761055e-17 6.566253349516968e-17 -4.9030524466761055e-17 6.566253349516968e-17 0.8027963920958718 -0.5962532623287621
12625920000.0 0.797557452448999 -0.6032429941929714 -4.8439792083716225e-17 6.607965295053351e-17 -4.8439792083716225e-17 6.607965295053351e-17 0.7975578363585014 -0.6032424866195899
12626537333.333334 0.7922580452522618 -0.6101861926763881 -4.7845519112296515e-17 6.649146414732041e-17 -4.7845519112296515e-17 6.649146414732041e-17 0.7922584335614948 -0.6101856885002519
12627154666.666666 0.7868981953265727 -0.6170828390026917 -4.7247753197508404e-17 6.689793710512342e-17 -4.7247753197508404e-17 6.689793710512342e-17 0.7868985880054844 -0.6170823382619329
12627772000.0 0.781478311584127 -0.6239324070149445 -4.6646542237543824e-17 6.729904227071514e-17 -4.6646542237543824e-17 6.729904227071514e-17 0.7814787086023323 -0.6239319097474266
12628389333.333334 0.7759988075172848 -0.630734374147779 -4.604193437998894e-17 6.769475052015643e-17 -4.604193437998894e-17 6.769475052015643e-17 0.7759992088440728 -0.630733880391099
12629006666.666666 0.7704601011668238 -0.6374882214675406 -4.543397801794009e-17 6.808503316092196e-17 -4.543397801794009e-17 6.808503316092196e-17 0.7704605067711554 -0.6374877312590215
12629624000.0 0.7648626150902856 -0.6441934337115602 -4.482272178617146e-17 6.846986193394435e-17 -4.482272178617146e-17 6.846986193394435e-17 0.7648630249408004 -0.6441929470882526
12630241333.333334 0.7592067763295296 -0.6508494993277351 -4.4208214557241096e-17 6.884920901565367e-17 -4.4208214557241096e-17 6.884920901565367e-17 0.7592071903945465 -0.6508490163264128
12630858666.666666 0.7534930163783347 -0.657455910513336 -4.359050543761493e-17 6.922304701995958e-17 -4.359050543761493e-17 6.922304701995958e-17 0.7534934346258526 -0.6574554311704912
12631476000.0 0.7477217711492347 -0.6640121632540262 -4.296964376372107e-17 6.959134900023164e-17 -4.296964376372107e-17 6.959134900023164e-17 0.7477221935469379 -0.6640116876058698
12632093333.333334 0.7418934809405843 -0.6705177573619534 -4.234567909805507e-17 6.995408845120382e-17 -4.234567909805507e-17 6.995408845120382e-17 0.7418939074558434 -0.6705172854444105
12632710666.666666 0.7360085904027405 -0.6769721965141633 -4.1718661225219165e-17 7.031123931087339e-17 -4.1718661225219165e-17 7.031123931087339e-17 0.7360090210026149 -0.6769717283628708
12633328000.0 0.7300675485041015 -0.6833749882905078 -4.108864014796019e-17 7.066277596235684e-17 -4.108864014796019e-17 7.066277596235684e-17 0.7300679831553423 -0.6833745239408121
12633945333.333334 0.7240708084970818 -0.6897256442109594 -4.0455666083199675e-17 7.100867323570519e-17 -4.0455666083199675e-17 7.100867323570519e-17 0.724071247166134 -0.6897251836979126
12634562666.666666 0.7180188278833233 -0.6960236797731086 -3.981978945804108e-17 7.134890640968907e-17 -3.981978945804108e-17 7.134890640968907e-17 0.7180192705363295 -0.6960232231314679
12635180000.0 0.7119120683788885 -0.7022686144890244 -3.9181060905764135e-17 7.16834512135465e-17 -3.9181060905764135e-17 7.16834512135465e-17 0.7119125149816897 -0.7022681617532472
12635797333.333334 0.7057509958789728 -0.7084599719219702 -3.8539531261800494e-17 7.201228382869746e-17 -3.8539531261800494e-17 7.201228382869746e-17 0.7057514463971135 -0.708459523126214
12636414666.666666 0.6995360804225251 -0.714597279722593 -3.789525155971605e-17 7.233538089041155e-17 -3.789525155971605e-17 7.233538089041155e-17 0.6995365348212536 -0.7145968349007107
12637032000.0 0.693267796156146 -0.7206800696652029 -3.7248273027138185e-17 7.265271948946188e-17 -3.7248273027138185e-17 7.265271948946188e-17 0.6932682544004165 -0.7206796288507391
12637649333.333334 0.6869466212980707 -0.7267078776833273 -3.659864708171051e-17 7.296427717372039e-17 -3.659864708171051e-17 7.296427717372039e-17 0.6869470833525503 -0.7267074409095209
12638266666.666666 0.68057303810163 -0.7326802439051825 -3.594642532701179e-17 7.32700319497294e-17 -3.594642532701179e-17 7.32700319497294e-17 0.6805735039306968 -0.7326798112049586
12638884000.0 0.6741475328185379 -0.738596712688676 -3.52916595484768e-17 7.356996228422962e-17 -3.52916595484768e-17 7.356996228422962e-17 0.674148002386286 -0.7385962840946466
12639501333.333334 0.6676705956616494 -0.7444568326563055 -3.4634401709281276e-17 7.386404710566264e-17 -3.4634401709281276e-17 7.386404710566264e-17 0.6676710689318912 -0.7444564082007662
12640118666.666666 0.6611427207677508 -0.7502601567294213 -3.397470394625069e-17 7.415226580562033e-17 -3.397470394625069e-17 7.415226580562033e-17 0.6611431977040199 -0.7502597364443485
12640736000.0 0.6545644061595858 -0.7560062421625833 -3.3312618565697566e-17 7.443459824028421e-17 -3.3312618565697566e-17 7.443459824028421e-17 0.6545648867251387 -0.7560058260796316
12641353333.333334 0.647936153708241 -0.7616946505769955 -3.264819803934512e-17 7.471102473178499e-17 -3.264819803934512e-17 7.471102473178499e-17 0.647936637866063 -0.761694238727498
12641970666.666666 0.6412584690944998 -0.7673249479942761 -3.198149500012274e-17 7.498152606957698e-17 -3.198149500012274e-17 7.498152606957698e-17 0.6412589568073045 -0.767324540409238
12642588000.0 0.6345318617704296 -0.7728967048694111 -3.1312562238037565e-17 7.52460835117369e-17 -3.1312562238037565e-17 7.52460835117369e-17 0.6345323530006624 -0.7728963015795092
12643205333.333334 0.627756844920581 -0.7784094961234728 -3.0641452695999426e-17 7.550467878624191e-17 -3.0641452695999426e-17 7.550467878624191e-17 0.6277573396304238 -0.7784090971590542
12643822666.666666 0.6209339354226204 -0.7838629011762319 -2.9968219465641915e-17 7.575729409220757e-17 -2.9968219465641915e-17 7.575729409220757e-17 0.6209344335739928 -0.7838625065673102
12644440000.0 0.6140636538080894 -0.7892565039780792 -2.929291578313131e-17 7.600391210108982e-17 -2.929291578313131e-17 7.600391210108982e-17 0.6140641553626526 -0.7892561137543332
12645057333.333334 0.6071465242226312 -0.7945898930418249 -2.861559502497464e-17 7.624451595784618e-17 -2.861559502497464e-17 7.624451595784618e-17 0.6071470291417902 -0.7945895072325958
12645674666.666666 0.6001830743860901 -0.7998626614740191 -2.793631070380752e-17 7.647908928206403e-17 -2.793631070380752e-17 7.647908928206403e-17 0.600183582630997 -0.7998622801083084
12646292000.0 0.5931738355519588 -0.8050744070062212 -2.7255116464170823e-17 7.670761616905157e-17 -2.7255116464170823e-17 7.670761616905157e-17 0.5931743470835158 -0.8050740301126882
12646909333.333334 0.5861193424672313 -0.8102247320253942 -2.6572066078300782e-17 7.693008119088466e-17 -2.6572066078300782e-17 7.693008119088466e-17 0.5861198572460938 -0.8102243596323551
12647526666.666666 0.5790201333313345 -0.8153132436044475 -2.5887213441882097e-17 7.714646939742515e-17 -2.5887213441882097e-17 7.714646939742515e-17 0.579020651317914 -0.8153128757398715
12648144000.0 0.5718767497551821 -0.8203395535321274 -2.520061256980427e-17 7.735676631729837e-17 -2.520061256980427e-17 7.735676631729837e-17 0.5718772709096495 -0.8203391902236367
12648761333.333334 0.5646897367198078 -0.825303278342668 -2.451231759192986e-17 7.756095795882607e-17 -2.451231759192986e-17 7.756095795882607e-17 0.5646902610020962 -0.8253029196175342
12649378666.666666 0.5574596425348576 -0.8302040393449975 -2.3822382748825068e-17 7.775903081093266e-17 -2.3822382748825068e-17 7.775903081093266e-17 0.5574601699046646 -0.8302036852301389
12649996000.0 0.550187018796712 -0.8350414626516625 -2.3130862387493848e-17 7.795097184400876e-17 -2.3130862387493848e-17 7.795097184400876e-17 0.5501875492135048 -0.8350411131736442
12650613333.333334 0.5428724203463325 -0.8398151792073986 -2.243781095711239e-17 7.813676851073584e-17 -2.243781095711239e-17 7.813676851073584e-17 0.5428729537693493 -0.8398148343924289
12651230666.666666 0.5355164052271231 -0.8445248248171633 -2.1743283004759578e-17 7.83164087468727e-17 -2.1743283004759578e-17 7.83164087468727e-17 0.5355169416153763 -0.8445244846910923
12651848000.0 0.5281195346420667 -0.849170040174103 -2.104733317112114e-17 7.848988097200834e-17 -2.104733317112114e-17 7.848988097200834e-17 0.528120073954347 -0.8491697047624203
12652465333.333334 0.5206823729112235 -0.8537504708867674 -2.0350016186208683e-17 7.865717409027313e-17 -2.0350016186208683e-17 7.865717409027313e-17 0.520682915106103 -0.8537501402146018
12653082666.666666 0.5132054874285361 -0.8582657675062427 -1.965138686507545e-17 7.881827749101047e-17 -1.965138686507545e-17 7.881827749101047e-17 0.5132060324643692 -0.8582654415983563
12653700000.0 0.5056894486183907 -0.8627155855528916 -1.895150010349126e-17 7.897318104941933e-17 -1.895150010349126e-17 7.897318104941933e-17 0.5056899964533216 -0.8627152644336834
12654317333.333334 0.4981348298923958 -0.8670995855424646 -1.82504108736803e-17 7.912187512714288e-17 -1.82504108736803e-17 7.912187512714288e-17 0.4981353804843582 -0.8670992692359653
12654934666.666666 0.4905422076054876 -0.8714174330120866 -1.7548174219978224e-17 7.926435057283708e-17 -1.7548174219978224e-17 7.926435057283708e-17 0.4905427609122085 -0.8714171215419563
12655552000.0 0.4829121610118103 -0.875668798545857 -1.6844845254530235e-17 7.940059872269038e-17 -1.6844845254530235e-17 7.940059872269038e-17 0.48291271699081384 -0.8756684919353848
12656169333.333334 0.4752452722208188 -0.8798533577998098 -1.614047915299234e-17 7.953061140090381e-17 -1.614047915299234e-17 7.953061140090381e-17 0.47524583082943045 -0.8798530560719132
12656786666.666666 0.46754212615270013 -0.883970791526764 -1.5435131150200242e-17 7.965438092014032e-17 -1.5435131150200242e-17 7.965438092014032e-17 0.46754268734804755 -0.8839704947039841
12657404000.0 0.45980331049371825 -0.8880207856006853 -1.4728856535846276e-17 7.977190008193205e-17 -1.4728856535846276e-17 7.977190008193205e-17 0.4598038742327372 -0.8880204937051884
12658021333.333334 0.4520294156514315 -0.892003031040627 -1.4021710650160744e-17 7.98831621770488e-17 -1.4021710650160744e-17 7.98831621770488e-17 0.4520299818908673 -0.8920027440942004
12658638666.666666 0.4442210347097247 -0.895917224034264 -1.3313748879593304e-17 7.998816098582832e-17 -1.3313748879593304e-17 7.998816098582832e-17 0.444221603406136 -0.8959169420583154
12659256000.0 0.43637876338340953 -0.8997630659611491 -1.2605026652471887e-17 8.008689077847112e-17 -1.2605026652471887e-17 8.008689077847112e-17 0.43637933449317173 -0.8997627889767046
12659873333.333334 0.4285031999728519 -0.9035402634154532 -1.1895599434680617e-17 8.017934631529436e-17 -1.1895599434680617e-17 8.017934631529436e-17 0.42850377345216095 -0.9035399914431568
12660490666.666666 0.42059494531840474 -0.9072485282283178 -1.118552272533875e-17 8.026552284694687e-17 -1.118552272533875e-17 8.026552284694687e-17 0.42059552112328 -0.907248261288429
12661108000.0 0.4126546027543885 -0.9108875774899222 -1.0474852052442166e-17 8.034541611459111e-17 -1.0474852052442166e-17 8.034541611459111e-17 0.412655180840676 -0.9108873156023143
12661725333.333334 0.40468277806326747 -0.9144571335709714 -9.763642968572874e-18 8.041902235003773e-17 -9.763642968572874e-18 8.041902235003773e-17 0.4046833583866438 -0.9144568767551304
12662342666.666666 0.39668007942925365 -0.9179569241439611 -9.051951046528324e-18 8.048633827585254e-17 -9.051951046528324e-18 8.048633827585254e-17 0.39668066194522916 -0.9179566724189853
12662960000.0 0.3886471173919841 -0.9213866822039173 -8.339831875010207e-18 8.054736110541738e-17 -8.339831875010207e-18 8.054736110541738e-17 0.38864770205590576 -0.9213864355885131
12663577333.333334 0.3805845048000201 -0.9247461460887328 -7.627341054288612e-18 8.060208854295605e-17 -7.627341054288612e-18 8.060208854295605e-17 0.3805850915670758 -0.9247459046012163
12664194666.666666 0.3724928567639364 -0.9280350594991997 -6.914534191869209e-18 8.065051878352154e-17 -6.914534191869209e-18 8.065051878352154e-17 0.3724934455891575 -0.9280348231574926
12664812000.0 0.36437279060949596 -0.9312531715185135 -6.201466898173082e-18 8.06926505129446e-17 -6.201466898173082e-18 8.06926505129446e-17 0.36437338144776155 -0.9312529403401445
12665429333.333334 0.3562249258304754 -0.9344002366314516 -5.488194782192737e-18 8.072848290774566e-17 -5.488194782192737e-18 8.072848290774566e-17 0.3562255186365157 -0.9344000106335543
12666046666.666666 0.3480498840416417 -0.9374760147430128 -4.774773447186659e-18 8.075801563500621e-17 -4.774773447186659e-18 8.075801563500621e-17 0.3480504787700404 -0.9374757939423218
12666664000.0 0.3398482889308754 -0.9404802711969017 -4.061258486325461e-18 8.078124885220494e-17 -4.061258486325461e-18 8.078124885220494e-17 0.33984888553607473 -0.9404800556097554
12667281333.333334 0.331620766212068 -0.9434127767932563 -3.347705478411731e-18 8.079818320701243e-17 -3.347705478411731e-18 8.079818320701243e-17 0.3316213646483712 -0.9434125664355936
12667898666.666666 0.3233679435770654 -0.9462733078062497 -2.6341699835245736e-18 8.080881983705129e-17 -2.6341699835245736e-18 8.080881983705129e-17 0.3233685437986405 -0.9462731026936083
12668516000.0 0.3150904506478864 -0.9490616460011192 -1.920707538713212e-18 8.081316036961581e-17 -1.920707538713212e-18 8.081316036961581e-17 0.31509105260876963 -0.9490614461486353
12669133333.333334 0.30678891892876886 -0.9517775786507888 -1.2073736537010029e-18 8.081120692135448e-17 -1.2073736537010029e-18 8.081120692135448e-17 0.30678952258286835 -0.9517773840731965
12669750666.666666 0.2984639817578028 -0.9544208985521635 -4.942238065633431e-19 8.080296209791464e-17 -4.942238065633431e-19 8.080296209791464e-17 0.298464587058902 -0.9544207092637924
12670368000.0 0.2901162742588002 -0.9569914040418717 2.1868656058105945e-19 8.078842899354912e-17 2.1868656058105945e-19 8.078842899354912e-17 0.2901168811605614 -0.9569912200566468
12670985333.333334 0.28174643329276067 -0.9594888990116818 9.313020458537814e-19 8.076761119068507e-17 9.313020458537814e-19 8.076761119068507e-17 0.2817470417487284 -0.9594887203431222
