! Parameters = {f0=12700.012000; bw=77.238000; Q=6100.000000; N=10; m_0_1=1.268363; m_1_1=0.260705; m_1_2=1.103175; m_2_2=0.260056; m_2_3=0.740138; m_2_8=0.000482; m_2_9=0.037186; m_3_3=0.258119; m_3_4=0.628667; m_3_7=0.001082; m_3_8=-0.096006; m_3_9=0.000482; m_4_4=0.255194; m_4_5=0.465002; m_4_6=0.004599; m_4_7=-0.116555; m_4_8=0.001082; m_5_5=0.255576; m_5_6=0.872357; m_5_7=0.004599; m_6_6=0.255575; m_6_7=0.465344; m_7_7=0.255208; m_7_8=0.628785; m_8_8=0.258117; m_8_9=0.740451; m_9_9=0.260051; m_9_10=1.104253; m_10_10=0.260695; m_10_11=1.269158}
!
! Created with skrf (http://scikit-rf.org).
# Hz S RI R 50.0 
!freq ReS11 ImS11 ReS21 ImS21 ReS12 ImS12 ReS22 ImS22
12607400000.0 -0.18294766608649857 0.9831226533212053 -1.1396357389990796e-17 -1.0915838556655077e-16 -1.1396357389990796e-17 -1.0915838556655077e-16 -0.18294832306036257 0.9831225310658002
12608017333.333334 -0.17264003736043093 0.9849849833880777 -1.2546310183358799e-17 -1.0901056334693934e-16 -1.2546310183358799e-17 -1.0901056334693934e-16 -0.17264069554657624 0.9849848680264172
12608634666.666666 -0.16231346735176025 0.9867392453511075 -1.3694412618602098e-17 -1.088506347288239e-16 -1.3694412618602098e-17 -1.088506347288239e-16 -0.16231412667785822 0.9867391368951716
12609252000.0 -0.1519690890451174 0.9883852467406733 -1.484053732774636e-17 -1.086786222965188e-16 -1.484053732774636e-17 -1.086786222965188e-16 -0.15196974943872177 0.9883851452016851
12609869333.333334 -0.14160803737895009 0.9899228069650212 -1.5984557213316483e-17 -1.0849454997344057e-16 -1.5984557213316483e-17 -1.0849454997344057e-16 -0.1416086987675044 0.9899227123534434
12610486666.666666 -0.1312314491211426 0.9913517573300552 -1.7126345462390508e-17 -1.0829844301891765e-16 -1.7126345462390508e-17 -1.0829844301891765e-16 -0.13123211143198868 0.9913516696555903
12611104000.0 -0.12084046274398606 0.9926719410578925 -1.8265775560665594e-17 -1.0809032802484473e-16 -1.8265775560665594e-17 -1.0809032802484473e-16 -0.12084112590437124 0.992671860329479
12611721333.333334 -0.11043621829966337 0.9938832133040048 -1.940272130640822e-17 -1.0787023291220206e-16 -1.940272130640822e-17 -1.0787023291220206e-16 -0.11043688223674908 0.9938831395298195
12612338666.666666 -0.10001985729488705 0.9949854411731535 -2.0537056824434894e-17 -1.0763818692741662e-16 -2.0537056824434894e-17 -1.0763818692741662e-16 -0.10002052193575674 0.9949853743606103
12612956000.0 -0.08959252256565768 0.9959785037339643 -2.1668656580035353e-17 -1.0739422063857851e-16 -2.1668656580035353e-17 -1.0739422063857851e-16 -0.08959318783732459 0.9959784438897111
12613573333.333334 -0.07915535815213151 0.9968622920321706 -2.2797395392794422e-17 -1.0713836593152328e-16 -2.2797395392794422e-17 -1.0713836593152328e-16 -0.07915602398154681 0.9968622391620906
12614190666.666666 -0.0687095091728188 0.9976367091025947 -2.3923148450457545e-17 -1.0687065600575144e-16 -2.3923148450457545e-17 -1.0687065600575144e-16 -0.06871017548687972 0.9976366632118061
12614808000.0 -0.05825612169908802 0.9983016699797738 -2.5045791322688696e-17 -1.0659112537021476e-16 -2.5045791322688696e-17 -1.0659112537021476e-16 -0.05825678842464577 0.9983016310726285
12615425333.333334 -0.04779634262939589 0.9988571017072849 -2.6165199974801737e-17 -1.0629980983895455e-16 -2.6165199974801737e-17 -1.0629980983895455e-16 -0.04779700969326364 0.9988570697873678
12616042666.666666 -0.03733131956345471 0.9993029433457482 -2.7281250781439283e-17 -1.0599674652659652e-16 -2.7281250781439283e-17 -1.0599674652659652e-16 -0.03733198689241568 0.9993029184158769
12616660000.0 -0.026862200676322927 0.9996391459795126 -2.8393820540200374e-17 -1.0568197384370184e-16 -2.8393820540200374e-17 -1.0568197384370184e-16 -0.026862868197138446 0.9996391280417383
12617277333.333334 -0.016390134592404213 0.9998656727220244 -2.9502786485218874e-17 -1.0535553149197553e-16 -2.9502786485218874e-17 -1.0535553149197553e-16 -0.01639080223182174 0.9998656617776315
12617894666.666666 -0.00591627025956763 0.9999824987198724 -3.060802630066984e-17 -1.0501746045933743e-16 -3.060802630066984e-17 -1.0501746045933743e-16 -0.005916937944328752 0.9999824947693767
12618512000.0 0.004558243177222355 0.9999896111555171 -3.1709418134268076e-17 -1.046678030148374e-16 -3.1709418134268076e-17 -1.046678030148374e-16 0.0045575755203738424 0.9999896141986676
12619129333.333334 0.015032256501586974 0.9998870092486922 -3.2806840610635415e-17 -1.0430660270345262e-16 -3.2806840610635415e-17 -1.0430660270345262e-16 0.015031588945897055 0.9998870192844715
12619746666.666666 0.025504620552104226 0.9996747042564987 -3.3900172844680933e-17 -1.0393390434072255e-16 -3.3900172844680933e-17 -1.0393390434072255e-16 0.025503953170800602 0.9996747212831211
12620364000.0 0.03597418634838954 0.9993527194721569 -3.498929445489118e-17 -1.0354975400725258e-16 -3.498929445489118e-17 -1.0354975400725258e-16 0.03597351921467366 0.9993527434870711
12620981333.333334 0.04643980521690119 0.9989210902224664 -3.607408557653322e-17 -1.0315419904308964e-16 -3.607408557653322e-17 -1.0315419904308964e-16 0.04643913840394012 0.9989211212223535
12621598666.666666 0.05690032891725151 0.9983798638639173 -3.715442687484732e-17 -1.0274728804193983e-16 -3.715442687484732e-17 -1.0274728804193983e-16 0.05689966249817 0.9983799018446929
12622216000.0 0.0673546097680446 0.9977290997774991 -3.82301995581461e-17 -1.0232907084525926e-16 -3.82301995581461e-17 -1.0232907084525926e-16 0.06735394381591707 0.9977291447343144
12622833333.333334 0.07780150077285172 0.9969688693621873 -3.930128539083928e-17 -1.0189959853621124e-16 -3.930128539083928e-17 -1.0189959853621124e-16 0.0778008353606941 0.9969689212894262
12623450666.666666 0.08823985574594068 0.996099256027109 -4.036756670640322e-17 -1.0145892343348341e-16 -4.036756670640322e-17 -1.0145892343348341e-16 0.08823919094670274 0.9960993149183947
12624068000.0 0.09866852943814436 0.9951203551823962 -4.1428926420293306e-17 -1.0100709908496509e-16 -4.1428926420293306e-17 -1.0100709908496509e-16 0.09866786532470129 0.9951204210305857
12624685333.333334 0.10908637766265296 0.9940322742286923 -4.2485248042777367e-17 -1.0054418026129198e-16 -4.2485248042777367e-17 -1.0054418026129198e-16 0.10908571430779762 0.994032347025881
12625302666.666666 0.11949225742009646 0.9928351325454162 -4.353641569166702e-17 -1.000702229492724e-16 -4.353641569166702e-17 -1.000702229492724e-16 0.11949159489653145 0.9928352122829381
12625920000.0 0.1298850270244869 0.9915290614776111 -4.4582314105046816e-17 -9.958528434514808e-17 -4.4582314105046816e-17 -9.958528434514808e-17 0.12988436540481654 0.9915291481460402
12626537333.333334 0.14026354622805495 0.9901142043215797 -4.562282865384733e-17 -9.90894228477599e-17 -4.562282865384733e-17 -9.90894228477599e-17 0.14026288558477715 0.990114297910729
12627154666.666666 0.15062667634652255 0.9885907163091429 -4.665784535439949e-17 -9.858269805155705e-17 -4.665784535439949e-17 -9.858269805155705e-17 0.15062601675202106 0.9885908168080683
12627772000.0 0.16097328038420256 0.986958764590585 -4.7687250880911316e-17 -9.80651707394741e-17 -4.7687250880911316e-17 -9.80651707394741e-17 0.16097262191073905 0.9869588719875849
12628389333.333334 0.17130222315835142 0.9852185282163708 -4.871093257781118e-17 -9.753690287570666e-17 -4.871093257781118e-17 -9.753690287570666e-17 0.17130156587805753 0.9852186424989886
12629006666.666666 0.18161237142413725 0.9833701981174366 -4.9728778472091675e-17 -9.699795759831722e-17 -4.9728778472091675e-17 -9.699795759831722e-17 0.18161171540900656 0.983370319272461
12629624000.0 0.191902593998666 0.9814139770842922 -5.074067728549823e-17 -9.644839921175177e-17 -5.074067728549823e-17 -9.644839921175177e-17 0.19190193932054647 0.98141410509776
12630241333.333334 0.20217176188525776 0.9793500797447431 -5.174651844669845e-17 -9.588829317919559e-17 -5.174651844669845e-17 -9.588829317919559e-17 0.20217110861584353 0.9793502146019395
12630858666.666666 0.212418748397148 0.9771787325403751 -5.274619210329157e-17 -9.531770611484423e-17 -5.274619210329157e-17 -9.531770611484423e-17 0.21241809660797142 0.9771788742258353
12631476000.0 0.22264242928140787 0.9749001737016451 -5.373958913384708e-17 -9.473670577598661e-17 -5.373958913384708e-17 -9.473670577598661e-17 0.2226417790438323 0.9749003221991576
12632093333.333334 0.23284168284193174 0.9725146532218224 -5.472660115972449e-17 -9.414536105503734e-17 -5.472660115972449e-17 -9.414536105503734e-17 0.23284103422714317 0.97251480851443
12632710666.666666 0.24301539006267123 0.9700224328295258 -5.570712055690036e-17 -9.354374197139291e-17 -5.570712055690036e-17 -9.354374197139291e-17 0.24301474314167062 0.970022594899527
12633328000.0 0.2531624347305463 0.9674237859599721 -5.668104046768701e-17 -9.293191966317498e-17 -5.668104046768701e-17 -9.293191966317498e-17 0.2531617895741419 0.9674239547889241
12633945333.333334 0.2632817035576626 0.9647189977250367 -5.764825481232713e-17 -9.230996637887344e-17 -5.764825481232713e-17 -9.230996637887344e-17 0.26328106023646225 0.9647191732937563
12634562666.666666 0.2733720863035944 0.9619083648819383 -5.860865830053419e-17 -9.167795546884673e-17 -5.860865830053419e-17 -9.167795546884673e-17 0.2733714448879974 0.9619085471705052
12635180000.0 0.28343247589716764 0.9589921958006883 -5.95621464429242e-17 -9.10359613767116e-17 -5.95621464429242e-17 -9.10359613767116e-17 0.2834318364573577 0.9589923847884473
12635797333.333334 0.2934617685579501 0.955970810430248 -6.050861556235908e-17 -9.038405963061153e-17 -6.050861556235908e-17 -9.038405963061153e-17 0.2934611311638871 0.9559710060958105
12636414666.666666 0.3034588639172438 0.9528445402634584 -6.144796280518227e-17 -8.97223268343761e-17 -6.144796280518227e-17 -8.97223268343761e-17 0.3034582286386565 0.9528447425847054
12637032000.0 0.3134226651389762 0.9496137283006211 -6.238008615238355e-17 -8.905084065854654e-17 -6.238008615238355e-17 -8.905084065854654e-17 0.31342203204535474 0.9496139372547066
12637649333.333334 0.32335207903993196 0.946278729011901 -6.330488443064094e-17 -8.836967983130315e-17 -6.330488443064094e-17 -8.836967983130315e-17 0.3233514482005192 0.9462789445752514
12638266666.666666 0.3332460162097173 0.9428399082984221 -6.422225732327666e-17 -8.767892412926952e-17 -6.422225732327666e-17 -8.767892412926952e-17 0.3332453876935028 0.9428401304467431
12638884000.0 0.3431033911302876 0.9392976434521291 -6.513210538110855e-17 -8.69786543682076e-17 -6.513210538110855e-17 -8.69786543682076e-17 0.3431027650059987 0.9392978721604045
12639501333.333334 0.3529231222950694 0.9356523231143739 -6.603433003321728e-17 -8.626895239358651e-17 -6.603433003321728e-17 -8.626895239358651e-17 0.35292249863116487 0.9356525583568723
12640118666.666666 0.36270413232743515 0.9319043472333558 -6.692883359755554e-17 -8.55499010710843e-17 -6.692883359755554e-17 -8.55499010710843e-17 0.36270351119209704 0.9319045889836305
12640736000.0 0.37244534809946406 0.9280541270200214 -6.781551929156811e-17 -8.482158427689017e-17 -6.781551929156811e-17 -8.482158427689017e-17 0.37244472956058994 0.9280543752509138
12641353333.333334 0.3821457008487526 0.9241020849033083 -6.869429124255022e-17 -8.408408688802209e-17 -6.869429124255022e-17 -8.408408688802209e-17 0.38214508497394883 0.9241023395869519
12641970666.666666 0.3918041262966018 0.9200486544834365 -6.95650544980474e-17 -8.333749477241912e-17 -6.95650544980474e-17 -8.333749477241912e-17 0.391803513153176 0.9200489155912603
12642588000.0 0.4014195647642292 0.9158942804845553 -7.042771503605977e-17 -8.258189477899891e-17 -7.042771503605977e-17 -8.258189477899891e-17 0.40141895441918296 0.9158945479872859
12643205333.333334 0.4109909612891921 0.9116394187058888 -7.128217977516734e-17 -8.181737472758616e-17 -7.128217977516734e-17 -8.181737472758616e-17 0.41099035380921295 0.9116396925735535
12643822666.666666 0.42051726574120885 0.9072845359716885 -7.212835658455367e-17 -8.104402339873092e-17 -7.212835658455367e-17 -8.104402339873092e-17 0.42051666119266384 0.90728481617362
12644440000.0 0.4299974329372459 0.9028301100800765 -7.296615429389788e-17 -8.026193052344131e-17 -7.296615429389788e-17 -8.026193052344131e-17 0.4299968313861737 0.9028303965849153
12645057333.333334 0.43943042275621613 0.8982766297506117 -7.379548270317079e-17 -7.947118677280311e-17 -7.379548270317079e-17 -7.947118677280311e-17 0.43942982426832045 0.8982769225263098
12645674666.666666 0.44881520025309746 0.8936245945706712 -7.461625259231587e-17 -7.867188374749975e-17 -7.461625259231587e-17 -7.867188374749975e-17 0.44881460489373926 0.8936248935844957
12646292000.0 0.45815073577266013 0.8888745149405487 -7.542837573083295e-17 -7.78641139672182e-17 -7.542837573083295e-17 -7.78641139672182e-17 0.4581501436068509 0.8888748201590856
12646909333.333334 0.467436005062104 0.8840269120176186 -7.623176488720324e-17 -7.70479708599989e-17 -7.623176488720324e-17 -7.70479708599989e-17 0.46743541615449863 0.8840272234067769
12647526666.666666 0.4766699893836908 0.8790823176590332 -7.702633383824864e-17 -7.6223548751442e-17 -7.702633383824864e-17 -7.6223548751442e-17 0.47666940379858064 0.8790826351840483
12648144000.0 0.4858516756264883 0.8740412743633786 -7.781199737836031e-17 -7.539094285382967e-17 -7.781199737836031e-17 -7.539094285382967e-17 0.48585109342779337 0.8740415979888156
12648761333.333334 0.4949800564174233 0.8689043352112076 -7.858867132858336e-17 -7.455024925518296e-17 -7.858867132858336e-17 -7.455024925518296e-17 0.4949794776686862 0.8689046649009659
12649378666.666666 0.5040541302318078 0.863672063804359 -7.935627254561309e-17 -7.370156490819436e-17 -7.935627254561309e-17 -7.370156490819436e-17 0.5040535549961865 0.8636723995216771
12649996000.0 0.513072901503346 0.8583450342040566 -8.011471893067211e-17 -7.284498761906797e-17 -8.011471893067211e-17 -7.284498761906797e-17 0.5130723298436067 0.8583453759115137
12650613333.333334 0.522035380733287 0.8529238308679602 -8.086392943825292e-17 -7.198061603628476e-17 -8.086392943825292e-17 -7.198061603628476e-17 0.5220348127117979 0.8529241785274837
12651230666.666666 0.5309405845988936 0.8474090485861071 -8.160382408473768e-17 -7.110854963928054e-17 -8.160382408473768e-17 -7.110854963928054e-17 0.5309400202776168 0.8474094021589738
12651848000.0 0.5397875360615677 0.8418012924155014 -8.233432395692447e-17 -7.02288887270035e-17 -8.233432395692447e-17 -7.02288887270035e-17 0.5397869755020539 0.8418016518623438
12652465333.333334 0.5485752644738296 0.8361011776138655 -8.30553512203927e-17 -6.93417344064286e-17 -8.30553512203927e-17 -6.93417344064286e-17 0.5485747077372116 0.8361015428946762
12653082666.666666 0.5573028056858175 0.8303093295721429 -8.376682912776336e-17 -6.844718858096623e-17 -8.376682912776336e-17 -6.844718858096623e-17 0.5573022528328013 0.8303097006462768
12653700000.0 0.565969202151302 0.8244263837457193 -8.446868202685369e-17 -6.754535393876179e-17 -8.446868202685369e-17 -6.754535393876179e-17 0.5659686532421621 0.824426760571901
12654317333.333334 0.5745735030324152 0.8184529855849295 -8.516083536866035e-17 -6.663633394097025e-17 -8.516083536866035e-17 -6.663633394097025e-17 0.5745729581269878 0.8184533681212556
12654934666.666666 0.5831147643041853 0.812389790464097 -8.584321571526284e-17 -6.57202328098913e-17 -8.584321571526284e-17 -6.57202328098913e-17 0.583114223461862 0.8123901786680432
12655552000.0 0.591592048858224 0.8062374636095453 -8.651575074757978e-17 -6.479715551704799e-17 -8.651575074757978e-17 -6.479715551704799e-17 0.5915915121379439 0.8062378574379684
12656169333.333334 0.6000044266050805 0.7999966800269438 -8.717836927298235e-17 -6.386720777120937e-17 -8.717836927298235e-17 -6.386720777120937e-17 0.6000038940653253 0.7999970794360882
12656786666.666666 0.6083509745768398 0.79366812442685 -8.783100123281083e-17 -6.29304960062904e-17 -8.783100123281083e-17 -6.29304960062904e-17 0.6083504462756264 0.7936685293723518
12657404000.0 0.6166307770280179 0.7872524911498525 -8.84735777097443e-17 -6.198712736920114e-17 -8.84735777097443e-17 -6.198712736920114e-17 0.6166302530228926 0.7872529015867448
12658021333.333334 0.6248429255361935 0.7807504840902729 -8.910603093503434e-17 -6.1037209707628e-17 -8.910603093503434e-17 -6.1037209707628e-17 0.6248424058842266 0.7807508999729917
12658638666.666666 0.632986519101544 0.7741628166190466 -8.972829429561416e-17 -6.008085155773508e-17 -8.972829429561416e-17 -6.008085155773508e-17 0.6329860038593217 0.7741632379014339
12659256000.0 0.6410606642459181 0.7674902115052725 -9.034030234109208e-17 -5.911816213176714e-17 -9.034030234109208e-17 -5.911816213176714e-17 0.6410601534695374 0.7674906381405823
12659873333.333334 0.6490644751106649 0.7607334008370751 -9.094199079058251e-17 -5.814925130562834e-17 -9.094199079058251e-17 -5.814925130562834e-17 0.649063968855728 0.7607338327779799
12660490666.666666 0.6569970735538307 0.753893125941288 -9.15332965394197e-17 -5.717422960636933e-17 -9.15332965394197e-17 -5.717422960636933e-17 0.6569965718754379 0.7538935631398821
12661108000.0 0.6648575892467181 0.7469701373019322 -9.211415766575264e-17 -5.619320819957949e-17 -9.211415766575264e-17 -5.619320819957949e-17 0.6648570921994622 0.7469705797097372
12661725333.333334 0.6726451597690732 0.739965194478134 -9.268451343696787e-17 -5.5206298876776365e-17 -9.268451343696787e-17 -5.5206298876776365e-17 0.672644667407034 0.7399656420461057
12662342666.666666 0.6803589307039443 0.7328790660205888 -9.324430431601674e-17 -5.4213614042664524e-17 -9.324430431601674e-17 -5.4213614042664524e-17 0.6803584430806818 0.7328795186991214
12662960000.0 0.6879980557313154 0.7257125293873294 -9.379347196758112e-17 -5.321526670237277e-17 -9.379347196758112e-17 -5.321526670237277e-17 0.6879975728998647 0.7257129871262609
12663577333.333334 0.6955616967209834 0.718466370858409 -9.433195926411295e-17 -5.2211370448613926e-17 -9.433195926411295e-17 -5.2211370448613926e-17 0.695561218733849 0.7184668336070276
12664194666.666666 0.7030490238245128 0.7111413854496343 -9.485971029173451e-17 -5.120203944878656e-17 -9.485971029173451e-17 -5.120203944878656e-17 0.7030485507336627 0.7111418531566834
12664812000.0 0.7104592155662851 0.7037383768253405 -9.537667035599993e-17 -5.0187388432020403e-17 -9.537667035599993e-17 -5.0187388432020403e-17 0.7104587474231442 0.7037388494390244
12665429333.333334 0.7177914589336439 0.6962581572101947 -9.588278598752828e-17 -4.916753267614515e-17 -9.588278598752828e-17 -4.916753267614515e-17 0.7177909957890907 0.696258634678185
12666046666.666666 0.7250449494659996 0.688701547300187 -9.63780049474673e-17 -4.8142587994663175e-17 -9.63780049474673e-17 -4.8142587994663175e-17 0.7250444913703583 0.6887020295696273
12666664000.0 0.732218891343305 0.6810693761723593 -9.6862276232874e-17 -4.711267072355537e-17 -9.6862276232874e-17 -4.711267072355537e-17 0.7322184383463411 0.6810698631898718
12667281333.333334 0.7393124974730961 0.6733624811941326 -9.733555008188742e-17 -4.607789770817109e-17 -9.733555008188742e-17 -4.607789770817109e-17 0.7393120496240111 0.6733629729058236
12667898666.666666 0.746324989577044 0.6655817079312281 -9.779777797881508e-17 -4.503838628995643e-17 -9.779777797881508e-17 -4.503838628995643e-17 0.7463245469244697 0.6655822042826943
12668516000.0 0.7532555982763405 0.6577279100548935 -9.824891265905649e-17 -4.399425429317626e-17 -9.824891265905649e-17 -4.399425429317626e-17 0.753255160868334 0.6577284109912281
12669133333.333334 0.7601035631759421 0.6498019492484326 -9.868890811387563e-17 -4.294562001161005e-17 -9.868890811387563e-17 -4.294562001161005e-17 0.7601031310599803 0.649802454714231
12669750666.666666 0.7668681329481856 0.641804695112454 -9.911771959505546e-17 -4.189260219514758e-17 -9.911771959505546e-17 -4.189260219514758e-17 0.7668677061711605 0.6418052050518201
12670368000.0 0.7735485654151442 0.6337370250695459 -9.953530361939211e-17 -4.08353200363779e-17 -9.953530361939211e-17 -4.08353200363779e-17 0.7735481440233571 0.6337375394260981
