! Parameters = {f0=12700.012000; bw=77.238000; Q=6100.000000; N=10; m_0_1=1.313408; m_1_1=0.936380; m_1_2=1.148220; m_2_2=0.935731; m_2_3=0.785183; m_2_8=0.002734; m_2_9=0.039438; m_3_3=0.933794; m_3_4=0.673712; m_3_7=0.003334; m_3_8=-0.093754; m_3_9=0.002734; m_4_4=0.930869; m_4_5=0.510047; m_4_6=0.006851; m_4_7=-0.114303; m_4_8=0.003334; m_5_5=0.931251; m_5_6=0.917402; m_5_7=0.006851; m_6_6=0.931250; m_6_7=0.510389; m_7_7=0.930883; m_7_8=0.673830; m_8_8=0.933792; m_8_9=0.785496; m_9_9=0.935726; m_9_10=1.149298; m_10_10=0.936370; m_10_11=1.314203}
!
! Created with skrf (http://scikit-rf.org).
# Hz S RI R 50.0 
!freq ReS11 ImS11 ReS21 ImS21 ReS12 ImS12 ReS22 ImS22
12607400000.0 0.9473791067292476 -0.320113773731627 -1.1047082253175291e-16 7.78463521698332e-17 -1.1047082253175291e-16 7.78463521698332e-17 0.9473793282157115 -0.3201131182400335
12608017333.333334 0.9435338376008737 -0.3312761647054892 -1.0951560627392733e-16 7.913935442883619e-17 -1.0951560627392733e-16 7.913935442883619e-17 0.9435340667993747 -0.3312755119063945
12608634666.666666 0.9395570539463304 -0.34239238072641776 -1.0854526889803744e-16 8.04206531131977e-17 -1.0854526889803744e-16 8.04206531131977e-17 0.9395572908241675 -0.3423917307105439
12609252000.0 0.9354493100699822 -0.35346087235987855 -1.0755995359777734e-16 8.169007154188915e-17 -1.0755995359777734e-16 8.169007154188915e-17 0.9354495545933885 -0.35346022521755127
12609869333.333334 0.9312111785300444 -0.36448009682353966 -1.0655980562939754e-16 8.294743478351898e-17 -1.0655980562939754e-16 8.294743478351898e-17 0.9312114306641907 -0.36447945264467546
12610486666.666666 0.9268432500588972 -0.3754485182019936 -1.055449722903591e-16 8.419256968038288e-17 -1.055449722903591e-16 8.419256968038288e-17 0.9268435097678952 -0.3754478770760865
12611104000.0 0.9223461334805988 -0.3863646076612104 -1.0451560289766799e-16 8.54253048723006e-17 -1.0451560289766799e-16 8.54253048723006e-17 0.9223464007275104 -0.38636396967732095
12611721333.333334 0.9177204556261436 -0.3972268436613448 -1.0347184876601745e-16 8.664547082008533e-17 -1.0347184876601745e-16 8.664547082008533e-17 0.9177207303729825 -0.39722620890808646
12612338666.666666 0.9129668612460595 -0.4080337121688958 -1.0241386318556142e-16 8.785289982886218e-17 -1.0241386318556142e-16 8.785289982886218e-17 0.9129671434537973 -0.40803308073442296
12612956000.0 0.9080860129204459 -0.41878370686794714 -1.013418013994781e-16 8.904742607104236e-17 -1.013418013994781e-16 8.904742607104236e-17 0.9080863025490192 -0.4187830788399434
12613573333.333334 0.9030785909668048 -0.42947532936971045 -1.0025582058126496e-16 9.022888560902844e-17 -1.0025582058126496e-16 9.022888560902844e-17 0.9030788879751195 -0.42947470483537603
12614190666.666666 0.8979452933450534 -0.4401070894217414 -9.915607981172058e-17 9.139711641769739e-17 -9.915607981172058e-17 9.139711641769739e-17 0.8979455976909906 -0.44010646846778073
12614808000.0 0.8926868355603218 -0.4506775051154782 -9.804274005573017e-17 9.255195840653319e-17 -9.804274005573017e-17 9.255195840653319e-17 0.8926871472007428 -0.4506768878280877
12615425333.333334 0.8873039505631553 -0.4611851030929225 -9.691596413873926e-17 9.369325344153647e-17 -9.691596413873926e-17 9.369325344153647e-17 0.8873042694539125 -0.4611844895577807
12616042666.666666 0.8817973886474492 -0.4716284187518301 -9.577591672301545e-17 9.482084536680464e-17 -9.577591672301545e-17 9.482084536680464e-17 0.8817977147433858 -0.4716278090540829
12616660000.0 0.8761679173457576 -0.4820059964500529 -9.462276428363336e-17 9.593458002585085e-17 -9.462276428363336e-17 9.593458002585085e-17 0.8761682506007183 -0.4820053906743037
12617277333.333334 0.8704163213223953 -0.4923163897082853 -9.345667508420952e-17 9.703430528263492e-17 -9.345667508420952e-17 9.703430528263492e-17 0.8704166616892308 -0.49231578793858205
12617894666.666666 0.8645434022640924 -0.5025581614116308 -9.227781915243789e-17 9.811987104225739e-17 -9.227781915243789e-17 9.811987104225739e-17 0.8645437496946676 -0.5025575637314553
12618512000.0 0.8585499787680588 -0.5127298840102625 -9.108636825529966e-17 9.919112927143888e-17 -9.108636825529966e-17 9.919112927143888e-17 0.8585503332132579 -0.5127292905025184
12619129333.333334 0.8524368862281624 -0.5228301397179074 -8.988249587414816e-17 1.0024793401859469e-16 -8.988249587414816e-17 1.0024793401859469e-16 0.8524372476378971 -0.5228295504649081
12619746666.666666 0.8462049767183072 -0.5328575207097861 -8.866637717946648e-17 1.0129014143369689e-16 -8.866637717946648e-17 1.0129014143369689e-16 0.8462053450415243 -0.5328569357932453
12620364000.0 0.8398551188736165 -0.5428106293189124 -8.743818900542253e-17 1.0231760978780309e-16 -8.743818900542253e-17 1.0231760978780309e-16 0.8398554940583034 -0.5428100488199301
12620981333.333334 0.833388197769585 -0.5526880782305459 -8.61981098242551e-17 1.0333019949223216e-16 -8.61981098242551e-17 1.0333019949223216e-16 0.8333885797627771 -0.5526875022295986
12621598666.666666 0.8268051147985157 -0.5624884906758759 -8.494631972033936e-17 1.0432777311751357e-16 -8.494631972033936e-17 1.0432777311751357e-16 0.8268055035463061 -0.562487919252806
12622216000.0 0.820106787543908 -0.572210500623873 -8.368300036412136e-17 1.053101954119496e-16 -8.368300036412136e-17 1.053101954119496e-16 0.8201071829914527 -0.5722099338578766
12622833333.333334 0.8132941496526228 -0.5818527529715991 -8.240833498578647e-17 1.0627733331990709e-16 -8.240833498578647e-17 1.0627733331990709e-16 0.8132945517441506 -0.5818521909412157
12623450666.666666 0.8063681507047672 -0.5914139037330675 -8.112250834875309e-17 1.0722905599976249e-16 -8.112250834875309e-17 1.0722905599976249e-16 0.806368559383585 -0.5914133465161687
12624068000.0 0.7993297560812014 -0.6008926202267577 -7.982570672291719e-17 1.0816523484155933e-16 -7.982570672291719e-17 1.0816523484155933e-16 0.7993301712897044 -0.600892067900537
12624685333.333334 0.792179946829063 -0.6102875812612568 -7.85181178577217e-17 1.0908574348432208e-16 -7.85181178577217e-17 1.0908574348432208e-16 0.7921803685087411 -0.6102870339022176
12625302666.666666 0.7849197195251428 -0.6195974773192539 -7.71999309550616e-17 1.0999045783302124e-16 -7.71999309550616e-17 1.0999045783302124e-16 0.7849201476165909 -0.6195969350032011
12625920000.0 0.7775500861366672 -0.6288210107404748 -7.587133664190408e-17 1.1087925607527573e-16 -7.587133664190408e-17 1.1087925607527573e-16 0.7775505205795922 -0.6288204735425027
12626537333.333334 0.7700720738805944 -0.6379568959021078 -7.453252694280512e-17 1.1175201869766406e-16 -7.453252694280512e-17 1.1175201869766406e-16 0.770072514613822 -0.6379563638965888
12627154666.666666 0.7624867250802763 -0.6470038593982009 -7.318369525220486e-17 1.1260862850172834e-16 -7.318369525220486e-17 1.1260862850172834e-16 0.762487172041764 -0.6470033326587781
12627772000.0 0.7547950970200134 -0.6559606402173539 -7.182503630651154e-17 1.134489706196636e-16 -7.182503630651154e-17 1.134489706196636e-16 0.7547955501468552 -0.6559601188169281
12628389333.333334 0.7469982617980652 -0.6648259899180249 -7.045674615607011e-17 1.1427293252962932e-16 -7.045674615607011e-17 1.1427293252962932e-16 0.7469987210265022 -0.6648254739287458
12629006666.666666 0.7390973061767935 -0.6735986728030426 -6.907902213689516e-17 1.1508040407076254e-16 -6.907902213689516e-17 1.1508040407076254e-16 0.7390977714422228 -0.6735981622962991
12629624000.0 0.731093331431536 -0.6822774660914356 -6.769206284226867e-17 1.1587127745782887e-16 -6.769206284226867e-17 1.1587127745782887e-16 0.7310938026685205 -0.682276961137846
12630241333.333334 0.7229874531968448 -0.69086116008917 -6.62960680941645e-17 1.166454472955358e-16 -6.62960680941645e-17 1.166454472955358e-16 0.7229879303391196 -0.6908606607585701
12630858666.666666 0.7147808013112269 -0.6993485583574853 -6.489123891451738e-17 1.1740281059249948e-16 -6.489123891451738e-17 1.1740281059249948e-16 0.7147812842917126 -0.6993480647189224
12631476000.0 0.706474519659377 -0.7077384778799771 -6.347777749627616e-17 1.1814326677489672e-16 -6.347777749627616e-17 1.1814326677489672e-16 0.7064750084101848 -0.7077379900016963
12632093333.333334 0.6980697660130042 -0.7160297492271964 -6.205588717441333e-17 1.188667176997091e-16 -6.205588717441333e-17 1.188667176997091e-16 0.6980702604654505 -0.7160292671766358
12632710666.666666 0.6895677118693678 -0.724221216719765 -6.062577239669123e-17 1.1957306766767074e-16 -6.062577239669123e-17 1.1957306766767074e-16 0.6895682119539785 -0.7242207405635415
12633328000.0 0.6809695422878166 -0.7323117385896079 -5.918763869428402e-17 1.2026222343586072e-16 -5.918763869428402e-17 1.2026222343586072e-16 0.6809700479343407 -0.7323112683935116
12633945333.333334 0.672276455724835 -0.7403001871388832 -5.774169265234058e-17 1.2093409422990326e-16 -5.774169265234058e-17 1.2093409422990326e-16 0.6722769668622531 -0.7402997229678672
12634562666.666666 0.6634896638669386 -0.7481854488972304 -5.628814188031074e-17 1.2158859175586354e-16 -5.628814188031074e-17 1.2158859175586354e-16 0.663490180423472 -0.7481849908154002
12635180000.0 0.6546103914617586 -0.755966424776985 -5.482719498221328e-17 1.2222563021175027e-16 -5.482719498221328e-17 1.2222563021175027e-16 0.6546109133648815 -0.7559659728475929
12635797333.333334 0.6456398761472466 -0.763642030226454 -5.3359061526713494e-17 1.2284512629869217e-16 -5.3359061526713494e-17 1.2284512629869217e-16 0.6456404033236952 -0.7636415845118887
12636414666.666666 0.6365793682793826 -0.7712111953808996 -5.1883952017144885e-17 1.2344699923172342e-16 -5.1883952017144885e-17 1.2344699923172342e-16 0.6365799006551639 -0.7712107559426756
12637032000.0 0.6274301307576955 -0.7786728652118255 -5.040207786134086e-17 1.240311707502405e-16 -5.040207786134086e-17 1.240311707502405e-16 0.6274306682581009 -0.7786724321105793
12637649333.333334 0.6181934388492596 -0.7860259996740186 -4.891365134138525e-17 1.2459756512808275e-16 -4.891365134138525e-17 1.2459756512808275e-16 0.6181939813988722 -0.786025572969495
12638266666.666666 0.6088705800110472 -0.7932695738504181 -4.741888558326513e-17 1.251461091832449e-16 -4.741888558326513e-17 1.251461091832449e-16 0.6088711275337542 -0.7932691536014663
12638884000.0 0.5994628537104136 -0.8004025780950359 -4.5917994526388083e-17 1.2567673228723815e-16 -4.5917994526388083e-17 1.2567673228723815e-16 0.5994634061294166 -0.8004021643595985
12639501333.333334 0.5899715712438779 -0.8074240181737485 -4.4411192892992265e-17 1.261893663740858e-16 -4.4411192892992265e-17 1.261893663740858e-16 0.5899721284817036 -0.8074236110088556
12640118666.666666 0.5803980555546459 -0.8143329154026615 -4.289869615751923e-17 1.266839459489336e-16 -4.289869615751923e-17 1.266839459489336e-16 0.5803986175331568 -0.814332514864421
12640736000.0 0.5707436410476588 -0.8211283067849229 -4.1380720515758603e-17 1.2716040809633657e-16 -4.1380720515758603e-17 1.2716040809633657e-16 0.5707442076880638 -0.8211279129285133
12641353333.333334 0.561009673404312 -0.8278092451444352 -3.9857482854101775e-17 1.2761869248811357e-16 -3.9857482854101775e-17 1.2761869248811357e-16 0.561010244627179 -0.8278088580240999
12641970666.666666 0.5511975093943112 -0.834374799258295 -3.8329200718510895e-17 1.2805874139089683e-16 -3.8329200718510895e-17 1.2805874139089683e-16 0.5511980851195767 -0.8343744189273323
12642588000.0 0.5413085166868364 -0.8408240539863912 -3.679609228351878e-17 1.2848049967327546e-16 -3.679609228351878e-17 1.2848049967327546e-16 0.5413090968338169 -0.8408236804971475
12643205333.333334 0.5313440736597906 -0.8471561103990413 -3.525837632114884e-17 1.2888391481257042e-16 -3.525837632114884e-17 1.2888391481257042e-16 0.5313446581471949 -0.8471557438029054
12643822666.666666 0.5213055692077462 -0.8533700859022421 -3.371627216969661e-17 1.292689369012558e-16 -3.371627216969661e-17 1.292689369012558e-16 0.5213061579536855 -0.8533697262496368
12644440000.0 0.5111944025482826 -0.859465114360738 -3.2169999702531585e-17 1.2963551865298474e-16 -3.2169999702531585e-17 1.2963551865298474e-16 0.5111949954702828 -0.8594647617011129
12645057333.333334 0.5010119830271004 -0.8654403462186547 -3.061977929677301e-17 1.299836154082586e-16 -3.061977929677301e-17 1.299836154082586e-16 0.5010125800421131 -0.8654400006004798
12645674666.666666 0.4907597299215088 -0.8712949486179636 -2.906583180193244e-17 1.3031318513971539e-16 -2.906583180193244e-17 1.3031318513971539e-16 0.4907603309459237 -0.8712946100887232
12646292000.0 0.48043907224235266 -0.8770281055147096 -2.750837850845366e-17 1.3062418845705525e-16 -2.750837850845366e-17 1.3062418845705525e-16 0.48043967719200836 -0.8770277741208948
12646909333.333334 0.47005144853529646 -0.8826390177924843 -2.594764111631736e-17 1.3091658861156575e-16 -2.594764111631736e-17 1.3091658861156575e-16 0.47005205732549354 -0.8826386935795889
12647526666.666666 0.4595983066799956 -0.8881269033740018 -2.438384170345926e-17 1.3119035150030207e-16 -2.438384170345926e-17 1.3119035150030207e-16 0.4595989192255066 -0.8881265863865122
12648144000.0 0.4490811036882272 -0.8934909973301219 -2.281720269424723e-17 1.314454456698701e-16 -2.281720269424723e-17 1.314454456698701e-16 0.4490817199033104 -0.893490687611515
12648761333.333334 0.43850130550105815 -0.8987305519863447 -2.1247946827873585e-17 1.3168184231984359e-16 -2.1247946827873585e-17 1.3168184231984359e-16 0.43850192529946824 -0.8987302495790782
12649378666.666666 0.4278603867844411 -0.9038448370270651 -1.9676297126756186e-17 1.318995153057979e-16 -1.9676297126756186e-17 1.318995153057979e-16 0.42786101007944166 -0.9038445419725741
12649996000.0 0.4171598307234618 -0.9088331395974656 -1.810247686485564e-17 1.3209844114197514e-16 -1.810247686485564e-17 1.3209844114197514e-16 0.417160457427838 -0.9088328519361573
12650613333.333334 0.4064011288158358 -0.9136947644027664 -1.6526709535999326e-17 1.3227859900356815e-16 -1.6526709535999326e-17 1.3227859900356815e-16 0.40640175884190644 -0.913694484174014
12651230666.666666 0.39558578066404454 -0.9184290338051341 -1.494921882222794e-17 1.3243997072862166e-16 -1.494921882222794e-17 1.3243997072862166e-16 0.395586413923673 -0.9184287610472686
12651848000.0 0.3847152937659727 -0.9230352879182756 -1.3370228562018837e-17 1.3258254081956994e-16 -1.3370228562018837e-17 1.3258254081956994e-16 0.3847159301705812 -0.9230350226685857
12652465333.333334 0.3737911833051776 -0.927512884699252 -1.1789962718627497e-17 1.3270629644438183e-16 -1.1789962718627497e-17 1.3270629644438183e-16 0.37379182276575823 -0.9275126269939747
12653082666.666666 0.3628149719396177 -0.9318612000380028 -1.020864534835231e-17 1.3281122743733738e-16 -1.020864534835231e-17 1.3281122743733738e-16 0.3628156143667454 -0.931860949912321
12653700000.0 0.3517881895890737 -0.9360796278444767 -8.626500568760665e-18 1.328973262994284e-16 -8.626500568760665e-18 1.328973262994284e-16 0.35178883489291884 -0.9360793853325131
12654317333.333334 0.3407123732224555 -0.94016758013289 -7.043752527043457e-18 1.3296458819837354e-16 -7.043752527043457e-18 1.3296458819837354e-16 0.34071302131279585 -0.9401673452677022
12654934666.666666 0.32958906664309506 -0.9441244871038703 -5.460625368253064e-18 1.33013010968264e-16 -5.460625368253064e-18 1.33013010968264e-16 0.3295897174293291 -0.9441242599174472
12655552000.0 0.31841982027374777 -0.9479497972238019 -3.877343203591837e-18 1.3304259510882988e-16 -3.877343203591837e-18 1.3304259510882988e-16 0.3184204736649071 -0.9479495777470596
12656169333.333334 0.3072061909406491 -0.9516429773016505 -2.2941300787895325e-18 1.3305334378432768e-16 -2.2941300787895325e-18 1.3305334378432768e-16 0.30720684684541133 -0.951642765564428
12656786666.666666 0.29594974165616705 -0.9552035125634019 -7.112099423738229e-19 1.330452628220549e-16 -7.112099423738229e-19 1.330452628220549e-16 0.2959503999828678 -0.9552033085944547
12657404000.0 0.2846520414012365 -0.9586309067237099 8.71193385919656e-19 1.3301836071048567e-16 8.71193385919656e-19 1.3301836071048567e-16 0.2846527020578833 -0.9586307105507095
12658021333.333334 0.273314664906533 -0.9619246820551196 2.4528562467709793e-18 1.3297264859703322e-16 2.4528562467709793e-18 1.3297264859703322e-16 0.27331532780081735 -0.9619244937046483
12658638666.666666 0.2619391924330326 -0.9650843794546379 4.033555172838148e-18 1.3290814028543585e-16 4.033555172838148e-18 1.3290814028543585e-16 0.26193985747234344 -0.9650841989521851
12659256000.0 0.2505272095516655 -0.9681095585077488 5.6130669202987155e-18 1.3282485223276777e-16 5.6130669202987155e-18 1.3282485223276777e-16 0.25052787664310167 -0.9681093858777073
12659873333.333334 0.23908030692233762 -0.9709997975497907 7.191168500332398e-18 1.327228035460772e-16 7.191168500332398e-18 1.327228035460772e-16 0.2390809759727206 -0.9709996328154527
12660490666.666666 0.22760008007240914 -0.9737546937246804 8.767637210528972e-18 1.3260201597865207e-16 8.767637210528972e-18 1.3260201597865207e-16 0.22760075098829713 -0.9737545369082373
12661108000.0 0.21608812917391673 -0.976373863041166 1.034225066634141e-17 1.324625139259072e-16 1.034225066634141e-17 1.324625139259072e-16 0.2160888018616167 -0.9763737141637024
12661725333.333334 0.20454605882097496 -0.97885694042624 1.191478683233488e-17 1.3230432442090913e-16 1.191478683233488e-17 1.3230432442090913e-16 0.20454673318655608 -0.9788567995077322
12662342666.666666 0.1929754778057043 -0.9812035797761204 1.3485024053505968e-17 1.3212747712952013e-16 1.3485024053505968e-17 1.3212747712952013e-16 0.192976153755011 -0.981203446835433
12662960000.0 0.1813779988943229 -0.9834134540044208 1.50527410864757e-17 1.3193200434517693e-16 1.50527410864757e-17 1.3193200434517693e-16 0.18137867633298824 -0.9834133290593056
12663577333.333334 0.1697552386021002 -0.9854862550877905 1.6617717130600856e-17 1.3171794098329986e-16 1.6617717130600856e-17 1.3171794098329986e-16 0.1697559174355588 -0.9854861381548827
12664194666.666666 0.15810881696823462 -0.9874216941088132 1.8179731859040724e-17 1.3148532457533206e-16 1.8179731859040724e-17 1.3148532457533206e-16 0.15810949710173586 -0.9874215852036298
12664812000.0 0.1464403573299603 -0.9892195012962932 1.9738565449744573e-17 1.3123419526240962e-16 1.9738565449744573e-17 1.3123419526240962e-16 0.14644103866858155 -0.9892194004332301
12665429333.333334 0.13475148609616566 -0.9908794260628725 2.1293998616325777e-17 1.3096459578866933e-16 2.1293998616325777e-17 1.3096459578866933e-16 0.13475216854482583 -0.9908793332552049
12666046666.666666 0.12304383252103401 -0.9924012370399126 2.2845812638859567e-17 1.3067657149419047e-16 2.2845812638859567e-17 1.3067657149419047e-16 0.12304451598450625 -0.9924011522997901
12666664000.0 0.11131902847641448 -0.993784722109814 2.4393789394647834e-17 1.3037017030756077e-16 2.4393789394647834e-17 1.3037017030756077e-16 0.11131971285933999 -0.9937846454482614
12667281333.333334 0.09957870822495563 -0.9950296884355072 2.5937711388757852e-17 1.3004544273810339e-16 2.5937711388757852e-17 1.3004544273810339e-16 0.09957939343185665 -0.995029619862422
12667898666.666666 0.08782450819194708 -0.9961359624873786 2.747736178460476e-17 1.2970244186771477e-16 2.747736178460476e-17 1.2970244186771477e-16 0.08782519412724042 -0.9961359020115303
12668516000.0 0.07605806673714088 -0.9971033900674596 2.9012524434336253e-17 1.2934122334235864e-16 2.9012524434336253e-17 1.2934122334235864e-16 0.0760587533051511 -0.997103337696489
12669133333.333334 0.06428102392681348 -0.997931836330886 3.054298390911239e-17 1.289618453632029e-16 3.054298390911239e-17 1.289618453632029e-16 0.06428171103178618 -0.9979317920713013
12669750666.666666 0.052495021304796434 -0.9986211858047183 3.2068525529341195e-17 1.285643686773804e-16 3.2068525529341195e-17 1.285643686773804e-16 0.05249570885091187 -0.9986211496618991
12670368000.0 0.04070170166369849 -0.9991713424040404 3.3588935394712484e-17 1.2814885656841442e-16 3.3588935394712484e-17 1.2814885656841442e-16 0.040702389555084664 -0.999171314382233
