! Parameters = {f0=12700.012000; bw=77.238000; Q=6100.000000; N=10; m_0_1=1.170065; m_1_1=-1.213770; m_1_2=1.004877; m_2_2=-1.214419; m_2_3=0.641840; m_2_8=-0.004433; m_2_9=0.032271; m_3_3=-1.216356; m_3_4=0.530369; m_3_7=-0.003833; m_3_8=-0.100921; m_3_9=-0.004433; m_4_4=-1.219281; m_4_5=0.366704; m_4_6=-0.000316; m_4_7=-0.121470; m_4_8=-0.003833; m_5_5=-1.218899; m_5_6=0.774059; m_5_7=-0.000316; m_6_6=-1.218900; m_6_7=0.367046; m_7_7=-1.219267; m_7_8=0.530487; m_8_8=-1.216358; m_8_9=0.642153; m_9_9=-1.214424; m_9_10=1.005955; m_10_10=-1.213780; m_10_11=1.170860}
!
! Created with skrf (http://scikit-rf.org).
# Hz S RI R 50.0 
!freq ReS11 ImS11 ReS21 ImS21 ReS12 ImS12 ReS22 ImS22
12607400000.0 -0.12035642009030527 -0.9927307450375941 2.675599697693506e-17 6.178691577741736e-17 2.675599697693506e-17 6.178691577741736e-17 -0.12035580794335571 -0.9927308192527078
12608017333.333334 -0.1278664905795757 -0.9917913896514294 2.7222995110857484e-17 6.156816542950307e-17 2.7222995110857484e-17 6.156816542950307e-17 -0.1278658790418094 -0.9917914684936121
12608634666.666666 -0.13536923642052978 -0.9907952209365835 2.7688213654553927e-17 6.134588972372706e-17 2.7688213654553927e-17 6.134588972372706e-17 -0.1353686255269164 -0.9907953044008652
12609252000.0 -0.14286422782927835 -0.9897422959571824 2.815162602848488e-17 6.112010307362908e-17 2.815162602848488e-17 6.112010307362908e-17 -0.14286361761474728 -0.9897423840383303
12609869333.333334 -0.15035103546616224 -0.9886326750285482 2.861320576938835e-17 6.089082009288861e-17 2.861320576938835e-17 6.089082009288861e-17 -0.1503504259656005 -0.9886327677210643
12610486666.666666 -0.15782923046020628 -0.9874664217137664 2.907292653178321e-17 6.065805559439111e-17 2.907292653178321e-17 6.065805559439111e-17 -0.15782862170845657 -0.9874665190118898
12611104000.0 -0.1652983844339948 -0.9862436028199933 2.95307620894752e-17 6.042182458927764e-17 2.95307620894752e-17 6.042182458927764e-17 -0.1652977764658537 -0.9862437047177003
12611721333.333334 -0.17275806952781855 -0.9849642883946966 2.9986686337029915e-17 6.018214228599633e-17 2.9986686337029915e-17 6.018214228599633e-17 -0.17275746237803405 -0.9849643948856994
12612338666.666666 -0.18020785842446363 -0.9836285517215924 3.044067329127041e-17 5.993902408932624e-17 3.044067329127041e-17 5.993902408932624e-17 -0.1802072521277337 -0.983628662799342
12612956000.0 -0.18764732437369042 -0.9822364693164504 3.0892697092751706e-17 5.969248559939767e-17 3.0892697092751706e-17 5.969248559939767e-17 -0.1876467189646604 -0.9822365849741334
12613573333.333334 -0.19507604121642622 -0.9807881209227489 3.134273200721232e-17 5.944254261070954e-17 3.134273200721232e-17 5.944254261070954e-17 -0.19507543672968783 -0.9807882411532939
12614190666.666666 -0.20249358340945883 -0.9792835895070671 3.179075242705011e-17 5.918921111111915e-17 3.179075242705011e-17 5.918921111111915e-17 -0.20249297987954704 -0.9792837143031385
12614808000.0 -0.209899526049644 -0.9777229612543552 3.223673287276457e-17 5.893250728083407e-17 3.223673287276457e-17 5.893250728083407e-17 -0.20989892351103565 -0.9777230906083572
12615425333.333334 -0.21729344489838476 -0.9761063255629701 3.2680647994401257e-17 5.867244749138756e-17 3.2680647994401257e-17 5.867244749138756e-17 -0.21729284338549684 -0.9761064594670479
12616042666.666666 -0.22467491640576703 -0.9744337750395926 3.3122472572986534e-17 5.840904830460479e-17 3.3122472572986534e-17 5.840904830460479e-17 -0.22467431595295434 -0.9744339134856309
12616660000.0 -0.23204351773493317 -0.9727054054938978 3.3562181521952215e-17 5.814232647155863e-17 3.3562181521952215e-17 5.814232647155863e-17 -0.23204291837648613 -0.9727055484735211
12617277333.333334 -0.2393988267863028 -0.9709213159330639 3.3999749888561934e-17 5.787229893150936e-17 3.3999749888561934e-17 5.787229893150936e-17 -0.2393982285564461 -0.9709214634376385
12617894666.666666 -0.24674042222161485 -0.9690816085561369 3.4435152855302664e-17 5.759898281084896e-17 3.4435152855302664e-17 5.759898281084896e-17 -0.24673982515450502 -0.9690817605767709
12618512000.0 -0.25406788348836634 -0.9671863887481009 3.4868365741310624e-17 5.732239542200999e-17 3.4868365741310624e-17 5.732239542200999e-17 -0.2540672876180902 -0.9671865452756448
12619129333.333334 -0.2613807908435175 -0.9652357650739367 3.5299364003739285e-17 5.70425542623927e-17 3.5299364003739285e-17 5.70425542623927e-17 -0.2613801962040897 -0.9652359260989833
12619746666.666666 -0.26867872537781134 -0.9632298492723348 3.5728123239159885e-17 5.675947701325805e-17 3.5728123239159885e-17 5.675947701325805e-17 -0.2686781320031728 -0.9632300147852202
12620364000.0 -0.2759612690397701 -0.961168756249292 3.615461918493641e-17 5.647318153861895e-17 3.615461918493641e-17 5.647318153861895e-17 -0.2759606769637859 -0.9611689262400959
12620981333.333334 -0.28322800465939557 -0.9590526040715955 3.6578827720577986e-17 5.618368588413197e-17 3.6578827720577986e-17 5.618368588413197e-17 -0.2832274139158533 -0.959052778530143
12621598666.666666 -0.2904785159723407 -0.9568815139599873 3.700072486911236e-17 5.589100827595804e-17 3.700072486911236e-17 5.589100827595804e-17 -0.29047792659494837 -0.9568816928758488
12622216000.0 -0.2977123876436177 -0.9546556102822563 3.742028679842667e-17 5.559516711962922e-17 3.742028679842667e-17 5.559516711962922e-17 -0.2977117996660015 -0.9546557936447464
12622833333.333334 -0.3049292052914436 -0.9523750205460968 3.7837489822608895e-17 5.529618099889918e-17 3.7837489822608895e-17 5.529618099889918e-17 -0.30492861874714644 -0.9523752083442782
12623450666.666666 -0.31212855551087026 -0.9500398753918426 3.825231040327828e-17 5.4994068674584277e-17 3.825231040327828e-17 5.4994068674584277e-17 -0.3121279704333495 -0.9500400676145231
12624068000.0 -0.31931002589760027 -0.9476503085849356 3.866472515090551e-17 5.4688849083396443e-17 3.866472515090551e-17 5.4688849083396443e-17 -0.3193094423202265 -0.9476505052206732
12624685333.333334 -0.32647320507163813 -0.9452064570082573 3.907471082613233e-17 5.438054133675873e-17 3.907471082613233e-17 5.438054133675873e-17 -0.32647262302769187 -0.9452066580453556
12625302666.666666 -0.33361768270058545 -0.9427084606543753 3.948224434105786e-17 5.4069164719630014e-17 3.948224434105786e-17 5.4069164719630014e-17 -0.3336171022232568 -0.9427086660808884
12625920000.0 -0.34074304952352413 -0.9401564626173986 3.988730276055497e-17 5.375473868928982e-17 3.988730276055497e-17 5.375473868928982e-17 -0.34074247064590985 -0.9401566724211299
12626537333.333334 -0.34784889737418984 -0.93755060908487 4.028986330353301e-17 5.3437282874146924e-17 4.028986330353301e-17 5.3437282874146924e-17 -0.34784832012929223 -0.9375508232533744
12627154666.666666 -0.3549348192043559 -0.9348910493293978 4.0689903344221605e-17 5.311681707251539e-17 4.0689903344221605e-17 5.311681707251539e-17 -0.35493424362508014 -0.93489126784998
12627772000.0 -0.3620004091074148 -0.9321779357000011 4.108740041344443e-17 5.279336125138095e-17 4.108740041344443e-17 5.279336125138095e-17 -0.36199983522656776 -0.9321781585597189
12628389333.333334 -0.36904526234123247 -0.9294114236135365 4.1482332199853836e-17 5.2466935545181835e-17 4.1482332199853836e-17 5.2466935545181835e-17 -0.3690446901915206 -0.9294116507992007
12629006666.666666 -0.37606897535173156 -0.9265916715456438 4.187467655119852e-17 5.2137560254545357e-17 4.187467655119852e-17 5.2137560254545357e-17 -0.37606840496575816 -0.9265919030438166
12629624000.0 -0.38307114579571455 -0.9237188410217739 4.2264411475543064e-17 5.180525584504682e-17 4.2264411475543064e-17 5.180525584504682e-17 -0.3830705772059797 -0.9237190768187741
12630241333.333334 -0.39005137256407346 -0.9207930966078824 4.265151514250109e-17 5.147004294593956e-17 4.265151514250109e-17 5.147004294593956e-17 -0.39005080580297075 -0.9207933366897829
12630858666.666666 -0.39700925580460716 -0.917814605901063 4.3035965884448634e-17 5.113194234888517e-17 4.3035965884448634e-17 5.113194234888517e-17 -0.39700869090442215 -0.9178148502536926
12631476000.0 -0.40394439694521445 -0.914783539519825 4.341774219773677e-17 5.079097500666482e-17 4.341774219773677e-17 5.079097500666482e-17 -0.40394383393812294 -0.9147837881287691
12632093333.333334 -0.41085639871638535 -0.9117000710944652 4.3796822743874904e-17 5.044716203190022e-17 4.3796822743874904e-17 5.044716203190022e-17 -0.4108558376344524 -0.9117003239450686
12632710666.666666 -0.4177448651741185 -0.9085643772570603 4.4173186350723737e-17 5.010052469574791e-17 4.4173186350723737e-17 5.010052469574791e-17 -0.4177443060492944 -0.9085646343344234
12633328000.0 -0.42460940172272577 -0.9053766376312788 4.45468120136774e-17 4.975108442658402e-17 4.45468120136774e-17 4.975108442658402e-17 -0.4246088445868467 -0.9053768989202637
12633945333.333334 -0.43144961513720836 -0.9021370348222085 4.491767889681644e-17 4.939886280869924e-17 4.491767889681644e-17 4.939886280869924e-17 -0.431449060021993 -0.9021373003074366
12634562666.666666 -0.4382651135859079 -0.8988457544058287 4.528576633406951e-17 4.9043881580966447e-17 4.528576633406951e-17 4.9043881580966447e-17 -0.438264560522956 -0.8988460240716821
12635180000.0 -0.44505550665292776 -0.8955029849183959 4.565105383035651e-17 4.8686162635507885e-17 4.565105383035651e-17 4.8686162635507885e-17 -0.4450549556737191 -0.8955032587490204
12635797333.333334 -0.4518204053604978 -0.8921089178456442 4.6013521062723985e-17 4.832572801635115e-17 4.6013521062723985e-17 4.832572801635115e-17 -0.45181985649638884 -0.892109195824947
12636414666.666666 -0.45855942219125534 -0.8886637476118142 4.6373147881461847e-17 4.796259991808481e-17 4.6373147881461847e-17 4.796259991808481e-17 -0.4585588754734785 -0.8886640297234665
12637032000.0 -0.4652721711104429 -0.8851676715685143 4.672991431122997e-17 4.7596800684485926e-17 4.672991431122997e-17 4.7596800684485926e-17 -0.46527162657010535 -0.8851679577959535
12637649333.333334 -0.4719582675880245 -0.881620889983422 4.70838005521467e-17 4.722835280716561e-17 4.70838005521467e-17 4.722835280716561e-17 -0.471957725256105 -0.8816211803098506
12638266666.666666 -0.47861732862070977 -0.8780236060288047 4.743478698088729e-17 4.68572789241868e-17 4.743478698088729e-17 4.68572789241868e-17 -0.4786167885280578 -0.8780239004371918
12638884000.0 -0.48524897275389567 -0.8743760257698853 4.778285415176342e-17 4.6483601818681954e-17 4.778285415176342e-17 4.6483601818681954e-17 -0.48524843493122893 -0.8743763242429679
12639501333.333334 -0.49185282010354126 -0.8706783581530232 4.812798279779436e-17 4.610734441746001e-17 4.812798279779436e-17 4.610734441746001e-17 -0.49185228458144487 -0.8706786606733072
12640118666.666666 -0.4984284923777807 -0.8669308149938282 4.847015383175841e-17 4.5728529789615184e-17 4.847015383175841e-17 4.5728529789615184e-17 -0.4984279591867053 -0.86693112154359
12640736000.0 -0.504975612898989 -0.8631336109648033 4.8809348347261435e-17 4.5347181145097236e-17 4.8809348347261435e-17 4.5347181145097236e-17 -0.5049750820692485 -0.8631339215260901
12641353333.333334 -0.5114938066247665 -0.8592869635833866 4.9145547619743466e-17 4.4963321833330266e-17 4.9145547619743466e-17 4.4963321833330266e-17 -0.5114932781865362 -0.8592872781380168
12641970666.666666 -0.5179827001699407 -0.8553910931991914 4.947873310753146e-17 4.457697534176043e-17 4.947873310753146e-17 4.457697534176043e-17 -0.5179821741532564 -0.8553914117287571
12642588000.0 -0.5244419218277084 -0.8514462229815285 4.9808886452841715e-17 4.418816529444003e-17 4.9808886452841715e-17 4.418816529444003e-17 -0.5244413982624644 -0.8514465454673956
12643205333.333334 -0.5308711015909541 -0.8474525789066065 5.013598948278464e-17 4.379691545058829e-17 5.013598948278464e-17 4.379691545058829e-17 -0.5308705805069011 -0.8474529053299169
12643822666.666666 -0.5372698711735406 -0.8434103897445286 5.0460024210362597e-17 4.340324970314085e-17 5.0460024210362597e-17 4.340324970314085e-17 -0.5372693526002844 -0.8434107200861999
12644440000.0 -0.5436378640312871 -0.839319887046263 5.078097283544366e-17 4.3007192077306154e-17 5.078097283544366e-17 4.3007192077306154e-17 -0.5436373479982864 -0.8393202212869896
12645057333.333334 -0.5499747153829637 -0.8351813051303764 5.1098817745737757e-17 4.2608766729098756e-17 5.1098817745737757e-17 4.2608766729098756e-17 -0.5499742019195296 -0.8351816432506327
12645674666.666666 -0.5562800622313107 -0.8309948810695408 5.141354151774808e-17 4.220799794388166e-17 5.141354151774808e-17 4.220799794388166e-17 -0.5562795513666035 -0.8309952230495798
12646292000.0 -0.5625535433837328 -0.8267608546770082 5.172512691773119e-17 4.180491013487659e-17 5.172512691773119e-17 4.180491013487659e-17 -0.5625530351467618 -0.8267612004968646
12646909333.333334 -0.5687947994730168 -0.8224794684928622 5.203355690261633e-17 4.139952784170429e-17 5.203355690261633e-17 4.139952784170429e-17 -0.5687942938926376 -0.8224798181323519
12647526666.666666 -0.5750034729778919 -0.8181509677701382 5.2338814620941206e-17 4.099187572888247e-17 5.2338814620941206e-17 4.099187572888247e-17 -0.5750029700828048 -0.8181513212088605
12648144000.0 -0.5811792082436031 -0.8137756004607102 5.26408834137634e-17 4.058197858433332e-17 5.26408834137634e-17 4.058197858433332e-17 -0.5811787080623524 -0.813775957678049
12648761333.333334 -0.5873216515021695 -0.8093536172011688 5.293974681555659e-17 4.0169861317888773e-17 5.293974681555659e-17 4.0169861317888773e-17 -0.5873211540631404 -0.8093539781762933
12649378666.666666 -0.5934304508926468 -0.8048852712984632 5.3235388555099903e-17 3.9755548959783504e-17 5.3235388555099903e-17 3.9755548959783504e-17 -0.5934299562240661 -0.8048856360103301
12649996000.0 -0.599505256481403 -0.8003708187153115 5.3527792556361154e-17 3.933906665913366e-17 5.3527792556361154e-17 3.933906665913366e-17 -0.5995047646113351 -0.8003711871426651
12650613333.333334 -0.6055457202820899 -0.7958105180555828 5.381694293935788e-17 3.892043968242287e-17 5.381694293935788e-17 3.892043968242287e-17 -0.6055452312384361 -0.7958108901769563
12651230666.666666 -0.61155149627549 -0.7912046305495567 5.4102824021011534e-17 3.849969341197616e-17 5.4102824021011534e-17 3.849969341197616e-17 -0.6115510100859869 -0.791205006343274
12651848000.0 -0.6175222404295609 -0.7865534200387838 5.438542031599364e-17 3.8076853344421014e-17 5.438542031599364e-17 3.8076853344421014e-17 -0.6175217571217793 -0.7865537994829603
12652465333.333334 -0.6234576107189413 -0.7818571529611279 5.466471653755061e-17 3.7651945089156733e-17 5.466471653755061e-17 3.7651945089156733e-17 -0.6234571303202845 -0.7818575360336734
12653082666.666666 -0.6293572671445447 -0.7771160983355069 5.4940697598320994e-17 3.722499436681141e-17 5.4940697598320994e-17 3.722499436681141e-17 -0.6293567896822464 -0.7771164850141244
12653700000.0 -0.6352208717532568 -0.7723305277463033 5.521334861115208e-17 3.6796027007675775e-17 5.521334861115208e-17 3.6796027007675775e-17 -0.6352203972543797 -0.7723309180084914
12654317333.333334 -0.6410480886569845 -0.7675007153280554 5.5482654889879424e-17 3.63650689501688e-17 5.5482654889879424e-17 3.63650689501688e-17 -0.6410476171484193 -0.7675011091511104
12654934666.666666 -0.6468385840521199 -0.7626269377495789 5.57486019501195e-17 3.593214623926013e-17 5.57486019501195e-17 3.593214623926013e-17 -0.6468381155605823 -0.7626273351105937
12655552000.0 -0.6525920262386559 -0.75770947419811 5.601117551003906e-17 3.5497285024902e-17 5.601117551003906e-17 3.5497285024902e-17 -0.6525915607906877 -0.757709875073979
12656169333.333334 -0.6583080856389972 -0.7527486063634858 5.627036149110434e-17 3.506051156047072e-17 5.627036149110434e-17 3.506051156047072e-17 -0.6583076232609625 -0.7527490107309032
12656786666.666666 -0.6639864348170534 -0.7477446184218188 5.652614601883656e-17 3.462185220117196e-17 5.652614601883656e-17 3.462185220117196e-17 -0.6639859755351376 -0.7477450262572813
12657404000.0 -0.669626748496887 -0.7426977970193115 5.677851542353894e-17 3.41813334024662e-17 5.677851542353894e-17 3.41813334024662e-17 -0.669626292337097 -0.7426982082991206
12658021333.333334 -0.6752287035813715 -0.7376084312558208 5.702745624102411e-17 3.373898171847009e-17 5.702745624102411e-17 3.373898171847009e-17 -0.675228250569531 -0.7376088459560809
12658638666.666666 -0.6807919791706736 -0.7324768126683114 5.727295521331175e-17 3.329482380037956e-17 5.727295521331175e-17 3.329482380037956e-17 -0.680791529332425 -0.7324772307649355
12659256000.0 -0.6863162565807238 -0.7273032352140838 5.751499928933864e-17 3.284888639484781e-17 5.751499928933864e-17 3.284888639484781e-17 -0.6863158099415247 -0.7273036566827915
12659873333.333334 -0.6918012193613646 -0.7220879952540278 5.7753575625633e-17 3.240119634239702e-17 5.7753575625633e-17 3.240119634239702e-17 -0.6918007759464861 -0.7220884200703475
12660490666.666666 -0.6972465533144573 -0.7168313915356673 5.798867158698627e-17 3.195178057580923e-17 5.798867158698627e-17 3.195178057580923e-17 -0.6972461131489843 -0.716831819674939
12661108000.0 -0.7026519465120884 -0.7115337251758516 5.822027474712108e-17 3.150066611849554e-17 5.822027474712108e-17 3.150066611849554e-17 -0.7026515096209173 -0.7115341566132274
12661725333.333334 -0.7080170893141499 -0.7061952996437819 5.844837288932554e-17 3.1047880082900764e-17 5.844837288932554e-17 3.1047880082900764e-17 -0.7080166557219866 -0.706195734354227
12662342666.666666 -0.7133416743863001 -0.7008164207434083 5.867295400709662e-17 3.05934496688615e-17 5.867295400709662e-17 3.05934496688615e-17 -0.7133412441176592 -0.7008168587017025
12662960000.0 -0.7186253967174683 -0.6953973965960133 5.88940063047578e-17 3.013740216198693e-17 5.88940063047578e-17 3.013740216198693e-17 -0.718624969796672 -0.6953978377767536
12663577333.333334 -0.7238679536373475 -0.6899385376225415 5.91115181980685e-17 2.967976493202473e-17 5.91115181980685e-17 2.967976493202473e-17 -0.7238675300885234 -0.6899389820001424
12664194666.666666 -0.729069044833731 -0.6844401565258162 5.932547831481964e-17 2.9220565431226284e-17 5.932547831481964e-17 2.9220565431226284e-17 -0.7290686246808114 -0.6844406040745113
12664812000.0 -0.7342283723697164 -0.678902568272628 5.953587549542059e-17 2.8759831192699206e-17 5.953587549542059e-17 2.8759831192699206e-17 -0.7342279556364367 -0.6789030189664723
12665429333.333334 -0.7393456407007905 -0.67332609007567 5.974269879346591e-17 2.829758982877096e-17 5.974269879346591e-17 2.829758982877096e-17 -0.7393452274106891 -0.6733265438885416
12666046666.666666 -0.7444205566916665 -0.667711041375475 5.994593747629312e-17 2.783386902934191e-17 5.994593747629312e-17 2.783386902934191e-17 -0.7444201468680807 -0.6677114982810745
12666664000.0 -0.7494528296332817 -0.6620577438218807 6.014558102553576e-17 2.736869656021529e-17 6.014558102553576e-17 2.736869656021529e-17 -0.7494524232993485 -0.6620582037937345
12667281333.333334 -0.7544421712591862 -0.6563665212559029 6.034161913764545e-17 2.6902100261464907e-17 6.034161913764545e-17 2.6902100261464907e-17 -0.7544417684378406 -0.656366984267365
12667898666.666666 -0.759388295762247 -0.6506376996909741 6.053404172441959e-17 2.6434108045757642e-17 6.053404172441959e-17 2.6434108045757642e-17 -0.75938789647622 -0.6506381657152259
12668516000.0 -0.764290919810996 -0.6448716072942845 6.072283891350795e-17 2.5964747896689512e-17 6.072283891350795e-17 2.5964747896689512e-17 -0.7642905240828145 -0.6448720763043384
12669133333.333334 -0.7691497625657714 -0.6390685743680956 6.090800104890112e-17 2.5494047867134134e-17 6.090800104890112e-17 2.5494047867134134e-17 -0.7691493704177563 -0.6390690463367952
12669750666.666666 -0.7739645456948774 -0.6332289333307302 6.108951869141857e-17 2.5022036077554474e-17 6.108951869141857e-17 2.5022036077554474e-17 -0.7739641571491424 -0.6332294082307522
12670368000.0 -0.7787349933905282 -0.6273530186975315 6.126738261917393e-17 2.454874071433757e-17 6.126738261917393e-17 2.454874071433757e-17 -0.778734608468979 -0.6273534965013884
