! Parameters = {f0=12700.012000; bw=77.238000; Q=6100.000000; N=10; m_0_1=1.156051; m_1_1=-1.423980; m_1_2=0.990863; m_2_2=-1.424629; m_2_3=0.627826; m_2_8=-0.005134; m_2_9=0.031570; m_3_3=-1.426566; m_3_4=0.516355; m_3_7=-0.004534; m_3_8=-0.101622; m_3_9=-0.005134; m_4_4=-1.429491; m_4_5=0.352690; m_4_6=-0.001017; m_4_7=-0.122171; m_4_8=-0.004534; m_5_5=-1.429109; m_5_6=0.760045; m_5_7=-0.001017; m_6_6=-1.429110; m_6_7=0.353032; m_7_7=-1.429477; m_7_8=0.516473; m_8_8=-1.426568; m_8_9=0.628139; m_9_9=-1.424634; m_9_10=0.991941; m_10_10=-1.423990; m_10_11=1.156846}
!
! Created with skrf (http://scikit-rf.org).
# Hz S RI R 50.0 
!freq ReS11 ImS11 ReS21 ImS21 ReS12 ImS12 ReS22 ImS22
12607400000.0 0.8815066203434415 0.47217166188848825 -6.123705101561888e-17 -1.2652217058994546e-17 -6.123705101561888e-17 -1.2652217058994546e-17 0.881506332664367 0.4721721989618534
12608017333.333334 0.8848620975091533 0.465853054504911 -6.131507078089016e-17 -1.2205957375543233e-17 -6.131507078089016e-17 -1.2205957375543233e-17 0.8848618136937014 0.46585359359625733
12608634666.666666 0.888172283869038 0.459510602888237 -6.138984220654765e-17 -1.1759231943260094e-17 -6.138984220654765e-17 -1.1759231943260094e-17 0.8881720039313566 0.45951114396977555
12609252000.0 0.8914370099944707 0.45314463167069724 -6.146136264267518e-17 -1.1312064379929806e-17 -6.146136264267518e-17 -1.1312064379929806e-17 0.8914367339485078 0.4531451747145398
12609869333.333334 0.894656108783677 0.4467554666883244 -6.152962961088095e-17 -1.0864478317264599e-17 -6.152962961088095e-17 -1.0864478317264599e-17 0.8946558366431804 0.4467560116664853
12610486666.666666 0.8978294154702244 0.44034343496440354 -6.159464080435924e-17 -1.0416497399667025e-17 -6.159464080435924e-17 -1.0416497399667025e-17 0.8978291472487386 0.44034398184879964
12611104000.0 0.9009567676315895 0.43390886469245094 -6.165639408794417e-17 -9.968145282981891e-18 -6.165639408794417e-17 -9.968145282981891e-18 0.9009565033424606 0.43390941345490613
12611721333.333334 0.904038005197303 0.4274520852197767 -6.17148874981538e-17 -9.519445633258807e-18 -6.17148874981538e-17 -9.519445633258807e-18 0.9040377448536716 0.42745263583202
12612338666.666666 0.9070729704572738 0.4209734270303431 -6.1770119243227e-17 -9.07042212549878e-18 -6.1770119243227e-17 -9.07042212549878e-18 0.9070727140720787 0.4209739794640124
12612956000.0 0.910061508069803 0.414473221727979 -6.18220877031502e-17 -8.621098442407816e-18 -6.18220877031502e-17 -8.621098442407816e-18 0.9100612556557784 0.4144737759546216
12613573333.333334 0.913003465069544 0.40795180201938047 -6.187079142967304e-17 -8.171498273168277e-18 -6.187079142967304e-17 -8.171498273168277e-18 0.9130032166392205 0.4079523580104546
12614190666.666666 0.915898690875347 0.40140950169705597 -6.191622914631925e-17 -7.721645312176895e-18 -6.191622914631925e-17 -7.721645312176895e-18 0.9158984464410499 0.40141005942393254
12614808000.0 0.9187470372979185 0.39484665562234544 -6.195839974838529e-17 -7.271563257809462e-18 -6.195839974838529e-17 -7.271563257809462e-18 0.9187467968717662 0.39484721505630893
12615425333.333334 0.9215483585474743 0.3882635997081243 -6.199730230293108e-17 -6.821275811175156e-18 -6.199730230293108e-17 -6.821275811175156e-18 0.9215481221413798 0.38826416082037496
12616042666.666666 0.9243025112411555 0.38166067090171407 -6.203293604876171e-17 -6.370806674873038e-18 -6.203293604876171e-17 -6.370806674873038e-18 0.9243022788668264 0.38166123366336957
12616660000.0 0.9270093544103842 0.375038207167612 -6.206530039640015e-17 -5.920179551748935e-18 -6.206530039640015e-17 -5.920179551748935e-18 0.9270091260793176 0.37503877154970733
12617277333.333334 0.9296687495080799 0.36839654747016254 -6.209439492805089e-17 -5.469418143651018e-18 -6.209439492805089e-17 -5.469418143651018e-18 0.9296685252315673 0.3683971134436535
12617894666.666666 0.9322805604157084 0.361736031756344 -6.212021939755422e-17 -5.018546150196545e-18 -6.212021939755422e-17 -5.018546150196545e-18 0.9322803402048311 0.3617365992921071
12618512000.0 0.9348446534503555 0.3550570009380744 -6.214277373033294e-17 -4.567587267510897e-18 -6.214277373033294e-17 -4.567587267510897e-18 0.934844437315986 0.35505757000690935
12619129333.333334 0.9373608973714286 0.34835979687513446 -6.216205802332792e-17 -4.116565187011521e-18 -6.216205802332792e-17 -4.116565187011521e-18 0.9373606853242307 0.3483603674477657
12619746666.666666 0.9398291633874774 0.34164476235740526 -6.217807254492656e-17 -3.66550359415012e-18 -6.217807254492656e-17 -3.66550359415012e-18 0.9398289554379046 0.341645334404483
12620364000.0 0.9422493251627836 0.3349122410873218 -6.219081773488181e-17 -3.2144261671733762e-18 -6.219081773488181e-17 -3.2144261671733762e-18 0.9422491213210772 0.3349128145794233
12620981333.333334 0.9446212588237386 0.3281625776625209 -6.220029420422125e-17 -2.763356575900411e-18 -6.220029420422125e-17 -2.763356575900411e-18 0.9446210590999295 0.32816315257015233
12621598666.666666 0.946944842965281 0.32139611755793596 -6.220650273514869e-17 -2.3123184804675816e-18 -6.220650273514869e-17 -2.3123184804675816e-18 0.9469446473691883 0.3213966938515343
12622216000.0 0.9492199586570633 0.3146132071082487 -6.220944428093586e-17 -1.8613355301008154e-18 -6.220944428093586e-17 -1.8613355301008154e-18 0.9492197671982948 0.3146137847581829
12622833333.333334 0.9514464894495586 0.30781419349010847 -6.220911996580563e-17 -1.4104313618765983e-18 -6.220911996580563e-17 -1.4104313618765983e-18 0.9514463021375082 0.3078147724666808
12623450666.666666 0.9536243213799825 0.3009994247044697 -6.220553108480615e-17 -9.596295994947059e-19 -6.220553108480615e-17 -9.596295994947059e-19 0.9536241382238323 0.3010000049779176
12624068000.0 0.9557533429781836 0.29416924955861856 -6.219867910367602e-17 -5.089538520361916e-19 -6.219867910367602e-17 -5.089538520361916e-19 0.9557531639869007 0.2941698310991159
12624685333.333334 0.9578334452723165 0.28732401764839965 -6.218856565870062e-17 -5.842771272971296e-20 -6.218856565870062e-17 -5.842771272971296e-20 0.9578332704546548 0.28732460042605834
12625302666.666666 0.9598645217943929 0.28046407934043216 -6.217519255656008e-17 3.919252422631605e-19 -6.217519255656008e-17 3.919252422631605e-19 0.959864351158891 0.28046466332530356
12625920000.0 0.961846468585814 0.2735897857538759 -6.215856177416694e-17 8.420814550948523e-19 -6.215856177416694e-17 8.420814550948523e-19 0.9618463021407974 0.27359037091595295
12626537333.333334 0.963779184202595 0.2667014887428159 -6.213867545849693e-17 1.2920173874524913e-18 -6.213867545849693e-17 1.2920173874524913e-18 0.9637790219561713 0.26670207505203364
12627154666.666666 0.9656625697205982 0.2597995408780874 -6.21155359264095e-17 1.741709521777132e-18 -6.21155359264095e-17 1.741709521777132e-18 0.9656624116806611 0.2598001283043256
12627772000.0 0.9674965287406456 0.25288429542906704 -6.20891456644593e-17 2.191134362507883e-18 -6.20891456644593e-17 2.191134362507883e-18 0.9674963749148723 0.25288488394215086
12628389333.333334 0.9692809673933468 0.24595610634597379 -6.20595073287007e-17 2.6402684372802888e-18 -6.20595073287007e-17 2.6402684372802888e-18 0.969280817789199 0.24595669591567634
12629006666.666666 0.9710157943440154 0.2390153282413418 -6.202662374448102e-17 3.089088298167115e-18 -6.202662374448102e-17 3.089088298167115e-18 0.9710156489687358 0.2390159188373843
12629624000.0 0.9727009207972601 0.23206231637217054 -6.199049790622691e-17 3.5375705228891644e-18 -6.199049790622691e-17 3.5375705228891644e-18 0.972700779657877 0.23206290796422524
12630241333.333334 0.9743362605015774 0.22509742662157767 -6.195113297722099e-17 3.985691716036615e-18 -6.195113297722099e-17 3.985691716036615e-18 0.9743361236049005 0.22509801917926867
12630858666.666666 0.9759217297537246 0.218121015480749 -6.190853228937057e-17 4.433428510276142e-18 -6.190853228937057e-17 4.433428510276142e-18 0.9759215971063449 0.2181216089736537
12631476000.0 0.9774572474030717 0.2111334400303864 -6.186269934296536e-17 4.88075756758423e-18 -6.186269934296536e-17 4.88075756758423e-18 0.9774571190113636 0.21113403442803766
12632093333.333334 0.9789427348556774 0.20413505792279235 -6.18136378064304e-17 5.3276555804345366e-18 -6.18136378064304e-17 5.3276555804345366e-18 0.9789426107257952 0.2041356531946794
12632710666.666666 0.9803781160783471 0.19712622736339702 -6.176135151606651e-17 5.77409927302715e-18 -6.176135151606651e-17 5.77409927302715e-18 0.9803779962162282 0.19712682347896762
12633328000.0 0.9817633176025597 0.19010730709225682 -6.170584447578367e-17 6.220065402487494e-18 -6.170584447578367e-17 6.220065402487494e-18 0.9817632020139215 0.19010790402091834
12633945333.333334 0.9830982685281541 0.18307865636605475 -6.164712085682603e-17 6.665530760073708e-18 -6.164712085682603e-17 6.665530760073708e-18 0.9830981572184945 0.18307925407717596
12634562666.666666 0.9843829005270182 0.17604063493940564 -6.158518499748772e-17 7.110472172379932e-18 -6.158518499748772e-17 7.110472172379932e-18 0.9843827935016162 0.1760412334023183
12635180000.0 0.9856171478465612 0.16899360304658181 -6.152004140281975e-17 7.55486650253726e-18 -6.152004140281975e-17 7.55486650253726e-18 0.9856170451104748 0.16899420223058206
12635797333.333334 0.9868009473130851 0.16193792138301874 -6.145169474432881e-17 7.998690651414114e-18 -6.145169474432881e-17 7.998690651414114e-18 0.9868008488711546 0.16193852125736916
12636414666.666666 0.9879342383350052 0.15487395108696586 -6.13801498596681e-17 8.441921558805406e-18 -6.13801498596681e-17 8.441921558805406e-18 0.9879341441918488 0.15487455162089644
12637032000.0 0.9890169629059746 0.1478020537208334 -6.130541175231742e-17 8.884536204636636e-18 -6.130541175231742e-17 8.884536204636636e-18 0.989016873065991 0.14780265488354344
12637649333.333334 0.9900490656078376 0.14072259125279854 -6.12274855912568e-17 9.326511610147992e-18 -6.12274855912568e-17 9.326511610147992e-18 0.9900489800752038 0.14072319301345815
12638266666.666666 0.9910304936134677 0.1336359260382501 -6.114637671063095e-17 9.76782483908455e-18 -6.114637671063095e-17 9.76782483908455e-18 0.991030412392141 0.13363652836600187
12638884000.0 0.9919611966894752 0.12654242080124217 -6.10620906094047e-17 1.0208452998882e-17 -6.10620906094047e-17 1.0208452998882e-17 0.9919611197831911 0.1265430236652026
12639501333.333334 0.9928411271987787 0.11944243861589966 -6.097463295101022e-17 1.0648373241851377e-17 -6.097463295101022e-17 1.0648373241851377e-17 0.992841054611052 0.11944304198516087
12640118666.666666 0.9936702401030278 0.11233634288797632 -6.088400956298777e-17 1.1087562766348899e-17 -6.088400956298777e-17 1.1087562766348899e-17 0.9936701718371516 0.11233694673160756
12640736000.0 0.994448492964946 0.10522449733594351 -6.07902264366108e-17 1.152599881798089e-17 -6.07902264366108e-17 1.152599881798089e-17 0.9944484290239917 0.10522510162299277
12641353333.333334 0.995175845950454 0.09810726597276863 -6.069328972651585e-17 1.1963658690736725e-17 -6.069328972651585e-17 1.1963658690736725e-17 0.9951757863372728 0.09810787067226438
12641970666.666666 0.9958522618307485 0.0909850130869734 -6.059320575030897e-17 1.240051972819643e-17 -6.059320575030897e-17 1.240051972819643e-17 0.9958522065479675 0.09098561816792579
12642588000.0 0.9964777059841861 0.08385810322412865 -6.048998098817439e-17 1.2836559324681798e-17 -6.048998098817439e-17 1.2836559324681798e-17 0.9964776550342115 0.08385870865553144
12643205333.333334 0.9970521463980632 0.07672690116816766 -6.038362208247094e-17 1.3271754926423306e-17 -6.038362208247094e-17 1.3271754926423306e-17 0.9970520997830803 0.07672750691899978
12643822666.666666 0.9975755536702533 0.06959177192271493 -6.027413583731882e-17 1.3706084032728979e-17 -6.027413583731882e-17 1.3706084032728979e-17 0.997575511392224 0.0695923779619419
12644440000.0 0.9980479010107112 0.06245308069237526 -6.016152921818154e-17 1.413952419713461e-17 -6.016152921818154e-17 1.413952419713461e-17 0.9980478630713764 0.06245368698895093
12645057333.333334 0.9984691642428436 0.05531119286412655 -6.004580935143791e-17 1.4572053028561066e-17 -6.004580935143791e-17 1.4572053028561066e-17 0.9984691306437207 0.055311799386994556
12645674666.666666 0.9988393218047441 0.04816647398858914 -5.992698352394519e-17 1.500364819246639e-17 -5.992698352394519e-17 1.500364819246639e-17 0.9988392925471293 0.04816708070668466
12646292000.0 0.9991583547503108 0.04101928976111707 -5.980505918259127e-17 1.5434287412006378e-17 -5.980505918259127e-17 1.5434287412006378e-17 0.9991583298352779 0.04101989664336829
12646909333.333334 0.9994262467501944 0.033870006003449096 -5.968004393384792e-17 1.5863948469157877e-17 -5.968004393384792e-17 1.5863948469157877e-17 0.999426226178594 0.033870613018778806
12647526666.666666 0.9996429840926504 0.026718988644700733 -5.95519455433045e-17 1.6292609205879115e-17 -5.95519455433045e-17 1.6292609205879115e-17 0.9996429678651115 0.026719595762027967
12648144000.0 0.9998085556842359 0.019566603702662763 -5.942077193520081e-17 1.672024752523931e-17 -5.942077193520081e-17 1.672024752523931e-17 0.9998085438011644 0.019567210890904362
12648761333.333334 0.9999229530503748 0.012413217265180647 -5.928653119194972e-17 1.714684139255499e-17 -5.928653119194972e-17 1.714684139255499e-17 0.9999229455119552 0.012413824493252882
12649378666.666666 0.9999861703357946 0.005259195471416766 -5.914923155365095e-17 1.7572368836522397e-17 -5.914923155365095e-17 1.7572368836522397e-17 0.9999861671419885 0.005259802708236887
12649996000.0 0.999998204304824 -0.001895095507032233 -5.900888141759947e-17 1.7996807950337772e-17 -5.900888141759947e-17 1.7996807950337772e-17 0.9999982054553717 -0.0018944882925443897
12650613333.333334 0.9999590543415637 -0.009049289484792274 -5.886548933778092e-17 1.842013689283068e-17 -5.886548933778092e-17 1.842013689283068e-17 0.9999590598359811 -0.009048682323712696
12651230666.666666 0.9998687224499113 -0.016203020281341046 -5.871906402436442e-17 1.8842333889576698e-17 -5.871906402436442e-17 1.8842333889576698e-17 0.9998687322874921 -0.016202413204739932
12651848000.0 0.9997272132534588 -0.023355921740034716 -5.856961434318367e-17 1.9263377234014268e-17 -5.856961434318367e-17 1.9263377234014268e-17 0.999727227433278 -0.023355314778974963
12652465333.333334 0.9995345339952649 -0.030507627746593692 -5.841714931521153e-17 1.9683245288557996e-17 -5.841714931521153e-17 1.9683245288557996e-17 0.9995345525161701 -0.030507020932129154
12653082666.666666 0.9992906945374721 -0.03765777224786998 -5.826167811602927e-17 2.0101916485697645e-17 -5.826167811602927e-17 2.0101916485697645e-17 0.9992907173980936 -0.03765716561104409
12653700000.0 0.9989957073608092 -0.044805989270754 -5.81032100752785e-17 2.0519369329119487e-17 -5.81032100752785e-17 2.0519369329119487e-17 0.9989957345595538 -0.044805382842598024
12654317333.333334 0.9986495875639555 -0.051951912940679204 -5.794175467612068e-17 2.0935582394782467e-17 -5.794175467612068e-17 2.0935582394782467e-17 0.998649619099007 -0.051951306752210685
12654934666.666666 0.9982523528627605 -0.05909517750051944 -5.777732155467366e-17 2.1350534332029376e-17 -5.777732155467366e-17 2.1350534332029376e-17 0.9982523887320814 -0.05909457158274061
12655552000.0 0.9978040235893337 -0.06623541732933805 -5.760992049944698e-17 2.1764203864677523e-17 -5.760992049944698e-17 2.1764203864677523e-17 0.9978040637906657 -0.06623481171323432
12656169333.333334 0.9973046226910218 -0.07337226696084664 -5.74395614507749e-17 2.2176569792090287e-17 -5.74395614507749e-17 2.2176569792090287e-17 0.9973046672218843 -0.07337166167738492
12656786666.666666 0.9967541757292151 -0.08050536110239477 -5.726625450022972e-17 2.2587610990275324e-17 -5.726625450022972e-17 2.2587610990275324e-17 0.9967542245869072 -0.080504756182522
12657404000.0 0.9961527108780505 -0.0876343346535254 -5.709000989003687e-17 2.299730641295388e-17 -5.709000989003687e-17 2.299730641295388e-17 0.9961527640596484 -0.0876337301281667
12658021333.333334 0.9955002589229608 -0.09475882272471847 -5.691083801247781e-17 2.3405635092636914e-17 -5.691083801247781e-17 2.3405635092636914e-17 0.9955003164253208 -0.09475821862477593
12658638666.666666 0.9947968532591133 -0.10187846065592619 -5.672874940929026e-17 2.3812576141685586e-17 -5.672874940929026e-17 2.3812576141685586e-17 0.9947969150788721 -0.10187785701227717
12659256000.0 0.9940425298896792 -0.10899288403552104 -5.654375477105025e-17 2.421810875339105e-17 -5.654375477105025e-17 2.421810875339105e-17 0.994042596023251 -0.10899228087901637
12659873333.333334 0.9932373274240075 -0.11610172871869258 -5.635586493655994e-17 2.4622212203019195e-17 -5.635586493655994e-17 2.4622212203019195e-17 0.9932373978675862 -0.11610112608015516
12660490666.666666 0.9923812870756553 -0.12320463084608654 -5.616509089222164e-17 2.5024865848865136e-17 -5.616509089222164e-17 2.5024865848865136e-17 0.9923813618252151 -0.1232040287563098
12661108000.0 0.9914744526602433 -0.1303012268627106 -5.597144377139689e-17 2.5426049133318716e-17 -5.597144377139689e-17 2.5426049133318716e-17 0.9914745317115379 -0.13030062535245682
12661725333.333334 0.9905168705932589 -0.13739115353614734 -5.577493485377592e-17 2.5825741583887278e-17 -5.577493485377592e-17 2.5825741583887278e-17 0.9905169539418235 -0.13739055263614633
12662342666.666666 0.9895085898876437 -0.1444740479754851 -5.557557556472106e-17 2.6223922814252988e-17 -5.557557556472106e-17 2.6223922814252988e-17 0.9895086775287931 -0.14447344771643228
12662960000.0 0.9884496621513134 -0.15154954764963788 -5.53733774746148e-17 2.6620572525300122e-17 -5.53733774746148e-17 2.6620572525300122e-17 0.9884497540801446 -0.15154894806219313
12663577333.333334 0.9873401415844916 -0.1586172904060988 -5.5168352298195544e-17 2.701567050614651e-17 -5.5168352298195544e-17 2.701567050614651e-17 0.9873402377958796 -0.1586166915208841
12664194666.666666 0.9861800849769473 -0.16567691448936292 -5.4960511893887725e-17 2.740919663516892e-17 -5.4960511893887725e-17 2.740919663516892e-17 0.986180185465552 -0.16567631633696195
12664812000.0 0.9849695517050926 -0.17272805855947318 -5.474986826312369e-17 2.780113088102284e-17 -5.474986826312369e-17 2.780113088102284e-17 0.9849696564653517 -0.17272746117042853
12665429333.333334 0.9837086037289275 -0.17977036171054123 -5.45364335496582e-17 2.8191453303658986e-17 -5.45364335496582e-17 2.8191453303658986e-17 0.9837087127550642 -0.179769765115354
12666046666.666666 0.9823973055889037 -0.18680346348908197 -5.432022003887946e-17 2.8580144055326807e-17 -5.432022003887946e-17 2.8580144055326807e-17 0.9823974188749214 -0.18680286771820925
12666664000.0 0.9810357244025598 -0.19382700391276936 -5.410124015710489e-17 2.896718338158813e-17 -5.410124015710489e-17 2.896718338158813e-17 0.9810358419422447 -0.19382640899662326
12667281333.333334 0.9796239298611576 -0.20084062348847084 -5.387950647087836e-17 2.9352551622310357e-17 -5.387950647087836e-17 2.9352551622310357e-17 0.9796240516480793 -0.20084002945741677
12667898666.666666 0.978161994226067 -0.20784396323092746 -5.365503168625549e-17 2.973622921266163e-17 -5.365503168625549e-17 2.973622921266163e-17 0.9781621202535786 -0.2078433701152826
12668516000.0 0.9766499923250623 -0.21483666468112725 -5.342782864808246e-17 3.011819668410093e-17 -5.342782864808246e-17 3.011819668410093e-17 0.9766501225863 -0.21483607251115894
12669133333.333334 0.9750880015485454 -0.22181836992440246 -5.3197910339272196e-17 3.0498434665355104e-17 -5.3197910339272196e-17 3.0498434665355104e-17 0.9750881360364297 -0.22181777873032668
12669750666.666666 0.9734761018455268 -0.22878872160902736 -5.2965289880064545e-17 3.0876923883405415e-17 -5.2965289880064545e-17 3.0876923883405415e-17 0.973476240552762 -0.22878813142100712
12670368000.0 0.971814375719555 -0.23574736296439705 -5.27299805272883e-17 3.1253645164453493e-17 -5.27299805272883e-17 3.1253645164453493e-17 0.971814518638631 -0.2357467738125411
