! Parameters = {f0=12700.012000; bw=77.238000; Q=6100.000000; N=10; m_0_1=1.186682; m_1_1=-0.964520; m_1_2=1.021494; m_2_2=-0.965169; m_2_3=0.658457; m_2_8=-0.003602; m_2_9=0.033102; m_3_3=-0.967106; m_3_4=0.546986; m_3_7=-0.003002; m_3_8=-0.100090; m_3_9=-0.003602; m_4_4=-0.970031; m_4_5=0.383321; m_4_6=0.000515; m_4_7=-0.120639; m_4_8=-0.003002; m_5_5=-0.969649; m_5_6=0.790676; m_5_7=0.000515; m_6_6=-0.969650; m_6_7=0.383663; m_7_7=-0.970017; m_7_8=0.547104; m_8_8=-0.967108; m_8_9=0.658770; m_9_9=-0.965174; m_9_10=1.022572; m_10_10=-0.964530; m_10_11=1.187477}
!
! Created with skrf (http://scikit-rf.org).
# Hz S RI R 50.0 
!freq ReS11 ImS11 ReS21 ImS21 ReS12 ImS12 ReS22 ImS22
12607400000.0 0.6702772895147301 0.7421107431917641 -6.263957046604397e-17 -3.825010246976869e-17 -6.263957046604397e-17 -3.825010246976869e-17 0.6702768254300013 0.7421111623546198
12608017333.333334 0.6762367466333767 0.736684371018248 -6.293683940755633e-17 -3.773102615744583e-17 -6.293683940755633e-17 -3.773102615744583e-17 0.676236285964631 0.7366847938871874
12608634666.666666 0.6821522749757315 0.7312101433550277 -6.322981203001189e-17 -3.72096473018428e-17 -6.322981203001189e-17 -3.72096473018428e-17 0.6821518177525572 0.7312105699022186
12609252000.0 0.6880234902653205 0.7256884158114777 -6.351847056457547e-17 -3.668600142173557e-17 -6.351847056457547e-17 -3.668600142173557e-17 0.6880230365170812 0.7256888460088532
12609869333.333334 0.6938500111042762 0.720119547082596 -6.380279753572337e-17 -3.616012417245921e-17 -6.380279753572337e-17 -3.616012417245921e-17 0.6938495608601047 0.7201199809018529
12610486666.666666 0.699631458998027 0.7145038989257779 -6.408277576228422e-17 -3.563205134349584e-17 -6.408277576228422e-17 -3.563205134349584e-17 0.6996310122868284 0.7145043363383835
12611104000.0 0.7053674583801157 0.7088418361371052 -6.435838835847063e-17 -3.5101818856034386e-17 -6.435838835847063e-17 -3.5101818856034386e-17 0.7053670152305601 0.708842277114293
12611721333.333334 0.7110576366363047 0.703133726527919 -6.462961873487624e-17 -3.4569462760550124e-17 -6.462961873487624e-17 -3.4569462760550124e-17 0.7110571970768305 0.7031341710406961
12612338666.666666 0.7167016241290115 0.6973799409007145 -6.48964505994662e-17 -3.403501923435079e-17 -6.48964505994662e-17 -3.403501923435079e-17 0.7167011881878186 0.6973803889198598
12612956000.0 0.7222990542212309 0.6915808530251265 -6.515886795854268e-17 -3.349852457912438e-17 -6.515886795854268e-17 -3.349852457912438e-17 0.7222986219262832 0.6915813045211948
12613573333.333334 0.7278495633003012 0.685736839613716 -6.541685511768083e-17 -3.296001521849841e-17 -6.541685511768083e-17 -3.296001521849841e-17 0.7278491346793223 0.6857372945570385
12614190666.666666 0.7333527908016381 0.6798482802973728 -6.567039668266247e-17 -3.2419527695556563e-17 -6.567039668266247e-17 -3.2419527695556563e-17 0.7333523658821108 0.6798487386580605
12614808000.0 0.7388083792320805 0.6739155576007377 -6.591947756037523e-17 -3.187709867037634e-17 -6.591947756037523e-17 -3.187709867037634e-17 0.7388079580412441 0.6739160193486817
12615425333.333334 0.7442159741931312 0.6679390569173317 -6.616408295969737e-17 -3.1332764917548866e-17 -6.616408295969737e-17 -3.1332764917548866e-17 0.7442155567579805 0.6679395220222073
12616042666.666666 0.7495752244039818 0.661919166484523 -6.640419839236064e-17 -3.078656332369366e-17 -6.640419839236064e-17 -3.078656332369366e-17 0.7495748107512643 0.661919634915789
12616660000.0 0.7548857817243301 0.6558562773583045 -6.663980967379441e-17 -3.0238530884965406e-17 -6.663980967379441e-17 -3.0238530884965406e-17 0.7548853718805453 0.6558567490852071
12617277333.333334 0.7601473011770128 0.6497507833878692 -6.68709029239441e-17 -2.9688704704563524e-17 -6.68709029239441e-17 -2.9688704704563524e-17 0.7601468951684112 0.6497512583794443
12617894666.666666 0.7653594409703451 0.6436030811901131 -6.709746456807853e-17 -2.913712199021702e-17 -6.709746456807853e-17 -2.913712199021702e-17 0.7653590388229236 0.6436035594151861
12618512000.0 0.7705218625204497 0.6374135701237187 -6.731948133756825e-17 -2.8583820051680124e-17 -6.731948133756825e-17 -2.8583820051680124e-17 0.7705214642599528 0.637414051550909
12619129333.333334 0.7756342304731048 0.6311826522633848 -6.753694027064415e-17 -2.802883629822255e-17 -6.753694027064415e-17 -2.802883629822255e-17 0.7756338361250233 0.6311831368611075
12619746666.666666 0.7806962127256425 0.6249107323735805 -6.774982871314116e-17 -2.7472208236098473e-17 -6.774982871314116e-17 -2.7472208236098473e-17 0.7806958223152086 0.6249112201100464
12620364000.0 0.7857074804485333 0.6185982178822239 -6.79581343192183e-17 -2.6913973466017848e-17 -6.79581343192183e-17 -2.6913973466017848e-17 0.7857070940007224 0.6185987087254443
12620981333.333334 0.7906677081065916 0.6122455188544181 -6.816184505205044e-17 -2.635416968063184e-17 -6.816184505205044e-17 -2.635416968063184e-17 0.7906673256461179 0.6122460127722047
12621598666.666666 0.7955765734802971 0.6058530479655893 -6.836094918451368e-17 -2.5792834661976338e-17 -6.836094918451368e-17 -2.5792834661976338e-17 0.7955761950316145 0.6058535449255575
12622216000.0 0.8004337576866586 0.5994212204747693 -6.855543529983838e-17 -2.523000627893952e-17 -6.855543529983838e-17 -2.523000627893952e-17 0.8004333832739573 0.5994217204443404
12622833333.333334 0.8052389451998898 0.5929504541976636 -6.874529229224695e-17 -2.4665722484711203e-17 -6.874529229224695e-17 -2.4665722484711203e-17 0.805238574847096 0.5929509571440661
12623450666.666666 0.8099918238719462 0.5864411694794667 -6.89305093675662e-17 -2.4100021314239195e-17 -6.89305093675662e-17 -2.4100021314239195e-17 0.80999145760272 0.5864416753697396
12624068000.0 0.814692084952817 0.5798937891675331 -6.911107604382592e-17 -2.353294088166174e-17 -6.911107604382592e-17 -2.353294088166174e-17 0.8146917227905508 0.5798942979685271
12624685333.333334 0.8193394231106116 0.5733087385838602 -6.928698215182988e-17 -2.2964519377753187e-17 -6.928698215182988e-17 -2.2964519377753187e-17 0.8193390650784291 0.5733092502622402
12625302666.666666 0.8239335364512338 0.5666864454976931 -6.94582178357061e-17 -2.2394795067367826e-17 -6.94582178357061e-17 -2.2394795067367826e-17 0.8239331825719882 0.5666869600199403
12625920000.0 0.8284741265382358 0.5600273400973865 -6.9624773553445e-17 -2.1823806286849953e-17 -6.9624773553445e-17 -2.1823806286849953e-17 0.8284737768345075 0.5600278574298008
12626537333.333334 0.8329608984119776 0.5533318549627863 -6.978664007740181e-17 -2.1251591441487862e-17 -6.978664007740181e-17 -2.1251591441487862e-17 0.832960552906074 0.5533323750714879
12627154666.666666 0.8373935606089032 0.5466004250369659 -6.994380849478952e-17 -2.067818900292647e-17 -6.994380849478952e-17 -2.067818900292647e-17 0.8373932193228565 0.546600947887898
12627772000.0 0.8417718251805003 0.5398334875979222 -7.009627020815066e-17 -2.0103637506576602e-17 -7.009627020815066e-17 -2.0103637506576602e-17 0.8417714881360685 0.5398340131568549
12628389333.333334 0.8460954077118891 0.5330314822303643 -7.024401693579645e-17 -1.9527975549060898e-17 -7.024401693579645e-17 -1.9527975549060898e-17 0.8460950749305498 0.5330320104628931
12629006666.666666 0.850364027340459 0.5261948507968904 -7.038704071224111e-17 -1.8951241785598736e-17 -7.038704071224111e-17 -1.8951241785598736e-17 0.8503636988434123 0.526195381668441
12629624000.0 0.854577406773965 0.5193240374095256 -7.052533388860091e-17 -1.837347492744034e-17 -7.052533388860091e-17 -1.837347492744034e-17 0.854577082582131 0.5193245708853567
12630241333.333334 0.8587352723086327 0.5124194884007287 -7.065888913298089e-17 -1.779471373926407e-17 -7.065888913298089e-17 -1.779471373926407e-17 0.8587349524426482 0.5124200244459316
12630858666.666666 0.8628373538468459 0.505481652294542 -7.078769943083511e-17 -1.7214997036593316e-17 -7.078769943083511e-17 -1.7214997036593316e-17 0.8628370383270655 0.5054821908740453
12631476000.0 0.866883384914854 0.49851097977718684 -7.09117580853112e-17 -1.6634363683186836e-17 -7.09117580853112e-17 -1.6634363683186836e-17 0.8668830737613492 0.49851152085575867
12632093333.333334 0.870873102679898 0.4915079236681071 -7.103105871756736e-17 -1.6052852588455162e-17 -7.103105871756736e-17 -1.6052852588455162e-17 0.8708727959124529 0.4915084672103557
12632710666.666666 0.8748062479673802 0.4844729388903794 -7.114559526707229e-17 -1.5470502704856845e-17 -7.114559526707229e-17 -1.5470502704856845e-17 0.8748059456054931 0.4844734848607568
12633328000.0 0.8786825652777154 0.4774064824411371 -7.125536199188524e-17 -1.488735302528469e-17 -7.125536199188524e-17 -1.488735302528469e-17 0.8786822673405965 0.47740703080394126
12633945333.333334 0.8825018028028884 0.47030901336195835 -7.136035346890878e-17 -1.4303442580480756e-17 -7.136035346890878e-17 -1.4303442580480756e-17 0.8825015093094579 0.47030956408133484
12634562666.666666 0.8862637124428216 0.4631809927090202 -7.146056459412604e-17 -1.3718810436421486e-17 -7.146056459412604e-17 -1.3718810436421486e-17 0.8862634234117107 0.46318154574896575
12635180000.0 0.889968049821497 0.4560228835231498 -7.155599058281429e-17 -1.3133495691713687e-17 -7.155599058281429e-17 -1.3133495691713687e-17 0.8899677652710432 0.45602343884751306
12635797333.333334 0.8936145743028374 0.44883515079971764 -7.164662696973791e-17 -1.2547537474985278e-17 -7.164662696973791e-17 -1.2547537474985278e-17 0.8936142942510873 0.4488357083722033
12636414666.666666 0.8972030490062927 0.4416182614585346 -7.173246960931864e-17 -1.1960974942285307e-17 -7.173246960931864e-17 -1.1960974942285307e-17 0.8972027734709981 0.4416188212427045
12637032000.0 0.9007332408223142 0.43437268431334164 -7.181351467578755e-17 -1.1373847274460608e-17 -7.181351467578755e-17 -1.1373847274460608e-17 0.9007329698209315 0.43437324627261725
12637649333.333334 0.9042049204273966 0.4270988900415587 -7.188975866331178e-17 -1.0786193674562635e-17 -7.188975866331178e-17 -1.0786193674562635e-17 0.9042046539770868 0.4270994541392243
12638266666.666666 0.9076178622990649 0.4197973511535322 -7.196119838610439e-17 -1.0198053365223074e-17 -7.196119838610439e-17 -1.0198053365223074e-17 0.9076176004166909 0.4197979173527363
12638884000.0 0.9109718447304714 0.41246854196194094 -7.202783097850898e-17 -9.609465586051656e-18 -7.202783097850898e-17 -9.609465586051656e-18 0.9109715874325973 0.4124691102256991
12639501333.333334 0.9142666498448221 0.4051129385509328 -7.20896538950656e-17 -9.020469591021656e-18 -7.20896538950656e-17 -9.020469591021656e-18 0.914266397147715 0.4051135088421309
12640118666.666666 0.9175020636094653 0.39773101874535605 -7.214666491055312e-17 -8.431104645871827e-18 -7.214666491055312e-17 -8.431104645871827e-18 0.9175018155290895 0.39773159102675104
12640736000.0 0.9206778758499738 0.39032326207930124 -7.219886212001518e-17 -7.841410025463413e-18 -7.219886212001518e-17 -7.841410025463413e-18 0.9206776324019929 0.39032383631352463
12641353333.333334 0.9237938802635263 0.3828901497655757 -7.224624393875642e-17 -7.25142501121974e-18 -7.224624393875642e-17 -7.25142501121974e-18 0.9237936414633016 0.3828907259151361
12641970666.666666 0.9268498744325465 0.375432164663897 -7.228880910232679e-17 -6.661188888473928e-18 -7.228880910232679e-17 -6.661188888473928e-18 0.9268496402951363 0.37543274269118215
12642588000.0 0.9298456598377527 0.3679497912497602 -7.232655666647842e-17 -6.070740943881071e-18 -7.232655666647842e-17 -6.070740943881071e-18 0.9298454303779096 0.36795037111703927
12643205333.333334 0.932781041871018 0.3604435155830453 -7.235948600710348e-17 -5.480120462806698e-18 -7.235948600710348e-17 -5.480120462806698e-18 0.9327808171031912 0.3604440972524722
12643822666.666666 0.9356558298481235 0.3529138252761795 -7.238759682015033e-17 -4.8893667267204035e-18 -7.238759682015033e-17 -4.8893667267204035e-18 0.9356556097864548 0.3529144087097943
12644440000.0 0.9384698370210466 0.3453612094626981 -7.241088912151923e-17 -4.298519010588771e-18 -7.241088912151923e-17 -4.298519010588771e-18 0.9384696216793705 0.34536179462242994
12645057333.333334 0.9412228805901138 0.3377861587654176 -7.242936324693553e-17 -3.707616580277908e-18 -7.242936324693553e-17 -3.707616580277908e-18 0.9412226699819581 0.33778674561308764
12645674666.666666 0.9439147817158796 0.33018916526456615 -7.244301985180297e-17 -3.1166986899494146e-18 -7.244301985180297e-17 -3.1166986899494146e-18 0.9439145758544619 0.33018975376188914
12646292000.0 0.9465453655308076 0.3225707224656285 -7.245185991103547e-17 -2.525804579445752e-18 -7.245185991103547e-17 -2.525804579445752e-18 0.9465451644290374 0.32257131257421634
12646909333.333334 0.9491144611505071 0.3149313252676368 -7.245588471886706e-17 -1.9349734717188057e-18 -7.245588471886706e-17 -1.9349734717188057e-18 0.9491142648209826 0.3149319169490002
12647526666.666666 0.9516219016849377 0.3072714699307262 -7.245509588864182e-17 -1.344244570213176e-18 -7.245509588864182e-17 -1.344244570213176e-18 0.9516217101399463 0.3072720631462776
12648144000.0 0.9540675242492056 0.29959165404403254 -7.244949535258199e-17 -7.536570562744542e-19 -7.244949535258199e-17 -7.536570562744542e-19 0.9540673375007215 0.2995922487550879
12648761333.333334 0.9564511699741571 0.29189237649331273 -7.243908536153502e-17 -1.6325008656615028e-19 -7.243908536153502e-17 -1.6325008656615028e-19 0.9564509880338434 0.29189297266109554
12649378666.666666 0.9587726840166714 0.28417413742864756 -7.242386848470023e-17 4.269372095189683e-19 -7.242386848470023e-17 4.269372095189683e-19 0.958772506895877 0.28417473501428986
12649996000.0 0.961031915569766 0.2764374382317873 -7.240384760933357e-17 1.0168657324570736e-18 -7.240384760933357e-17 1.0168657324570736e-18 0.961031743279526 0.2764380371963332
12650613333.333334 0.9632287178723699 0.26868278148366387 -7.23790259404321e-17 1.6064964151617142e-18 -7.23790259404321e-17 1.6064964151617142e-18 0.9632285504234038 0.2686833817880714
12651230666.666666 0.965362948218823 0.26091067093185133 -7.234940700039748e-17 2.195790225567631e-18 -7.234940700039748e-17 2.195790225567631e-18 0.9653627856215359 0.2609112725369956
12651848000.0 0.9674344679682361 0.2531216114575425 -7.23149946286775e-17 2.784708169219448e-18 -7.23149946286775e-17 2.784708169219448e-18 0.9674343102327159 0.2531222143242176
12652465333.333334 0.9694431425533926 0.24531610904310575 -7.227579298138829e-17 3.373211291828077e-18 -7.227579298138829e-17 3.373211291828077e-18 0.9694429896894114 0.24531671313202813
12653082666.666666 0.9713888414895423 0.23749467073905392 -7.223180653091516e-17 3.961260681839934e-18 -7.223180653091516e-17 3.961260681839934e-18 0.9713886935065539 0.237495276010864
12653700000.0 0.9732714383829124 0.22965780463093877 -7.218304006549083e-17 4.548817473022799e-18 -7.218304006549083e-17 4.548817473022799e-18 0.9732712952900539 0.22965841104620435
12654317333.333334 0.9750908109388343 0.22180601980670486 -7.212949868875653e-17 5.1358428469984436e-18 -7.212949868875653e-17 5.1358428469984436e-18 0.9750906727449229 0.22180662732592313
12654934666.666666 0.9768468409697523 0.21393982632334263 -7.207118781929869e-17 5.7222980358203134e-18 -7.207118781929869e-17 5.7222980358203134e-18 0.976846707683286 0.21394043490694273
12655552000.0 0.978539414402899 0.20605973517375392 -7.200811319016633e-17 6.308144324526337e-18 -7.200811319016633e-17 6.308144324526337e-18 0.9785392860320574 0.20606034478210009
12656169333.333334 0.9801684212876539 0.19816625825380807 -7.194028084836968e-17 6.893343053668832e-18 -7.194028084836968e-17 6.893343053668832e-18 0.9801682978402961 0.1981668688472017
12656786666.666666 0.9817337558027486 0.19025990832878287 -7.186769715435414e-17 7.477855621880639e-18 -7.186769715435414e-17 7.477855621880639e-18 0.9817336372864124 0.1902605198674651
12657404000.0 0.9832353162630896 0.18234119900030518 -7.179036878145789e-17 8.061643488395525e-18 -7.179036878145789e-17 8.061643488395525e-18 0.9832352026849935 0.18234181144446004
12658021333.333334 0.9846730051264109 0.17441064467276493 -7.17083027153449e-17 8.644668175598273e-18 -7.17083027153449e-17 8.644668175598273e-18 0.9846728964934506 0.17441125798252113
12658638666.666666 0.9860467289995604 0.16646876052014953 -7.162150625342221e-17 9.226891271535003e-18 -7.162150625342221e-17 9.226891271535003e-18 0.9860466253183091 0.16646937465558345
12659256000.0 0.98735639864462 0.15851606245227023 -7.152998700423067e-17 9.808274432458746e-18 -7.152998700423067e-17 9.808274432458746e-18 0.9873562999213313 0.15851667737340897
12659873333.333334 0.9886019289846648 0.15055306708150099 -7.143375288682133e-17 1.0388779385328948e-17 -7.143375288682133e-17 1.0388779385328948e-17 0.988601835225266 0.1505536827483238
12660490666.666666 0.9897832391092835 0.1425802916892181 -7.133281213010896e-17 1.0968367930323538e-17 -7.133281213010896e-17 1.0968367930323538e-17 0.9897831503193814 0.14258090806166027
12661108000.0 0.9909002522798827 0.1345982541919172 -7.122717327220173e-17 1.154700194336544e-17 -7.122717327220173e-17 1.154700194336544e-17 0.9909001684647608 0.13459887122987194
12661725333.333334 0.9919528959346158 0.1266074731079342 -7.11168451597189e-17 1.2124643378594483e-17 -7.11168451597189e-17 1.2124643378594483e-17 0.9919528170992333 0.12660809077125543
12662342666.666666 0.9929411016931257 0.11860846752356526 -7.100183694707945e-17 1.2701254270883698e-17 -7.100183694707945e-17 1.2701254270883698e-17 0.9929410278421175 0.11860908577207002
12662960000.0 0.99386480536099 0.11060175705931824 -7.088215809577621e-17 1.3276796738319037e-17 -7.088215809577621e-17 1.3276796738319037e-17 0.9938647364986675 0.11060237585278967
12663577333.333334 0.9947239469338793 0.1025878618362424 -7.075781837362892e-17 1.3851232984674483e-17 -7.075781837362892e-17 1.3851232984674483e-17 0.9947238830642289 0.10258848113443209
12664194666.666666 0.9955184706014596 0.0945673024421128 -7.062882785401484e-17 1.442452530189886e-17 -7.062882785401484e-17 1.442452530189886e-17 0.9955184117281431 0.09456792220474346
12664812000.0 0.9962483247510174 0.08654059989761262 -7.049519691508232e-17 1.4996636072575475e-17 -7.049519691508232e-17 1.4996636072575475e-17 0.9962482708773722 0.08654122008438075
12665429333.333334 0.9969134619708152 0.07850827562245903 -7.035693623894263e-17 1.5567527772387012e-17 -7.035693623894263e-17 1.5567527772387012e-17 0.9969134130998528 0.07850889619303751
12666046666.666666 0.9975138390531602 0.07047085140164452 -7.02140568108448e-17 1.613716297255921e-17 -7.02140568108448e-17 1.613716297255921e-17 0.9975137951875686 0.07047147231568529
12666664000.0 0.9980494169972324 0.062428849351343574 -7.006656991832326e-17 1.6705504342329156e-17 -7.006656991832326e-17 1.6705504342329156e-17 0.9980493781393718 0.06242947056848009
12667281333.333334 0.9985201610115921 0.054382791885221764 -6.991448715033774e-17 1.7272514651356358e-17 -6.991448715033774e-17 1.7272514651356358e-17 0.9985201271634995 0.054383413365071825
12667898666.666666 0.9989260405164627 0.046333201680329936 -6.975782039638192e-17 1.7838156772173977e-17 -6.975782039638192e-17 1.7838156772173977e-17 0.9989260116798472 0.04633382338249812
12668516000.0 0.9992670291457073 0.03828060164312181 -6.959658184557693e-17 1.8402393682612286e-17 -6.959658184557693e-17 1.8402393682612286e-17 0.9992670053219546 0.03828122352720227
12669133333.333334 0.9995431047485364 0.03022551487574148 -6.943078398575079e-17 1.8965188468196547e-17 -6.943078398575079e-17 1.8965188468196547e-17 0.9995430859387051 0.030226136901320474
12669750666.666666 0.9997542493909565 0.02216846464175829 -6.926043960248723e-17 1.9526504324576234e-17 -6.926043960248723e-17 1.9526504324576234e-17 0.9997542355957795 0.022169086768416803
12670368000.0 0.9999004493569293 0.014109974332288895 -6.908556177816545e-17 2.0086304559908515e-17 -6.908556177816545e-17 2.0086304559908515e-17 0.9999004405768147 0.014110596519605306
