! Parameters = {f0=12700.012000; bw=77.238000; Q=6100.000000; N=10; m_0_1=1.165260; m_1_1=-1.285842; m_1_2=1.000072; m_2_2=-1.286491; m_2_3=0.637035; m_2_8=-0.004673; m_2_9=0.032031; m_3_3=-1.288428; m_3_4=0.525564; m_3_7=-0.004073; m_3_8=-0.101161; m_3_9=-0.004673; m_4_4=-1.291353; m_4_5=0.361899; m_4_6=-0.000556; m_4_7=-0.121710; m_4_8=-0.004073; m_5_5=-1.290971; m_5_6=0.769254; m_5_7=-0.000556; m_6_6=-1.290972; m_6_7=0.362241; m_7_7=-1.291339; m_7_8=0.525682; m_8_8=-1.288430; m_8_9=0.637348; m_9_9=-1.286496; m_9_10=1.001150; m_10_10=-1.285852; m_10_11=1.166055}
!
! Created with skrf (http://scikit-rf.org).
# Hz S RI R 50.0 
!freq ReS11 ImS11 ReS21 ImS21 ReS12 ImS12 ReS22 ImS22
12607400000.0 0.35178901008157437 0.936079319494709 -3.960148118423681e-17 -5.236542520053114e-17 -3.960148118423681e-17 -5.236542520053114e-17 0.3517884352301438 0.9360795355300627
12608017333.333334 0.35873109880249554 0.9334409455085015 -3.9986064434975995e-17 -5.205613518312417e-17 -3.9986064434975995e-17 -5.205613518312417e-17 0.3587305255993769 0.9334411657962409
12608634666.666666 0.36565340220517795 0.9307510888823232 -4.0368237965827517e-17 -5.1744025332389045e-17 -4.0368237965827517e-17 -5.1744025332389045e-17 0.36565283068182236 0.9307513134098826
12609252000.0 0.37255553849959566 0.9280098979715297 -4.074798113669035e-17 -5.1429114380144967e-17 -4.074798113669035e-17 -5.1429114380144967e-17 0.3725549686873584 0.9280101267261106
12609869333.333334 0.37943712700803855 0.925217523962737 -4.1125273452764683e-17 -5.1111421209016516e-17 -4.1125273452764683e-17 -5.1111421209016516e-17 0.37943655893817824 0.9252177569313107
12610486666.666666 0.38629778818597665 0.9223741208655379 -4.150009456564429e-17 -5.079096485131449e-17 -4.150009456564429e-17 -5.079096485131449e-17 0.38629722188965226 0.922374358034843
12611104000.0 0.3931371436432825 0.919479845503887 -4.1872424274423634e-17 -5.04677644878903e-17 -4.1872424274423634e-17 -5.04677644878903e-17 0.393136579151552 0.9194800868604319
12611721333.333334 0.39995481616473294 0.9165348575076044 -4.224224252676e-17 -5.0141839447011773e-17 -4.224224252676e-17 -5.0141839447011773e-17 0.3999542535085518 0.9165351030376683
12612338666.666666 0.4067504297310768 0.9135393193034639 -4.2609529419962836e-17 -4.9813209203201457e-17 -4.2609529419962836e-17 -4.9813209203201457e-17 0.40674986894129567 0.9135395689930953
12612956000.0 0.41352360953977046 0.9104933961062268 -4.297426520205262e-17 -4.9481893376084864e-17 -4.297426520205262e-17 -4.9481893376084864e-17 0.41352305064713535 0.9104936499412493
12613573333.333334 0.42027398202542016 0.9073972559096417 -4.333643027281266e-17 -4.914791172923036e-17 -4.333643027281266e-17 -4.914791172923036e-17 0.4202734250605686 0.9073975138756497
12614190666.666666 0.42700117488064154 0.9042510694770579 -4.36960051848439e-17 -4.881128416896953e-17 -4.36960051848439e-17 -4.881128416896953e-17 0.4270006198741019 0.9042513315594201
12614808000.0 0.4337048170764654 0.9010550103320671 -4.405297064459739e-17 -4.847203074322308e-17 -4.405297064459739e-17 -4.847203074322308e-17 0.4337042640586549 0.901055276515926
12615425333.333334 0.440384538882852 0.8978092547489075 -4.440730751340428e-17 -4.813017164031253e-17 -4.440730751340428e-17 -4.813017164031253e-17 0.44038398788407607 0.8978095250191824
12616042666.666666 0.4470399718889829 0.894513981742795 -4.4758996808495113e-17 -4.7785727187765656e-17 -4.4758996808495113e-17 -4.7785727187765656e-17 0.44703942293943116 0.8945142560841788
12616660000.0 0.4536707490237302 0.8911693730599697 -4.5108019704010563e-17 -4.743871785111517e-17 -4.5108019704010563e-17 -4.743871785111517e-17 0.45367020215347764 0.8911696514569347
12617277333.333334 0.46027650457582775 0.8877756131677136 -4.545435753200341e-17 -4.7089164232687823e-17 -4.545435753200341e-17 -4.7089164232687823e-17 0.46027595981483105 0.8877758956045088
12617894666.666666 0.46685687421393907 0.8843328892442268 -4.5797991783423976e-17 -4.6737087070394914e-17 -4.5797991783423976e-17 -4.6737087070394914e-17 0.46685633159203593 0.8843331757048801
12618512000.0 0.4734114950070301 0.8808413911681611 -4.613890410911705e-17 -4.638250723649437e-17 -4.613890410911705e-17 -4.638250723649437e-17 0.4734109545539371 0.8808416816364799
12619129333.333334 0.4799400054440319 0.8773013115083294 -4.647707632077629e-17 -4.602544573637835e-17 -4.647707632077629e-17 -4.602544573637835e-17 0.47993946718934355 0.8773016059679023
12619746666.666666 0.4864420454540333 0.8737128455129566 -4.681249039192117e-17 -4.566592370732268e-17 -4.681249039192117e-17 -4.566592370732268e-17 0.48644150942721986 0.8737131439471538
12620364000.0 0.49291725642613765 0.870076191098907 -4.714512845885069e-17 -4.53039624172419e-17 -4.714512845885069e-17 -4.53039624172419e-17 0.49291672265654296 0.8700764934908797
12620981333.333334 0.49936528122901674 0.8663915488408908 -4.7474972821576556e-17 -4.4939583263450214e-17 -4.7474972821576556e-17 -4.4939583263450214e-17 0.499364749745858 0.8663918551735745
12621598666.666666 0.505785764230859 0.8626591219602665 -4.780200594477077e-17 -4.4572807771389484e-17 -4.780200594477077e-17 -4.4572807771389484e-17 0.5057852350632246 0.8626594322163821
12622216000.0 0.5121783513188578 0.8588791163139018 -4.812621045868441e-17 -4.420365759337106e-17 -4.812621045868441e-17 -4.420365759337106e-17 0.512177824495705 0.8588794304759538
12622833333.333334 0.5185426899187916 0.855051740382788 -4.8447569160065815e-17 -4.383215450730132e-17 -4.8447569160065815e-17 -4.383215450730132e-17 0.518542165468946 0.8550520584330683
12623450666.666666 0.5248784290143735 0.8511772052606053 -4.876606501306132e-17 -4.345832041540901e-17 -4.876606501306132e-17 -4.345832041540901e-17 0.5248779069665267 0.8511775271811926
12624068000.0 0.5311852191667547 0.8472557246419862 -4.9081681150117545e-17 -4.308217734295353e-17 -4.9081681150117545e-17 -4.308217734295353e-17 0.5311846995494633 0.847256050414748
12624685333.333334 0.5374627125337269 0.843287514810779 -4.9394400872868364e-17 -4.2703747436932025e-17 -4.9394400872868364e-17 -4.2703747436932025e-17 0.5374621953754101 0.843287844417371
12625302666.666666 0.5437105628888083 0.8392727946281751 -4.970420765299956e-17 -4.23230529647963e-17 -4.970420765299956e-17 -4.23230529647963e-17 0.5437100482177474 0.8392731280500445
12625920000.0 0.5499284256406052 0.8352117855204733 -5.001108513313261e-17 -4.194011631312726e-17 -5.001108513313261e-17 -4.194011631312726e-17 0.5499279134849416 0.8352121227388585
12626537333.333334 0.556115957851505 0.8311047114670649 -5.0315017127664765e-17 -4.155495998634511e-17 -5.0315017127664765e-17 -4.155495998634511e-17 0.5561154482392392 0.8311050524629977
12627154666.666666 0.562272818256737 0.8269517989879929 -5.061598762362231e-17 -4.116760660538447e-17 -5.061598762362231e-17 -4.116760660538447e-17 0.5622723112157247 0.8269521437422958
12627772000.0 0.5683986672833309 0.8227532771313556 -5.091398078150357e-17 -4.07780789063632e-17 -5.091398078150357e-17 -4.07780789063632e-17 0.5683981628412849 0.8227536256246483
12628389333.333334 0.574493167068519 0.8185093774609019 -5.120898093609028e-17 -4.038639973927328e-17 -5.120898093609028e-17 -4.038639973927328e-17 0.574492665253006 0.8185097296735995
12629006666.666666 0.5805559814787239 0.8142203340430204 -5.150097259727603e-17 -3.9992592066630503e-17 -5.150097259727603e-17 -3.9992592066630503e-17 0.5805554823171619 0.8142206899553337
12629624000.0 0.5865867761278345 0.8098863834340005 -5.178994045086613e-17 -3.9596678962141564e-17 -5.178994045086613e-17 -3.9596678962141564e-17 0.5865862796474937 0.8098867430259391
12630241333.333334 0.5925852183957953 0.8055077646668959 -5.207586935937581e-17 -3.919868360935587e-17 -5.207586935937581e-17 -3.919868360935587e-17 0.5925847246237946 0.8055081279182682
12630858666.666666 0.5985509774468084 0.8010847192384356 -5.2358744362809597e-17 -3.8798629300321124e-17 -5.2358744362809597e-17 -3.8798629300321124e-17 0.5985504864101149 0.8010850861288495
12631476000.0 0.6044837242478336 0.7966174910955199 -5.263855067944823e-17 -3.839653943420995e-17 -5.263855067944823e-17 -3.839653943420995e-17 0.6044832359732617 0.7966178616043865
12632093333.333334 0.6103831315864411 0.7921063266219893 -5.291527370659828e-17 -3.799243751597854e-17 -5.291527370659828e-17 -3.799243751597854e-17 0.6103826461006489 0.7921067007285203
12632710666.666666 0.6162488740889915 0.7875514746249298 -5.3188899021358046e-17 -3.7586347154982083e-17 -5.3188899021358046e-17 -3.7586347154982083e-17 0.6162483914184821 0.787551852308142
12633328000.0 0.6220806282387202 0.7829531863208491 -5.3459412381355694e-17 -3.717829206360881e-17 -5.3459412381355694e-17 -3.717829206360881e-17 0.6220801484098375 0.7829535675595625
12633945333.333334 0.6278780723932854 0.7783117153220451 -5.3726799725483865e-17 -3.6768296055900123e-17 -5.3726799725483865e-17 -3.6768296055900123e-17 0.6278775954322144 0.7783121000948863
12634562666.666666 0.6336408868027543 0.7736273176224258 -5.3991047174622233e-17 -3.635638304616669e-17 -5.3991047174622233e-17 -3.635638304616669e-17 0.6336404127355205 0.7736277059078296
12635180000.0 0.6393687536271306 0.7689002515834815 -5.425214103234971e-17 -3.5942577047599533e-17 -5.425214103234971e-17 -3.5942577047599533e-17 0.6393682824795953 0.7689006433596891
12635797333.333334 0.6450613569539232 0.7641307779199943 -5.451006778564707e-17 -3.552690217087464e-17 -5.451006778564707e-17 -3.552690217087464e-17 0.6450608887517855 0.7641311731650582
12636414666.666666 0.6507183828154857 0.7593191596857352 -5.4764814105583864e-17 -3.5109382622760154e-17 -5.4764814105583864e-17 -3.5109382622760154e-17 0.6507179175842799 0.7593195583775184
12637032000.0 0.6563395192064644 0.7544656622588459 -5.501636684800479e-17 -3.469004270470339e-17 -5.501636684800479e-17 -3.469004270470339e-17 0.6563390569715581 0.7544660643750237
12637649333.333334 0.6619244561009171 0.7495705533272745 -5.526471305419515e-17 -3.426890681142836e-17 -5.526471305419515e-17 -3.426890681142836e-17 0.6619239968875101 0.7495709588453349
12638266666.666666 0.667472885469436 0.7446341028739931 -5.5509839951540933e-17 -3.3845999429521083e-17 -5.5509839951540933e-17 -3.3845999429521083e-17 0.6674724293025593 0.7446345117712393
12638884000.0 0.6729845012961351 0.7396565831621087 -5.575173495417687e-17 -3.3421345136011577e-17 -5.575173495417687e-17 -3.3421345136011577e-17 0.6729840482006479 0.7396569954156583
12639501333.333334 0.6784589995955483 0.7346382687198239 -5.599038566362464e-17 -3.299496859694984e-17 -5.599038566362464e-17 -3.299496859694984e-17 0.6784585495961405 0.734638684306614
12640118666.666666 0.6838960784292942 0.7295794363253976 -5.622577986941418e-17 -3.2566894565988664e-17 -5.622577986941418e-17 -3.2566894565988664e-17 0.6838956315504809 0.7295798552221826
12640736000.0 0.6892954379229548 0.7244803649916628 -5.645790554971334e-17 -3.2137147882926314e-17 -5.645790554971334e-17 -3.2137147882926314e-17 0.6892949941890772 0.7244807871750168
12641353333.333334 0.6946567802823265 0.7193413359509123 -5.66867508719116e-17 -3.1705753472309894e-17 -5.66867508719116e-17 -3.1705753472309894e-17 0.694656339717549 0.7193417613972297
12641970666.666666 0.69997980981007 0.7141626326391709 -5.691230419323251e-17 -3.12727363419615e-17 -5.691230419323251e-17 -3.12727363419615e-17 0.6999793724383803 0.714163061324669
12642588000.0 0.7052642329219362 0.7089445406806413 -5.713455406130766e-17 -3.0838121581550385e-17 -5.713455406130766e-17 -3.0838121581550385e-17 0.7052637987671447 0.7089449725813622
12643205333.333334 0.7105097581628811 0.7036873478720339 -5.735348921474973e-17 -3.040193436114344e-17 -5.735348921474973e-17 -3.040193436114344e-17 0.7105093272486173 0.7036877829638435
12643822666.666666 0.7157160962233382 0.6983913441664903 -5.756909858371746e-17 -2.996419992974484e-17 -5.756909858371746e-17 -2.996419992974484e-17 0.7157156685730512 0.6983917824250815
12644440000.0 0.7208829599549964 0.6930568216577727 -5.778137129045733e-17 -2.952494361385678e-17 -5.778137129045733e-17 -2.952494361385678e-17 0.7208825355919526 0.6930572630586657
12645057333.333334 0.7260100643866777 0.6876840745641163 -5.799029664985173e-17 -2.9084190816001615e-17 -5.799029664985173e-17 -2.9084190816001615e-17 0.7260096433339593 0.6876845190826598
12645674666.666666 0.7310971267400517 0.6822733992119971 -5.819586416993919e-17 -2.864196701327335e-17 -5.819586416993919e-17 -2.864196701327335e-17 0.7310967090205577 0.6822738468233719
12646292000.0 0.7361438664453732 0.6768250940196505 -5.839806355243663e-17 -2.8198297755858886e-17 -5.839806355243663e-17 -2.8198297755858886e-17 0.7361434520818155 0.676825544698868
12646909333.333334 0.7411500051567002 0.6713394594808766 -5.859688469324214e-17 -2.77532086655743e-17 -5.859688469324214e-17 -2.77532086655743e-17 0.7411495941716035 0.671339913202782
12647526666.666666 0.7461152667674403 0.6658167981482614 -5.879231768292981e-17 -2.7306725434388946e-17 -5.879231768292981e-17 -2.7306725434388946e-17 0.7461148591831417 0.6658172548875348
12648144000.0 0.7510393774255608 0.66025741461651 -5.898435280723317e-17 -2.6858873822948103e-17 -5.898435280723317e-17 -2.6858873822948103e-17 0.7510389732642062 0.6602578743476669
12648761333.333334 0.755922065548612 0.6546616155057297 -5.917298054751776e-17 -2.640967965909048e-17 -5.917298054751776e-17 -2.640967965909048e-17 0.7559216648321573 0.6546620782031234
12649378666.666666 0.7607630618387118 0.649029709444522 -5.935819158123939e-17 -2.595916883637119e-17 -5.935819158123939e-17 -2.595916883637119e-17 0.7607626645889201 0.6490301750823443
12649996000.0 0.765562099297489 0.6433620070528518 -5.953997678239777e-17 -2.550736731256439e-17 -5.953997678239777e-17 -2.550736731256439e-17 0.7655617055359311 0.6433624756051359
12650613333.333334 0.7703189132407532 0.6376588209249806 -5.971832722197273e-17 -2.505430110817826e-17 -5.971832722197273e-17 -2.505430110817826e-17 0.7703185229888049 0.6376592923656008
12651230666.666666 0.7750332413130402 0.6319204656122911 -5.989323416834856e-17 -2.4599996304968816e-17 -5.989323416834856e-17 -2.4599996304968816e-17 0.7750328545918812 0.6319209399149649
12651848000.0 0.7797048235021884 0.6261472576058074 -6.00646890877365e-17 -2.4144479044426833e-17 -6.00646890877365e-17 -2.4144479044426833e-17 0.7797044403328025 0.6261477347440971
12652465333.333334 0.7843334021536272 0.6203395153188042 -6.023268364457305e-17 -2.3687775526294537e-17 -6.023268364457305e-17 -2.3687775526294537e-17 0.7843330225567993 0.6203399952661185
12653082666.666666 0.788918721984515 0.6144975590693357 -6.039720970191316e-17 -2.3229912007064176e-17 -6.039720970191316e-17 -2.3229912007064176e-17 0.788918345980832 0.6144980417989309
12653700000.0 0.7934605300980152 0.6086217110623231 -6.055825932181829e-17 -2.2770914798456756e-17 -6.055825932181829e-17 -2.2770914798456756e-17 0.793460157707863 0.6086221965473045
12654317333.333334 0.7979585759969956 0.6027122953720958 -6.071582476571787e-17 -2.231081026593963e-17 -6.071582476571787e-17 -2.231081026593963e-17 0.7979582072405595 0.6027127835854197
12654934666.666666 0.8024126115980221 0.5967696379242949 -6.086989849477465e-17 -2.1849624827200225e-17 -6.086989849477465e-17 -2.1849624827200225e-17 0.8024122464952851 0.5967701288387699
12655552000.0 0.8068223912450396 0.5907940664778965 -6.102047317023181e-17 -2.1387384950634536e-17 -6.102047317023181e-17 -2.1387384950634536e-17 0.8068220298157808 0.5907945600661846
12656169333.333334 0.8111876717227645 0.5847859106073369 -6.116754165374396e-17 -2.0924117153849213e-17 -6.116754165374396e-17 -2.0924117153849213e-17 0.8111873139865586 0.5847864068419555
12656786666.666666 0.8155082122702739 0.5787455016841113 -6.13110970077077e-17 -2.0459848002128338e-17 -6.13110970077077e-17 -2.0459848002128338e-17 0.8155078582464897 0.5787460005374341
12657404000.0 0.8197837745941957 0.5726731728586084 -6.145113249557183e-17 -1.999460410692414e-17 -6.145113249557183e-17 -1.999460410692414e-17 0.8197834243019958 0.5726736743028675
12658021333.333334 0.8240141228818846 0.5665692590416904 -6.158764158214021e-17 -1.952841212433358e-17 -6.158764158214021e-17 -1.952841212433358e-17 0.8240137763402243 0.5665697630489783
12658638666.666666 0.8281990238143513 0.5604340968863407 -6.17206179338594e-17 -1.9061298753585276e-17 -6.17206179338594e-17 -1.9061298753585276e-17 0.8281986810419761 0.5604346034286104
12659256000.0 0.8323382465793017 0.5542680247688345 -6.185005541910268e-17 -1.859329073549818e-17 -6.185005541910268e-17 -1.859329073549818e-17 0.8323379075947488 0.5542685338179031
12659873333.333334 0.8364315628836493 0.5480713827704096 -6.197594810843255e-17 -1.8124414850971965e-17 -6.197594810843255e-17 -1.8124414850971965e-17 0.8364312277052437 0.5480718942979572
12660490666.666666 0.8404787469662754 0.5418445126582457 -6.209829027485672e-17 -1.7654697919459915e-17 -6.209829027485672e-17 -1.7654697919459915e-17 0.8404784156121323 0.5418450266358201
12661108000.0 0.8444795756104226 0.5355877578667136 -6.221707639407703e-17 -1.7184166797422523e-17 -6.221707639407703e-17 -1.7184166797422523e-17 0.8444792480984425 0.5355882742657292
12661725333.333334 0.8484338281559552 0.529301463478502 -6.233230114471571e-17 -1.671284837682212e-17 -6.233230114471571e-17 -1.671284837682212e-17 0.8484335045038264 0.5293019822702427
12662342666.666666 0.8523412865116247 0.5229859762054426 -6.244395940854135e-17 -1.624076958357167e-17 -6.244395940854135e-17 -1.624076958357167e-17 0.852340966736821 0.5229864973610636
12662960000.0 0.8562017351670381 0.5166416443694855 -6.25520462706771e-17 -1.5767957376009077e-17 -6.25520462706771e-17 -1.5767957376009077e-17 0.8562014192868163 0.5166421678600133
12663577333.333334 0.8600149612045537 0.510268817883459 -6.265655701979697e-17 -1.5294438743368244e-17 -6.265655701979697e-17 -1.5294438743368244e-17 0.8600146492359554 0.5102693436797955
12664194666.666666 0.8637807543110303 0.5038678482317762 -6.27574871483153e-17 -1.4820240704233152e-17 -6.27574871483153e-17 -1.4820240704233152e-17 0.8637804462708797 0.5038683763046982
12664812000.0 0.867498906789424 0.4974390884510456 -6.28548323525598e-17 -1.4345390305008637e-17 -6.28548323525598e-17 -1.4345390305008637e-17 0.8674986026943264 0.49743961877120746
12665429333.333334 0.8711692135702571 0.4909828931105768 -6.294858853293568e-17 -1.386991461837944e-17 -6.294858853293568e-17 -1.386991461837944e-17 0.8711689134365992 0.4909834256485118
12666046666.666666 0.8747914722228608 0.48449961829294824 -6.303875179407576e-17 -1.3393840741781008e-17 -6.303875179407576e-17 -1.3393840741781008e-17 0.8747911760668087 0.48450015301906996
12666664000.0 0.8783654829666894 0.4779896215740946 -6.31253184449846e-17 -1.2917195795840739e-17 -6.31253184449846e-17 -1.2917195795840739e-17 0.8783651908041892 0.4779901584586994
12667281333.333334 0.8818910486821505 0.47145326200393467 -6.320828499916189e-17 -1.2440006922863365e-17 -6.320828499916189e-17 -1.2440006922863365e-17 0.8818907605289248 0.47145380101720186
12667898666.666666 0.8853679749216198 0.464890900086291 -6.328764817472333e-17 -1.1962301285272689e-17 -6.328764817472333e-17 -1.1962301285272689e-17 0.8853676907931712 0.46489144119828696
12668516000.0 0.8887960699201086 0.4583028977591371 -6.336340489450577e-17 -1.1484106064070669e-17 -6.336340489450577e-17 -1.1484106064070669e-17 0.8887957898317135 0.45830344093981357
12669133333.333334 0.8921751446058553 0.45168961837457905 -6.343555228615838e-17 -1.1005448457312365e-17 -6.343555228615838e-17 -1.1005448457312365e-17 0.8921748685725679 0.45169016359377795
12669750666.666666 0.8955050126107109 0.44505142667892117 -6.350408768222778e-17 -1.0526355678546159e-17 -6.350408768222778e-17 -1.0526355678546159e-17 0.8955047406473584 0.44505197390637413
12670368000.0 0.898785490280501 0.4383886887923685 -6.356900862022774e-17 -1.0046854955279066e-17 -6.356900862022774e-17 -1.0046854955279066e-17 0.8987852224016865 0.4383892379976998
