! Parameters = {f0=12700.012000; bw=77.238000; Q=6100.000000; N=10; m_0_1=1.213909; m_1_1=-0.556112; m_1_2=1.048721; m_2_2=-0.556761; m_2_3=0.685684; m_2_8=-0.002241; m_2_9=0.034463; m_3_3=-0.558698; m_3_4=0.574213; m_3_7=-0.001641; m_3_8=-0.098729; m_3_9=-0.002241; m_4_4=-0.561623; m_4_5=0.410548; m_4_6=0.001876; m_4_7=-0.119278; m_4_8=-0.001641; m_5_5=-0.561241; m_5_6=0.817903; m_5_7=0.001876; m_6_6=-0.561242; m_6_7=0.410890; m_7_7=-0.561609; m_7_8=0.574331; m_8_8=-0.558700; m_8_9=0.685997; m_9_9=-0.556766; m_9_10=1.049799; m_10_10=-0.556122; m_10_11=1.214704}
!
! Created with skrf (http://scikit-rf.org).
# Hz S RI R 50.0 
!freq ReS11 ImS11 ReS21 ImS21 ReS12 ImS12 ReS22 ImS22
12607400000.0 -0.9954714577281797 -0.09506091125364252 8.26909738674973e-17 -1.614372172858467e-17 8.26909738674973e-17 -1.614372172858467e-17 -0.9954713969215268 -0.09506154801465352
12608017333.333334 -0.996275023928962 -0.08623268924940758 8.252695286393638e-17 -1.688012623389663e-17 8.252695286393638e-17 -1.688012623389663e-17 -0.9962749687720515 -0.08623332649322164
12608634666.666666 -0.9970002996277891 -0.07739769080493814 8.235637937804577e-17 -1.7614888922139152e-17 8.235637937804577e-17 -1.7614888922139152e-17 -0.9970002501244011 -0.0773983284814337
12609252000.0 -0.9976472278302267 -0.06855661020282955 8.2179269649125e-17 -1.8347951539763387e-17 8.2179269649125e-17 -1.8347951539763387e-17 -0.997647183983697 -0.068557248261856
12609869333.333334 -0.9982157576986301 -0.05971014220371666 8.199564043391318e-17 -1.9079255992288182e-17 8.199564043391318e-17 -1.9079255992288182e-17 -0.9982157195118508 -0.059710780595098274
12610486666.666666 -0.9987058445561509 -0.050858981991621054 8.180550900504826e-17 -1.9808744348873657e-17 8.180550900504826e-17 -1.9808744348873657e-17 -0.9987058120315682 -0.05085962066516088
12611104000.0 -0.9991174498902538 -0.042003825119093834 8.160889314947634e-17 -2.0536358846917003e-17 8.160889314947634e-17 -2.0536358846917003e-17 -0.999117423029869 -0.04200446402457766
12611721333.333334 -0.9994505413557192 -0.03314536745303942 8.14058111668302e-17 -2.1262041896596002e-17 8.14058111668302e-17 -2.1262041896596002e-17 -0.9994505201610897 -0.03314600654023981
12612338666.666666 -0.9997050927772143 -0.02428430511954979 8.119628186775787e-17 -2.1985736085431522e-17 8.119628186775787e-17 -2.1985736085431522e-17 -0.9997050772494491 -0.024284944338229822
12612956000.0 -0.9998810841513294 -0.015421334449427344 8.098032457221719e-17 -2.2707384182810997e-17 8.098032457221719e-17 -2.2707384182810997e-17 -0.9998810742910944 -0.015421973749344753
12613573333.333334 -0.9999785016481557 -0.006557151923522106 8.075795910773012e-17 -2.3426929144497886e-17 8.075795910773012e-17 -2.3426929144497886e-17 -0.9999784974556711 -0.0065577912544331545
12614190666.666666 -0.999997337612376 0.00230754588219894 8.052920580759386e-17 -2.4144314117133597e-17 8.052920580759386e-17 -2.4144314117133597e-17 -0.9999973390874164 0.0023069065705355104
12614808000.0 -0.9999375905638614 0.011172062351163714 8.029408550905259e-17 -2.4859482442722436e-17 8.029408550905259e-17 -2.4859482442722436e-17 -0.9999375977057562 0.011171423108982727
12615425333.333334 -0.9997992651977893 0.020035700881164756 8.005261955143176e-17 -2.557237766308979e-17 8.005261955143176e-17 -2.557237766308979e-17 -0.9997992780054223 0.020035061758690666
12616042666.666666 -0.9995823723842756 0.028897764938873118 7.980482977423434e-17 -2.6282943524320576e-17 7.980482977423434e-17 -2.6282943524320576e-17 -0.999582390856086 0.02889712598631605
12616660000.0 -0.9992869291675184 0.03775755811477315 7.955073851519062e-17 -2.6991123981199838e-17 7.955073851519062e-17 -2.6991123981199838e-17 -0.9992869533015005 0.03775691938232498
12617277333.333334 -0.9989129587644567 0.0466143841778317 7.929036860827484e-17 -2.769686320161676e-17 7.929036860827484e-17 -2.769686320161676e-17 -0.9989129885581595 0.04661374571566204
12617894666.666666 -0.9984604905629577 0.05546754712998298 7.902374338168845e-17 -2.8400105570936616e-17 7.902374338168845e-17 -2.8400105570936616e-17 -0.9984605260134874 0.05546690898823543
12618512000.0 -0.9979295601194842 0.06431635126133357 7.875088665578223e-17 -2.910079569641165e-17 7.875088665578223e-17 -2.910079569641165e-17 -0.9979296012235012 0.06431571349012154
12619129333.333334 -0.9973202091563322 0.07316010120420899 7.847182274097396e-17 -2.9798878411483093e-17 7.847182274097396e-17 -2.9798878411483093e-17 -0.9973202559100519 0.07315946385361176
12619746666.666666 -0.9966324855583223 0.08199810198828013 7.818657643559451e-17 -3.049429878015053e-17 7.818657643559451e-17 -3.049429878015053e-17 -0.9966325379575192 0.08199746510833927
12620364000.0 -0.9958664433690438 0.09082965909509137 7.789517302371228e-17 -3.1187002101276244e-17 7.789517302371228e-17 -3.1187002101276244e-17 -0.995866501409048 0.09082902273580645
12620981333.333334 -0.9950221427866333 0.09965407851229785 7.759763827292817e-17 -3.187693391284941e-17 7.759763827292817e-17 -3.187693391284941e-17 -0.9950222064623326 0.0996534427236227
12621598666.666666 -0.9940996501590056 0.108470666788685 7.72939984321077e-17 -3.2564039996291367e-17 7.72939984321077e-17 -3.2564039996291367e-17 -0.994099719464844 0.10847003162052354
12622216000.0 -0.9930990379786695 0.11727873108829366 7.698428022909659e-17 -3.324826638068656e-17 7.698428022909659e-17 -3.324826638068656e-17 -0.9930991129086508 0.1172780965904964
12622833333.333334 -0.9920203848770096 0.12607757924512045 7.666851086839303e-17 -3.392955934700754e-17 7.666851086839303e-17 -3.392955934700754e-17 -0.9920204654246954 0.1260769454674802
12623450666.666666 -0.9908637756181251 0.13486651981731212 7.634671802877894e-17 -3.460786543232706e-17 7.634671802877894e-17 -3.460786543232706e-17 -0.9908638617766368 0.13486588680956033
12624068000.0 -0.9896293010921678 0.1436448621415584 7.601892986091937e-17 -3.5283131433994565e-17 7.601892986091937e-17 -3.5283131433994565e-17 -0.989629392854186 0.14364422995336107
12624685333.333334 -0.9883170583081627 0.1524119163875912 7.568517498491473e-17 -3.595530441381428e-17 7.568517498491473e-17 -3.595530441381428e-17 -0.98831715566593 0.15241128506854532
12625302666.666666 -0.9869271503864633 0.1611669936118878 7.534548248783739e-17 -3.6624331702155165e-17 7.534548248783739e-17 -3.6624331702155165e-17 -0.9869272533317806 0.1611663632115168
12625920000.0 -0.9854596865505494 0.1699094058124281 7.499988192120569e-17 -3.729016090209123e-17 7.499988192120569e-17 -3.729016090209123e-17 -0.9854597950747812 0.1699087763801787
12626537333.333334 -0.9839147821185207 0.17863846598228275 7.464840329844361e-17 -3.795273989347603e-17 7.464840329844361e-17 -3.795273989347603e-17 -0.9839148962125941 0.17863783756752072
12627154666.666666 -0.982292558494026 0.18735348816368544 7.429107709229213e-17 -3.86120168370165e-17 7.429107709229213e-17 -3.86120168370165e-17 -0.9822926781484302 0.18735286081569155
12627772000.0 -0.9805931431566526 0.19605378750230024 7.392793423218434e-17 -3.92679401783226e-17 7.392793423218434e-17 -3.92679401783226e-17 -0.9805932683614417 0.1960531612702669
12628389333.333334 -0.9788166696520237 0.20473868030042564 7.35590061015974e-17 -3.9920458651912e-17 7.35590061015974e-17 -3.9920458651912e-17 -0.9788168003968174 0.20473805523345273
12629006666.666666 -0.9769632775811908 0.21340748407133603 7.318432453535189e-17 -4.056952128521873e-17 7.318432453535189e-17 -4.056952128521873e-17 -0.9769634138551718 0.21340686021842672
12629624000.0 -0.9750331125897299 0.22205951759252152 7.280392181688962e-17 -4.1215077402554336e-17 7.280392181688962e-17 -4.1215077402554336e-17 -0.9750332543816507 0.22205889500257942
12630241333.333334 -0.9730263263562889 0.23069410095930634 7.241783067550809e-17 -4.1857076629058007e-17 7.241783067550809e-17 -4.1857076629058007e-17 -0.9730264736544691 0.23069347968113088
12630858666.666666 -0.9709430765806643 0.2393105556383059 7.202608428357478e-17 -4.2495468894596555e-17 7.202608428357478e-17 -4.2495468894596555e-17 -0.9709432293729882 0.23930993572058784
12631476000.0 -0.9687835269713759 0.2479082045208283 7.162871625367544e-17 -4.313020443769151e-17 7.162871625367544e-17 -4.313020443769151e-17 -0.968783685245302 0.24790758601214782
12632093333.333334 -0.9665478472328566 0.2564863719759211 7.122576063576852e-17 -4.376123380935262e-17 7.122576063576852e-17 -4.376123380935262e-17 -0.9665480109754115 0.2564857549247425
12632710666.666666 -0.9642362130520871 0.2650443839035456 7.081725191428265e-17 -4.4388507876923857e-17 7.081725191428265e-17 -4.4388507876923857e-17 -0.9642363822498696 0.2650437683582139
12633328000.0 -0.9618488060847792 0.27358156778760556 7.040322500516855e-17 -4.501197782792008e-17 7.040322500516855e-17 -4.501197782792008e-17 -0.9618489807239612 0.27358095379634273
12633945333.333334 -0.9593858139411133 0.2820972527487398 6.998371525295464e-17 -4.5631595173778697e-17 6.998371525295464e-17 -4.5631595173778697e-17 -0.9593859940074394 0.282096640359641
12634562666.666666 -0.9568474301710204 0.2905907695969612 6.955875842773227e-17 -4.6247311753641906e-17 6.955875842773227e-17 -4.6247311753641906e-17 -0.9568476156498102 0.2905901588579909
12635180000.0 -0.9542338542489136 0.29906145088443353 6.912839072212858e-17 -4.685907973807911e-17 6.912839072212858e-17 -4.685907973807911e-17 -0.9542340451250642 0.29906084184342213
12635797333.333334 -0.9515452915580741 0.30750863095773234 6.869264874824446e-17 -4.746685163278558e-17 6.869264874824446e-17 -4.746685163278558e-17 -0.9515454878160587 0.30750802366237195
12636414666.666666 -0.9487819533744846 0.31593164601023516 6.825156953455449e-17 -4.807058028226067e-17 6.825156953455449e-17 -4.807058028226067e-17 -0.9487821549983558 0.3159310405080761
12637032000.0 -0.9459440568501998 0.3243298341343666 6.780519052277353e-17 -4.867021887345913e-17 6.780519052277353e-17 -4.867021887345913e-17 -0.9459442638235892 0.3243292304728134
12637649333.333334 -0.943031824996344 0.332702535373424 6.73535495647047e-17 -4.926572093939435e-17 6.73535495647047e-17 -4.926572093939435e-17 -0.9430320373024655 0.3327019335997324
12638266666.666666 -0.9400454866655154 0.3410490917736549 6.689668491903575e-17 -4.985704036274149e-17 6.689668491903575e-17 -4.985704036274149e-17 -0.9400457042871643 0.3410484919349272
12638884000.0 -0.9369852765338732 0.34936884743574587 6.643463524812581e-17 -5.0444131379380425e-17 6.643463524812581e-17 -5.0444131379380425e-17 -0.9369854994534306 0.3493682495789282
12639501333.333334 -0.9338514350826231 0.35766114856657966 6.596743961473866e-17 -5.1026948581939305e-17 6.596743961473866e-17 -5.1026948581939305e-17 -0.9338516632820548 0.35766055273845787
12640118666.666666 -0.9306442085792072 0.3659253435303725 6.549513747876993e-17 -5.1605446923276656e-17 6.549513747876993e-17 -5.1605446923276656e-17 -0.9306444420400649 0.3659247497775679
12640736000.0 -0.9273638490578173 0.3741607829002266 6.501776869391054e-17 -5.2179581719973215e-17 6.501776869391054e-17 -5.2179581719973215e-17 -0.9273640877612416 0.37416019126919303
12641353333.333334 -0.9240106142997658 0.38236681950871315 6.453537350432764e-17 -5.274930865573748e-17 6.453537350432764e-17 -5.274930865573748e-17 -0.9240108582264887 0.38236623004573383
12641970666.666666 -0.9205847678130981 0.39054280849907563 6.40479925412598e-17 -5.331458378484519e-17 6.40479925412598e-17 -5.331458378484519e-17 -0.9205850169434401 0.390542221250258
12642588000.0 -0.9170865788119058 0.398688107375821 6.355566681963046e-17 -5.3875363535491984e-17 6.355566681963046e-17 -5.3875363535491984e-17 -0.9170868331257838 0.39868752238709476
12643205333.333334 -0.913516322195204 0.40680207605516017 6.305843773460004e-17 -5.443160471315293e-17 6.305843773460004e-17 -5.443160471315293e-17 -0.9135165816721271 0.4068014933722726
12643822666.666666 -0.9098742785253089 0.414884076915332 6.255634705810637e-17 -5.498326450388827e-17 6.255634705810637e-17 -5.498326450388827e-17 -0.9098745431443841 0.414883496583845
12644440000.0 -0.9061607340057739 0.4229334748467631 6.204943693536824e-17 -5.55303004776289e-17 6.204943693536824e-17 -5.55303004776289e-17 -0.9061610037457041 0.4229328969120484
12645057333.333334 -0.9023759804589732 0.43094963730179225 6.153774988136571e-17 -5.607267059142199e-17 6.153774988136571e-17 -5.607267059142199e-17 -0.9023762552980638 0.43094906180903036
12645674666.666666 -0.8985203153030981 0.43893193434456507 6.102132877729451e-17 -5.661033319264349e-17 6.102132877729451e-17 -5.661033319264349e-17 -0.898520595219253 0.4389313613387387
12646292000.0 -0.8945940415287227 0.446879738700632 6.05002168669664e-17 -5.714324702220499e-17 6.05002168669664e-17 -5.714324702220499e-17 -0.8945943264994521 0.4468791682265256
12646909333.333334 -0.8905974676752015 0.45479242580583706 5.997445775322863e-17 -5.767137121767821e-17 5.997445775322863e-17 -5.767137121767821e-17 -0.8905977576776182 0.4547918579080303
12647526666.666666 -0.886530907806205 0.46266937385582874 5.94440953943193e-17 -5.819466531642614e-17 5.94440953943193e-17 -5.819466531642614e-17 -0.8865312028170298 0.46266880857869547
12648144000.0 -0.8823946814851571 0.47050996385469696 5.890917410019792e-17 -5.871308925869688e-17 5.890917410019792e-17 -5.871308925869688e-17 -0.8823949814807187 0.4705094012424001
12648761333.333334 -0.8781891137500787 0.4783135796636883 5.836973852886982e-17 -5.922660339066424e-17 5.836973852886982e-17 -5.922660339066424e-17 -0.8781894187063171 0.47831301976017754
12649378666.666666 -0.8739145350880911 0.48607960804955236 5.782583368267753e-17 -5.973516846744143e-17 5.782583368267753e-17 -5.973516846744143e-17 -0.8739148449805587 0.48607905089856007
12649996000.0 -0.8695712814094153 0.49380743873277966 5.727750490454026e-17 -6.023874565608533e-17 5.727750490454026e-17 -6.023874565608533e-17 -0.8695715962132797 0.49380688437781806
12650613333.333334 -0.8651596940209209 0.5014964644356598 5.672479787420684e-17 -6.07372965385289e-17 5.672479787420684e-17 -6.07372965385289e-17 -0.8651600137109657 0.5014959129200168
12651230666.666666 -0.8606801195994723 0.5091460809297056 5.61677586044595e-17 -6.123078311450228e-17 5.61677586044595e-17 -6.123078311450228e-17 -0.8606804441500993 0.5091455322964418
12651848000.0 -0.8561329101644458 0.5167556870835549 5.560643343728475e-17 -6.171916780442516e-17 5.560643343728475e-17 -6.171916780442516e-17 -0.8561332395496779 0.5167551413755003
12652465333.333334 -0.8515184230502358 0.5243246849099131 5.5040869040053235e-17 -6.220241345223448e-17 5.5040869040053235e-17 -6.220241345223448e-17 -0.8515187572437181 0.5243241421696636
12653082666.666666 -0.8468370208782225 0.5318524796124745 5.447111240164341e-17 -6.268048332820574e-17 5.447111240164341e-17 -6.268048332820574e-17 -0.846837359853225 0.5318519398823888
12653700000.0 -0.8420890715280214 0.5393384796330738 5.389721082853831e-17 -6.315334113173957e-17 5.389721082853831e-17 -6.315334113173957e-17 -0.8420894152574409 0.5393379429552695
12654317333.333334 -0.8372749481089055 0.5467820966976429 5.331921194094237e-17 -6.362095099407713e-17 5.331921194094237e-17 -6.362095099407713e-17 -0.8372752965652679 0.546781563113994
12654934666.666666 -0.832395028930212 0.5541827458628709 5.273716366881295e-17 -6.408327748103091e-17 5.273716366881295e-17 -6.408327748103091e-17 -0.8323953820856755 0.5541822154150046
12655552000.0 -0.8274496974717364 0.5615398455619804 5.215111424791355e-17 -6.454028559564197e-17 5.215111424791355e-17 -6.454028559564197e-17 -0.8274500552980908 0.5615393182912726
12656169333.333334 -0.822439342353626 0.5688528176503798 5.1561112215833865e-17 -6.499194078081039e-17 5.1561112215833865e-17 -6.499194078081039e-17 -0.8224397048222981 0.5688522935979531
12656786666.666666 -0.8173643573057338 0.5761210874512624 5.096720640797014e-17 -6.543820892190263e-17 5.096720640797014e-17 -6.543820892190263e-17 -0.8173647243877884 0.5761205666579828
12657404000.0 -0.8122251411368056 0.5833440838005793 5.0369445953511116e-17 -6.58790563493003e-17 5.0369445953511116e-17 -6.58790563493003e-17 -0.8122255128029469 0.5833435663070522
12658021333.333334 -0.8070220977030078 0.5905212390921079 4.976788027137235e-17 -6.631444984093577e-17 4.976788027137235e-17 -6.631444984093577e-17 -0.8070224739235838 0.5905207249386758
12658638666.666666 -0.8017556358763245 0.5976519893218708 4.9162559066138814e-17 -6.674435662476793e-17 4.9162559066138814e-17 -6.674435662476793e-17 -0.8017560166213283 0.5976514785486106
12659256000.0 -0.796426169512314 0.6047357741326236 4.855353232395774e-17 -6.71687443812419e-17 4.855353232395774e-17 -6.71687443812419e-17 -0.7964265547513846 0.6047352667793404
12659873333.333334 -0.7910341174176106 0.6117720368578333 4.794085030842783e-17 -6.758758124569923e-17 4.794085030842783e-17 -6.758758124569923e-17 -0.7910345071200382 0.611771532964062
12660490666.666666 -0.7855799033171602 0.6187602245652513 4.732456355647932e-17 -6.800083581074259e-17 4.732456355647932e-17 -6.800083581074259e-17 -0.7855802974518877 0.6187597241702503
12661108000.0 -0.7800639558206083 0.6256997881007673 4.670472287418544e-17 -6.840847712859649e-17 4.670472287418544e-17 -6.840847712859649e-17 -0.7800643543562309 0.6256992912435151
12661725333.333334 -0.7744867083889982 0.6325901821310667 4.6081379332620056e-17 -6.881047471338504e-17 4.6081379332620056e-17 -6.881047471338504e-17 -0.7744871112937709 0.6325896888502615
12662342666.666666 -0.7688485993003977 0.6394308651868912 4.5454584263646636e-17 -6.920679854340452e-17 4.5454584263646636e-17 -6.920679854340452e-17 -0.7688490065422351 0.6394303755209465
12662960000.0 -0.7631500716155966 0.6462212997054098 4.4824389255702204e-17 -6.959741906334933e-17 4.4824389255702204e-17 -6.959741906334933e-17 -0.7631504831620745 0.6462208136924505
12663577333.333334 -0.7573915731433261 0.652960952072418 4.4190846149567744e-17 -6.998230718649511e-17 4.4190846149567744e-17 -6.998230718649511e-17 -0.7573919889616848 0.6529604697502778
12664194666.666666 -0.751573556404939 0.6596492926644221 4.3554007034122316e-17 -7.036143429684273e-17 4.3554007034122316e-17 -7.036143429684273e-17 -0.751573976462088 0.6596488140706424
12664812000.0 -0.7456964785990008 0.6662857958900893 4.2913924242059206e-17 -7.073477225123622e-17 4.2913924242059206e-17 -7.073477225123622e-17 -0.7456969028615194 0.6662853210619143
12665429333.333334 -0.7397608015652101 0.6728699402317198 4.227065034561173e-17 -7.110229338142441e-17 4.227065034561173e-17 -7.110229338142441e-17 -0.7397612299993493 0.6728694692060937
12666046666.666666 -0.7337669917482558 0.6794012082860584 4.1624238152244063e-17 -7.146397049609518e-17 4.1624238152244063e-17 -7.146397049609518e-17 -0.7337674243199428 0.6794007410996233
12666664000.0 -0.7277155201610099 0.6858790868051238 4.0974740700312125e-17 -7.181977688287732e-17 4.0974740700312125e-17 -7.181977688287732e-17 -0.7277159568358509 0.6858786234942171
12667281333.333334 -0.7216068623476517 0.6923030667363951 4.032221125475887e-17 -7.216968631027396e-17 4.032221125475887e-17 -7.216968631027396e-17 -0.7216073030909326 0.6923026073370456
12667898666.666666 -0.7154414983462559 0.6986726432628555 3.966670330272578e-17 -7.251367302959562e-17 3.966670330272578e-17 -7.251367302959562e-17 -0.7154419431229463 0.6986721878107808
12668516000.0 -0.709219912650932 0.7049873158428053 3.900827054918675e-17 -7.285171177683089e-17 3.900827054918675e-17 -7.285171177683089e-17 -0.7092203614256898 0.704986864373411
12669133333.333334 -0.7029425941739923 0.711246588248955 3.834696691258545e-17 -7.318377777446879e-17 3.834696691258545e-17 -7.318377777446879e-17 -0.702943046911162 0.7112461407973277
12669750666.666666 -0.6966100362073869 0.7174499686075569 3.76828465203968e-17 -7.350984673331269e-17 3.76828465203968e-17 -7.350984673331269e-17 -0.6966104928710068 0.7174495252084658
12670368000.0 -0.6902227363838825 0.7235969694371215 3.701596370473371e-17 -7.382989485422291e-17 3.701596370473371e-17 -7.382989485422291e-17 -0.6902231969376862 0.7235965301250141
