! Parameters = {f0=12700.012000; bw=77.238000; Q=6100.000000; N=10; m_0_1=1.245741; m_1_1=-0.078635; m_1_2=1.080553; m_2_2=-0.079284; m_2_3=0.717516; m_2_8=-0.000649; m_2_9=0.036055; m_3_3=-0.081221; m_3_4=0.606045; m_3_7=-0.000049; m_3_8=-0.097137; m_3_9=-0.000649; m_4_4=-0.084146; m_4_5=0.442380; m_4_6=0.003468; m_4_7=-0.117686; m_4_8=-0.000049; m_5_5=-0.083764; m_5_6=0.849735; m_5_7=0.003468; m_6_6=-0.083765; m_6_7=0.442722; m_7_7=-0.084132; m_7_8=0.606163; m_8_8=-0.081223; m_8_9=0.717829; m_9_9=-0.079289; m_9_10=1.081631; m_10_10=-0.078645; m_10_11=1.246536}
!
! Created with skrf (http://scikit-rf.org).
# Hz S RI R 50.0 
!freq ReS11 ImS11 ReS21 ImS21 ReS12 ImS12 ReS22 ImS22
12607400000.0 -0.9593735604249065 0.2821389224433048 8.272079454489831e-17 -5.349320176200028e-17 8.272079454489831e-17 -5.349320176200028e-17 -0.9593737456133086 0.2821382927355327
12608017333.333334 -0.9565608895857036 0.2915326131238778 8.217137146712018e-17 -5.4298412096714225e-17 8.217137146712018e-17 -5.4298412096714225e-17 -0.9565610809305104 0.2915319852930103
12608634666.666666 -0.9536562429862653 0.30089827220034304 8.161411822443629e-17 -5.509799076257422e-17 8.161411822443629e-17 -5.509799076257422e-17 -0.9536564404684754 0.3008976463065606
12609252000.0 -0.9506598999158207 0.31023499914076874 8.104909243317056e-17 -5.589186169441676e-17 8.104909243317056e-17 -5.589186169441676e-17 -0.9506601035158455 0.3102343752440598
12609869333.333334 -0.947572148480431 0.3195418961951768 8.04763524477812e-17 -5.667994941550034e-17 8.04763524477812e-17 -5.667994941550034e-17 -0.9475723581780975 0.3195412743553328
12610486666.666666 -0.9443932855753532 0.3288180684816767 7.989595735487945e-17 -5.74621790446353e-17 7.989595735487945e-17 -5.74621790446353e-17 -0.9443935013498999 0.32881744875828395
12611104000.0 -0.9411236168563453 0.3380626240729105 7.930796696713803e-17 -5.823847630330975e-17 7.930796696713803e-17 -5.823847630330975e-17 -0.9411238386864325 0.33806200652534735
12611721333.333334 -0.937763456710471 0.34727467408127916 7.871244181717238e-17 -5.900876752269697e-17 7.871244181717238e-17 -5.900876752269697e-17 -0.9377636845741775 0.34727405876870854
12612338666.666666 -0.9343131282257486 0.3564533327447608 7.810944315132898e-17 -5.977297965063436e-17 7.810944315132898e-17 -5.977297965063436e-17 -0.9343133621005743 0.3564527197261246
12612956000.0 -0.9307729631600459 0.36559771751215514 7.749903292340703e-17 -6.053104025853657e-17 7.749903292340703e-17 -6.053104025853657e-17 -0.9307732030229171 0.36559710684616964
12613573333.333334 -0.9271433019093414 0.3747069491275477 7.688127378833051e-17 -6.128287754822596e-17 7.688127378833051e-17 -6.128287754822596e-17 -0.9271435477366083 0.3747063408726964
12614190666.666666 -0.9234244934748549 0.38378015171519525 7.625622909573505e-17 -6.202842035871968e-17 7.625622909573505e-17 -6.202842035871968e-17 -0.923424745242299 0.38377954592972474
12614808000.0 -0.9196168954295143 0.3928164528636909 7.562396288350077e-17 -6.276759817293912e-17 7.562396288350077e-17 -6.276759817293912e-17 -0.9196171531123465 0.3928158496056043
12615425333.333334 -0.915720873883625 0.4018149837097174 7.498453987120979e-17 -6.350034112436697e-17 7.498453987120979e-17 -6.350034112436697e-17 -0.9157211374564914 0.4018143830367696
12616042666.666666 -0.9117368034496383 0.41077487902166965 7.433802545355848e-17 -6.422658000361365e-17 7.433802545355848e-17 -6.422658000361365e-17 -0.9117370728866193 0.41077428099136054
12616660000.0 -0.9076650672060919 0.4196952772829252 7.368448569368027e-17 -6.494624626494989e-17 7.368448569368027e-17 -6.494624626494989e-17 -0.9076653424807092 0.419694681952496
12617277333.333334 -0.9035060566608389 0.42857532077455346 7.302398731643008e-17 -6.565927203274107e-17 7.302398731643008e-17 -6.565927203274107e-17 -0.9035063377460539 0.42857472820097964
12617894666.666666 -0.8992601717134259 0.43741415565773584 7.235659770160038e-17 -6.636559010782305e-17 7.235659770160038e-17 -6.636559010782305e-17 -0.8992604585816444 0.43741356589772235
12618512000.0 -0.8949278206164708 0.44621093205622325 7.168238487704505e-17 -6.706513397384165e-17 7.168238487704505e-17 -6.706513397384165e-17 -0.8949281132395451 0.44621034516619884
12619129333.333334 -0.890509419936655 0.4549648041375424 7.100141751180688e-17 -6.775783780345298e-17 7.100141751180688e-17 -6.775783780345298e-17 -0.8905097182858865 0.4549642201736544
12619746666.666666 -0.8860053945145089 0.46367493019465716 7.031376490912293e-17 -6.844363646452214e-17 7.031376490912293e-17 -6.844363646452214e-17 -0.8860056985606515 0.46367434921276585
12620364000.0 -0.8814161774235195 0.4723404727269749 6.961949699938839e-17 -6.912246552622971e-17 6.961949699938839e-17 -6.912246552622971e-17 -0.881416487136783 0.47233989478264893
12620981333.333334 -0.8767422099286875 0.48096059852049605 6.891868433309812e-17 -6.979426126507267e-17 6.891868433309812e-17 -6.979426126507267e-17 -0.8767425252787385 0.48096002366900625
12621598666.666666 -0.8719839414439114 0.48953447872828265 6.821139807367459e-17 -7.045896067084842e-17 6.821139807367459e-17 -7.045896067084842e-17 -0.8719842623998801 0.4895339070245979
12622216000.0 -0.8671418294888761 0.4980612889499803 6.749770999026904e-17 -7.111650145253788e-17 6.749770999026904e-17 -7.111650145253788e-17 -0.8671421560193533 0.49806072044875993
12622833333.333334 -0.8622163396449671 0.5065402093112309 6.6777692450509e-17 -7.176682204411092e-17 6.6777692450509e-17 -7.176682204411092e-17 -0.8622166717180125 0.5065396440668221
12623450666.666666 -0.857207945510652 0.5149704245422622 6.605141841318574e-17 -7.240986161026604e-17 6.605141841318574e-17 -7.240986161026604e-17 -0.8572082830937958 0.5149698626086934
12624068000.0 -0.8521171286558291 0.5233511240564749 6.531896142086694e-17 -7.304556005211186e-17 6.531896142086694e-17 -7.304556005211186e-17 -0.8521174717160745 0.5233505654874512
12624685333.333334 -0.8469443785754609 0.5316815020284782 6.458039559248227e-17 -7.367385801275053e-17 6.458039559248227e-17 -7.367385801275053e-17 -0.8469447270792871 0.5316809468773754
12625302666.666666 -0.841690192642743 0.5399607574711828 6.383579561586026e-17 -7.429469688278295e-17 6.383579561586026e-17 -7.429469688278295e-17 -0.8416905465561105 0.5399602057910436
12625920000.0 -0.8363550760610177 0.5481880943132564 6.308523674015925e-17 -7.49080188057841e-17 6.308523674015925e-17 -7.49080188057841e-17 -0.8363554353493697 0.5481875461567844
12626537333.333334 -0.8309395418153582 0.5563627214753997 6.232879476832712e-17 -7.551376668363385e-17 6.232879476832712e-17 -7.551376668363385e-17 -0.8309399064436237 0.5563621768949537
12627154666.666666 -0.8254441106232464 0.5644838529464131 6.156654604944814e-17 -7.611188418182383e-17 6.156654604944814e-17 -7.611188418182383e-17 -0.8254444805558456 0.5644833119940045
12627772000.0 -0.8198693108843645 0.572550707858987 6.079856747103866e-17 -7.670231573468648e-17 6.079856747103866e-17 -7.670231573468648e-17 -0.8198696860852103 0.572550170586272
12628389333.333334 -0.8142156786299607 0.5805625105645238 6.00249364513568e-17 -7.728500655049744e-17 6.00249364513568e-17 -7.728500655049744e-17 -0.8142160590624629 0.5805619770228002
12629006666.666666 -0.8084837574711637 0.5885184907079297 5.924573093157985e-17 -7.785990261656484e-17 5.924573093157985e-17 -7.785990261656484e-17 -0.8084841430982327 0.5885179609481312
12629624000.0 -0.8026740985468444 0.5964178833014999 5.84610293679905e-17 -7.842695070419635e-17 5.84610293679905e-17 -7.842695070419635e-17 -0.802674489330896 0.5964173573741929
12630241333.333334 -0.7967872604704729 0.6042599287986825 5.767091072409852e-17 -7.898609837360123e-17 5.767091072409852e-17 -7.898609837360123e-17 -0.7967876563734301 0.6042594067540589
12630858666.666666 -0.7908238092766104 0.6120438731668365 5.687545446272272e-17 -7.95372939787086e-17 5.687545446272272e-17 -7.95372939787086e-17 -0.7908242102599067 0.6120433550547097
12631476000.0 -0.7847843183662226 0.6197689679600722 5.6074740537988e-17 -8.008048667193293e-17 5.6074740537988e-17 -8.008048667193293e-17 -0.7847847243908087 0.6197684538298739
12632093333.333334 -0.778669368451812 0.627434470390882 5.5268849387353075e-17 -8.061562640880718e-17 5.5268849387353075e-17 -8.061562640880718e-17 -0.7786697794781559 0.6274339602916549
12632710666.666666 -0.7724795475014008 0.6350396434017826 5.44578619235301e-17 -8.114266395258034e-17 5.44578619235301e-17 -8.114266395258034e-17 -0.7724799634894941 0.6350391373821773
12633328000.0 -0.7662154506820135 0.6425837557361611 5.36418595263627e-17 -8.166155087873155e-17 5.36418595263627e-17 -8.166155087873155e-17 -0.7662158715913757 0.6425832538444325
12633945333.333334 -0.7598776803025618 0.6500660820084588 5.282092403471739e-17 -8.217223957936657e-17 5.282092403471739e-17 -8.217223957936657e-17 -0.7598781060922429 0.6500655842924593
12634562666.666666 -0.753466845755783 0.6574859027740915 5.199513773826575e-17 -8.267468326757679e-17 5.199513773826575e-17 -8.267468326757679e-17 -0.7534672763843664 0.6574854092812669
12635180000.0 -0.7469835634597726 0.6648425045984725 5.116458336927478e-17 -8.316883598168471e-17 5.116458336927478e-17 -8.316883598168471e-17 -0.746983998885382 0.6648420153758587
12635797333.333334 -0.7404284567986437 0.6721351801257015 5.0329344094328914e-17 -8.365465258942446e-17 5.0329344094328914e-17 -8.365465258942446e-17 -0.740428896978945 0.6721346952199189
12636414666.666666 -0.733802156062603 0.6793632281465535 4.94895035060249e-17 -8.413208879203297e-17 4.94895035060249e-17 -8.413208879203297e-17 -0.7338026009548088 0.6793627476038024
12637032000.0 -0.7271052983873469 0.6865259536659033 4.8645145614625146e-17 -8.460110112825819e-17 4.8645145614625146e-17 -8.460110112825819e-17 -0.7271057479482219 0.6865254775319612
12637649333.333334 -0.7203385276928203 0.6936226679695308 4.779635483967673e-17 -8.506164697828386e-17 4.779635483967673e-17 -8.506164697828386e-17 -0.7203389818786841 0.6936221962897463
12638266666.666666 -0.7135024946212231 0.7006526886904246 4.694321600158108e-17 -8.551368456757635e-17 4.694321600158108e-17 -8.551368456757635e-17 -0.7135029533879549 0.7006522215097136
12638884000.0 -0.7065978564745662 0.7076153398742704 4.608581431315188e-17 -8.595717297063363e-17 4.608581431315188e-17 -8.595717297063363e-17 -0.7065983197776085 0.7076148772371113
12639501333.333334 -0.6996252771513711 0.7145099520445451 4.522423537111395e-17 -8.639207211466401e-17 4.522423537111395e-17 -8.639207211466401e-17 -0.6996257449457354 0.7145094939949755
12640118666.666666 -0.6925854270829986 0.7213358622667332 4.435856514758484e-17 -8.681834278317023e-17 4.435856514758484e-17 -8.681834278317023e-17 -0.6925858993232689 0.7213354088483457
12640736000.0 -0.685478983168775 0.728092414212463 4.3488889981490693e-17 -8.723594661946446e-17 4.3488889981490693e-17 -8.723594661946446e-17 -0.6854794598091123 0.7280919654684008
12641353333.333334 -0.6783066287115216 0.734778958222023 4.261529657002677e-17 -8.764484613006008e-17 4.261529657002677e-17 -8.764484613006008e-17 -0.6783071097056674 0.7347785141949745
12641970666.666666 -0.6710690533513594 0.7413948513673002 4.1737871959974275e-17 -8.80450046880325e-17 4.1737871959974275e-17 -8.80450046880325e-17 -0.6710695386526431 0.741394412099498
12642588000.0 -0.6637669529995442 0.747939457513462 4.085670353908593e-17 -8.843638653624523e-17 4.085670353908593e-17 -8.843638653624523e-17 -0.6637674425608839 0.7479390230466754
12643205333.333334 -0.6564010297716565 0.7544121473800256 3.997187902739183e-17 -8.881895679051403e-17 3.997187902739183e-17 -8.881895679051403e-17 -0.6564015235455651 0.754411717755558
12643822666.666666 -0.6489719919199418 0.7608122986014977 3.908348646846834e-17 -8.919268144268721e-17 3.908348646846834e-17 -8.919268144268721e-17 -0.6489724898585342 0.760811873860185
12644440000.0 -0.6414805537652571 0.7671392957871801 3.8191614220724245e-17 -8.955752736361874e-17 3.8191614220724245e-17 -8.955752736361874e-17 -0.6414810558202502 0.7671388759693829
12645057333.333334 -0.6339274356284903 0.7733925305802465 3.729635094862181e-17 -8.991346230607155e-17 3.729635094862181e-17 -8.991346230607155e-17 -0.6339279417512106 0.7733921157258489
12645674666.666666 -0.6263133637612395 0.7795714017162978 3.6397785613873525e-17 -9.026045490753169e-17 3.6397785613873525e-17 -9.026045490753169e-17 -0.626313873902627 0.779570991864702
12646292000.0 -0.6186390702757585 0.7856753150813491 3.549600746661823e-17 -9.059847469293223e-17 3.549600746661823e-17 -9.059847469293223e-17 -0.6186395843863725 0.7856749102714736
12646909333.333334 -0.6109052930749825 0.7917036837686181 3.459110603660102e-17 -9.09274920772791e-17 3.459110603660102e-17 -9.09274920772791e-17 -0.6109058111050049 0.7917032840388926
12647526666.666666 -0.6031127757812931 0.7976559281351935 3.368317112426993e-17 -9.124747836821138e-17 3.368317112426993e-17 -9.124747836821138e-17 -0.6031132976805326 0.7976555335235535
12648144000.0 -0.5952622676649617 0.8035314758577906 3.2772292791903545e-17 -9.155840576845202e-17 3.2772292791903545e-17 -9.155840576845202e-17 -0.5952627933828624 0.8035310864016794
12648761333.333334 -0.5873545235723403 0.8093297619876215 3.1858561354685856e-17 -9.186024737818282e-17 3.1858561354685856e-17 -9.186024737818282e-17 -0.5873550530579825 0.809329377723981
12649378666.666666 -0.57939030385321 0.815050229004763 3.094206737178804e-17 -9.215297719731931e-17 3.094206737178804e-17 -9.215297719731931e-17 -0.5793908370553166 0.8150498499700315
12649996000.0 -0.5713703742874869 0.8206923268718969 3.00229016373911e-17 -9.243657012771129e-17 3.00229016373911e-17 -9.243657012771129e-17 -0.5713709111544293 0.820691953102008
12650613333.333334 -0.563295506011799 0.8262555130870493 2.910115517170955e-17 -9.271100197524615e-17 2.910115517170955e-17 -9.271100197524615e-17 -0.5632960464916006 0.8262551446174261
12651230666.666666 -0.5551664754453636 0.8317392527357382 2.8176919212023114e-17 -9.297624945185537e-17 2.8176919212023114e-17 -9.297624945185537e-17 -0.5551670194857061 0.8317388896012914
12651848000.0 -0.5469840642150271 0.8371430185426156 2.7250285203629753e-17 -9.323229017744978e-17 2.7250285203629753e-17 -9.323229017744978e-17 -0.5469846117632549 0.8371426607777389
12652465333.333334 -0.5387490590804628 0.8424662909219262 2.632134479083245e-17 -9.347910268175074e-17 2.632134479083245e-17 -9.347910268175074e-17 -0.5387496100835875 0.8424659385604938
12653082666.666666 -0.5304622518584277 0.8477085580275315 2.539018980790972e-17 -9.371666640603111e-17 2.539018980790972e-17 -9.371666640603111e-17 -0.5304628062631349 0.8477082111028953
12653700000.0 -0.522124439346438 0.8528693158022506 2.4456912270020772e-17 -9.394496170478086e-17 2.4456912270020772e-17 -9.394496170478086e-17 -0.5221249970990907 0.8528689743472357
12654317333.333334 -0.5137364232463912 0.8579480680261684 2.3521604364160415e-17 -9.41639698472653e-17 2.3521604364160415e-17 -9.41639698472653e-17 -0.5137369842930362 0.8579477320730718
12654934666.666666 -0.5052990100873881 0.862944326364416 2.2584358440060577e-17 -9.437367301900352e-17 2.2584358440060577e-17 -9.437367301900352e-17 -0.5052995743737606 0.862943995945002
12655552000.0 -0.4968130111481072 0.8678576104141634 2.1645267001082094e-17 -9.457405432315578e-17 2.1645267001082094e-17 -9.457405432315578e-17 -0.4968135786196359 0.8678572855596607
12656169333.333334 -0.48827924237894477 0.8726874477507254 2.0704422695119353e-17 -9.476509778181551e-17 2.0704422695119353e-17 -9.476509778181551e-17 -0.48827981298075784 0.8726871284918253
12656786666.666666 -0.4796985243234628 0.8774333739730463 1.976191830546724e-17 -9.494678833721613e-17 1.976191830546724e-17 -9.494678833721613e-17 -0.4796990980003926 0.8774330603398989
12657404000.0 -0.47107168203953975 0.8820949327483238 1.8817846741694755e-17 -9.511911185284478e-17 1.8817846741694755e-17 -9.511911185284478e-17 -0.47107225873612907 0.8820946247705362
12658021333.333334 -0.4623995450199154 0.8866716758559546 1.7872301030490785e-17 -9.528205511446854e-17 1.7872301030490785e-17 -9.528205511446854e-17 -0.462400124680421 0.8866713735625859
12658638666.666666 -0.45368294711270685 0.891163163230483 1.6925374306545322e-17 -9.543560583106196e-17 1.6925374306545322e-17 -9.543560583106196e-17 -0.45368352968110687 0.8911628666500437
12659256000.0 -0.44492272644090725 0.8955689630040895 1.5977159803358737e-17 -9.557975263565629e-17 1.5977159803358737e-17 -9.557975263565629e-17 -0.4449233118609053 0.8955686721645384
12659873333.333334 -0.4361197253219475 0.8998886515480345 1.5027750844096347e-17 -9.571448508608808e-17 1.5027750844096347e-17 -9.571448508608808e-17 -0.4361203135369786 0.8998883664767752
12660490666.666666 -0.4272747901868587 0.9041218135133159 1.4077240832437942e-17 -9.583979366565781e-17 1.4077240832437942e-17 -9.583979366565781e-17 -0.42727538114009456 0.9041215342371943
12661108000.0 -0.4183887714985286 0.9082680418707815 1.312572324337121e-17 -9.595566978370535e-17 1.312572324337121e-17 -9.595566978370535e-17 -0.4183893651328833 0.9082677684160845
12661725333.333334 -0.40946252367033703 0.9123269379500695 1.2173291614047245e-17 -9.606210577608542e-17 1.2173291614047245e-17 -9.606210577608542e-17 -0.4094631199284726 0.9123266703425218
12662342666.666666 -0.4004969049836168 0.9162981114781233 1.1220039534589787e-17 -9.615909490555759e-17 1.1220039534589787e-17 -9.615909490555759e-17 -0.40049750380794835 0.9162978497428845
12662960000.0 -0.39149277750541017 0.9201811806165842 1.0266060638922066e-17 -9.624663136208359e-17 1.0266060638922066e-17 -9.624663136208359e-17 -0.39149337883811186 0.920180924778247
12663577333.333334 -0.38245100700547724 0.9239757719985557 9.311448595576527e-18 -9.632471026303542e-17 9.311448595576527e-18 -9.632471026303542e-17 -0.3824516107884877 0.9239755220811438
12664194666.666666 -0.37337246287297066 0.927681520764537 8.356297098534783e-18 -9.639332765330927e-17 8.356297098534783e-18 -9.639332765330927e-17 -0.3733730690479984 0.927681276791501
12664812000.0 -0.364258018032998 0.9312980705974352 7.400699858027692e-18 -9.64524805053534e-17 7.400699858027692e-18 -9.64524805053534e-17 -0.36425862654152724 0.9312978325916536
12665429333.333334 -0.3551085488625834 0.9348250737568725 6.4447505913756484e-18 -9.65021667191005e-17 6.4447505913756484e-18 -9.65021667191005e-17 -0.3551091596458806 0.9348248417406484
12666046666.666666 -0.34592493510645633 0.9382621911126049 5.488543013820945e-18 -9.654238512181214e-17 5.488543013820945e-18 -9.654238512181214e-17 -0.34592554810557363 0.9382619651076612
12666664000.0 -0.33670805979232565 0.9416090921771733 4.532170829319887e-18 -9.657313546783365e-17 4.532170829319887e-18 -9.657313546783365e-17 -0.33670867494810863 0.9416088722046538
12667281333.333334 -0.32745880914626974 0.9448654551375764 3.575727721432975e-18 -9.659441843825392e-17 3.575727721432975e-18 -9.659441843825392e-17 -0.3274594263993624 0.9448652412180438
12667898666.666666 -0.31817807250717595 0.9480309668863411 2.6193073441300367e-18 -9.660623564047943e-17 2.6193073441300367e-18 -9.660623564047943e-17 -0.31817869179802605 0.9480307590397729
12668516000.0 -0.30886674224138755 0.9511053230515658 1.6630033126292842e-18 -9.660858960771546e-17 1.6630033126292842e-18 -9.660858960771546e-17 -0.30886736351025357 0.9511051212973549
12669133333.333334 -0.2995257136570644 0.954088228026139 7.069091942931579e-19 -9.660148379835669e-17 7.069091942931579e-19 -9.660148379835669e-17 -0.2995263368440194 0.9540880323830889
12669750666.666666 -0.29015588491774397 0.956979394996273 -2.4888150054447365e-19 -9.658492259528872e-17 -2.4888150054447365e-19 -9.658492259528872e-17 -0.29015650996268305 0.956979205482599
12670368000.0 -0.2807581569562517 0.959778545968996 -1.2042753277035196e-18 -9.655891130509869e-17 -1.2042753277035196e-18 -9.655891130509869e-17 -0.2807587837988972 0.9597783626023226
12670985333.333334 -0.2713334333880481 0.9624854117988936 -2.159178918250894e-18 -9.6523456157196e-17 -2.159178918250894e-18 -9.6523456157196e-17 -0.27133406196795506 0.9624852345962517
