! Parameters = {f0=12700.012000; bw=77.238000; Q=6100.000000; N=10; m_0_1=1.211907; m_1_1=-0.586142; m_1_2=1.046719; m_2_2=-0.586791; m_2_3=0.683682; m_2_8=-0.002341; m_2_9=0.034363; m_3_3=-0.588728; m_3_4=0.572211; m_3_7=-0.001741; m_3_8=-0.098829; m_3_9=-0.002341; m_4_4=-0.591653; m_4_5=0.408546; m_4_6=0.001776; m_4_7=-0.119378; m_4_8=-0.001741; m_5_5=-0.591271; m_5_6=0.815901; m_5_7=0.001776; m_6_6=-0.591272; m_6_7=0.408888; m_7_7=-0.591639; m_7_8=0.572329; m_8_8=-0.588730; m_8_9=0.683995; m_9_9=-0.586796; m_9_10=1.047797; m_10_10=-0.586152; m_10_11=1.212702}
!
! Created with skrf (http://scikit-rf.org).
# Hz S RI R 50.0 
!freq ReS11 ImS11 ReS21 ImS21 ReS12 ImS12 ReS22 ImS22
12607400000.0 -0.2629788155657699 -0.9648016078777354 4.389140075211616e-17 7.093160626988015e-17 4.389140075211616e-17 7.093160626988015e-17 -0.2629781994373 -0.964801775817476
12608017333.333334 -0.27146413121097684 -0.9624485573087572 4.451182005048742e-17 7.052460908913423e-17 4.451182005048742e-17 7.052460908913423e-17 -0.27146351661527546 -0.9624487306587857
12608634666.666666 -0.27992839822323085 -0.9600208809541672 4.512847455342789e-17 7.011219137938903e-17 4.512847455342789e-17 7.011219137938903e-17 -0.27992778520779954 -0.9600210597005125
12609252000.0 -0.2883709603051053 -0.9575187670497903 4.574131695744328e-17 6.969438788662187e-17 4.574131695744328e-17 6.969438788662187e-17 -0.2883703489173186 -0.9575189511780656
12609869333.333334 -0.2967911628420639 -0.9549424096031628 4.6350300279036926e-17 6.927123376911906e-17 4.6350300279036926e-17 6.927123376911906e-17 -0.2967905531291659 -0.9549425990985655
12610486666.666666 -0.3051883529531649 -0.9522920083785088 4.6955377858297095e-17 6.884276459453608e-17 4.6955377858297095e-17 6.884276459453608e-17 -0.3051877449622646 -0.9522922032258203
12611104000.0 -0.31356187954206244 -0.9495677688811306 4.7556503362469095e-17 6.84090163369183e-17 4.7556503362469095e-17 6.84090163369183e-17 -0.31356127332013106 -0.9495679690647201
12611721333.333334 -0.3219110933469498 -0.9467699023416465 4.8153630789468997e-17 6.797002537371265e-17 4.8153630789468997e-17 6.797002537371265e-17 -0.3219104889408167 -0.9467701078454704
12612338666.666666 -0.3302353469912797 -0.9438986256994909 4.874671447141632e-17 6.752582848271573e-17 4.874671447141632e-17 6.752582848271573e-17 -0.33023474444762907 -0.9438988365070955
12612956000.0 -0.33853399503390674 -0.9409541615861117 4.9335709078102196e-17 6.707646283901737e-17 4.9335709078102196e-17 6.707646283901737e-17 -0.3385333943992734 -0.9409543776806321
12613573333.333334 -0.3468063940189973 -0.9379367383077495 4.9920569620429655e-17 6.662196601191451e-17 4.9920569620429655e-17 6.662196601191451e-17 -0.34680579533976374 -0.9379369596719138
12614190666.666666 -0.35505190252603064 -0.9348465898277035 5.050125145386187e-17 6.616237596176821e-17 5.050125145386187e-17 6.616237596176821e-17 -0.3550513058484232 -0.9348468164438325
12614808000.0 -0.3632698812194782 -0.9316839557482064 5.107771028179589e-17 6.569773103686454e-17 5.107771028179589e-17 6.569773103686454e-17 -0.3632692865895639 -0.9316841875982167
12615425333.333334 -0.3714596928984836 -0.9284490812918088 5.1649902158936454e-17 6.522806997022553e-17 5.1649902158936454e-17 6.522806997022553e-17 -0.3714591003621655 -0.9284493183572111
12616042666.666666 -0.37962070254610875 -0.9251422172824225 5.221778349463825e-17 6.475343187639139e-17 5.221778349463825e-17 6.475343187639139e-17 -0.3796201121491239 -0.9251424595443266
12616660000.0 -0.3877522773786793 -0.921763620125836 5.2781311056202565e-17 6.427385624818782e-17 5.2781311056202565e-17 6.427385624818782e-17 -0.38775168916659347 -0.921763867564949
12617277333.333334 -0.39585378689482065 -0.9183135517898391 5.334044197216247e-17 6.378938295344929e-17 5.334044197216247e-17 6.378938295344929e-17 -0.3958532009130262 -0.9183138043864693
12617894666.666666 -0.4039246029243208 -0.9147922797839244 5.389513373552741e-17 6.330005223172332e-17 5.389513373552741e-17 6.330005223172332e-17 -0.40392401921803284 -0.9147925375179825
12618512000.0 -0.4119640996769663 -0.9112000771384877 5.44453442070102e-17 6.280590469093589e-17 5.44453442070102e-17 6.280590469093589e-17 -0.41196351829121924 -0.9112003399894888
12619129333.333334 -0.4199716537907793 -0.9075372223837861 5.4991031618195084e-17 6.230698130405347e-17 5.4991031618195084e-17 6.230698130405347e-17 -0.4199710747704227 -0.9075374903308486
12619746666.666666 -0.42794664438068813 -0.9038039995281875 5.553215457471828e-17 6.180332340568091e-17 5.553215457471828e-17 6.180332340568091e-17 -0.4279460677703846 -0.9038042725500388
12620364000.0 -0.435888453086514 -0.9000006980362218 5.606867205938314e-17 6.129497268866057e-17 5.606867205938314e-17 6.129497268866057e-17 -0.4358878789307337 -0.9000009761111959
12620981333.333334 -0.44379646412076157 -0.8961276128062063 5.660054343524568e-17 6.078197120064598e-17 5.660054343524568e-17 6.078197120064598e-17 -0.4437958924637812 -0.8961278959122494
12621598666.666666 -0.4516700643167014 -0.8921850441472261 5.712772844870083e-17 6.02643613406174e-17 5.712772844870083e-17 6.02643613406174e-17 -0.4516694952025989 -0.8921853322618953
12622216000.0 -0.4595086431756296 -0.8881732977559796 5.765018723249608e-17 5.974218585540996e-17 5.765018723249608e-17 5.974218585540996e-17 -0.4595080766482823 -0.8881735908564473
12622833333.333334 -0.46731159291435903 -0.8840926846930045 5.816788030874096e-17 5.921548783618977e-17 5.816788030874096e-17 5.921548783618977e-17 -0.46731102901743826 -0.8840929827560571
12623450666.666666 -0.4750783085121926 -0.8799435213586349 5.868076859187421e-17 5.868431071491391e-17 5.868076859187421e-17 5.868431071491391e-17 -0.47507774728916224 -0.8799438243606771
12624068000.0 -0.48280818775806156 -0.8757261294683488 5.918881339159892e-17 5.814869826076489e-17 5.918881339159892e-17 5.814869826076489e-17 -0.48280762925217396 -0.8757264373854055
12624685333.333334 -0.4905006312970946 -0.8714408360278927 5.969197641579317e-17 5.76086945765514e-17 5.969197641579317e-17 5.76086945765514e-17 -0.4905000755513863 -0.8714411488356075
12625302666.666666 -0.4981550426769136 -0.8670879733080158 6.019021977337071e-17 5.70643440951029e-17 6.019021977337071e-17 5.70643440951029e-17 -0.49815448973420434 -0.8670882909816591
12625920000.0 -0.505770828394331 -0.8626678788184656 6.068350597713395e-17 5.651569157561192e-17 6.068350597713395e-17 5.651569157561192e-17 -0.5057702782972181 -0.8626682013329305
12626537333.333334 -0.5133473979408724 -0.8581808952820937 6.117179794656265e-17 5.596278209998675e-17 6.117179794656265e-17 5.596278209998675e-17 -0.5133468507317284 -0.8581812226119004
12627154666.666666 -0.5208841638488088 -0.8536273706081401 6.165505901060061e-17 5.5405661069145276e-17 6.165505901060061e-17 5.5405661069145276e-17 -0.5208836195697787 -0.8536277027274395
12627772000.0 -0.5283805417368075 -0.8490076578652034 6.213325291039477e-17 5.4844374199300476e-17 6.213325291039477e-17 5.4844374199300476e-17 -0.5283800004298043 -0.849007994747776
12628389333.333334 -0.5358359503549965 -0.8443221152540046 6.260634380198377e-17 5.427896751824225e-17 6.260634380198377e-17 5.427896751824225e-17 -0.5358354120616998 -0.8443224568732659
12629006666.666666 -0.5432498116302549 -0.8395711060794865 6.307429625899725e-17 5.370948736154434e-17 6.307429625899725e-17 5.370948736154434e-17 -0.543249276392105 -0.8395714524084852
12629624000.0 -0.5506215507108385 -0.8347549987227577 6.353707527526742e-17 5.3135980368810933e-17 6.353707527526742e-17 5.3135980368810933e-17 -0.5506210185690362 -0.834755349734182
12630241333.333334 -0.5579505960111707 -0.829874166612396 6.399464626744612e-17 5.255849347985417e-17 6.399464626744612e-17 5.255849347985417e-17 -0.5579500670066722 -0.8298745222785728
12630858666.666666 -0.5652363792558753 -0.8249289881956794 6.444697507756954e-17 5.19770739308711e-17 6.444697507756954e-17 5.19770739308711e-17 -0.5652358534293894 -0.8249293484885776
12631476000.0 -0.5724783355241945 -0.8199198469090053 6.489402797559926e-17 5.139176925058365e-17 6.489402797559926e-17 5.139176925058365e-17 -0.5724778129161797 -0.8199202118002377
12632093333.333334 -0.5796759032934377 -0.8148471311483999 6.53357716619076e-17 5.080262725638518e-17 6.53357716619076e-17 5.080262725638518e-17 -0.579675383944099 -0.8148475006092254
12632710666.666666 -0.5868285244827544 -0.8097112342392401 6.57721732697552e-17 5.0209696050430424e-17 6.57721732697552e-17 5.0209696050430424e-17 -0.5868280084320404 -0.8097116082405664
12633328000.0 -0.5939356444963847 -0.8045125544057743 6.620320036771851e-17 4.961302401572266e-17 6.620320036771851e-17 4.961302401572266e-17 -0.5939351317839847 -0.8045129329181605
12633945333.333334 -0.6009967122665208 -0.7992514947403433 6.662882096207674e-17 4.901265981218804e-17 6.662882096207674e-17 4.901265981218804e-17 -0.6009962029318605 -0.7992518777340006
12634562666.666666 -0.608011180296219 -0.7939284631719904 6.704900349917468e-17 4.8408652372714584e-17 6.704900349917468e-17 4.8408652372714584e-17 -0.6080106743784591 -0.7939288506167863
12635180000.0 -0.6149785047016922 -0.788543872434952 6.74637168677495e-17 4.780105089917103e-17 6.74637168677495e-17 4.780105089917103e-17 -0.6149780022397245 -0.7885442643004114
12635797333.333334 -0.621898145254573 -0.7830981400365872 6.78729304012103e-17 4.7189904858420836e-17 6.78729304012103e-17 4.7189904858420836e-17 -0.6218976462870172 -0.783098536291895
12636414666.666666 -0.6287695654237763 -0.7775916882250197 6.827661387988828e-17 4.657526397831001e-17 6.827661387988828e-17 4.657526397831001e-17 -0.6287690699889775 -0.7775920888390236
12637032000.0 -0.6355922324171026 -0.7720249439564003 6.86747375332628e-17 4.5957178243615796e-17 6.86747375332628e-17 4.5957178243615796e-17 -0.6355917405531293 -0.7720253488976145
12637649333.333334 -0.6423656172225505 -0.7663983388618031 6.906727204212667e-17 4.533569789201384e-17 6.906727204212667e-17 4.533569789201384e-17 -0.6423651289671892 -0.7663987480984075
12638266666.666666 -0.6490891946493099 -0.7607123092137726 6.945418854073264e-17 4.471087340999936e-17 6.945418854073264e-17 4.471087340999936e-17 -0.6490887100400643 -0.7607127227136175
12638884000.0 -0.6557624433685726 -0.7549672958924241 6.983545861890288e-17 4.408275552879278e-17 6.983545861890288e-17 4.408275552879278e-17 -0.6557619624426602 -0.7549677136230335
12639501333.333334 -0.662384845953847 -0.7491637443513527 7.021105432409007e-17 4.34513952202426e-17 7.021105432409007e-17 4.34513952202426e-17 -0.6623843687481954 -0.7491641662799247
12640118666.666666 -0.6689558889210124 -0.7433021045831484 7.058094816340579e-17 4.2816843692707837e-17 7.058094816340579e-17 4.2816843692707837e-17 -0.6689554154722585 -0.7433025306765598
12640736000.0 -0.6754750627685411 -0.7373828310841498 7.094511310563683e-17 4.2179152386878327e-17 7.094511310563683e-17 4.2179152386878327e-17 -0.6754745931130254 -0.7373832613089566
12641353333.333334 -0.6819418620163625 -0.7314063828197668 7.130352258316655e-17 4.153837297167766e-17 7.130352258316655e-17 4.153837297167766e-17 -0.6819413961901294 -0.7314068171422092
12641970666.666666 -0.6883557852455918 -0.7253732231884246 7.165615049392253e-17 4.089455734004029e-17 7.165615049392253e-17 4.089455734004029e-17 -0.6883553232843835 -0.7253736615744272
12642588000.0 -0.6947163351371499 -0.7192838199858572 7.200297120325026e-17 4.0247757604735396e-17 7.200297120325026e-17 4.0247757604735396e-17 -0.6947158770764069 -0.7192842624010335
12643205333.333334 -0.7010230185104319 -0.7131386453687412 7.234395954575125e-17 3.959802609417088e-17 7.234395954575125e-17 3.959802609417088e-17 -0.701022564385288 -0.7131390917783953
12643822666.666666 -0.7072753463615034 -0.7069381758181229 7.267909082709777e-17 3.894541534815777e-17 7.267909082709777e-17 3.894541534815777e-17 -0.7072748962067846 -0.7069386261872538
12644440000.0 -0.7134728339009792 -0.7006828921025169 7.300834082579848e-17 3.828997811367752e-17 7.300834082579848e-17 3.828997811367752e-17 -0.7134723877511993 -0.700683346395818
12645057333.333334 -0.7196150005916879 -0.6943732792405428 7.333168579492379e-17 3.763176734064135e-17 7.333168579492379e-17 3.763176734064135e-17 -0.7196145584810488 -0.6943737374224094
12645674666.666666 -0.7257013701858206 -0.6880098264634473 7.364910246380115e-17 3.697083617761833e-17 7.364910246380115e-17 3.697083617761833e-17 -0.7257009321482052 -0.6880102884979743
12646292000.0 -0.731731470762047 -0.6815930271769595 7.396056803967908e-17 3.630723796753462e-17 7.396056803967908e-17 3.630723796753462e-17 -0.7317310368310208 -0.6815934930279477
12646909333.333334 -0.7377048347619154 -0.6751233789232417 7.426606020932325e-17 3.564102624342015e-17 7.426606020932325e-17 3.564102624342015e-17 -0.7377044049707215 -0.6751238485541994
12647526666.666666 -0.7436209990261825 -0.6686013833422292 7.456555714060653e-17 3.497225472407445e-17 7.456555714060653e-17 3.497225472407445e-17 -0.7436205734077399 -0.668601856716375
12648144000.0 -0.7494795048307835 -0.6620275461326699 7.485903748404923e-17 3.4300977309742706e-17 7.485903748404923e-17 3.4300977309742706e-17 -0.7494790834176844 -0.6620280232129356
12648761333.333334 -0.7552798979222849 -0.6554023770130407 7.514648037430832e-17 3.3627248077804436e-17 7.514648037430832e-17 3.3627248077804436e-17 -0.7552794807467929 -0.6554028577620753
12649378666.666666 -0.7610217285531834 -0.6487263896819411 7.542786543164185e-17 3.295112127842279e-17 7.542786543164185e-17 3.295112127842279e-17 -0.7610213156472299 -0.6487268740621122
12649996000.0 -0.7667045515167591 -0.6420001017782835 7.570317276333745e-17 3.2272651330170426e-17 7.570317276333745e-17 3.2272651330170426e-17 -0.7667041429119412 -0.6420005897516807
12650613333.333334 -0.7723279261815945 -0.635224034841156 7.597238296508682e-17 3.1591892815680734e-17 7.597238296508682e-17 3.1591892815680734e-17 -0.7723275219091733 -0.6352245263695943
12651230666.666666 -0.7778914165257244 -0.6283987142694069 7.62354771223286e-17 3.09089004772705e-17 7.62354771223286e-17 3.09089004772705e-17 -0.7778910166166211 -0.628399209314429
12651848000.0 -0.783394591170511 -0.6215246692808162 7.64924368115637e-17 3.022372921252125e-17 7.64924368115637e-17 3.022372921252125e-17 -0.7833941956553075 -0.6215251678036973
12652465333.333334 -0.7888370234140085 -0.6146024328711749 7.674324410160733e-17 2.953643406991079e-17 7.674324410160733e-17 2.953643406991079e-17 -0.7888366323229405 -0.6146029348329223
12653082666.666666 -0.7942182912640098 -0.6076325417730011 7.698788155481752e-17 2.884707024439572e-17 7.698788155481752e-17 2.884707024439572e-17 -0.7942179046269683 -0.6076330471343602
12653700000.0 -0.7995379774710106 -0.6006155364136082 7.72263322282911e-17 2.815569307296159e-17 7.72263322282911e-17 2.815569307296159e-17 -0.7995375953175393 -0.6006160451350655
12654317333.333334 -0.8047956695602186 -0.5935519608736546 7.74585796749946e-17 2.746235803023642e-17 7.74585796749946e-17 2.746235803023642e-17 -0.8047952919195089 -0.5935524729154387
12654934666.666666 -0.8099909598637572 -0.5864423628446613 7.768460794488199e-17 2.676712072402023e-17 7.768460794488199e-17 2.676712072402023e-17 -0.8099905867646494 -0.5864428781667481
12655552000.0 -0.8151234455523254 -0.5792872935864771 7.790440158596001e-17 2.6070036890840762e-17 7.790440158596001e-17 2.6070036890840762e-17 -0.8151230770233032 -0.5792878121485914
12656169333.333334 -0.8201927286661802 -0.5720873078848787 7.811794564531207e-17 2.537116239150778e-17 7.811794564531207e-17 2.537116239150778e-17 -0.8201923647353707 -0.5720878296464977
12656786666.666666 -0.8251984161462249 -0.5648429640082304 7.832522567008824e-17 2.4670553206639e-17 7.832522567008824e-17 2.4670553206639e-17 -0.8251980568413979 -0.5648434889285893
12657404000.0 -0.8301401198643762 -0.5575548236643638 7.85262277084518e-17 2.396826543219195e-17 7.85262277084518e-17 2.396826543219195e-17 -0.830139765212938 -0.5575553517024548
12658021333.333334 -0.8350174566537495 -0.5502234519568796 7.87209383104899e-17 2.3264355274972527e-17 7.87209383104899e-17 2.3264355274972527e-17 -0.8350171066827434 -0.5502239830714579
12658638666.666666 -0.8398300483381955 -0.5428494173415919 7.8909344529074e-17 2.2558879048172577e-17 7.8909344529074e-17 2.2558879048172577e-17 -0.8398297030742996 -0.542849951491178
12659256000.0 -0.8445775217618285 -0.5354332915821431 7.909143392069559e-17 2.185189316684685e-17 7.909143392069559e-17 2.185189316684685e-17 -0.8445771812313536 -0.5354338287250269
12659873333.333334 -0.8492595088178658 -0.5279756497058151 7.926719454624987e-17 2.1143454143426458e-17 7.926719454624987e-17 2.1143454143426458e-17 -0.8492591730467522 -0.5279761898000576
12660490666.666666 -0.8538756464770768 -0.5204770699590842 7.943661497177931e-17 2.043361858322631e-17 7.943661497177931e-17 2.043361858322631e-17 -0.8538753154908948 -0.5204776129625224
12661108000.0 -0.858425576816132 -0.5129381337624759 7.959968426918801e-17 1.972244317990413e-17 7.959968426918801e-17 1.972244317990413e-17 -0.8584252506400759 -0.5129386796327242
12661725333.333334 -0.8629089470451845 -0.5053594256657452 7.975639201690243e-17 1.9009984710968537e-17 7.975639201690243e-17 1.9009984710968537e-17 -0.8629086257040757 -0.5053599743602012
12662342666.666666 -0.8673254095353039 -0.4977415333024336 7.990672830050013e-17 1.82963000332459e-17 7.990672830050013e-17 1.82963000332459e-17 -0.8673250930535863 -0.49774208477828
12662960000.0 -0.8716746218454149 -0.4900850473443297 8.00506837132952e-17 1.7581446078358783e-17 8.00506837132952e-17 1.7581446078358783e-17 -0.8716743102471514 -0.49008560155853675
12663577333.333334 -0.8759562467488324 -0.48239056145569253 8.018824935688574e-17 1.6865479848186397e-17 8.018824935688574e-17 1.6865479848186397e-17 -0.8759559400577076 -0.4823911183650237
12664194666.666666 -0.8801699522594696 -0.4746586722471243 8.031941684165614e-17 1.6148458410344115e-17 8.031941684165614e-17 1.6148458410344115e-17 -0.8801696504987826 -0.4746592318081369
12664812000.0 -0.884315411657491 -0.46688997922945696 8.044417828724356e-17 1.5430438893639072e-17 8.044417828724356e-17 1.5430438893639072e-17 -0.8843151148501582 -0.466890541398508
12665429333.333334 -0.8883923035147033 -0.45908508476716936 8.056252632296401e-17 1.471147848352034e-17 8.056252632296401e-17 1.471147848352034e-17 -0.8883920116832545 -0.45908564950041747
12666046666.666666 -0.892400311719453 -0.4512445940317324 8.067445408819184e-17 1.39916344175608e-17 8.067445408819184e-17 1.39916344175608e-17 -0.8924000248860297 -0.4512451612851416
12666664000.0 -0.8963391255011982 -0.4433691149545576 8.077995523270881e-17 1.3270963980879292e-17 8.077995523270881e-17 1.3270963980879292e-17 -0.8963388436875521 -0.4433696846839011
12667281333.333334 -0.9002084394544774 -0.4354592581801138 8.087902391700283e-17 1.2549524501618175e-17 8.087902391700283e-17 1.2549524501618175e-17 -0.90020816268197 -0.4354598303409773
12667898666.666666 -0.9040079535626951 -0.42751563701837714 8.097165481253231e-17 1.1827373346384875e-17 8.097165481253231e-17 1.1827373346384875e-17 -0.9040076818522935 -0.4275162115661616
12668516000.0 -0.9077373732214286 -0.4195388673971725 8.105784310194874e-17 1.1104567915694292e-17 8.105784310194874e-17 1.1104567915694292e-17 -0.9077371065937063 -0.41953944428709855
12669133333.333334 -0.911396409261088 -0.41152956781480027 8.113758447927686e-17 1.0381165639431235e-17 8.113758447927686e-17 1.0381165639431235e-17 -0.9113961477362224 -0.4115301470019113
12669750666.666666 -0.914984777969499 -0.4034883592917481 8.121087515005654e-17 9.657223972289067e-18 8.121087515005654e-17 9.657223972289067e-18 -0.91498452156727 -0.40348894073091396
12670368000.0 -0.9185022011138844 -0.39541586532256134 8.127771183144342e-17 8.932800389219864e-18 8.127771183144342e-17 8.932800389219864e-18 -0.9185019498536718 -0.3954164489684811
12670985333.333334 -0.9219484059623334 -0.38731271182773297 8.133809175226901e-17 8.207952380882327e-18 8.133809175226901e-17 8.207952380882327e-18 -0.9219481598631183 -0.38731329763493966
