! Parameters = {f0=12700.012000; bw=77.238000; Q=6100.000000; N=10; m_0_1=1.288383; m_1_1=0.561005; m_1_2=1.123195; m_2_2=0.560356; m_2_3=0.760158; m_2_8=0.001483; m_2_9=0.038187; m_3_3=0.558419; m_3_4=0.648687; m_3_7=0.002083; m_3_8=-0.095005; m_3_9=0.001483; m_4_4=0.555494; m_4_5=0.485022; m_4_6=0.005600; m_4_7=-0.115554; m_4_8=0.002083; m_5_5=0.555876; m_5_6=0.892377; m_5_7=0.005600; m_6_6=0.555875; m_6_7=0.485364; m_7_7=0.555508; m_7_8=0.648805; m_8_8=0.558417; m_8_9=0.760471; m_9_9=0.560351; m_9_10=1.124273; m_10_10=0.560995; m_10_11=1.289178}
!
! Created with skrf (http://scikit-rf.org).
# Hz S RI R 50.0 
!freq ReS11 ImS11 ReS21 ImS21 ReS12 ImS12 ReS22 ImS22
12607400000.0 -0.6095737439029463 0.7927293679080915 4.330353207249673e-17 -1.1247507228516675e-16 4.330353207249673e-17 -1.1247507228516675e-16 -0.60957428197814 0.7927289541518292
12608017333.333334 -0.6007639306748315 0.7994264816729206 4.203796008991229e-17 -1.1292900119534099e-16 4.203796008991229e-17 -1.1292900119534099e-16 -0.6007644732692135 0.7994260739163958
12608634666.666666 -0.5918805454095899 0.806025694358104 4.07676525254825e-17 -1.1336869954695582e-16 4.07676525254825e-17 -1.1336869954695582e-16 -0.5918810924562731 0.8060252926506628
12609252000.0 -0.5829246760034276 0.8125261977967955 3.949276928550152e-17 -1.1379411820549864e-16 3.949276928550152e-17 -1.1379411820549864e-16 -0.5829252274349854 0.8125258021870375
12609869333.333334 -0.5738974192292323 0.818927195910506 3.821347078285808e-17 -1.1420520983210598e-16 3.821347078285808e-17 -1.1420520983210598e-16 -0.5738979749777084 0.8189268064462804
12610486666.666666 -0.5647998806023783 0.8252279048065202 3.692991791690456e-17 -1.1460192888874343e-16 3.692991791690456e-17 -1.1460192888874343e-16 -0.5648004405992934 0.8252275215349172
12611104000.0 -0.5556331742450785 0.8314275528740648 3.564227205320096e-17 -1.1498423164317952e-16 3.564227205320096e-17 -1.1498423164317952e-16 -0.5556337384214417 0.8314271758414147
12611721333.333334 -0.5463984227502794 0.8375253808785886 3.43506950033434e-17 -1.1535207617369411e-16 3.43506950033434e-17 -1.1535207617369411e-16 -0.5463989910365931 0.8375250101304507
12612338666.666666 -0.5370967570439669 0.8435206420548772 3.305534900458441e-17 -1.1570542237360715e-16 3.305534900458441e-17 -1.1570542237360715e-16 -0.5370973293702372 0.843520277636037
12612956000.0 -0.527729316246573 0.8494126021985678 3.1756396699522926e-17 -1.1604423195554554e-16 3.1756396699522926e-17 -1.1604423195554554e-16 -0.527729892542319 0.8494122441530325
12613573333.333334 -0.5182972475338349 0.8552005397558337 3.045400111572911e-17 -1.163684684554901e-16 3.045400111572911e-17 -1.163684684554901e-16 -0.5182978277280955 0.8552001881268245
12614190666.666666 -0.5088017059959696 0.8608837459119603 2.914832564528626e-17 -1.1667809723660507e-16 2.914832564528626e-17 -1.1667809723660507e-16 -0.5088022900173141 0.8608834007419099
12614808000.0 -0.4992438544963629 0.8664615246780623 2.7839534024341637e-17 -1.1697308549282662e-16 2.7839534024341637e-17 -1.1697308549282662e-16 -0.4992444422728983 0.8664611860086069
12615425333.333334 -0.4896248635291344 0.8719331929763283 2.6527790312602654e-17 -1.172534022522276e-16 2.6527790312602654e-17 -1.172534022522276e-16 -0.48962545498851523 0.8719328608483045
12616042666.666666 -0.47994591107579476 0.8772980807236749 2.5213258872804254e-17 -1.1751901838015204e-16 2.5213258872804254e-17 -1.1751901838015204e-16 -0.4799465061452317 0.8772977551771143
12616660000.0 -0.47020818246098584 0.8825555309138092 2.389610435014986e-17 -1.17769906582119e-16 2.389610435014986e-17 -1.17769906582119e-16 -0.4702087810672541 0.8825552119879333
12617277333.333334 -0.4604128702072935 0.8877048996976986 2.2576491651701887e-17 -1.1800604140650154e-16 2.2576491651701887e-17 -1.1800604140650154e-16 -0.4604134722767433 0.8877045874309151
12617894666.666666 -0.45056117388933553 0.8927455564623569 2.1254585925821466e-17 -1.182273992469607e-16 2.1254585925821466e-17 -1.182273992469607e-16 -0.45056177934789965 0.8927452508922541
12618512000.0 -0.4406542999865763 0.8976768839082127 1.993055254144861e-17 -1.1843395834467512e-16 1.993055254144861e-17 -1.1843395834467512e-16 -0.44065490875978 0.8976765850715551
12619129333.333334 -0.43069346173593254 0.9024982781245274 1.860455706753109e-17 -1.186256987903097e-16 1.860455706753109e-17 -1.186256987903097e-16 -0.4306940737489021 0.9024979860572512
12619746666.666666 -0.42067987898296655 0.9072091486634687 1.727676525230192e-17 -1.1880260252577697e-16 1.727676525230192e-17 -1.1880260252577697e-16 -0.4206804941604389 0.9072088634006772
12620364000.0 -0.4106147780323682 0.9118089186124737 1.5947343002596357e-17 -1.1896465334575714e-16 1.5947343002596357e-17 -1.1896465334575714e-16 -0.4106153962987 0.9118086401884333
12620981333.333334 -0.40049939149829317 0.9162970246646642 1.461645636318468e-17 -1.1911183689898605e-16 1.461645636318468e-17 -1.1911183689898605e-16 -0.40050001277747105 0.9162967531128023
12621598666.666666 -0.3903349581527926 0.9206729171881164 1.3284271496031287e-17 -1.1924414068931833e-16 1.3284271496031287e-17 -1.1924414068931833e-16 -0.39033558236844124 0.9206726525410147
12622216000.0 -0.3801227227745212 0.9249360602929816 1.1950954659598285e-17 -1.1936155407655383e-16 1.1950954659598285e-17 -1.1936155407655383e-16 -0.38012334984991303 0.9249358025823732
12622833333.333334 -0.369863935996115 0.9290859318971963 1.0616672188121445e-17 -1.1946406827703618e-16 1.0616672188121445e-17 -1.1946406827703618e-16 -0.3698645658541794 0.9290856811539602
12623450666.666666 -0.3595598541511631 0.9331220237903578 9.281590470905156e-18 -1.1955167636401748e-16 9.281590470905156e-18 -1.1955167636401748e-16 -0.35956048671449714 0.9331217800445194
12624068000.0 -0.34921173912022435 0.9370438416960261 7.945875931591535e-18 -1.1962437326779515e-16 7.945875931591535e-18 -1.1962437326779515e-16 -0.34921237431110086 0.9370436049767493
12624685333.333334 -0.33882085817626106 0.9408509053322536 6.6096950074298315e-18 -1.1968215577561643e-16 6.6096950074298315e-18 -1.1968215577561643e-16 -0.33882149591663857 0.9408506756678392
12625302666.666666 -0.3283884838297115 0.9445427484703073 5.273214128623825e-18 -1.1972502253134895e-16 5.273214128623825e-18 -1.1972502253134895e-16 -0.32838912404124443 0.9445425258881903
12625920000.0 -0.3179158936722526 0.9481189189919126 3.936599697568988e-18 -1.197529740349263e-16 3.936599697568988e-18 -1.197529740349263e-16 -0.3179165362762999 0.9481187035186569
12626537333.333334 -0.3074043702207147 0.9515789789444834 2.6000180682170023e-18 -1.1976601264155806e-16 2.6000180682170023e-18 -1.1976601264155806e-16 -0.3074050151383506 0.9515787706057808
12627154666.666666 -0.29685520075986016 0.9549225045948192 1.26363552538286e-18 -1.197641425607122e-16 1.26363552538286e-18 -1.197641425607122e-16 -0.2968558479118831 0.9549223034154849
12627772000.0 -0.28626967718457336 0.9581490864810438 -7.238173593135024e-20 -1.1974736985486619e-16 -7.238173593135024e-20 -1.1974736985486619e-16 -0.28627032649151585 0.9581488924850142
12628389333.333334 -0.27564909584202985 0.9612583294626329 -1.4078676311253108e-18 -1.1971570243802843e-16 -1.4078676311253108e-18 -1.1971570243802843e-16 -0.27564974722416796 0.9612581426729614
12629006666.666666 -0.26499475737255873 0.9642498527689167 -2.742656206662867e-18 -1.1966915007402933e-16 -2.742656206662867e-18 -1.1966915007402933e-16 -0.26499541074992294 0.9642496732077738
12629624000.0 -0.25430796655055327 0.9671232900456598 -4.076581660638578e-18 -1.196077243745845e-16 -4.076581660638578e-18 -1.196077243745845e-16 -0.25430862184293707 0.9671231177343271
12630241333.333334 -0.2435900321246538 0.9698782893999275 -5.40947836334117e-18 -1.1953143879712683e-16 -5.40947836334117e-18 -1.1953143879712683e-16 -0.24359068925162386 0.9698781243587965
12630858666.666666 -0.23284226665766658 0.9725145134431357 -6.741180877780808e-18 -1.1944030864241317e-16 -6.741180877780808e-18 -1.1944030864241317e-16 -0.23284292553857325 0.9725143556917075
12631476000.0 -0.22206598636527108 0.9750316393325079 -8.071523980225007e-18 -1.1933435105189685e-16 -8.071523980225007e-18 -1.1933435105189685e-16 -0.22206664691925754 0.9750314888893877
12632093333.333334 -0.21126251095546444 0.977429358810452 -9.400342680622048e-18 -1.1921358500488028e-16 -9.400342680622048e-18 -1.1921358500488028e-16 -0.21126317310147694 0.9774292156933482
12632710666.666666 -0.2004331634666418 0.9797073782423882 -1.0727472243051766e-17 -1.190780313154339e-16 -1.0727472243051766e-17 -1.190780313154339e-16 -0.2004338271234396 0.9797072424681111
12633328000.0 -0.18957927010545955 0.9818654186527296 -1.2052748206133247e-17 -1.1892771262908827e-16 -1.2052748206133247e-17 -1.1892771262908827e-16 -0.18957993519162486 0.9818652902371883
12633945333.333334 -0.17870216008467305 0.9839032157589949 -1.3376006403343136e-17 -1.1876265341930475e-16 -1.3376006403343136e-17 -1.1876265341930475e-16 -0.17870282651862082 0.9839030947171953
12634562666.666666 -0.16780316546021615 0.9858205200041994 -1.4697082983336638e-17 -1.1858287998371524e-16 -1.4697082983336638e-17 -1.1858287998371524e-16 -0.16780383316020459 0.9858204063502443
12635180000.0 -0.15688362096810068 0.987617096587416 -1.6015814430197742e-17 -1.183884204401392e-16 -1.6015814430197742e-17 -1.183884204401392e-16 -0.15688428985224062 0.9876169903345007
12635797333.333334 -0.14594486386093017 0.9892927254925282 -1.733203758366671e-17 -1.1817930472237192e-16 -1.733203758366671e-17 -1.1817930472237192e-16 -0.1459455338471957 0.9892926266529413
12636414666.666666 -0.13498823374424757 0.990847201515162 -1.864558965924491e-17 -1.1795556457575897e-16 -1.864558965924491e-17 -1.1795556457575897e-16 -0.13498890475048575 0.9908471101002835
12637032000.0 -0.12401507241231269 0.9922803342878406 -1.9956308268362553e-17 -1.1771723355253e-16 -1.9956308268362553e-17 -1.1771723355253e-16 -0.12401574435625362 0.992280250308139
12637649333.333334 -0.11302672368389266 0.9935919483032779 -2.1264031438371915e-17 -1.1746434700692697e-16 -2.1264031438371915e-17 -1.1746434700692697e-16 -0.11302739648315978 0.9935918717683117
12638266666.666666 -0.1020245332376648 0.9947818829358809 -2.2568597632551317e-17 -1.1719694209009924e-16 -2.2568597632551317e-17 -1.1719694209009924e-16 -0.10202520680978475 0.9947818138542942
12638884000.0 -0.09100984844744679 0.9958499924614113 -2.386984577002379e-17 -1.1691505774478138e-16 -2.386984577002379e-17 -1.1691505774478138e-16 -0.09101052270985967 0.9958499308409358
12639501333.333334 -0.07998401821702246 0.9967961460748525 -2.5167615245617826e-17 -1.1661873469974873e-16 -2.5167615245617826e-17 -1.1661873469974873e-16 -0.07998469308709195 0.996796091922306
12640118666.666666 -0.06894839281543066 0.9976202279063853 -2.646174594963475e-17 -1.1630801546405881e-16 -2.646174594963475e-17 -1.1630801546405881e-16 -0.06894906821045407 0.9976201812276699
12640736000.0 -0.05790432371075583 0.9983221370356468 -2.775207828763933e-17 -1.1598294432105264e-16 -2.775207828763933e-17 -1.1598294432105264e-16 -0.05790499954797421 0.9983220978357475
12641353333.333334 -0.04685316340561325 0.9989017875040089 -2.903845319999681e-17 -1.1564356732217935e-16 -2.903845319999681e-17 -1.1564356732217935e-16 -0.04685383960222174 0.9989017557869982
12641970666.666666 -0.03579626527077964 0.9993591083251722 -3.032071218155065e-17 -1.1528993228055429e-16 -3.032071218155065e-17 -1.1528993228055429e-16 -0.03579694174393723 0.9993590840942007
12642588000.0 -0.024734983379764784 0.9996940434938189 -3.1598697301068223e-17 -1.1492208876433584e-16 -3.1598697301068223e-17 -1.1492208876433584e-16 -0.02473566004660487 0.9996940267511243
12643205333.333334 -0.013670672342958445 0.9999065519924907 -3.2872251220680216e-17 -1.1454008808986967e-16 -3.2872251220680216e-17 -1.1454008808986967e-16 -0.013671349120598711 0.9999065427393907
12643822666.666666 -0.0026046871416251687 0.9999966077966032 -3.414121721521226e-17 -1.1414398331462477e-16 -3.414121721521226e-17 -1.1414398331462477e-16 -0.0026053639471778716 0.999996606033501
12644440000.0 0.008461617037890112 0.9999641998776374 -3.540543919143626e-17 -1.1373382922991517e-16 -3.540543919143626e-17 -1.1373382922991517e-16 0.008460940287308068 0.9999642056040177
12645057333.333334 0.019526884970152276 0.9998093322044876 -3.66647617072388e-17 -1.13309682353408e-16 -3.66647617072388e-17 -1.13309682353408e-16 0.019526208357409144 0.9998093454189168
12645674666.666666 0.030589761556602483 0.9995320237429768 -3.791902999070121e-17 -1.1287160092141957e-16 -3.791902999070121e-17 -1.1287160092141957e-16 0.03058908516454157 0.9995320444431063
12646292000.0 0.04164889199170811 0.9991323084535317 -3.916808995911097e-17 -1.1241964488099299e-16 -3.916808995911097e-17 -1.1241964488099299e-16 0.04164821590313761 0.9991323366360962
12646909333.333334 0.05270292192850847 0.9986102352870304 -4.0411788237816155e-17 -1.1195387588178817e-16 -4.0411788237816155e-17 -1.1195387588178817e-16 0.052702246226191296 0.9986102709478475
12647526666.666666 0.06375049764472941 0.9979658681788016 -4.1649972179055e-17 -1.1147435726773943e-16 -4.1649972179055e-17 -1.1147435726773943e-16 0.06374982241137318 0.9979659113127755
12648144000.0 0.07479026620865091 0.9971992860407888 -4.288248988066783e-17 -1.1098115406851056e-16 -4.288248988066783e-17 -1.1098115406851056e-16 0.07478959152689764 0.9971993366419072
12648761333.333334 0.08582087564450869 0.9963105827518999 -4.410919020466834e-17 -1.1047433299076042e-16 -4.410919020466834e-17 -1.1047433299076042e-16 0.08582020159692479 0.9963106408132371
12649378666.666666 0.09684097509817644 0.9952998671465066 -4.532992279575703e-17 -1.0995396240918715e-16 -4.532992279575703e-17 -1.0995396240918715e-16 0.09684030176724275 0.9952999326602254
12649996000.0 0.10784921500271064 0.99416726300111 -4.6544538099729423e-17 -1.0942011235736648e-16 -4.6544538099729423e-17 -1.0942011235736648e-16 0.107848542470812 0.9941673359584597
12650613333.333334 0.11884424724353845 0.9929129090191826 -4.775288738175593e-17 -1.0887285451839741e-16 -4.775288738175593e-17 -1.0887285451839741e-16 0.11884357559295394 0.9929129894105028
12651230666.666666 0.12982472532344108 0.9915369588142001 -4.8954822744549506e-17 -1.0831226221534769e-16 -4.8954822744549506e-17 -1.0831226221534769e-16 0.12982405463633379 0.9915370466289203
12651848000.0 0.14078930452773333 0.9900395808907934 -5.015019714646557e-17 -1.0773841040148009e-16 -5.015019714646557e-17 -1.0773841040148009e-16 0.1407886348861403 0.9900396761174357
12652465333.333334 0.15173664208868864 0.9884209586241426 -5.1338864419429343e-17 -1.0715137565030526e-16 -5.1338864419429343e-17 -1.0715137565030526e-16 0.15173597357451105 0.9884210612503233
12653082666.666666 0.16266539734998145 0.9866812902375282 -5.252067928677612e-17 -1.06551236145426e-16 -5.252067928677612e-17 -1.06551236145426e-16 0.16266473004497414 0.9866814002499569
12653700000.0 0.17357423193114893 0.9848207887780049 -5.3695497381003185e-17 -1.0593807167016886e-16 -5.3695497381003185e-17 -1.0593807167016886e-16 0.17357356591691103 0.9848209061624897
12654317333.333334 0.1844618098911029 0.9828396820903798 -5.4863175261326625e-17 -1.0531196359705907e-16 -5.4863175261326625e-17 -1.0531196359705907e-16 0.18446114524906726 0.9828398068318264
12654934666.666666 0.19532679789201463 0.9807382127892605 -5.60235704312033e-17 -1.0467299487705795e-16 -5.60235704312033e-17 -1.0467299487705795e-16 0.19532613470343824 0.9807383448716758
12655552000.0 0.20616786536259993 0.9785166382293398 -5.717654135566811e-17 -1.0402125002863782e-16 -5.717654135566811e-17 -1.0402125002863782e-16 0.20616720370855407 0.9785167776358338
12656169333.333334 0.2169836846608167 0.9761752304739322 -5.832194747854874e-17 -1.033568151266668e-16 -5.832194747854874e-17 -1.033568151266668e-16 0.2169830246221765 0.9761753771867184
12656786666.666666 0.22777293123670345 0.973714276261604 -5.94596492395929e-17 -1.0267977779108026e-16 -5.94596492395929e-17 -1.0267977779108026e-16 0.2277722728941384 0.9737144302620035
12657404000.0 0.23853428379456093 0.9711340769710609 -6.058950809142403e-17 -1.0199022717538842e-16 -6.058950809142403e-17 -1.0199022717538842e-16 0.2385336272285251 0.9711342382395045
12658021333.333334 0.24926642445468059 0.9684349485842602 -6.17113865163844e-17 -1.0128825395498479e-16 -6.17113865163844e-17 -1.0128825395498479e-16 0.2492657697454024 0.9684351171002895
12658638666.666666 0.2599680389145725 0.9656172216477565 -6.282514804322434e-17 -1.005739503152838e-16 -6.282514804322434e-17 -1.005739503152838e-16 0.25996738614204523 0.9656173973900287
12659256000.0 0.2706378166104426 0.9626812412320873 -6.393065726369661e-17 -9.984740993964685e-17 -6.393065726369661e-17 -9.984740993964685e-17 0.27063716585441533 0.9626814241783778
12659873333.333334 0.28127445087716907 0.9596273668896521 -6.502777984895895e-17 -9.910872799716236e-17 -6.502777984895895e-17 -9.910872799716236e-17 0.28127380221713516 0.9596275570168544
12660490666.666666 0.2918766391084576 0.9564559726106434 -6.611638256585823e-17 -9.835800113023059e-17 -6.611638256585823e-17 -9.835800113023059e-17 0.29187599262364633 0.9564561698947742
12661108000.0 0.3024430829166103 0.9531674467771734 -6.719633329311419e-17 -9.759532744194228e-17 -6.719633329311419e-17 -9.759532744194228e-17 0.30244243868597714 0.9531676511933768
12661725333.333334 0.3129724882911512 0.9497621921158295 -6.826750103726353e-17 -9.682080648334462e-17 -6.826750103726353e-17 -9.682080648334462e-17 0.3129718463933672 0.9497624036383763
12662342666.666666 0.32346356575759283 0.9462406256482561 -6.9329755948555e-17 -9.603453924046536e-17 -6.9329755948555e-17 -9.603453924046536e-17 0.3234629262710367 0.946240844250552
12662960000.0 0.3339150305352178 0.9426031786401342 -7.038296933663762e-17 -9.523662812120402e-17 -7.038296933663762e-17 -9.523662812120402e-17 0.3339143935379645 0.9426034042947189
12663577333.333334 0.3443256026944427 0.9388502965483517 -7.142701368611843e-17 -9.44271769420379e-17 -7.142701368611843e-17 -9.44271769420379e-17 0.3443249682642553 0.938850529226905
12664194666.666666 0.354694007313566 0.934982438966457 -7.246176267196474e-17 -9.360629091455988e-17 -7.246176267196474e-17 -9.360629091455988e-17 0.35469337552788505 0.9349826786397994
12664812000.0 0.3650189746348976 0.9310000795683675 -7.348709117475235e-17 -9.277407663184757e-17 -7.348709117475235e-17 -9.277407663184757e-17 0.3650183455708331 0.9310003262064689
12665429333.333334 0.3752992402202883 0.9269037060503615 -7.450287529576135e-17 -9.193064205466512e-17 -7.450287529576135e-17 -9.193064205466512e-17 0.37529861395460845 0.9269039596223385
12666046666.666666 0.38553354510581617 0.9226938200714045 -7.550899237189485e-17 -9.107609649751378e-17 -7.550899237189485e-17 -9.107609649751378e-17 0.3855329217149399 0.9226940805455301
12666664000.0 0.3957206359563629 0.9183709371915646 -7.650532099049341e-17 -9.021055061447535e-17 -7.650532099049341e-17 -9.021055061447535e-17 0.3957200155163491 0.9183712045352684
12667281333.333334 0.4058592652185736 0.9139355868090813 -7.749174100389745e-17 -8.933411638496968e-17 -7.749174100389745e-17 -8.933411638496968e-17 0.40585864780511294 0.9139358609889563
12667898666.666666 0.4159481912740078 0.9093883120953895 -7.84681335439346e-17 -8.844690709927974e-17 -7.84681335439346e-17 -8.844690709927974e-17 0.4159475769624127 0.9093885930771938
12668516000.0 0.42598617859116356 0.9047296699286025 -7.943438103620271e-17 -8.754903734395064e-17 -7.943438103620271e-17 -8.754903734395064e-17 0.4259855674563588 0.9047299576772639
12669133333.333334 0.43597199787655344 0.8999602308254221 -8.039036721416814e-17 -8.664062298705311e-17 -8.039036721416814e-17 -8.664062298705311e-17 0.4359713899930682 0.8999605253050448
12669750666.666666 0.44590442622550835 0.8950805788711538 -8.133597713314147e-17 -8.572178116324857e-17 -8.133597713314147e-17 -8.572178116324857e-17 0.44590382166746617 0.8950808800450203
