! Parameters = {f0=12700.012000; bw=77.238000; Q=6100.000000; N=10; m_0_1=1.295991; m_1_1=0.675119; m_1_2=1.130803; m_2_2=0.674470; m_2_3=0.767766; m_2_8=0.001863; m_2_9=0.038567; m_3_3=0.672533; m_3_4=0.656295; m_3_7=0.002463; m_3_8=-0.094625; m_3_9=0.001863; m_4_4=0.669608; m_4_5=0.492630; m_4_6=0.005980; m_4_7=-0.115174; m_4_8=0.002463; m_5_5=0.669990; m_5_6=0.899985; m_5_7=0.005980; m_6_6=0.669989; m_6_7=0.492972; m_7_7=0.669622; m_7_8=0.656413; m_8_8=0.672531; m_8_9=0.768079; m_9_9=0.674465; m_9_10=1.131881; m_10_10=0.675109; m_10_11=1.296786}
!
! Created with skrf (http://scikit-rf.org).
# Hz S RI R 50.0 
!freq ReS11 ImS11 ReS21 ImS21 ReS12 ImS12 ReS22 ImS22
12607400000.0 -0.7166036214345766 -0.6974806447111395 1.1049857390122723e-16 5.80709240264628e-17 1.1049857390122723e-16 5.80709240264628e-17 -0.71660314522478 -0.6974811339769481
12608017333.333334 -0.724433242958877 -0.6893449618992665 1.1113048609241577e-16 5.679859322831091e-17 1.1113048609241577e-16 5.679859322831091e-17 -0.7244327723268132 -0.6893454564865888
12608634666.666666 -0.7321705048152031 -0.6811213929091257 1.1174775873336083e-16 5.551940488086937e-17 1.1174775873336083e-16 5.551940488086937e-17 -0.7321700398203252 -0.6811218927543877
12609252000.0 -0.7398144205622493 -0.6728109861825682 1.1235031762801774e-16 5.423352730802928e-17 1.1235031762801774e-16 5.423352730802928e-17 -0.7398139612632859 -0.6728114912215317
12609869333.333334 -0.7473640156596414 -0.6644148012325671 1.1293809051435786e-16 5.2941129633804053e-17 1.1293809051435786e-16 5.2941129633804053e-17 -0.747363562114589 -0.6644153114003383
12610486666.666666 -0.754818327592088 -0.6559339085082428 1.1351100707295797e-16 5.1642381760139186e-17 1.1351100707295797e-16 5.1642381760139186e-17 -0.754817879858204 -0.6559344237392806
12611104000.0 -0.7621764059923009 -0.6473693892581549 1.1406899893535784e-16 5.033745434457824e-17 1.1406899893535784e-16 5.033745434457824e-17 -0.762175964126096 -0.6473699094862782
12611721333.333334 -0.7694373127618968 -0.6387223353927493 1.1461199969212745e-16 4.9026518777921445e-17 1.1461199969212745e-16 4.9026518777921445e-17 -0.7694368768191291 -0.6387228605511478
12612338666.666666 -0.7766001221911684 -0.6299938493449591 1.1513994490071014e-16 4.770974716171939e-17 1.1513994490071014e-16 4.770974716171939e-17 -0.7765996922268341 -0.6299943793661993
12612956000.0 -0.78366392107719 -0.6211850439295364 1.1565277209299428e-16 4.6387312285716366e-17 1.1565277209299428e-16 4.6387312285716366e-17 -0.7836634971455186 -0.6211855787455723
12613573333.333334 -0.7906278088399051 -0.6122970422015994 1.1615042078261515e-16 4.505938760524327e-17 1.1615042078261515e-16 4.505938760524327e-17 -0.7906273909943518 -0.6122975817437801
12614190666.666666 -0.797490897637283 -0.6033309773130305 1.166328324720222e-16 4.372614721847048e-17 1.166328324720222e-16 4.372614721847048e-17 -0.7974904859305215 -0.6033315215121094
12614808000.0 -0.8042523124784042 -0.5942879923681414 1.170999506592662e-16 4.238776584363581e-17 1.170999506592662e-16 4.238776584363581e-17 -0.80425190696232 -0.5942885411542845
12615425333.333334 -0.8109111913349435 -0.5851692402780231 1.1755172084453345e-16 4.104441879618141e-17 1.1755172084453345e-16 4.104441879618141e-17 -0.8109107920606291 -0.5851697935808194
12616042666.666666 -0.8174666852511456 -0.5759758836134733 1.179880905364166e-16 3.9696281965829223e-17 1.179880905364166e-16 3.9696281965829223e-17 -0.817466292268892 -0.5759764413619423
12616660000.0 -0.8239179584520389 -0.5667090944567958 1.1840900925792704e-16 3.8343531793573706e-17 1.1840900925792704e-16 3.8343531793573706e-17 -0.8239175718113299 -0.5667096565793973
12617277333.333334 -0.8302641884500085 -0.5573700542523481 1.188144285522368e-16 3.6986345248639654e-17 1.188144285522368e-16 3.6986345248639654e-17 -0.8302638081995153 -0.5573706206769914
12617894666.666666 -0.8365045661495787 -0.5479599536560339 1.1920430198815464e-16 3.56248998053873e-17 1.1920430198815464e-16 3.56248998053873e-17 -0.8365041923371521 -0.5479605243100863
12618512000.0 -0.8426382959507366 -0.5384799923832418 1.1957858516536383e-16 3.425937342007304e-17 1.1957858516536383e-16 3.425937342007304e-17 -0.8426379286234035 -0.53848056719354
12619129333.333334 -0.848664595850149 -0.5289313790562253 1.1993723571935128e-16 3.2889944507706e-17 1.1993723571935128e-16 3.2889944507706e-17 -0.8486642350541036 -0.5289319579490819
12619746666.666666 -0.8545826975410165 -0.5193153310497738 1.2028021332610975e-16 3.1516791918721996e-17 1.2028021332610975e-16 3.1516791918721996e-17 -0.8545823433216166 -0.5193159139509888
12620364000.0 -0.8603918465110239 -0.5096330743360051 1.206074797065577e-16 3.0140094915664455e-17 1.206074797065577e-16 3.0140094915664455e-17 -0.8603914989127837 -0.5096336611708742
12620981333.333334 -0.8660913021384004 -0.4998858433282811 1.209189986306871e-16 2.876003314984867e-17 1.209189986306871e-16 2.876003314984867e-17 -0.8660909612049866 -0.4998864340216067
12621598666.666666 -0.8716803377864939 -0.4900748807235887 1.2121473592145986e-16 2.737678663791983e-17 1.2121473592145986e-16 2.737678663791983e-17 -0.8716800035607196 -0.4900754751996884
12622216000.0 -0.8771582408963369 -0.48020143734422616 1.2149465945842488e-16 2.599053573842419e-17 1.2149465945842488e-16 2.599053573842419e-17 -0.8771579134201536 -0.480202035526942
12622833333.333334 -0.8825243130775172 -0.47026677197828215 1.217587391810726e-16 2.460146112832123e-17 1.217587391810726e-16 2.460146112832123e-17 -0.8825239923920142 -0.47026737379099176
12623450666.666666 -0.8877778701971677 -0.4602721512192516 1.2200694709191857e-16 2.3209743779484618e-17 1.2200694709191857e-16 2.3209743779484618e-17 -0.887777556342564 -0.4602727565848775
12624068000.0 -0.8929182424672549 -0.45021884930443035 1.2223925725932344e-16 2.1815564935142827e-17 1.2223925725932344e-16 2.1815564935142827e-17 -0.8929179354828942 -0.45021945814544917
12624685333.333334 -0.8979447745299804 -0.44010814795243147 1.224556458200419e-16 2.041910608630768e-17 1.224556458200419e-16 2.041910608630768e-17 -0.8979444744543277 -0.4401087601908849
12625302666.666666 -0.9028568255412087 -0.4299413362000312 1.2265609098149817e-16 1.9020548948218638e-17 1.2265609098149817e-16 1.9020548948218638e-17 -0.9028565324118434 -0.4299419517575349
12625920000.0 -0.9076537692523575 -0.41971971023744437 1.2284057302380392e-16 1.7620075436679752e-17 1.2284057302380392e-16 1.7620075436679752e-17 -0.9076534831059707 -0.41972032903519896
12626537333.333334 -0.9123349940900672 -0.40944457324342803 1.2300907430149453e-16 1.6217867644481468e-17 1.2300907430149453e-16 1.6217867644481468e-17 -0.912334714962456 -0.4094451952022287
12627154666.666666 -0.9168999032342473 -0.3991172352189837 1.2316157924500403e-16 1.4814107817738616e-17 1.2316157924500403e-16 1.4814107817738616e-17 -0.916899631160309 -0.39911786025922974
12627772000.0 -0.92134791469423 -0.3887390128201839 1.23298074361872e-16 1.3408978332217956e-17 1.23298074361872e-16 1.3408978332217956e-17 -0.9213476497079621 -0.3887396408618908
12628389333.333334 -0.9256784613828155 -0.37831122919067556 1.2341854823767165e-16 1.200266166973164e-17 1.2341854823767165e-16 1.200266166973164e-17 -0.925678203517307 -0.3783118601534831
12629006666.666666 -0.9298909911887372 -0.36783521379259626 1.235229915366817e-16 1.0595340394407062e-17 1.235229915366817e-16 1.0595340394407062e-17 -0.9298907404761655 -0.3678358475957797
12629624000.0 -0.9339849670469277 -0.3573123022373658 1.2361139700227664e-16 9.18719712908157e-18 1.2361139700227664e-16 9.18719712908157e-18 -0.9339847235185563 -0.3573129387998465
12630241333.333334 -0.9379598670070587 -0.3467438361152492 1.2368375945705596e-16 7.77841453160408e-18 1.2368375945705596e-16 7.77841453160408e-18 -0.9379596306932318 -0.34674447535560465
12630858666.666666 -0.9418151843000219 -0.33613116282447236 1.2374007580270049e-16 6.3691752712011415e-18 1.2374007580270049e-16 6.3691752712011415e-18 -0.9418149552301621 -0.33613180466094694
12631476000.0 -0.9455504274026518 -0.3254756353991484 1.23780345019562e-16 4.959662004787434e-18 1.23780345019562e-16 4.959662004787434e-18 -0.9455502056052532 -0.32547627974966264
12632093333.333334 -0.9491651201002564 -0.3147786123371198 1.238045681659809e-16 3.550057353371573e-18 1.238045681659809e-16 3.550057353371573e-18 -0.9491649056028842 -0.31477925911928245
12632710666.666666 -0.9526588015473978 -0.30404145742660343 1.2381274837733832e-16 2.1405438784089494e-18 1.2381274837733832e-16 2.1405438784089494e-18 -0.9526585943766847 -0.30404210655772124
12633328000.0 -0.956031026326685 -0.2932655395721812 1.2380489086483757e-16 7.313040581749872e-19 1.2380489086483757e-16 7.313040581749872e-19 -0.9560308265083262 -0.2932661909692693
12633945333.333334 -0.9592813645054835 -0.28245223262051833 1.237810029140186e-16 -6.774797357922715e-19 1.237810029140186e-16 -6.774797357922715e-19 -0.9592811720642341 -0.28245288620031117
12634562666.666666 -0.9624094016907707 -0.2716029151850737 1.2374109388300428e-16 -2.0856252622758716e-18 1.2374109388300428e-16 -2.0856252622758716e-18 -0.9624092166504443 -0.27160357086403597
12635180000.0 -0.9654147390819611 -0.26071897047036424 1.236851752004783e-16 -3.492950433916423e-18 1.236851752004783e-16 -3.492950433916423e-18 -0.9654145614654241 -0.26071962816470073
12635797333.333334 -0.9682969935217556 -0.2498017860955893 1.2361326036339729e-16 -4.899273340726523e-18 1.2361326036339729e-16 -4.899273340726523e-18 -0.9682968233509269 -0.2498024457212564
12636414666.666666 -0.9710557975449636 -0.23885275391782998 1.2352536493443548e-16 -6.304412273555444e-18 1.2352536493443548e-16 -6.304412273555444e-18 -0.97105563484081 -0.2388534153905458
12637032000.0 -0.9736907994253952 -0.22787326985443332 1.234215065391624e-16 -7.708185747553822e-18 1.234215065391624e-16 -7.708185747553822e-18 -0.9736906442079295 -0.2278739330896888
12637649333.333334 -0.9762016632206744 -0.2168647337051532 1.233017048629553e-16 -9.110412525564951e-18 1.233017048629553e-16 -9.110412525564951e-18 -0.976201515508953 -0.21686539861822288
12638266666.666666 -0.9785880688150734 -0.2058285489736587 1.2316598164764641e-16 -1.0510911641492538e-17 1.2316598164764641e-16 -1.0510911641492538e-17 -0.9785879286271952 -0.20582921547961167
12638884000.0 -0.9808497119603325 -0.1947661226885998 1.2301436068790486e-16 -1.1909502423620656e-17 1.2301436068790486e-16 -1.1909502423620656e-17 -0.9808495793134336 -0.1947667907023101
12639501333.333334 -0.9829863043144443 -0.18367886522419188 1.2284686782735387e-16 -1.3306004517889968e-17 1.2284686782735387e-16 -1.3306004517889968e-17 -0.9829861792247 -0.18367953466034992
12640118666.666666 -0.9849975734783903 -0.17256819012060173 1.2266353095442835e-16 -1.4700237911095972e-17 1.2266353095442835e-16 -1.4700237911095972e-17 -0.9849974559610087 -0.1725688608937247
12640736000.0 -0.9868832630309656 -0.16143551390314295 1.224643799979562e-16 -1.6092022954131436e-17 1.224643799979562e-16 -1.6092022954131436e-17 -0.9868831531001891 -0.16143618592758602
12641353333.333334 -0.9886431325613068 -0.15028225590263214 1.222494469225024e-16 -1.748118038498124e-17 1.222494469225024e-16 -1.748118038498124e-17 -0.9886430302304091 -0.15028292909259935
12641970666.666666 -0.9902769576996949 -0.13910983807356728 1.2201876572342305e-16 -1.886753135188093e-17 1.2201876572342305e-16 -1.886753135188093e-17 -0.9902768629809803 -0.1391105123431226
12642588000.0 -0.9917845301460868 -0.12791968481325955 1.2177237242167533e-16 -2.0250897436270277e-17 1.2177237242167533e-16 -2.0250897436270277e-17 -0.9917844430508868 -0.12792036007633745
12643205333.333334 -0.9931656576966785 -0.11671322278020564 1.2151030505836668e-16 -2.1631100675706412e-17 1.2151030505836668e-16 -2.1631100675706412e-17 -0.9931655782353519 -0.11671389895062248
12643822666.666666 -0.9944201642684387 -0.10549188071197446 1.2123260368903646e-16 -2.3007963586750443e-17 1.2123260368903646e-16 -2.3007963586750443e-17 -0.9944200924503708 -0.10549255770343935
12644440000.0 -0.9955478899215182 -0.09425708924336408 1.2093931037768752e-16 -2.4381309187734636e-17 1.2093931037768752e-16 -2.4381309187734636e-17 -0.995547825755118 -0.09425776696948984
12645057333.333334 -0.9965486908796612 -0.08301028072383766 1.206304691905568e-16 -2.575096102148015e-17 1.206304691905568e-16 -2.575096102148015e-17 -0.9965486343723634 -0.08301095909815205
12645674666.666666 -0.9974224395485279 -0.07175288903508031 1.203061261896292e-16 -2.711674317793454e-17 1.203061261896292e-16 -2.711674317793454e-17 -0.9974223907067875 -0.07175356797103664
12646292000.0 -0.9981690245319922 -0.06048634940767935 1.199663294258894e-16 -2.847848031675318e-17 1.199663294258894e-16 -2.847848031675318e-17 -0.9981689833612877 -0.06048702881866793
12646909333.333334 -0.9987883506462922 -0.04921209823890918 1.1961112893233615e-16 -2.983599768973029e-17 1.1961112893233615e-16 -2.983599768973029e-17 -0.9987883171511235 -0.04921277803826819
12647526666.666666 -0.9992803389322052 -0.037931572909034636 1.192405767167234e-16 -3.118912116322278e-17 1.192405767167234e-16 -3.118912116322278e-17 -0.9992803131160934 -0.03793225301006122
12648144000.0 -0.9996449266651062 -0.026646211598112476 1.1885472675405728e-16 -3.253767724044822e-17 1.1885472675405728e-16 -3.253767724044822e-17 -0.9996449085305923 -0.02664689191407376
12648761333.333334 -0.9998820673629512 -0.015357453102890044 1.1845363497884491e-16 -3.388149308368173e-17 1.1845363497884491e-16 -3.388149308368173e-17 -0.9998820569115979 -0.015358133547034242
12649378666.666666 -0.999991730792215 -0.004066736653256357 1.1803735927708937e-16 -3.522039653637251e-17 1.1803735927708937e-16 -3.522039653637251e-17 -0.9999917280246049 -0.004067417138823802
12649996000.0 -0.9999739029717448 0.0072244982713623885 1.1760595947802907e-16 -3.6554216145180134e-17 1.1760595947802907e-16 -3.6554216145180134e-17 -0.9999739078874808 0.007223817831128179
12650613333.333334 -0.9998285861745386 0.018514812125468533 1.171594973456375e-16 -3.788278118188443e-17 1.171594973456375e-16 -3.788278118188443e-17 -0.9998285987722437 0.018514131817309785
12651230666.666666 -0.9995557989274615 0.029802765480768146 1.1669803656987732e-16 -3.9205921665189865e-17 1.1669803656987732e-16 -3.9205921665189865e-17 -0.9995558192047809 0.02980208539140181
12651848000.0 -0.9991555760088748 0.04108691921025542 1.1622164275769415e-16 -4.052346838246785e-17 1.1622164275769415e-16 -4.052346838246785e-17 -0.9991556039624742 0.041086239426362095
12652465333.333334 -0.998627968444211 0.052365834671150406 1.1573038342377975e-16 -4.183525291134773e-17 1.1573038342377975e-16 -4.183525291134773e-17 -0.998628004069776 0.05236515527936319
12653082666.666666 -0.9979730434994646 0.06363807388845685 1.1522432798110089e-16 -4.3141107641174376e-17 1.1522432798110089e-16 -4.3141107641174376e-17 -0.9979730867917072 0.0636373949753506
12653700000.0 -0.9971908846726111 0.07490219973854882 1.147035477311445e-16 -4.444086579446736e-17 1.147035477311445e-16 -4.444086579446736e-17 -0.9971909356252622 0.0749015213906287
12654317333.333334 -0.9962815916829735 0.08615677613199502 1.1416811585398133e-16 -4.573436144810308e-17 1.1416811585398133e-16 -4.573436144810308e-17 -0.9962816502887913 0.08615609843568588
12654934666.666666 -0.9952452804585006 0.09740036819693342 1.13618107398041e-16 -4.702142955450895e-17 1.13618107398041e-16 -4.702142955450895e-17 -0.9952453467092666 0.09739969123856851
12655552000.0 -0.9940820831209778 0.10863154246200571 1.1305359926966907e-16 -4.830190596268374e-17 1.1305359926966907e-16 -4.830190596268374e-17 -0.9940821570075007 0.10863086632781588
12656169333.333334 -0.9927921479692106 0.11984886703885954 1.124746702224592e-16 -4.9575627439067984e-17 1.124746702224592e-16 -4.9575627439067984e-17 -0.9927922294813254 0.11984819181496205
12656786666.666666 -0.9913756394600882 0.13105091180498596 1.118814008463236e-16 -5.084243168834853e-17 1.118814008463236e-16 -5.084243168834853e-17 -0.9913757285866603 0.13105023757737372
12657404000.0 -0.9898327381876322 0.14223624858590767 1.1127387355635205e-16 -5.210215737408565e-17 1.1127387355635205e-16 -5.210215737408565e-17 -0.9898328349165558 0.1422355754404381
12658021333.333334 -0.9881636408599624 0.15340345133731656 1.1065217258142731e-16 -5.3354644139229803e-17 1.1065217258142731e-16 -5.3354644139229803e-17 -0.9881637451781644 0.15340277935970079
12658638666.666666 -0.986368560274244 0.16455109632674322 1.100163839526231e-16 -5.459973262648251e-17 1.100163839526231e-16 -5.459973262648251e-17 -0.9863686721676851 0.16455042560253513
12659256000.0 -0.9844477252895093 0.17567776231535231 1.0936659549134821e-16 -5.583726449856594e-17 1.0936659549134821e-16 -5.583726449856594e-17 -0.9844478447431858 0.1756770929299377
12659873333.333334 -0.9824013807975208 0.18678203073888694 1.0870289679729358e-16 -5.70670824582935e-17 1.0870289679729358e-16 -5.70670824582935e-17 -0.9824015077954675 0.1867813627774726
12660490666.666666 -0.9802297876915549 0.19786248588852545 1.0802537923614141e-16 -5.828903026852674e-17 1.0802537923614141e-16 -5.828903026852674e-17 -0.9802299222168454 0.19786181943612832
12661108000.0 -0.9779332228330836 0.2089177150916524 1.0733413592703144e-16 -5.95029527720169e-17 1.0733413592703144e-16 -5.95029527720169e-17 -0.9779333648678333 0.2089170502330887
12661725333.333334 -0.9755119790165527 0.2199463088915726 1.0662926172984714e-16 -6.070869591102619e-17 1.0662926172984714e-16 -6.070869591102619e-17 -0.9755121285419224 0.21994564571144712
12662342666.666666 -0.9729663649319941 0.23094686122751296 1.0591085323223826e-16 -6.190610674687495e-17 1.0591085323223826e-16 -6.190610674687495e-17 -0.9729665219281909 0.23094619981020836
12662960000.0 -0.9702967051256952 0.24191796961374484 1.051790087364527e-16 -6.309503347928819e-17 1.051790087364527e-16 -6.309503347928819e-17 -0.970296869571977 0.241917310043411
12663577333.333334 -0.9675033399588199 0.2528582353184186 1.0443382824594283e-16 -6.427532546560179e-17 1.0443382824594283e-16 -6.427532546560179e-17 -0.9675035118334951 0.25285757767896133
12664194666.666666 -0.9645866255640125 0.2637662635418907 1.0367541345174919e-16 -6.544683323982376e-17 1.0367541345174919e-16 -6.544683323982376e-17 -0.9645868048444439 0.2637656079169613
12664812000.0 -0.9615469337999908 0.2746406635945489 1.0290386771868997e-16 -6.660940853150586e-17 1.0290386771868997e-16 -6.660940853150586e-17 -0.9615471204626026 0.2746400100675345
12665429333.333334 -0.9583846522041358 0.2854800490741441 1.0211929607131857e-16 -6.776290428448569e-17 1.0211929607131857e-16 -6.776290428448569e-17 -0.9583848462244107 0.28547939772815556
12666046666.666666 -0.9551001839431192 0.29628303804240763 1.0132180517969306e-16 -6.890717467543245e-17 1.0132180517969306e-16 -6.890717467543245e-17 -0.9551003852956051 0.29628238896027
12666664000.0 -0.9516939477614128 0.30704825320153795 1.0051150334490385e-16 -7.004207513227407e-17 1.0051150334490385e-16 -7.004207513227407e-17 -0.9516941564197258 0.30704760646577955
12667281333.333334 -0.9481663779280213 0.31777432206941536 9.96885004844474e-17 -7.116746235238487e-17 9.96885004844474e-17 -7.116746235238487e-17 -0.9481665938648477 0.3177736777622571
12667898666.666666 -0.9445179241810275 0.32845987715485325 9.885290811734641e-17 -7.228319432066903e-17 9.885290811734641e-17 -7.228319432066903e-17 -0.9445181473681303 0.32845923535819915
12668516000.0 -0.9407490516702572 0.3391035561319433 9.800483934908965e-17 -7.338913032744257e-17 9.800483934908965e-17 -7.338913032744257e-17 -0.9407492820784761 0.33910291692736866
12669133333.333334 -0.9368602408980544 0.3497040020134987 9.7144408856391e-17 -7.448513098611416e-17 9.7144408856391e-17 -7.448513098611416e-17 -0.9368604784973118 0.34970336548224057
12669750666.666666 -0.9328519876579315 0.36025986332432847 9.627173287171144e-17 -7.557105825074087e-17 9.627173287171144e-17 -7.557105825074087e-17 -0.9328522324172361 0.3602592295472753
