! Parameters = {f0=12700.012000; bw=77.238000; Q=6100.000000; N=10; m_0_1=1.190886; m_1_1=-0.901457; m_1_2=1.025698; m_2_2=-0.902106; m_2_3=0.662661; m_2_8=-0.003392; m_2_9=0.033312; m_3_3=-0.904043; m_3_4=0.551190; m_3_7=-0.002792; m_3_8=-0.099880; m_3_9=-0.003392; m_4_4=-0.906968; m_4_5=0.387525; m_4_6=0.000725; m_4_7=-0.120429; m_4_8=-0.002792; m_5_5=-0.906586; m_5_6=0.794880; m_5_7=0.000725; m_6_6=-0.906587; m_6_7=0.387867; m_7_7=-0.906954; m_7_8=0.551308; m_8_8=-0.904045; m_8_9=0.662974; m_9_9=-0.902111; m_9_10=1.026776; m_10_10=-0.901467; m_10_11=1.191681}
!
! Created with skrf (http://scikit-rf.org).
# Hz S RI R 50.0 
!freq ReS11 ImS11 ReS21 ImS21 ReS12 ImS12 ReS22 ImS22
12607400000.0 -0.13251371413890242 -0.9911811719181095 3.06425162428409e-17 6.844905738476359e-17 3.06425162428409e-17 6.844905738476359e-17 -0.13251309210742948 -0.9911812550789956
12608017333.333334 -0.14062113710489788 -0.9900634806916013 3.120161483830113e-17 6.81798611403298e-17 3.120161483830113e-17 6.81798611403298e-17 -0.14062051580527535 -0.9900635689361079
12608634666.666666 -0.14871914132944294 -0.9888794754681066 3.1758358550436276e-17 6.790610312511732e-17 3.1758358550436276e-17 6.790610312511732e-17 -0.14871852080321132 -0.9888795687898247
12609252000.0 -0.15680718441199773 -0.9876292355517966 3.231271020081058e-17 6.762780386078616e-17 3.231271020081058e-17 6.762780386078616e-17 -0.1568065647006419 -0.9876293339439794
12609869333.333334 -0.1648847246191316 -0.9863128446832258 3.286463278921536e-17 6.734498417164833e-17 3.286463278921536e-17 6.734498417164833e-17 -0.1648841057640777 -0.9863129481387867
12610486666.666666 -0.17295122092086465 -0.9849303910337146 3.3414089496114573e-17 6.705766518313219e-17 3.3414089496114573e-17 6.705766518313219e-17 -0.17295060296347747 -0.9849304995452289
12611104000.0 -0.1810061330271295 -0.983481967199404 3.3961043685107474e-17 6.676586832021184e-17 3.3961043685107474e-17 6.676586832021184e-17 -0.18100551600870948 -0.9834820807591083
12611721333.333334 -0.18904892142348326 -0.981967670195135 3.45054589053478e-17 6.64696153058326e-17 3.45054589053478e-17 6.64696153058326e-17 -0.18904830538526426 -0.9819677887949302
12612338666.666666 -0.19707904740772078 -0.9803876014478712 3.504729889397727e-17 6.616892815930127e-17 3.504729889397727e-17 6.616892815930127e-17 -0.1970784323908666 -0.9803877250793194
12612956000.0 -0.20509597312573155 -0.9787418667899386 3.5586527578526566e-17 6.586382919466706e-17 3.5586527578526566e-17 6.586382919466706e-17 -0.2050953591713338 -0.9787419954442674
12613573333.333334 -0.2130991616074705 -0.9770305764519548 3.6123109079304404e-17 6.555434101908209e-17 3.6123109079304404e-17 6.555434101908209e-17 -0.21309854875654538 -0.9770307101200552
12614190666.666666 -0.22108807680311765 -0.9752538450554008 3.6657007711779654e-17 6.524048653113816e-17 3.6657007711779654e-17 6.524048653113816e-17 -0.22108746509660376 -0.9752539837278301
12614808000.0 -0.22906218361876143 -0.9734117916049962 3.718818798894959e-17 6.492228891918459e-17 3.718818798894959e-17 6.492228891918459e-17 -0.22906157309751674 -0.973411935271977
12615425333.333334 -0.23702094795246056 -0.9715045394806767 3.7716614623685885e-17 6.459977165963069e-17 3.7716614623685885e-17 6.459977165963069e-17 -0.2370203386572591 -0.9715046881320968
12616042666.666666 -0.24496383672979546 -0.9695322164293783 3.824225253106428e-17 6.427295851523034e-17 3.824225253106428e-17 6.427295851523034e-17 -0.2449632287013258 -0.9695323700547944
12616660000.0 -0.25289031793976824 -0.96749495455644 3.876506683069635e-17 6.394187353333842e-17 3.876506683069635e-17 6.394187353333842e-17 -0.25288971121862974 -0.9674951131450756
12617277333.333334 -0.26079986067038 -0.9653928903167636 3.928502284903124e-17 6.360654104415644e-17 3.928502284903124e-17 6.360654104415644e-17 -0.2607992552970808 -0.965393053857512
12617894666.666666 -0.26869193514397216 -0.9632261645057361 3.9802086121632e-17 6.326698565896694e-17 3.9802086121632e-17 6.326698565896694e-17 -0.2686913311589259 -0.9632263329871589
12618512000.0 -0.27656601275317727 -0.9609949222496724 4.031622239548145e-17 6.292323226832078e-17 4.031622239548145e-17 6.292323226832078e-17 -0.2765654101967006 -0.9609950956600014
12619129333.333334 -0.2844215660958578 -0.9586993129962205 4.082739763121182e-17 6.257530604024481e-17 4.082739763121182e-17 6.257530604024481e-17 -0.28442096500816794 -0.958699491323359
12619746666.666666 -0.29225806901062434 -0.9563394905043009 4.13355780053618e-17 6.22232324184038e-17 4.13355780053618e-17 6.22232324184038e-17 -0.2922574694318364 -0.9563396737358246
12620364000.0 -0.30007499661226805 -0.9539156128337517 4.184072991261785e-17 6.18670371202441e-17 4.184072991261785e-17 6.18670371202441e-17 -0.30007439858239177 -0.9539158009569086
12620981333.333334 -0.3078718253264538 -0.9514278423348781 4.2342819967997286e-17 6.150674613514745e-17 4.2342819967997286e-17 6.150674613514745e-17 -0.30787122888539165 -0.9514280353365899
12621598666.666666 -0.3156480329252523 -0.9488763456374409 4.284181500907543e-17 6.114238572252688e-17 4.284181500907543e-17 6.114238572252688e-17 -0.31564743811279566 -0.9488765435043026
12622216000.0 -0.3234030985618993 -0.9462612936395567 4.33376820981527e-17 6.077398240993452e-17 4.33376820981527e-17 6.077398240993452e-17 -0.3234025054177277 -0.9462614963578412
12622833333.333334 -0.3311365028056573 -0.9435828614962675 4.3830388524417643e-17 6.040156299114334e-17 4.3830388524417643e-17 6.040156299114334e-17 -0.33113591136933407 -0.9435830690519225
12623450666.666666 -0.3388477276766861 -0.9408412286077773 4.4319901806099167e-17 6.002515452420818e-17 4.4319901806099167e-17 6.002515452420818e-17 -0.33884713798765603 -0.9408414409864282
12624068000.0 -0.34653625668065713 -0.9380365786074676 4.480618969260194e-17 5.96447843295091e-17 4.480618969260194e-17 5.96447843295091e-17 -0.3465356687782447 -0.9380367957944183
12624685333.333334 -0.35420157484356113 -0.9351690993495168 4.528922016661811e-17 5.926047998778227e-17 4.528922016661811e-17 5.926047998778227e-17 -0.3542009887669672 -0.9351693213297508
12625302666.666666 -0.361843168745855 -0.9322389828964479 4.5768961446219565e-17 5.887226933813734e-17 4.5768961446219565e-17 5.887226933813734e-17 -0.3618425845341543 -0.9322392096546296
12625920000.0 -0.3694605265571687 -0.9292464255061432 4.624538198695944e-17 5.848018047603628e-17 4.624538198695944e-17 5.848018047603628e-17 -0.36945994424930717 -0.9292466570266175
12626537333.333334 -0.3770531380703758 -0.9261916276187807 4.6718450483908535e-17 5.808424175129378e-17 4.6718450483908535e-17 5.808424175129378e-17 -0.37705255770516793 -0.9261918638855755
12627154666.666666 -0.3846204947358468 -0.9230747938433796 4.718813587372285e-17 5.768448176602322e-17 4.718813587372285e-17 5.768448176602322e-17 -0.384619916351973 -0.9230750348402054
12627772000.0 -0.3921620896955888 -0.919896132944059 4.765440733667829e-17 5.728092937257702e-17 4.765440733667829e-17 5.728092937257702e-17 -0.3921615133315936 -0.9198963786543132
12628389333.333334 -0.39967741781701294 -0.9166558578261362 4.811723429865587e-17 5.68736136714989e-17 4.811723429865587e-17 5.68736136714989e-17 -0.3996768435113014 -0.9166561082329009
12629006666.666666 -0.4071659757269497 -0.9133541855217863 4.8576586433172365e-17 5.646256400940604e-17 4.8576586433172365e-17 5.646256400940604e-17 -0.40716540351778563 -0.9133544406078311
12629624000.0 -0.4146272618452869 -0.9099913371755388 4.903243366332718e-17 5.604780997691188e-17 4.903243366332718e-17 5.604780997691188e-17 -0.4146266917707894 -0.9099915969233209
12630241333.333334 -0.4220607764185124 -0.9065675380294882 4.9484746163782576e-17 5.562938140648875e-17 4.9484746163782576e-17 5.562938140648875e-17 -0.4220602085166546 -0.9065678024211556
12630858666.666666 -0.42946602155321556 -0.9030830174081994 4.9933494362691155e-17 5.5207308370345484e-17 4.9933494362691155e-17 5.5207308370345484e-17 -0.4294654558618208 -0.9030832864255899
12631476000.0 -0.43684250124963947 -0.8995380087032475 5.0378648943631716e-17 5.4781621178265313e-17 5.0378648943631716e-17 5.4781621178265313e-17 -0.4368419378063795 -0.8995382823278909
12632093333.333334 -0.44418972143449315 -0.8959327493577811 5.082018084750378e-17 5.435235037545007e-17 5.082018084750378e-17 5.435235037545007e-17 -0.44418916027688554 -0.8959330275709008
12632710666.666666 -0.45150718999435213 -0.8922674808504736 5.1258061274419316e-17 5.391952674033478e-17 5.1258061274419316e-17 5.391952674033478e-17 -0.45150663115975775 -0.8922677636329871
12633328000.0 -0.45879441680866906 -0.8885424486793176 5.169226168557381e-17 5.3483181282387784e-17 5.169226168557381e-17 5.3483181282387784e-17 -0.45879386033428965 -0.8885427360118393
12633945333.333334 -0.4660509137822996 -0.8847579023453422 5.212275380509214e-17 5.304334523990461e-17 5.212275380509214e-17 5.304334523990461e-17 -0.4660503597051746 -0.8847581942081819
12634562666.666666 -0.47327619487849426 -0.8809140953357367 5.254950962186222e-17 5.2600050077778213e-17 5.254950962186222e-17 5.2600050077778213e-17 -0.47327564323549975 -0.8809143917089043
12635180000.0 -0.48046977615123093 -0.8770112851069999 5.2972501391341885e-17 5.215332748526485e-17 5.2972501391341885e-17 5.215332748526485e-17 -0.48046922697907607 -0.8770115859702049
12635797333.333334 -0.48763117577782733 -0.8730497330675838 5.3391701637362474e-17 5.1703209373718116e-17 5.3391701637362474e-17 5.1703209373718116e-17 -0.48763062911305205 -0.8730500384002364
12636414666.666666 -0.4947599140910379 -0.8690297045604788 5.380708315389296e-17 5.124972787433011e-17 5.380708315389296e-17 5.124972787433011e-17 -0.49475936997001113 -0.8690300143416929
12637032000.0 -0.5018555136112595 -0.8649514688454051 5.4218619006799455e-17 5.0792915335843264e-17 5.4218619006799455e-17 5.0792915335843264e-17 -0.5018549720701752 -0.8649517830539969
12637649333.333334 -0.508917499078583 -0.8608152990807301 5.462628253558574e-17 5.033280432224825e-17 5.462628253558574e-17 5.033280432224825e-17 -0.5089169601534594 -0.8608156176952224
12638266666.666666 -0.5159453974844551 -0.8566214723052721 5.5030047355099405e-17 4.9869427610483146e-17 5.5030047355099405e-17 4.9869427610483146e-17 -0.5159448612111327 -0.8566217953038964
12638884000.0 -0.522938738103535 -0.8523702694196508 5.542988735723922e-17 4.940281818809773e-17 5.542988735723922e-17 4.940281818809773e-17 -0.5229382045176715 -0.8523705967803439
12639501333.333334 -0.5298970525251678 -0.8480619751674906 5.582577671262945e-17 4.893300925091787e-17 5.582577671262945e-17 4.893300925091787e-17 -0.5298965216622383 -0.8480623068679013
12640118666.666666 -0.5368198746845464 -0.8436968781164911 5.621768987226536e-17 4.8460034200708076e-17 5.621768987226536e-17 4.8460034200708076e-17 -0.5368193465798403 -0.8436972141339796
12640736000.0 -0.5437067408944568 -0.8392752706387657 5.660560156918115e-17 4.798392664277103e-17 5.660560156918115e-17 4.798392664277103e-17 -0.5437062155830752 -0.8392756109504054
12641353333.333334 -0.5505571898756856 -0.8347974488916663 5.698948682003122e-17 4.750472038361324e-17 5.698948682003122e-17 4.750472038361324e-17 -0.5505566673925387 -0.8347977934742441
12641970666.666666 -0.5573707627883496 -0.8302637127976743 5.73693209267126e-17 4.7022449428524983e-17 5.73693209267126e-17 4.7022449428524983e-17 -0.5573702431681555 -0.8302640616276946
12642588000.0 -0.5641470032625557 -0.8256743660243564 5.774507947793723e-17 4.653714797918314e-17 5.774507947793723e-17 4.653714797918314e-17 -0.564146486539837 -0.8256747190780416
12643205333.333334 -0.5708854574288034 -0.8210297159641372 5.81167383507871e-17 4.6048850431238685e-17 5.81167383507871e-17 4.6048850431238685e-17 -0.5708849436378849 -0.8210300732174276
12643822666.666666 -0.5775856739486652 -0.8163300737135146 5.848427371225249e-17 4.555759137188638e-17 5.848427371225249e-17 4.555759137188638e-17 -0.5775851631236726 -0.8163304351420728
12644440000.0 -0.5842472040447143 -0.8115757540524355 5.884766202075047e-17 4.506340557742286e-17 5.884766202075047e-17 4.506340557742286e-17 -0.5842466962195713 -0.8115761196316471
12645057333.333334 -0.590869601530771 -0.8067670754230826 5.920688002761856e-17 4.456632801079745e-17 5.920688002761856e-17 4.456632801079745e-17 -0.5908690967391962 -0.8067674451280564
12645674666.666666 -0.5974524228417162 -0.8019043599085927 5.956190477858675e-17 4.406639381915304e-17 5.956190477858675e-17 4.406639381915304e-17 -0.5974519211172228 -0.8019047337141646
12646292000.0 -0.6039952270632942 -0.796987933211417 5.991271361524851e-17 4.3563638331327905e-17 5.991271361524851e-17 4.3563638331327905e-17 -0.6039947284391863 -0.7969883110921505
12646909333.333334 -0.6104975759614855 -0.7920181246316249 6.025928417647552e-17 4.3058097055395924e-17 6.025928417647552e-17 4.3058097055395924e-17 -0.6104970804708569 -0.7920185065618136
12647526666.666666 -0.616959034012018 -0.7869952670447282 6.060159439983934e-17 4.2549805676155646e-17 6.060159439983934e-17 4.2549805676155646e-17 -0.6169585416877484 -0.7869956529983961
12648144000.0 -0.623379168429448 -0.7819196968794535 6.093962252301119e-17 4.20388000526104e-17 6.093962252301119e-17 4.20388000526104e-17 -0.6233786793042021 -0.7819200868303577
12648761333.333334 -0.629757549196213 -0.7767917540951538 6.127334708511868e-17 4.152511621546829e-17 6.127334708511868e-17 4.152511621546829e-17 -0.6297570633024385 -0.776792148016787
12649378666.666666 -0.6360937490912596 -0.7716117821591837 6.160274692810441e-17 4.1008790364598626e-17 6.160274692810441e-17 4.1008790364598626e-17 -0.6360932664611846 -0.7716121800247749
12649996000.0 -0.6423873437189243 -0.76638012802368 6.192780119805721e-17 4.048985886648637e-17 6.192780119805721e-17 4.048985886648637e-17 -0.6423868643845542 -0.7663805298061959
12650613333.333334 -0.6486379115372213 -0.761097142102425 6.224848934651251e-17 3.9968358251690185e-17 6.224848934651251e-17 3.9968358251690185e-17 -0.6486374355303394 -0.7610975477745743
12651230666.666666 -0.654845033885932 -0.75576317824751 6.256479113174144e-17 3.944432521227653e-17 6.256479113174144e-17 3.944432521227653e-17 -0.6548445612380949 -0.7557635877817431
12651848000.0 -0.6610082950150127 -0.7503785937253225 6.287668662002277e-17 3.8917796599234246e-17 6.287668662002277e-17 3.8917796599234246e-17 -0.6610078257575476 -0.7503790070938319
12652465333.333334 -0.6671272821120707 -0.7449437491929227 6.31841561868729e-17 3.8388809419913437e-17 6.31841561868729e-17 3.8388809419913437e-17 -0.6671268162760764 -0.7449441663676492
12653082666.666666 -0.6732015853301714 -0.7394590086737679 6.348718051827548e-17 3.785740083542095e-17 6.348718051827548e-17 3.785740083542095e-17 -0.6732011229465135 -0.7394594296263984
12653700000.0 -0.6792307978154319 -0.7339247395331887 6.378574061188273e-17 3.7323608158014654e-17 6.378574061188273e-17 3.7323608158014654e-17 -0.6792303389147428 -0.7339251642351617
12654317333.333334 -0.6852145157339176 -0.7283413124541124 6.407981777818675e-17 3.6787468848505495e-17 6.407981777818675e-17 3.6787468848505495e-17 -0.6852140603465929 -0.728341740876617
12654934666.666666 -0.6911523382990465 -0.7227091014119076 6.436939364168259e-17 3.6249020513624255e-17 6.436939364168259e-17 3.6249020513624255e-17 -0.6911518864552433 -0.7227095335258862
12655552000.0 -0.6970438677982634 -0.7170284836494869 6.465445014199923e-17 3.570830090339781e-17 6.465445014199923e-17 3.570830090339781e-17 -0.6970434195278992 -0.7170289194256383
12656169333.333334 -0.7028887096196436 -0.7112998396520838 6.493496953500967e-17 3.5165347908517154e-17 6.493496953500967e-17 3.5165347908517154e-17 -0.702888264952392 -0.711300279060863
12656786666.666666 -0.7086864722784583 -0.7055235531216224 6.521093439392709e-17 3.4620199557677454e-17 6.521093439392709e-17 3.4620199557677454e-17 -0.7086860312437517 -0.7055239961332469
12657404000.0 -0.7144367674432455 -0.6997000109511876 6.548232761036587e-17 3.4072894014938344e-17 6.548232761036587e-17 3.4072894014938344e-17 -0.7144363300702667 -0.6997004575356329
12658021333.333334 -0.7201392099619695 -0.6938296031989385 6.57491323953949e-17 3.3523469577045716e-17 6.57491323953949e-17 3.3523469577045716e-17 -0.7201387762796556 -0.6938300533259463
12658638666.666666 -0.7257934178876659 -0.6879127230621528 6.601133228055384e-17 3.297196467077562e-17 6.601133228055384e-17 3.297196467077562e-17 -0.7257929879247034 -0.6879131767012294
12659256000.0 -0.7313990125041607 -0.681949766850744 6.626891111886057e-17 3.241841785024191e-17 6.626891111886057e-17 3.241841785024191e-17 -0.7313985862889841 -0.6819502239711641
12659873333.333334 -0.7369556183513966 -0.6759411339607592 6.652185308578797e-17 3.186286779421548e-17 6.652185308578797e-17 3.186286779421548e-17 -0.7369551959121862 -0.6759415945315663
12660490666.666666 -0.7424628632504259 -0.6698872268477922 6.677014268021742e-17 3.1305353303435593e-17 6.677014268021742e-17 3.1305353303435593e-17 -0.7424624446151072 -0.6698876908378032
12661108000.0 -0.7479203783286679 -0.6637884509996753 6.701376472537905e-17 3.07459132978952e-17 6.701376472537905e-17 3.07459132978952e-17 -0.7479199635249087 -0.6637889183774802
12661725333.333334 -0.7533277980442881 -0.6576452149096725 6.725270436975644e-17 3.018458681414768e-17 6.725270436975644e-17 3.018458681414768e-17 -0.7533273870994969 -0.657645685643638
12662342666.666666 -0.7586847602108377 -0.6514579300489552 6.748694708798242e-17 2.962141300257605e-17 6.748694708798242e-17 2.962141300257605e-17 -0.7586843531521612 -0.6514584041072256
12662960000.0 -0.7639909060215457 -0.6452270108389943 6.771647868169833e-17 2.905643112468612e-17 6.771647868169833e-17 2.905643112468612e-17 -0.7639905028758684 -0.6452274881894945
12663577333.333334 -0.7692458800732246 -0.6389528746239551 6.794128528040448e-17 2.8489680550362416e-17 6.794128528040448e-17 2.8489680550362416e-17 -0.769245480867166 -0.6389533552343933
12664194666.666666 -0.7744493303902038 -0.6326359416425938 6.816135334227445e-17 2.792120075514854e-17 6.816135334227445e-17 2.792120075514854e-17 -0.7744489351501168 -0.6326364254804624
12664812000.0 -0.779600908447847 -0.6262766350001716 6.837666965495852e-17 2.735103131749238e-17 6.837666965495852e-17 2.735103131749238e-17 -0.7796005171998169 -0.6262771220327502
12665429333.333334 -0.7847002691958636 -0.6198753806401619 6.858722133635738e-17 2.6779211916002794e-17 6.858722133635738e-17 2.6779211916002794e-17 -0.7846998819657058 -0.6198758708345197
12666046666.666666 -0.7897470710814547 -0.6134326073156768 6.879299583536852e-17 2.62057823267123e-17 6.879299583536852e-17 2.62057823267123e-17 -0.7897466878947127 -0.6134331006386742
12666664000.0 -0.794740976072244 -0.6069487465606825 6.899398093262802e-17 2.5630782420285215e-17 6.899398093262802e-17 2.5630782420285215e-17 -0.7947405969541874 -0.606949242978973
12667281333.333334 -0.7996816496787932 -0.6004242326612496 6.919016474120472e-17 2.505425215928707e-17 6.919016474120472e-17 2.505425215928707e-17 -0.7996812746544179 -0.6004247321412837
12667898666.666666 -0.8045687609771314 -0.5938595026263107 6.938153570728856e-17 2.4476231595401675e-17 6.938153570728856e-17 2.4476231595401675e-17 -0.8045683900711559 -0.5938600051343367
12668516000.0 -0.8094019826308669 -0.587254996158456 6.956808261085511e-17 2.3896760866645113e-17 6.956808261085511e-17 2.3896760866645113e-17 -0.8094016158677312 -0.5872555016605221
12669133333.333334 -0.8141809909130601 -0.5806111556245499 6.974979456629476e-17 2.331588019461053e-17 6.974979456629476e-17 2.331588019461053e-17 -0.814180628316925 -0.5806116640865077
12669750666.666666 -0.8189054657280245 -0.573928426025941 6.992666102303136e-17 2.2733629881670486e-17 6.992666102303136e-17 2.2733629881670486e-17 -0.8189051073227698 -0.5739289374134476
12670368000.0 -0.8235750906326531 -0.5672072549688202 7.009867176611482e-17 2.2150050308185128e-17 7.009867176611482e-17 2.2150050308185128e-17 -0.8235747364418747 -0.5672077692473394
