! Parameters = {f0=12700.012000; bw=77.238000; Q=6100.000000; N=10; m_0_1=1.231727; m_1_1=-0.288845; m_1_2=1.066539; m_2_2=-0.289494; m_2_3=0.703502; m_2_8=-0.001350; m_2_9=0.035354; m_3_3=-0.291431; m_3_4=0.592031; m_3_7=-0.000750; m_3_8=-0.097838; m_3_9=-0.001350; m_4_4=-0.294356; m_4_5=0.428366; m_4_6=0.002767; m_4_7=-0.118387; m_4_8=-0.000750; m_5_5=-0.293974; m_5_6=0.835721; m_5_7=0.002767; m_6_6=-0.293975; m_6_7=0.428708; m_7_7=-0.294342; m_7_8=0.592149; m_8_8=-0.291433; m_8_9=0.703815; m_9_9=-0.289499; m_9_10=1.067617; m_10_10=-0.288855; m_10_11=1.232522}
!
! Created with skrf (http://scikit-rf.org).
# Hz S RI R 50.0 
!freq ReS11 ImS11 ReS21 ImS21 ReS12 ImS12 ReS22 ImS22
12607400000.0 0.3206144049396481 -0.9472097990123569 -3.5296981367325604e-18 9.194836335322036e-17 -3.5296981367325604e-18 9.194836335322036e-17 0.32061501969283623 -0.9472095909286371
12608017333.333334 0.3117046868476013 -0.9501790295502591 -2.6573453526576146e-18 9.195967937301106e-17 -2.6573453526576146e-18 9.195967937301106e-17 0.31170530349766984 -0.9501788272589846
12608634666.666666 0.30276747658947845 -0.953064454860988 -1.7850953734959392e-18 9.196272523557373e-17 -1.7850953734959392e-18 9.196272523557373e-17 0.3027680950818562 -0.9530642583794325
12609252000.0 0.2938035624219404 -0.9558658204518099 -9.1302654378718e-19 9.195750390639589e-17 -9.1302654378718e-19 9.195750390639589e-17 0.2938041827018985 -0.9558656297967318
12609869333.333334 0.28481373495688744 -0.9585828792440132 -4.1217161099383397e-20 9.194401909257708e-17 -4.1217161099383397e-20 9.194401909257708e-17 0.28481435696954566 -0.9585826944316582
12610486666.666666 0.27579878709189354 -0.961215391594659 8.302545309570829e-19 9.192227524220497e-17 8.302545309570829e-19 9.192227524220497e-17 0.2757994107822238 -0.961215212640755
12611104000.0 0.26675951393986347 -0.9637631253178354 1.7013103497759492e-18 9.189227754366531e-17 1.7013103497759492e-18 9.189227754366531e-17 0.26676013925269493 -0.9637629522375909
12611721333.333334 0.25769671275944894 -0.9662258557049728 2.571872180712252e-18 9.185403192488715e-17 2.571872180712252e-18 9.185403192488715e-17 0.2576973396394732 -0.9662256885130779
12612338666.666666 0.24861118288435075 -0.9686033655447822 3.441861984109063e-18 9.18075450525195e-17 3.441861984109063e-18 9.18075450525195e-17 0.24861181127612653 -0.968603204255405
12612956000.0 0.23950372565284195 -0.9708954451423915 4.311201802262485e-18 9.175282433104327e-17 4.311201802262485e-18 9.175282433104327e-17 0.2395043555008004 -0.97089528976918
12613573333.333334 0.23037514433734077 -0.9731018923377881 5.179813766379244e-18 9.168987790181872e-17 5.179813766379244e-18 9.168987790181872e-17 0.2303757755857898 -0.9731017428938663
12614190666.666666 0.22122624407331296 -0.9752225125237056 6.0476201035600106e-18 9.161871464206369e-17 6.0476201035600106e-18 9.161871464206369e-17 0.22122687666644247 -0.9752223690216734
12614808000.0 0.2120578317882872 -0.977257118662783 6.914543143732336e-18 9.153934416376965e-17 6.914543143732336e-18 9.153934416376965e-17 0.21205846567017397 -0.9772569811147146
12615425333.333334 0.20287071613082275 -0.9792055313040272 7.780505326600225e-18 9.145177681254903e-17 7.780505326600225e-18 9.145177681254903e-17 0.20287135124543532 -0.9792053997214708
12616042666.666666 0.1936657073990763 -0.9810675785986658 8.645429208552572e-18 9.135602366642048e-17 8.645429208552572e-18 9.135602366642048e-17 0.19366634369028016 -0.9810674529926434
12616660000.0 0.18444361746936233 -0.9828430963153016 9.509237469584358e-18 9.125209653452577e-17 9.509237469584358e-18 9.125209653452577e-17 0.1844442548809245 -0.9828429766963056
12617277333.333334 0.17520525972454565 -0.9845319278543934 1.0371852920191106e-17 9.114000795578332e-17 1.0371852920191106e-17 9.114000795578332e-17 0.17520589820013988 -0.9845318142323872
12617894666.666666 0.16595144898232972 -0.9861339242620648 1.1233198508248895e-17 9.101977119747667e-17 1.1233198508248895e-17 9.101977119747667e-17 0.16595208846554144 -0.9861338166464828
12618512000.0 0.1566830014232499 -0.9876489442432653 1.2093197325894815e-17 9.089140025377547e-17 1.2093197325894815e-17 9.089140025377547e-17 0.1566836418575813 -0.9876488426430111
12619129333.333334 0.14740073451896724 -0.9890768541741854 1.2951772616353071e-17 9.07549098441977e-17 1.2951772616353071e-17 9.07549098441977e-17 0.1474013758478421 -0.9890767585976312
12619746666.666666 0.13810546695991596 -0.9904175281140861 1.3808847780793968e-17 9.061031541200063e-17 1.3808847780793968e-17 9.061031541200063e-17 0.13810610912668478 -0.9904174385690722
12620364000.0 0.12879801858312304 -0.9916708478163996 1.466434638515002e-17 9.045763312251011e-17 1.466434638515002e-17 9.045763312251011e-17 0.1287986615310677 -0.9916707643102319
12620981333.333334 0.11947921030003902 -0.9928367027391333 1.5518192166904505e-17 9.029687986138835e-17 1.5518192166904505e-17 9.029687986138835e-17 0.11947985397237833 -0.992836625278587
12621598666.666666 0.11014986402402284 -0.9939149900546447 1.6370309041885038e-17 9.012807323283356e-17 1.6370309041885038e-17 9.012807323283356e-17 0.1101505083639172 -0.9939149186459596
12622216000.0 0.10081080259787688 -0.9949056146587003 1.7220621111025562e-17 8.99512315577176e-17 1.7220621111025562e-17 8.99512315577176e-17 0.10081144754843341 -0.9949055493075829
12622833333.333334 0.09146284972124467 -0.9958084891788698 1.8069052667111747e-17 8.976637387166032e-17 1.8069052667111747e-17 8.976637387166032e-17 0.09146349522552215 -0.9958084298904908
12623450666.666666 0.08210682987810257 -0.9966235339822163 1.8915528201506453e-17 8.957351992303973e-17 1.8915528201506453e-17 8.957351992303973e-17 0.08210747587911653 -0.9966234807612121
12624068000.0 0.07274356826378603 -0.9973506771823474 1.975997241085218e-17 8.937269017093977e-17 1.975997241085218e-17 8.937269017093977e-17 0.0727442147045137 -0.9973506300328174
12624685333.333334 0.06337389071234914 -0.9979898546457343 2.0602310203767654e-17 8.916390578303147e-17 2.0602310203767654e-17 8.916390578303147e-17 0.06337453753573467 -0.9979898135712438
12625302666.666666 0.053998623623896964 -0.9985410099973658 2.1442466707482373e-17 8.894718863340134e-17 2.1442466707482373e-17 8.894718863340134e-17 0.05399927077285625 -0.9985409750009429
12625920000.0 0.04461859389130047 -0.9990040946257422 2.2280367274511987e-17 8.872256130030112e-17 2.2280367274511987e-17 8.872256130030112e-17 0.044619241308726326 -0.9990040657098789
12626537333.333334 0.035234628827662096 -0.9993790676871371 2.311593748925028e-17 8.849004706385059e-17 2.311593748925028e-17 8.849004706385059e-17 0.03523527645642926 -0.9993790448537896
12627154666.666666 0.025847556093205677 -0.9996658961092164 2.394910317456311e-17 8.824966990367236e-17 2.394910317456311e-17 8.824966990367236e-17 0.025848203876175792 -0.999665879359804
12627772000.0 0.016458203621992986 -0.9998645545939564 2.477979039838315e-17 8.800145449645673e-17 2.477979039838315e-17 8.800145449645673e-17 0.016458851502019676 -0.9998645439293606
12628389333.333334 0.007067399549468648 -0.9999750256198612 2.5607925480215248e-17 8.774542621348429e-17 2.5607925480215248e-17 8.774542621348429e-17 0.007068047469402587 -0.9999750210404277
12629006666.666666 -0.002324027861120698 -0.9999972994435207 2.6433434997703848e-17 8.748161111806114e-17 2.6433434997703848e-17 8.748161111806114e-17 -0.0023233799584267685 -0.9999973009490587
12629624000.0 -0.01171525029143776 -0.9999313741004646 2.7256245793085014e-17 8.721003596291977e-17 2.7256245793085014e-17 8.721003596291977e-17 -0.011714602463123999 -0.9999313816902469
12630241333.333334 -0.02110543944125384 -0.9997772554053359 2.8076284979679333e-17 8.693072818753877e-17 2.8076284979679333e-17 8.693072818753877e-17 -0.021104791744448254 -0.9997772690780976
12630858666.666666 -0.03049376710144763 -0.99953495695138 2.8893479948313404e-17 8.664371591541595e-17 2.8893479948313404e-17 8.664371591541595e-17 -0.030493119593261047 -0.9995349767053209
12631476000.0 -0.03987940522719479 -0.9992045001092418 2.9707758373770445e-17 8.63490279512624e-17 2.9707758373770445e-17 8.63490279512624e-17 -0.0398787579647158 -0.9992045259420247
12632093333.333334 -0.04926152601074532 -0.9987859140250867 3.051904822112927e-17 8.604669377816406e-17 3.051904822112927e-17 8.604669377816406e-17 -0.04926087905103528 -0.9987859459338393
12632710666.666666 -0.058639301954577776 -0.9982792356180278 3.1327277752146223e-17 8.57367435546606e-17 3.1327277752146223e-17 8.57367435546606e-17 -0.058638655354665815 -0.9982792735993429
12633328000.0 -0.06801190594449771 -0.9976845095768653 3.213237553159266e-17 8.541920811176773e-17 3.213237553159266e-17 8.541920811176773e-17 -0.0680112597613756 -0.9976845536267993
12633945333.333334 -0.0773785113224465 -0.9970017883561475 3.293427043352917e-17 8.509411894995449e-17 3.293427043352917e-17 8.509411894995449e-17 -0.07737786561306362 -0.9970018384702214
12634562666.666666 -0.08673829195938382 -0.9962311321715476 3.373289164759539e-17 8.476150823604343e-17 3.373289164759539e-17 8.476150823604343e-17 -0.0867376467806423 -0.9962311883447494
12635180000.0 -0.09609042232823684 -0.9953726089945493 3.452816868523054e-17 8.442140880006742e-17 3.452816868523054e-17 8.442140880006742e-17 -0.09608977773698642 -0.9953726712213327
12635797333.333334 -0.10543407757671114 -0.9944262945464496 3.5320031385891195e-17 8.407385413205621e-17 3.5320031385891195e-17 8.407385413205621e-17 -0.10543343362974429 -0.9944263628207358
12636414666.666666 -0.11476843359990105 -0.9933922722916964 3.610840992321137e-17 8.371887837877681e-17 3.610840992321137e-17 8.371887837877681e-17 -0.11476779035394766 -0.9933923466068717
12637032000.0 -0.12409266711325743 -0.9922706334304939 3.6893234811167817e-17 8.335651634039893e-17 3.6893234811167817e-17 8.335651634039893e-17 -0.12409202462498013 -0.9922707137794142
12637649333.333334 -0.13340595572491845 -0.9910614768907908 3.767443691016489e-17 8.298680346712379e-17 3.767443691016489e-17 8.298680346712379e-17 -0.13340531405090764 -0.9910615632657809
12638266666.666666 -0.14270747800838557 -0.9897649093195414 3.845194743312185e-17 8.260977585574092e-17 3.845194743312185e-17 8.260977585574092e-17 -0.14270683720515423 -0.9897650017123948
12638884000.0 -0.15199641357494442 -0.9883810450732996 3.922569795151137e-17 8.22254702461336e-17 3.922569795151137e-17 8.22254702461336e-17 -0.15199577369892314 -0.9883811434752795
12639501333.333334 -0.1612719431460227 -0.986910006208135 3.999562040136645e-17 8.183392401772779e-17 3.999562040136645e-17 8.183392401772779e-17 -0.16127130425355465 -0.9869101106099747
12640118666.666666 -0.1705332486253935 -0.9853519224688737 4.0761647089247197e-17 8.143517518588679e-17 4.0761647089247197e-17 8.143517518588679e-17 -0.17053261077272994 -0.9853520328607801
12640736000.0 -0.1797795131716117 -0.98370693127761 4.152371069819967e-17 8.102926239823584e-17 4.152371069819967e-17 8.102926239823584e-17 -0.1797788764149066 -0.9837070476492628
12641353333.333334 -0.18900992126949873 -0.9819751777216836 4.228174429360982e-17 8.061622493096755e-17 4.228174429360982e-17 8.061622493096755e-17 -0.18900928566480374 -0.9819753000622344
12641970666.666666 -0.1982236588026301 -0.9801568145407823 4.303568132911029e-17 8.019610268504577e-17 4.303568132911029e-17 8.019610268504577e-17 -0.19822302440588993 -0.9801569428388582
12642588000.0 -0.20741991312486027 -0.9782520021135205 4.378545565239246e-17 7.976893618238395e-17 4.378545565239246e-17 7.976893618238395e-17 -0.2074192799919076 -0.9782521363572245
12643205333.333334 -0.21659787313199796 -0.9762609084432967 4.453100151098356e-17 7.933476656196931e-17 4.453100151098356e-17 7.933476656196931e-17 -0.21659724131854868 -0.9762610486202089
12643822666.666666 -0.2257567293335671 -0.974183709143427 4.527225355801479e-17 7.8893635575916e-17 4.527225355801479e-17 7.8893635575916e-17 -0.22575609889521528 -0.9741838552406052
12644440000.0 -0.23489567392389837 -0.9720205874217235 4.600914685791942e-17 7.84455855854831e-17 4.600914685791942e-17 7.84455855854831e-17 -0.2348950449161112 -0.9720207394257045
12645057333.333334 -0.24401390085351526 -0.9697717340643027 4.6741616892105045e-17 7.79906595570313e-17 4.6741616892105045e-17 7.79906595570313e-17 -0.24401327333162853 -0.9697718919611038
12645674666.666666 -0.2531106059002011 -0.9674373474187715 4.746959956459533e-17 7.752890105792227e-17 4.746959956459533e-17 7.752890105792227e-17 -0.253109979919414 -0.9674375111938907
12646292000.0 -0.26218498674009394 -0.9650176333766809 4.819303120762427e-17 7.706035425236814e-17 4.819303120762427e-17 7.706035425236814e-17 -0.26218436235546466 -0.9650178030151015
12646909333.333334 -0.27123624301820604 -0.962512805355442 4.891184858716869e-17 7.658506389724439e-17 4.891184858716869e-17 7.658506389724439e-17 -0.271235620284646 -0.962512980841629
12647526666.666666 -0.2802635764191222 -0.9599230842794637 4.962598890847634e-17 7.61030753378267e-17 4.962598890847634e-17 7.61030753378267e-17 -0.28026295539139234 -0.9599232655973693
12648144000.0 -0.2892661907374936 -0.9572486985606482 5.0335389821541396e-17 7.561443450348354e-17 5.0335389821541396e-17 7.561443450348354e-17 -0.28926557147019927 -0.9572488856937125
12648761333.333334 -0.2982432919481269 -0.9544898840782852 5.103998942650989e-17 7.511918790333668e-17 5.103998942650989e-17 7.511918790333668e-17 -0.29824267449571246 -0.9544900770094362
12649378666.666666 -0.30719408827598876 -0.9516468841582565 5.1739726279073176e-17 7.461738262185163e-17 5.1739726279073176e-17 7.461738262185163e-17 -0.3071934726927333 -0.9516470828699123
12649996000.0 -0.3161177902662847 -0.9487199495514974 5.243453939581762e-17 7.410906631437744e-17 5.243453939581762e-17 7.410906631437744e-17 -0.3161171766062971 -0.9487201540255682
12650613333.333334 -0.3250136108538442 -0.9457093384119568 5.3124368259514254e-17 7.359428720264902e-17 5.3124368259514254e-17 7.359428720264902e-17 -0.32501299917105864 -0.9457095486298466
12651230666.666666 -0.33388076543254 -0.9426153162738318 5.380915282437283e-17 7.307309407023446e-17 5.380915282437283e-17 7.307309407023446e-17 -0.33388015578071106 -0.9426155322164402
12651848000.0 -0.3427184719247329 -0.9394381560280659 5.448883352125991e-17 7.254553625792758e-17 5.448883352125991e-17 7.254553625792758e-17 -0.34271786435743024 -0.9394383776757881
12652465333.333334 -0.3515259508499792 -0.9361781378983669 5.516335126285311e-17 7.201166365910563e-17 5.516335126285311e-17 7.201166365910563e-17 -0.35152534542058433 -0.9361783652310994
12653082666.666666 -0.3603024253938916 -0.9328355494164632 5.583264744875709e-17 7.147152671503569e-17 5.583264744875709e-17 7.147152671503569e-17 -0.36030182215559176 -0.9328357824136011
12653700000.0 -0.36904712147675706 -0.9294106853966957 5.649666397060536e-17 7.092517641010697e-17 5.649666397060536e-17 7.092517641010697e-17 -0.369046520482541 -0.9294109240371369
12654317333.333334 -0.3777592678215454 -0.925903847910119 5.71553432170478e-17 7.037266426707135e-17 5.71553432170478e-17 7.037266426707135e-17 -0.3777586691241991 -0.9259040921722667
12654934666.666666 -0.3864380960221753 -0.9223153462577699 5.780862807875988e-17 6.981404234218269e-17 5.780862807875988e-17 6.981404234218269e-17 -0.38643749967427676 -0.9223155961195322
12655552000.0 -0.3950828406112592 -0.9186454969433926 5.845646195337439e-17 6.924936322031372e-17 5.845646195337439e-17 6.924936322031372e-17 -0.39508224666517394 -0.9186457523821866
12656169333.333334 -0.40369273912748493 -0.9148946236455772 5.909878875034865e-17 6.867868001004317e-17 5.909878875034865e-17 6.867868001004317e-17 -0.403692147635362 -0.9148948846383307
12656786666.666666 -0.41226703218297145 -0.9110630571891712 5.973555289583042e-17 6.810204633865729e-17 5.973555289583042e-17 6.810204633865729e-17 -0.4122664431967378 -0.9110633237123233
12657404000.0 -0.42080496353021823 -0.9071511355161095 6.036669933742703e-17 6.75195163471488e-17 6.036669933742703e-17 6.75195163471488e-17 -0.4208043771015754 -0.907151407545615
12658021333.333334 -0.4293057801288327 -0.9031592036555954 6.099217354895849e-17 6.693114468514275e-17 6.099217354895849e-17 6.693114468514275e-17 -0.4293051963092511 -0.9031594811669255
12658638666.666666 -0.4377687322118196 -0.8990876136937337 6.161192153513718e-17 6.63369865058017e-17 6.161192153513718e-17 6.63369865058017e-17 -0.4377681510525348 -0.8990878966618782
12659256000.0 -0.4461930733519394 -0.8949367247423614 6.222588983623694e-17 6.573709746064988e-17 6.222588983623694e-17 6.573709746064988e-17 -0.4461924949039478 -0.8949370131418329
12659873333.333334 -0.45457806052741695 -0.8907069029074416 6.283402553265834e-17 6.513153369440659e-17 6.283402553265834e-17 6.513153369440659e-17 -0.4545774848414702 -0.8907071967122744
12660490666.666666 -0.4629229541873205 -0.8863985212568438 6.343627624947912e-17 6.452035183974336e-17 6.343627624947912e-17 6.452035183974336e-17 -0.46292238131392144 -0.8863988204405978
12661108000.0 -0.471227018317146 -0.8820119597872629 6.403259016096281e-17 6.39036090119902e-17 6.403259016096281e-17 6.39036090119902e-17 -0.47122644830654514 -0.8820122643230273
12661725333.333334 -0.4794895205033536 -0.8775476053908976 6.462291599497258e-17 6.328136280384403e-17 6.462291599497258e-17 6.328136280384403e-17 -0.47948895340554454 -0.877547915251293
12662342666.666666 -0.4877097319982207 -0.8730058518212 6.520720303738809e-17 6.265367127998185e-17 6.520720303738809e-17 6.265367127998185e-17 -0.4877091678629339 -0.8730061669783777
12662960000.0 -0.49588692778408633 -0.8683870996581508 6.578540113642349e-17 6.202059297168084e-17 6.578540113642349e-17 6.202059297168084e-17 -0.4958863666607873 -0.8683874200837997
12663577333.333334 -0.5040203866371775 -0.8636917562730037 6.635746070692199e-17 6.13821868713696e-17 6.635746070692199e-17 6.13821868713696e-17 -0.5040198285750607 -0.8636920819383499
12664194666.666666 -0.5121093911913169 -0.8589202357922965 6.692333273458569e-17 6.073851242715297e-17 6.692333273458569e-17 6.073851242715297e-17 -0.5121088362393026 -0.8589205666681075
12664812000.0 -0.5201532280011716 -0.8540729590613417 6.748296878016235e-17 6.00896295372866e-17 6.748296878016235e-17 6.00896295372866e-17 -0.5201526762079003 -0.8540732951179276
12665429333.333334 -0.5281511876051779 -0.8491503536071079 6.803632098356386e-17 5.943559854463038e-17 6.803632098356386e-17 5.943559854463038e-17 -0.5281506390190068 -0.8491506948143246
12666046666.666666 -0.5361025645880899 -0.844152853600525 6.858334206793813e-17 5.877648023105703e-17 6.858334206793813e-17 5.877648023105703e-17 -0.5361020192570893 -0.8441531999277778
12666664000.0 -0.5440066576433187 -0.8390808998181171 6.912398534370295e-17 5.811233581180298e-17 6.912398534370295e-17 5.811233581180298e-17 -0.544006115615267 -0.8390812512343628
12667281333.333334 -0.551862769634547 -0.8339349396032782 6.9658204712495e-17 5.744322692982071e-17 6.9658204712495e-17 5.744322692982071e-17 -0.5518622309569262 -0.8339352960770274
12667898666.666666 -0.5596702076574306 -0.8287154268266788 7.018595467108633e-17 5.676921565006653e-17 7.018595467108633e-17 5.676921565006653e-17 -0.5596696723774232 -0.8287157883259997
12668516000.0 -0.5674282831006892 -0.8234228218462489 7.070719031524636e-17 5.609036445375312e-17 7.070719031524636e-17 5.609036445375312e-17 -0.567427751265173 -0.8234231883387693
12669133333.333334 -0.5751363117067219 -0.8180575914666548 7.122186734352617e-17 5.540673623259492e-17 7.122186734352617e-17 5.540673623259492e-17 -0.5751357833622663 -0.8180579629195646
12669750666.666666 -0.5827936136320527 -0.8126202088980611 7.172994206101698e-17 5.471839428298035e-17 7.172994206101698e-17 5.471839428298035e-17 -0.5827930888249154 -0.8126205852781172
12670368000.0 -0.5903995135072945 -0.807111153714398 7.223137138303896e-17 5.4025402300128564e-17 7.223137138303896e-17 5.4025402300128564e-17 -0.5903989922834153 -0.8071115349879243
