! Parameters = {f0=12700.012000; bw=77.238000; Q=6100.000000; N=10; m_0_1=1.164459; m_1_1=-1.297854; m_1_2=0.999271; m_2_2=-1.298503; m_2_3=0.636234; m_2_8=-0.004713; m_2_9=0.031991; m_3_3=-1.300440; m_3_4=0.524763; m_3_7=-0.004113; m_3_8=-0.101201; m_3_9=-0.004713; m_4_4=-1.303365; m_4_5=0.361098; m_4_6=-0.000596; m_4_7=-0.121750; m_4_8=-0.004113; m_5_5=-1.302983; m_5_6=0.768453; m_5_7=-0.000596; m_6_6=-1.302984; m_6_7=0.361440; m_7_7=-1.303351; m_7_8=0.524881; m_8_8=-1.300442; m_8_9=0.636547; m_9_9=-1.298508; m_9_10=1.000349; m_10_10=-1.297864; m_10_11=1.165254}
!
! Created with skrf (http://scikit-rf.org).
# Hz S RI R 50.0 
!freq ReS11 ImS11 ReS21 ImS21 ReS12 ImS12 ReS22 ImS22
12607400000.0 -0.12399181049043347 0.9922832412830305 -1.0654371897021166e-17 -6.450338626894581e-17 -1.0654371897021166e-17 -6.450338626894581e-17 -0.12399241943948568 0.9922831651909622
12608017333.333334 -0.11664271522675042 0.9931739409511223 -1.1135118993423324e-17 -6.440913971247472e-17 -1.1135118993423324e-17 -6.440913971247472e-17 -0.11664332469256328 0.993173869372587
12608634666.666666 -0.10928722764734351 0.9940102121573048 -1.1615052632146344e-17 -6.431131406292396e-17 -1.1615052632146344e-17 -6.431131406292396e-17 -0.10928783759646776 0.9940101450957829
12609252000.0 -0.1019257508516155 0.9947920090718391 -1.2094146196978654e-17 -6.42099162126231e-17 -1.2094146196978654e-17 -6.42099162126231e-17 -0.10192636125057872 0.9947919465305637
12609869333.333334 -0.0945586882672778 0.9955192888503084 -1.257237312927581e-17 -6.410495325161071e-17 -1.257237312927581e-17 -6.410495325161071e-17 -0.0945592990825861 0.9955192308322637
12610486666.666666 -0.08718644362815642 0.9961920116359719 -1.3049706929405544e-17 -6.399643246716349e-17 -1.3049706929405544e-17 -6.399643246716349e-17 -0.08718705482629652 0.9961919581438952
12611104000.0 -0.07980942095195374 0.9968101405619652 -1.3526121158236351e-17 -6.388436134330522e-17 -1.3526121158236351e-17 -6.388436134330522e-17 -0.07981003249939449 0.9968100915983433
12611721333.333334 -0.07242802451841805 0.9973736417532849 -1.4001589438576605e-17 -6.376874756031408e-17 -1.4001589438576605e-17 -6.376874756031408e-17 -0.07242863638161252 0.997373597320358
12612338666.666666 -0.06504265884682037 0.9978824843286843 -1.4476085456635077e-17 -6.364959899421398e-17 -1.4476085456635077e-17 -6.364959899421398e-17 -0.06504327099220762 0.9978824444284435
12612956000.0 -0.05765372867398359 0.998336640402343 -1.494958296348632e-17 -6.352692371625268e-17 -1.494958296348632e-17 -6.352692371625268e-17 -0.05765434106799053 0.9983366050365312
12613573333.333334 -0.05026163893213059 0.9987360850853977 -1.5422055776486746e-17 -6.34007299923801e-17 -1.5422055776486746e-17 -6.34007299923801e-17 -0.05026225154117377 0.9987360542555092
12614190666.666666 -0.04286679472660773 0.9990807964873103 -1.589347778074953e-17 -6.327102628270056e-17 -1.589347778074953e-17 -6.327102628270056e-17 -0.0428674075170952 0.99908077019459
12614808000.0 -0.035469601313740745 0.9993707557170639 -1.6363822930559248e-17 -6.313782124092786e-17 -1.6363822930559248e-17 -6.313782124092786e-17 -0.03547021425207391 0.9993707339625089
12615425333.333334 -0.02807046407851219 0.9996059468842051 -1.6833065250821798e-17 -6.30011237138205e-17 -1.6833065250821798e-17 -6.30011237138205e-17 -0.02807107713108763 0.9996059296685631
12616042666.666666 -0.02066978851254403 0.9997863570997048 -1.7301178838480872e-17 -6.286094274061274e-17 -1.7301178838480872e-17 -6.286094274061274e-17 -0.02067040164575537 0.9997863444234749
12616660000.0 -0.013267980191648435 0.9999119764766727 -1.776813786394794e-17 -6.271728755243104e-17 -1.776813786394794e-17 -6.271728755243104e-17 -0.013268593371888165 0.9999119683401051
12617277333.333334 -0.005865444753800096 0.9999827981308937 -1.8233916572529183e-17 -6.257016757169922e-17 -1.8233916572529183e-17 -6.257016757169922e-17 -0.005866057947461424 0.9999827945339902
12617894666.666666 0.0015374121231790149 0.9999988181812094 -1.8698489285819316e-17 -6.24195924115414e-17 -1.8698489285819316e-17 -6.24195924115414e-17 0.0015367989497003342 0.9999988191237227
12618512000.0 0.008940184743965525 0.9999600357497274 -1.9161830403145474e-17 -6.22655718751578e-17 -1.9161830403145474e-17 -6.22655718751578e-17 0.00893957162426934 0.9999600412311618
12619129333.333334 0.01634246741765516 0.999866452961872 -1.96239144029337e-17 -6.210811595521284e-17 -1.96239144029337e-17 -6.210811595521284e-17 0.01634185438533508 0.9998664629814825
12619746666.666666 0.023743854480365093 0.9997180749462655 -2.0084715844141103e-17 -6.194723483319035e-17 -2.0084715844141103e-17 -6.194723483319035e-17 0.023743241569006666 0.9997180895030596
12620364000.0 0.031143940317294862 0.999514909834448 -2.0544209367637025e-17 -6.178293887875321e-17 -2.0544209367637025e-17 -6.178293887875321e-17 0.0311433275604737 0.9995149289271836
12620981333.333334 0.03854231938478458 0.9992569687604353 -2.100236969759153e-17 -6.161523864908874e-17 -2.100236969759153e-17 -6.161523864908874e-17 0.03854170681606454 0.999256992387622
12621598666.666666 0.045938586232909105 0.9989442658600998 -2.145917164286558e-17 -6.144414488824152e-17 -2.145917164286558e-17 -6.144414488824152e-17 0.04593797388584051 0.9989442940199998
12622216000.0 0.05333233552735695 0.9985768182704068 -2.1914590098387173e-17 -6.126966852643861e-17 -2.1914590098387173e-17 -6.126966852643861e-17 0.05333172343547463 0.9985768509610334
12622833333.333334 0.06072316207192745 0.9981546461284638 -2.2368600046534455e-17 -6.109182067940096e-17 -2.2368600046534455e-17 -6.109182067940096e-17 0.060722550268748954 0.9981546833475815
12623450666.666666 0.06811066083039598 0.9976777725704322 -2.282117655848537e-17 -6.091061264765405e-17 -2.282117655848537e-17 -6.091061264765405e-17 0.06811004934941985 0.9976778143155592
12624068000.0 0.07549442694908001 0.9971462237302424 -2.3272294795603665e-17 -6.07260559158138e-17 -2.3272294795603665e-17 -6.07260559158138e-17 0.07549381582378377 0.9971462699986479
12624685333.333334 0.08287405577885552 0.9965600287381664 -2.372193001078433e-17 -6.053816215187437e-17 -2.372193001078433e-17 -6.053816215187437e-17 0.082873445042694 0.996560079526873
12625302666.666666 0.09024914289713495 0.9959192197192424 -2.4170057549802526e-17 -6.034694320648414e-17 -2.4170057549802526e-17 -6.034694320648414e-17 0.09024853258353834 0.9959192750250244
12625920000.0 0.09761928413053994 0.9952238317914679 -2.461665285267172e-17 -6.015241111220419e-17 -2.461665285267172e-17 -6.015241111220419e-17 0.09761867427291203 0.9952238916108529
12626537333.333334 0.10498407557645704 0.9944739030639311 -2.5061691454974124e-17 -5.995457808276692e-17 -2.5061691454974124e-17 -5.995457808276692e-17 0.10498346620817323 0.9944739673931987
12627154666.666666 0.11234311362556824 0.993669474634682 -2.5505148989193614e-17 -5.975345651232062e-17 -2.5505148989193614e-17 -5.975345651232062e-17 0.11234250477997405 0.9936695434698667
12627772000.0 0.11969599498391358 0.9928105905884883 -2.594700118605973e-17 -5.954905897465746e-17 -2.594700118605973e-17 -5.954905897465746e-17 0.1196953866943226 0.9928106639253773
12628389333.333334 0.1270423166948231 0.9918972979944366 -2.6387223875851744e-17 -5.934139822244602e-17 -2.6387223875851744e-17 -5.934139822244602e-17 0.12704170899451506 0.9918973758285706
12629006666.666666 0.1343816761612254 0.9909296469033261 -2.6825792989728735e-17 -5.913048718644008e-17 -2.6825792989728735e-17 -5.913048718644008e-17 0.13438106908344477 0.9909297292300004
12629624000.0 0.14171367116748626 0.9899076903449565 -2.7262684561034958e-17 -5.891633897468612e-17 -2.7262684561034958e-17 -5.891633897468612e-17 0.14171306474543963 0.9899077771592193
12630241333.333334 0.14903789990170296 0.9888314843251818 -2.769787472660062e-17 -5.86989668717202e-17 -2.769787472660062e-17 -5.86989668717202e-17 0.1490372941685583 0.988831575621838
12630858666.666666 0.15635396097738882 0.9877010878228961 -2.813133972804324e-17 -5.84783843377527e-17 -2.813133972804324e-17 -5.84783843377527e-17 0.1563533559662728 0.9877011835965044
12631476000.0 0.16366145345586267 0.9865165627867408 -2.85630559130639e-17 -5.825460500784181e-17 -2.85630559130639e-17 -5.825460500784181e-17 0.16366084919985924 0.9865166630316147
12632093333.333334 0.17095997686794065 0.9852779741317503 -2.8992999736724205e-17 -5.802764269106497e-17 -2.8992999736724205e-17 -5.802764269106497e-17 0.17095937340008902 0.9852780788419585
12632710666.666666 0.17824913123585465 0.9839853897358002 -2.942114776272294e-17 -5.779751136967681e-17 -2.942114776272294e-17 -5.779751136967681e-17 0.178248528589148 0.9839854989051697
12633328000.0 0.18552851709553753 0.9826388804358309 -2.984747666468133e-17 -5.756422519825085e-17 -2.984747666468133e-17 -5.756422519825085e-17 0.1855279153029203 0.9826389940579421
12633945333.333334 0.19279773551806498 0.9812385200240347 -3.027196322739829e-17 -5.732779850282317e-17 -3.027196322739829e-17 -5.732779850282317e-17 0.192797134612432 0.9812386380922266
12634562666.666666 0.20005638813174353 0.9797843852437808 -3.06945843481058e-17 -5.708824578002372e-17 -3.06945843481058e-17 -5.708824578002372e-17 0.20005578814593755 0.9797845077511481
12635180000.0 0.2073040771439966 0.9782765557853913 -3.111531703773203e-17 -5.684558169619051e-17 -3.111531703773203e-17 -5.684558169619051e-17 0.20730347811080682 0.978276682724787
12635797333.333334 0.21454040536299826 0.9767151142818122 -3.153413842213469e-17 -5.659982108648668e-17 -3.153413842213469e-17 -5.659982108648668e-17 0.2145398073151585 0.9767152456458467
12636414666.666666 0.221764976219551 0.9751001463040586 -3.1951025743345733e-17 -5.635097895399937e-17 -3.1951025743345733e-17 -5.635097895399937e-17 0.22176437918973785 0.9751002820851001
12637032000.0 0.22897739378876342 0.9734317403565376 -3.2365956360798765e-17 -5.609907046883389e-17 -3.2365956360798765e-17 -5.609907046883389e-17 0.228976797809595 0.9734318805467159
12637649333.333334 0.23617726281185986 0.9717099878721787 -3.277890775255957e-17 -5.584411096719449e-17 -3.277890775255957e-17 -5.584411096719449e-17 0.23617666791589276 0.9717101324633791
12638266666.666666 0.24336418871767357 0.9699349832074522 -3.3189857516533154e-17 -5.558611595046453e-17 -3.3189857516533154e-17 -5.558611595046453e-17 0.2433635949374022 0.9699351321913214
12638884000.0 0.2505377776443544 0.9681068236371853 -3.359878337167808e-17 -5.532510108426982e-17 -3.359878337167808e-17 -5.532510108426982e-17 0.25053718501220884 0.9681069770051295
12639501333.333334 0.2576976364610634 0.9662256093492003 -3.4005663159215074e-17 -5.50610821975321e-17 -3.4005663159215074e-17 -5.50610821975321e-17 0.25769704500940765 0.966225767092387
12640118666.666666 0.26484337278918735 0.9642914434389118 -3.44104748438033e-17 -5.4794075281529085e-17 -3.44104748438033e-17 -5.4794075281529085e-17 0.26484278255031746 0.9642916055482688
12640736000.0 0.2719745950243635 0.9623044319035353 -3.4813196514757284e-17 -5.452409648891526e-17 -3.4813196514757284e-17 -5.452409648891526e-17 0.27197400603050603 0.9623045983697526
12641353333.333334 0.2790909123573375 0.9602646836364443 -3.521380638719328e-17 -5.4251162132775216e-17 -3.521380638719328e-17 -5.4251162132775216e-17 0.2790903246406478 0.9602648544499741
12641970666.666666 0.2861919347959019 0.9581723104210597 -3.5612282803230893e-17 -5.3975288685626567e-17 -3.5612282803230893e-17 -5.3975288685626567e-17 0.2861913483884615 0.9581724855721159
12642588000.0 0.2932772731859378 0.95602742692481 -3.600860423313836e-17 -5.3696492778447216e-17 -3.600860423313836e-17 -5.3696492778447216e-17 0.2932766881197545 0.956027606403372
12643205333.333334 0.3003465392328547 0.9538301506928255 -3.640274927650209e-17 -5.3414791199672525e-17 -3.640274927650209e-17 -5.3414791199672525e-17 0.3003459555398588 0.9538303344886351
12643822666.666666 0.3073993455229218 0.951580602141475 -3.679469666337175e-17 -5.3130200894195093e-17 -3.679469666337175e-17 -5.3130200894195093e-17 0.3073987632349651 0.9515807902440371
12644440000.0 0.3144353055444712 0.9492789045517698 -3.7184425255399215e-17 -5.284273896235568e-17 -3.7184425255399215e-17 -5.284273896235568e-17 0.3144347246933262 0.9492790969503567
12645057333.333334 0.32145403370891984 0.9469251840626676 -3.757191404697875e-17 -5.2552422658919024e-17 -3.757191404697875e-17 -5.2552422658919024e-17 0.3214534543262768 0.9469253807463168
12645674666.666666 0.328455145372116 0.9445195696640878 -3.795714216636273e-17 -5.225926939205344e-17 -3.795714216636273e-17 -5.225926939205344e-17 0.3284545674895816 0.9445197706216023
12646292000.0 0.33543825685539136 0.9420621931898491 -3.834008887680221e-17 -5.196329672227822e-17 -3.834008887680221e-17 -5.196329672227822e-17 0.3354376805044867 0.9420623984097986
12646909333.333334 0.34240298546645226 0.9395531893104891 -3.8720733577626085e-17 -5.16645223614422e-17 -3.8720733577626085e-17 -5.16645223614422e-17 0.3424024106786121 0.9395533987812121
12647526666.666666 0.34934894952043516 0.9369926955258615 -3.909905580536992e-17 -5.1362964171651596e-17 -3.909905580536992e-17 -5.1362964171651596e-17 0.34934837632700505 0.9369929092354636
12648144000.0 0.35627576836087543 0.9343808521575767 -3.947503523485812e-17 -5.1058640164218163e-17 -3.947503523485812e-17 -5.1058640164218163e-17 0.3562751967931104 0.9343810700939327
12648761333.333334 0.36318306238054154 0.9317178023413225 -3.984865168028853e-17 -5.075156849859214e-17 -3.984865168028853e-17 -5.075156849859214e-17 0.363182492469605 0.9317180244920769
12649378666.666666 0.37007045304205344 0.9290036920190908 -4.021988509631454e-17 -5.0441767481282594e-17 -4.021988509631454e-17 -5.0441767481282594e-17 0.3700698848190145 0.9290039183716581
12649996000.0 0.3769375628989715 0.9262386699310472 -4.058871557911126e-17 -5.012925556477526e-17 -4.058871557911126e-17 -5.012925556477526e-17 0.37693699639480405 0.9262389004726134
12650613333.333334 0.38378401561619147 0.9234228876074946 -4.095512336744401e-17 -4.981405134643524e-17 -4.095512336744401e-17 -4.981405134643524e-17 0.3837834508617719 0.9234231223250167
12651230666.666666 0.39060943599067255 0.9205564993605235 -4.131908884370382e-17 -4.9496173567421245e-17 -4.131908884370382e-17 -4.9496173567421245e-17 0.39060887301677844 0.9205567382407316
12651848000.0 0.397413449972079 0.917639662275526 -4.168059253497676e-17 -4.917564111155707e-17 -4.168059253497676e-17 -4.917564111155707e-17 0.39741288880938797 0.9176399053049239
12652465333.333334 0.404195684683123 0.9146725362026525 -4.203961511405592e-17 -4.885247300423712e-17 -4.203961511405592e-17 -4.885247300423712e-17 0.4041951253622097 0.9146727833675169
12653082666.666666 0.41095576844007614 0.9116552837480176 -4.239613740047974e-17 -4.8526688411294665e-17 -4.239613740047974e-17 -4.8526688411294665e-17 0.41095521099141125 0.9116555350343993
12653700000.0 0.4176933307732171 0.9085880702647537 -4.2750140361552836e-17 -4.819830663786942e-17 -4.2750140361552836e-17 -4.819830663786942e-17 0.41769277522716597 0.9085883256584805
12654317333.333334 0.4244080024469779 0.9054710638440182 -4.3101605113347807e-17 -4.7867347127277957e-17 -4.3101605113347807e-17 -4.7867347127277957e-17 0.4244074488337992 0.9054713233306944
12654934666.666666 0.4310994154802594 0.9023044353057517 -4.345051292171031e-17 -4.753382945986564e-17 -4.345051292171031e-17 -4.753382945986564e-17 0.43109886383010204 0.9023046988707574
12655552000.0 0.4377672031666711 0.8990883581892732 -4.379684520325511e-17 -4.719777335185107e-17 -4.379684520325511e-17 -4.719777335185107e-17 0.437766653509574 0.8990886258177672
12656169333.333334 0.44441100009447626 0.8958230087438481 -4.414058352634172e-17 -4.6859198654175033e-17 -4.414058352634172e-17 -4.6859198654175033e-17 0.44441045246036603 0.895823280420768
12656786666.666666 0.4510304421666923 0.8925085659189887 -4.4481709612052644e-17 -4.651812535133067e-17 -4.4481709612052644e-17 -4.651812535133067e-17 0.4510298965853821 0.8925088416290521
12657404000.0 0.4576251666211233 0.8891452113546146 -4.482020533516306e-17 -4.617457356018676e-17 -4.482020533516306e-17 -4.617457356018676e-17 0.45762462312231017 0.889145491082318
12658021333.333334 0.46419481205008356 0.8857331293711663 -4.515605272508928e-17 -4.582856352881547e-17 -4.515605272508928e-17 -4.582856352881547e-17 0.4641942706633486 0.8857334131007901
12658638666.666666 0.47073901842028515 0.882272506959476 -4.5489233966840554e-17 -4.548011563530189e-17 -4.5489233966840554e-17 -4.548011563530189e-17 0.47073847917508965 0.8822727946750802
12659256000.0 0.4772574270926393 0.8787635337704718 -4.581973140196091e-17 -4.512925038654615e-17 -4.581973140196091e-17 -4.512925038654615e-17 0.47725689001832494 0.8787638254559007
12659873333.333334 0.48374968084176256 0.875206402104867 -4.6147527529450985e-17 -4.477598841707118e-17 -4.6147527529450985e-17 -4.477598841707118e-17 0.4837491459675493 0.8752066977437496
12660490666.666666 0.49021542387562844 0.8716013069025831 -4.647260500669206e-17 -4.4420350487811746e-17 -4.647260500669206e-17 -4.4420350487811746e-17 0.49021489123061296 0.871601606478333
12661108000.0 0.4966543018551403 0.8679484457320237 -4.679494665036027e-17 -4.406235748489641e-17 -4.679494665036027e-17 -4.406235748489641e-17 0.4966537714682941 0.8679487492278404
12661725333.333334 0.5030659619134007 0.8642480187793298 -4.7114535437321165e-17 -4.3702030418435833e-17 -4.7114535437321165e-17 -4.3702030418435833e-17 0.5030654338135686 0.8642483261781991
12662342666.666666 0.5094500526751491 0.8605002288373546 -4.743135450552521e-17 -4.333939042129159e-17 -4.743135450552521e-17 -4.333939042129159e-17 0.5094495268910477 0.8605005401220504
12662960000.0 0.5158062242759685 0.8567052812945773 -4.77453871548947e-17 -4.2974458747839326e-17 -4.77453871548947e-17 -4.2974458747839326e-17 0.5158057008361849 0.8567055964476623
12663577333.333334 0.5221341283815568 0.8528633841237907 -4.805661684818954e-17 -4.260725677273727e-17 -4.805661684818954e-17 -4.260725677273727e-17 0.5221336073145466 0.8528637031276168
12664194666.666666 0.5284334182066448 0.8489747478708026 -4.8365027211875e-17 -4.223780598967652e-17 -4.8365027211875e-17 -4.223780598967652e-17 0.5284328995407314 0.8489750707075138
12664812000.0 0.5347037485341981 0.8450395856427854 -4.867060203697986e-17 -4.1866128010125166e-17 -4.867060203697986e-17 -4.1866128010125166e-17 0.5347032322975694 0.8450399122943151
12665429333.333334 0.5409447757341853 0.8410581130966781 -4.8973325279933785e-17 -4.149224456207823e-17 -4.8973325279933785e-17 -4.149224456207823e-17 0.540944261954895 0.8410584435447551
12666046666.666666 0.5471561577823688 0.8370305484274081 -4.92731810634067e-17 -4.1116177488790004e-17 -4.92731810634067e-17 -4.1116177488790004e-17 0.5471556464883324 0.837030882653554
12666664000.0 0.5533375542793794 0.8329571123557129 -4.957015367713726e-17 -4.07379487474992e-17 -4.957015367713726e-17 -4.07379487474992e-17 0.5533370454983729 0.8329574503412431
12667281333.333334 0.5594886264688693 0.8288380281163685 -4.986422757874238e-17 -4.0357580408162015e-17 -4.986422757874238e-17 -4.0357580408162015e-17 0.5594881202285293 0.8288383698423952
12667898666.666666 0.5656090372565097 0.8246735214456801 -5.015538739452676e-17 -3.9975094652165965e-17 -5.015538739452676e-17 -3.9975094652165965e-17 0.5656085335843295 0.8246738668931112
12668516000.0 0.5716984512282903 0.8204638205692119 -5.0443617920282406e-17 -3.959051377103794e-17 -5.0443617920282406e-17 -3.959051377103794e-17 0.5716979501516217 0.8204641697187552
12669133333.333334 0.5777565346687689 0.8162091561893856 -5.0728904122069026e-17 -3.920386016516009e-17 -5.0728904122069026e-17 -3.920386016516009e-17 0.5777560362148177 0.8162095090215472
12669750666.666666 0.5837829555796583 0.8119097614726227 -5.1011231136993705e-17 -3.881515634246628e-17 -5.1011231136993705e-17 -3.881515634246628e-17 0.5837824597754842 0.811910117967708
12670368000.0 0.5897773836977667 0.8075658720367458 -5.1290584273981434e-17 -3.842442491713391e-17 -5.1290584273981434e-17 -3.842442491713391e-17 0.5897768905702813 0.8075662321748622
