! Parameters = {f0=12700.012000; bw=77.238000; Q=6100.000000; N=10; m_0_1=1.205901; m_1_1=-0.676232; m_1_2=1.040713; m_2_2=-0.676881; m_2_3=0.677676; m_2_8=-0.002641; m_2_9=0.034063; m_3_3=-0.678818; m_3_4=0.566205; m_3_7=-0.002041; m_3_8=-0.099129; m_3_9=-0.002641; m_4_4=-0.681743; m_4_5=0.402540; m_4_6=0.001476; m_4_7=-0.119678; m_4_8=-0.002041; m_5_5=-0.681361; m_5_6=0.809895; m_5_7=0.001476; m_6_6=-0.681362; m_6_7=0.402882; m_7_7=-0.681729; m_7_8=0.566323; m_8_8=-0.678820; m_8_9=0.677989; m_9_9=-0.676886; m_9_10=1.041791; m_10_10=-0.676242; m_10_11=1.206696}
!
! Created with skrf (http://scikit-rf.org).
# Hz S RI R 50.0 
!freq ReS11 ImS11 ReS21 ImS21 ReS12 ImS12 ReS22 ImS22
12607400000.0 -0.21896025553541865 0.9757337784947822 -5.439652168870029e-18 -8.075259224673957e-17 -5.439652168870029e-18 -8.075259224673957e-17 -0.21896087556737928 0.9757336393558478
12608017333.333334 -0.2105335701439163 0.9775866283057976 -6.142129221514428e-18 -8.068630271685156e-17 -6.142129221514428e-18 -8.068630271685156e-17 -0.21053419132285567 0.9775864945281681
12608634666.666666 -0.20209121219799273 0.9793667045352247 -6.843864363376612e-18 -8.061390745903759e-17 -6.843864363376612e-18 -8.061390745903759e-17 -0.20209183447755905 0.9793665761283338
12609252000.0 -0.19363381016436593 0.9810738746705423 -7.544804570712056e-18 -8.053541436517801e-17 -7.544804570712056e-18 -8.053541436517801e-17 -0.1936344334981298 0.9810737516434221
12609869333.333334 -0.18516199362955393 0.98270801162653 -8.24489690091916e-18 -8.045083178722869e-17 -8.24489690091916e-18 -8.045083178722869e-17 -0.18516261797101233 0.9827078939878128
12610486666.666666 -0.1766763932533155 0.9842689937546748 -8.944088496534675e-18 -8.03601685364066e-17 -8.944088496534675e-18 -8.03601685364066e-17 -0.1766770185558945 0.9842688815125882
12611104000.0 -0.16817764072131014 0.9857567048522954 -9.642326589223251e-18 -8.026343388233898e-17 -9.642326589223251e-18 -8.026343388233898e-17 -0.16817826693836904 0.9857565980146659
12611721333.333334 -0.1596663686983823 0.9871710341711373 -1.0339558503724518e-17 -8.016063755218343e-17 -1.0339558503724518e-17 -8.016063755218343e-17 -0.15966699578321722 0.9871709327453899
12612338666.666666 -0.15114321078138104 0.9885118764256378 -1.1035731661846267e-17 -8.005178972970641e-17 -1.1035731661846267e-17 -8.005178972970641e-17 -0.15114383868722764 0.9885117804187918
12612956000.0 -0.1426088014517685 0.9897791318007929 -1.1730793586403045e-17 -7.99369010543326e-17 -1.1730793586403045e-17 -7.99369010543326e-17 -0.142609430131806 0.9897790412194644
12613573333.333334 -0.13406377602883687 0.990972705959518 -1.2424691905159346e-17 -7.981598262015962e-17 -1.2424691905159346e-17 -7.981598262015962e-17 -0.1340644054361918 0.9909726208099201
12614190666.666666 -0.12550877062204996 0.9920925100497339 -1.3117374354769988e-17 -7.96890459749363e-17 -1.3117374354769988e-17 -7.96890459749363e-17 -0.1255094007097988 0.9920924303376717
12614808000.0 -0.11694442208374471 0.993138460710963 -1.3808788784713028e-17 -7.955610311900757e-17 -1.3808788784713028e-17 -7.955610311900757e-17 -0.11694505280491807 0.9931383864418373
12615425333.333334 -0.10837136796189178 0.9941104800805138 -1.4498883161192075e-17 -7.941716650422766e-17 -1.4498883161192075e-17 -7.941716650422766e-17 -0.10837199926947792 0.9941104112593215
12616042666.666666 -0.09979024645241032 0.9950084957993108 -1.5187605571048705e-17 -7.927224903283716e-17 -1.5187605571048705e-17 -7.927224903283716e-17 -0.09979087829935827 0.9950084324306421
12616660000.0 -0.09120169635185632 0.9958324410172549 -1.5874904225664114e-17 -7.91213640563054e-17 -1.5874904225664114e-17 -7.91213640563054e-17 -0.09120232869107951 0.9958323831052919
12617277333.333334 -0.08260635700975626 0.9965822543982091 -1.656072746482946e-17 -7.896452537414331e-17 -1.656072746482946e-17 -7.896452537414331e-17 -0.08260698979413625 0.9965822019467296
12617894666.666666 -0.07400486828106954 0.9972578801245654 -1.7245023760625318e-17 -7.880174723267899e-17 -1.7245023760625318e-17 -7.880174723267899e-17 -0.07400550146345924 0.997257833136939
12618512000.0 -0.06539787047841436 0.9978592679014056 -1.792774172129162e-17 -7.863304432379866e-17 -1.792774172129162e-17 -7.863304432379866e-17 -0.06539850401164171 0.9978592263805952
12619129333.333334 -0.05678600432471345 0.9983863729602255 -1.8608830095052402e-17 -7.845843178366267e-17 -1.8608830095052402e-17 -7.845843178366267e-17 -0.0567866381615849 0.998386336908787
12619746666.666666 -0.04816991090512873 0.9988391560622931 -1.9288237773981858e-17 -7.827792519137508e-17 -1.9288237773981858e-17 -7.827792519137508e-17 -0.04817054499843274 0.9988391254823746
12620364000.0 -0.039550231619536 0.9992175835015523 -1.996591379781339e-17 -7.809154056763102e-17 -1.996591379781339e-17 -7.809154056763102e-17 -0.03955086592204662 0.9992175583948959
12620981333.333334 -0.030927608134806373 0.9995216271071379 -2.0641807357749384e-17 -7.789929437332803e-17 -2.0641807357749384e-17 -7.789929437332803e-17 -0.03092824259928661 0.9995216074750763
12621598666.666666 -0.022302682336953983 0.9997512642454709 -2.1315867800264658e-17 -7.770120350814271e-17 -2.1315867800264658e-17 -7.770120350814271e-17 -0.022303316916159444 0.9997512500889297
12622216000.0 -0.013676096283409508 0.9999064778219457 -2.198804463089876e-17 -7.749728530907372e-17 -2.198804463089876e-17 -7.749728530907372e-17 -0.013676730930091873 0.9999064691414427
12622833333.333334 -0.00504849215508193 0.9999872562821994 -2.2658287518017005e-17 -7.728755754895708e-17 -2.2658287518017005e-17 -7.728755754895708e-17 -0.005049126821992517 0.9999872530778461
12623450666.666666 0.003579487791134014 0.9999935936129764 -2.332654629656678e-17 -7.707203843494731e-17 -2.332654629656678e-17 -7.707203843494731e-17 0.003578853151240807 0.999993595884475
12624068000.0 0.012207201270538332 0.9999254893425713 -2.3992770971839174e-17 -7.685074660695911e-17 -2.3992770971839174e-17 -7.685074660695911e-17 0.012206566704901473 0.9999254970892179
12624685333.333334 0.02083400601826825 0.9997829485408678 -2.4656911723185538e-17 -7.662370113608656e-17 -2.4656911723185538e-17 -7.662370113608656e-17 0.020833371574116535 0.9997829617615493
12625302666.666666 0.02945925983691076 0.9995659818189602 -2.5318918907728453e-17 -7.639092152298808e-17 -2.5318918907728453e-17 -7.639092152298808e-17 0.02945862556145936 0.9995660005121577
12625920000.0 0.038082320644820686 0.9992746053283578 -2.5978743064079092e-17 -7.61524276962313e-17 -2.5978743064079092e-17 -7.61524276962313e-17 0.03808168658526757 0.9992746294921443
12626537333.333334 0.04670254652335026 0.9989088407597938 -2.6636334915998474e-17 -7.59082400106209e-17 -2.6636334915998474e-17 -7.59082400106209e-17 0.04670191272687269 0.9989088703918352
12627154666.666666 0.055319295764890704 0.9984687153416065 -2.7291645376086406e-17 -7.565837924547948e-17 -2.7291645376086406e-17 -7.565837924547948e-17 0.05531866227864178 0.9984687504391625
12627772000.0 0.06393192692089757 0.9979542618376966 -2.794462554943272e-17 -7.540286660290364e-17 -2.794462554943272e-17 -7.540286660290364e-17 0.06393129379200271 0.9979543023976207
12628389333.333334 0.07253979884904567 0.9973655185451225 -2.859522673724243e-17 -7.51417237059944e-17 -2.859522673724243e-17 -7.51417237059944e-17 0.07253916612459904 0.9973655645638607
12629006666.666666 0.0811422707616094 0.9967025292912072 -2.9243400440473736e-17 -7.487497259704296e-17 -2.9243400440473736e-17 -7.487497259704296e-17 0.08114163848867052 0.996702580764801
12629624000.0 0.08973870227265406 0.9959653434303128 -2.988909836342611e-17 -7.460263573570048e-17 -2.988909836342611e-17 -7.460263573570048e-17 0.08973807049824412 0.9959654003543964
12630241333.333334 0.09832845344596233 0.9951540158401444 -3.0532272417347004e-17 -7.432473599710122e-17 -3.0532272417347004e-17 -7.432473599710122e-17 0.09832782221706092 0.9951540782099478
12630858666.666666 0.10691088484258783 0.9942686069176763 -3.1172874723975354e-17 -7.404129666997446e-17 -3.1172874723975354e-17 -7.404129666997446e-17 0.10691025420612929 0.9942686747280243
12631476000.0 0.11548535756859726 0.993309182574637 -3.181085761913485e-17 -7.375234145469734e-17 -3.181085761913485e-17 -7.375234145469734e-17 0.11548472757146738 0.9933092558199509
12632093333.333334 0.12405123332234903 0.9922758142326378 -3.2446173656225714e-17 -7.345789446135324e-17 -3.2446173656225714e-17 -7.345789446135324e-17 0.12405060401138125 0.9922758929069336
12632710666.666666 0.13260787444226332 0.9911685788178239 -3.3078775609771864e-17 -7.315798020772798e-17 -3.3078775609771864e-17 -7.315798020772798e-17 0.1326072458642355 0.9911686629147147
12633328000.0 0.1411546439542348 0.9899875587551559 -3.3708616478916366e-17 -7.285262361729018e-17 -3.3708616478916366e-17 -7.285262361729018e-17 0.14115401615586565 0.989987648267851
12633945333.333334 0.14969090561902196 0.9887328419622758 -3.433564949089027e-17 -7.254185001714591e-17 -3.433564949089027e-17 -7.254185001714591e-17 0.14969027864696755 0.9887329368835827
12634562666.666666 0.15821602397955348 0.9874045218429696 -3.49598281044918e-17 -7.222568513594999e-17 -3.49598281044918e-17 -7.222568513594999e-17 0.1582153978804038 0.9874046221652936
12635180000.0 0.16672936440829006 0.9860026972802102 -3.558110601351355e-17 -7.190415510180303e-17 -3.558110601351355e-17 -7.190415510180303e-17 0.1667287392285658 0.9860028029955562
12635797333.333334 0.17523029315457903 0.9845274726287747 -3.6199437150185324e-17 -7.157728644010208e-17 -3.6199437150185324e-17 -7.157728644010208e-17 0.17522966894072767 0.9845275837287462
12636414666.666666 0.18371817739152357 0.9829789577075279 -3.681477568855484e-17 -7.124510607138356e-17 -3.681477568855484e-17 -7.124510607138356e-17 0.18371755418991648 0.9829790741833296
12637032000.0 0.19219238526348473 0.981357267791182 -3.742707604790149e-17 -7.090764130911e-17 -3.742707604790149e-17 -7.090764130911e-17 0.19219176312041292 0.9813573896336176
12637649333.333334 0.20065228593280873 0.9796625236017656 -3.80362928960793e-17 -7.056491985745358e-17 -3.80362928960793e-17 -7.056491985745358e-17 0.2006516648944802 0.9796626508012412
12638266666.666666 0.20909724962690124 0.9778948512996208 -3.864238115287054e-17 -7.021696980903598e-17 -3.864238115287054e-17 -7.021696980903598e-17 0.20909662973943705 0.9778949838461437
12638884000.0 0.21752664768519125 0.9760543824739916 -3.924529599331629e-17 -6.986381964263958e-17 -3.924529599331629e-17 -6.986381964263958e-17 0.21752602899462256 0.9760545203571734
12639501333.333334 0.2259398526057636 0.9741412541332637 -3.984499285100864e-17 -6.950549822090071e-17 -3.984499285100864e-17 -6.950549822090071e-17 0.2259392351580277 0.9741413973423191
12640118666.666666 0.2343362380921273 0.9721556086947561 -4.044142742137805e-17 -6.914203478796599e-17 -4.044142742137805e-17 -6.914203478796599e-17 0.23433562193306487 0.9721557572185051
12640736000.0 0.2427151791000869 0.970097593974057 -4.103455566497264e-17 -6.877345896711149e-17 -4.103455566497264e-17 -6.877345896711149e-17 0.2427145642754379 0.9700977478009246
12641353333.333334 0.2510760518836919 0.9679673631741621 -4.1624333810658265e-17 -6.839980075837038e-17 -4.1624333810658265e-17 -6.839980075837038e-17 0.2510754384390924 0.9679675222921783
12641970666.666666 0.2594182340423322 0.9657650748739054 -4.22107183588839e-17 -6.802109053607879e-17 -4.22107183588839e-17 -6.802109053607879e-17 0.2594176220233115 0.9657652392707101
12642588000.0 0.26774110456663 0.963490893016267 -4.279366608484597e-17 -6.763735904644352e-17 -4.279366608484597e-17 -6.763735904644352e-17 0.26774049401860633 0.9634910626791069
12643205333.333334 0.2760440438847785 0.961144986896139 -4.33731340416806e-17 -6.724863740505107e-17 -4.33731340416806e-17 -6.724863740505107e-17 0.2760434348530569 0.9611451618118712
12643822666.666666 0.28432643390885765 0.9587275311476734 -4.394907956361064e-17 -6.685495709436413e-17 -4.394907956361064e-17 -6.685495709436413e-17 0.28432582643862503 0.9587277113027635
12644440000.0 0.2925876580805147 0.9562387057313674 -4.4521460269071786e-17 -6.645634996119001e-17 -4.4521460269071786e-17 -6.645634996119001e-17 0.29258705221683784 0.9562388911118934
12645057333.333334 0.30082710141711066 0.9536786959206023 -4.509023406382774e-17 -6.605284821411528e-17 -4.509023406382774e-17 -6.605284821411528e-17 0.300826497204932 0.9536788865122542
12645674666.666666 0.30904415055730844 0.9510476922879062 -4.5655359144041165e-17 -6.56444844209273e-17 -4.5655359144041165e-17 -6.56444844209273e-17 0.3090435480414436 0.9510478880759883
12646292000.0 0.31723819380700635 0.948345890690686 -4.6216793999362735e-17 -6.523129150598151e-17 -4.6216793999362735e-17 -6.523129150598151e-17 0.3172375930321397 0.9483460916601154
12646909333.333334 0.3254086211845996 0.945573492256725 -4.677449741592958e-17 -6.481330274758932e-17 -4.677449741592958e-17 -6.481330274758932e-17 0.32540802219528225 0.9455736983920376
12647526666.666666 0.3335548244665007 0.9427307033691877 -4.7328428479412725e-17 -6.439055177532934e-17 -4.7328428479412725e-17 -6.439055177532934e-17 0.333554227307146 0.9427309146545343
12648144000.0 0.34167619723246745 0.9398177356512277 -4.787854657799184e-17 -6.396307256736678e-17 -4.787854657799184e-17 -6.396307256736678e-17 0.3416756019473484 0.9398179520703775
12648761333.333334 0.34977213491072084 0.9368348059502475 -4.8424811405319615e-17 -6.353089944773872e-17 -4.8424811405319615e-17 -6.353089944773872e-17 0.34977154154396656 0.9368350274865895
12649378666.666666 0.357842034822763 0.9337821363218224 -4.896718296346853e-17 -6.309406708360857e-17 -4.896718296346853e-17 -6.309406708360857e-17 0.3578414434183554 0.933782362958366
12649996000.0 0.3658852962285887 0.9306599540130434 -4.9505621565844125e-17 -6.265261048250208e-17 -4.9505621565844125e-17 -6.265261048250208e-17 0.3658847068303597 0.9306601857324207
12650613333.333334 0.3739013203711393 0.9274684914456991 -5.004008784008607e-17 -6.220656498950927e-17 -5.004008784008607e-17 -6.220656498950927e-17 0.37390073302276683 0.9274687282301651
12651230666.666666 0.3818895105208504 0.9242079861989875 -5.0570542730915786e-17 -6.17559662844842e-17 -5.0570542730915786e-17 -6.17559662844842e-17 0.3818889252658556 0.9242082280304217
12651848000.0 0.38984927202041547 0.9208786809916902 -5.1096947503001316e-17 -6.130085037918621e-17 -5.1096947503001316e-17 -6.130085037918621e-17 0.3898486889021594 0.9208789278515983
12652465333.333334 0.39778001232863186 0.9174808236642752 -5.1619263743763325e-17 -6.084125361442447e-17 -5.1619263743763325e-17 -6.084125361442447e-17 0.39777943139031263 0.917481075533791
12653082666.666666 0.4056811410647226 0.9140146671603623 -5.213745336615385e-17 -6.037721265717992e-17 -5.213745336615385e-17 -6.037721265717992e-17 0.40568056234937144 0.9140149240202478
12653700000.0 0.4135520700523619 0.9104804695078572 -5.265147861145256e-17 -5.990876449766729e-17 -5.265147861145256e-17 -5.990876449766729e-17 0.4135514936028411 0.9104807313385065
12654317333.333334 0.4213922133631758 0.9068784937998725 -5.3161302051968166e-17 -5.943594644643268e-17 -5.3161302051968166e-17 -5.943594644643268e-17 0.42139163922217376 0.906878760581309
12654934666.666666 0.42920098736069584 0.9032090081749882 -5.366688659378214e-17 -5.895879613136834e-17 -5.366688659378214e-17 -5.895879613136834e-17 0.4292004155707256 0.9032092798868702
12655552000.0 0.4369778107436502 0.8994722857973602 -5.416819547942291e-17 -5.847735149474158e-17 -5.416819547942291e-17 -5.847735149474158e-17 0.43697724134704563 0.8994725624189811
12656169333.333334 0.44472210458908507 0.8956686048364633 -5.466519229051642e-17 -5.799165079020078e-17 -5.466519229051642e-17 -5.799165079020078e-17 0.4447215376279973 0.8956688863467523
12656786666.666666 0.4524332923957921 0.8917982484462201 -5.5157840950440536e-17 -5.750173257972846e-17 -5.5157840950440536e-17 -5.750173257972846e-17 0.45243272791218736 0.8917985348237452
12657404000.0 0.4601108001269184 0.8878615047440725 -5.564610572691142e-17 -5.700763573061149e-17 -5.564610572691142e-17 -5.700763573061149e-17 0.46011023816257457 0.887861795967042
12658021333.333334 0.46775405625295385 0.8838586667894085 -5.612995123457901e-17 -5.650939941235467e-17 -5.612995123457901e-17 -5.650939941235467e-17 0.46775349684945666 0.8838589628356708
12658638666.666666 0.4753624917939728 0.8797900325618994 -5.660934243755937e-17 -5.600706309360772e-17 -5.660934243755937e-17 -5.600706309360772e-17 0.4753619349927134 0.8797903334089464
12659256000.0 0.4829355403623179 0.8756559049391484 -5.708424465197944e-17 -5.5500666539030296e-17 -5.708424465197944e-17 -5.5500666539030296e-17 0.4829349862044901 0.8756562105641179
12659873333.333334 0.4904726382046114 0.871456591674221 -5.755462354846414e-17 -5.4990249806166693e-17 -5.755462354846414e-17 -5.4990249806166693e-17 0.4904720867312083 0.8714569020538974
12660490666.666666 0.49797322424357515 0.8671924053728219 -5.802044515459404e-17 -5.447585324230134e-17 -5.802044515459404e-17 -5.447585324230134e-17 0.4979726754953851 0.8671927204836359
12661108000.0 0.5054367401201179 0.8628636634698383 -5.848167585737351e-17 -5.395751748125189e-17 -5.848167585737351e-17 -5.395751748125189e-17 0.5054361941377238 0.8628639832878733
12661725333.333334 0.5128626302346316 0.8584706882058688 -5.893828240560936e-17 -5.343528344020871e-17 -5.893828240560936e-17 -5.343528344020871e-17 0.5128620870584054 0.8584710127068582
12662342666.666666 0.5202503417884485 0.854013806603175 -5.939023191232376e-17 -5.2909192316485343e-17 -5.939023191232376e-17 -5.2909192316485343e-17 0.5202498014585495 0.854014135762507
12662960000.0 0.5275993248250656 0.8494933504412958 -5.983749185709117e-17 -5.237928558430097e-17 -5.983749185709117e-17 -5.237928558430097e-17 0.527598787381438 0.849493684234014
12663577333.333334 0.5349090322709391 0.8449096562324344 -6.02800300883708e-17 -5.1845604991516155e-17 -6.02800300883708e-17 -5.1845604991516155e-17 0.5349084977533075 0.8449099946332398
12664194666.666666 0.542178919976283 0.8402630651963673 -6.071781482580915e-17 -5.130819255635113e-17 -6.071781482580915e-17 -5.130819255635113e-17 0.5421783884241511 0.8402634081796208
12664812000.0 0.5494084467556477 0.8355539232349939 -6.115081466249759e-17 -5.0767090564101125e-17 -6.115081466249759e-17 -5.0767090564101125e-17 0.5494079182082943 0.8355542707747178
12665429333.333334 0.5565970744280632 0.8307825809066793 -6.157899856722523e-17 -5.022234156380599e-17 -6.157899856722523e-17 -5.022234156380599e-17 0.5565965489245399 0.8307829329765595
12666046666.666666 0.5637442678571766 0.825949393400116 -6.200233588667148e-17 -4.9673988364937195e-17 -6.200233588667148e-17 -4.9673988364937195e-17 0.5637437454363036 0.825949749973502
12666664000.0 0.5708494949911783 0.821054720507811 -6.242079634760618e-17 -4.9122074034020636e-17 -6.242079634760618e-17 -4.9122074034020636e-17 0.5708489756915438 0.821055081557722
12667281333.333334 0.5779122269021553 0.8160989265994864 -6.283435005902495e-17 -4.8566641891285806e-17 -6.283435005902495e-17 -4.8566641891285806e-17 0.5779117107621108 0.8160992920986098
12667898666.666666 0.5849319378257687 0.8110823805947426 -6.324296751427419e-17 -4.8007735507271795e-17 -6.324296751427419e-17 -4.8007735507271795e-17 0.5849314248834264 0.8110827505154369
12668516000.0 0.5919081052002488 0.8060054559356873 -6.364661959315243e-17 -4.744539869940653e-17 -6.364661959315243e-17 -4.744539869940653e-17 0.5919075954934799 0.8060058302499855
12669133333.333334 0.5988402097051622 0.8008685305592427 -6.404527756394981e-17 -4.687967552861235e-17 -6.404527756394981e-17 -4.687967552861235e-17 0.5988397032715935 0.800868909238854
12669750666.666666 0.6057277353003686 0.795671986868791 -6.443891308549559e-17 -4.631061029584151e-17 -6.443891308549559e-17 -4.631061029584151e-17 0.6057272321773793 0.7956723698851013
12670368000.0 0.6125701692641828 0.7904162117058918 -6.482749820915676e-17 -4.5738247538620294e-17 -6.482749820915676e-17 -4.5738247538620294e-17 0.6125696694889017 0.7904165990299671
