! Parameters = {f0=12700.012000; bw=77.238000; Q=6100.000000; N=10; m_0_1=1.278373; m_1_1=0.410855; m_1_2=1.113185; m_2_2=0.410206; m_2_3=0.750148; m_2_8=0.000982; m_2_9=0.037686; m_3_3=0.408269; m_3_4=0.638677; m_3_7=0.001582; m_3_8=-0.095506; m_3_9=0.000982; m_4_4=0.405344; m_4_5=0.475012; m_4_6=0.005099; m_4_7=-0.116055; m_4_8=0.001582; m_5_5=0.405726; m_5_6=0.882367; m_5_7=0.005099; m_6_6=0.405725; m_6_7=0.475354; m_7_7=0.405358; m_7_8=0.638795; m_8_8=0.408267; m_8_9=0.750461; m_9_9=0.410201; m_9_10=1.114263; m_10_10=0.410845; m_10_11=1.279168}
!
! Created with skrf (http://scikit-rf.org).
# Hz S RI R 50.0 
!freq ReS11 ImS11 ReS21 ImS21 ReS12 ImS12 ReS22 ImS22
12607400000.0 -0.40753517953378515 0.9131895079566927 1.511177450769571e-17 -1.140409944462805e-16 1.511177450769571e-17 -1.140409944462805e-16 -0.4075357945738819 0.9131892334783932
12608017333.333334 -0.3976762373668741 0.9175258090285783 1.3869800270730063e-17 -1.141760056892457e-16 1.3869800270730063e-17 -1.141760056892457e-16 -0.39767685529724983 0.917525541203465
12608634666.666666 -0.38777116386496246 0.9217556750433563 1.2626676784351875e-17 -1.1429749972261389e-16 1.2626676784351875e-17 -1.1429749972261389e-16 -0.38777178461365647 0.9217554139018448
12609252000.0 -0.377821108038924 0.9258786153271171 1.1382551071588881e-17 -1.1440546751499047e-16 1.1382551071588881e-17 -1.1440546751499047e-16 -0.3778217315336557 0.9258783608988447
12609869333.333334 -0.3678272241175508 0.9298941516096327 1.0137570216048726e-17 -1.1449990163309647e-16 1.0137570216048726e-17 -1.1449990163309647e-16 -0.3678278502857278 0.9298939039234542
12610486666.666666 -0.357790671414001 0.9338018180796932 8.891881344552173e-18 -1.145807962420195e-16 8.891881344552173e-18 -1.145807962420195e-16 -0.35779130018272814 0.9338015771636791
12611104000.0 -0.34771261419081556 0.9376011614393459 7.645631609764731e-18 -1.146481471052756e-16 7.645631609764731e-18 -1.146481471052756e-16 -0.34771324548690363 0.9376009273207797
12611721333.333334 -0.33759422152544405 0.9412917409562517 6.3989681728614745e-18 -1.147019515846826e-16 6.3989681728614745e-18 -1.147019515846826e-16 -0.33759485527541705 0.9412915136616243
12612338666.666666 -0.32743666717417613 0.9448731285149818 5.1520381861714155e-18 -1.1474220864004459e-16 5.1520381861714155e-18 -1.1474220864004459e-16 -0.3274373033042813 0.9448729080699909
12612956000.0 -0.31724112943606364 0.9483449086666481 3.904988775813539e-18 -1.1476891882865028e-16 3.904988775813539e-18 -1.1476891882865028e-16 -0.31724176787227887 0.9483446950961937
12613573333.333334 -0.3070087910165559 0.9517066786769828 2.6579670244046466e-18 -1.1478208430458066e-16 2.6579670244046466e-18 -1.1478208430458066e-16 -0.30700943168459927 0.9517064720051662
12614190666.666666 -0.2967408388898484 0.9549580485732188 1.4111199537170977e-18 -1.1478170881783048e-16 1.4111199537170977e-18 -1.1478170881783048e-16 -0.29674148171518616 0.9549578488233378
12614808000.0 -0.2864384641615399 0.9580986411892046 1.6459450736684879e-19 -1.1476779771324135e-16 1.6459450736684879e-19 -1.1476779771324135e-16 -0.28643910906939535 0.9580984483837517
12615425333.333334 -0.2761028619302178 0.9611280922092353 -1.0814624664531642e-18 -1.1474035792924755e-16 -1.0814624664531642e-18 -1.1474035792924755e-16 -0.27610350884558005 0.9611279063698961
12616042666.666666 -0.2657352311490429 0.9640460502102516 -2.3269042322673134e-18 -1.1469939799643449e-16 -2.3269042322673134e-18 -1.1469939799643449e-16 -0.2657358799966754 0.9640458713579007
12616660000.0 -0.25533677448644804 0.9668521767026635 -3.5715841845588895e-18 -1.1464492803590972e-16 -3.5715841845588895e-18 -1.1464492803590972e-16 -0.25533742519089786 0.9668520048573638
12617277333.333334 -0.2449086981868192 0.9695461461695676 -4.8153558649929315e-18 -1.1457695975748805e-16 -4.8153558649929315e-18 -1.1457695975748805e-16 -0.24490935067242484 0.9695459813505662
12617894666.666666 -0.23445221193051216 0.9721276461045185 -6.05807297962799e-18 -1.1449550645768914e-16 -6.05807297962799e-18 -1.1449550645768914e-16 -0.2344528661214136 0.9721274883302478
12618512000.0 -0.22396852869330777 0.9745963770478406 -7.29958941610503e-18 -1.144005830175487e-16 -7.29958941610503e-18 -1.144005830175487e-16 -0.22396918451345404 0.9745962263359115
12619129333.333334 -0.21345886460614416 0.976952052621252 -8.539759260775674e-18 -1.1429220590024607e-16 -8.539759260775674e-18 -1.1429220590024607e-16 -0.21345952197930318 0.9769519089884564
12619746666.666666 -0.20292443881371286 0.9791943995611707 -9.778436815845877e-18 -1.1417039314854295e-16 -9.778436815845877e-18 -1.1417039314854295e-16 -0.2029250976634795 0.9791942630234762
12620364000.0 -0.1923664733329779 0.9813231577504193 -1.1015476616454862e-17 -1.1403516438203884e-16 -1.1015476616454862e-17 -1.1403516438203884e-16 -0.1923671335827834 0.98132302832297
12620981333.333334 -0.1817861929117256 0.9833380802483361 -1.2250733447723338e-17 -1.1388654079424303e-16 -1.2250733447723338e-17 -1.1388654079424303e-16 -0.18178685448484624 0.9833379579454494
12621598666.666666 -0.171184824886296 0.9852389333194609 -1.3484062361778414e-17 -1.137245451494595e-16 -1.3484062361778414e-17 -1.137245451494595e-16 -0.17118548770586234 0.9852388181546274
12622216000.0 -0.16056359903915388 0.9870254964606617 -1.4715318694740448e-17 -1.135492017794886e-16 -1.4715318694740448e-17 -1.135492017794886e-16 -0.16056426302815904 0.9870253884465413
12622833333.333334 -0.14992374745639775 0.9886975624266768 -1.5944358083660026e-17 -1.1336053658014624e-16 -1.5944358083660026e-17 -1.1336053658014624e-16 -0.14992441253770686 0.9886974615750991
12623450666.666666 -0.13926650438472407 0.9902549372541808 -1.7171036483393566e-17 -1.1315857700760262e-16 -1.7171036483393566e-17 -1.1315857700760262e-16 -0.13926717048108322 0.9902548435761444
12624068000.0 -0.12859310608833607 0.9916974402842714 -1.8395210183496128e-17 -1.129433520745307e-16 -1.8395210183496128e-17 -1.129433520745307e-16 -0.1285937731223811 0.9916973537899406
12624685333.333334 -0.11790479070528036 0.9930249041834576 -1.9616735825006778e-17 -1.1271489234607994e-16 -1.9616735825006778e-17 -1.1271489234607994e-16 -0.11790545859954601 0.9930248248821639
12625302666.666666 -0.10720279810432812 0.9942371749630092 -2.0835470417199245e-17 -1.1247322993566937e-16 -2.0835470417199245e-17 -1.1247322993566937e-16 -0.10720346678125658 0.9942371028632461
12625920000.0 -0.09648836974052613 0.9953341119968901 -2.2051271354330255e-17 -1.1221839850058883e-16 -2.2051271354330255e-17 -1.1221839850058883e-16 -0.09648903912247683 0.9953340471063181
12626537333.333334 -0.08576274851166578 0.9963155880380201 -2.326399643224671e-17 -1.1195043323743824e-16 -2.326399643224671e-17 -1.1195043323743824e-16 -0.08576341852092381 0.9963155303634621
12627154666.666666 -0.07502717861401956 0.9971814892330492 -2.447350386501564e-17 -1.1166937087737232e-16 -2.447350386501564e-17 -1.1166937087737232e-16 -0.07502784917280467 0.997181438780488
12627772000.0 -0.06428290539764302 0.9979317151355901 -2.5679652301498074e-17 -1.1137524968116502e-16 -2.5679652301498074e-17 -1.1137524968116502e-16 -0.06428357642811897 0.9979316719101723
12628389333.333334 -0.05353117522253474 0.998566178717823 -2.6882300841789217e-17 -1.11068109434113e-16 -2.6882300841789217e-17 -1.11068109434113e-16 -0.05353184664681826 0.9985661427238574
12629006666.666666 -0.04277323531340412 0.9990848063806429 -2.808130905368764e-17 -1.1074799144074122e-16 -2.808130905368764e-17 -1.1074799144074122e-16 -0.04277390705357371 0.9990847776215959
12629624000.0 -0.03201033361552883 0.9994875379621527 -2.9276536989049244e-17 -1.1041493851934462e-16 -2.9276536989049244e-17 -1.1041493851934462e-16 -0.03201100559363408 0.9994875164406536
12630241333.333334 -0.021243718649593433 0.9997743267446706 -3.046784520010286e-17 -1.1006899499634612e-16 -3.046784520010286e-17 -1.1006899499634612e-16 -0.021244390787663957 0.999774312462509
12630858666.666666 -0.010474639367255744 0.9999451394601343 -3.165509475566308e-17 -1.0971020670049069e-16 -3.165509475566308e-17 -1.0971020670049069e-16 -0.010475311587310174 0.9999451324182594
12631476000.0 0.000295654994245848 0.9999999562939722 -3.2838147257360124e-17 -1.0933862095684013e-16 -3.2838147257360124e-17 -1.0933862095684013e-16 0.00029498277019075617 0.9999999564924924
12632093333.333334 0.01106591505655206 0.9999387708873891 -3.401686485567891e-17 -1.0895428658062877e-16 -3.401686485567891e-17 -1.0895428658062877e-16 0.01106524290647239 0.9999387783255744
12632710666.666666 0.021834891445198627 0.9997615903381153 -3.519111026603633e-17 -1.085572538709147e-16 -3.519111026603633e-17 -1.085572538709147e-16 0.02183421944705426 0.9997616050143951
12633328000.0 0.03260133493488759 0.9994684351995741 -3.636074678473246e-17 -1.081475746040731e-16 -3.636074678473246e-17 -1.081475746040731e-16 0.032600663166613135 0.9994684571115381
12633945333.333334 0.04336399659391704 0.9990593394785038 -3.7525638304830666e-17 -1.0772530202711886e-16 -3.7525638304830666e-17 -1.0772530202711886e-16 0.043363325133412914 0.999059368622904
12634562666.666666 0.05412162792942958 0.9985343506310087 -3.868564933197298e-17 -1.0729049085085253e-16 -3.868564933197298e-17 -1.0729049085085253e-16 0.05412095685455275 0.998534387003757
12635180000.0 0.06487298103198445 0.9978935295570593 -3.9840645000099296e-17 -1.0684319724284474e-16 -3.9840645000099296e-17 -1.0684319724284474e-16 0.06487231042053969 0.9978935731532311
12635797333.333334 0.0756168087205734 0.9971369505934168 -4.099049108712252e-17 -1.0638347882023707e-16 -4.099049108712252e-17 -1.0638347882023707e-16 0.07561613865030403 0.9971370014072487
12636414666.666666 0.08635186468695606 0.9962647015050302 -4.213505403046122e-17 -1.0591139464239834e-16 -4.213505403046122e-17 -1.0591139464239834e-16 0.08635119523553512 0.9962647595299235
12637032000.0 0.09707690364060326 0.9952768834748322 -4.327420094256694e-17 -1.0542700520338307e-16 -4.327420094256694e-17 -1.0542700520338307e-16 0.09707623488562431 0.9952769487033511
12637649333.333334 0.1077906814529547 0.9941736110920111 -4.440779962628773e-17 -1.0493037242425509e-16 -4.440779962628773e-17 -1.0493037242425509e-16 0.10779001347192299 0.9941736835158855
12638266666.666666 0.11849195530168447 0.9929550123387292 -4.553571859020421e-17 -1.0442155964522138e-16 -4.553571859020421e-17 -1.0442155964522138e-16 0.1184912881720079 0.9929550919488552
12638884000.0 0.1291794838150691 0.9916212285752537 -4.6657827063843606e-17 -1.0390063161761566e-16 -4.6657827063843606e-17 -1.0390063161761566e-16 0.12917881761404926 0.9916213153616947
12639501333.333334 0.1398520272157913 0.9901724145235794 -4.7773995012805856e-17 -1.0336765449571726e-16 -4.7773995012805856e-17 -1.0336765449571726e-16 0.13985136202061463 0.9901725084755688
12640118666.666666 0.15050834746478645 0.9886087382494859 -4.8884093153803396e-17 -1.028226958284063e-16 -4.8884093153803396e-17 -1.028226958284063e-16 0.1505076833525151 0.9886088393554257
12640736000.0 0.1611472084052222 0.9869303811429793 -4.998799296964367e-17 -1.022658245506377e-16 -4.998799296964367e-17 -1.022658245506377e-16 0.16114654545278495 0.986930489390441
12641353333.333334 0.1717673759051651 0.985137537897362 -5.108556672399981e-17 -1.0169711097481344e-16 -5.108556672399981e-17 -1.0169711097481344e-16 0.171766714189349 0.9851376532730929
12641970666.666666 0.18236761800138931 0.9832304164865537 -5.217668747624296e-17 -1.0111662678191676e-16 -5.217668747624296e-17 -1.0111662678191676e-16 0.1823669575988304 0.9832305389764747
12642588000.0 0.19294670504208958 0.9812092381409903 -5.3261229096041536e-17 -1.0052444501255416e-16 -5.3261229096041536e-17 -1.0052444501255416e-16 0.19294604602926407 0.9812093677301983
12643205333.333334 0.20350340982935675 0.9790742373219953 -5.4339066277935014e-17 -9.992064005780418e-17 -5.4339066277935014e-17 -9.992064005780418e-17 0.2035027522825721 0.9790743739947647
12643822666.666666 0.21403650776184177 0.9768256616945203 -5.5410074555783644e-17 -9.930528764991896e-17 -5.5410074555783644e-17 -9.930528764991896e-17 0.214035851757228 0.9768258054343057
12644440000.0 0.2245447769765892 0.9744637720984588 -5.647413031708893e-17 -9.867846485288691e-17 -5.647413031708893e-17 -9.867846485288691e-17 0.22454412259009005 0.974463922887897
12645057333.333334 0.23502699849072098 0.9719888425184032 -5.753111081725304e-17 -9.804025005281679e-17 -5.753111081725304e-17 -9.804025005281679e-17 0.23502634579808504 0.971989000339315
12645674666.666666 0.2454819563430361 0.9694011600518222 -5.858089419368518e-17 -9.739072294819491e-17 -5.858089419368518e-17 -9.739072294819491e-17 0.24548130541980812 0.9694013248852144
12646292000.0 0.2559084377350357 0.9667010248757555 -5.962335947986245e-17 -9.672996453995363e-17 -5.962335947986245e-17 -9.672996453995363e-17 0.25590778865654795 0.9667011967018238
12646909333.333334 0.2663052331714731 0.9638887502120309 -6.065838661918034e-17 -9.605805712145079e-17 -6.065838661918034e-17 -9.605805712145079e-17 0.26630458601283596 0.9638889290101603
12647526666.666666 0.27667113660071285 0.9609646622909153 -6.168585647879514e-17 -9.53750842682365e-17 -6.168585647879514e-17 -9.53750842682365e-17 0.2766704914368076 0.9609648480396863
12648144000.0 0.2870049455548008 0.9579291003132273 -6.270565086329415e-17 -9.468113082770792e-17 -6.270565086329415e-17 -9.468113082770792e-17 0.2870043024602694 0.9579292929904153
12648761333.333334 0.2973054612887595 0.9547824164110383 -6.371765252824225e-17 -9.397628290862423e-17 -6.371765252824225e-17 -9.397628290862423e-17 0.29730482033799666 0.9547826159936165
12649378666.666666 0.3075714889195657 0.9515249756068541 -6.472174519364938e-17 -9.326062787045284e-17 -6.472174519364938e-17 -9.326062787045284e-17 0.3075708501867104 0.9515251820709983
12649996000.0 0.3178018375650851 0.9481571557711715 -6.57178135572914e-17 -9.253425431258885e-17 -6.57178135572914e-17 -9.253425431258885e-17 0.31780120112401167 0.9481573690922609
12650613333.333334 0.3279953204819187 0.9446793475787358 -6.67057433079325e-17 -9.179725206341917e-17 -6.67057433079325e-17 -9.179725206341917e-17 0.3279946864062285 0.9446795677313565
12651230666.666666 0.33815075520317633 0.9410919544631887 -6.768542113838043e-17 -9.104971216927715e-17 -6.768542113838043e-17 -9.104971216927715e-17 0.33815012356618895 0.9410921814211365
12651848000.0 0.34826696367569904 0.9373953925702493 -6.865673475849437e-17 -9.029172688320338e-17 -6.865673475849437e-17 -9.029172688320338e-17 0.3482663345504445 0.9373956263065347
12652465333.333334 0.3583427723966881 0.9335900907094487 -6.961957290799217e-17 -8.952338965362368e-17 -6.961957290799217e-17 -8.952338965362368e-17 0.35834214585589774 0.9335903311962978
12653082666.666666 0.3683770125496231 0.92967649030447 -7.057382536915533e-17 -8.874479511287441e-17 -7.057382536915533e-17 -8.874479511287441e-17 0.3683763886657209 0.9296767375133274
12653700000.0 0.37836852014032224 0.9256550453417539 -7.151938297945626e-17 -8.795603906555198e-17 -7.151938297945626e-17 -8.795603906555198e-17 0.3783678989854178 0.9256552992432893
12654317333.333334 0.38831613613138866 0.9215262223180691 -7.245613764395806e-17 -8.715721847680766e-17 -7.245613764395806e-17 -8.715721847680766e-17 0.38831551777726725 0.921526482882177
12654934666.666666 0.39821870657710884 0.917290500186215 -7.338398234768152e-17 -8.634843146043073e-17 -7.338398234768152e-17 -8.634843146043073e-17 0.3982180910952245 0.9172907673820216
12655552000.0 0.40807508275723287 0.9129483702994928 -7.430281116778969e-17 -8.552977726684165e-17 -7.430281116778969e-17 -8.552977726684165e-17 0.4080744702186991 0.9129486440953569
12656169333.333334 0.417884121309916 0.9085003363548426 -7.521251928561738e-17 -8.470135627097516e-17 -7.521251928561738e-17 -8.470135627097516e-17 0.4178835117854979 0.908500616718361
12656786666.666666 0.4276446843647938 0.9039469143342204 -7.611300299863708e-17 -8.3863269959975e-17 -7.611300299863708e-17 -8.3863269959975e-17 0.42764407792490033 0.9039472012322316
12657404000.0 0.4373556396746406 0.8992886324448944 -7.700415973221481e-17 -8.301562092082497e-17 -7.700415973221481e-17 -8.301562092082497e-17 0.43735503638931555 0.8992889258434814
12658021333.333334 0.4470158607469696 0.8945260310580504 -7.78858880512846e-17 -8.215851282780672e-17 -7.78858880512846e-17 -8.215851282780672e-17 0.44701526068588476 0.8945263309225465
12658638666.666666 0.45662422697437727 0.8896596626462703 -7.875808767182944e-17 -8.129205042988404e-17 -7.875808767182944e-17 -8.129205042988404e-17 0.4566236302068227 0.8896599689412608
12659256000.0 0.4661796237649678 0.8846900917192272 -7.962065947229214e-17 -8.041633953789937e-17 -7.962065947229214e-17 -8.041633953789937e-17 0.466179030359846 0.8846904044085572
12659873333.333334 0.4756809426713447 0.8796178947583569 -8.04735055047772e-17 -7.953148701171412e-17 -8.04735055047772e-17 -7.953148701171412e-17 0.47568035269715997 0.8796182138051302
12660490666.666666 0.4851270815191168 0.8744436601500215 -8.131652900613207e-17 -7.863760074721184e-17 -8.131652900613207e-17 -7.863760074721184e-17 0.48512649504397026 0.8744439855166113
12661108000.0 0.49451694453518136 0.8691679881170331 -8.214963440892788e-17 -7.77347896631367e-17 -8.214963440892788e-17 -7.77347896631367e-17 0.49451636162676044 0.8691683197650809
12661725333.333334 0.5038494424742845 0.8637914906493205 -8.297272735220899e-17 -7.682316368790782e-17 -8.297272735220899e-17 -7.682316368790782e-17 0.5038488631998571 0.8637918285397439
12662342666.666666 0.5131234927458507 0.858314791432678 -8.378571469218436e-17 -7.590283374622622e-17 -8.378571469218436e-17 -7.590283374622622e-17 0.5131229171722561 0.8583151355256742
12662960000.0 0.5223380195392422 0.8527385257765978 -8.458850451271401e-17 -7.497391174563051e-17 -8.458850451271401e-17 -7.497391174563051e-17 0.5223374477328842 0.8527388760316484
12663577333.333334 0.5314919539487776 0.8470633405404431 -8.538100613565993e-17 -7.40365105629278e-17 -8.538100613565993e-17 -7.40365105629278e-17 0.5314913859756163 0.8470636969163187
12664194666.666666 0.5405842340975312 0.8412898940585269 -8.616313013110672e-17 -7.309074403049447e-17 -8.616313013110672e-17 -7.309074403049447e-17 0.5405836700230765 0.8412902565132937
12664812000.0 0.5496138052606857 0.8354188560636466 -8.693478832739903e-17 -7.213672692250582e-17 -8.693478832739903e-17 -7.213672692250582e-17 0.5496132451499879 0.8354192245546672
12665429333.333334 0.5585796199878291 0.8294509076094106 -8.769589382106192e-17 -7.117457494101797e-17 -8.769589382106192e-17 -7.117457494101797e-17 0.5585790639054729 0.8294512820933535
12666046666.666666 0.5674806382242756 0.8233867409913712 -8.844636098652371e-17 -7.020440470200118e-17 -8.844636098652371e-17 -7.020440470200118e-17 0.5674800862343718 0.8233871214242134
12666664000.0 0.5763158274321376 0.8172270596664266 -8.918610548574606e-17 -6.92263337211927e-17 -8.918610548574606e-17 -6.92263337211927e-17 0.5763152795983166 0.8172274460034593
12667281333.333334 0.585084162709587 0.8109725781715718 -8.991504427762946e-17 -6.824048039993766e-17 -8.991504427762946e-17 -6.824048039993766e-17 0.5850836190949896 0.810972970367405
12667898666.666666 0.5937846269101635 0.8046240220407175 -9.06330956273092e-17 -6.724696401087013e-17 -9.06330956273092e-17 -6.724696401087013e-17 0.5937840875774372 0.8046244200492878
12668516000.0 0.6024162107605848 0.7981821277206613 -9.134017911529362e-17 -6.624590468349684e-17 -9.134017911529362e-17 -6.624590468349684e-17 0.6024156757718724 0.7981825314952344
12669133333.333334 0.6109779129777961 0.7916476424856702 -9.203621564639816e-17 -6.523742338974779e-17 -9.203621564639816e-17 -6.523742338974779e-17 0.6109773823947315 0.7916480519788479
12669750666.666666 0.6194687403851725 0.7850213243507663 -9.272112745858405e-17 -6.42216419293447e-17 -9.272112745858405e-17 -6.42216419293447e-17 0.6194682142688718 0.785021739514491
