! Parameters = {f0=12700.012000; bw=77.238000; Q=6100.000000; N=10; m_0_1=1.219715; m_1_1=-0.469025; m_1_2=1.054527; m_2_2=-0.469674; m_2_3=0.691490; m_2_8=-0.001951; m_2_9=0.034753; m_3_3=-0.471611; m_3_4=0.580019; m_3_7=-0.001351; m_3_8=-0.098439; m_3_9=-0.001951; m_4_4=-0.474536; m_4_5=0.416354; m_4_6=0.002166; m_4_7=-0.118988; m_4_8=-0.001351; m_5_5=-0.474154; m_5_6=0.823709; m_5_7=0.002166; m_6_6=-0.474155; m_6_7=0.416696; m_7_7=-0.474522; m_7_8=0.580137; m_8_8=-0.471613; m_8_9=0.691803; m_9_9=-0.469679; m_9_10=1.055605; m_10_10=-0.469035; m_10_11=1.220510}
!
! Created with skrf (http://scikit-rf.org).
# Hz S RI R 50.0 
!freq ReS11 ImS11 ReS21 ImS21 ReS12 ImS12 ReS22 ImS22
12607400000.0 0.9635828475838614 -0.2674099770801655 -7.3535593630895e-17 4.597139195928685e-17 -7.3535593630895e-17 4.597139195928685e-17 0.9635830194498705 -0.26740935777886893
12608017333.333334 0.9611271208451979 -0.2761062432754075 -7.309872617947305e-17 4.663135131412684e-17 -7.309872617947305e-17 4.663135131412684e-17 0.9611272982916668 -0.27610562558266954
12608634666.666666 0.9585929126574537 -0.28477996383653154 -7.265594226063821e-17 4.7287168784941834e-17 -7.265594226063821e-17 4.7287168784941834e-17 0.9585930956693488 -0.2847793478026307
12609252000.0 0.9559804299530983 -0.29343043050530243 -7.220728105781633e-17 4.79387913909567e-17 -7.220728105781633e-17 4.79387913909567e-17 0.9559806185149299 -0.29342981618037606
12609869333.333334 0.9532898860561122 -0.3020569369224327 -7.175278222831564e-17 4.858616652132659e-17 -7.175278222831564e-17 4.858616652132659e-17 0.9532900801519408 -0.3020563243564743
12610486666.666666 0.9505215006646729 -0.3106587786849358 -7.129248589984419e-17 4.922924193936653e-17 -7.129248589984419e-17 4.922924193936653e-17 0.9505217002781085 -0.31065816792779005
12611104000.0 0.9476754998330944 -0.31923525340402376 -7.082643266696595e-17 4.986796578678018e-17 -7.082643266696595e-17 4.986796578678018e-17 0.9476757049472984 -0.31923464450538314
12611721333.333334 0.9447521159534646 -0.327785660762164 -7.035466358756972e-17 5.050228658778522e-17 -7.035466358756972e-17 5.050228658778522e-17 0.9447523265511496 -0.3277850537715637
12612338666.666666 0.9417515877366316 -0.33630930257037106 -6.987722017924506e-17 5.113215325328358e-17 -6.987722017924506e-17 5.113215325328358e-17 0.9417518038000665 -0.3363086975371867
12612956000.0 0.938674160192688 -0.3448054828253002 -6.939414441565833e-17 5.175751508494541e-17 -6.939414441565833e-17 5.175751508494541e-17 0.9386743817036943 -0.34480487979874147
12613573333.333334 0.9355200846110152 -0.3532735077659167 -6.890547872288289e-17 5.237832177927367e-17 -6.890547872288289e-17 5.237832177927367e-17 0.9355203115509734 -0.3532729067950255
12614190666.666666 0.932289618539742 -0.36171268593022793 -6.841126597568656e-17 5.2994523431641584e-17 -6.841126597568656e-17 5.2994523431641584e-17 0.9322898508895902 -0.36171208706387303
12614808000.0 0.9289830257646777 -0.37012232821182295 -6.791154949379081e-17 5.360607054028562e-17 -6.791154949379081e-17 5.360607054028562e-17 0.9289832635049157 -0.37012173149869726
12615425333.333334 0.9256005762878395 -0.3785017479159844 -6.740637303808556e-17 5.4212914010275266e-17 -6.740637303808556e-17 5.4212914010275266e-17 0.9256008193985271 -0.3785011534045995
12616042666.666666 0.9221425463053706 -0.38685026081583945 -6.689578080682515e-17 5.481500515742594e-17 -6.689578080682515e-17 5.481500515742594e-17 0.9221427947661323 -0.3868496685545228
12616660000.0 0.9186092181849577 -0.39516718520831046 -6.637981743176659e-17 5.5412295712205026e-17 -6.637981743176659e-17 5.5412295712205026e-17 0.9186094719749811 -0.3951665952452004
12617277333.333334 0.9150008804428205 -0.4034518419696455 -6.585852797429477e-17 5.600473782357516e-17 -6.585852797429477e-17 5.600473782357516e-17 0.9150011395408635 -0.4034512543526894
12617894666.666666 0.9113178277201907 -0.4117035546108271 -6.533195792150783e-17 5.659228406280917e-17 -6.533195792150783e-17 5.659228406280917e-17 0.911318092104577 -0.41170296938777473
12618512000.0 0.9075603607590781 -0.41992164933316883 -6.48001531822422e-17 5.717488742729767e-17 -6.48001531822422e-17 5.717488742729767e-17 0.907560630407704 -0.4199210665515707
12619129333.333334 0.903728786377966 -0.4281054550827944 -6.426316008312099e-17 5.775250134425513e-17 -6.426316008312099e-17 5.775250134425513e-17 0.903729061268298 -0.42810487478999626
12619746666.666666 0.8998234174465405 -0.43625430360589584 -6.372102536450586e-17 5.832507967446065e-17 -6.372102536450586e-17 5.832507967446065e-17 0.8998236975556217 -0.4362537258490367
12620364000.0 0.8958445728602306 -0.4443675295031219 -6.317379617645656e-17 5.889257671591493e-17 -6.317379617645656e-17 5.889257671591493e-17 0.8958448581646781 -0.44436695432912793
12620981333.333334 0.8917925775142383 -0.45244447028375606 -6.262152007465709e-17 5.945494720746224e-17 -6.262152007465709e-17 5.945494720746224e-17 0.8917928679902484 -0.4524438977393384
12621598666.666666 0.8876677622768504 -0.4604844664201454 -6.206424501627721e-17 6.001214633240761e-17 -6.206424501627721e-17 6.001214633240761e-17 0.8876680579001995 -0.4604838965517962
12622216000.0 0.8834704639625591 -0.4684868614012754 -6.150201935584462e-17 6.056412972205112e-17 -6.150201935584462e-17 6.056412972205112e-17 0.8834707647086053 -0.46848629425526345
12622833333.333334 0.8792010253044951 -0.4764510017865037 -6.09348918410484e-17 6.111085345922304e-17 -6.09348918410484e-17 6.111085345922304e-17 0.8792013311481808 -0.47645043740887116
12623450666.666666 0.8748597949264532 -0.48437623725889184 -6.036291160854707e-17 6.165227408174234e-17 -6.036291160854707e-17 6.165227408174234e-17 0.8748601058423074 -0.4843756756954503
12624068000.0 0.8704471273144563 -0.4922619206782589 -5.978612817971366e-17 6.218834858587009e-17 -5.978612817971366e-17 6.218834858587009e-17 0.8704474432765961 -0.49226136197458564
12624685333.333334 0.8659633827876813 -0.5001074081342461 -5.920459145635654e-17 6.271903442971521e-17 -5.920459145635654e-17 6.271903442971521e-17 0.8659637037698145 -0.5001068523356808
12625302666.666666 0.8614089274692759 -0.5079120589984752 -5.861835171644803e-17 6.324428953656565e-17 -5.861835171644803e-17 6.324428953656565e-17 0.8614092534447023 -0.5079115061501152
12625920000.0 0.8567841332562072 -0.5156752359773032 -5.802745960975173e-17 6.37640722982465e-17 -5.802745960975173e-17 6.37640722982465e-17 0.8567844641978226 -0.5156746861240011
12626537333.333334 0.8520893777890546 -0.5233963051635923 -5.743196615350005e-17 6.427834157836473e-17 -5.743196615350005e-17 6.427834157836473e-17 0.8520897136693509 -0.5233957583499516
12627154666.666666 0.8473250444211695 -0.5310746360884693 -5.683192272798837e-17 6.478705671556295e-17 -5.683192272798837e-17 6.478705671556295e-17 0.8473253852122395 -0.5310740923588413
12627772000.0 0.8424915221872449 -0.5387096017730297 -5.622738107214049e-17 6.529017752673186e-17 -5.622738107214049e-17 6.529017752673186e-17 0.8424918678607817 -0.5387090611715091
12628389333.333334 0.8375892057717068 -0.5463005787792641 -5.561839327910133e-17 6.578766431013354e-17 -5.561839327910133e-17 6.578766431013354e-17 0.837589556299008 -0.5463000413496857
12629006666.666666 0.832618495476369 -0.5538469472611595 -5.5005011791720476e-17 6.627947784855411e-17 -5.5005011791720476e-17 6.627947784855411e-17 0.8326188508283389 -0.5538464130470955
12629624000.0 0.8275797971877897 -0.5613480910152416 -5.438728939808464e-17 6.676557941234914e-17 -5.438728939808464e-17 6.676557941234914e-17 0.8275801573349411 -0.5613475600599966
12630241333.333334 0.8224735223441433 -0.5688033975308652 -5.376527922697261e-17 6.724593076249051e-17 -5.376527922697261e-17 6.724593076249051e-17 0.822473887256602 -0.5688028698774747
12630858666.666666 0.817300087901679 -0.576212258040164 -5.3139034743306603e-17 6.772049415355242e-17 -5.3139034743306603e-17 6.772049415355242e-17 0.8173004575491832 -0.5762117337313891
12631476000.0 0.8120599163004414 -0.5835740675680835 -5.250860974356308e-17 6.818923233666495e-17 -5.250860974356308e-17 6.818923233666495e-17 0.812060290652345 -0.5835735466464069
12632093333.333334 0.8067534354300844 -0.5908882249813363 -5.187405835117634e-17 6.865210856241309e-17 -5.187405835117634e-17 6.865210856241309e-17 0.806753814455362 -0.5908877074889619
12632710666.666666 0.8013810785947917 -0.5981541330377033 -5.1235435011910084e-17 6.910908658369637e-17 -5.1235435011910084e-17 6.910908658369637e-17 0.8013814622620377 -0.5981536190165495
12633328000.0 0.7959432844777542 -0.6053711984349798 -5.0592794489175e-17 6.956013065856835e-17 -5.0592794489175e-17 6.956013065856835e-17 0.795943672755188 -0.6053706879266783
12633945333.333334 0.7904404971056197 -0.612538831859058 -4.994619185937837e-17 7.000520555299001e-17 -4.994619185937837e-17 7.000520555299001e-17 0.7904408899610876 -0.6125383249049494
12634562666.666666 0.7848731658120166 -0.6196564480323435 -4.9295682507202653e-17 7.044427654357535e-17 -4.9295682507202653e-17 7.044427654357535e-17 0.7848735632129941 -0.6196559446734743
12635180000.0 0.7792417452009992 -0.6267234657613656 -4.8641322120871645e-17 7.087730942028424e-17 -4.8641322120871645e-17 7.087730942028424e-17 0.7792421471145939 -0.6267229660384845
12635797333.333334 0.7735466951098595 -0.6337393079843258 -4.798316668740931e-17 7.130427048905999e-17 -4.798316668740931e-17 7.130427048905999e-17 0.7735471015028124 -0.63373881193788
12636414666.666666 0.7677884805715915 -0.6407034018181931 -4.732127248785581e-17 7.172512657443781e-17 -4.732127248785581e-17 7.172512657443781e-17 0.7677888914102827 -0.6407029094883266
12637032000.0 0.7619675717769243 -0.6476151786054865 -4.665569609247071e-17 7.213984502210131e-17 -4.665569609247071e-17 7.213984502210131e-17 0.7619679870273736 -0.6476146900320356
12637649333.333334 0.7560844440359431 -0.6544740739606852 -4.5986494355914156e-17 7.254839370139517e-17 -4.5986494355914156e-17 7.254839370139517e-17 0.756084863663814 -0.6544735891831762
12638266666.666666 0.7501395777392059 -0.6612795278164016 -4.5313724412395986e-17 7.295074100779963e-17 -4.5313724412395986e-17 7.295074100779963e-17 0.7501400017098077 -0.6612790468740466
12638884000.0 0.744133458318645 -0.6680309844689623 -4.4637443670826075e-17 7.334685586534598e-17 -4.4637443670826075e-17 7.334685586534598e-17 0.7441338865969347 -0.6680305074006558
12639501333.333334 0.7380665762077596 -0.674727892623976 -4.395770980991081e-17 7.373670772900779e-17 -4.395770980991081e-17 7.373670772900779e-17 0.7380670087583477 -0.6747274194682938
12640118666.666666 0.7319394268018197 -0.6813697054410782 -4.327458077327463e-17 7.412026658701905e-17 -4.327458077327463e-17 7.412026658701905e-17 0.7319398635889688 -0.6813692362362707
12640736000.0 0.7257525104170438 -0.6879558805789773 -4.258811476449427e-17 7.44975029631867e-17 -4.258811476449427e-17 7.44975029631867e-17 0.7257529514046771 -0.6879554153629709
12641353333.333334 0.719506332250157 -0.6944858802393061 -4.189837024219819e-17 7.486838791910937e-17 -4.189837024219819e-17 7.486838791910937e-17 0.7195067774018565 -0.6944854190496966
12641970666.666666 0.713201402336844 -0.7009591712108462 -4.120540591507176e-17 7.523289305639184e-17 -4.120540591507176e-17 7.523289305639184e-17 0.7132018516158556 -0.7009587140848973
12642588000.0 0.7068382355102402 -0.7073752249129229 -4.050928073687837e-17 7.559099051879559e-17 -4.050928073687837e-17 7.559099051879559e-17 0.7068386888794759 -0.7073747718875624
12643205333.333334 0.7004173513588112 -0.7137335174386481 -3.981005390147005e-17 7.594265299433764e-17 -3.981005390147005e-17 7.594265299433764e-17 0.7004178087808541 -0.7137330685504664
12643822666.666666 0.6939392741839685 -0.7200335295976599 -3.9107784837752507e-17 7.62878537173593e-17 -3.9107784837752507e-17 7.62878537173593e-17 0.693939735621073 -0.7200330848829052
12644440000.0 0.6874045329572946 -0.7262747469584778 -3.84025332046519e-17 7.662656647053783e-17 -3.84025332046519e-17 7.662656647053783e-17 0.6874049983713919 -0.7262743064530544
12645057333.333334 0.6808136612772704 -0.7324566598905876 -3.769435888607314e-17 7.695876558684762e-17 -3.769435888607314e-17 7.695876558684762e-17 0.6808141306299696 -0.732456223630052
12645674666.666666 0.6741671973258476 -0.7385787636059202 -3.698332198581101e-17 7.72844259514901e-17 -3.698332198581101e-17 7.72844259514901e-17 0.6741676705784413 -0.7385783316254796
12646292000.0 0.6674656838241911 -0.7446405582003596 -3.6269482822462126e-17 7.760352300376762e-17 -3.6269482822462126e-17 7.760352300376762e-17 0.6674661609376564 -0.7446401305348679
12646909333.333334 0.6607096679887804 -0.7506415486941774 -3.555290192434341e-17 7.791603273890104e-17 -3.555290192434341e-17 7.791603273890104e-17 0.6607101489237833 -0.7506411253781331
12647526666.666666 0.6538997014864553 -0.7565812450727039 -3.4833640024344354e-17 7.822193170982382e-17 -3.4833640024344354e-17 7.822193170982382e-17 0.6539001862033534 -0.7565808261402465
12648144000.0 0.6470363403893228 -0.7624591623263703 -3.411175805481023e-17 7.852119702890683e-17 -3.411175805481023e-17 7.852119702890683e-17 0.6470368288481693 -0.7624587478112786
12648761333.333334 0.640120145129566 -0.7682748204901299 -3.338731714238471e-17 7.881380636964906e-17 -3.338731714238471e-17 7.881380636964906e-17 0.6401206372901119 -0.7682744104258183
12649378666.666666 0.633151680453619 -0.7740277446827064 -3.2660378602862536e-17 7.909973796830981e-17 -3.2660378602862536e-17 7.909973796830981e-17 0.6331521762753171 -0.7740273391022229
12649996000.0 0.626131515375876 -0.7797174651455158 -3.1931003935994863e-17 7.937897062550758e-17 -3.1931003935994863e-17 7.937897062550758e-17 0.6261320148178846 -0.7797170640815392
12650613333.333334 0.6190602231324467 -0.7853435172808408 -3.119925482029938e-17 7.965148370776395e-17 -3.119925482029938e-17 7.965148370776395e-17 0.6190607261536326 -0.7853431207656787
12651230666.666666 0.6119383811342642 -0.790905441689848 -3.046519310788251e-17 7.991725714899028e-17 -3.046519310788251e-17 7.991725714899028e-17 0.611938887693205 -0.7909050497554315
12651848000.0 0.6047665709198639 -0.7964027842101428 -2.9728880819183143e-17 8.017627145195127e-17 -2.9728880819183143e-17 8.017627145195127e-17 0.6047670809748527 -0.7964023968880267
12652465333.333334 0.5975453781080343 -0.8018350959527557 -2.899038013778435e-17 8.042850768965134e-17 -2.899038013778435e-17 8.042850768965134e-17 0.5975458916170833 -0.8018347132741156
12653082666.666666 0.5902753923499315 -0.8072019333388475 -2.8249753405156454e-17 8.067394750669398e-17 -2.8249753405156454e-17 8.067394750669398e-17 0.590275909270775 -0.8072015553344768
12653700000.0 0.5829572072808382 -0.8125028581359971 -2.750706311540022e-17 8.091257312058818e-17 -2.750706311540022e-17 8.091257312058818e-17 0.5829577275709358 -0.8125024848363046
12654317333.333334 0.5755914204719426 -0.8177374374938018 -2.6762371910011882e-17 8.114436732299649e-17 -2.6762371910011882e-17 8.114436732299649e-17 0.5755919440884829 -0.8177370689288088
12654934666.666666 0.5681786333812444 -0.8229052439794383 -2.6015742572582467e-17 8.136931348095285e-17 -2.6015742572582467e-17 8.136931348095285e-17 0.5681791602811488 -0.8229048801787768
12655552000.0 0.5607194513046033 -0.8280058556124484 -2.5267238023533493e-17 8.158739553801684e-17 -2.5267238023533493e-17 8.158739553801684e-17 0.5607199814445287 -0.828005496605358
12656169333.333334 0.5532144833263363 -0.8330388558991791 -2.4516921314829632e-17 8.17985980153843e-17 -2.4516921314829632e-17 8.17985980153843e-17 0.5532150166626801 -0.8330385017145062
12656786666.666666 0.5456643422694132 -0.8380038338668426 -2.376485562467312e-17 8.200290601295232e-17 -2.376485562467312e-17 8.200290601295232e-17 0.5456648787583158 -0.8380034845330362
12657404000.0 0.5380696446454646 -0.8429003840970428 -2.3011104252201423e-17 8.220030521033216e-17 -2.3011104252201423e-17 8.220030521033216e-17 0.5380701842428133 -0.8429000396421533
12658021333.333334 0.5304310106043179 -0.8477281067589536 -2.2255730612160384e-17 8.23907818678177e-17 -2.2255730612160384e-17 8.23907818678177e-17 0.5304315532657508 -0.8477277672106309
12658638666.666666 0.5227490638836249 -0.8524866076418043 -2.1498798229609873e-17 8.25743228272951e-17 -2.1498798229609873e-17 8.25743228272951e-17 0.5227496095645333 -0.8524862730272941
12659256000.0 0.5150244317576166 -0.8571754981872631 -2.0740370734551813e-17 8.275091551312183e-17 -2.0740370734551813e-17 8.275091551312183e-17 0.5150249804131503 -0.8571751685334055
12659873333.333334 0.5072577449860254 -0.8617943955210726 -1.998051185663135e-17 8.292054793293605e-17 -1.998051185663135e-17 8.292054793293605e-17 0.507258296571096 -0.8617940708543015
12660490666.666666 0.49944963776275386 -0.8663429224842163 -1.9219285419787475e-17 8.30832086784297e-17 -1.9219285419787475e-17 8.30832086784297e-17 0.49945019223203757 -0.8663426028305541
12661108000.0 0.4916007476636471 -0.870820707663973 -1.845675533687382e-17 8.323888692607649e-17 -1.845675533687382e-17 8.323888692607649e-17 0.4916013049715891 -0.8708203930490311
12661725333.333334 0.4837117155949459 -0.8752273854239434 -1.7692985604354828e-17 8.338757243779379e-17 -1.7692985604354828e-17 8.338757243779379e-17 0.4837122756957651 -0.8752270758729205
12662342666.666666 0.4757831857406125 -0.879562595934111 -1.6928040296902174e-17 8.352925556157577e-17 -1.6928040296902174e-17 8.352925556157577e-17 0.47578374858830247 -0.8795622914717873
12662960000.0 0.4678158055097725 -0.8838259852001873 -1.6161983562060373e-17 8.366392723206229e-17 -1.6161983562060373e-17 8.366392723206229e-17 0.46781637105810825 -0.8838256858509267
12663577333.333334 0.45981022548397865 -0.888017205092453 -1.5394879614870395e-17 8.379157897106639e-17 -1.5394879614870395e-17 8.379157897106639e-17 0.45981079368651906 -0.8880169108801994
12664194666.666666 0.451767099364012 -0.8921359133742268 -1.4626792732492098e-17 8.391220288805212e-17 -1.4626792732492098e-17 8.391220288805212e-17 0.45176767017410335 -0.8921356243225026
12664812000.0 0.4436870839164265 -0.8961817737298482 -1.3857787248847509e-17 8.40257916805593e-17 -1.3857787248847509e-17 8.40257916805593e-17 0.4436876572872071 -0.8961814898617515
12665429333.333334 0.4355708389200732 -0.9001544557920624 -1.308792754922313e-17 8.41323386345851e-17 -1.308792754922313e-17 8.41323386345851e-17 0.4355714148044765 -0.9001541771302654
12666046666.666666 0.4274190271121482 -0.904053635169033 -1.2317278064920445e-17 8.423183762490912e-17 -1.2317278064920445e-17 8.423183762490912e-17 0.42741960546290786 -0.904053361735783
12666664000.0 0.419232314133977 -0.9078789934708863 -1.1545903267842345e-17 8.432428311537847e-17 -1.1545903267842345e-17 8.432428311537847e-17 0.41923289490362875 -0.9078787252879988
12667281333.333334 0.4110113684769391 -0.9116302183355665 -1.077386766513821e-17 8.440967015913505e-17 -1.077386766513821e-17 8.440967015913505e-17 0.41101195161782655 -0.9116299554244275
12667898666.666666 0.4027568614275513 -0.9153070034545058 -1.0001235793814619e-17 8.44879943987987e-17 -1.0001235793814619e-17 8.44879943987987e-17 0.40275744689182896 -0.9153067458360689
12668516000.0 0.3944694670128049 -0.9189090485975591 -9.228072215333549e-18 8.455925206660167e-17 -9.228072215333549e-18 8.455925206660167e-17 0.39447005475244235 -0.9189087962923436
12669133333.333334 0.3861498619452866 -0.9224360596374559 -8.454441510268461e-18 8.462343998446869e-17 -8.454441510268461e-18 8.462343998446869e-17 0.3861504519120714 -0.9224358126655434
12669750666.666666 0.3777987255675788 -0.925887748573958 -7.680408272891048e-18 8.468055556405446e-17 -7.680408272891048e-18 8.468055556405446e-17 0.37779931771312275 -0.9258875069549958
12670368000.0 0.36941673979707845 -0.9292638335572605 -6.906037105792684e-18 8.473059680672907e-17 -6.906037105792684e-18 8.473059680672907e-17 0.3694173340728196 -0.9292635973104559
12670985333.333334 0.36100458907018207 -0.9325640389110593 -6.131392614528919e-18 8.477356230351236e-17 -6.131392614528919e-18 8.477356230351236e-17 0.36100518542738913 -0.9325638080551782
