! Parameters = {f0=12700.012000; bw=77.238000; Q=6100.000000; N=10; m_0_1=1.300395; m_1_1=0.741185; m_1_2=1.135207; m_2_2=0.740536; m_2_3=0.772170; m_2_8=0.002083; m_2_9=0.038787; m_3_3=0.738599; m_3_4=0.660699; m_3_7=0.002683; m_3_8=-0.094405; m_3_9=0.002083; m_4_4=0.735674; m_4_5=0.497034; m_4_6=0.006200; m_4_7=-0.114954; m_4_8=0.002683; m_5_5=0.736056; m_5_6=0.904389; m_5_7=0.006200; m_6_6=0.736055; m_6_7=0.497376; m_7_7=0.735688; m_7_8=0.660817; m_8_8=0.738597; m_8_9=0.772483; m_9_9=0.740531; m_9_10=1.136285; m_10_10=0.741175; m_10_11=1.301190}
!
! Created with skrf (http://scikit-rf.org).
# Hz S RI R 50.0 
!freq ReS11 ImS11 ReS21 ImS21 ReS12 ImS12 ReS22 ImS22
12607400000.0 0.3128487200608036 0.9498029681761007 -7.257235580706251e-17 -1.0468011230387958e-16 -7.257235580706251e-17 -1.0468011230387958e-16 0.3128480693802556 0.9498031824988064
12608017333.333334 0.3236762675095704 0.9461678888288744 -7.375796545037214e-17 -1.0381754100946724e-16 -7.375796545037214e-17 -1.0381754100946724e-16 0.3236756193510334 0.9461681105583406
12608634666.666666 0.33446159152083615 0.9424093822735241 -7.493333892297412e-17 -1.0294155309977757e-16 -7.493333892297412e-17 -1.0294155309977757e-16 0.33446094596861126 0.9424096113801032
12609252000.0 0.34520328515358456 0.93852793880576 -7.609832453515469e-17 -1.0205226986813622e-16 -7.609832453515469e-17 -1.0205226986813622e-16 0.34520264229162445 0.9385281752588442
12609869333.333334 0.35589994715839196 0.9345240647583499 -7.725277203244978e-17 -1.0114981432130717e-16 -7.725277203244978e-17 -1.0114981432130717e-16 0.3558993070702905 0.9345243085263769
12610486666.666666 0.36655018216008756 0.9303982824351206 -7.83965326149696e-17 -1.002343111625412e-16 -7.83965326149696e-17 -1.002343111625412e-16 0.3665495449290679 0.9303985334855753
12611104000.0 0.37715260084009655 0.9261511300426977 -7.95294589565656e-17 -9.93058867743725e-17 -7.95294589565656e-17 -9.93058867743725e-17 0.37715196654900174 0.92615138834212
12611721333.333334 0.3877058201172016 0.9217831616204882 -8.065140522372435e-17 -9.836466920125641e-17 -8.065140522372435e-17 -9.836466920125641e-17 0.3877051888484827 0.9217834271344747
12612338666.666666 0.39820846332838766 0.9172949469682364 -8.176222709432363e-17 -9.741078813193916e-17 -8.176222709432363e-17 -9.741078813193916e-17 0.39820783516409336 0.9172952196614466
12612956000.0 0.40865916040831857 0.9126870715717317 -8.286178177615286e-17 -9.644437488163926e-17 -8.286178177615286e-17 -9.644437488163926e-17 0.4086585354300852 0.9126873514078923
12613573333.333334 0.4190565480678557 0.9079601365265266 -8.394992802519948e-17 -9.546556237404232e-17 -8.394992802519948e-17 -9.546556237404232e-17 0.41905592635689526 0.9079604234684352
12614190666.666666 0.42939926997215705 0.9031147584594075 -8.502652616377466e-17 -9.447448512304449e-17 -8.502652616377466e-17 -9.447448512304449e-17 0.4293986516092479 0.9031150524689393
12614808000.0 0.43968597691748224 0.8981515694480162 -8.609143809838431e-17 -9.347127921432894e-17 -8.609143809838431e-17 -9.347127921432894e-17 0.4396853619829579 0.8981518704861283
12615425333.333334 0.4499153270072194 0.8930712169383811 -8.714452733739886e-17 -9.2456082286726e-17 -8.714452733739886e-17 -9.2456082286726e-17 0.44991471558095875 0.8930715249651174
12616042666.666666 0.4600859858269379 0.8878743636604612 -8.818565900850453e-17 -9.142903351337585e-17 -8.818565900850453e-17 -9.142903351337585e-17 0.4600853779883536 0.8878746786349575
12616660000.0 0.47019662661845885 0.8825616875416903 -8.921469987591995e-17 -9.039027358270725e-17 -8.921469987591995e-17 -9.039027358270725e-17 0.47019602244648834 0.8825620094221802
12617277333.333334 0.48024593045298253 0.8771338816185152 -9.023151835741814e-17 -8.933994467919597e-17 -9.023151835741814e-17 -8.933994467919597e-17 0.4802453300260774 0.8771342103623366
12617894666.666666 0.490232586402916 0.8715916539461134 -9.123598454108175e-17 -8.827819046397275e-17 -9.123598454108175e-17 -8.827819046397275e-17 0.49023198979903126 0.871591989509712
12618512000.0 0.5001552917133087 0.8659357275057945 -9.222797020188333e-17 -8.720515605518956e-17 -9.222797020188333e-17 -8.720515605518956e-17 0.5001546990098932 0.8659360698447307
12619129333.333334 0.5100127519713462 0.8601668401109341 -9.320734881797142e-17 -8.612098800826831e-17 -9.320734881797142e-17 -8.612098800826831e-17 0.5100121632453325 0.8601671891798895
12619746666.666666 0.5198036812754803 0.854285744310575 -9.41739955867837e-17 -8.502583429590398e-17 -9.41739955867837e-17 -8.502583429590398e-17 0.5198030966032745 0.8542861000633579
12620364000.0 0.5295268024031728 0.8482932072912562 -9.512778744090174e-17 -8.391984428791415e-17 -9.512778744090174e-17 -8.391984428791415e-17 0.5295262218606451 0.8482935696808068
12620981333.333334 0.5391808469772891 0.8421900107770622 -9.606860306364812e-17 -8.280316873093579e-17 -9.606860306364812e-17 -8.280316873093579e-17 0.5391802706397633 0.8421903797554605
12621598666.666666 0.5487645556318006 0.8359769509275043 -9.69963229044912e-17 -8.167595972789633e-17 -9.69963229044912e-17 -8.167595972789633e-17 0.5487639835740448 0.8359773264459749
12622216000.0 0.5582766781759718 0.8296548382337177 -9.791082919417416e-17 -8.05383707173538e-17 -9.791082919417416e-17 -8.05383707173538e-17 0.5582761104721887 0.8296552202426376
12622833333.333334 0.5677159737573996 0.8232244974127672 -9.881200595962101e-17 -7.939055645264646e-17 -9.881200595962101e-17 -7.939055645264646e-17 0.5677154104812155 0.82322488586167
12623450666.666666 0.5770812110239281 0.8166867673000288 -9.969973903857442e-17 -7.823267298090714e-17 -9.969973903857442e-17 -7.823267298090714e-17 0.5770806522483867 0.8166871621376155
12624068000.0 0.5863711682843054 0.8100425007397538 -1.0057391609402817e-16 -7.706487762186408e-17 -1.0057391609402817e-16 -7.706487762186408e-17 0.5863706140818544 0.8100429019138949
12624685333.333334 0.595584633667594 0.8032925644737753 -1.0143442662839353e-16 -7.588732894650309e-17 -1.0143442662839353e-16 -7.588732894650309e-17 0.5955840841100779 0.8032929719315205
12625302666.666666 0.6047204052810293 0.7964378390286104 -1.0228116199737224e-16 -7.470018675563396e-17 -1.0228116199737224e-16 -7.470018675563396e-17 0.6047198604396812 0.7964382527161964
12625920000.0 0.6137772913671533 0.7894792186003475 -1.0311401542367273e-16 -7.35036120581748e-17 -1.0311401542367273e-16 -7.35036120581748e-17 0.6137767513125821 0.7894796384632019
12626537333.333334 0.6227541104589778 0.7824176109382143 -1.0393288201038016e-16 -7.229776704941264e-17 -1.0393288201038016e-16 -7.229776704941264e-17 0.6227535752611616 0.7824180369209645
12627154666.666666 0.6316496915341341 0.7752539372261511 -1.0473765875412728e-16 -7.108281508903983e-17 -1.0473765875412728e-16 -7.108281508903983e-17 0.6316491612624114 0.7752543692726327
12627772000.0 0.6404628741680092 0.7679891319623403 -1.0552824455800638e-16 -6.985892067904723e-17 -1.0552824455800638e-16 -6.985892067904723e-17 0.6404623488910687 0.7679895700156026
12628389333.333334 0.6491925086845021 0.7606241428378001 -1.0630454024418418e-16 -6.862624944153453e-17 -1.0630454024418418e-16 -6.862624944153453e-17 0.6491919884703745 0.7606245868401155
12629006666.666666 0.6578374563065729 0.7531599306122929 -1.0706644856631511e-16 -6.738496809629433e-17 -1.0706644856631511e-16 -6.738496809629433e-17 0.6578369412226214 0.7531603805051622
12629624000.0 0.6663965893044418 0.7455974689892814 -1.0781387422164246e-16 -6.613524443833728e-17 -1.0781387422164246e-16 -6.613524443833728e-17 0.6663960794173543 0.7455979247134434
12630241333.333334 0.674868791142857 0.737937744488784 -1.0854672386287327e-16 -6.48772473152299e-17 -1.0854672386287327e-16 -6.48772473152299e-17 0.6748682865186372 0.737938205984223
12630858666.666666 0.6832529566266169 0.7301817563187961 -1.0926490610975518e-16 -6.361114660435662e-17 -1.0926490610975518e-16 -6.361114660435662e-17 0.6832524573305746 0.730182223524749
12631476000.0 0.6915479920449725 0.7223305162447323 -1.099683315604486e-16 -6.233711318995213e-17 -1.099683315604486e-16 -6.233711318995213e-17 0.6915474981417175 0.7223309890996972
12632093333.333334 0.6997528153140529 0.7143850484576741 -1.1065691280254455e-16 -6.105531894016221e-17 -1.1065691280254455e-16 -6.105531894016221e-17 0.6997523268674831 0.7143855268994173
12632710666.666666 0.7078663561180634 0.7063463894407265 -1.1133056442389325e-16 -5.976593668384559e-17 -1.1133056442389325e-16 -5.976593668384559e-17 0.7078658731913615 0.7063468734062938
12633328000.0 0.715887556049135 0.6982155878335942 -1.1198920302313268e-16 -5.84691401873108e-17 -1.1198920302313268e-16 -5.84691401873108e-17 0.7158870787047558 0.6982160772593151
12633945333.333334 0.7238153687451264 0.6899937042960408 -1.126327472199341e-16 -5.716510413096337e-17 -1.126327472199341e-16 -5.716510413096337e-17 0.7238148970447901 0.6899941991175393
12634562666.666666 0.731648760026242 0.6816818113694085 -1.1326111766499734e-16 -5.58540040858e-17 -1.1326111766499734e-16 -5.58540040858e-17 0.731648294030928 0.6816823115216121
12635180000.0 0.7393867080299231 0.6732809933367262 -1.138742370497642e-16 -5.4536016489813306e-17 -1.138742370497642e-16 -5.4536016489813306e-17 0.7393862477998594 0.6732814987538719
12635797333.333334 0.7470282033441661 0.6647923460812426 -1.1447203011585935e-16 -5.321131862428376e-17 -1.1447203011585935e-16 -5.321131862428376e-17 0.7470277489388234 0.6647928566968879
12636414666.666666 0.7545722491391252 0.6562169769435546 -1.1505442366425063e-16 -5.1880088589986697e-17 -1.1505442366425063e-16 -5.1880088589986697e-17 0.7545718006172089 0.6562174926905855
12637032000.0 0.7620178612972616 0.6475560045770274 -1.156213465641462e-16 -5.05425052832663e-17 -1.156213465641462e-16 -5.05425052832663e-17 0.7620174187167034 0.6475565253876668
12637649333.333334 0.7693640685416454 0.6388105588019517 -1.1617272976160056e-16 -4.9198748372047127e-17 -1.1617272976160056e-16 -4.9198748372047127e-17 0.7693636319595966 0.6388110846077688
12638266666.666666 0.776609912562696 0.629981780458116 -1.1670850628785048e-16 -4.784899827173262e-17 -1.1670850628785048e-16 -4.784899827173262e-17 0.7766094820355195 0.629982311190035
12638884000.0 0.7837544481431189 0.6210708212560713 -1.1722861126736348e-16 -4.6493436121034205e-17 -1.1722861126736348e-16 -4.6493436121034205e-17 0.7837540237263831 0.6210713568443808
12639501333.333334 0.7907967432813379 0.6120788436267383 -1.1773298192562118e-16 -4.513224375767761e-17 -1.1773298192562118e-16 -4.513224375767761e-17 0.7907963250298081 0.6120793840011001
12640118666.666666 0.7977358793128948 0.6030070205699911 -1.1822155759659722e-16 -4.376560369408588e-17 -1.1822155759659722e-16 -4.376560369408588e-17 0.797735467280527 0.6030075656594495
12640736000.0 0.8045709510305857 0.5938565355012562 -1.186942797299946e-16 -4.2393699092871937e-17 -1.186942797299946e-16 -4.2393699092871937e-17 0.804570545270519 0.5938570852342474
12641353333.333334 0.8113010668021287 0.5846285820976791 -1.1915109189813211e-16 -4.10167137424432e-17 -1.1915109189813211e-16 -4.10167137424432e-17 0.8113006673666799 0.584629136402041
12641970666.666666 0.8179253486868423 0.5753243641419359 -1.1959193980262477e-16 -3.9634832032313725e-17 -1.1959193980262477e-16 -3.9634832032313725e-17 0.8179249556274967 0.5753249229449164
12642588000.0 0.8244429325499955 0.5659450953654241 -1.200167712807251e-16 -3.8248238928501494e-17 -1.200167712807251e-16 -3.8248238928501494e-17 0.8244425459174022 0.5659456585936922
12643205333.333334 0.8308529681755562 0.556491999289913 -1.2042553631139942e-16 -3.6857119948801754e-17 -1.2042553631139942e-16 -3.6857119948801754e-17 0.8308525880195214 0.5564925668695667
12643822666.666666 0.8371546193771623 0.5469663090678384 -1.2081818702111973e-16 -3.546166113798997e-17 -1.2081818702111973e-16 -3.546166113798997e-17 0.8371542457466432 0.5469668809244167
12644440000.0 0.8433470641071401 0.5373692673215348 -1.2119467768935928e-16 -3.406204904299525e-17 -1.2119467768935928e-16 -3.406204904299525e-17 0.8433466970502368 0.537369843380025
12645057333.333334 0.8494294945636931 0.5277021259812072 -1.2155496475380972e-16 -3.265847068799354e-17 -1.2155496475380972e-16 -3.265847068799354e-17 0.8494291341276431 0.5277027061660557
12645674666.666666 0.8554011172963735 0.5179661461214751 -1.2189900681530162e-16 -3.1251113549470947e-17 -1.2189900681530162e-16 -3.1251113549470947e-17 0.8554007635275475 0.5179667303565983
12646292000.0 0.8612611533096297 0.50816259779679 -1.222267646424589e-16 -2.984016553115749e-17 -1.222267646424589e-16 -2.984016553115749e-17 0.8612608062535242 0.5081631860055833
12646909333.333334 0.8670088381642502 0.4982927598760519 -1.2253820117602427e-16 -2.8425814939070204e-17 -1.2253820117602427e-16 -2.8425814939070204e-17 0.8670084978654806 0.4982933519813996
12647526666.666666 0.8726434220772283 0.48835791987553534 -1.228332815329361e-16 -2.7008250456345746e-17 -1.228332815329361e-16 -2.7008250456345746e-17 0.8726430885795251 0.48835851579982087
12648144000.0 0.8781641700195573 0.47835937379095794 -1.231119730100941e-16 -2.5587661118127157e-17 -1.231119730100941e-16 -2.5587661118127157e-17 0.8781638433657586 0.47835997345607395
12648761333.333334 0.8835703618120706 0.4682984259284918 -1.2337424508783616e-16 -2.4164236286403012e-17 -1.2337424508783616e-16 -2.4164236286403012e-17 0.8835700420441178 0.468299029255851
12649378666.666666 0.8888612922193364 0.4581763887347185 -1.2362006943312816e-16 -2.2738165624802996e-17 -1.2362006943312816e-16 -2.2738165624802996e-17 0.8888609793782695 0.4581769956452635
12649996000.0 0.8940362710418053 0.4479945826251459 -1.2384941990246619e-16 -2.1309639073345674e-17 -1.2384941990246619e-16 -2.1309639073345674e-17 0.8940359651677567 0.44799519303936
12650613333.333334 0.8990946232057513 0.43775433581213596 -1.2406227254448123e-16 -1.9878846823187468e-17 -1.2406227254448123e-16 -1.9878846823187468e-17 0.8990943243379398 0.43775494965005235
12651230666.666666 0.904035688851295 0.4274569841317146 -1.2425860560225396e-16 -1.8445979291352092e-17 -1.2425860560225396e-16 -1.8445979291352092e-17 0.904035397028022 0.42745760131292837
12651848000.0 0.9088588234186108 0.4171038708690599 -1.2443839951534452e-16 -1.7011227095390292e-17 -1.2443839951534452e-16 -1.7011227095390292e-17 0.9088585386772566 0.41710449131273825
12652465333.333334 0.9135633977318977 0.4066963465835004 -1.2460163692152124e-16 -1.557478102808657e-17 -1.2460163692152124e-16 -1.557478102808657e-17 0.9135631201089123 0.40669697020839163
12653082666.666666 0.918148798081453 0.3962357689323349 -1.2474830265820062e-16 -1.4136832032142107e-17 -1.2474830265820062e-16 -1.4136832032142107e-17 0.9181485276123568 0.39623639565678137
12653700000.0 0.9226144263038528 0.38572350249346976 -1.2487838376360515e-16 -1.2697571174755473e-17 -1.2487838376360515e-16 -1.2697571174755473e-17 0.9226141630232275 0.3857241322354166
12654317333.333334 0.9269596998598248 0.3751609185877444 -1.2499186947761034e-16 -1.1257189622370521e-17 -1.2499186947761034e-16 -1.1257189622370521e-17 0.9269594438013138 0.3751615512647523
12654934666.666666 0.9311840519103084 0.3645493950999183 -1.2508875124231835e-16 -9.815878615247196e-18 -1.2508875124231835e-16 -9.815878615247196e-18 0.9311838031066078 0.3645500306291723
12655552000.0 0.9352869313905069 0.3538903162986323 -1.2516902270232958e-16 -8.373829442124698e-18 -1.2516902270232958e-16 -8.373829442124698e-18 0.9352866898733634 0.3538909545969536
12656169333.333334 0.9392678030815332 0.3431850726564398 -1.2523267970472335e-16 -6.931233414898888e-18 -1.2523267970472335e-16 -6.931233414898888e-18 0.9392675688817409 0.3431857136402968
12656786666.666666 0.9431261476804513 0.33243506066786577 -1.2527972029875135e-16 -5.4882818432424696e-18 -1.2527972029875135e-16 -5.4882818432424696e-18 0.9431259208278462 0.3324357042533844
12657404000.0 0.9468614618679113 0.3216416826674981 -1.2531014473523487e-16 -4.045166009288667e-18 -1.2531014473523487e-16 -4.045166009288667e-18 0.946861242391367 0.321642328770473
12658021333.333334 0.9504732583738364 0.31080634664697326 -1.2532395546567365e-16 -2.6020771423036027e-18 -1.2532395546567365e-16 -2.6020771423036027e-18 0.9504730463012644 0.31080699518287963
12658638666.666666 0.9539610660409484 0.2999304660714417 -1.2532115714106264e-16 -1.1592063934004352e-18 -1.2532115714106264e-16 -1.1592063934004352e-18 0.9539608613992898 0.299931116955445
12659256000.0 0.957324429886314 0.2890154596949097 -1.2530175661041794e-16 2.83255189779733e-19 -1.2530175661041794e-16 2.83255189779733e-19 0.9573242327015372 0.28901611284187745
12659873333.333334 0.960562911160623 0.2780627513753796 -1.2526576291901236e-16 1.7251166882956525e-18 -1.2526576291901236e-16 1.7251166882956525e-18 0.9605627214577228 0.2780634066998925
12660490666.666666 0.963676087405391 0.26707376988924586 -1.2521318730632167e-16 3.1661873371389444e-18 -1.2521318730632167e-16 3.1661873371389444e-18 0.9636759052083835 0.26707442730560904
12661108000.0 0.9666635525082332 0.2560499487443386 -1.2514404320367888e-16 4.6062765504760044e-18 -1.2514404320367888e-16 4.6062765504760044e-18 0.9666633778401531 0.25605060816659264
12661725333.333334 0.9695249167556231 0.24499272599368815 -1.2505834623164311e-16 6.0451939467531914e-18 -1.2505834623164311e-16 6.0451939467531914e-18 0.9695247496385202 0.24499338733562012
12662342666.666666 0.9722598068838978 0.23390354404732902 -1.2495611419707484e-16 7.48274937388963e-18 -1.2495611419707484e-16 7.48274937388963e-18 0.9722596473388357 0.23390420722248442
12662960000.0 0.9748678661278781 0.22278384948441338 -1.248373670899266e-16 8.91875293433739e-18 -1.248373670899266e-16 8.91875293433739e-18 0.9748677141749291 0.2227845144061065
12663577333.333334 0.9773487542674176 0.21163509286444873 -1.247021270797441e-16 1.0353015010137269e-17 -1.247021270797441e-16 1.0353015010137269e-17 0.9773486099256632 0.21163575944577487
12664194666.666666 0.9797021476717884 0.20045872853807453 -1.2455041851188016e-16 1.1785346287920659e-17 -1.2455041851188016e-16 1.1785346287920659e-17 0.9797020109593156 0.200459396691921
12664812000.0 0.9819277393418996 0.18925621445734242 -1.243822679034232e-16 1.3215557783861433e-17 -1.243822679034232e-16 1.3215557783861433e-17 0.9819276102757976 0.18925688409639976
12665429333.333334 0.9840252389503505 0.17802901198547053 -1.2419770393883722e-16 1.464346086857782e-17 -1.2419770393883722e-16 1.464346086857782e-17 0.9840251175467097 0.17802968302224403
12666046666.666666 0.9859943728792618 0.16677858570646126 -1.23996757465322e-16 1.6068867291956732e-17 -1.23996757465322e-16 1.6068867291956732e-17 0.9859942591531723 0.16677925805328264
12666664000.0 0.987834884256055 0.1555064032335719 -1.2377946148787789e-16 1.7491589207974245e-17 -1.2377946148787789e-16 1.7491589207974245e-17 0.9878347782216029 0.15550707680261033
12667281333.333334 0.98954653298687 0.14421393501836816 -1.235458511641024e-16 1.8911439199365242e-17 -1.235458511641024e-16 1.8911439199365242e-17 0.9895464346571368 0.14421460972164188
12667898666.666666 0.9911290957879388 0.13290265415859634 -1.232959637986895e-16 2.0328230302310866e-17 -1.232959637986895e-16 2.0328230302310866e-17 0.9911290051750004 0.13290332990798445
12668516000.0 0.9925823662147107 0.12157403620601848 -1.230298388376514e-16 2.1741776031021036e-17 -1.230298388376514e-16 2.1741776031021036e-17 0.9925822833296349 0.12157471291327213
12669133333.333334 0.9939061546887482 0.11022955897418005 -1.227475178622667e-16 2.315189040221649e-17 -1.227475178622667e-16 2.315189040221649e-17 0.9939060795415944 0.11023023655093404
12669750666.666666 0.9951002885224961 0.09887070234534862 -1.2244904458273634e-16 2.4558387959583306e-17 -1.2244904458273634e-16 2.4558387959583306e-17 0.9951002211223114 0.09887138070313281
12670368000.0 0.9961646119417914 0.08749894807754768 -1.2213446483156512e-16 2.596108379813438e-17 -1.2213446483156512e-16 2.596108379813438e-17 0.9961645522966142 0.08749962712779893
