! Parameters = {f0=12700.012000; bw=77.238000; Q=6100.000000; N=10; m_0_1=1.204099; m_1_1=-0.703259; m_1_2=1.038911; m_2_2=-0.703908; m_2_3=0.675874; m_2_8=-0.002731; m_2_9=0.033973; m_3_3=-0.705845; m_3_4=0.564403; m_3_7=-0.002131; m_3_8=-0.099219; m_3_9=-0.002731; m_4_4=-0.708770; m_4_5=0.400738; m_4_6=0.001386; m_4_7=-0.119768; m_4_8=-0.002131; m_5_5=-0.708388; m_5_6=0.808093; m_5_7=0.001386; m_6_6=-0.708389; m_6_7=0.401080; m_7_7=-0.708756; m_7_8=0.564521; m_8_8=-0.705847; m_8_9=0.676187; m_9_9=-0.703913; m_9_10=1.039989; m_10_10=-0.703269; m_10_11=1.204894}
!
! Created with skrf (http://scikit-rf.org).
# Hz S RI R 50.0 
!freq ReS11 ImS11 ReS21 ImS21 ReS12 ImS12 ReS22 ImS22
12607400000.0 -0.9660000013932913 0.25854206100362637 6.839572316591617e-17 -4.1888779223618325e-17 6.839572316591617e-17 -4.1888779223618325e-17 -0.9660001654395116 0.25854144807105406
12608017333.333334 -0.96374758386171 0.26681565658813355 6.80169358091232e-17 -4.2471421227316884e-17 6.80169358091232e-17 -4.2471421227316884e-17 -0.9637477531492843 0.26681504511467635
12608634666.666666 -0.9614243060488923 0.2750696343441924 6.763319087693569e-17 -4.305064675049376e-17 6.763319087693569e-17 -4.305064675049376e-17 -0.9614244805648603 0.275069024374664
12609252000.0 -0.9590303387756799 0.2833033873917603 6.724451911112585e-17 -4.3626413660846865e-17 6.724451911112585e-17 -4.3626413660846865e-17 -0.9590305185066995 0.28330277897086004
12609869333.333334 -0.9565658580604147 0.29151631033783365 6.685095161108813e-17 -4.4198680102074644e-17 6.685095161108813e-17 -4.4198680102074644e-17 -0.9565660429927604 0.29151570351014205
12610486666.666666 -0.9540310451059996 0.299707799320931 6.645251983136803e-17 -4.4767404496906056e-17 6.645251983136803e-17 -4.4767404496906056e-17 -0.9540312352255662 0.29970719413090763
12611104000.0 -0.9514260862865362 0.3078772520556292 6.604925557915148e-17 -4.533254555012663e-17 6.604925557915148e-17 -4.533254555012663e-17 -0.9514262815788375 0.3078766485476085
12611721333.333334 -0.9487511731337055 0.3160240678765754 6.56411910117543e-17 -4.589406225154717e-17 6.56411910117543e-17 -4.589406225154717e-17 -0.9487513735838767 0.3160234660947637
12612338666.666666 -0.9460065023226094 0.32414764778289523 6.522835863406734e-17 -4.6451913878975636e-17 6.522835863406734e-17 -4.6451913878975636e-17 -0.9460067079154076 0.32414704777136794
12612956000.0 -0.943192275657315 0.3322473944822072 6.481079129597691e-17 -4.7006060001166355e-17 6.481079129597691e-17 -4.7006060001166355e-17 -0.9431924863771222 0.3322467962849054
12613573333.333334 -0.9403087000560669 0.34032271243440554 6.438852218978042e-17 -4.7556460480718745e-17 6.438852218978042e-17 -4.7556460480718745e-17 -0.940308915886887 0.34032211609513185
12614190666.666666 -0.9373559875360296 0.3483730078955529 6.39615848475434e-17 -4.8103075476998554e-17 6.39615848475434e-17 -4.8103075476998554e-17 -0.9373562084614954 0.3483724134579702
12614808000.0 -0.9343343551977172 0.35639768896151275 6.353001313846644e-17 -4.864586544899023e-17 6.353001313846644e-17 -4.864586544899023e-17 -0.9343345812010857 0.3563970964691387
12615425333.333334 -0.9312440252090227 0.3643961656114657 6.309384126620544e-17 -4.9184791158154477e-17 6.309384126620544e-17 -4.9184791158154477e-17 -0.9312442562731813 0.3643955751076714
12616042666.666666 -0.928085224788898 0.3723678497512672 6.265310376617805e-17 -4.971981367124978e-17 6.265310376617805e-17 -4.971981367124978e-17 -0.928085460896363 0.3723672612792732
12616660000.0 -0.9248581861906046 0.3803121552567929 6.22078355028375e-17 -5.025089436314034e-17 6.22078355028375e-17 -5.025089436314034e-17 -0.9248584273235232 0.380311568859666
12617277333.333334 -0.9215631466846879 0.38822849801690074 6.175807166693554e-17 -5.077799491956381e-17 6.175807166693554e-17 -5.077799491956381e-17 -0.9215633928248396 0.388227913737551
12617894666.666666 -0.9182003485415454 0.39611629597635356 6.130384777275677e-17 -5.1301077339882085e-17 6.130384777275677e-17 -5.1301077339882085e-17 -0.9182005996703441 0.3961157138575315
12618512000.0 -0.9147700390135152 0.403974969178851 6.084519965531473e-17 -5.1820103939824533e-17 6.084519965531473e-17 -5.1820103939824533e-17 -0.9147702951120085 0.4039743892631436
12619129333.333334 -0.9112724703168044 0.41180393980940805 6.038216346755307e-17 -5.233503735417367e-17 6.038216346755307e-17 -5.233503735417367e-17 -0.9112727313656772 0.4118033621392366
12619746666.666666 -0.9077078996129025 0.4196026322369457 5.991477567750328e-17 -5.284584053944989e-17 5.991477567750328e-17 -5.284584053944989e-17 -0.907708165592478 0.41960205685456203
12620364000.0 -0.9040765889896275 0.4273704730567178 5.944307306541983e-17 -5.3352476776571056e-17 5.944307306541983e-17 -5.3352476776571056e-17 -0.9040768598798667 0.427369900004201
12620981333.333334 -0.9003788054419678 0.43510689113221046 5.896709272091578e-17 -5.3854909673461283e-17 5.896709272091578e-17 -5.3854909673461283e-17 -0.9003790812224752 0.43510632045146524
12621598666.666666 -0.8966148208523527 0.44281131763737097 5.848687204003829e-17 -5.435310316767643e-17 5.848687204003829e-17 -5.435310316767643e-17 -0.896615101502374 0.44281074937012305
12622216000.0 -0.892784911970668 0.45048318609840327 5.800244872236018e-17 -5.484702152896147e-17 5.800244872236018e-17 -5.484702152896147e-17 -0.8927851974690916 0.4504826202861962
12622833333.333334 -0.8888893603939552 0.4581219324353145 5.75138607680243e-17 -5.5336629361811065e-17 5.75138607680243e-17 -5.5336629361811065e-17 -0.8888896507193171 0.4581213691195082
12623450666.666666 -0.8849284525457138 0.4657269950033931 5.702114647478471e-17 -5.582189160798344e-17 5.702114647478471e-17 -5.582189160798344e-17 -0.8849287476761959 0.4657264342251593
12624068000.0 -0.8809024796547863 0.4732978146346034 5.652434443500348e-17 -5.630277354901322e-17 5.652434443500348e-17 -5.630277354901322e-17 -0.8809027795682199 0.47329725643492354
12624685333.333334 -0.8768117377339446 0.48083383467869845 5.602349353264815e-17 -5.677924080867412e-17 5.602349353264815e-17 -5.677924080867412e-17 -0.8768120424078126 0.4808332790983608
12625302666.666666 -0.8726565275582079 0.48833450104399906 5.551863294027078e-17 -5.725125935541456e-17 5.551863294027078e-17 -5.725125935541456e-17 -0.8726568369696441 0.4883339481235949
12625920000.0 -0.868437154642604 0.49579926223835735 5.500980211593395e-17 -5.771879550479747e-17 5.500980211593395e-17 -5.771879550479747e-17 -0.8684374687683959 0.49579871201827797
12626537333.333334 -0.8641539292198426 0.5032275694094565 5.4497040800163853e-17 -5.818181592186779e-17 5.4497040800163853e-17 -5.818181592186779e-17 -0.8641542480364339 0.5032270219298911
12627154666.666666 -0.8598071662174399 0.5106188763852916 5.3980389012842434e-17 -5.864028762353208e-17 5.3980389012842434e-17 -5.864028762353208e-17 -0.8598074897009321 0.5106183316862244
12627772000.0 -0.8553971852344895 0.5179726397144488 5.345988705009579e-17 -5.909417798089429e-17 5.345988705009579e-17 -5.909417798089429e-17 -0.8553975133606432 0.5179720978356557
12628389333.333334 -0.8509243105183071 0.5252883187058189 5.293557548118054e-17 -5.954345472155013e-17 5.293557548118054e-17 -5.954345472155013e-17 -0.8509246432625432 0.5252877796868637
12629006666.666666 -0.8463888709404579 0.5325653754685693 5.240749514531191e-17 -5.998808593188785e-17 5.240749514531191e-17 -5.998808593188785e-17 -0.8463892082778619 0.5325648393488026
12629624000.0 -0.841791199972683 0.5398032749515258 5.1875687148506474e-17 -6.042804005933125e-17 5.1875687148506474e-17 -6.042804005933125e-17 -0.8417915418780031 0.5398027417700805
12630241333.333334 -0.8371316356623164 0.5470014849826069 5.1340192860394416e-17 -6.086328591456529e-17 5.1340192860394416e-17 -6.086328591456529e-17 -0.8371319821099685 0.5470009547783965
12630858666.666666 -0.8324105206074645 0.5541594763079064 5.0801053911017e-17 -6.129379267373097e-17 5.0801053911017e-17 -6.129379267373097e-17 -0.8324108715715326 0.5541589491196214
12631476000.0 -0.8276282019317345 0.5612767226307241 5.025831218758595e-17 -6.171952988060704e-17 5.025831218758595e-17 -6.171952988060704e-17 -0.8276285573859743 0.5612761984968301
12632093333.333334 -0.8227850312588565 0.5683527006500502 4.971200983125703e-17 -6.214046744873851e-17 4.971200983125703e-17 -6.214046744873851e-17 -0.8227853911766949 0.5683521796087838
12632710666.666666 -0.8178813646867495 0.5753868900991592 4.9162189233869364e-17 -6.25565756635484e-17 4.9162189233869364e-17 -6.25565756635484e-17 -0.8178817290412888 0.5753863721885266
12633328000.0 -0.8129175627612776 0.5823787737839584 4.8608893034651956e-17 -6.296782518443435e-17 4.8608893034651956e-17 -6.296782518443435e-17 -0.8129179315252951 0.5823782590417311
12633945333.333334 -0.8078939904498141 0.5893278376208936 4.805216411694766e-17 -6.337418704680737e-17 4.805216411694766e-17 -6.337418704680737e-17 -0.8078943635957667 0.5893273260846069
12634562666.666666 -0.8028110171144299 0.5962335706747273 4.7492045604885425e-17 -6.377563266413063e-17 4.7492045604885425e-17 -6.377563266413063e-17 -0.8028113946144563 0.596233062381678
12635180000.0 -0.7976690164846875 0.6030954651961775 4.6928580860063585e-17 -6.417213382990587e-17 4.6928580860063585e-17 -6.417213382990587e-17 -0.7976693983106053 0.6030949601834181
12635797333.333334 -0.7924683666301535 0.6099130166592435 4.636181347819552e-17 -6.45636627196476e-17 4.636181347819552e-17 -6.45636627196476e-17 -0.7924687527534686 0.609912514963584
12636414666.666666 -0.7872094499326964 0.616685723798195 4.579178728575906e-17 -6.495019189281317e-17 4.579178728575906e-17 -6.495019189281317e-17 -0.7872098403245997 0.6166852254561963
12637032000.0 -0.7818926530581934 0.6234130886446501 4.5218546336600165e-17 -6.533169429472377e-17 4.5218546336600165e-17 -6.533169429472377e-17 -0.7818930476895656 0.6234125936926243
12637649333.333334 -0.7765183669282744 0.6300946165639638 4.464213490855818e-17 -6.570814325843034e-17 4.464213490855818e-17 -6.570814325843034e-17 -0.7765187657696868 0.6300941250379694
12638266666.666666 -0.7710869866914936 0.6367298162917105 4.406259750004762e-17 -6.607951250656859e-17 4.406259750004762e-17 -6.607951250656859e-17 -0.7710873897132116 0.6367293282275506
12638884000.0 -0.7655989116942917 0.6433181999697796 4.3479978826637736e-17 -6.644577615317537e-17 4.3479978826637736e-17 -6.644577615317537e-17 -0.7655993188662764 0.6433177154030003
12639501333.333334 -0.7600545454516374 0.6498592831822496 4.289432381760429e-17 -6.680690870548381e-17 4.289432381760429e-17 -6.680690870548381e-17 -0.7600549567435458 0.6498588021481346
12640118666.666666 -0.7544542956173892 0.6563525849909568 4.230567761249843e-17 -6.716288506566708e-17 4.230567761249843e-17 -6.716288506566708e-17 -0.7544547109985806 0.6563521075245283
12640736000.0 -0.7487985739541424 0.6627976279710758 4.1714085557640235e-17 -6.751368053259059e-17 4.1714085557640235e-17 -6.751368053259059e-17 -0.7487989933936775 0.6627971541070897
12641353333.333334 -0.7430877963033241 0.669193938245792 4.1119593202686716e-17 -6.785927080347947e-17 4.1119593202686716e-17 -6.785927080347947e-17 -0.7430882197699676 0.6691934680187351
12641970666.666666 -0.737322382554262 0.6755410455215494 4.0522246297087187e-17 -6.819963197561495e-17 4.0522246297087187e-17 -6.819963197561495e-17 -0.737322810016488 0.6755405789656399
12642588000.0 -0.7315027566134286 0.6818384831225045 3.992209078660438e-17 -6.853474054795226e-17 3.992209078660438e-17 -6.853474054795226e-17 -0.7315031880394176 0.681838020271685
12643205333.333334 -0.7256293463733614 0.6880857880247282 3.9319172809781793e-17 -6.886457342273272e-17 3.9319172809781793e-17 -6.886457342273272e-17 -0.7256297817310071 0.688085328912667
12643822666.666666 -0.7197025836810537 0.6942825008904222 3.87135386944015e-17 -6.918910790706184e-17 3.87135386944015e-17 -6.918910790706184e-17 -0.7197030229379636 0.6942820455505089
12644440000.0 -0.713722904306316 0.700428166101564 3.8105234953946805e-17 -6.950832171444681e-17 3.8105234953946805e-17 -6.950832171444681e-17 -0.7137233474298146 0.7004277145669081
12645057333.333334 -0.7076907479097382 0.7065223317934101 3.749430828403101e-17 -6.982219296631504e-17 3.749430828403101e-17 -6.982219296631504e-17 -0.7076911948668687 0.706521884096838
12645674666.666666 -0.7016065580102842 0.7125645498878009 3.688080555883538e-17 -7.013070019348956e-17 3.688080555883538e-17 -7.013070019348956e-17 -0.7016070087678102 0.7125641060618528
12646292000.0 -0.695470781952658 0.7185543761261227 3.626477382750124e-17 -7.043382233765086e-17 3.626477382750124e-17 -7.043382233765086e-17 -0.6954712364770683 0.7185539362030521
12646909333.333334 -0.6892838708745965 0.7244913701017934 3.56462603105627e-17 -7.073153875274079e-17 3.56462603105627e-17 -7.073153875274079e-17 -0.6892843291321064 0.7244909341135639
12647526666.666666 -0.6830462796735198 0.7303750952928274 3.5025312396309434e-17 -7.102382920636461e-17 3.5025312396309434e-17 -7.102382920636461e-17 -0.6830467416300711 0.7303746632711084
12648144000.0 -0.6767584669731175 0.7362051190938836 3.440197763718047e-17 -7.131067388113959e-17 3.440197763718047e-17 -7.131067388113959e-17 -0.6767589325943855 0.7362046910700513
12648761333.333334 -0.6704208950896329 0.7419810128480772 3.377630374613316e-17 -7.159205337601965e-17 3.377630374613316e-17 -7.159205337601965e-17 -0.670421364341027 0.7419805888532113
12649378666.666666 -0.6640340299979957 0.7477023518783812 3.314833859300586e-17 -7.186794870758668e-17 3.314833859300586e-17 -7.186794870758668e-17 -0.664034502844661 0.7477019319432614
12649996000.0 -0.6575983412973732 0.7533687155190253 3.251813020084716e-17 -7.21383413113194e-17 3.251813020084716e-17 -7.21383413113194e-17 -0.6575988177041937 0.7533682996741294
12650613333.333334 -0.6511143021767436 0.7589796871463257 3.1885726742272326e-17 -7.240321304281401e-17 3.1885726742272326e-17 -7.240321304281401e-17 -0.6511147821083456 0.7589792754218282
12651230666.666666 -0.6445823893801107 0.764534854209323 3.125117653579154e-17 -7.266254617898153e-17 3.125117653579154e-17 -7.266254617898153e-17 -0.644582872800864 0.7645344466350923
12651848000.0 -0.6380030831713588 0.7700338082601849 3.061452804211189e-17 -7.291632341921971e-17 3.061452804211189e-17 -7.291632341921971e-17 -0.6380035700453816 0.7700334048657826
12652465333.333334 -0.6313768672990532 0.7754761449841489 2.9975829860457064e-17 -7.316452788654125e-17 2.9975829860457064e-17 -7.316452788654125e-17 -0.6313773575902117 0.7754757457988251
12653082666.666666 -0.6247042289608935 0.7808614642292315 2.9335130724880336e-17 -7.340714312866962e-17 2.9335130724880336e-17 -7.340714312866962e-17 -0.624704722632807 0.780861069281924
12653700000.0 -0.617985658767693 0.7861893700358105 2.8692479500527197e-17 -7.364415311911906e-17 2.8692479500527197e-17 -7.364415311911906e-17 -0.6179861557837358 0.7861889793551433
12654317333.333334 -0.6112216507075278 0.7914594706655594 2.8047925179952e-17 -7.387554225821703e-17 2.8047925179952e-17 -7.387554225821703e-17 -0.6112221510308327 0.7914590842798408
12654934666.666666 -0.6044127021093286 0.7966713786303246 2.7401516879364105e-17 -7.410129537411966e-17 2.7401516879364105e-17 -7.410129537411966e-17 -0.6044132057027876 0.7966709965675429
12655552000.0 -0.597559313606222 0.8018247107206807 2.675330383490778e-17 -7.432139772377747e-17 2.675330383490778e-17 -7.432139772377747e-17 -0.5975598204324903 0.8018243330085038
12656169333.333334 -0.5906619890989475 0.8069190880339357 2.6103335398932786e-17 -7.453583499387054e-17 2.6103335398932786e-17 -7.453583499387054e-17 -0.5906624991204465 0.806918714699709
12656786666.666666 -0.5837212357186036 0.811954136002144 2.545166103623006e-17 -7.474459330172026e-17 2.545166103623006e-17 -7.474459330172026e-17 -0.583721748897525 0.8119537670728905
12657404000.0 -0.5767375637893858 0.8169294844196326 2.4798330320279576e-17 -7.4947659196162e-17 2.4798330320279576e-17 -7.4947659196162e-17 -0.5767380800876905 0.8169291199220454
12658021333.333334 -0.5697114867911509 0.8218447674701466 2.4143392929497796e-17 -7.514501965838263e-17 2.4143392929497796e-17 -7.514501965838263e-17 -0.5697120061705755 0.8218444074305924
12658638666.666666 -0.5626435213216918 0.8266996237537364 2.348689864347247e-17 -7.533666210272799e-17 2.348689864347247e-17 -7.533666210272799e-17 -0.5626440437437495 0.8266992681982513
12659256000.0 -0.5555341870585428 0.831493696313476 2.282889733917209e-17 -7.552257437748343e-17 2.282889733917209e-17 -7.552257437748343e-17 -0.5555347124845272 0.8314933452677636
12659873333.333334 -0.548384006721002 0.8362266326615425 2.2169438987177053e-17 -7.570274476561208e-17 2.2169438987177053e-17 -7.570274476561208e-17 -0.5483845351119904 0.8362262861509734
12660490666.666666 -0.5411935060316073 0.8408980848052032 2.1508573647907916e-17 -7.587716198546119e-17 2.1508573647907916e-17 -7.587716198546119e-17 -0.5411940373484614 0.8408977428548104
12661108000.0 -0.533963213677385 0.8455077092724596 2.0846351467804906e-17 -7.604581519144651e-17 2.0846351467804906e-17 -7.604581519144651e-17 -0.5339637478807557 0.8455073719069393
12661725333.333334 -0.5266936612712159 0.8500551671371479 2.018282267556744e-17 -7.620869397468653e-17 2.018282267556744e-17 -7.620869397468653e-17 -0.5266941983215462 0.850054834380857
12662342666.666666 -0.5193853833125098 0.8545401240440139 1.9518037578321944e-17 -7.636578836362175e-17 1.9518037578321944e-17 -7.636578836362175e-17 -0.5193859231700375 0.8545397959209686
12662960000.0 -0.512038917148052 0.8589622502332062 1.885204655784127e-17 -7.651708882458527e-17 1.885204655784127e-17 -7.651708882458527e-17 -0.512039459772811 0.8589619267670779
12663577333.333334 -0.5046548029323683 0.8633212205645915 1.8184900066725688e-17 -7.666258626235033e-17 1.8184900066725688e-17 -7.666258626235033e-17 -0.5046553482841938 0.8633209017787081
12664194666.666666 -0.49723358358815956 0.8676167145415763 1.7516648624592882e-17 -7.6802272020641e-17 1.7516648624592882e-17 -7.6802272020641e-17 -0.497234131626691 0.8676164004589205
12664812000.0 -0.48977580476628546 0.8718484163347316 1.684734281426446e-17 -7.693613788260976e-17 1.684734281426446e-17 -7.693613788260976e-17 -0.48977635545096726 0.8718481069779358
12665429333.333334 -0.48228201480566774 0.8760160148049968 1.6177033277936035e-17 -7.706417607128477e-17 1.6177033277936035e-17 -7.706417607128477e-17 -0.4822825680957545 0.8760157101963452
12666046666.666666 -0.47475276469299865 0.8801192035265435 1.5505770713379457e-17 -7.718637924997678e-17 1.5505770713379457e-17 -7.718637924997678e-17 -0.4747533205475572 0.8801189036879683
12666664000.0 -0.46718860802210466 0.8841576808093735 1.483360587008529e-17 -7.730274052266409e-17 1.483360587008529e-17 -7.730274052266409e-17 -0.46718916640001784 0.8841573857624555
12667281333.333334 -0.4595901009534941 0.8881311497213688 1.4160589545471067e-17 -7.741325343433179e-17 1.4160589545471067e-17 -7.741325343433179e-17 -0.45959066181346203 0.8881308594873318
12667898666.666666 -0.4519578021732372 0.892039318110239 1.3486772581021377e-17 -7.751791197128929e-17 1.3486772581021377e-17 -7.751791197128929e-17 -0.45195836547378276 0.8920390327099538
12668516000.0 -0.44429227285191525 0.8958818986249933 1.2812205858470187e-17 -7.761671056144693e-17 1.2812205858470187e-17 -7.761671056144693e-17 -0.4442928385513852 0.8958816180789712
12669133333.333334 -0.4365940766034849 0.8996586087369991 1.2136940295979466e-17 -7.770964407455996e-17 1.2136940295979466e-17 -7.770964407455996e-17 -0.4365946446600543 0.8996583330653941
12669750666.666666 -0.4288637794437386 0.9033691707608109 1.1461026844287974e-17 -7.779670782244457e-17 1.1461026844287974e-17 -7.779670782244457e-17 -0.4288643498154128 0.9033688999834156
12670368000.0 -0.4211019497486851 0.9070133118745825 1.0784516482876526e-17 -7.78778975591562e-17 1.0784516482876526e-17 -7.78778975591562e-17 -0.42110252239330365 0.9070130460108281
