! Parameters = {f0=12700.012000; bw=77.238000; Q=6100.000000; N=10; m_0_1=1.307603; m_1_1=0.849293; m_1_2=1.142415; m_2_2=0.848644; m_2_3=0.779378; m_2_8=0.002444; m_2_9=0.039148; m_3_3=0.846707; m_3_4=0.667907; m_3_7=0.003044; m_3_8=-0.094044; m_3_9=0.002444; m_4_4=0.843782; m_4_5=0.504242; m_4_6=0.006561; m_4_7=-0.114593; m_4_8=0.003044; m_5_5=0.844164; m_5_6=0.911597; m_5_7=0.006561; m_6_6=0.844163; m_6_7=0.504584; m_7_7=0.843796; m_7_8=0.668025; m_8_8=0.846705; m_8_9=0.779691; m_9_9=0.848639; m_9_10=1.143493; m_10_10=0.849283; m_10_11=1.308398}
!
! Created with skrf (http://scikit-rf.org).
# Hz S RI R 50.0 
!freq ReS11 ImS11 ReS21 ImS21 ReS12 ImS12 ReS22 ImS22
12607400000.0 -0.9991977516620767 -0.040048134454215706 1.2760763425614418e-16 -3.2305100276914696e-17 1.2760763425614418e-16 -3.2305100276914696e-17 -0.9991977240745912 -0.0400488227538577
12608017333.333334 -0.9995960576795118 -0.028420441083681424 1.271952416767471e-16 -3.379220624798042e-17 1.271952416767471e-16 -3.379220624798042e-17 -0.9995960381027473 -0.028421129623989832
12608634666.666666 -0.9998590564744979 -0.01678890067096301 1.267655294696514e-16 -3.5274085664570196e-17 1.267655294696514e-16 -3.5274085664570196e-17 -0.9998590449103206 -0.01678958935871673
12609252000.0 -0.9999867124471147 -0.00515508768345262 1.2631856346636692e-16 -3.675053693924735e-17 1.2631856346636692e-16 -3.675053693924735e-17 -0.9999867088963049 -0.00515577642541969
12609869333.333334 -0.9999790083177018 0.006479423103867859 1.2585441184323827e-16 -3.822135930934162e-17 1.2585441184323827e-16 -3.822135930934162e-17 -0.9999790127799558 0.006478734400917603
12610486666.666666 -0.9998359451291996 0.01811305682136392 1.253731451111745e-16 -3.968635286415998e-17 1.253731451111745e-16 -3.968635286415998e-17 -0.9998359576031288 0.018112368250646226
12611104000.0 -0.9995575422470054 0.029744238718437323 1.2487483610502875e-16 -4.11453185721807e-17 1.2487483610502875e-16 -4.11453185721807e-17 -0.9995575627301376 0.029743550373140932
12611721333.333334 -0.99914383735636 0.04137139437606213 1.243595599727014e-16 -4.259805830799091e-17 1.243595599727014e-16 -4.259805830799091e-17 -0.9991438658451393 0.04137070634933618
12612338666.666666 -0.9985948864572404 0.05299294992038432 1.238273941639032e-16 -4.404437487917498e-17 1.238273941639032e-16 -4.404437487917498e-17 -0.9985949229470255 0.0529922623053256
12612956000.0 -0.9979107638567696 0.06460733223567854 1.2327841841860626e-16 -4.548407205306002e-17 1.2327841841860626e-16 -4.548407205306002e-17 -0.9979108083418395 0.06460664512531916
12613573333.333334 -0.9970915621591865 0.07621296917694799 1.2271271475520865e-16 -4.691695458325616e-17 1.2271271475520865e-16 -4.691695458325616e-17 -0.9970916146327368 0.0762122826642425
12614190666.666666 -0.9961373922532774 0.0878082897832149 1.2213036745836553e-16 -4.834282823611743e-17 1.2213036745836553e-16 -4.834282823611743e-17 -0.9961374527074242 0.08780760396102796
12614808000.0 -0.9950483832973938 0.0993917244898005 1.2153146306652227e-16 -4.976149981703225e-17 1.2153146306652227e-16 -4.976149981703225e-17 -0.9950484517231728 0.0993910394508942
12615425333.333334 -0.993824682701945 0.11096170534103895 1.2091609035914615e-16 -5.117277719655037e-17 1.2091609035914615e-16 -5.117277719655037e-17 -0.9938247590893149 0.11096102117806028
12616042666.666666 -0.992466456109469 0.12251666620229254 1.202843403436574e-16 -5.257646933634997e-17 1.202843403436574e-16 -5.257646933634997e-17 -0.9924665404473112 0.12251598300776084
12616660000.0 -0.9909738873721899 0.13405504297214466 1.196363062420447e-16 -5.397238631507914e-17 1.196363062420447e-16 -5.397238631507914e-17 -0.9909739796483107 0.13405436083843916
12617277333.333334 -0.9893471785271324 0.1455752737940625 1.1897208347720175e-16 -5.536033935398558e-17 1.1897208347720175e-16 -5.536033935398558e-17 -0.9893472787282652 0.14557459281340981
12617894666.666666 -0.9875865497688098 0.15707579926758808 1.1829176965895529e-16 -5.674014084241079e-17 1.1829176965895529e-16 -5.674014084241079e-17 -0.9875866578806162 0.1570751195320497
12618512000.0 -0.9856922394193441 0.16855506265992817 1.175954645697856e-16 -5.811160436313285e-17 1.175954645697856e-16 -5.811160436313285e-17 -0.9856923554264168 0.16855438426138808
12619129333.333334 -0.9836645038962986 0.18001151011605784 1.1688327015029688e-16 -5.947454471745237e-17 1.1688327015029688e-16 -5.947454471745237e-17 -0.9836646277821629 0.18001083314621003
12619746666.666666 -0.9815036176778936 0.1914435908695309 1.161552904843421e-16 -6.082877795021133e-17 1.161552904843421e-16 -6.082877795021133e-17 -0.9815037494250111 0.19144291541986724
12620364000.0 -0.979209873265866 0.2028497574523101 1.1541163178388986e-16 -6.217412137456758e-17 1.1541163178388986e-16 -6.217412137456758e-17 -0.9792100128556336 0.20284908361410725
12620981333.333334 -0.976783581145934 0.21422846590389946 1.1465240237362205e-16 -6.351039359655643e-17 1.1465240237362205e-16 -6.351039359655643e-17 -0.9767837285586916 0.2142277937682076
12621598666.666666 -0.9742250697456839 0.22557817598081312 1.1387771267519586e-16 -6.483741453956022e-17 1.1387771267519586e-16 -6.483741453956022e-17 -0.974225224960713 0.22557750563844287
12622216000.0 -0.9715346853901835 0.2368973513647031 1.1308767519127706e-16 -6.615500546848882e-17 1.1308767519127706e-16 -6.615500546848882e-17 -0.9715348483857111 0.2368966829062133
12622833333.333334 -0.9687127922550388 0.24818445987059498 1.1228240448925216e-16 -6.746298901384148e-17 1.1228240448925216e-16 -6.746298901384148e-17 -0.9687129630082428 0.24818379338628097
12623450666.666666 -0.9657597723171851 0.2594379736539573 1.1146201718470477e-16 -6.87611891955011e-17 1.1146201718470477e-16 -6.87611891955011e-17 -0.965759950804194 0.25943730923383806
12624068000.0 -0.962676025303095 0.2706563694178437 1.106266319245709e-16 -7.004943144640466e-17 1.106266319245709e-16 -7.004943144640466e-17 -0.9626762114989927 0.27065570715165
12624685333.333334 -0.9594619686346798 0.28183812861903246 1.0977636937004799e-16 -7.132754263596533e-17 1.0977636937004799e-16 -7.132754263596533e-17 -0.9594621625135106 0.2818374685961951
12625302666.666666 -0.9561180373728916 0.29298173767322533 1.0891135217925822e-16 -7.259535109325494e-17 1.0891135217925822e-16 -7.259535109325494e-17 -0.9561182389076621 0.2929810799828626
12625920000.0 -0.9526446841586584 0.3040856881605298 1.0803170498957125e-16 -7.385268663008482e-17 1.0803170498957125e-16 -7.385268663008482e-17 -0.9526448933213405 0.30408503289143524
12626537333.333334 -0.9490423791517806 0.31514847702906823 1.0713755439975384e-16 -7.509938056373832e-17 1.0713755439975384e-16 -7.509938056373832e-17 -0.9490425959133174 0.3151478242696995
12627154666.666666 -0.945311609967221 0.3261686067986809 1.0622902895178399e-16 -7.633526573959558e-17 1.0622902895178399e-16 -7.633526573959558e-17 -0.9453118342975305 0.32616795663714715
12627772000.0 -0.941452881609027 0.337144585763843 1.0530625911242462e-16 -7.756017655350754e-17 1.0530625911242462e-16 -7.756017655350754e-17 -0.9414531134770033 0.3371439382878925
12628389333.333334 -0.9374667164021204 0.34807492819512403 1.04369377254586e-16 -7.877394897388971e-17 1.04369377254586e-16 -7.877394897388971e-17 -0.9374669557756431 0.34807428349213393
12629006666.666666 -0.9333536539214411 0.3589581545407584 1.0341851763834809e-16 -7.99764205637038e-17 1.0341851763834809e-16 -7.99764205637038e-17 -0.9333539007673768 0.35895751269772175
12629624000.0 -0.9291142509190561 0.3697927916265189 1.0245381639180992e-16 -8.116743050210818e-17 1.0245381639180992e-16 -8.116743050210818e-17 -0.9291145052032618 0.36979215273003285
12630241333.333334 -0.9247490812486594 0.3805773728554725 1.0147541149165163e-16 -8.234681960592815e-17 1.0147541149165163e-16 -8.234681960592815e-17 -0.924749342935989 0.38057673699172695
12630858666.666666 -0.9202587357880462 0.3913104384061335 1.0048344274345697e-16 -8.351443035088418e-17 1.0048344274345697e-16 -8.351443035088418e-17 -0.9202590048423555 0.3913098056608995
12631476000.0 -0.9156438223589242 0.40199053543056645 9.947805176177294e-17 -8.467010689260624e-17 9.947805176177294e-17 -8.467010689260624e-17 -0.915644098743075 0.40198990588918465
12632093333.333334 -0.910904965644865 0.4126162182504956 9.845938194998377e-17 -8.581369508734424e-17 9.845938194998377e-17 -8.581369508734424e-17 -0.910905249320732 0.412615591997865
12632710666.666666 -0.9060428071065981 0.42318604855336295 9.742757847989256e-17 -8.694504251250229e-17 9.742757847989256e-17 -8.694504251250229e-17 -0.9060430980350713 0.4231854256739286
12633328000.0 -0.9010580048952063 0.43369859558693963 9.638278827106888e-17 -8.806399848692427e-17 9.638278827106888e-17 -8.806399848692427e-17 -0.9010583030361978 0.4336979761646818
12633945333.333334 -0.895951233763064 0.44415243635294477 9.532515997001199e-17 -8.917041409088062e-17 9.532515997001199e-17 -8.917041409088062e-17 -0.8959515390755148 0.444151820471368
12634562666.666666 -0.8907231849724768 0.45454615579971636 9.42548439290378e-17 -9.026414218585726e-17 9.42548439290378e-17 -9.026414218585726e-17 -0.8907234974143602 0.4545455435418373
12635180000.0 -0.885374566202162 0.4648783470136537 9.317199218496946e-17 -9.134503743405953e-17 9.317199218496946e-17 -9.134503743405953e-17 -0.8853748857304905 0.4648777384619906
12635797333.333334 -0.8799061014513511 0.47514761140986206 9.207675843757259e-17 -9.241295631769625e-17 9.207675843757259e-17 -9.241295631769625e-17 -0.8799064280221831 0.47514700664642373
12636414666.666666 -0.8743185309419494 0.48535255892116685 9.096929802782131e-17 -9.346775715795298e-17 9.096929802782131e-17 -9.346775715795298e-17 -0.8743188645103929 0.4853519580274407
12637032000.0 -0.8686126110181471 0.4954918081866252 8.984976791588009e-17 -9.450930013377356e-17 8.984976791588009e-17 -9.450930013377356e-17 -0.8686129515383686 0.4954912112435675
12637649333.333334 -0.8627891140442029 0.5055639867382103 8.871832665893957e-17 -9.55374473003114e-17 8.871832665893957e-17 -9.55374473003114e-17 -0.8627894614694323 0.5055633938262347
12638266666.666666 -0.8568488282997868 0.5155677311867916 8.757513438878923e-17 -9.655206260716753e-17 8.757513438878923e-17 -9.655206260716753e-17 -0.8568491825823241 0.5155671423857581
12638884000.0 -0.8507925578733168 0.5255016874066085 8.642035278921175e-17 -9.75530119163333e-17 8.642035278921175e-17 -9.75530119163333e-17 -0.8507929189645375 0.5255011027958129
12639501333.333334 -0.8446211225531443 0.5353645107185208 8.525414507317003e-17 -9.85401630198655e-17 8.525414507317003e-17 -9.85401630198655e-17 -0.844621490403508 0.5353639303766836
12640118666.666666 -0.8383353577165903 0.5451548660720275 8.407667595978887e-17 -9.951338565729586e-17 8.407667595978887e-17 -9.951338565729586e-17 -0.8383357322756471 0.545154290077285
12640736000.0 -0.8319361142166669 0.5548714282262932 8.288811165109998e-17 -1.0047255153279508e-16 8.288811165109998e-17 -1.0047255153279508e-16 -0.8319364954330626 0.5548708566561843
12641353333.333334 -0.8254242582673034 0.5645128819289128 8.168861980870801e-17 -1.0141753433196742e-16 8.168861980870801e-17 -1.0141753433196742e-16 -0.8254246460887875 0.5645123148603701
12641970666.666666 -0.8188006713257376 0.5740779220944956 8.047836953010676e-17 -1.0234820973849492e-16 8.047836953010676e-17 -1.0234820973849492e-16 -0.818801065699173 0.5740773596038361
12642588000.0 -0.8120662499733294 0.5835652539811359 7.925753132494016e-17 -1.0326445545039354e-16 7.925753132494016e-17 -1.0326445545039354e-16 -0.8120666508446942 0.5835646961440478
12643205333.333334 -0.8052219057942049 0.5929735933656433 7.802627709100337e-17 -1.0416615119604662e-16 7.802627709100337e-17 -1.0416615119604662e-16 -0.8052223131086048 0.5929730402571783
12643822666.666666 -0.7982685652518526 0.6023016667174037 7.678478009008209e-17 -1.0505317874993615e-16 7.678478009008209e-17 -1.0505317874993615e-16 -0.7982689789535272 0.6023011184119672
12644440000.0 -0.7912071695636813 0.6115482113708143 7.553321492364193e-17 -1.0592542194806823e-16 7.553321492364193e-17 -1.0592542194806823e-16 -0.7912075895960099 0.611547667942153
12645057333.333334 -0.7840386745737328 0.6207119756960379 7.427175750829463e-17 -1.0678276670314363e-16 7.427175750829463e-17 -1.0678276670314363e-16 -0.7840391008792434 0.6207114372172313
12645674666.666666 -0.7767640506231799 0.6297917192685881 7.300058505114205e-17 -1.0762510101940345e-16 7.300058505114205e-17 -1.0762510101940345e-16 -0.7767644831435581 0.6297911858120394
12646292000.0 -0.7693842824189043 0.6387862130373207 7.17198760248816e-17 -1.084523150072287e-16 7.17198760248816e-17 -1.084523150072287e-16 -0.7693847210949991 0.6387856846747456
12646909333.333334 -0.7619003689004916 0.6476942394904477 7.042981014285878e-17 -1.0926430089737171e-16 7.042981014285878e-17 -1.0926430089737171e-16 -0.7619008136723247 0.6476937162928653
12647526666.666666 -0.7543133231047064 0.6565145928207152 6.913056833384149e-17 -1.1006095305496794e-16 6.913056833384149e-17 -1.1006095305496794e-16 -0.7543137739114811 0.6565140748584396
12648144000.0 -0.7466241720285292 0.6652460790884278 6.782233271670534e-17 -1.1084216799320418e-16 6.782233271670534e-17 -1.1084216799320418e-16 -0.7466246288086377 0.6652455664310571
12648761333.333334 -0.7388339564900671 0.6738875163831487 6.650528657495607e-17 -1.1160784438669286e-16 6.650528657495607e-17 -1.1160784438669286e-16 -0.738834419181098 0.6738870090995551
12649378666.666666 -0.7309437309878146 0.682437734983513 6.517961433110882e-17 -1.1235788308454118e-16 6.517961433110882e-17 -1.1235788308454118e-16 -0.7309441995265639 0.6824372331418361
12649996000.0 -0.7229545635576922 0.6908955775158216 6.38455015208697e-17 -1.1309218712314574e-16 6.38455015208697e-17 -1.1309218712314574e-16 -0.7229550378801698 0.6908950811834577
12650613333.333334 -0.7148675356285829 0.6992598991105747 6.250313476724757e-17 -1.1381066173863869e-16 6.250313476724757e-17 -1.1381066173863869e-16 -0.7148680156700221 0.6992594083541666
12651230666.666666 -0.7066837418760897 0.7075295675573013 6.115270175448271e-17 -1.1451321437905408e-16 6.115270175448271e-17 -1.1451321437905408e-16 -0.7066842275709568 0.7075290824427318
12651848000.0 -0.6984042900740218 0.715703463458166 5.979439120182564e-17 -1.1519975471619028e-16 5.979439120182564e-17 -1.1519975471619028e-16 -0.6984047813560239 0.7157029840505477
12652465333.333334 -0.6900303009447821 0.7237804803791462 5.842839283724675e-17 -1.1587019465713133e-16 5.842839283724675e-17 -1.1587019465713133e-16 -0.6900307977468757 0.7237800067428117
12653082666.666666 -0.6815629080075232 0.7317595249999425 5.705489737095529e-17 -1.1652444835548842e-16 5.705489737095529e-17 -1.1652444835548842e-16 -0.6815634102619257 0.7317590571984389
12653700000.0 -0.6730032574245707 0.739639517262112 5.567409646880985e-17 -1.1716243222231943e-16 5.567409646880985e-17 -1.1716243222231943e-16 -0.6730037650627668 0.7396390553581889
12654317333.333334 -0.6643525078466255 0.7474193905149333 5.4286182725634976e-17 -1.1778406493672245e-16 5.4286182725634976e-17 -1.1778406493672245e-16 -0.6643530207993782 0.7474189345705362
12654934666.666666 -0.6556118302555725 0.7550980916601191 5.2891349638393444e-17 -1.1838926745612498e-16 5.2891349638393444e-17 -1.1838926745612498e-16 -0.6556123484529328 0.7550976417363813
12655552000.0 -0.6467824078061432 0.7626745812942125 5.148979157922869e-17 -1.1897796302626463e-16 5.148979157922869e-17 -1.1897796302626463e-16 -0.6467829311774591 0.7626741374514465
12656169333.333334 -0.6378654356657835 0.7701478338492651 5.008170376846135e-17 -1.1955007719082293e-16 5.008170376846135e-17 -1.1955007719082293e-16 -0.6378659641397091 0.7701473961469545
12656786666.666666 -0.6288621208528292 0.7775168377316962 4.8667282247415496e-17 -1.2010553780076723e-16 4.8667282247415496e-17 -1.2010553780076723e-16 -0.6288626543573348 0.7775164062284866
12657404000.0 -0.6197736820730796 0.7847805954592604 4.724672385116353e-17 -1.2064427502336455e-16 4.724672385116353e-17 -1.2064427502336455e-16 -0.6197742205354625 0.7847801702129545
12658021333.333334 -0.6106013495548516 0.7919381237960509 4.5820226181178666e-17 -1.211662213508689e-16 4.5820226181178666e-17 -1.211662213508689e-16 -0.6106018929017438 0.7919377048635969
12658638666.666666 -0.6013463648826313 0.7989884538854485 4.4387987577917706e-17 -1.216713116088788e-16 4.4387987577917706e-17 -1.216713116088788e-16 -0.6013469130400123 0.7989880413229363
12659256000.0 -0.5920099808286333 0.8059306313815705 4.2950207093229895e-17 -1.2215948296440108e-16 4.2950207093229895e-17 -1.2215948296440108e-16 -0.5920105337218372 0.8059302252442202
12659873333.333334 -0.5825934611836 0.8127637165781499 4.150708446277543e-17 -1.2263067493355376e-16 4.150708446277543e-17 -1.2263067493355376e-16 -0.5825940187373289 0.8127633169203091
12660490666.666666 -0.5730980805855822 0.819486784535867 4.005882007833027e-17 -1.2308482938895679e-16 4.005882007833027e-17 -1.2308482938895679e-16 -0.5730986427239138 0.8194863914109999
12661108000.0 -0.5635251243472339 0.8260989252076588 3.8605614959941065e-17 -1.2352189056681674e-16 3.8605614959941065e-17 -1.2352189056681674e-16 -0.5635256909936318 0.8260985386683384
12661725333.333334 -0.5538758882822248 0.8325992435616263 3.714767072814181e-17 -1.2394180507364223e-16 3.714767072814181e-17 -1.2394180507364223e-16 -0.5538764593595509 0.832598863659531
12662342666.666666 -0.5441516785294183 0.838986859702482 3.5685189575954437e-17 -1.243445218926747e-16 3.5685189575954437e-17 -1.243445218926747e-16 -0.5441522539599428 0.838986486488387
12662960000.0 -0.5343538113763757 0.8452609089904465 3.42183742409346e-17 -1.2472999238995662e-16 3.42183742409346e-17 -1.2472999238995662e-16 -0.5343543910817866 0.845260542514216
12663577333.333334 -0.5244836130809661 0.8514205421584273 3.2747427977079394e-17 -1.250981703200922e-16 3.2747427977079394e-17 -1.250981703200922e-16 -0.5244841969823806 0.8514201824690095
12664194666.666666 -0.5145424196920341 0.857464925426855 3.127255452671382e-17 -1.2544901183166519e-16 3.127255452671382e-17 -1.2544901183166519e-16 -0.5145430077100088 0.8574645725722738
12664812000.0 -0.5045315768683796 0.8633932406166501 2.9793958092321426e-17 -1.2578247547232785e-16 2.9793958092321426e-17 -1.2578247547232785e-16 -0.5045321689229223 0.8633928946440006
12665429333.333334 -0.494452439696657 0.869204685259944 2.831184330828353e-17 -1.2609852219356727e-16 2.831184330828353e-17 -1.2609852219356727e-16 -0.49445303570723603 0.8692043462153838
12666046666.666666 -0.4843063725081425 0.8748984727085873 2.682641521264487e-17 -1.2639711535512134e-16 2.682641521264487e-17 -1.2639711535512134e-16 -0.48430697239369946 0.8748981406373333
12666664000.0 -0.47409474869361345 0.880473832240887 2.5337879218724084e-17 -1.2667822072908822e-16 2.5337879218724084e-17 -1.2667822072908822e-16 -0.4740953523725729 0.880473507187207
12667281333.333334 -0.463818950517988 0.8859300091656263 2.3846441086809132e-17 -1.2694180650367488e-16 2.3846441086809132e-17 -1.2694180650367488e-16 -0.46381955790826884 0.8859296911728338
12667898666.666666 -0.4534803689327963 0.8912662649244556 2.2352306895729973e-17 -1.2718784328663124e-16 2.2352306895729973e-17 -1.2718784328663124e-16 -0.45348097995182357 0.8912659540349046
12668516000.0 -0.4430804033879714 0.8964818771918187 2.085568301440192e-17 -1.2741630410834799e-16 2.085568301440192e-17 -1.2741630410834799e-16 -0.4430810179526867 0.8964815734468974
12669133333.333334 -0.4326204616427226 0.9015761399725779 1.935677607340547e-17 -1.276271644246107e-16 1.935677607340547e-17 -1.276271644246107e-16 -0.4326210796695958 0.9015758434127036
12669750666.666666 -0.42210195957454555 0.9065483636977925 1.7855792936472402e-17 -1.2782040211902996e-16 1.7855792936472402e-17 -1.2782040211902996e-16 -0.4221025809795859 0.9065480743624057
12670368000.0 -0.41152632098787256 0.9113978753179104 1.6352940671965516e-17 -1.279959975051356e-16 1.6352940671965516e-17 -1.279959975051356e-16 -0.4115269456866413 0.9113975932454719
