! Parameters = {f0=12700.012000; bw=77.238000; Q=6100.000000; N=10; m_0_1=1.270766; m_1_1=0.296741; m_1_2=1.105578; m_2_2=0.296092; m_2_3=0.742541; m_2_8=0.000602; m_2_9=0.037306; m_3_3=0.294155; m_3_4=0.631070; m_3_7=0.001202; m_3_8=-0.095886; m_3_9=0.000602; m_4_4=0.291230; m_4_5=0.467405; m_4_6=0.004719; m_4_7=-0.116435; m_4_8=0.001202; m_5_5=0.291612; m_5_6=0.874760; m_5_7=0.004719; m_6_6=0.291611; m_6_7=0.467747; m_7_7=0.291244; m_7_8=0.631188; m_8_8=0.294153; m_8_9=0.742854; m_9_9=0.296087; m_9_10=1.106656; m_10_10=0.296731; m_10_11=1.271561}
!
! Created with skrf (http://scikit-rf.org).
# Hz S RI R 50.0 
!freq ReS11 ImS11 ReS21 ImS21 ReS12 ImS12 ReS22 ImS22
12607400000.0 0.9543260828333032 0.2987670122752288 -1.1098934997376615e-16 -1.7084087318935018e-18 -1.1098934997376615e-16 -1.7084087318935018e-18 0.9543258828045196 0.2987676512094269
12608017333.333334 0.9574236328867978 0.28868665918200803 -1.1097950423113531e-16 -5.27939934967175e-19 -1.1097950423113531e-16 -5.27939934967175e-19 0.95742343961641 0.2886873001586757
12608634666.666666 0.9604147094516425 0.2785742017286262 -1.1095711130469741e-16 6.521262822775989e-19 -1.1095711130469741e-16 6.521262822775989e-19 0.9604145229604801 0.2785748446762847
12609252000.0 0.9632989798952775 0.26843076450463166 -1.1092217864034384e-16 1.8316566425166493e-18 -1.1092217864034384e-16 1.8316566425166493e-18 0.9632988002034166 0.2684314093515909
12609869333.333334 0.9660761234628842 0.2582574755447539 -1.1087471509872945e-16 3.0105179812147612e-18 -1.1087471509872945e-16 3.0105179812147612e-18 0.9660759505896408 0.2582581222191188
12610486666.666666 0.9687458313129925 0.24805546620367416 -1.108147309537176e-16 4.18857726160865e-18 -1.108147309537176e-16 4.18857726160865e-18 0.9687456652769229 0.24805611463335372
12611104000.0 0.9713078065519607 0.23782587102971617 -1.107422378906645e-16 5.365701589720049e-18 -1.107422378906645e-16 5.365701589720049e-18 0.9713076473708583 0.23782652114243105
12611721333.333334 0.9737617642668316 0.22756982763927897 -1.1065724900454682e-16 6.54175822929638e-18 -1.1065724900454682e-16 6.54175822929638e-18 0.9737616119577281 0.2275704793625704
12612338666.666666 0.9761074315571426 0.217288476589858 -1.1055977879792862e-16 7.716614616774996e-18 -1.1055977879792862e-16 7.716614616774996e-18 0.9761072861363023 0.21728912985109466
12612956000.0 0.978344547565245 0.2069829612532858 -1.1044984317877074e-16 8.890138376190513e-18 -1.1044984317877074e-16 8.890138376190513e-18 0.9783444090481647 0.2069836159796727
12613573333.333334 0.9804728635052427 0.19665442768891372 -1.103274594580837e-16 1.0062197334058355e-17 -1.103274594580837e-16 1.0062197334058355e-17 0.9804727319066495 0.1966550838074998
12614190666.666666 0.9824921426907604 0.18630402451568767 -1.1019264634742081e-16 1.1232659534242082e-17 -1.1019264634742081e-16 1.1232659534242082e-17 0.9824920180246123 0.18630468195337457
12614808000.0 0.9844021605611933 0.17593290278477489 -1.1004542395621427e-16 1.2401393252790355e-17 -1.1004542395621427e-16 1.2401393252790355e-17 0.9844020428406753 0.17593356146832453
12615425333.333334 0.9862027047067218 0.16554221585133352 -1.0988581378895542e-16 1.3568267012729283e-17 -1.0988581378895542e-16 1.3568267012729283e-17 0.986202593944244 0.16554287570737639
12616042666.666666 0.9878935748919141 0.15513311924633363 -1.0971383874221892e-16 1.4733149598817987e-17 -1.0971383874221892e-16 1.4733149598817987e-17 0.987893471099113 0.15513378020137705
12616660000.0 0.9894745830779847 0.144706770548137 -1.095295231015276e-16 1.5895910072296923e-17 -1.095295231015276e-16 1.5895910072296923e-17 0.9894744862657207 0.14470743252857338
12617277333.333334 0.9909455534437398 0.13426432925354015 -1.0933289253806429e-16 1.7056417785574172e-17 -1.0933289253806429e-16 1.7056417785574172e-17 0.9909454636220952 0.13426499218565496
12617894666.666666 0.9923063224050762 0.12380695664919406 -1.091239741052318e-16 1.8214542396854517e-17 -1.091239741052318e-16 1.8214542396854517e-17 0.9923062395833556 0.12380762045917423
12618512000.0 0.9935567386332442 0.11333581568195286 -1.0890279623504506e-16 1.9370153884805785e-17 -1.0890279623504506e-16 1.9370153884805785e-17 0.9935566628199729 0.11333648029589492
12619129333.333334 0.9946966630716119 0.10285207083002315 -1.0866938873438717e-16 2.052312256307786e-17 -1.0866938873438717e-16 2.052312256307786e-17 0.9946965942745338 0.10285273617394135
12619746666.666666 0.9957259689511554 0.0923568879732672 -1.0842378278109802e-16 2.1673319094852455e-17 -1.0842378278109802e-16 2.1673319094852455e-17 0.9957259071772355 0.09235755397310205
12620364000.0 0.9966445418045777 0.08185143426334945 -1.081660109199093e-16 2.282061450734757e-17 -1.081660109199093e-16 2.282061450734757e-17 0.9966444870599983 0.08185210084497567
12620981333.333334 0.9974522794789902 0.07133687799442037 -1.0789610705824184e-16 2.3964880206201352e-17 -1.0789610705824184e-16 2.3964880206201352e-17 0.9974522317691512 0.07133754508365524
12621598666.666666 0.9981490921473165 0.060814388472711166 -1.0761410646182874e-16 2.5105987989912033e-17 -1.0761410646182874e-16 2.5105987989912033e-17 0.9981490514768369 0.060815055995322866
12622216000.0 0.9987349023182664 0.05028513588672397 -1.0732004575020257e-16 2.6243810064150998e-17 -1.0732004575020257e-16 2.6243810064150998e-17 0.998734868690978 0.05028580376843953
12622833333.333334 0.9992096448449436 0.03975029117712497 -1.070139628920271e-16 2.7378219056045738e-17 -1.070139628920271e-16 2.7378219056045738e-17 0.9992096182638973 0.03975095934363891
12623450666.666666 0.9995732669321022 0.0292110259064415 -1.0669589720027713e-16 2.850908802841899e-17 -1.0669589720027713e-16 2.850908802841899e-17 0.9995732473995664 0.02921169428342398
12624068000.0 0.9998257281420182 0.01866851212885962 -1.0636588932726626e-16 2.9636290493972646e-17 -1.0636588932726626e-16 2.9636290493972646e-17 0.9998257156594751 0.01866918064196456
12624685333.333334 0.9999670003989849 0.008123922259654397 -1.0602398125952968e-16 3.075970042940327e-17 -1.0602398125952968e-16 3.075970042940327e-17 0.9999669949671313 0.008124590834527877
12625302666.666666 0.9999970679924273 -0.002421571054822913 -1.0567021631256012e-16 3.1879192289453897e-17 -1.0567021631256012e-16 3.1879192289453897e-17 0.9999970696111787 -0.002420902492534374
12625920000.0 0.9999159275786595 -0.012966795067893878 -1.0530463912538067e-16 3.2994641020954086e-17 -1.0530463912538067e-16 3.2994641020954086e-17 0.9999159362471473 -0.012966126592535116
12626537333.333334 0.9997235881812524 -0.023510577062773215 -1.0492729565499706e-16 3.410592207671198e-17 -1.0492729565499706e-16 3.410592207671198e-17 0.9997236038978234 -0.023509908748672138
12627154666.666666 0.9994200711900348 -0.03405174448292791 -1.0453823317067585e-16 3.521291142943391e-17 -1.0453823317067585e-16 3.521291142943391e-17 0.9994200939522507 -0.034051076404387176
12627772000.0 0.9990054103586986 -0.04458912506287285 -1.0413750024808874e-16 3.6315485585534124e-17 -1.0413750024808874e-16 3.6315485585534124e-17 0.9990054401633408 -0.04458845729416174
12628389333.333334 0.9984796518010722 -0.05512154695791179 -1.0372514676331922e-16 3.7413521598865e-17 -1.0372514676331922e-16 3.7413521598865e-17 0.998479688644138 -0.05512087957325785
12629006666.666666 0.9978428539859651 -0.06564783887508095 -1.0330122388670277e-16 3.850689708443542e-17 -1.0330122388670277e-16 3.850689708443542e-17 0.997842897862668 -0.0656471719486617
12629624000.0 0.9970950877306788 -0.07616683020300888 -1.0286578407655233e-16 3.959549023198425e-17 -1.0286578407655233e-16 3.959549023198425e-17 0.9970951386354532 -0.0761661638089437
12630241333.333334 0.9962364361931354 -0.08667735114218367 -1.0241888107271157e-16 4.067917981955962e-17 -1.0241888107271157e-16 4.067917981955962e-17 0.9962364941196327 -0.08667668535452543
12630858666.666666 0.9952669948626259 -0.09717823283504431 -1.0196056988998965e-16 4.175784522696517e-17 -1.0196056988998965e-16 4.175784522696517e-17 0.9952670598037185 -0.09717756772777128
12631476000.0 0.994186871549172 -0.10766830749619391 -1.0149090681143461e-16 4.2831366449182336e-17 -1.0149090681143461e-16 4.2831366449182336e-17 0.9941869434969525 -0.10766764314320144
12632093333.333334 0.9929961863715767 -0.11814640854181421 -1.010099493814828e-16 4.3899624109677496e-17 -1.010099493814828e-16 4.3899624109677496e-17 0.9929962653173596 -0.11814574501690657
12632710666.666666 0.9916950717440348 -0.12861137071976747 -1.0051775639896382e-16 4.49624994736443e-17 -1.0051775639896382e-16 4.49624994736443e-17 0.9916951576783578 -0.12861070809664965
12633328000.0 0.9902836723614122 -0.1390620302390972 -1.0001438790994872e-16 4.601987446120863e-17 -1.0001438790994872e-16 4.601987446120863e-17 0.9902837652740352 -0.13906136859136667
12633945333.333334 0.9887621451831601 -0.1494972248993947 -9.949990520048993e-17 4.7071631660485296e-17 -9.949990520048993e-17 4.7071631660485296e-17 0.9887622450630691 -0.1494965643005332
12634562666.666666 0.987130659415854 -0.15991579422010208 -9.89743707892072e-17 4.811765434059477e-17 -9.89743707892072e-17 4.811765434059477e-17 0.9871307662512616 -0.1599151347434677
12635180000.0 0.9853893964943937 -0.17031657956945465 -9.843784841973195e-17 4.915782646460572e-17 -9.843784841973195e-17 4.915782646460572e-17 0.9853895102727402 -0.1703159212882735
12635797333.333334 0.983538550061791 -0.18069842429355554 -9.789040305302575e-17 5.0192032702374506e-17 -9.789040305302575e-17 5.0192032702374506e-17 0.9835386707697449 -0.18069776728091347
12636414666.666666 0.98157832594769 -0.19106017384466828 -9.733210085957192e-17 5.122015844328603e-17 -9.733210085957192e-17 5.122015844328603e-17 0.9815784535711511 -0.1910595181735031
12637032000.0 0.9795089421454146 -0.20140067590997657 -9.676300921140591e-17 5.224208980896095e-17 -9.676300921140591e-17 5.224208980896095e-17 0.9795090766695158 -0.2014000216530699
12637649333.333334 0.9773306287877592 -0.21171878053953475 -9.618319667404008e-17 5.325771366582237e-17 -9.618319667404008e-17 5.325771366582237e-17 0.9773307701968668 -0.21171812776950352
12638266666.666666 0.9750436281214107 -0.22201334027409664 -9.559273299825057e-17 5.426691763758775e-17 -9.559273299825057e-17 5.426691763758775e-17 0.9750437763991261 -0.22201268906338545
12638884000.0 0.9726481944799629 -0.23228321027291657 -9.499168911172033e-17 5.5269590117691745e-17 -9.499168911172033e-17 5.5269590117691745e-17 0.9726483496091276 -0.2322825606937899
12639501333.333334 0.9701445942556829 -0.2425272484408723 -9.438013711056516e-17 5.626562028159572e-17 -9.438013711056516e-17 5.626562028159572e-17 0.970144756218376 -0.24252660056540568
12640118666.666666 0.9675331058698745 -0.25274431555550236 -9.375815025074208e-17 5.725489809898517e-17 -9.375815025074208e-17 5.725489809898517e-17 0.9675332746474178 -0.252743669455575
12640736000.0 0.9648140197418252 -0.262933275394055 -9.31258029392782e-17 5.823731434595809e-17 -9.31258029392782e-17 5.823731434595809e-17 0.9648141953147845 -0.2629326311413416
12641353333.333334 0.9619876382567039 -0.2730929948591033 -9.248317072546331e-17 5.921276061697149e-17 -9.248317072546331e-17 5.921276061697149e-17 0.9619878206048914 -0.2730923525250664
12641970666.666666 0.9590542757317283 -0.28322234410532493 -9.183033029181712e-17 6.018112933684924e-17 -9.183033029181712e-17 6.018112933684924e-17 0.9590544648342052 -0.2832217037612065
12642588000.0 0.9560142583813451 -0.2933201966646553 -9.11673594450006e-17 6.114231377258343e-17 -9.11673594450006e-17 6.114231377258343e-17 0.9560144542164225 -0.2933195583814691
12643205333.333334 0.9528679242808898 -0.3033854295717805 -9.049433710658529e-17 6.209620804506484e-17 -9.049433710658529e-17 6.209620804506484e-17 0.9528681268261329 -0.3033847934203042
12643822666.666666 0.9496156233289796 -0.31341692348904576 -8.981134330367966e-17 6.304270714074367e-17 -8.981134330367966e-17 6.304270714074367e-17 0.94961583256121 -0.31341628953981326
12644440000.0 0.9462577172086708 -0.323413562830719 -8.911845915946517e-17 6.398170692314074e-17 -8.911845915946517e-17 6.398170692314074e-17 0.9462579331039683 -0.32341293115401226
12645057333.333334 0.9427945793471677 -0.3333742358872697 -8.841576688360245e-17 6.491310414427174e-17 -8.841576688360245e-17 6.491310414427174e-17 0.9427948018808736 -0.33337360655311127
12645674666.666666 0.9392265948743685 -0.34329783494878596 -8.770334976250153e-17 6.583679645598837e-17 -8.770334976250153e-17 6.583679645598837e-17 0.9392268240210875 -0.3432972080269304
12646292000.0 0.9355541605798997 -0.35318325642853404 -8.698129214948834e-17 6.675268242119324e-17 -8.698129214948834e-17 6.675268242119324e-17 0.9355543963135051 -0.3531826319884617
12646909333.333334 0.9317776848691468 -0.3630294009852604 -8.624967945486502e-17 6.766066152493565e-17 -8.624967945486502e-17 6.766066152493565e-17 0.9317779271627813 -0.3630287790961686
12647526666.666666 0.927897587717769 -0.37283517364563434 -8.550859813582924e-17 6.856063418543046e-17 -8.550859813582924e-17 6.856063418543046e-17 0.9278978365438477 -0.37283455437642965
12648144000.0 0.9239143006249381 -0.3825994839261494 -8.475813568630003e-17 6.945250176494003e-17 -8.475813568630003e-17 6.945250176494003e-17 0.9239145559551543 -0.382598867345441
12648761333.333334 0.9198282665654286 -0.3923212459542099 -8.399838062661952e-17 7.033616658056038e-17 -8.399838062661952e-17 7.033616658056038e-17 0.9198285283707532 -0.39232063213030066
12649378666.666666 0.9156399399403867 -0.40199937858880996 -8.322942249315204e-17 7.121153191488277e-17 -8.322942249315204e-17 7.121153191488277e-17 0.9156402081910745 -0.4019987675896899
12649996000.0 0.9113497865266676 -0.41163280554108095 -8.245135182776288e-17 7.20785020265544e-17 -8.245135182776288e-17 7.20785020265544e-17 0.9113500611922595 -0.41163219743441937
12650613333.333334 0.9069582834251574 -0.4212204554936951 -8.16642601671827e-17 7.293698216072856e-17 -8.16642601671827e-17 7.293698216072856e-17 0.9069585644744836 -0.4212198503468329
12651230666.666666 0.9024659190076725 -0.4307612622201102 -8.086824003229739e-17 7.378687855936267e-17 -8.086824003229739e-17 7.378687855936267e-17 0.9024662064088556 -0.43076066010005215
12651848000.0 0.8978731928626218 -0.4402541647031934 -8.006338491727006e-17 7.462809847146634e-17 -8.006338491727006e-17 7.462809847146634e-17 0.8978734865830833 -0.4402535656766022
12652465333.333334 0.8931806157394742 -0.4496981072531638 -7.924978927861807e-17 7.546055016316493e-17 -7.924978927861807e-17 7.546055016316493e-17 0.8931809157459348 -0.4496975113863511
12653082666.666666 0.8883887094919978 -0.45909203962491885 -7.842754852416733e-17 7.628414292766528e-17 -7.842754852416733e-17 7.628414292766528e-17 0.8883890157504819 -0.4590914469838381
12653700000.0 0.8834980070201319 -0.46843491713500557 -7.759675900186155e-17 7.709878709514373e-17 -7.759675900186155e-17 7.709878709514373e-17 0.8834983194959732 -0.4684343277852457
12654317333.333334 0.8785090522108207 -0.47772570077762394 -7.67575179885418e-17 7.79043940424396e-17 -7.67575179885418e-17 7.79043940424396e-17 0.8785093708686637 -0.4777251147844009
12654934666.666666 0.8734223998774967 -0.4869633573402209 -7.59099236785729e-17 7.870087620267995e-17 -7.59099236785729e-17 7.870087620267995e-17 0.8734227246813038 -0.48696277476837196
12655552000.0 0.8682386156982914 -0.4961468595185695 -7.50540751723723e-17 7.94881470747783e-17 -7.50540751723723e-17 7.94881470747783e-17 0.8682389466113434 -0.4961462804325444
12656169333.333334 0.8629582761532876 -0.5052751860307129 -7.419007246488183e-17 8.026612123277107e-17 -7.419007246488183e-17 8.026612123277107e-17 0.8629586131381894 -0.5052746104945673
12656786666.666666 0.8575819684603135 -0.5143473217307136 -7.331801643389959e-17 8.103471433506898e-17 -7.331801643389959e-17 8.103471433506898e-17 0.8575823114790003 -0.5143467498081031
12657404000.0 0.8521102905096141 -0.523362257721597 -7.243800882833052e-17 8.179384313356989e-17 -7.243800882833052e-17 8.179384313356989e-17 0.8521106395233513 -0.5233616894757677
12658021333.333334 0.8465438507974391 -0.5323189914673974 -7.155015225634723e-17 8.254342548263966e-17 -7.155015225634723e-17 8.254342548263966e-17 0.8465442057668321 -0.5323184269611824
12658638666.666666 0.8408832683583577 -0.5412165269047055 -7.06545501734756e-17 8.328338034795193e-17 -7.06545501734756e-17 8.328338034795193e-17 0.8408836292433507 -0.5412159662005137
12659256000.0 0.8351291726962956 -0.5500538745535981 -6.975130687052941e-17 8.401362781524803e-17 -6.975130687052941e-17 8.401362781524803e-17 0.8351295394561811 -0.5500533177134114
12659873333.333334 0.8292822037147234 -0.5588300516273953 -6.884052746153654e-17 8.473408909889958e-17 -6.884052746153654e-17 8.473408909889958e-17 0.8292825763081431 -0.5588294987127588
12660490666.666666 0.8233430116453962 -0.5675440821420958 -6.792231787151956e-17 8.544468655038796e-17 -6.792231787151956e-17 8.544468655038796e-17 0.8233433900303484 -0.5675435332141128
12661108000.0 0.8173122569759337 -0.5761949970250794 -6.69967848241887e-17 8.61453436666509e-17 -6.69967848241887e-17 8.61453436666509e-17 0.8173126411097753 -0.5761944521444027
12661725333.333334 0.8111906103766379 -0.5847818342224759 -6.606403582960851e-17 8.68359850982511e-17 -6.606403582960851e-17 8.68359850982511e-17 0.8111910002160923 -0.584781293449304
12662342666.666666 0.8049787526256211 -0.5933036388065761 -6.512417917169689e-17 8.751653665747582e-17 -6.512417917169689e-17 8.751653665747582e-17 0.8049791481267807 -0.593303102200644
12662960000.0 0.798677374533309 -0.6017594630817249 -6.417732389570281e-17 8.81869253262544e-17 -6.417732389570281e-17 8.81869253262544e-17 0.7986777756516407 -0.6017589307022981
12663577333.333334 0.7922871768654829 -0.6101483666898962 -6.322357979558863e-17 8.884707926395233e-17 -6.322357979558863e-17 8.884707926395233e-17 0.7922875835558334 -0.6101478385957649
12664194666.666666 0.7858088702654002 -0.618469416715201 -6.226305740131226e-17 8.949692781504358e-17 -6.226305740131226e-17 8.949692781504358e-17 0.785809282482001 -0.6184688929646728
12664812000.0 0.7792431751748157 -0.6267216877875667 -6.12958679660539e-17 9.01364015166298e-17 -6.12958679660539e-17 9.01364015166298e-17 0.7792435928712889 -0.6267211684384613
12665429333.333334 0.7725908217537248 -0.6349042621858272 -6.032212345336352e-17 9.076543210582335e-17 -6.032212345336352e-17 9.076543210582335e-17 0.7725912448830865 -0.6349037472954678
12666046666.666666 0.7658525497993919 -0.6430162299394898 -5.93419365242229e-17 9.138395252699951e-17 -5.93419365242229e-17 9.138395252699951e-17 0.7658529783140597 -0.6430157195646999
12666664000.0 0.7590291086637394 -0.6510566889303525 -5.83554205240311e-17 9.199189693891028e-17 -5.83554205240311e-17 9.199189693891028e-17 0.7590295425155368 -0.6510561831274473
12667281333.333334 0.7521212571704108 -0.6590247449923443 -5.736268946954378e-17 9.258920072164166e-17 -5.736268946954378e-17 9.258920072164166e-17 0.7521216963105719 -0.6590242438171248
12667898666.666666 0.7451297635300762 -0.6669195120113357 -5.636385803570521e-17 9.317580048345385e-17 -5.636385803570521e-17 9.317580048345385e-17 0.7451302079092509 -0.6669190155190822
12668516000.0 0.738055405255047 -0.6747401120236105 -5.5359041542436846e-17 9.375163406746233e-17 -5.5359041542436846e-17 9.375163406746233e-17 0.7380558548233088 -0.6747396202690783
12669133333.333334 0.7308989690730432 -0.6824856753132532 -5.434835594135903e-17 9.431664055817871e-17 -5.434835594135903e-17 9.431664055817871e-17 0.7308994237798939 -0.6824851883506659
12669750666.666666 0.7236612508393999 -0.6901553405092073 -5.3331917802419087e-17 9.487076028792285e-17 -5.3331917802419087e-17 9.487076028792285e-17 0.7236617106337738 -0.6901548583922492
12670368000.0 0.7163430554486883 -0.6977482546809144 -5.2309844300492467e-17 9.541393484307048e-17 -5.2309844300492467e-17 9.541393484307048e-17 0.716343520278959 -0.697747777462726
