! Parameters = {f0=12700.012000; bw=77.238000; Q=6100.000000; N=10; m_0_1=1.315811; m_1_1=0.972416; m_1_2=1.150623; m_2_2=0.971767; m_2_3=0.787586; m_2_8=0.002854; m_2_9=0.039558; m_3_3=0.969830; m_3_4=0.676115; m_3_7=0.003454; m_3_8=-0.093634; m_3_9=0.002854; m_4_4=0.966905; m_4_5=0.512450; m_4_6=0.006971; m_4_7=-0.114183; m_4_8=0.003454; m_5_5=0.967287; m_5_6=0.919805; m_5_7=0.006971; m_6_6=0.967286; m_6_7=0.512792; m_7_7=0.966919; m_7_8=0.676233; m_8_8=0.969828; m_8_9=0.787899; m_9_9=0.971762; m_9_10=1.151701; m_10_10=0.972406; m_10_11=1.316606}
!
! Created with skrf (http://scikit-rf.org).
# Hz S RI R 50.0 
!freq ReS11 ImS11 ReS21 ImS21 ReS12 ImS12 ReS22 ImS22
12607400000.0 -0.20496994631195525 -0.9787682673180024 6.483075742323346e-17 1.2025569966536574e-16 6.483075742323346e-17 1.2025569966536574e-16 -0.20496926786794545 -0.978768409394934
12608017333.333334 -0.2165802766662975 -0.976264812312193 6.625207705397133e-17 1.1944795575221858e-16 6.625207705397133e-17 1.1944795575221858e-16 -0.21657959999071089 -0.9762649624296033
12608634666.666666 -0.22816005467553424 -0.9736236385022022 6.766335401636948e-17 1.1862342528907684e-16 6.766335401636948e-17 1.1862342528907684e-16 -0.22815937986364987 -0.9736237966381293
12609252000.0 -0.23970764681447387 -0.9708451184707463 6.90643902000395e-17 1.1778223289156593e-16 6.90643902000395e-17 1.1778223289156593e-16 -0.23970697396129823 -0.9708452846020977
12609869333.333334 -0.25122142409834713 -0.9679296441755508 7.045498903807735e-17 1.1692450551156877e-16 7.045498903807735e-17 1.1692450551156877e-16 -0.2512207532986013 -0.9679298182781096
12610486666.666666 -0.2626997623123564 -0.964877626894127 7.183495553457599e-17 1.1605037241815094e-16 7.183495553457599e-17 1.1605037241815094e-16 -0.26269909366046224 -0.9648778089425533
12611104000.0 -0.27414104224126595 -0.9616894971656303 7.320409629195532e-17 1.1515996517812956e-16 7.320409629195532e-17 1.1515996517812956e-16 -0.27414037583133355 -0.961689687133467
12611721333.333334 -0.2855436498973257 -0.9583657047302575 7.456221953797062e-17 1.1425341763637217e-16 7.456221953797062e-17 1.1425341763637217e-16 -0.28554298582313964 -0.9583659025899331
12612338666.666666 -0.2969059767482542 -0.9549067184657231 7.590913515255621e-17 1.1333086589572738e-16 7.590913515255621e-17 1.1333086589572738e-16 -0.29690531510325985 -0.9549069241885538
12612956000.0 -0.3082264199441465 -0.9513130263211076 7.724465469438906e-17 1.123924482966607e-16 7.724465469438906e-17 1.123924482966607e-16 -0.30822576082143827 -0.9513132398773058
12613573333.333334 -0.3195033825433419 -0.9475851352481072 7.85685914271741e-17 1.1143830539659896e-16 7.85685914271741e-17 1.1143830539659896e-16 -0.31950272603564855 -0.947585356606781
12614190666.666666 -0.3307352737379686 -0.9437235711294285 7.988076034573469e-17 1.1046857994892261e-16 7.988076034573469e-17 1.1046857994892261e-16 -0.33073461993764147 -0.9437238002585898
12614808000.0 -0.3419205090782209 -0.9397288787046505 8.118097820179832e-17 1.0948341688168595e-16 8.118097820179832e-17 1.0948341688168595e-16 -0.3419198580772204 -0.9397291155712184
12615425333.333334 -0.35305751069589897 -0.9356016214933711 8.246906352953945e-17 1.0848296327602108e-16 8.246906352953945e-17 1.0848296327602108e-16 -0.3530568625857813 -0.9356018660631753
12616042666.666666 -0.3641447075269937 -0.9313423817157099 8.374483667085399e-17 1.0746736834424389e-16 8.374483667085399e-17 1.0746736834424389e-16 -0.3641440623988982 -0.9313426339534973
12616660000.0 -0.3751805355333122 -0.9269517602101783 8.500811980036556e-17 1.0643678340766429e-16 8.500811980036556e-17 1.0643678340766429e-16 -0.3751798934779493 -0.9269520200796184
12617277333.333334 -0.38616343792316554 -0.9224303763488997 8.625873695016537e-17 1.0539136187409789e-16 8.625873695016537e-17 1.0539136187409789e-16 -0.386162799030803 -0.9224306438125887
12617894666.666666 -0.39709186537071706 -0.9177788679503444 8.749651403424085e-17 1.0433125921511781e-16 8.749651403424085e-17 1.0433125921511781e-16 -0.3970912297311675 -0.9177791429698106
12618512000.0 -0.40796427623511844 -0.9129978911891125 8.872127887272077e-17 1.032566329429407e-16 8.872127887272077e-17 1.032566329429407e-16 -0.4079636439377274 -0.9129981737248228
12619129333.333334 -0.41877913677725237 -0.9080881205036826 8.993286121568978e-17 1.0216764258715423e-16 8.993286121568978e-17 1.0216764258715423e-16 -0.41877850791088456 -0.9080884105150467
12619746666.666666 -0.4295349213766403 -0.9030502485010319 9.1131092766862e-17 1.0106444967104225e-16 9.1131092766862e-17 1.0106444967104225e-16 -0.429534296029668 -0.9030505459464094
12620364000.0 -0.44023011274652496 -0.8978849858589868 9.23158072068893e-17 9.994721768769929e-17 9.23158072068893e-17 9.994721768769929e-17 -0.4402294910068159 -0.8978852906956937
12620981333.333334 -0.4508632021477066 -0.8925930612260703 9.34868402163693e-17 9.881611207588067e-17 9.34868402163693e-17 9.881611207588067e-17 -0.4508625841026104 -0.8925933734103829
12621598666.666666 -0.46143268960163064 -0.8871752211185883 9.464402949860997e-17 9.767130019553713e-17 9.464402949860997e-17 9.767130019553713e-17 -0.4614320753379677 -0.8871755406057513
12622216000.0 -0.47193708410185853 -0.8816322298153837 9.578721480205241e-17 9.651295130312251e-17 9.578721480205241e-17 9.651295130312251e-17 -0.4719364737059071 -0.881632556559616
12622833333.333334 -0.48237490382445 -0.8759648692499964 9.691623794241281e-17 9.534123652662225e-17 9.691623794241281e-17 9.534123652662225e-17 -0.48237429738193405 -0.8759652032044974
12623450666.666666 -0.4927446763368986 -0.8701739389004106 9.803094282450289e-17 9.41563288403392e-17 9.803094282450289e-17 9.41563288403392e-17 -0.49274407393297653 -0.8701742800173675
12624068000.0 -0.5030449388059706 -0.8642602556762102 9.913117546376766e-17 9.295840303940126e-17 9.913117546376766e-17 9.295840303940126e-17 -0.5030443405252227 -0.8642606039068048
12624685333.333334 -0.513274238204108 -0.8582246538033056 1.002167840075007e-16 9.174763571402789e-17 1.002167840075007e-16 9.174763571402789e-17 -0.5132736441305249 -0.8582250090977207
12625302666.666666 -0.5234311315140372 -0.8520679847064702 1.0128761875571906e-16 9.052420522358286e-17 1.0128761875571906e-16 9.052420522358286e-17 -0.5234305417310074 -0.852068347013897
12625920000.0 -0.5335141859329656 -0.8457911168888543 1.0234353218178544e-16 8.928829167031126e-17 1.0234353218178544e-16 8.928829167031126e-17 -0.5335136005232645 -0.8457914861575004
12626537333.333334 -0.5435219790740211 -0.8393949358098786 1.0338437895263981e-16 8.804007687291834e-17 1.0338437895263981e-16 8.804007687291834e-17 -0.543521398119799 -0.839395311986974
12627154666.666666 -0.5534530991673181 -0.8328803437600752 1.044100159487456e-16 8.67797443398733e-17 1.044100159487456e-16 8.67797443398733e-17 -0.5534525227500894 -0.8328807267918814
12627772000.0 -0.5633061452591333 -0.8262482597337852 1.0542030228374951e-16 8.550747924243286e-17 1.0542030228374951e-16 8.550747924243286e-17 -0.5633055734597632 -0.8262486495656006
12628389333.333334 -0.5730797274092226 -0.819499619299718 1.0641509932370203e-16 8.422346838757534e-17 1.0641509932370203e-16 8.422346838757534e-17 -0.5730791603079184 -0.819500015875889
12629006666.666666 -0.5827724668872551 -0.8126353744687432 1.0739427070609141e-16 8.292790019053422e-17 1.0739427070609141e-16 8.292790019053422e-17 -0.5827719045635527 -0.8126357777326692
12629624000.0 -0.5923829963670435 -0.8056564935597633 1.0835768235841943e-16 8.162096464726874e-17 1.0835768235841943e-16 8.162096464726874e-17 -0.592382438899798 -0.8056569034539071
12630241333.333334 -0.6019099601195729 -0.7985639610630229 1.0930520251652393e-16 8.03028533066164e-17 1.0930520251652393e-16 8.03028533066164e-17 -0.6019094075869452 -0.7985643775289151
12630858666.666666 -0.6113520142041076 -0.7913587775013258 1.1023670174250774e-16 7.897375924230775e-17 1.1023670174250774e-16 7.897375924230775e-17 -0.6113514666835558 -0.7913592004795775
12631476000.0 -0.6207078266580289 -0.7840419592887082 1.1115205294240426e-16 7.76338770246675e-17 1.1115205294240426e-16 7.76338770246675e-17 -0.6207072842262976 -0.7840423887190192
12632093333.333334 -0.6299760776844615 -0.7766145385872654 1.1205113138339178e-16 7.628340269226685e-17 1.1205113138339178e-16 7.628340269226685e-17 -0.6299755404175682 -0.7766149744084284
12632710666.666666 -0.6391554598384976 -0.769077563161512 1.1293381471076072e-16 7.492253372323802e-17 1.1293381471076072e-16 7.492253372323802e-17 -0.6391549278117241 -0.7690780053114254
12633328000.0 -0.6482446782118774 -0.7614320962303802 1.1379998296449508e-16 7.355146900644679e-17 1.1379998296449508e-16 7.355146900644679e-17 -0.6482441514997597 -0.7614325446460559
12633945333.333334 -0.6572424506153712 -0.7536792163174678 1.1464951859548957e-16 7.217040881250147e-17 1.1464951859548957e-16 7.217040881250147e-17 -0.6572419292916882 -0.7536796709350403
12634562666.666666 -0.6661475077597873 -0.7458200170987871 1.154823064814419e-16 7.077955476453279e-17 1.154823064814419e-16 7.077955476453279e-17 -0.6661469918975506 -0.7458204778535218
12635180000.0 -0.6749585934350035 -0.7378556072485002 1.1629823394237905e-16 6.93791098088113e-17 1.1629823394237905e-16 6.93791098088113e-17 -0.6749580831064469 -0.7378560740748034
12635797333.333334 -0.6836744646871981 -0.7297871102825021 1.170971907558322e-16 6.796927818518023e-17 1.170971907558322e-16 6.796927818518023e-17 -0.6836739599637679 -0.7297875831139298
12636414666.666666 -0.692293891994106 -0.721615664400007 1.1787906917164467e-16 6.655026539733185e-17 1.1787906917164467e-16 6.655026539733185e-17 -0.6922933929464522 -0.7216161431692761
12637032000.0 -0.7008156594385918 -0.7133424223228727 1.1864376392643856e-16 6.512227818288041e-17 1.1864376392643856e-16 6.512227818288041e-17 -0.7008151661365543 -0.7133429069618664
12637649333.333334 -0.7092385648800863 -0.7049685511330606 1.193911722577017e-16 6.36855244833045e-17 1.193911722577017e-16 6.36855244833045e-17 -0.7092380773926897 -0.7049690415728429
12638266666.666666 -0.7175614201241962 -0.6964952321079865 1.2012119391752038e-16 6.224021341371148e-17 1.2012119391752038e-16 6.224021341371148e-17 -0.7175609385196376 -0.6964957282788092
12638884000.0 -0.725783051090315 -0.6879236605538767 1.2083373118594455e-16 6.078655523244942e-17 1.2083373118594455e-16 6.078655523244942e-17 -0.7257825754359546 -0.6879241623851898
12639501333.333334 -0.733902297977286 -0.6792550456371081 1.215286888839901e-16 5.932476131056036e-17 1.215286888839901e-16 5.932476131056036e-17 -0.7339018283396392 -0.6792555530575712
12640118666.666666 -0.7419180154268027 -0.6704906102138686 1.2220597438625061e-16 5.785504410113138e-17 1.2220597438625061e-16 5.785504410113138e-17 -0.7419175518715285 -0.6704911231513581
12640736000.0 -0.749829072685497 -0.661631590657081 1.2286549763320068e-16 5.637761710837045e-17 1.2286549763320068e-16 5.637761710837045e-17 -0.7498286152773906 -0.6616321090387033
12641353333.333334 -0.7576343537637247 -0.6526792366827939 1.2350717114302225e-16 5.48926948567708e-17 1.2350717114302225e-16 5.48926948567708e-17 -0.7576339025667082 -0.6526797604348946
12641970666.666666 -0.7653327575936066 -0.6436348111732131 1.2413091002317e-16 5.34004928598967e-17 1.2413091002317e-16 5.34004928598967e-17 -0.7653323126707191 -0.6436353402213869
12642588000.0 -0.7729231981840647 -0.634499589998865 1.2473663198148609e-16 5.190122758920417e-17 1.2473663198148609e-16 5.190122758920417e-17 -0.7729227595974548 -0.6345001242679675
12643205333.333334 -0.7804046047740629 -0.6252748618385758 1.2532425733696523e-16 5.0395116442681286e-17 1.2532425733696523e-16 5.0395116442681286e-17 -0.7804041725849786 -0.6252754012527327
12643822666.666666 -0.7877759219837229 -0.615961927997589 1.2589370903014944e-16 4.88823777133422e-17 1.2589370903014944e-16 4.88823777133422e-17 -0.7877754962525044 -0.6159624724802084
12644440000.0 -0.7950361099631167 -0.6065621022241061 1.2644491263312047e-16 4.73632305576706e-17 1.2644491263312047e-16 4.73632305576706e-17 -0.7950356907491876 -0.6065626516978885
12645057333.333334 -0.8021841445389736 -0.5970767105239393 1.2697779635912581e-16 4.583789496391205e-17 1.2697779635912581e-16 4.583789496391205e-17 -0.8021837319008311 -0.5970772649108881
12645674666.666666 -0.8092190173591575 -0.587507090973455 1.2749229107182907e-16 4.4306591720245566e-17 1.2749229107182907e-16 4.4306591720245566e-17 -0.8092186113543677 -0.5875076501948893
12646292000.0 -0.8161397360350315 -0.5778545935306573 1.2798833029417325e-16 4.276954238285982e-17 1.2798833029417325e-16 4.276954238285982e-17 -0.8161393367202174 -0.5778551575072207
12646909333.333334 -0.8229453242812462 -0.5681205798450238 1.284658502168423e-16 4.1226969243986656e-17 1.284658502168423e-16 4.1226969243986656e-17 -0.8229449317120824 -0.5681211484966981
12647526666.666666 -0.8296348220535507 -0.5583064230653138 1.2892478970636502e-16 3.967909529976193e-17 1.2892478970636502e-16 3.967909529976193e-17 -0.8296344362847546 -0.5583069963114283
12648144000.0 -0.8362072856843639 -0.5484135076456456 1.2936509031281785e-16 3.812614421803773e-17 1.2936509031281785e-16 3.812614421803773e-17 -0.8362069067696883 -0.5484140854048898
12648761333.333334 -0.842661788015685 -0.5384432291505024 1.2978669627713885e-16 3.656834030612235e-17 1.2978669627713885e-16 3.656834030612235e-17 -0.8426614160079107 -0.5384438113409367
12649378666.666666 -0.848997418529908 -0.528396994057843 1.3018955453805867e-16 3.5005908478427014e-17 1.3018955453805867e-16 3.5005908478427014e-17 -0.8489970534808365 -0.5283975805969114
12649996000.0 -0.8552132834784171 -0.5182762195604551 1.3057361473864618e-16 3.3439074224019284e-17 1.3057361473864618e-16 3.3439074224019284e-17 -0.855212925438863 -0.5182768103649956
12650613333.333334 -0.8613085060075557 -0.5080823333662013 1.3093882923245732e-16 3.186806357413669e-17 1.3093882923245732e-16 3.186806357413669e-17 -0.8613081550273407 -0.5080829283524593
12651230666.666666 -0.8672822262822834 -0.49781677349669395 1.3128515308929354e-16 3.0293103069639465e-17 1.3128515308929354e-16 3.0293103069639465e-17 -0.8672818824102267 -0.4978173725803317
12651848000.0 -0.8731336016076089 -0.48748098808418877 1.3161254410058043e-16 2.8714419728350485e-17 1.3161254410058043e-16 2.8714419728350485e-17 -0.8731332648915253 -0.48748159118030043
12652465333.333334 -0.8788618065473421 -0.47707643516752485 1.3192096278433922e-16 2.7132241012410845e-17 1.3192096278433922e-16 2.7132241012410845e-17 -0.87886147703403 -0.47707704219064573
12653082666.666666 -0.8844660330405366 -0.46660458248644376 1.3221037238977448e-16 2.5546794795551078e-17 1.3221037238977448e-16 2.5546794795551078e-17 -0.8844657107757736 -0.46660519335056355
12653700000.0 -0.8899454905156139 -0.45606690727428884 1.324807389014753e-16 2.39583093302746e-17 1.324807389014753e-16 2.39583093302746e-17 -0.8899451755441528 -0.45606752189286487
12654317333.333334 -0.8952994060017025 -0.445464896049969 1.3273203104320435e-16 2.2367013215109035e-17 1.3273203104320435e-16 2.2367013215109035e-17 -0.8952990983672613 -0.44546551433593656
12654934666.666666 -0.9005270242378103 -0.4348000444080077 1.3296422028131623e-16 2.0773135361696625e-17 1.3296422028131623e-16 2.0773135361696625e-17 -0.9005267239830679 -0.43480066627379343
12655552000.0 -0.9056276077793751 -0.424073856807536 1.331772808277701e-16 1.9176904961905008e-17 1.331772808277701e-16 1.9176904961905008e-17 -0.9056273149459656 -0.42407448216507027
12656169333.333334 -0.9106004371021337 -0.4132878463603969 1.3337118964274037e-16 1.7578551454983003e-17 1.3337118964274037e-16 1.7578551454983003e-17 -0.910600151730641 -0.41328847512112626
12656786666.666666 -0.9154448107038229 -0.40244353461728516 1.3354592643685257e-16 1.5978304494549827e-17 1.3354592643685257e-16 1.5978304494549827e-17 -0.9154445328337731 -0.40244416669218425
12657404000.0 -0.9201600452030246 -0.3915424513533368 1.337014736730092e-16 1.4376393915680183e-17 1.337014736730092e-16 1.4376393915680183e-17 -0.9201597748728828 -0.3915430866529219
12658021333.333334 -0.9247454754356045 -0.3805861343522509 1.3383781656782725e-16 1.2773049701926836e-17 1.3383781656782725e-16 1.2773049701926836e-17 -0.9247452126827685 -0.3805867727865923
12658638666.666666 -0.9292004545484924 -0.36957612918949084 1.3395494309267873e-16 1.11685019523654e-17 1.3395494309267873e-16 1.11685019523654e-17 -0.9292001994092866 -0.36957677066822475
12659256000.0 -0.9335243540910372 -0.35851398901399045 1.3405284397434042e-16 9.562980848578148e-18 1.3405284397434042e-16 9.562980848578148e-18 -0.9335241066007095 -0.3585146334463333
12659873333.333334 -0.9377165641035646 -0.34740127432929374 1.3413151269524369e-16 7.956716621711365e-18 1.3413151269524369e-16 7.956716621711365e-18 -0.93771632429628 -0.34740192162405353
12660490666.666666 -0.9417764932034263 -0.33623955277341944 1.3419094549333354e-16 6.349939519504191e-18 1.3419094549333354e-16 6.349939519504191e-18 -0.941776261112263 -0.3362402028390096
12661108000.0 -0.9457035686685207 -0.32503039889745305 1.3423114136153323e-16 4.742879773289723e-18 1.3423114136153323e-16 4.742879773289723e-18 -0.9457033443254651 -0.32503105164190516
12661725333.333334 -0.9494972365179506 -0.31377539394380277 1.3425210204681295e-16 3.1357675651029545e-18 1.3425210204681295e-16 3.1357675651029545e-18 -0.9494970199538929 -0.3137760492747792
12662342666.666666 -0.953156961590275 -0.3024761256228438 1.3425383204886604e-16 1.5288329947131593e-18 1.3425383204886604e-16 1.5288329947131593e-18 -0.9531567528350068 -0.3024767834476518
12662960000.0 -0.9566822276189613 -0.2911341878890805 1.3423633861839227e-16 -7.769395325799716e-20 1.3423633861839227e-16 -7.769395325799716e-20 -0.956682026701167 -0.2911348481146835
12663577333.333334 -0.9600725373052134 -0.27975118071626204 1.3419963175498656e-16 -1.6835834422119798e-18 1.3419963175498656e-16 -1.6835834422119798e-18 -0.9600723442524703 -0.2797518432492946
12664194666.666666 -0.9633274123881383 -0.26832870987165386 1.3414372420463638e-16 -3.288605816411067e-18 1.3414372420463638e-16 -3.288605816411067e-18 -0.9633272272269124 -0.2683293746184341
12664812000.0 -0.9664463937121816 -0.2568683866896254 1.340686314568267e-16 -4.892531633777358e-18 1.340686314568267e-16 -4.892531633777358e-18 -0.9664462164678228 -0.2568690535561683
12665429333.333334 -0.9694290412919516 -0.24537182784415257 1.339743717412534e-16 -6.495131698652222e-18 1.339743717412534e-16 -6.495131698652222e-18 -0.9694288719886897 -0.24537249673618305
12666046666.666666 -0.9722749343742185 -0.23384065512100435 1.3386096602414673e-16 -8.09617709448489e-18 1.3386096602414673e-16 -8.09617709448489e-18 -0.9722747730351632 -0.2338413259439714
12666664000.0 -0.9749836714973587 -0.22227649518863368 1.337284380042011e-16 -9.695439216529194e-18 1.337284380042011e-16 -9.695439216529194e-18 -0.9749835181444905 -0.22227716784772222
12667281333.333334 -0.9775548705478855 -0.21068097936909239 1.3357681410812177e-16 -1.1292689804391728e-17 1.3357681410812177e-16 -1.1292689804391728e-17 -0.9775547252020582 -0.21068165376923814
12667898666.666666 -0.9799881688144246 -0.19905574340763052 1.334061234857778e-16 -1.2887700974586454e-17 1.334061234857778e-16 -1.2887700974586454e-17 -0.9799880314953606 -0.19905641945353286
12668516000.0 -0.9822832230388755 -0.18740242724194534 1.3321639800496427e-16 -1.448024525304533e-17 1.3321639800496427e-16 -1.448024525304533e-17 -0.9822830937651628 -0.1874031048380807
12669133333.333334 -0.9844397094647827 -0.17572267477109077 1.33007672245791e-16 -1.6070095607428906e-17 1.33007672245791e-16 -1.6070095607428906e-17 -0.9844395882538741 -0.17572335382172655
12669750666.666666 -0.9864573238830668 -0.16401813362329956 1.3277998349466768e-16 -1.765702547952774e-17 1.3277998349466768e-16 -1.765702547952774e-17 -0.9864572107512737 -0.1640188140325068
12670368000.0 -0.9883357816749141 -0.15229045492363938 1.325333717379159e-16 -1.92408088174697e-17 1.325333717379159e-16 -1.92408088174697e-17 -0.9883356766374076 -0.1522911365953071
