! Parameters = {f0=12700.012000; bw=77.238000; Q=6100.000000; N=10; m_0_1=1.337833; m_1_1=1.302747; m_1_2=1.172645; m_2_2=1.302098; m_2_3=0.809608; m_2_8=0.003955; m_2_9=0.040659; m_3_3=1.300161; m_3_4=0.698137; m_3_7=0.004555; m_3_8=-0.092533; m_3_9=0.003955; m_4_4=1.297236; m_4_5=0.534472; m_4_6=0.008072; m_4_7=-0.113082; m_4_8=0.004555; m_5_5=1.297618; m_5_6=0.941827; m_5_7=0.008072; m_6_6=1.297617; m_6_7=0.534814; m_7_7=1.297250; m_7_8=0.698255; m_8_8=1.300159; m_8_9=0.809921; m_9_9=1.302093; m_9_10=1.173723; m_10_10=1.302737; m_10_11=1.338628}
!
! Created with skrf (http://scikit-rf.org).
# Hz S RI R 50.0 
!freq ReS11 ImS11 ReS21 ImS21 ReS12 ImS12 ReS22 ImS22
12607400000.0 -0.8101316173457168 -0.5862480384415946 1.4218278644368524e-16 5.004118973137427e-17 1.4218278644368524e-16 5.004118973137427e-17 -0.810131204204802 -0.5862486093573965
12608017333.333334 -0.8174125182627945 -0.5760527536494218 1.427748600037789e-16 4.82338951588121e-17 1.427748600037789e-16 4.82338951588121e-17 -0.8174121123265714 -0.5760533296680233
12608634666.666666 -0.8245651219102691 -0.5657670542978858 1.4334397441715688e-16 4.6419630209604086e-17 1.4334397441715688e-16 4.6419630209604086e-17 -0.8245647232417441 -0.565767635328383
12609252000.0 -0.8315883056487553 -0.555392554782684 1.438900480911439e-16 4.459868637831685e-17 1.438900480911439e-16 4.459868637831685e-17 -0.8315879143097857 -0.5553931407333942
12609869333.333334 -0.8384809671521426 -0.5449308834369836 1.4441300313182748e-16 4.277135610827414e-17 1.4441300313182748e-16 4.277135610827414e-17 -0.8384805832034313 -0.5449314742154622
12610486666.666666 -0.8452420245803601 -0.5343836822762257 1.449127653549899e-16 4.09379327446994e-17 1.449127653549899e-16 4.09379327446994e-17 -0.8452416480814438 -0.5343842777892783
12611104000.0 -0.8518704167494242 -0.5237526067400193 1.4538926429648365e-16 3.909871048760156e-17 1.4538926429648365e-16 3.909871048760156e-17 -0.8518700477586645 -0.523753206893719
12611721333.333334 -0.8583651032977552 -0.5130393254326977 1.4584243322196474e-16 3.72539843447082e-17 1.4584243322196474e-16 3.72539843447082e-17 -0.8583647418723293 -0.5130399301323969
12612338666.666666 -0.8647250648496757 -0.5022455198610816 1.4627220913606087e-16 3.540405008417302e-17 1.4627220913606087e-16 3.540405008417302e-17 -0.8647247110455674 -0.5022461290114288
12612956000.0 -0.8709493031753165 -0.4913728841707026 1.466785327909398e-16 3.35492041871807e-17 1.466785327909398e-16 3.35492041871807e-17 -0.8709489570473091 -0.4913734976756579
12613573333.333334 -0.8770368413472119 -0.48042312488004835 1.4706134869425046e-16 3.168974380057325e-17 1.4706134869425046e-16 3.168974380057325e-17 -0.8770365029488773 -0.48042374264289694
12614190666.666666 -0.8829867238938279 -0.4693979606123667 1.4742060511650305e-16 2.9825966689222636e-17 1.4742060511650305e-16 2.9825966689222636e-17 -0.8829863932775219 -0.46939858253573624
12614808000.0 -0.8887980169493118 -0.45829912182631916 1.4775625409781596e-16 2.7958171188456836e-17 1.4775625409781596e-16 2.7958171188456836e-17 -0.8887976941661614 -0.4582997478121925
12615425333.333334 -0.8944698084002527 -0.44712835054402356 1.4806825145408096e-16 2.608665615632202e-17 1.4806825145408096e-16 2.608665615632202e-17 -0.894469493500152 -0.4471289804937567
12616042666.666666 -0.900001208028738 -0.43588740007783716 1.483565567825059e-16 2.421172092587229e-17 1.483565567825059e-16 2.421172092587229e-17 -0.9000009010603383 -0.4358880338921726
12616660000.0 -0.9053913476521269 -0.42457803475506073 1.486211334665714e-16 2.2333665257318816e-17 1.486211334665714e-16 2.2333665257318816e-17 -0.9053910486628304 -0.42457867233414504
12617277333.333334 -0.9106393812592442 -0.4132020296411741 1.4886194868037335e-16 2.0452789290171453e-17 1.4886194868037335e-16 2.0452789290171453e-17 -0.9106390902951954 -0.41320267088457213
12617894666.666666 -0.9157444851432163 -0.40176117026112695 1.4907897339236393e-16 1.8569393495330614e-17 1.4907897339236393e-16 1.8569393495330614e-17 -0.9157442022492966 -0.40176181506783876
12618512000.0 -0.9207058580308256 -0.39025725231893593 1.492721823684853e-16 1.668377862714482e-17 1.492721823684853e-16 1.668377862714482e-17 -0.920705583250645 -0.39025790058741194
12619129333.333334 -0.9255227212081122 -0.3786920814162021 1.4944155417470085e-16 1.4796245675442323e-17 1.4944155417470085e-16 1.4796245675442323e-17 -0.9255224545840033 -0.3786927330443595
12619746666.666666 -0.930194318642757 -0.36706747276834806 1.4958707117891721e-16 1.2907095817552188e-17 1.4958707117891721e-16 1.2907095817552188e-17 -0.9301940602157677 -0.36706812765358643
12620364000.0 -0.934719917102674 -0.35538525091986456 1.49708719552306e-16 1.1016630370263383e-17 1.49708719552306e-16 1.1016630370263383e-17 -0.9347196669125619 -0.3553859089590829
12620981333.333334 -0.9390988062710374 -0.34364724945810027 1.498064892700099e-16 9.125150741916697e-18 1.498064892700099e-16 9.125150741916697e-18 -0.9390985643562642 -0.3436479105477123
12621598666.666666 -0.9433302988578915 -0.3318553107251512 1.4988037411125815e-16 7.232958384287998e-18 1.4988037411125815e-16 7.232958384287998e-18 -0.9433300652556154 -0.331855974761102
12622216000.0 -0.9474137307079602 -0.3200112855288531 1.4993037165886154e-16 5.340354744696157e-18 1.4993037165886154e-16 5.340354744696157e-18 -0.9474135054540321 -0.32001195240663594
12622833333.333334 -0.9513484609048567 -0.3081170328523968 1.4995648329811303e-16 3.4476412179857846e-18 1.4995648329811303e-16 3.4476412179857846e-18 -0.9513482440338128 -0.30811770246706865
12623450666.666666 -0.9551338718717157 -0.2961744195624428 1.4995871421507813e-16 1.5551190986392441e-18 1.4995871421507813e-16 1.5551190986392441e-18 -0.9551336634167739 -0.29617509180864154
12624068000.0 -0.9587693694681596 -0.2841853201159985 1.4993707339428488e-16 -3.369104672129779e-19 1.4993707339428488e-16 -3.369104672129779e-19 -0.9587691694612136 -0.28418599488795954
12624685333.333334 -0.9622543830835143 -0.2721516162663192 1.4989157361580662e-16 -2.2281465295690614e-18 1.4989157361580662e-16 -2.2281465295690614e-18 -0.9622541915551285 -0.2721522934578915
12625302666.666666 -0.9655883657263252 -0.2600751967677217 1.498222314517463e-16 -4.118288382402095e-18 1.498222314517463e-16 -4.118288382402095e-18 -0.9655881827057305 -0.26007587627238504
12625920000.0 -0.9687707941103185 -0.24795795707875137 1.497290672621133e-16 -6.007035611448717e-18 1.497290672621133e-16 -6.007035611448717e-18 -0.9687706196254077 -0.24795863878963287
12626537333.333334 -0.9718011687364265 -0.23580179906506274 1.496121051901065e-16 -7.894088141813496e-18 1.496121051901065e-16 -7.894088141813496e-18 -0.9718010028137506 -0.23580248287495398
12627154666.666666 -0.9746790139712228 -0.2236086307008037 1.494713731567902e-16 -9.77914628567096e-18 1.494713731567902e-16 -9.77914628567096e-18 -0.9746788566359862 -0.22360931650217714
12627772000.0 -0.9774038781216642 -0.21138036576876051 1.4930690285517439e-16 -1.1661910789759628e-17 1.4930690285517439e-16 -1.1661910789759628e-17 -0.97740372939772 -0.21138105345378636
12628389333.333334 -0.9799753335058151 -0.19911892356069846 1.4911872974369907e-16 -1.3542082882831097e-17 1.4911872974369907e-16 -1.3542082882831097e-17 -0.9799751934156636 -0.19911961302126205
12629006666.666666 -0.9823929765201173 -0.1868262285755098 1.4890689303911492e-16 -1.541936432303752e-17 1.4890689303911492e-16 -1.541936432303752e-17 -0.9823928450849018 -0.1868269197032284
12629624000.0 -0.9846564277026859 -0.17450421021737492 1.4867143570877942e-16 -1.7293457445131787e-17 1.4867143570877942e-16 -1.7293457445131787e-17 -0.9846563049421885 -0.17450490290361464
12630241333.333334 -0.9867653317928468 -0.16215480249304381 1.4841240446234977e-16 -1.916406520764214e-17 1.4841240446234977e-16 -1.916406520764214e-17 -0.9867652177254866 -0.16215549662893683
12630858666.666666 -0.9887193577869121 -0.1497799437082282 1.4812984974288881e-16 -2.103089123988682e-17 1.4812984974288881e-16 -2.103089123988682e-17 -0.9887192524297431 -0.14978063918468998
12631476000.0 -0.9905181989901952 -0.13738157616298116 1.4782382571737756e-16 -2.2893639888871887e-17 1.4782382571737756e-16 -2.2893639888871887e-17 -0.9905181023589004 -0.13738227287072707
12632093333.333334 -0.9921615730650352 -0.12496164584751557 1.4749439026664051e-16 -2.475201626606522e-17 1.4749439026664051e-16 -2.475201626606522e-17 -0.9921614851739287 -0.12496234367707872
12632710666.666666 -0.9936492220751826 -0.11252210213637866 1.4714160497468979e-16 -2.6605726293980057e-17 1.4714160497468979e-16 -2.6605726293980057e-17 -0.9936491429372046 -0.11252280097812671
12633328000.0 -0.9949809125262828 -0.10006489748242997 1.467655351174641e-16 -2.8454476752737025e-17 1.467655351174641e-16 -2.8454476752737025e-17 -0.9949808421529992 -0.10006559722658248
12633945333.333334 -0.9961564354025114 -0.08759198711050613 1.463662496510154e-16 -3.029797532629577e-17 1.463662496510154e-16 -3.029797532629577e-17 -0.9961563738041096 -0.0875926876471516
12634562666.666666 -0.9971756061993601 -0.07510532871070742 1.4594382119908358e-16 -3.213593064869185e-17 1.4594382119908358e-16 -3.213593064869185e-17 -0.997175553384651 -0.07510602992982086
12635180000.0 -0.9980382649526393 -0.06260688213073218 1.4549832604011853e-16 -3.39680523499709e-17 1.4549832604011853e-16 -3.39680523499709e-17 -0.9980382209290536 -0.06260758392219222
12635797333.333334 -0.9987442762635449 -0.05009860906866429 1.4502984409370555e-16 -3.5794051102046317e-17 1.4502984409370555e-16 -3.5794051102046317e-17 -0.9987442410371328 -0.05009931132227041
12636414666.666666 -0.9992935293199295 -0.03758247276490447 1.4453845890643768e-16 -3.7613638664282245e-17 1.4453845890643768e-16 -3.7613638664282245e-17 -0.9992935028953617 -0.037583175370394545
12637032000.0 -0.9996859379137001 -0.02506043769391564 1.4402425763718308e-16 -3.9426527929017434e-17 1.4402425763718308e-16 -3.9426527929017434e-17 -0.9996859202942641 -0.025061140540982983
12637649333.333334 -0.9999214404543365 -0.012534469256001369 1.4348733104182516e-16 -4.1232432966726424e-17 1.4348733104182516e-16 -4.1232432966726424e-17 -0.9999214316419371 -0.012535172234312133
12638266666.666666 -0.9999999999785593 -6.533468996466527e-06 1.429277734574058e-16 -4.303106907109925e-17 1.429277734574058e-16 -4.303106907109925e-17 -0.9999999999737191 -7.236468207021097e-06
12638884000.0 -0.9999216041561385 0.012521403340650971 1.4234568278571677e-16 -4.482215280385941e-17 1.4234568278571677e-16 -4.482215280385941e-17 -0.9999216129579981 0.012520700430876764
12639501333.333334 -0.999686265291822 0.02504737484633456 1.4174116047632814e-16 -4.6605402039370716e-17 1.4174116047632814e-16 -4.6605402039370716e-17 -0.9996862828981403 0.025046672136308033
12640118666.666666 -0.9992940203234145 0.037569415029687844 1.4111431150906303e-16 -4.83805360090102e-17 1.4111431150906303e-16 -4.83805360090102e-17 -0.9992940467305671 0.03756871262967816
12640736000.0 -0.9987449308159541 0.05008555848984297 1.4046524437589813e-16 -5.014727534535525e-17 1.4046524437589813e-16 -5.014727534535525e-17 -0.9987449660189393 0.050084856510060005
12641353333.333334 -0.9980390829520941 0.06259384075088874 1.39794071062358e-16 -5.190534212601126e-17 1.39794071062358e-16 -5.190534212601126e-17 -0.9980391269445266 0.06259313930146551
12641970666.666666 -0.9971765875185271 0.07509229857122754 1.391009070283012e-16 -5.3654459917351467e-17 1.391009070283012e-16 -5.3654459917351467e-17 -0.9971766402926437 0.07509159776220307
12642588000.0 -0.9961575798886355 0.08757897025097874 1.3838587118820569e-16 -5.5394353817883395e-17 1.3838587118820569e-16 -5.5394353817883395e-17 -0.996157641435297 0.08757827019228093
12643205333.333334 -0.9949822200012174 0.10005189594033198 1.3764908589089762e-16 -5.712475050139468e-17 1.3764908589089762e-16 -5.712475050139468e-17 -0.9949822903099065 0.10005119674176007
12643822666.666666 -0.9936506923353947 0.11250911794692872 1.3689067689872824e-16 -5.884537825986214e-17 1.3689067689872824e-16 -5.884537825986214e-17 -0.9936507713942222 0.11250841971813641
12644440000.0 -0.9921632058816526 0.12494868104324637 1.3611077336624842e-16 -6.055596704600894e-17 1.3611077336624842e-16 -6.055596704600894e-17 -0.9921632936773559 0.12494798389372438
12645057333.333334 -0.9905199941090514 0.13736863277331166 1.3530950781831614e-16 -6.225624851566655e-17 1.3530950781831614e-16 -6.225624851566655e-17 -0.9905200906269988 0.1373679368123707
12645674666.666666 -0.9887213149285791 0.14976702375926298 1.3448701612771319e-16 -6.394595606976388e-17 1.3448701612771319e-16 -6.394595606976388e-17 -0.9887214201527693 0.14976632909601625
12646292000.0 -0.9867674506526334 0.16214190800748296 1.3364343749218131e-16 -6.562482489614544e-17 1.3364343749218131e-16 -6.562482489614544e-17 -0.9867675645657039 0.1621412147508299
12646909333.333334 -0.9846587079507826 0.1744913432136408 1.327789144110107e-16 -6.729259201093578e-17 1.327789144110107e-16 -6.729259201093578e-17 -0.9846588305340055 0.17449065147224885
12647526666.666666 -0.9823954178015607 0.18681339106793865 1.31893592661061e-16 -6.894899629970365e-17 1.31893592661061e-16 -6.894899629970365e-17 -0.982395549034851 0.1868127009502273
12648144000.0 -0.9799779354405587 0.1991061175591162 1.3098762127227296e-16 -7.059377855830457e-17 1.3098762127227296e-16 -7.059377855830457e-17 -0.9799780753024762 0.19910542917323948
12648761333.333334 -0.9774066403046492 0.21136759327811594 1.3006115250270402e-16 -7.222668153334395e-17 1.3006115250270402e-16 -7.222668153334395e-17 -0.9774067887723998 0.2113669067319452
12649378666.666666 -0.9746819359724616 0.22359589372074634 1.29114341813045e-16 -7.384744996234429e-17 1.29114341813045e-16 -7.384744996234429e-17 -0.9746820930219042 0.22359520912185396
12649996000.0 -0.9718042501010227 0.2357890995898559 1.281473478405943e-16 -7.545583061365289e-17 1.281473478405943e-16 -7.545583061365289e-17 -0.9718044157066709 0.23578841704549788
12650613333.333334 -0.9687740343585877 0.24794529709674154 1.2716033237281215e-16 -7.705157232587857e-17 1.2716033237281215e-16 -7.705157232587857e-17 -0.9687742084936156 0.2479446167138414
12651230666.666666 -0.9655917643538455 0.26006257826114243 1.2615346032034833e-16 -7.863442604705105e-17 1.2615346032034833e-16 -7.863442604705105e-17 -0.965591946990091 0.26006190014627373
12651848000.0 -0.9622579395611726 0.272139041211093 1.2512689968954092e-16 -8.020414487349232e-17 1.2512689968954092e-16 -8.020414487349232e-17 -0.9622581306691412 0.2721383654704629
12652465333.333334 -0.9587730832422738 0.2841727904812657 1.240808215545192e-16 -8.17604840881957e-17 1.240808215545192e-16 -8.17604840881957e-17 -0.9587732827911462 0.2841721172206988
12653082666.666666 -0.9551377423641094 0.29616193731031226 1.2301540002876644e-16 -8.3303201198942e-17 1.2301540002876644e-16 -8.3303201198942e-17 -0.9551379503217429 0.2961612666352332
12653700000.0 -0.9513524875129292 0.30810459993769607 1.2193081223620848e-16 -8.483205597604574e-17 1.2193081223620848e-16 -8.483205597604574e-17 -0.9513527038458643 0.3081039319531132
12654317333.333334 -0.9474179128048482 0.31999890389860874 1.2082723828190225e-16 -8.634681048962979e-17 1.2082723828190225e-16 -8.634681048962979e-17 -0.9474181374783156 0.31999823870909855
12654934666.666666 -0.9433346357924807 0.3318429823185585 1.197048612221702e-16 -8.784722914665126e-17 1.197048612221702e-16 -8.784722914665126e-17 -0.9433348687704041 0.3318423200282481
12655552000.0 -0.9391032973680564 0.34363497620622113 1.1856386703432406e-16 -8.933307872747148e-17 1.1856386703432406e-16 -8.933307872747148e-17 -0.9391035386130614 0.3436343169187729
12656169333.333334 -0.9347245616628956 0.3553730347450607 1.174044445859566e-16 -9.080412842200734e-17 1.174044445859566e-16 -9.080412842200734e-17 -0.9347248111363127 0.3553723785636553
12656786666.666666 -0.9301991159430287 0.3670553155841976 1.1622678560374023e-16 -9.226014986554617e-17 1.1622678560374023e-16 -9.226014986554617e-17 -0.9301993736049009 0.3670546626115181
12657404000.0 -0.9255276705014863 0.37867998512714945 1.1503108464180853e-16 -9.370091717412409e-17 1.1503108464180853e-16 -9.370091717412409e-17 -0.9255279363105765 0.3786793354653659
12658021333.333334 -0.9207109585466532 0.390245218820049 1.1381753904968884e-16 -9.512620697950856e-17 1.1381753904968884e-16 -9.512620697950856e-17 -0.9207112324604485 0.3902445725708015
12658638666.666666 -0.9157497360873543 0.40174920143759485 1.1258634893983628e-16 -9.653579846372872e-17 1.1258634893983628e-16 -9.653579846372872e-17 -0.9157500180620741 0.4017485587019776
12659256000.0 -0.9106447818140446 0.41319012736832833 1.11337717154658e-16 -9.792947339328262e-17 1.11337717154658e-16 -9.792947339328262e-17 -0.9106450718046474 0.41318948824687474
12659873333.333334 -0.9053968969766519 0.4245662008978762 1.1007184923322604e-16 -9.930701615279179e-17 1.1007184923322604e-16 -9.930701615279179e-17 -0.9053971949368419 0.4245655654905421
12660490666.666666 -0.9000069052588889 0.43587563649064254 1.0878895337749728e-16 -1.0066821377831624e-16 1.0878895337749728e-16 -1.0066821377831624e-16 -0.900007211141126 0.435875004896792
12661108000.0 -0.894475652648808 0.44711665907042064 1.0748924041812136e-16 -1.0201285599023238e-16 1.0748924041812136e-16 -1.0201285599023238e-16 -0.8944759664043119 0.4471160313888087
12661725333.333334 -0.88880400730621 0.45828750429858833 1.0617292377992491e-16 -1.0334073522558633e-16 1.0617292377992491e-16 -1.0334073522558633e-16 -0.8888043288849697 0.4582868806273469
12662342666.666666 -0.8829928594261829 0.46938641885143956 1.0484021944688658e-16 -1.0465164667011824e-16 1.0484021944688658e-16 -1.0465164667011824e-16 -0.8829931887769652 0.46938579928806157
12662960000.0 -0.877043121099587 0.48041166069497193 1.0349134592677584e-16 -1.0594538828977518e-16 1.0349134592677584e-16 -1.0594538828977518e-16 -0.8770434581699433 0.4804110453362959
12663577333.333334 -0.8709557261697138 0.49136149935866197 1.0212652421542841e-16 -1.0722176086174612e-16 1.0212652421542841e-16 -1.0722176086174612e-16 -0.8709560709059889 0.49136088830085695
12664194666.666666 -0.8647316300857907 0.5022342162069179 1.0074597776058646e-16 -1.0848056800509142e-16 1.0074597776058646e-16 -1.0848056800509142e-16 -0.864731982433132 0.502233609545469
12664812000.0 -0.8583718097531059 0.5130281047086842 9.934993242539258e-17 -1.0972161621087837e-16 9.934993242539258e-17 -1.0972161621087837e-16 -0.8583721696554715 0.5130275025383771
12665429333.333334 -0.8518772633794768 0.5237414707056328 9.793861645150676e-17 -1.1094471487185323e-16 9.793861645150676e-17 -1.1094471487185323e-16 -0.8518776307796447 0.523740873120539
12666046666.666666 -0.8452490103188116 0.5343726326776813 9.651226042186759e-17 -1.1214967631163616e-16 9.651226042186759e-17 -1.1214967631163616e-16 -0.845249385158388 0.5343720397711432
12666664000.0 -0.8384880909108735 0.544919922007302 9.507109722305488e-17 -1.1333631581346933e-16 9.507109722305488e-17 -1.1333631581346933e-16 -0.8384884731303042 0.5449193338719197
12667281333.333334 -0.8315955663182414 0.5553816832410382 9.361536200739795e-17 -1.1450445164840234e-16 9.361536200739795e-17 -1.1450445164840234e-16 -0.8315959558568181 0.5553810999686529
12667898666.666666 -0.8245725183595359 0.5657562743496688 9.21452921546163e-17 -1.1565390510309473e-16 9.21452921546163e-17 -1.1565390510309473e-16 -0.8245729151554083 0.5657556960313499
12668516000.0 -0.817420049339716 0.5760420669857916 9.066112723318389e-17 -1.1678450050707247e-16 9.066112723318389e-17 -1.1678450050707247e-16 -0.8174204533299 0.5760414937118215
12669133333.333334 -0.8101392818771599 0.5862374467392582 8.916310896138758e-17 -1.178960652594694e-16 8.916310896138758e-17 -1.178960652594694e-16 -0.8101396929975508 0.5862368785991205
12669750666.666666 -0.8027313587272791 0.5963408133908508 8.765148116799943e-17 -1.1898842985531749e-16 8.765148116799943e-17 -1.1898842985531749e-16 -0.802731776912657 0.5963402504732132
