! Parameters = {f0=12700.012000; bw=77.238000; Q=6100.000000; N=10; m_0_1=1.323819; m_1_1=1.092537; m_1_2=1.158631; m_2_2=1.091888; m_2_3=0.795594; m_2_8=0.003255; m_2_9=0.039959; m_3_3=1.089951; m_3_4=0.684123; m_3_7=0.003855; m_3_8=-0.093233; m_3_9=0.003255; m_4_4=1.087026; m_4_5=0.520458; m_4_6=0.007372; m_4_7=-0.113782; m_4_8=0.003855; m_5_5=1.087408; m_5_6=0.927813; m_5_7=0.007372; m_6_6=1.087407; m_6_7=0.520800; m_7_7=1.087040; m_7_8=0.684241; m_8_8=1.089949; m_8_9=0.795907; m_9_9=1.091883; m_9_10=1.159709; m_10_10=1.092527; m_10_11=1.324614}
!
! Created with skrf (http://scikit-rf.org).
# Hz S RI R 50.0 
!freq ReS11 ImS11 ReS21 ImS21 ReS12 ImS12 ReS22 ImS22
12607400000.0 0.9454000266973316 -0.3259122420537357 -1.1526561992354017e-16 8.228664868619034e-17 -1.1526561992354017e-16 8.228664868619034e-17 0.9454002539766959 -0.32591158276533727
12608017333.333334 0.9413826640595712 -0.3373405991100281 -1.1423057596664654e-16 8.367064847096388e-17 -1.1423057596664654e-16 8.367064847096388e-17 0.941382899297149 -0.33733994265533057
12608634666.666666 0.9372271567668884 -0.3487194525954385 -1.1317892805149726e-16 8.504164755421636e-17 -1.1317892805149726e-16 8.504164755421636e-17 0.9372273999273824 -0.34871879907049247
12609252000.0 0.9329341146257268 -0.36004713270253896 -1.1211083925273002e-16 8.639944690744437e-17 -1.1211083925273002e-16 8.639944690744437e-17 0.9329343656726797 -0.3600464822029552
12609869333.333334 0.9285041676252818 -0.3713219771334455 -1.110264750285771e-16 8.774384954506234e-17 -1.110264750285771e-16 8.774384954506234e-17 0.9285044265210831 -0.37132132975438176
12610486666.666666 0.9239379658451067 -0.3825423313436241 -1.0992600319534455e-16 8.90746605528727e-17 -1.0992600319534455e-16 8.90746605528727e-17 0.9239382325509982 -0.382541687179771
12611104000.0 0.9192361793595974 -0.39370654878497874 -1.0880959390144704e-16 9.03916871163451e-17 -1.0880959390144704e-16 9.03916871163451e-17 0.9192364538356781 -0.39370590793054566
12611721333.333334 0.9143994981398117 -0.4048129911471079 -1.076774196012328e-16 9.169473854841615e-17 -1.076774196012328e-16 9.169473854841615e-17 0.914399780345045 -0.4048123536958097
12612338666.666666 0.9094286319521248 -0.41586002859795934 -1.0652965502837611e-16 9.298362631708292e-17 -1.0652965502837611e-16 9.298362631708292e-17 0.9094289218443428 -0.41585939464300187
12612956000.0 0.9043243102540173 -0.4268460400231023 -1.0536647716896526e-16 9.425816407263257e-17 -1.0536647716896526e-16 9.425816407263257e-17 0.90432460778993 -0.42684540965716977
12613573333.333334 0.899087282087213 -0.4377694132632341 -1.0418806523433142e-16 9.551816767446596e-17 -1.0418806523433142e-16 9.551816767446596e-17 0.8990875872224119 -0.4377687865784748
12614190666.666666 0.8937183159675907 -0.4486285453511206 -1.0299460063343784e-16 9.676345521771284e-17 -1.0299460063343784e-16 9.676345521771284e-17 0.8937186286565562 -0.44862792243913324
12614808000.0 0.8882181997724781 -0.45942184274667025 -1.0178626694506154e-16 9.79938470593848e-17 -1.0178626694506154e-16 9.79938470593848e-17 0.8882185199685877 -0.4594212236984916
12615425333.333334 0.882587740625025 -0.47014772157080803 -1.0056324988960247e-16 9.920916584424678e-17 -1.0056324988960247e-16 9.920916584424678e-17 0.8825880682805585 -0.47014710647689856
12616042666.666666 0.87682776477577 -0.4808046078378774 -9.932573730060464e-17 1.0040923653031717e-16 -9.932573730060464e-17 1.0040923653031717e-16 0.8768280998419178 -0.48080399678810903
12616660000.0 0.8709391174813399 -0.49139093768671893 -9.807391909597409e-17 1.0159388641401407e-16 -9.807391909597409e-17 1.0159388641401407e-16 0.8709394599082093 -0.4913903307703608
12617277333.333334 0.8649226628804763 -0.5019051576100345 -9.68079872488799e-17 1.0276294515495987e-16 -9.68079872488799e-17 1.0276294515495987e-16 0.8649230126171 -0.5019045549157409
12617894666.666666 0.8587792838672452 -0.5123457246823375 -9.552813575840806e-17 1.0391624480038073e-16 -9.552813575840806e-17 1.0391624480038073e-16 0.8587796408615873 -0.5123451262981341
12618512000.0 0.8525098819613292 -0.5227111067866161 -9.423456061984866e-17 1.0505361980921208e-16 -9.423456061984866e-17 1.0505361980921208e-16 0.8525102461602949 -0.5227105127998878
12619129333.333334 0.8461153771759357 -0.5329997828388233 -9.292745979478633e-17 1.0617490707575466e-16 -9.292745979478633e-17 1.0617490707575466e-16 0.8461157485253777 -0.532999193336301
12619746666.666666 0.8395967078826594 -0.543210243011312 -9.160703318083854e-17 1.0727994595302318e-16 -9.160703318083854e-17 1.0727994595302318e-16 0.8395970863273872 -0.5432096580790607
12620364000.0 0.8329548306736984 -0.5533409889545142 -9.027348258113176e-17 1.0836857827570607e-16 -9.027348258113176e-17 1.0836857827570607e-16 0.8329552161574846 -0.5533404086779191
12620981333.333334 0.826190720221785 -0.5633905340163401 -8.892701167356469e-17 1.0944064838269798e-16 -8.892701167356469e-17 1.0944064838269798e-16 0.826191112687376 -0.5633899584800957
12621598666.666666 0.8193053691367872 -0.5733574034609136 -8.756782597971504e-17 1.1049600313932549e-16 -8.756782597971504e-17 1.1049600313932549e-16 0.81930576852591 -0.5733568327490097
12622216000.0 0.8122997878202943 -0.5832401346846023 -8.619613283354624e-17 1.1153449195913708e-16 -8.619613283354624e-17 1.1153449195913708e-16 0.8123001940736653 -0.5832395688803131
12622833333.333334 0.8051750043172322 -0.5930372774308155 -8.481214134983138e-17 1.125559668253252e-16 -8.481214134983138e-17 1.125559668253252e-16 0.8051754173745667 -0.5930367166166868
12623450666.666666 0.7979320641650844 -0.6027473940027076 -8.34160623923436e-17 1.1356028231174297e-16 -8.34160623923436e-17 1.1356028231174297e-16 0.7979324839651059 -0.6027468382605452
12624068000.0 0.790572030240383 -0.6123690594742739 -8.200810854177342e-17 1.1454729560354713e-16 -8.200810854177342e-17 1.1454729560354713e-16 0.7905724567208308 -0.6123685088851312
12624685333.333334 0.7830959826027105 -0.62190086189947 -8.058849406339886e-17 1.155168665174447e-16 -8.058849406339886e-17 1.155168665174447e-16 0.7830964157003498 -0.6219003165436359
12625302666.666666 0.7755050183364006 -0.6313414025191657 -7.915743487458685e-17 1.1646885752149326e-16 -7.915743487458685e-17 1.1646885752149326e-16 0.7755054579870316 -0.6313408624761537
12625920000.0 0.7678002513892094 -0.6406892959668326 -7.771514851194606e-17 1.1740313375457758e-16 -7.771514851194606e-17 1.1740313375457758e-16 0.7678006975276773 -0.6406887613153684
12626537333.333334 0.7599828124091834 -0.6499431704714175 -7.626185409836449e-17 1.18319563045406e-16 -7.626185409836449e-17 1.18319563045406e-16 0.7599832649693876 -0.6499426412894285
12627154666.666666 0.752053848578656 -0.6591016680587605 -7.479777230975372e-17 1.1921801593114447e-16 -7.479777230975372e-17 1.1921801593114447e-16 0.7520543074935614 -0.6591011444233649
12627772000.0 0.744014523445627 -0.6681634447511976 -7.332312534157437e-17 1.2009836567563986e-16 -7.332312534157437e-17 1.2009836567563986e-16 0.7440149886472702 -0.6681629267386897
12628389333.333334 0.7358660167534539 -0.6771271707642624 -7.183813687522081e-17 1.2096048828718715e-16 -7.183813687522081e-17 1.2096048828718715e-16 0.7358664881729581 -0.6771266584501066
12629006666.666666 0.7276095242673618 -0.6859915307022617 -7.034303204408075e-17 1.218042625359506e-16 -7.034303204408075e-17 1.218042625359506e-16 0.727610001834943 -0.6859910241610769
12629624000.0 0.7192462575992117 -0.6947552237510258 -6.88380373995161e-17 1.2262956997089395e-16 -6.88380373995161e-17 1.2262956997089395e-16 0.7192467412441905 -0.6947547230565774
12630241333.333334 0.7107774440294857 -0.7034169638690265 -6.732338087655316e-17 1.2343629493634525e-16 -6.732338087655316e-17 1.2343629493634525e-16 0.7107779336802993 -0.7034164690942151
12630858666.666666 0.7022043263275297 -0.7119754799757569 -6.579929175944255e-17 1.2422432458810368e-16 -6.579929175944255e-17 1.2422432458810368e-16 0.702204821911739 -0.7119749911926061
12631476000.0 0.6935281625686753 -0.7204295161387582 -6.426600064694736e-17 1.2499354890916616e-16 -6.426600064694736e-17 1.2499354890916616e-16 0.6935286640129799 -0.7204290334184069
12632093333.333334 0.6847502259501103 -0.7287778317574453 -6.272373941758726e-17 1.2574386072495572e-16 -6.272373941758726e-17 1.2574386072495572e-16 0.6847507331803545 -0.7287773551701341
12632710666.666666 0.6758718046038137 -0.7370192017453778 -6.117274119457141e-17 1.2647515571819097e-16 -6.117274119457141e-17 1.2647515571819097e-16 0.6758723175450025 -0.7370187313604427
12633328000.0 0.666894201407449 -0.745152416710118 -5.961324031059744e-17 1.27187332443302e-16 -5.961324031059744e-17 1.27187332443302e-16 0.6668947199837558 -0.7451519525959768
12633945333.333334 0.6578187337933542 -0.7531762831305273 -5.804547227255056e-17 1.278802923403846e-16 -5.804547227255056e-17 1.278802923403846e-16 0.6578192579281328 -0.7531758253546709
12634562666.666666 0.6486467335551319 -0.7610896235319904 -5.646967372595752e-17 1.285539397487573e-16 -5.646967372595752e-17 1.285539397487573e-16 0.6486472631709274 -0.7610891721609729
12635180000.0 0.639379546652146 -0.7688912766592589 -5.488608241932935e-17 1.2920818192006278e-16 -5.488608241932935e-17 1.2920818192006278e-16 0.6393800816707078 -0.7688908317586889
12635797333.333334 0.6300185330121171 -0.7765800976467709 -5.3294937168320207e-17 1.2984292903094344e-16 -5.3294937168320207e-17 1.2984292903094344e-16 0.6300190733544089 -0.7765796592813003
12636414666.666666 0.6205650663315581 -0.7841549581866573 -5.169647781981947e-17 1.3045809419524656e-16 -5.169647781981947e-17 1.3045809419524656e-16 0.6205656119177704 -0.7841545264199735
12637032000.0 0.6110205338740773 -0.7916147466944045 -5.0090945215774566e-17 1.310535934758384e-16 -5.0090945215774566e-17 1.310535934758384e-16 0.6110210846236391 -0.7916143215892201
12637649333.333334 0.6013863362668934 -0.7989583684719076 -4.847858115700945e-17 1.3162934589592348e-16 -4.847858115700945e-17 1.3162934589592348e-16 0.6013868920984833 -0.798957950089951
12638266666.666666 0.5916638872952724 -0.8061847458681263 -4.6859628366836993e-17 1.321852734499502e-16 -4.6859628366836993e-17 1.321852734499502e-16 0.5916644481268323 -0.8061843342701348
12638884000.0 0.5818546136950636 -0.8132928184372328 -4.523433045457399e-17 1.327213011140592e-16 -4.523433045457399e-17 1.327213011140592e-16 0.581855179443808 -0.8132924136829403
12639501333.333334 0.571959954943303 -0.8202815430942373 -4.3602931878931e-17 1.332373568560864e-16 -4.3602931878931e-17 1.332373568560864e-16 0.5719605255257352 -0.8202811452423702
12640118666.666666 0.5619813630471432 -0.8271498942679514 -4.1965677911320904e-17 1.3373337164510842e-16 -4.1965677911320904e-17 1.3373337164510842e-16 0.5619819383790635 -0.8271495033762152
12640736000.0 0.5519203023303056 -0.8338968640518045 -4.032281459895741e-17 1.3420927946056771e-16 -4.032281459895741e-17 1.3420927946056771e-16 0.5519208823268262 -0.8338964801768786
12641353333.333334 0.5417782492188983 -0.8405214623512682 -3.8674588728043734e-17 1.3466501730088982e-16 -3.8674588728043734e-17 1.3466501730088982e-16 0.5417788337944558 -0.8405210855487976
12641970666.666666 0.531556692024172 -0.8470227170295541 -3.7021247786655295e-17 1.3510052519170932e-16 -3.7021247786655295e-17 1.3510052519170932e-16 0.531557281092539 -0.8470223473541395
12642588000.0 0.5212571307243719 -0.8533996740500928 -3.536303992767042e-17 1.355157461936029e-16 -3.536303992767042e-17 1.355157461936029e-16 0.5212577241986697 -0.8533993115552838
12643205333.333334 0.5108810767446222 -0.8596513976165365 -3.3700213931574145e-17 1.3591062640937915e-16 -3.3700213931574145e-17 1.3591062640937915e-16 0.510881674537335 -0.8596510423548251
12643822666.666666 0.5004300527349367 -0.8657769703102055 -3.203301916915254e-17 1.362851149909205e-16 -3.203301916915254e-17 1.362851149909205e-16 0.5004306547579228 -0.8657766223330157
12644440000.0 0.4899055923470399 -0.8717754932245485 -3.036170556418683e-17 1.3663916414555033e-16 -3.036170556418683e-17 1.3663916414555033e-16 0.48990619851154643 -0.8717751525822321
12645057333.333334 0.4793092400091667 -0.8776460860971489 -2.868652355601838e-17 1.3697272914195918e-16 -2.868652355601838e-17 1.3697272914195918e-16 0.47930985022584094 -0.877645752838975
12645674666.666666 0.46864255069957006 -0.8833878874388138 -2.700772406207438e-17 1.3728576831566616e-16 -2.700772406207438e-17 1.3728576831566616e-16 0.46864316487847335 -0.8833875616129634
12646292000.0 0.4579070897179082 -0.8890000546602259 -2.532555844030596e-17 1.3757824307402845e-16 -2.532555844030596e-17 1.3757824307402845e-16 0.4579077077685297 -0.8889997363137851
12646909333.333334 0.4471044324561188 -0.8944817641952801 -2.3640278451653536e-17 1.3785011790077658e-16 -2.3640278451653536e-17 1.3785011790077658e-16 0.44710505428738845 -0.8944814533742333
12647526666.666666 0.4362361641668595 -0.8998322116221416 -2.1952136222380807e-17 1.3810136036010674e-16 -2.1952136222380807e-17 1.3810136036010674e-16 0.4362367896871605 -0.8998319083713627
12648144000.0 0.42530387973095135 -0.9050506117812476 -2.026138420639247e-17 1.3833194110030725e-16 -2.026138420639247e-17 1.3833194110030725e-16 0.4253045088481358 -0.9050503161444976
12648761333.333334 0.4143091834233098 -0.9101361988905392 -1.8568275147568954e-17 1.3854183385691742e-16 -1.8568275147568954e-17 1.3854183385691742e-16 0.4143098160447104 -0.910135910910457
12649378666.666666 0.4032536886778076 -0.9150882266577086 -1.687306204201786e-17 1.3873101545543507e-16 -1.687306204201786e-17 1.3873101545543507e-16 0.40325432471025197 -0.9150879463758048
12649996000.0 0.39213901785001815 -0.9199059683899393 -1.5175998100302318e-17 1.3889946581356095e-16 -1.5175998100302318e-17 1.3889946581356095e-16 0.392139657199842 -0.9199056958465903
12650613333.333334 0.3809668019795009 -0.9245887171003772 -1.347733670967992e-17 1.3904716794298001e-16 -1.347733670967992e-17 1.3904716794298001e-16 0.3809674445525627 -0.9245884523348208
12651230666.666666 0.36973868055042874 -0.9291357856118976 -1.1777331396337978e-17 1.3917410795068058e-16 -1.1777331396337978e-17 1.3917410795068058e-16 0.3697393262521233 -0.9291355286622263
12651848000.0 0.3584563012507629 -0.9335465066580415 -1.0076235787547692e-17 1.39280275039819e-16 -1.0076235787547692e-17 1.39280275039819e-16 0.35845694998603517 -0.9335462575611976
12652465333.333334 0.3471213197306957 -0.9378202329808358 -8.374303573932754e-18 1.3936566151011298e-16 -8.374303573932754e-18 1.3936566151011298e-16 0.347121971404055 -0.9378199917726063
12653082666.666666 0.33573539935971947 -0.9419563374257741 -6.671788471668198e-18 1.394302627577824e-16 -6.671788471668198e-18 1.394302627577824e-16 0.3357360538752527 -0.9419561041407832
12653700000.0 0.3243002109821302 -0.9459542130339903 -4.96894418467017e-18 1.3947407727502637e-16 -4.96894418467017e-18 1.3947407727502637e-16 0.32430086824351684 -0.9459539877056975
12654317333.333334 0.31281743267250645 -0.9498132731310889 -3.266024366893552e-18 1.3949710664903792e-16 -3.266024366893552e-18 1.3949710664903792e-16 0.3128180925830325 -0.9498130557917822
12654934666.666666 0.30128874948881507 -0.9535329514134664 -1.5632825845605445e-18 1.3949935556056181e-16 -1.5632825845605445e-18 1.3949935556056181e-16 0.30128941195138736 -0.9535327420942592
12655552000.0 0.28971585322542853 -0.9571127020313079 1.3902772156316607e-19 1.3948083178199017e-16 1.3902772156316607e-19 1.3948083178199017e-16 0.2897165181425889 -0.9571125007621334
12656169333.333334 0.2781004421649698 -0.9605519996686583 1.8406532737835075e-18 1.3944154617499956e-16 1.8406532737835075e-18 1.3944154617499956e-16 0.2781011094389091 -0.9605518064782648
12656786666.666666 0.26644422082885033 -0.9638503396205841 3.541340995169146e-18 1.3938151268772866e-16 3.541340995169146e-18 1.3938151268772866e-16 0.2664448903614235 -0.9638501545365331
12657404000.0 0.25474889972727455 -0.9670072378672002 5.240838047118752e-18 1.3930074835149888e-16 5.240838047118752e-18 1.3930074835149888e-16 0.2547495714200144 -0.9670070609158598
12658021333.333334 0.24301619510817182 -0.9700222311447068 6.9388918669098255e-18 1.3919927327707555e-16 6.9388918669098255e-18 1.3919927327707555e-16 0.24301686886230392 -0.9700220623512497
12658638666.666666 0.23124782870551022 -0.9728948770133372 8.635250205160218e-18 1.3907711065047583e-16 8.635250205160218e-18 1.3907711065047583e-16 0.23124850442196707 -0.9728947164017355
12659256000.0 0.21944552748625007 -0.975624753922373 1.0329661163307418e-17 1.3893428672831357e-16 1.0329661163307418e-17 1.3893428672831357e-16 0.2194462050656862 -0.9756246015153976
12659873333.333334 0.20761102339733273 -0.9782114612719081 1.2021873230906405e-17 1.3877083083269777e-16 1.2021873230906405e-17 1.3877083083269777e-16 0.207611702740139 -0.9782113170911232
12660490666.666666 0.19574605311141322 -0.9806546194716637 1.3711635322930367e-17 1.3858677534567226e-16 1.3711635322930367e-17 1.3858677534567226e-16 0.19574673411773127 -0.9806544835374241
12661108000.0 0.18385235777175876 -0.9829538699967434 1.5398696817013064e-17 1.3838215570319805e-16 1.5398696817013064e-17 1.3838215570319805e-16 0.183853040341496 -0.982953742328192
12661725333.333334 0.17193168273713205 -0.9851088754401657 1.7082807590513446e-17 1.38157010388695e-16 1.7082807590513446e-17 1.38157010388695e-16 0.17193236676997614 -0.9851087560552307
12662342666.666666 0.159985777325359 -0.9871193195624374 1.8763718057609337e-17 1.3791138092611792e-16 1.8763718057609337e-17 1.3791138092611792e-16 0.15998646272079292 -0.9871192084778304
12662960000.0 0.14801639455679041 -0.9889849073379317 2.0441179206194686e-17 1.3764531187259605e-16 2.0441179206194686e-17 1.3764531187259605e-16 0.14801708121410664 -0.9889848045691432
12663577333.333334 0.13602529089691157 -0.9907053649982015 2.21149426347398e-17 1.3735885081061543e-16 2.21149426347398e-17 1.3735885081061543e-16 0.13602597871522742 -0.9907052705595012
12664194666.666666 0.12401422599875554 -0.9922804400721292 2.3784760589022853e-17 1.3705204833975757e-16 2.3784760589022853e-17 1.3705204833975757e-16 0.12401491487702784 -0.992280353976563
12664812000.0 0.11198496244456839 -0.9937099014229956 2.5450385998754665e-17 1.3672495806799196e-16 2.5450385998754665e-17 1.3672495806799196e-16 0.11198565228160812 -0.9937098236823828
12665429333.333334 0.09993926548715511 -0.9949935392823902 2.7111572514091122e-17 1.3637763660252236e-16 2.7111572514091122e-17 1.3637763660252236e-16 0.09993995618164277 -0.9949934699073262
12666046666.666666 0.08787890279097761 -0.9961311652809908 2.876807454199738e-17 1.3601014354019765e-16 2.876807454199738e-17 1.3601014354019765e-16 0.08787959424147739 -0.9961311042808385
12666664000.0 0.07580564417244372 -0.9971226124762246 3.0419647282566113e-17 1.3562254145746269e-16 3.0419647282566113e-17 1.3562254145746269e-16 0.075806336277419 -0.9971225598591201
12667281333.333334 0.06372126134058957 -0.9979677353767373 3.206604676506856e-17 1.3521489589989962e-16 3.206604676506856e-17 1.3521489589989962e-16 0.06372195399841754 -0.9979676911495851
12667898666.666666 0.051627527636832676 -0.9986664099637668 3.3707029883999374e-17 1.3478727537130277e-16 3.3707029883999374e-17 1.3478727537130277e-16 0.0516282207458192 -0.9986663741322378
12668516000.0 0.039526217774626164 -0.9992185337093398 3.5342354434920444e-17 1.3433975132232898e-16 3.5342354434920444e-17 1.3433975132232898e-16 0.03952691123302092 -0.9992185062778745
12669133333.333334 0.02741910757945166 -0.9996240255913001 3.697177915012276e-17 1.3387239813872468e-16 3.697177915012276e-17 1.3387239813872468e-16 0.027419801285462946 -0.9996240065631056
12669750666.666666 0.01530797372782573 -0.9998828261052191 3.859506373422626e-17 1.3338529312909524e-16 3.859506373422626e-17 1.3338529312909524e-16 0.015308667579635393 -0.9998828154822677
12670368000.0 0.0031945934867204737 -0.9999948972731135 4.021196889952975e-17 1.3287851651226962e-16 4.021196889952975e-17 1.3287851651226962e-16 0.003195287382498943 -0.9999948950561465
