! Parameters = {f0=12700.012000; bw=77.238000; Q=6100.000000; N=10; m_0_1=1.283779; m_1_1=0.491936; m_1_2=1.118591; m_2_2=0.491287; m_2_3=0.755554; m_2_8=0.001253; m_2_9=0.037957; m_3_3=0.489350; m_3_4=0.644083; m_3_7=0.001853; m_3_8=-0.095235; m_3_9=0.001253; m_4_4=0.486425; m_4_5=0.480418; m_4_6=0.005370; m_4_7=-0.115784; m_4_8=0.001853; m_5_5=0.486807; m_5_6=0.887773; m_5_7=0.005370; m_6_6=0.486806; m_6_7=0.480760; m_7_7=0.486439; m_7_8=0.644201; m_8_8=0.489348; m_8_9=0.755867; m_9_9=0.491282; m_9_10=1.119669; m_10_10=0.491926; m_10_11=1.284574}
!
! Created with skrf (http://scikit-rf.org).
# Hz S RI R 50.0 
!freq ReS11 ImS11 ReS21 ImS21 ReS12 ImS12 ReS22 ImS22
12607400000.0 0.2914491372811295 -0.9565863266730849 -9.122120296340504e-19 1.1797134153823605e-16 -9.122120296340504e-19 1.1797134153823605e-16 0.2914497842640024 -0.956586129552528
12608017333.333334 0.28097617552525617 -0.959714743445687 3.876640023082859e-19 1.1795112901445896e-16 3.876640023082859e-19 1.1795112901445896e-16 0.2809768245922428 -0.959714553417775
12608634666.666666 0.270469645570847 -0.9627285031744934 1.6869839330039508e-18 1.179166026034711e-16 1.6869839330039508e-18 1.179166026034711e-16 0.270470296644203 -0.9627283202612335
12609252000.0 0.25993080263221185 -0.9656272458059549 2.9855902397613495e-18 1.1786777210236848e-16 2.9855902397613495e-18 1.1786777210236848e-16 0.259931455633961 -0.9656270700285021
12609869333.333334 0.24936090578406117 -0.9684106250276128 4.2833255482019436e-18 1.1780464904068604e-16 4.2833255482019436e-18 1.1780464904068604e-16 0.2493615606360044 -0.9684104564062676
12610486666.666666 0.23876121781125 -0.971078308309432 5.580032651285e-18 1.1772724667832048e-16 5.580032651285e-18 1.1772724667832048e-16 0.23876187443497487 -0.9710781468636378
12611104000.0 0.2281330050574717 -0.9736299769436372 6.875554528358169e-18 1.176355800032418e-16 6.875554528358169e-18 1.176355800032418e-16 0.22813366337436164 -0.9736298226919782
12611721333.333334 0.2174775372746575 -0.9760653260826198 8.169734364094305e-18 1.175296657290003e-16 8.169734364094305e-18 1.175296657290003e-16 0.21747819720590164 -0.9760651790428191
12612338666.666666 0.20679608747061723 -0.9783840647755179 9.462415567472941e-18 1.174095222920207e-16 9.462415567472941e-18 1.174095222920207e-16 0.2067967489372197 -0.9783839249644367
12612956000.0 0.19608993175725656 -0.9805859160029042 1.07534417907136e-17 1.1727516984868843e-16 1.07534417907136e-17 1.1727516984868843e-16 0.19609059468004533 -0.9805857834365362
12613573333.333334 0.18536034919823136 -0.9826706167098564 1.2042656948088881e-17 1.1712663027223573e-16 1.2042656948088881e-17 1.1712663027223573e-16 0.18536101349786863 -0.9826704914033305
12614190666.666666 0.17460862165588834 -0.9846379178374405 1.3329905234845082e-17 1.169639271494081e-16 1.3329905234845082e-17 1.169639271494081e-16 0.17460928725287927 -0.9846377998050151
12614808000.0 0.16383603363825977 -0.986487584352435 1.461503114594796e-17 1.1678708577693538e-16 1.461503114594796e-17 1.1678708577693538e-16 0.1638367004529625 -0.9864874736074988
12615425333.333334 0.1530438721455757 -0.988219395275416 1.589787949485811e-17 1.1659613315779067e-16 1.589787949485811e-17 1.1659613315779067e-16 0.15304454009821059 -0.9882192918304856
12616042666.666666 0.14223342651650575 -0.9898331437071567 1.7178295432237054e-17 1.1639109799724568e-16 1.7178295432237054e-17 1.1639109799724568e-16 0.14223409552716537 -0.9898330475738769
12616660000.0 0.13140598827412306 -0.9913286368533496 1.8456124464608378e-17 1.161720106987205e-16 1.8456124464608378e-17 1.161720106987205e-16 0.13140665826278086 -0.9913285480424883
12617277333.333334 0.12056285097157639 -0.9927056960476375 1.97312124729717e-17 1.1593890335942845e-16 1.97312124729717e-17 1.1593890335942845e-16 0.12056352185809725 -0.9927056145690885
12617894666.666666 0.10970531003769171 -0.9939641567729463 2.10034057313442e-17 1.1569180976582103e-16 2.10034057313442e-17 1.1569180976582103e-16 0.10970598174184082 -0.9939640826357252
12618512000.0 0.09883466262189619 -0.9951038686811723 2.227255092529968e-17 1.154307653888191e-16 2.227255092529968e-17 1.154307653888191e-16 0.09883533506334911 -0.9951038018934182
12619129333.333334 0.08795220743964369 -0.9961246956111035 2.353849517036853e-17 1.151558073788583e-16 2.353849517036853e-17 1.151558073788583e-16 0.08795288053799571 -0.996124636180076
12619746666.666666 0.07705924461700306 -0.9970265156047134 2.4801086030453603e-17 1.148669745607168e-16 2.4801086030453603e-17 1.148669745607168e-16 0.07705991829177883 -0.9970264635367928
12620364000.0 0.06615707553521846 -0.9978092209217395 2.6060171536168126e-17 1.1456430742814574e-16 2.6060171536168126e-17 1.1456430742814574e-16 0.0661577497058816 -0.9978091762224246
12620981333.333334 0.05524700267565829 -0.9984727180525146 2.731560020304762e-17 1.1424784813831166e-16 2.731560020304762e-17 1.1424784813831166e-16 0.05524767726162119 -0.9984726807264261
12621598666.666666 0.044330329463811685 -0.99901692772918 2.856722104979083e-17 1.1391764050602034e-16 2.856722104979083e-17 1.1391764050602034e-16 0.044331004384444934 -0.9990168977800558
12622216000.0 0.03340836011373803 -0.9994417849351361 2.981488361636677e-17 1.135737299977539e-16 2.981488361636677e-17 1.135737299977539e-16 0.033409035288380115 -0.9994417623658318
12622833333.333334 0.022482399472195908 -0.9997472389128131 3.105843798207791e-17 1.13216163725506e-16 3.105843798207791e-17 1.13216163725506e-16 0.022483074820162843 -0.9997472237253029
12623450666.666666 0.011553752862866822 -0.9999332531697326 3.2297734783531234e-17 1.1284499044042355e-16 3.2297734783531234e-17 1.1284499044042355e-16 0.011554428303461858 -0.9999332453651092
12624068000.0 0.0006237259302663198 -0.9999998054828735 3.3532625232563684e-17 1.1246026052624444e-16 3.3532625232563684e-17 1.1246026052624444e-16 0.0006244013827895102 -0.9999998050613474
12624685333.333334 -0.010306375516269806 -0.9999468879013212 3.476296113407772e-17 1.1206202599254294e-16 3.476296113407772e-17 1.1206202599254294e-16 -0.010305700132511942 -0.9999468948622214
12625302666.666666 -0.021235245658306205 -0.9997745067472223 3.59885949037601e-17 1.116503404677929e-16 3.59885949037601e-17 1.116503404677929e-16 -0.021234570423991038 -0.9997745210889946
12625920000.0 -0.032161578824740286 -0.9994826826150225 3.720937958581458e-17 1.1122525919220643e-16 3.720937958581458e-17 1.1122525919220643e-16 -0.03216090382051942 -0.9994827043352311
12626537333.333334 -0.04308406964739271 -0.9990714503690115 3.8425168870487956e-17 1.107868390104201e-16 3.8425168870487956e-17 1.107868390104201e-16 -0.043083394953882435 -0.9990714794643409
12627154666.666666 -0.05400141321713031 -0.9985408591391606 3.9635817111605926e-17 1.1033513836395859e-16 3.9635817111605926e-17 1.1033513836395859e-16 -0.054000738914901925 -0.998540895605415
12627772000.0 -0.06491230523993374 -0.9978909723152415 4.084117934400522e-17 1.0987021728351105e-16 4.084117934400522e-17 1.0987021728351105e-16 -0.06491163140950384 -0.9978910161473429
12628389333.333334 -0.07581544219229548 -0.9971218675392726 4.204111130081736e-17 1.0939213738104091e-16 4.204111130081736e-17 1.0939213738104091e-16 -0.07581476891411648 -0.9971219187312648
12629006666.666666 -0.08670952147749095 -0.9962336366962146 4.3235469430750825e-17 1.0890096184167162e-16 4.3235469430750825e-17 1.0890096184167162e-16 -0.08670884883194138 -0.9962336952412618
12629624000.0 -0.09759324158071722 -0.9952263859030213 4.442411091519934e-17 1.083967554154171e-16 4.442411091519934e-17 1.083967554154171e-16 -0.09759256964809221 -0.9952264517934105
12630241333.333334 -0.10846530222486851 -0.994100235495943 4.5606893685306924e-17 1.0787958440870365e-16 4.5606893685306924e-17 1.0787958440870365e-16 -0.10846463108537026 -0.9941003087230857
12630858666.666666 -0.11932440452568228 -0.9928553200161706 4.6783676438895477e-17 1.0734951667572392e-16 4.6783676438895477e-17 1.0734951667572392e-16 -0.11932373425941038 -0.992855400570602
12631476000.0 -0.13016925114722736 -0.991491788193725 4.795431865735957e-17 1.0680662160957599e-16 4.795431865735957e-17 1.0680662160957599e-16 -0.13016858183416918 -0.9914918760651054
12632093333.333334 -0.14099854645652965 -0.9900098029297322 4.911868062235656e-17 1.0625097013326628e-16 4.911868062235656e-17 1.0625097013326628e-16 -0.1409978781765508 -0.9900098981068479
12632710666.666666 -0.15181099667853062 -0.9884095412769407 5.027662343248073e-17 1.0568263469049012e-16 5.027662343248073e-17 1.0568263469049012e-16 -0.1518103295113656 -0.988409643747708
12633328000.0 -0.1626053100507952 -0.98669119441855 5.142800901981356e-17 1.0510168923623923e-16 5.142800901981356e-17 1.0510168923623923e-16 -0.16260464407603792 -0.9866913041700154
12633945333.333334 -0.17338019697758536 -0.9848549676454057 5.2572700166327683e-17 1.045082092272491e-16 5.2572700166327683e-17 1.045082092272491e-16 -0.17337953227467925 -0.9848550846637456
12634562666.666666 -0.1841343701840685 -0.9829010803314525 5.371056052022273e-17 1.0390227161224636e-16 5.371056052022273e-17 1.0390227161224636e-16 -0.1841337068322974 -0.9829012046019773
12635180000.0 -0.1948665448700798 -0.9808297659075281 5.484145461213214e-17 1.0328395482202863e-16 5.484145461213214e-17 1.0328395482202863e-16 -0.19486588294855853 -0.980829897414684
12635797333.333334 -0.2055754388636455 -0.9786412718334737 5.596524787122229e-17 1.026533387593649e-16 5.596524787122229e-17 1.026533387593649e-16 -0.20557477845131003 -0.9786414105608424
12636414666.666666 -0.21625977277405214 -0.9763358595685891 5.708180664116192e-17 1.0201050478872963e-16 5.708180664116192e-17 1.0201050478872963e-16 -0.2162591139496505 -0.9763360054988923
12637032000.0 -0.22691827014483437 -0.9739138045403686 5.819099819600318e-17 1.0135553572584697e-16 5.819099819600318e-17 1.0135553572584697e-16 -0.22691761298691743 -0.9739139576554696
12637649333.333334 -0.23754965760627358 -0.971375396111597 5.929269075591176e-17 1.0068851582708093e-16 5.929269075591176e-17 1.0068851582708093e-16 -0.23754900219318523 -0.9713755563925018
12638266666.666666 -0.24815266502738748 -0.9687209375458059 6.0386753502805e-17 1.0000953077863858e-16 6.0386753502805e-17 1.0000953077863858e-16 -0.2481520114372556 -0.9687211049726667
12638884000.0 -0.2587260256677844 -0.9659507459710217 6.14730565958355e-17 9.931866768562206e-17 6.14730565958355e-17 9.931866768562206e-17 -0.2587253739785115 -0.9659509205231394
12639501333.333334 -0.26926847632899953 -0.963065152341875 6.25514711867815e-17 9.86160150608942e-17 6.25514711867815e-17 9.86160150608942e-17 -0.2692678266182534 -0.9630653339977006
12640118666.666666 -0.2797787575052463 -0.9600645014001097 6.362186943527749e-17 9.790166281379941e-17 6.362186943527749e-17 9.790166281379941e-17 -0.27977810985045065 -0.9600646901372478
12640736000.0 -0.29025561353432494 -0.9569491516332691 6.468412452397936e-17 9.717570223867607e-17 6.468412452397936e-17 9.717570223867607e-17 -0.2902549680126506 -0.9569493474284809
12641353333.333334 -0.3006977927469822 -0.9537194752320589 6.573811067349035e-17 9.643822600328092e-17 6.573811067349035e-17 9.643822600328092e-17 -0.3006971494353376 -0.9537196780612652
12641970666.666666 -0.31110404761702093 -0.9503758580457135 6.678370315727798e-17 9.568932813696637e-17 6.678370315727798e-17 9.568932813696637e-17 -0.31110340659204283 -0.9503760678839965
12642588000.0 -0.3214731349100697 -0.9469186995359812 6.782077831637293e-17 9.492910401875579e-17 6.782077831637293e-17 9.492910401875579e-17 -0.32147249624811397 -0.9469189163575873
12643205333.333334 -0.33180381583213747 -0.943348412729387 6.884921357395988e-17 9.415765036524088e-17 6.884921357395988e-17 9.415765036524088e-17 -0.33180317960927097 -0.943348636507733
12643822666.666666 -0.342094856177696 -0.9396654241678691 6.986888744985275e-17 9.337506521830565e-17 6.986888744985275e-17 9.337506521830565e-17 -0.3420942224696863 -0.9396656548755423
12644440000.0 -0.3523450264771274 -0.9358701738578133 7.087967957478018e-17 9.25814479327315e-17 7.087967957478018e-17 9.25814479327315e-17 -0.35234439535943385 -0.9358704114665746
12645057333.333334 -0.3625531021433682 -0.9319631152175714 7.188147070457391e-17 9.17768991636169e-17 7.188147070457391e-17 9.17768991636169e-17 -0.36255247369113447 -0.9319633596983631
12645674666.666666 -0.372717863618455 -0.9279447150232144 7.287414273419859e-17 9.09615208536556e-17 7.287414273419859e-17 9.09615208536556e-17 -0.3727172379064978 -0.9279449663461576
12646292000.0 -0.3828380965193786 -0.9238154533526923 7.385757871165894e-17 9.013541622024722e-17 7.385757871165894e-17 9.013541622024722e-17 -0.38283747362218046 -0.9238157114870947
12646909333.333334 -0.3929125917826914 -0.9195758235286681 7.483166285170943e-17 8.929868974249922e-17 7.483166285170943e-17 8.929868974249922e-17 -0.39291197177439185 -0.9195760884430281
12647526666.666666 -0.40294014580932674 -0.9152263320594417 7.579628054947717e-17 8.845144714803414e-17 7.579628054947717e-17 8.845144714803414e-17 -0.4029395287637122 -0.915226603721449
12648144000.0 -0.4129195606083352 -0.9107674985784467 7.675131839390414e-17 8.759379539967382e-17 7.675131839390414e-17 8.759379539967382e-17 -0.41291894659883127 -0.9107677769549891
12648761333.333334 -0.4228496439399059 -0.9061998557822193 7.76966641810481e-17 8.672584268197407e-17 7.76966641810481e-17 8.672584268197407e-17 -0.42284903303956856 -0.9062001408393856
12649378666.666666 -0.4327292094578056 -0.9015239493667621 7.863220692720151e-17 8.584769838764202e-17 7.863220692720151e-17 8.584769838764202e-17 -0.43272860173931177 -0.9015242410698457
12649996000.0 -0.4425570768512368 -0.8967403379622825 7.955783688193154e-17 8.495947310374621e-17 7.955783688193154e-17 8.495947310374621e-17 -0.442556472386877 -0.8967406362757876
12650613333.333334 -0.4523320719857759 -0.8918495930664968 8.047344554088387e-17 8.40612785978599e-17 8.047344554088387e-17 8.40612785978599e-17 -0.4523314708474436 -0.8918498979541394
12651230666.666666 -0.46205302704354156 -0.8868522989763975 8.137892565846784e-17 8.31532278040341e-17 8.137892565846784e-17 8.31532278040341e-17 -0.46205242930272694 -0.8868526104011134
12651848000.0 -0.4717187806629703 -0.8817490527183242 8.227417126040192e-17 8.22354348086149e-17 8.227417126040192e-17 8.22354348086149e-17 -0.47171818639075047 -0.8817493706422715
12652465333.333334 -0.48132817807733425 -0.8765404639767496 8.315907765605792e-17 8.130801483596884e-17 8.315907765605792e-17 8.130801483596884e-17 -0.48132758734436487 -0.8765407883613137
12653082666.666666 -0.490880071252704 -0.8712271550214451 8.403354145066585e-17 8.037108423405479e-17 8.403354145066585e-17 8.037108423405479e-17 -0.4908794841292113 -0.8712274858272437
12653700000.0 -0.5003733190253523 -0.8658097606330013 8.489746055737958e-17 7.942476045984107e-17 8.489746055737958e-17 7.942476045984107e-17 -0.500372735581124 -0.8658100978198878
12654317333.333334 -0.5098067872377396 -0.86028892802718 8.575073420912404e-17 7.846916206465101e-17 8.575073420912404e-17 7.846916206465101e-17 -0.5098062075421178 -0.8602892715542508
12654934666.666666 -0.5191793488742393 -0.8546653167774749 8.65932629703307e-17 7.750440867932689e-17 8.65932629703307e-17 7.750440867932689e-17 -0.5191787729961109 -0.8546656666030721
12655552000.0 -0.5284898841958736 -0.8489395987362431 8.742494874849383e-17 7.653062099927911e-17 8.742494874849383e-17 7.653062099927911e-17 -0.5284893122036626 -0.84893995481796
12656169333.333334 -0.5377372808737254 -0.8431124579546633 8.824569480551902e-17 7.554792076946021e-17 8.824569480551902e-17 7.554792076946021e-17 -0.5377367128353856 -0.8431128202493512
12656786666.666666 -0.5469204341221697 -0.837184590600806 8.905540576896567e-17 7.455643076914506e-17 8.905540576896567e-17 7.455643076914506e-17 -0.5469198701051753 -0.8371849590645773
12657404000.0 -0.5560382468307151 -0.8311567048765509 8.985398764307613e-17 7.355627479664135e-17 8.985398764307613e-17 7.355627479664135e-17 -0.5560376869020544 -0.8311570794647868
12658021333.333334 -0.565089629695124 -0.8250295209329473 9.064134781965024e-17 7.254757765386199e-17 9.064134781965024e-17 7.254757765386199e-17 -0.5650890739212889 -0.8250299016002999
12658638666.666666 -0.5740735013474343 -0.8188037707842578 9.14173950887336e-17 7.153046513080051e-17 9.14173950887336e-17 7.153046513080051e-17 -0.5740729497944144 -0.8188041574846574
12659256000.0 -0.582988788485383 -0.8124801982203417 9.218203964916167e-17 7.05050639898527e-17 9.218203964916167e-17 7.05050639898527e-17 -0.5829882412186586 -0.8124805909070046
12659873333.333334 -0.5918344260004265 -0.806059558717944 9.293519311889079e-17 6.947150195007663e-17 9.293519311889079e-17 6.947150195007663e-17 -0.5918338830849574 -0.8060599573433735
12660490666.666666 -0.6006093571049859 -0.7995426193504361 9.367676854516967e-17 6.842990767132188e-17 9.367676854516967e-17 6.842990767132188e-17 -0.6006088186052072 -0.7995430238664322
12661108000.0 -0.6093125334589343 -0.7929301586960082 9.440668041456148e-17 6.738041073821021e-17 9.440668041456148e-17 6.738041073821021e-17 -0.609311999438746 -0.7929305690536704
12661725333.333334 -0.6179429152945188 -0.7862229667448873 9.512484466272273e-17 6.63231416441018e-17 9.512484466272273e-17 6.63231416441018e-17 -0.6179423858172816 -0.7862233828946245
12662342666.666666 -0.6264994715408355 -0.779421844804773 9.583117868406892e-17 6.525823177486304e-17 9.583117868406892e-17 6.525823177486304e-17 -0.626498946669359 -0.7794222666963043
12662960000.0 -0.6349811799468719 -0.7725276054052046 9.652560134121982e-17 6.418581339258934e-17 9.652560134121982e-17 6.418581339258934e-17 -0.6349806597434108 -0.77252803298757
12663577333.333334 -0.6433870272037495 -0.7655410722004038 9.720803297427596e-17 6.310601961920866e-17 9.720803297427596e-17 6.310601961920866e-17 -0.643386511729994 -0.7655415054219672
12664194666.666666 -0.6517160090656481 -0.7584630798709754 9.787839540991037e-17 6.201898441999011e-17 9.787839540991037e-17 6.201898441999011e-17 -0.6517154983827181 -0.7584635186794333
12664812000.0 -0.6599671304698743 -0.7512944740241213 9.853661197027624e-17 6.092484258695631e-17 9.853661197027624e-17 6.092484258695631e-17 -0.6599666246383111 -0.7512949183665069
12665429333.333334 -0.6681394056557391 -0.7440361110926119 9.918260748173194e-17 5.982372972219963e-17 9.918260748173194e-17 5.982372972219963e-17 -0.668138904735498 -0.7440365609153025
12666046666.666666 -0.6762318582822198 -0.7366888582325627 9.981630828336728e-17 5.871578222112564e-17 9.981630828336728e-17 5.871578222112564e-17 -0.6762313623326643 -0.736689313481287
12666664000.0 -0.6842435215448379 -0.7292535932196286 1.0043764223538074e-16 5.760113725554531e-17 1.0043764223538074e-16 5.760113725554531e-17 -0.6842430306247321 -0.7292540538394718
12667281333.333334 -0.6921734382908677 -0.7217312043444011 1.0104653872720004e-16 5.647993275679538e-17 1.0104653872720004e-16 5.647993275679538e-17 -0.6921729524583682 -0.7217316702798117
12667898666.666666 -0.700020661133896 -0.7141225903060933 1.0164292868549526e-16 5.535230739863412e-17 1.0164292868549526e-16 5.535230739863412e-17 -0.7000201804465466 -0.7141230615008909
12668516000.0 -0.7077842525670054 -0.7064286601051704 1.0222674458194414e-16 5.4218400580153006e-17 1.0222674458194414e-16 5.4218400580153006e-17 -0.7077837770817299 -0.7064291365025521
12669133333.333334 -0.7154632850745953 -0.6986503329349313 1.0279792044081999e-16 5.307835240858784e-17 1.0279792044081999e-16 5.307835240858784e-17 -0.7154628148476898 -0.698650814477477
12669750666.666666 -0.7230568412433941 -0.6907885380714905 1.0335639184640701e-16 5.193230368201246e-17 1.0335639184640701e-16 5.193230368201246e-17 -0.7230563763305216 -0.6907890247011723
12670368000.0 -0.7305640138719813 -0.682844214762841 1.0390209595020408e-16 5.0780395871993205e-17 1.0390209595020408e-16 5.0780395871993205e-17 -0.7305635543281647 -0.6828447064210282
