! Parameters = {f0=12700.012000; bw=77.238000; Q=6100.000000; N=10; m_0_1=1.233729; m_1_1=-0.258815; m_1_2=1.068541; m_2_2=-0.259464; m_2_3=0.705504; m_2_8=-0.001250; m_2_9=0.035454; m_3_3=-0.261401; m_3_4=0.594033; m_3_7=-0.000650; m_3_8=-0.097738; m_3_9=-0.001250; m_4_4=-0.264326; m_4_5=0.430368; m_4_6=0.002867; m_4_7=-0.118287; m_4_8=-0.000650; m_5_5=-0.263944; m_5_6=0.837723; m_5_7=0.002867; m_6_6=-0.263945; m_6_7=0.430710; m_7_7=-0.264312; m_7_8=0.594151; m_8_8=-0.261403; m_8_9=0.705817; m_9_9=-0.259469; m_9_10=1.069619; m_10_10=-0.258825; m_10_11=1.234524}
!
! Created with skrf (http://scikit-rf.org).
# Hz S RI R 50.0 
!freq ReS11 ImS11 ReS21 ImS21 ReS12 ImS12 ReS22 ImS22
12607400000.0 -0.7727136225113151 -0.6347548011518108 8.559881102235509e-17 3.6158523464223186e-17 8.559881102235509e-17 3.6158523464223186e-17 -0.7727132098785144 -0.6347553034666795
12608017333.333334 -0.7786778859024225 -0.6274238997730057 8.592300909547432e-17 3.533341137332019e-17 8.592300909547432e-17 3.533341137332019e-17 -0.7786774780551633 -0.6274244059402563
12608634666.666666 -0.7845726020248753 -0.6200369603110366 8.623926037300075e-17 3.4505406755593915e-17 8.623926037300075e-17 3.4505406755593915e-17 -0.7845721989991138 -0.6200374702850855
12609252000.0 -0.7903972443947568 -0.6125946425271835 8.65475391916104e-17 3.367458608450581e-17 8.65475391916104e-17 3.367458608450581e-17 -0.7903968462260154 -0.6125951562621123
12609869333.333334 -0.7961512927868458 -0.605097611128706 8.684782062329308e-17 3.284102605975227e-17 8.684782062329308e-17 3.284102605975227e-17 -0.7961508995102095 -0.6050981285782646
12610486666.666666 -0.8018342332808529 -0.5975465357097645 8.714008047733469e-17 3.200480360019257e-17 8.714008047733469e-17 3.200480360019257e-17 -0.8018338449309652 -0.5975470568273751
12611104000.0 -0.8074455583076461 -0.5899420906911854 8.74242953022311e-17 3.116599583675968e-17 8.74242953022311e-17 3.116599583675968e-17 -0.8074451749187095 -0.5899426154299486
12611721333.333334 -0.812984766694213 -0.582284955260729 8.770044238752651e-17 3.0324680105376903e-17 8.770044238752651e-17 3.0324680105376903e-17 -0.8129843882999819 -0.5822854835734252
12612338666.666666 -0.8184513637087245 -0.5745758133120137 8.796849976559045e-17 2.948093393983874e-17 8.796849976559045e-17 2.948093393983874e-17 -0.8184509903425042 -0.5745763451511096
12612956000.0 -0.8238448611045869 -0.5668153533836192 8.822844621333186e-17 2.86348350646616e-17 8.822844621333186e-17 2.86348350646616e-17 -0.8238444927992307 -0.5668158887012709
12613573333.333334 -0.8291647771640336 -0.5590042685976125 8.848026125382337e-17 2.7786461387982367e-17 8.848026125382337e-17 2.7786461387982367e-17 -0.8291644139519397 -0.5590048073456703
12614190666.666666 -0.8344106367411841 -0.5511432565975973 8.872392515788664e-17 2.6935890994355557e-17 8.872392515788664e-17 2.6935890994355557e-17 -0.8344102786542923 -0.5511437987276092
12614808000.0 -0.8395819713045275 -0.5432330194863318 8.895941894558337e-17 2.6083202137614904e-17 8.895941894558337e-17 2.6083202137614904e-17 -0.8395816183743164 -0.5432335649495492
12615425333.333334 -0.8446783189786576 -0.5352742637631868 8.91867243876555e-17 2.522847323366711e-17 8.91867243876555e-17 2.522847323366711e-17 -0.844677971236144 -0.5352748125105685
12616042666.666666 -0.8496992245856546 -0.5272677002608561 8.940582400688285e-17 2.4371782853316386e-17 8.940582400688285e-17 2.4371782853316386e-17 -0.8496988820613866 -0.5272682522430715
12616660000.0 -0.8546442396856073 -0.5192140440820567 8.961670107938456e-17 2.35132097150375e-17 8.961670107938456e-17 2.35132097150375e-17 -0.8546439024096659 -0.5192145992494921
12617277333.333334 -0.8595129226168118 -0.5111140145354477 8.981933963584019e-17 2.2652832677776055e-17 8.981933963584019e-17 2.2652832677776055e-17 -0.8595125906188049 -0.5111145728382085
12617894666.666666 -0.864304838535016 -0.5029683350716956 9.00137244626483e-17 2.17907307337161e-17 9.00137244626483e-17 2.17907307337161e-17 -0.8643045118440792 -0.502968896459614
12618512000.0 -0.869019559452544 -0.4947777332184021 9.019984110301927e-17 2.092698300102295e-17 9.019984110301927e-17 2.092698300102295e-17 -0.8690192380973335 -0.49477829764103765
12619129333.333334 -0.873656664276196 -0.4865429405156589 9.037767585798361e-17 2.0061668716641434e-17 9.037767585798361e-17 2.0061668716641434e-17 -0.8736563482848908 -0.4865435079223064
12619746666.666666 -0.8782157388451202 -0.47826469245027103 9.054721578735161e-17 1.9194867228999146e-17 9.054721578735161e-17 1.9194867228999146e-17 -0.8782154282454168 -0.47826526278996334
12620364000.0 -0.8826963759676891 -0.46994372839026377 9.070844871058823e-17 1.832665799076626e-17 9.070844871058823e-17 1.832665799076626e-17 -0.8826960707867986 -0.4699443016117763
12620981333.333334 -0.8870981754578505 -0.4615807915188697 9.086136320762376e-17 1.7457120551591114e-17 9.086136320762376e-17 1.7457120551591114e-17 -0.8870978757224999 -0.46158136757072665
12621598666.666666 -0.8914207441709046 -0.4531766287681051 9.100594861959566e-17 1.658633455082178e-17 9.100594861959566e-17 1.658633455082178e-17 -0.8914204499073296 -0.4531772075985819
12622216000.0 -0.8956636960386497 -0.44473199075197956 9.114219504952148e-17 1.571437971021986e-17 9.114219504952148e-17 1.571437971021986e-17 -0.8956634072725965 -0.4447325723091091
12622833333.333334 -0.8998266521037911 -0.4362476316996084 9.127009336289836e-17 1.484133582669289e-17 9.127009336289836e-17 1.484133582669289e-17 -0.8998263688605108 -0.4362482159311846
12623450666.666666 -0.9039092405538343 -0.42772430938774647 9.13896351882373e-17 1.396728276499691e-17 9.13896351882373e-17 1.396728276499691e-17 -0.903908962858084 -0.4277248962413303
12624068000.0 -0.9079110967542603 -0.41916278507318566 9.150081291752469e-17 1.3092300450453796e-17 9.150081291752469e-17 1.3092300450453796e-17 -0.9079108246302986 -0.41916337449610885
12624685333.333334 -0.9118318632811998 -0.4105638234245319 9.160361970661894e-17 1.2216468861634772e-17 9.160361970661894e-17 1.2216468861634772e-17 -0.9118315967527841 -0.41056441536390104
12625302666.666666 -0.9156711899531381 -0.401928192454371 9.169804947556805e-17 1.1339868023112228e-17 9.169804947556805e-17 1.1339868023112228e-17 -0.9156709290435259 -0.40192878685707434
12625920000.0 -0.9194287338624688 -0.393256663450083 9.178409690887086e-17 1.046257799810337e-17 9.178409690887086e-17 1.046257799810337e-17 -0.9194284785944123 -0.3932572602627933
12626537333.333334 -0.9231041594058695 -0.38455001090549573 9.186175745565493e-17 9.584678881230542e-18 9.186175745565493e-17 9.584678881230542e-18 -0.9231039098016152 -0.3845506100746759
12627154666.666666 -0.9266971383143879 -0.37580901245148135 9.193102732979581e-17 8.706250791187671e-18 9.193102732979581e-17 8.706250791187671e-18 -0.9266968943956742 -0.37580961392338896
12627772000.0 -0.9302073496828528 -0.3670344487862636 9.199190350996078e-17 7.827373863449015e-18 9.199190350996078e-17 7.827373863449015e-18 -0.9302071114709078 -0.367035052506956
12628389333.333334 -0.9336344799983103 -0.35822710360624305 9.2044383739584e-17 6.948128242992484e-18 9.2044383739584e-17 6.948128242992484e-18 -0.9336342475138513 -0.3582277095215819
12629006666.666666 -0.9369782231682706 -0.349387763535395 9.208846652677428e-17 6.0685940769751074e-18 9.208846652677428e-17 6.0685940769751074e-18 -0.9369779964314995 -0.349388371591051
12629624000.0 -0.9402382805478449 -0.3405172180555144 9.21241511441494e-17 5.188851507479269e-18 9.21241511441494e-17 5.188851507479269e-18 -0.9402380595784509 -0.3405178281969732
12630241333.333334 -0.9434143609665648 -0.3316162594353332 9.215143762860567e-17 4.308980664191584e-18 9.215143762860567e-17 4.308980664191584e-18 -0.9434141457837191 -0.331616871607899
12630858666.666666 -0.9465061807542507 -0.32268568266013237 9.217032678101371e-17 3.429061657156403e-18 9.217032678101371e-17 3.429061657156403e-18 -0.9465059713766052 -0.3226862968089332
12631476000.0 -0.9495134637665262 -0.31372628536022856 9.218082016584881e-17 2.5491745694475497e-18 9.218082016584881e-17 2.5491745694475497e-18 -0.9495132602122129 -0.3137269014302217
12632093333.333334 -0.952435941409287 -0.30473886774029896 9.218292011074845e-17 1.6693994499501384e-18 9.218292011074845e-17 1.6693994499501384e-18 -0.9524357436959165 -0.3047394856762751
12632710666.666666 -0.955273352662819 -0.29572423250753366 9.21766297060031e-17 7.89816306056637e-19 9.21766297060031e-17 7.89816306056637e-19 -0.9552731608074788 -0.2957248522541228
12633328000.0 -0.9580254441050865 -0.28668318480002497 9.216195280397692e-17 -8.94949035859057e-20 9.216195280397692e-17 -8.94949035859057e-20 -0.9580252581243375 -0.28668380630170004
12633945333.333334 -0.9606919699343494 -0.27761653211488063 9.213889401845917e-17 -9.684542763266058e-19 9.213889401845917e-17 -9.684542763266058e-19 -0.9606917898442279 -0.2776171553159638
12634562666.666666 -0.9632726919911008 -0.2685250842361871 9.210745872394716e-17 -1.8469819727483245e-18 9.210745872394716e-17 -1.8469819727483245e-18 -0.963272517807115 -0.26852570908085416
12635180000.0 -0.9657673797793906 -0.259409653162492 9.206765305485994e-17 -2.7249982239228583e-18 9.206765305485994e-17 -2.7249982239228583e-18 -0.9657672115165192 -0.2594102795947771
12635797333.333334 -0.9681758104873573 -0.25027105303447195 9.201948390468345e-17 -3.602423338620226e-18 9.201948390468345e-17 -3.602423338620226e-18 -0.9681756481600498 -0.25027168099827335
12636414666.666666 -0.9704977690071596 -0.24111010006210928 9.19629589250469e-17 -4.479177710536873e-18 9.19629589250469e-17 -4.479177710536873e-18 -0.9704976126293337 -0.24111072950119383
12637032000.0 -0.9727330479541749 -0.2319276124518468 9.189808652473047e-17 -5.3551818254976216e-18 9.189808652473047e-17 -5.3551818254976216e-18 -0.9727328975392159 -0.2319282433098551
12637649333.333334 -0.9748814476855491 -0.2227244103334004 9.18248758686042e-17 -6.230356268662114e-18 9.18248758686042e-17 -6.230356268662114e-18 -0.9748813032463073 -0.22272504255385167
12638266666.666666 -0.9769427763179795 -0.21350131568670233 9.174333687649994e-17 -7.104621731690672e-18 9.174333687649994e-17 -7.104621731690672e-18 -0.9769426378667705 -0.21350194921299956
12638884000.0 -0.9789168497449025 -0.20425915226826455 9.165348022201276e-17 -7.977899019936837e-18 9.165348022201276e-17 -7.977899019936837e-18 -0.9789167172935072 -0.20425978704370004
12639501333.333334 -0.9808034916528984 -0.19499874553780072 9.15553173312369e-17 -8.85010905958761e-18 9.15553173312369e-17 -8.85010905958761e-18 -0.9808033652125601 -0.19499938150556054
12640118666.666666 -0.9826025335374508 -0.18572092258444473 9.144886038143293e-17 -9.721172904810866e-18 9.144886038143293e-17 -9.721172904810866e-18 -0.9826024131188738 -0.18572155968761384
12640736000.0 -0.9843138147180336 -0.17642651205265553 9.133412229962197e-17 -1.0591011744919314e-17 9.133412229962197e-17 -1.0591011744919314e-17 -0.9843137003313855 -0.1764271502342234
12641353333.333334 -0.9859371823523853 -0.16711634406865505 9.121111676112613e-17 -1.1459546911415723e-17 9.121111676112613e-17 -1.1459546911415723e-17 -0.9859370740072919 -0.1671169832715201
12641970666.666666 -0.9874724914502225 -0.157791250165922 9.107985818802299e-17 -1.2326699885165032e-17 9.107985818802299e-17 -1.2326699885165032e-17 -0.9874723891557703 -0.15779189033289714
12642588000.0 -0.9889196048861791 -0.14845206321097942 9.094036174754838e-17 -1.319239230343087e-17 9.094036174754838e-17 -1.319239230343087e-17 -0.9889195086509134 -0.1484527042847972
12643205333.333334 -0.9902783934120265 -0.13909961732920495 9.079264335042245e-17 -1.4056545966965033e-17 9.079264335042245e-17 -1.4056545966965033e-17 -0.9902783032439493 -0.13910025925252215
12643822666.666666 -0.9915487356682589 -0.12973474782999245 9.063671964911349e-17 -1.4919082847045624e-17 9.063671964911349e-17 -1.4919082847045624e-17 -0.9915486515748322 -0.1297353905453961
12644440000.0 -0.9927305181948906 -0.12035829113251421 9.047260803603284e-17 -1.5779925092515153e-17 9.047260803603284e-17 -1.5779925092515153e-17 -0.9927304401830304 -0.12035893458252575
12645057333.333334 -0.9938236354416153 -0.1109710846907617 9.030032664166633e-17 -1.6638995036773845e-17 9.030032664166633e-17 -1.6638995036773845e-17 -0.9938235635176964 -0.11097172881784288
12645674666.666666 -0.9948279897772162 -0.10157396691897572 9.011989433263483e-17 -1.7496215204792252e-17 9.011989433263483e-17 -1.7496215204792252e-17 -0.9948279239470665 -0.10157461166553322
12646292000.0 -0.9957434914983216 -0.09216777711633896 8.993133070968912e-17 -1.8351508320080083e-17 8.993133070968912e-17 -1.8351508320080083e-17 -0.9957434317672251 -0.09216842242472982
12646909333.333334 -0.9965700588373594 -0.08275335539260839 8.973465610564488e-17 -1.920479731162467e-17 8.973465610564488e-17 -1.920479731162467e-17 -0.9965700052100568 -0.08275400120514531
12647526666.666666 -0.9973076179699162 -0.07333154259257274 8.95298915832455e-17 -2.0056005320825454e-17 8.95298915832455e-17 -2.0056005320825454e-17 -0.9973075704505995 -0.07333218885152869
12648144000.0 -0.9979561030212954 -0.0639031802212063 8.93170589329574e-17 -2.0905055708419332e-17 8.93170589329574e-17 -2.0905055708419332e-17 -0.9979560616136132 -0.06390382686882026
12648761333.333334 -0.9985154560724183 -0.054469110368397904 8.909618067071141e-17 -2.1751872061335125e-17 8.909618067071141e-17 -2.1751872061335125e-17 -0.998515420779472 -0.05446975734687974
12649378666.666666 -0.9989856271649802 -0.04503017563396661 8.886728003556656e-17 -2.2596378199575454e-17 8.886728003556656e-17 -2.2596378199575454e-17 -0.9989855979893247 -0.04503082288550223
12649996000.0 -0.9993665743059337 -0.03558721905203649 8.863038098731585e-17 -2.3438498183046885e-17 8.863038098731585e-17 -2.3438498183046885e-17 -0.9993665512495777 -0.03558786651879308
12650613333.333334 -0.9996582634712229 -0.026141084016053546 8.838550820402276e-17 -2.4278156318385834e-17 8.838550820402276e-17 -2.4278156318385834e-17 -0.9996582465356284 -0.026141731640184723
12651230666.666666 -0.9998606686088278 -0.01669261420334496 8.81326870795042e-17 -2.51152771657166e-17 8.81326870795042e-17 -2.51152771657166e-17 -0.9998606577949108 -0.016693261926995946
12651848000.0 -0.9999737716410961 -0.007242653499709599 8.787194372072958e-17 -2.5949785545456375e-17 8.787194372072958e-17 -2.5949785545456375e-17 -0.9999737669492229 -0.007243301265022323
12652465333.333334 -0.999997562466346 0.0022079540759250152 8.760330494517648e-17 -2.6781606545021438e-17 8.760330494517648e-17 -2.6781606545021438e-17 -0.99999756389634 0.0022073063268066425
12653082666.666666 -0.9999320389597803 0.011658364446658338 8.732679827811676e-17 -2.7610665525528964e-17 8.732679827811676e-17 -2.7610665525528964e-17 -0.9999320465109158 0.011657716771583337
12653700000.0 -0.9997772069736676 0.02110773355351679 8.704245194982354e-17 -2.843688812852102e-17 8.704245194982354e-17 -2.843688812852102e-17 -0.9997772206446731 0.02110708601032193
12654317333.333334 -0.9995330803368272 0.030555217430215297 8.675029489274588e-17 -2.926020028256368e-17 8.675029489274588e-17 -2.926020028256368e-17 -0.9995331001258847 0.03055457007671992
12654934666.666666 -0.9991996808533871 0.039999972279047245 8.64503567385887e-17 -3.008052820991645e-17 8.64503567385887e-17 -3.008052820991645e-17 -0.9991997067581314 0.039999325173048085
12655552000.0 -0.9987770383008368 0.049441154546020494 8.614266781535099e-17 -3.089779843310808e-17 8.614266781535099e-17 -3.089779843310808e-17 -0.9987770703183585 0.049440507745286584
12656169333.333334 -0.9982651904273752 0.05887792099617079 8.582725914429759e-17 -3.171193778150023e-17 8.582725914429759e-17 -3.171193778150023e-17 -0.998265228554218 0.05887727455843823
12656786666.666666 -0.9976641829485333 0.06830942878893158 8.550416243686438e-17 -3.252287339782728e-17 8.550416243686438e-17 -3.252287339782728e-17 -0.9976642271806966 0.06830878277189846
12657404000.0 -0.9969740695430876 0.0777348355534972 8.517341009150257e-17 -3.333053274470813e-17 8.517341009150257e-17 -3.333053274470813e-17 -0.9969741198760252 0.07773419001481836
12658021333.333334 -0.9961949118482748 0.08715329946388839 8.483503519046941e-17 -3.4134843611104215e-17 8.483503519046941e-17 -3.4134843611104215e-17 -0.9961949682768966 0.0871526544611704
12658638666.666666 -0.9953267794542836 0.09656397931422508 8.448907149654971e-17 -3.4935734118767265e-17 8.448907149654971e-17 -3.4935734118767265e-17 -0.9953268419729547 0.09656333490502092
12659256000.0 -0.994369749898033 0.10596603459391461 8.413555344971725e-17 -3.573313272865164e-17 8.413555344971725e-17 -3.573313272865164e-17 -0.9943698185005758 0.10596539083571871
12659873333.333334 -0.9933239086562452 0.11535862556269307 8.377451616373954e-17 -3.652696824728637e-17 8.377451616373954e-17 -3.652696824728637e-17 -0.9933239833359406 0.1153579825129362
12660490666.666666 -0.9921893491378438 0.12474091332540077 8.340599542272929e-17 -3.731716983309642e-17 8.340599542272929e-17 -3.731716983309642e-17 -0.992189429887429 0.1247402710414447
12661108000.0 -0.9909661726755481 0.13411205990741584 8.303002767760957e-17 -3.8103667002751455e-17 8.303002767760957e-17 -3.8103667002751455e-17 -0.9909662594872186 0.1341114184465483
12661725333.333334 -0.9896544885168956 0.1434712283288765 8.264665004256174e-17 -3.888638963738461e-17 8.264665004256174e-17 -3.888638963738461e-17 -0.9896545813823074 0.1434705877483062
12662342666.666666 -0.9882544138144214 0.1528175826799715 8.225590029137173e-17 -3.9665267988870286e-17 8.225590029137173e-17 -3.9665267988870286e-17 -0.9882545127246903 0.15281694303682308
12662960000.0 -0.9867660736152399 0.16215028819523292 8.185781685374572e-17 -4.044023268600448e-17 8.185781685374572e-17 -4.044023268600448e-17 -0.9867661785609437 0.16214964954654165
12663577333.333334 -0.9851896008498444 0.17146851132834606 8.145243881156165e-17 -4.1211214740662654e-17 8.145243881156165e-17 -4.1211214740662654e-17 -0.9851897118210212 0.1714678737310528
12664194666.666666 -0.983525136320263 0.18077141982637213 8.103980589505194e-17 -4.197814555394117e-17 8.103980589505194e-17 -4.197814555394117e-17 -0.9835252533064147 0.1807707833373183
12664812000.0 -0.9817728286874515 0.19005818280430556 8.061995847894675e-17 -4.274095692222633e-17 8.061995847894675e-17 -4.274095692222633e-17 -0.9817729516775433 0.19005754748022796
12665429333.333334 -0.9799328344580456 0.1993279708190871 8.019293757853935e-17 -4.3499581043264103e-17 8.019293757853935e-17 -4.3499581043264103e-17 -0.9799329634405084 0.19932733671661326
12666046666.666666 -0.9780053179703727 0.20857995594377063 7.975878484572226e-17 -4.42539505221409e-17 7.975878484572226e-17 -4.42539505221409e-17 -0.9780054529331021 0.20857932311941313
12666664000.0 -0.9759904513797515 0.21781331184155112 7.931754256492652e-17 -4.5003998377297364e-17 7.931754256492652e-17 -4.5003998377297364e-17 -0.9759905923101111 0.217812680351703
12667281333.333334 -0.9738884146431519 0.2270272138394018 7.886925364905742e-17 -4.5749658046409835e-17 7.886925364905742e-17 -4.5749658046409835e-17 -0.9738885615279752 0.22702658374033186
12667898666.666666 -0.9716993955031193 0.23622083900178714 7.841396163532327e-17 -4.649086339232138e-17 7.841396163532327e-17 -4.649086339232138e-17 -0.9716995483287052 0.2362202103496335
12668516000.0 -0.9694235894709383 0.2453933662043807 7.79517106810422e-17 -4.722754870887323e-17 7.79517106810422e-17 -4.722754870887323e-17 -0.9694237482230601 0.24539273905514775
12669133333.333334 -0.9670611998092971 0.25454397620693686 7.74825455593861e-17 -4.7959648726711004e-17 7.74825455593861e-17 -4.7959648726711004e-17 -0.9670613644731993 0.2545433506164889
12669750666.666666 -0.9646124375140066 0.26367185172695606 7.700651165506534e-17 -4.8687098619055075e-17 7.700651165506534e-17 -4.8687098619055075e-17 -0.9646126080744066 0.26367122775101276
12670368000.0 -0.9620775212952364 0.27277617751234967 7.652365495995698e-17 -4.9409834007433e-17 7.652365495995698e-17 -4.9409834007433e-17 -0.9620776977363266 0.27277555520648117
