! Parameters = {f0=12700.012000; bw=77.238000; Q=6100.000000; N=10; m_0_1=1.253949; m_1_1=0.044489; m_1_2=1.088761; m_2_2=0.043840; m_2_3=0.725724; m_2_8=-0.000239; m_2_9=0.036465; m_3_3=0.041903; m_3_4=0.614253; m_3_7=0.000361; m_3_8=-0.096727; m_3_9=-0.000239; m_4_4=0.038978; m_4_5=0.450588; m_4_6=0.003878; m_4_7=-0.117276; m_4_8=0.000361; m_5_5=0.039360; m_5_6=0.857943; m_5_7=0.003878; m_6_6=0.039359; m_6_7=0.450930; m_7_7=0.038992; m_7_8=0.614371; m_8_8=0.041901; m_8_9=0.726037; m_9_9=0.043835; m_9_10=1.089839; m_10_10=0.044479; m_10_11=1.254744}
!
! Created with skrf (http://scikit-rf.org).
# Hz S RI R 50.0 
!freq ReS11 ImS11 ReS21 ImS21 ReS12 ImS12 ReS22 ImS22
12607400000.0 -0.5077017540744453 -0.8615328948505454 7.496331892954102e-17 6.98736856911679e-17 7.496331892954102e-17 6.98736856911679e-17 -0.5077011848734602 -0.8615332302807085
12608017333.333334 -0.5163330349654044 -0.8563878776601417 7.565295469177287e-17 6.90966617211448e-17 7.565295469177287e-17 6.90966617211448e-17 -0.5163324691913513 -0.856388218776152
12608634666.666666 -0.5249121815983858 -0.8511563908057379 7.633454559142081e-17 6.831284105929449e-17 7.633454559142081e-17 6.831284105929449e-17 -0.524911619308052 -0.8511567375725965
12609252000.0 -0.5334383277352017 -0.8458389625117181 7.700802474586263e-17 6.752230690499227e-17 7.700802474586263e-17 6.752230690499227e-17 -0.5334377689850178 -0.8458393148938601
12609869333.333334 -0.5419106124890879 -0.8404361296800197 7.767332613199743e-17 6.6725143114708e-17 7.767332613199743e-17 6.6725143114708e-17 -0.5419100573351214 -0.8404364876413167
12610486666.666666 -0.550328180411653 -0.8349484378359102 7.833038459267559e-17 6.59214341931536e-17 7.833038459267559e-17 6.59214341931536e-17 -0.5503276289096041 -0.8349488013396758
12611104000.0 -0.5586901815794448 -0.8293764410727826 7.897913584308374e-17 6.511126528431181e-17 7.897913584308374e-17 6.511126528431181e-17 -0.5586896337846377 -0.8293768100817718
12611721333.333334 -0.5669957716793602 -0.8237207019964683 7.961951647697444e-17 6.429472216247853e-17 7.961951647697444e-17 6.429472216247853e-17 -0.5669952276467404 -0.8237210764728852
12612338666.666666 -0.5752441120942782 -0.8179817916681849 8.025146397284757e-17 6.347189122319031e-17 8.025146397284757e-17 6.347189122319031e-17 -0.5752435718784056 -0.8179821715736849
12612956000.0 -0.5834343699876591 -0.8121602895469164 8.087491670003645e-17 6.26428594740937e-17 8.087491670003645e-17 6.26428594740937e-17 -0.5834338336427034 -0.8121606748426113
12613573333.333334 -0.5915657183873613 -0.8062567834311062 8.148981392466775e-17 6.18077145257961e-17 8.148981392466775e-17 6.18077145257961e-17 -0.5915651859670956 -0.8062571740775665
12614190666.666666 -0.599637336269532 -0.8002718693990236 8.209609581556068e-17 6.096654458261524e-17 8.209609581556068e-17 6.096654458261524e-17 -0.5996368078273284 -0.8002722653562843
12614808000.0 -0.6076484086412092 -0.7942061517487976 8.269370345002114e-17 6.011943843328475e-17 8.269370345002114e-17 6.011943843328475e-17 -0.6076478842300325 -0.7942065529763606
12615425333.333334 -0.6155981266227921 -0.788060242937263 8.328257881953237e-17 5.926648544161265e-17 8.328257881953237e-17 5.926648544161265e-17 -0.615597606295195 -0.7880606493941023
12616042666.666666 -0.6234856875296458 -0.7818347635181699 8.386266483535893e-17 5.840777553707283e-17 8.386266483535893e-17 5.840777553707283e-17 -0.6234851713377639 -0.7818351751627366
12616660000.0 -0.6313102949530841 -0.7755303420795853 8.443390533404358e-17 5.754339920535643e-17 8.443390533404358e-17 5.754339920535643e-17 -0.6313097829486299 -0.775530758869809
12617277333.333334 -0.6390711588409352 -0.7691476151802936 8.499624508282535e-17 5.667344747884343e-17 8.499624508282535e-17 5.667344747884343e-17 -0.6390706510751938 -0.7691480370735897
12617894666.666666 -0.6467674955771395 -0.7626872272856701 8.554962978493549e-17 5.579801192705796e-17 8.554962978493549e-17 5.579801192705796e-17 -0.6467669921009628 -0.7626876542389428
12618512000.0 -0.6543985280610457 -0.7561498307024638 8.60940060848201e-17 5.491718464703305e-17 8.60940060848201e-17 5.491718464703305e-17 -0.6543980289248476 -0.7561502626721105
12619129333.333334 -0.6619634857857013 -0.749536085513081 8.662932157324053e-17 5.4031058253664853e-17 8.662932157324053e-17 5.4031058253664853e-17 -0.6619629910394523 -0.7495365224549967
12619746666.666666 -0.6694616049158003 -0.742846659508804 8.715552479229607e-17 5.313972586997972e-17 8.715552479229607e-17 5.313972586997972e-17 -0.6694611146090235 -0.7428471013783867
12620364000.0 -0.6768921283647464 -0.7360822281224244 8.767256524033256e-17 5.2243281117378036e-17 8.767256524033256e-17 5.2243281117378036e-17 -0.6768916425465112 -0.7360826748745781
12620981333.333334 -0.6842543058710283 -0.7292434743600961 8.818039337675102e-17 5.134181810583077e-17 8.818039337675102e-17 5.134181810583077e-17 -0.6842538245899472 -0.7292439259492378
12621598666.666666 -0.6915473940741277 -0.7223310887322454 8.867896062673049e-17 5.043543142400469e-17 8.867896062673049e-17 5.043543142400469e-17 -0.6915469173783483 -0.7223315451123059
12622216000.0 -0.6987706565894021 -0.7153457691839975 8.916821938582717e-17 4.952421612937959e-17 8.916821938582717e-17 4.952421612937959e-17 -0.6987701845266059 -0.7153462303084298
12622833333.333334 -0.705923364082607 -0.7082882210245512 8.964812302449609e-17 4.860826773828122e-17 8.964812302449609e-17 4.860826773828122e-17 -0.7059228967000034 -0.7082886868463343
12623450666.666666 -0.713004794343395 -0.701159156856104 9.011862589248942e-17 4.768768221590912e-17 9.011862589248942e-17 4.768768221590912e-17 -0.7130043316877149 -0.7011596273277461
12624068000.0 -0.7200142323582746 -0.6939592965018572 9.057968332316459e-17 4.6762555966298923e-17 9.057968332316459e-17 4.6762555966298923e-17 -0.7200137744757688 -0.6939597715754028
12624685333.333334 -0.7269509703829496 -0.686689366933198 9.103125163769685e-17 4.5832985822231036e-17 9.103125163769685e-17 4.5832985822231036e-17 -0.7269505173193808 -0.6866898465602304
12625302666.666666 -0.7338143080135172 -0.6793501021965563 9.147328814916093e-17 4.489906903515321e-17 9.147328814916093e-17 4.489906903515321e-17 -0.733813859814158 -0.679350586328205
12625920000.0 -0.7406035522574264 -0.6719422433390447 9.190575116654892e-17 4.396090326498364e-17 9.190575116654892e-17 4.396090326498364e-17 -0.7406031089670544 -0.6719427319259893
12626537333.333334 -0.7473180176033148 -0.6644665383337811 9.232859999864042e-17 4.3018586569967465e-17 9.232859999864042e-17 4.3018586569967465e-17 -0.7473175792662061 -0.6644670313262547
12627154666.666666 -0.7539570260901861 -0.6569237420044063 9.274179495780656e-17 4.207221739641811e-17 9.274179495780656e-17 4.207221739641811e-17 -0.7539565927501123 -0.6569242393522022
12627772000.0 -0.7605199073761061 -0.6493146159485914 9.314529736369604e-17 4.112189456844543e-17 9.314529736369604e-17 4.112189456844543e-17 -0.7605194790763325 -0.6493151176010705
12628389333.333334 -0.767005998805558 -0.6416399284615302 9.353906954679531e-17 4.0167717277703045e-17 9.353906954679531e-17 4.0167717277703045e-17 -0.7670055755888344 -0.6416404343676213
12629006666.666666 -0.7734146454766564 -0.6339004544579896 9.392307485192585e-17 3.9209785073000395e-17 9.392307485192585e-17 3.9209785073000395e-17 -0.7734142273852168 -0.6339009645661987
12629624000.0 -0.7797452003070056 -0.6260969753943992 9.429727764159708e-17 3.824819784997578e-17 9.429727764159708e-17 3.824819784997578e-17 -0.7797447873825611 -0.6260974896528116
12630241333.333334 -0.7859970240992672 -0.6182302791896593 9.466164329927174e-17 3.7283055840692084e-17 9.466164329927174e-17 3.7283055840692084e-17 -0.7859966163830036 -0.6182307975459468
12630858666.666666 -0.7921694856054508 -0.6103011601458938 9.50161382325228e-17 3.631445960321049e-17 9.50161382325228e-17 3.631445960321049e-17 -0.7921690831380243 -0.6103016825473202
12631476000.0 -0.7982619615909698 -0.6023104188678506 9.536072987609119e-17 3.534251001111276e-17 9.536072987609119e-17 3.534251001111276e-17 -0.7982615644125027 -0.6023109452612764
12632093333.333334 -0.8042738368972867 -0.5942588621824199 9.569538669481272e-17 3.43673082430602e-17 9.569538669481272e-17 3.43673082430602e-17 -0.8042734450473636 -0.5942593925143074
12632710666.666666 -0.8102045045040852 -0.5861473030571058 9.602007818646722e-17 3.3388955772250023e-17 9.602007818646722e-17 3.3388955772250023e-17 -0.8102041180217479 -0.5861478372735246
12633328000.0 -0.8160533655907399 -0.577976560517686 9.633477488450742e-17 3.2407554355874495e-17 9.633477488450742e-17 3.2407554355874495e-17 -0.8160529845144856 -0.5779770985643194
12633945333.333334 -0.8218198295965821 -0.569747459565791 9.663944836067474e-17 3.1423206024577644e-17 9.663944836067474e-17 3.1423206024577644e-17 -0.821819453964358 -0.5697480013879407
12634562666.666666 -0.8275033142805618 -0.5614608310955583 9.693407122751421e-17 3.043601307186588e-17 9.693407122751421e-17 3.043601307186588e-17 -0.827502944129761 -0.5614613766381498
12635180000.0 -0.8331032457801159 -0.5531175118096189 9.721861714078511e-17 2.9446078043484784e-17 9.721861714078511e-17 2.9446078043484784e-17 -0.8331028811475759 -0.5531180610172083
12635797333.333334 -0.8386190586690828 -0.5447183441346637 9.749306080175712e-17 2.8453503726793287e-17 9.749306080175712e-17 2.8453503726793287e-17 -0.8386186995910794 -0.5447188969514416
12636414666.666666 -0.8440501960146795 -0.5362641761365476 9.775737795939467e-17 2.7458393140131233e-17 9.775737795939467e-17 2.7458393140131233e-17 -0.8440498425269242 -0.5362647325063463
12637032000.0 -0.8493961094339249 -0.5277558614343764 9.8011545412448e-17 2.6460849522114686e-17 9.8011545412448e-17 2.6460849522114686e-17 -0.8493957615715617 -0.5277564213006745
12637649333.333334 -0.8546562591489008 -0.5191942591144822 9.825554101142034e-17 2.5460976320965386e-17 9.825554101142034e-17 2.5460976320965386e-17 -0.8546559169465021 -0.5191948224204112
12638266666.666666 -0.8598301140412232 -0.5105802336437303 9.848934366043055e-17 2.445887718380915e-17 9.848934366043055e-17 2.445887718380915e-17 -0.8598297775327867 -0.5105808003320796
12638884000.0 -0.8649171517057602 -0.5019146547820892 9.871293331897237e-17 2.3454655945935552e-17 9.871293331897237e-17 2.3454655945935552e-17 -0.8649168209247055 -0.5019152247953128
12639501333.333334 -0.8699168585033478 -0.49319839749485744 9.892629100355918e-17 2.244841662006497e-17 9.892629100355918e-17 2.244841662006497e-17 -0.8699165334825124 -0.49319897077507896
12640118666.666666 -0.8748287296125257 -0.48443234186454187 9.912939878925533e-17 2.1440263385621242e-17 9.912939878925533e-17 2.1440263385621242e-17 -0.8748284103841629 -0.4844329183535608
12640736000.0 -0.879652269080816 -0.4756173730014497 9.932223981111634e-17 2.0430300577903988e-17 9.932223981111634e-17 2.0430300577903988e-17 -0.8796519556765917 -0.4756179526407475
12641353333.333334 -0.8843869898744285 -0.4667543809549904 9.95047982654922e-17 1.9418632677387645e-17 9.95047982654922e-17 1.9418632677387645e-17 -0.8843866823254158 -0.46675496368573544
12641970666.666666 -0.8890324139276808 -0.4578442606233579 9.96770594112455e-17 1.840536429888239e-17 9.96770594112455e-17 1.840536429888239e-17 -0.8890321122643605 -0.45784484638641326
12642588000.0 -0.8935880721912166 -0.44888791166327396 9.983900957084843e-17 1.739060018074783e-17 9.983900957084843e-17 1.739060018074783e-17 -0.8935877764434699 -0.44888850039920086
12643205333.333334 -0.8980535046793339 -0.4398862383991965 9.999063613137062e-17 1.6374445174095426e-17 9.999063613137062e-17 1.6374445174095426e-17 -0.8980532148764452 -0.4398868300482636
12643822666.666666 -0.9024282605164501 -0.43084014973198853 1.0013192754536172e-16 1.5357004231957937e-17 1.0013192754536172e-16 1.5357004231957937e-17 -0.9024279766870984 -0.4308407442341753
12644440000.0 -0.9067118979826346 -0.4217505590471184 1.0026287333161706e-16 1.4338382398495308e-17 1.0026287333161706e-16 1.4338382398495308e-17 -0.9067116201548933 -0.42175115634212185
12645057333.333334 -0.9109039845581844 -0.41261838412248586 1.0038346407584092e-16 1.3318684798149898e-17 1.0038346407584092e-16 1.3318684798149898e-17 -0.9109037127595186 -0.41261898414972753
12645674666.666666 -0.9150040969672645 -0.4034445470358336 1.0049369143119597e-16 1.2298016624826192e-17 1.0049369143119597e-16 1.2298016624826192e-17 -0.9150038312245278 -0.4034451497344646
12646292000.0 -0.9190118212208073 -0.3942299740712809 1.0059354811874444e-16 1.1276483131047539e-17 1.0059354811874444e-16 1.1276483131047539e-17 -0.9190115615602392 -0.39423057938018885
12646909333.333334 -0.9229267526580708 -0.384975595626342 1.00683027927777e-16 1.0254189617142655e-17 1.00683027927777e-16 1.0254189617142655e-17 -0.9229264991052936 -0.3849762034841567
12647526666.666666 -0.9267484959876915 -0.3756823461175412 1.0076212571603548e-16 9.231241420391339e-18 1.0076212571603548e-16 9.231241420391339e-18 -0.9267482485677097 -0.37568295646264144
12648144000.0 -0.93047666532754 -0.3663511638861951 1.0083083740982249e-16 8.207743904202075e-18 1.0083083740982249e-16 8.207743904202075e-18 -0.9304764240647355 -0.3663517766567143
12648761333.333334 -0.9341108842436587 -0.3569829911037187 1.0088916000400341e-16 7.183802447274104e-18 1.0088916000400341e-16 7.183802447274104e-18 -0.9341106491617903 -0.356983606237552
12649378666.666666 -0.9376507857882362 -0.3475787736766036 1.0093709156189727e-16 6.159522432776396e-18 1.0093709156189727e-16 6.159522432776396e-18 -0.9376505569104348 -0.34757939111141267
12649996000.0 -0.9410960125367758 -0.3381394611505888 1.0097463121505859e-16 5.1350092375160656e-18 1.0097463121505859e-16 5.1350092375160656e-18 -0.941095789885544 -0.33814008082380936
12650613333.333334 -0.944446216624074 -0.32866600661507794 1.0100177916295053e-16 4.110368221108847e-18 1.0100177916295053e-16 4.110368221108847e-18 -0.9444460002212853 -0.32866662846392664
12651230666.666666 -0.947701059779379 -0.3191593666068269 1.0101853667250608e-16 3.085704715187062e-18 1.0101853667250608e-16 3.085704715187062e-18 -0.9477008496462729 -0.31915999056830613
12651848000.0 -0.9508602133606078 -0.30962050101317323 1.0102490607758246e-16 2.061124012557307e-18 1.0102490607758246e-16 2.061124012557307e-18 -0.9508600095177879 -0.30962112702407824
12652465333.333334 -0.953923358387417 -0.300050372975438 1.0102089077830399e-16 1.0367313564381227e-18 1.0102089077830399e-16 1.0367313564381227e-18 -0.9539231608548516 -0.3000510009723638
12653082666.666666 -0.956890185573472 -0.2904499487915182 1.0100649524029752e-16 1.263192965240392e-20 1.0100649524029752e-16 1.263192965240392e-20 -0.956889994370488 -0.2904505787108646
12653700000.0 -0.9597603953577253 -0.2808201978181262 1.0098172499381712e-16 -1.011069156172638e-18 1.0098172499381712e-16 -1.011069156172638e-18 -0.9597602105030105 -0.28082082959610594
12654317333.333334 -0.9625336979345298 -0.27116209237337846 1.0094658663276145e-16 -2.0342668713250975e-18 1.0094658663276145e-16 -2.0342668713250975e-18 -0.9625335194461287 -0.2711627259460224
12654934666.666666 -0.9652098132830279 -0.26147660763818326 1.0090108781358065e-16 -3.0568562788101174e-18 1.0090108781358065e-16 -3.0568562788101174e-18 -0.9652096411783407 -0.2614772429413476
12655552000.0 -0.9677884711953965 -0.2517647215578575 1.0084523725407484e-16 -4.078732545083338e-18 1.0084523725407484e-16 -4.078732545083338e-18 -0.9677883054911774 -0.2517653585272299
12656169333.333334 -0.9702694113040475 -0.24202741474371406 1.0077904473208675e-16 -5.099790950743806e-18 1.0077904473208675e-16 -5.099790950743806e-18 -0.9702692520164021 -0.24202805331482005
12656786666.666666 -0.9726523831080289 -0.23226567037360835 1.0070252108408106e-16 -6.119926901291173e-18 1.0070252108408106e-16 -6.119926901291173e-18 -0.9726522302524133 -0.23226631048181812
12657404000.0 -0.9749371459982604 -0.2224804740928871 1.0061567820361981e-16 -7.139035937797154e-18 1.0061567820361981e-16 -7.139035937797154e-18 -0.9749369995894805 -0.22248111567342202
12658021333.333334 -0.9771234692818244 -0.21267281391489543 1.0051852903972823e-16 -8.157013747578918e-18 1.0051852903972823e-16 -8.157013747578918e-18 -0.9771233293340345 -0.21267345690283476
12658638666.666666 -0.979211132205267 -0.20284368012119003 1.0041108759515353e-16 -9.173756174859091e-18 1.0041108759515353e-16 -9.173756174859091e-18 -0.9792109987319657 -0.20284432445147685
12659256000.0 -0.9811999239769257 -0.1929940651613546 1.0029336892451293e-16 -1.0189159231422489e-17 1.0029336892451293e-16 -1.0189159231422489e-17 -0.9811997969909572 -0.1929947107688028
12659873333.333334 -0.9830896437881417 -0.18312496355312563 1.0016538913234056e-16 -1.120311910719735e-17 1.0016538913234056e-16 -1.120311910719735e-17 -0.9830895233016957 -0.18312561037242703
12660490666.666666 -0.9848801008335787 -0.1732373717818106 1.0002716537102262e-16 -1.2215532180865542e-17 1.0002716537102262e-16 -1.2215532180865542e-17 -0.9848799868581857 -0.17323801974754052
12661108000.0 -0.9865711143305144 -0.16333228819947468 9.987871583862369e-17 -1.3226295030451883e-17 9.987871583862369e-17 -1.3226295030451883e-17 -0.9865710068770475 -0.16333293724609946
12661725333.333334 -0.9881625135370146 -0.15341071292461403 9.972005977661617e-17 -1.4235304443820782e-17 9.972005977661617e-17 -1.4235304443820782e-17 -0.9881624126156866 -0.15341136298649702
12662342666.666666 -0.989654137769255 -0.143473647740697 9.955121746749083e-17 -1.5242457429243793e-17 9.955121746749083e-17 -1.5242457429243793e-17 -0.9896540433896185 -0.14347429875210546
12662960000.0 -0.9910458364177048 -0.13352209599523782 9.937221023227069e-17 -1.6247651225866544e-17 9.937221023227069e-17 -1.6247651225866544e-17 -0.9910457485886511 -0.13352274789034965
12663577333.333334 -0.9923374689623283 -0.12355706249854506 9.918306042791483e-17 -1.725078331418196e-17 9.918306042791483e-17 -1.725078331418196e-17 -0.9923373876920865 -0.12355771521145538
12664194666.666666 -0.9935289049867985 -0.11357955342209704 9.89837914446202e-17 -1.8251751426454835e-17 9.89837914446202e-17 -1.8251751426454835e-17 -0.9935288302829342 -0.11358020688682471
12664812000.0 -0.9946200241916485 -0.10359057619703228 9.877442770301347e-17 -1.9250453557144728e-17 9.877442770301347e-17 -1.9250453557144728e-17 -0.9946199560610652 -0.10359123034752687
12665429333.333334 -0.9956107164064188 -0.09359113941248628 9.855499465124122e-17 -2.0246787973275126e-17 9.855499465124122e-17 -2.0246787973275126e-17 -0.9956106548553529 -0.09359179418263427
12666046666.666666 -0.9965008816007783 -0.08358225271372516 9.83255187619608e-17 -2.124065322475406e-17 9.83255187619608e-17 -2.124065322475406e-17 -0.9965008266348042 -0.08358290803735721
12666664000.0 -0.9972904298946508 -0.07356492669997572 9.808602752921132e-17 -2.2231948154731437e-17 9.808602752921132e-17 -2.2231948154731437e-17 -0.9972903815186758 -0.0735655825108729
12667281333.333334 -0.9979792815672429 -0.06354017282286595 9.783654946520214e-17 -2.3220571909827275e-17 9.783654946520214e-17 -2.3220571909827275e-17 -0.997979239785509 -0.06354082905476664
12667898666.666666 -0.9985673670651363 -0.05350900328384563 9.757711409698287e-17 -2.4206423950391744e-17 9.757711409698287e-17 -2.4206423950391744e-17 -0.9985673318812197 -0.0535096598704522
12668516000.0 -0.9990546270092978 -0.04347243093206884 9.730775196301085e-17 -2.5189404060726116e-17 9.730775196301085e-17 -2.5189404060726116e-17 -0.9990545984261069 -0.0434730878070542
12669133333.333334 -0.9994410122010549 -0.03343146916246679 9.702849460962859e-17 -2.6169412359216558e-17 9.702849460962859e-17 -2.6169412359216558e-17 -0.999440990220833 -0.033432126259481304
12669750666.666666 -0.9997264836270938 -0.02338713181294296 9.673937458742582e-17 -2.7146349308482338e-17 9.673937458742582e-17 -2.7146349308482338e-17 -0.9997264682514169 -0.023387789065621
12670368000.0 -0.9999110124633784 -0.01334043306234609 9.644042544750312e-17 -2.812011572547082e-17 9.644042544750312e-17 -2.812011572547082e-17 -0.9999110036931553 -0.013341090404312781
