! Parameters = {f0=12700.012000; bw=77.238000; Q=6100.000000; N=10; m_0_1=1.173468; m_1_1=-1.162719; m_1_2=1.008280; m_2_2=-1.163368; m_2_3=0.645243; m_2_8=-0.004263; m_2_9=0.032441; m_3_3=-1.165305; m_3_4=0.533772; m_3_7=-0.003663; m_3_8=-0.100751; m_3_9=-0.004263; m_4_4=-1.168230; m_4_5=0.370107; m_4_6=-0.000146; m_4_7=-0.121300; m_4_8=-0.003663; m_5_5=-1.167848; m_5_6=0.777462; m_5_7=-0.000146; m_6_6=-1.167849; m_6_7=0.370449; m_7_7=-1.168216; m_7_8=0.533890; m_8_8=-1.165307; m_8_9=0.645556; m_9_9=-1.163373; m_9_10=1.009358; m_10_10=-1.162729; m_10_11=1.174263}
!
! Created with skrf (http://scikit-rf.org).
# Hz S RI R 50.0 
!freq ReS11 ImS11 ReS21 ImS21 ReS12 ImS12 ReS22 ImS22
12607400000.0 -0.8219476132174641 0.5695630967030465 4.292732345011785e-17 -5.343181082503104e-17 4.292732345011785e-17 -5.343181082503104e-17 -0.8219479654448844 0.5695625883964502
12608017333.333334 -0.8175553785910183 0.5758499830135848 4.250318958849206e-17 -5.3752694773799774e-17 4.250318958849206e-17 -5.3752694773799774e-17 -0.8175557346889178 0.575849477447981
12608634666.666666 -0.8131150580854213 0.5821029997471164 4.207666309439089e-17 -5.4070217018160456e-17 4.207666309439089e-17 -5.4070217018160456e-17 -0.8131154180324772 0.5821024969519707
12609252000.0 -0.8086269128655704 0.5883217791220597 4.1647770574627783e-17 -5.4384359765716446e-17 4.1647770574627783e-17 -5.4384359765716446e-17 -0.8086272766402364 0.5883212791266722
12609869333.333334 -0.8040912069092392 0.5945059553705859 4.121653876793504e-17 -5.469510543436842e-17 4.121653876793504e-17 -5.469510543436842e-17 -0.8040915744897444 0.5945054582040883
12610486666.666666 -0.7995082069915781 0.6006551647600818 4.0782994543321005e-17 -5.500243665327662e-17 4.0782994543321005e-17 -5.500243665327662e-17 -0.7995085783559321 0.6006546704514382
12611104000.0 -0.7948781826693455 0.6067690456146623 4.0347164898381056e-17 -5.530633626383882e-17 4.0347164898381056e-17 -5.530633626383882e-17 -0.7948785577953357 0.6067685541926643
12611721333.333334 -0.7902014062652183 0.6128472383362115 3.9909076957641035e-17 -5.56067873206269e-17 3.9909076957641035e-17 -5.56067873206269e-17 -0.790201785130414 0.6128467498294791
12612338666.666666 -0.7854781528516248 0.6188893854257399 3.946875797086952e-17 -5.59037730923269e-17 3.946875797086952e-17 -5.59037730923269e-17 -0.785478535433377 0.6188888998627184
12612956000.0 -0.7807087002345787 0.6248951315043861 3.902623531138529e-17 -5.619727706266475e-17 3.902623531138529e-17 -5.619727706266475e-17 -0.7807090865100232 0.6248946489133458
12613573333.333334 -0.7758933289374306 0.6308641233342096 3.858153647437213e-17 -5.648728293130894e-17 3.858153647437213e-17 -5.648728293130894e-17 -0.7758937188834876 0.6308636437432424
12614190666.666666 -0.7710323221842964 0.6367960098390544 3.8134689075170946e-17 -5.677377461477058e-17 3.8134689075170946e-17 -5.677377461477058e-17 -0.7710327157776715 0.6367955332760723
12614808000.0 -0.7661259658834337 0.6426904421251535 3.7685720847573477e-17 -5.705673624728472e-17 3.7685720847573477e-17 -5.705673624728472e-17 -0.7661263631006217 0.6426899686178893
12615425333.333334 -0.7611745486103563 0.6485470735017397 3.723465964210953e-17 -5.733615218167845e-17 3.723465964210953e-17 -5.733615218167845e-17 -0.7611749494276396 0.6485466030777424
12616042666.666666 -0.7561783615909656 0.6543655595013027 3.6781533424319636e-17 -5.761200699023038e-17 3.6781533424319636e-17 -5.761200699023038e-17 -0.7561787659844194 0.6543650921879384
12616660000.0 -0.7511376986843541 0.6601455578999397 3.632637027303785e-17 -5.78842854655064e-17 3.632637027303785e-17 -5.78842854655064e-17 -0.7511381066298443 0.6601450937243883
12617277333.333334 -0.7460528563655354 0.6658867287374595 3.586919837865214e-17 -5.815297262119233e-17 3.586919837865214e-17 -5.815297262119233e-17 -0.7460532678387217 0.6658862677267143
12617894666.666666 -0.7409241337080292 0.6715887343373593 3.541004604136847e-17 -5.841805369290659e-17 3.541004604136847e-17 -5.841805369290659e-17 -0.7409245486843655 0.671588276518224
12618512000.0 -0.7357518323661715 0.6772512393267884 3.494894166945736e-17 -5.86795141390062e-17 3.494894166945736e-17 -5.86795141390062e-17 -0.7357522508209086 0.6772507847258764
12619129333.333334 -0.7305362565575856 0.6828739106560441 3.448591377752141e-17 -5.89373396413635e-17 3.448591377752141e-17 -5.89373396413635e-17 -0.7305366784657729 0.6828734592997776
12619746666.666666 -0.72527771304504 0.6884564176184333 3.402099098471694e-17 -5.91915161061525e-17 3.402099098471694e-17 -5.91915161061525e-17 -0.7252781383815249 0.6884559695330406
12620364000.0 -0.7199765111185169 0.6939984318695956 3.355420201300167e-17 -5.944202966460262e-17 3.355420201300167e-17 -5.944202966460262e-17 -0.7199769398579484 0.6939979870811104
12620981333.333334 -0.7146329625771233 0.6994996274467157 3.308557568537573e-17 -5.968886667374048e-17 3.308557568537573e-17 -5.968886667374048e-17 -0.7146333946939524 0.6994991859809746
12621598666.666666 -0.7092473817105932 0.7049596807878582 3.261514092409483e-17 -5.993201371712913e-17 3.261514092409483e-17 -5.993201371712913e-17 -0.7092478171790753 0.7049592426705007
12622216000.0 -0.7038200852808207 0.710378270750977 3.2142926748893743e-17 -6.017145760558589e-17 3.2142926748893743e-17 -6.017145760558589e-17 -0.7038205240750167 0.7103778360074434
12622833333.333334 -0.6983513925033102 0.7157550786327245 3.166896227520935e-17 -6.040718537788226e-17 3.166896227520935e-17 -6.040718537788226e-17 -0.6983518345970873 0.715754647288253
12623450666.666666 -0.6928416250284215 0.7210897881871755 3.119327671239423e-17 -6.06391843014343e-17 3.119327671239423e-17 -6.06391843014343e-17 -0.6928420703954559 0.7210893602668031
12624068000.0 -0.6872911069222896 0.7263820856445901 3.0715899361908966e-17 -6.086744187298544e-17 3.0715899361908966e-17 -6.086744187298544e-17 -0.687291555536067 0.726381661173149
12624685333.333334 -0.6817001646478631 0.7316316597297625 3.0236859615532476e-17 -6.109194581926428e-17 3.0236859615532476e-17 -6.109194581926428e-17 -0.6817006164816813 0.7316312387318803
12625302666.666666 -0.6760691270458301 0.7368382016802197 2.9756186953569515e-17 -6.131268409762804e-17 2.9756186953569515e-17 -6.131268409762804e-17 -0.6760695820728001 0.7368377841803168
12625920000.0 -0.6703983253150062 0.7420014052646302 2.927391094302019e-17 -6.152964489670739e-17 2.927391094302019e-17 -6.152964489670739e-17 -0.670398783508054 0.7420009912869197
12626537333.333334 -0.6646880929930615 0.747120966800623 2.8790061235785253e-17 -6.174281663701804e-17 2.8790061235785253e-17 -6.174281663701804e-17 -0.6646885543249292 0.7471205563691077
12627154666.666666 -0.6589387659369063 0.7521965851726512 2.8304667566851305e-17 -6.195218797156574e-17 2.8304667566851305e-17 -6.195218797156574e-17 -0.6589392303801545 0.7521961783111235
12627772000.0 -0.6531506823027227 0.7572279618498897 2.78177597524452e-17 -6.2157747786449e-17 2.78177597524452e-17 -6.2157747786449e-17 -0.6531511498297312 0.7572275585819296
12628389333.333334 -0.6473241825264177 0.7622148009034955 2.7329367688246024e-17 -6.23594852014196e-17 2.7329367688246024e-17 -6.23594852014196e-17 -0.6473246531093881 0.7622144012524691
12629006666.666666 -0.641459609303192 0.767156809024365 2.683952134752241e-17 -6.255738957046057e-17 2.683952134752241e-17 -6.255738957046057e-17 -0.6414600829141488 0.7671564130134237
12629624000.0 -0.6355573075677496 0.7720536955400717 2.6348250779322517e-17 -6.275145048232485e-17 2.6348250779322517e-17 -6.275145048232485e-17 -0.6355577841785423 0.7720533031921513
12630241333.333334 -0.6296176244738172 0.7769051724321299 2.5855586106619263e-17 -6.294165776107712e-17 2.5855586106619263e-17 -6.294165776107712e-17 -0.62961810405612 0.776904783769946
12630858666.666666 -0.623640909373788 0.7817109543528769 2.536155752449118e-17 -6.312800146660504e-17 2.536155752449118e-17 -6.312800146660504e-17 -0.6236413918991047 0.7817105693989287
12631476000.0 -0.617627513798066 0.7864707586423482 2.4866195298252977e-17 -6.331047189513478e-17 2.4866195298252977e-17 -6.331047189513478e-17 -0.6176279992377299 0.7864703774189138
12632093333.333334 -0.6115777914345883 0.7911843053447414 2.4369529761625867e-17 -6.348905957971543e-17 2.4369529761625867e-17 -6.348905957971543e-17 -0.6115782797597643 0.7911839278738775
12632710666.666666 -0.6054920981079369 0.7958513172249566 2.3871591314886386e-17 -6.36637552906957e-17 2.3871591314886386e-17 -6.36637552906957e-17 -0.6054925892896225 0.795850943528497
12633328000.0 -0.5993707917582033 0.8004715197850544 2.3372410422997428e-17 -6.383455003619151e-17 2.3372410422997428e-17 -6.383455003619151e-17 -0.5993712857672306 0.8004711498846081
12633945333.333334 -0.593214232420276 0.8050446412801426 2.2872017613761597e-17 -6.400143506252999e-17 2.2872017613761597e-17 -6.400143506252999e-17 -0.5932147292273142 0.8050442751970937
12634562666.666666 -0.5870227822024607 0.809570412734515 2.237044347596232e-17 -6.416440185468202e-17 2.237044347596232e-17 -6.416440185468202e-17 -0.5870232817780175 0.8095700504900214
12635180000.0 -0.5807968052652509 0.8140485679574206 2.1867718657494875e-17 -6.432344213668326e-17 2.1867718657494875e-17 -6.432344213668326e-17 -0.5807973075796741 0.8140482095724128
12635797333.333334 -0.5745366677997948 0.8184788435588048 2.1363873863501735e-17 -6.447854787203748e-17 2.1363873863501735e-17 -6.447854787203748e-17 -0.5745371728232732 0.8184784890539826
12636414666.666666 -0.5682427380065846 0.8228609789646301 2.0858939854503522e-17 -6.462971126410664e-17 2.0858939854503522e-17 -6.462971126410664e-17 -0.5682432457091515 0.8228606283604646
12637032000.0 -0.5619153860735737 0.8271947164323739 2.035294744452718e-17 -6.477692475648569e-17 2.035294744452718e-17 -6.477692475648569e-17 -0.5619158964251072 0.8271943697491043
12637649333.333334 -0.5555549841545399 0.8314798010660869 1.984592749923373e-17 -6.492018103336295e-17 1.984592749923373e-17 -6.492018103336295e-17 -0.5555554971247646 0.8314794583237188
12638266666.666666 -0.5491619063470781 0.8357159808314625 1.9337910934034214e-17 -6.505947301986804e-17 1.9337910934034214e-17 -6.505947301986804e-17 -0.5491624219055693 0.8357156420497698
12638884000.0 -0.5427365286707418 0.83990300657057 1.8828928712221982e-17 -6.519479388239997e-17 1.8828928712221982e-17 -6.519479388239997e-17 -0.5427370467869247 0.8399026717690908
12639501333.333334 -0.5362792290448304 0.8440406320165711 1.831901184308429e-17 -6.532613702894595e-17 1.831901184308429e-17 -6.532613702894595e-17 -0.5362797496879824 0.8440403012146072
12640118666.666666 -0.5297903872662332 0.8481286138081565 1.7808191380024947e-17 -6.545349610938233e-17 1.7808191380024947e-17 -6.545349610938233e-17 -0.5297909104054866 0.8481282870247729
12640736000.0 -0.5232703849868504 0.8521667115040125 1.7296498418660576e-17 -6.557686501576618e-17 1.7296498418660576e-17 -6.557686501576618e-17 -0.5232709105911939 0.8521663887580364
12641353333.333334 -0.5167196056916282 0.8561546875966621 1.6783964094973268e-17 -6.569623788259862e-17 1.6783964094973268e-17 -6.569623788259862e-17 -0.5167201337299077 0.8561543689066804
12641970666.666666 -0.5101384346755445 0.8600923075267186 1.6270619583377177e-17 -6.581160908709367e-17 1.6270619583377177e-17 -6.581160908709367e-17 -0.5101389651164663 0.8600919929110784
12642588000.0 -0.5035272590210911 0.8639793396965907 1.5756496094858558e-17 -6.592297324941461e-17 1.5756496094858558e-17 -6.592297324941461e-17 -0.5035277918332235 0.8639790291733983
12643205333.333334 -0.4968864675756309 0.8678155554840341 1.5241624875074846e-17 -6.603032523290449e-17 1.5241624875074846e-17 -6.603032523290449e-17 -0.49688700272740505 0.8678152490711519
12643822666.666666 -0.49021645092832805 0.8716007292557101 1.4726037202458183e-17 -6.61336601443012e-17 1.4726037202458183e-17 -6.61336601443012e-17 -0.4902169883880416 0.8716004269707585
12644440000.0 -0.48351760138735017 0.875334638380359 1.420976438632323e-17 -6.623297333393607e-17 1.420976438632323e-17 -6.623297333393607e-17 -0.48351814112316804 0.8753343402407141
12645057333.333334 -0.4767903129566697 0.8790170632419668 1.3692837764983319e-17 -6.632826039591611e-17 1.3692837764983319e-17 -6.632826039591611e-17 -0.47679085493662504 0.8790167692647575
12645674666.666666 -0.4700349813130376 0.8826477872525952 1.3175288703839266e-17 -6.641951716829696e-17 1.3175288703839266e-17 -6.641951716829696e-17 -0.4700355255050358 0.8826474974547056
12646292000.0 -0.46325200378246406 0.8862265968652617 1.2657148593482232e-17 -6.650673973323748e-17 1.2657148593482232e-17 -6.650673973323748e-17 -0.4632525501542829 0.8862263112633272
12646909333.333334 -0.45644177931709606 0.8897532815863589 1.2138448847813018e-17 -6.658992441713732e-17 1.2138448847813018e-17 -6.658992441713732e-17 -0.4564423278363885 0.8897530001967673
12647526666.666666 -0.44960470847165496 0.893227633988094 1.1619220902128423e-17 -6.666906779076499e-17 1.1619220902128423e-17 -6.666906779076499e-17 -0.44960525910595106 0.8932273568269842
12648144000.0 -0.4427411933798002 0.8966494497207258 1.1099496211216508e-17 -6.674416666936963e-17 1.1099496211216508e-17 -6.674416666936963e-17 -0.4427417460965085 0.8966491768039856
12648761333.333334 -0.43585163773062857 0.9000185275245062 1.0579306247476131e-17 -6.681521811277377e-17 1.0579306247476131e-17 -6.681521811277377e-17 -0.4358521924970379 0.9000182588677715
12649378666.666666 -0.4289364467448291 0.9033346692415672 1.005868249901155e-17 -6.688221942545611e-17 1.005868249901155e-17 -6.688221942545611e-17 -0.4289370035281119 0.9033344048602238
12649996000.0 -0.4219960271508759 0.9065976798275671 9.537656467717139e-18 -6.694516815661978e-17 9.537656467717139e-18 -6.694516815661978e-17 -0.4219965859180887 0.9065974197367465
12650613333.333334 -0.4150307871611051 0.90980736736316 9.016259667394533e-18 -6.700406210024201e-17 9.016259667394533e-18 -6.700406210024201e-17 -0.41503134787919116 0.9098071115777409
12651230666.666666 -0.40804113644773077 0.9129635430652722 8.494523621852588e-18 -6.705889929511134e-17 8.494523621852588e-18 -6.705889929511134e-17 -0.40804169908352145 0.9129632915998775
12651848000.0 -0.4010274861186458 0.9160660212982525 7.97247986299222e-18 -6.710967802485171e-17 7.97247986299222e-18 -6.710967802485171e-17 -0.4010280506388631 0.91606577416725
12652465333.333334 -0.39399024869337124 0.9191146195847316 7.45015992891632e-18 -6.7156396817929e-17 7.45015992891632e-18 -6.7156396817929e-17 -0.39399081506462996 0.9191143768022334
12653082666.666666 -0.3869298380788211 0.9221091586163471 6.927595362041961e-18 -6.71990544476429e-17 6.927595362041961e-18 -6.71990544476429e-17 -0.38693040626763 0.9221089201962077
12653700000.0 -0.3798466695447213 0.9250494622643889 6.404817707176733e-18 -6.723764993210717e-17 6.404817707176733e-18 -6.723764993210717e-17 -0.37984723951748545 0.9250492282202044
12654317333.333334 -0.37274115969944605 0.9279353575900444 5.881858509641636e-18 -6.727218253421176e-17 5.881858509641636e-18 -6.727218253421176e-17 -0.37274173142246925 0.9279351279351534
12654934666.666666 -0.36561372646541124 0.9307666748546202 5.3587493133659356e-18 -6.730265176157187e-17 5.3587493133659356e-18 -6.730265176157187e-17 -0.36561429990489774 0.9307664496021013
12655552000.0 -0.3584647890544136 0.933543247529554 4.835521658984749e-18 -6.732905736646245e-17 4.835521658984749e-18 -6.732905736646245e-17 -0.3584653641764695 0.9335430266922254
12656169333.333334 -0.35129476794313186 0.9362649123061446 4.312207081954849e-18 -6.735139934573706e-17 4.312207081954849e-18 -6.735139934573706e-17 -0.3512953447137679 0.9362646958965636
12656786666.666666 -0.3441040848482906 0.9389315091052013 3.78883711065232e-18 -6.736967794073285e-17 3.78883711065232e-18 -6.736967794073285e-17 -0.3441046632334241 0.9389312971356646
12657404000.0 -0.3368931627018834 0.9415428810864499 3.2654432644809903e-18 -6.738389363716062e-17 3.2654432644809903e-18 -6.738389363716062e-17 -0.3368937426673396 0.9415426735689905
12658021333.333334 -0.329662425626296 0.9440988746577539 2.7420570519801963e-18 -6.739404716498019e-17 2.7420570519801963e-18 -6.739404716498019e-17 -0.3296630071378109 0.944098671604142
12658638666.666666 -0.32241229890938894 0.9465993394841422 2.218709968935897e-18 -6.740013949826134e-17 2.218709968935897e-18 -6.740013949826134e-17 -0.32241288193261053 0.9465991409058845
12659256000.0 -0.315143208979375 0.9490441284966858 1.695433496483659e-18 -6.740217185502975e-17 1.695433496483659e-18 -6.740217185502975e-17 -0.31514379347986604 0.9490439344050252
12659873333.333334 -0.3078555833798997 0.9514330979010939 1.1722590992324675e-18 -6.740014569709859e-17 1.1722590992324675e-18 -6.740014569709859e-17 -0.3078561693231398 0.9514329083070084
12660490666.666666 -0.3005498507448153 0.9537661071862008 6.492182233729987e-19 -6.739406272988575e-17 6.492182233729987e-19 -6.739406272988575e-17 -0.3005504380962019 0.9537659221004026
12661108000.0 -0.29322644077285986 0.9560430191322624 1.2634229478582064e-19 -6.738392490221575e-17 1.2634229478582064e-19 -6.738392490221575e-17 -0.29322702949771134 0.9560428385651968
12661725333.333334 -0.2858857842026552 0.9582636998189399 -3.9633728281970543e-19 -6.7369734406108e-17 -3.9633728281970543e-19 -6.7369734406108e-17 -0.28588637426621255 0.9582635237807865
12662342666.666666 -0.2785283127871292 0.9604280186332584 -9.187891298123502e-19 -6.735149367654982e-17 -9.187891298123502e-19 -6.735149367654982e-17 -0.27852890415455767 0.9604278471339283
12662960000.0 -0.2711544592681471 0.9625358482772736 -1.4409818924958765e-18 -6.732920539125536e-17 -1.4409818924958765e-18 -6.732920539125536e-17 -0.271155051904539 0.9625356813264105
12663577333.333334 -0.26376465735119564 0.9645870647755214 -1.9628842449923335e-18 -6.730287247040973e-17 -1.9628842449923335e-18 -6.730287247040973e-17 -0.2637652512215725 0.9645869023825026
12664194666.666666 -0.2563593416797666 0.9665815474823463 -2.4844648911210303e-18 -6.727249807639887e-17 -2.4844648911210303e-18 -6.727249807639887e-17 -0.2563599367490799 0.9665813896562765
12664812000.0 -0.24893894780984424 0.9685191790889726 -3.0056925662577643e-18 -6.723808561352489e-17 -3.0056925662577643e-18 -6.723808561352489e-17 -0.248939544042979 0.9685190258386899
12665429333.333334 -0.24150391218415268 0.9703998456304495 -3.526536039210572e-18 -6.719963872770694e-17 -3.526536039210572e-18 -6.719963872770694e-17 -0.24150450954592834 0.9703996969645197
12666046666.666666 -0.23405467210678638 0.9722234364922683 -4.046964114081246e-18 -6.715716130616779e-17 -4.046964114081246e-18 -6.715716130616779e-17 -0.23405527056196002 0.9722232924189886
12666664000.0 -0.22659166571710526 0.9739898444169726 -4.5669456321373826e-18 -6.71106574771054e-17 -4.5669456321373826e-18 -6.71106574771054e-17 -0.22659226523037296 0.9739897049443693
12667281333.333334 -0.21911533196426758 0.9756989655103873 -5.0864494736528345e-18 -6.706013160935173e-17 -5.0864494736528345e-18 -6.706013160935173e-17 -0.2191159325002663 0.975698830646214
12667898666.666666 -0.21162611058130165 0.9773506992477577 -5.6054445597794635e-18 -6.700558831201546e-17 -5.6054445597794635e-18 -6.700558831201546e-17 -0.2116267121046121 0.9773505689994978
12668516000.0 -0.20412444205913186 0.9789449484796877 -6.123899854407998e-18 -6.694703243410995e-17 -6.123899854407998e-18 -6.694703243410995e-17 -0.2041250445342799 0.9789448228545514
12669133333.333334 -0.19661076762097565 0.9804816194377851 -6.641784365989502e-18 -6.688446906417084e-17 -6.641784365989502e-18 -6.688446906417084e-17 -0.19661137101243453 0.9804814984427096
12669750666.666666 -0.1890855291960028 0.9819606217402601 -7.159067149406708e-18 -6.681790352985435e-17 -7.159067149406708e-18 -6.681790352985435e-17 -0.18908613346819564 0.9819605053819114
12670368000.0 -0.1815491693936211 0.983381868397184 -7.675717307815169e-18 -6.674734139752354e-17 -7.675717307815169e-18 -6.674734139752354e-17 -0.18154977451092238 0.9833817566819528
