! Parameters = {f0=12700.012000; bw=77.238000; Q=6100.000000; N=10; m_0_1=1.186882; m_1_1=-0.961517; m_1_2=1.021694; m_2_2=-0.962166; m_2_3=0.658657; m_2_8=-0.003592; m_2_9=0.033112; m_3_3=-0.964103; m_3_4=0.547186; m_3_7=-0.002992; m_3_8=-0.100080; m_3_9=-0.003592; m_4_4=-0.967028; m_4_5=0.383521; m_4_6=0.000525; m_4_7=-0.120629; m_4_8=-0.002992; m_5_5=-0.966646; m_5_6=0.790876; m_5_7=0.000525; m_6_6=-0.966647; m_6_7=0.383863; m_7_7=-0.967014; m_7_8=0.547304; m_8_8=-0.964105; m_8_9=0.658970; m_9_9=-0.962171; m_9_10=1.022772; m_10_10=-0.961527; m_10_11=1.187677}
!
! Created with skrf (http://scikit-rf.org).
# Hz S RI R 50.0 
!freq ReS11 ImS11 ReS21 ImS21 ReS12 ImS12 ReS22 ImS22
12607400000.0 0.7549190673759666 0.6558179638528111 -6.686577179641771e-17 -3.04442991598876e-17 -6.686577179641771e-17 -3.04442991598876e-17 0.7549186571861043 0.6558184360264468
12608017333.333334 0.7601841222440652 0.6497077037313529 -6.709865695625686e-17 -2.989218358049708e-17 -6.709865695625686e-17 -2.989218358049708e-17 0.7601837158958419 0.6497081791748008
12608634666.666666 0.765399722510499 0.643555176174272 -6.732698814067156e-17 -2.933829612340205e-17 -6.732698814067156e-17 -2.933829612340205e-17 0.7653993200299732 0.6435556548562835
12609252000.0 0.7705655288687934 0.6373607814409374 -6.755075195158021e-17 -2.8782674311331975e-17 -6.755075195158021e-17 -2.8782674311331975e-17 0.7705651302817697 0.6373612633300562
12609869333.333334 0.7756812052518901 0.6311249225144105 -6.77699352997531e-17 -2.8225355767601593e-17 -6.77699352997531e-17 -2.8225355767601593e-17 0.7756808105839155 0.6311254075789737
12610486666.666666 0.780746418853918 0.6248480050753378 -6.798452540555704e-17 -2.7666378213580772e-17 -6.798452540555704e-17 -2.7666378213580772e-17 0.7807460281302826 0.6248484932834787
12611104000.0 0.7857608401520415 0.6185304374753148 -6.819450979969212e-17 -2.7105779466128266e-17 -6.819450979969212e-17 -2.7105779466128266e-17 0.7857604533977774 0.6185309287949673
12611721333.333334 0.7907241429276509 0.6121726307106341 -6.839987632388784e-17 -2.654359743506836e-17 -6.839987632388784e-17 -2.654359743506836e-17 0.7907237601675287 0.6121731251095315
12612338666.666666 0.7956360042877605 0.6057749983953227 -6.860061313159705e-17 -2.5979870120615875e-17 -6.860061313159705e-17 -2.5979870120615875e-17 0.795635625546289 0.6057754958410013
12612956000.0 0.8004961046860132 0.599337956734233 -6.879670868866079e-17 -2.5414635610815434e-17 -6.879670868866079e-17 -2.5414635610815434e-17 0.800495729987437 0.5993384571940346
12613573333.333334 0.8053041279433149 0.5928619244961708 -6.89881517739461e-17 -2.4847932078993707e-17 -6.89881517739461e-17 -2.4847932078993707e-17 0.8053037573116135 0.5928624279372438
12614190666.666666 0.810059761268574 0.5863473229864241 -6.917493147997619e-17 -2.427979778116962e-17 -6.917493147997619e-17 -2.427979778116962e-17 0.8100593947274604 0.5863478293757264
12614808000.0 0.814762695278969 0.5797945760194703 -6.935703721352915e-17 -2.3710271053489702e-17 -6.935703721352915e-17 -2.3710271053489702e-17 0.814762332851886 0.5797950853237706
12615425333.333334 0.8194126240200849 0.5732041098913769 -6.953445869621903e-17 -2.3139390309646962e-17 -6.953445869621903e-17 -2.3139390309646962e-17 0.8194122657302078 0.5732046220772586
12616042666.666666 0.8240092449858263 0.5665763533520748 -6.970718596505607e-17 -2.256719403829805e-17 -6.970718596505607e-17 -2.256719403829805e-17 0.8240088908560576 0.5665768683859367
12616660000.0 0.8285522591380914 0.5599117375774609 -6.98752093729846e-17 -2.1993720800478136e-17 -6.98752093729846e-17 -2.1993720800478136e-17 0.8285519091910616 0.55991225542552
12617277333.333334 0.8330413709262443 0.5532106961413256 -7.003851958940323e-17 -2.1419009227000084e-17 -7.003851958940323e-17 -2.1419009227000084e-17 0.8330410251843084 0.5532112167696186
12617894666.666666 0.837476288306263 0.5464736649872639 -7.019710760065465e-17 -2.0843098015882e-17 -7.019710760065465e-17 -2.0843098015882e-17 0.8374759467915012 0.5464741883616503
12618512000.0 0.8418567227599111 0.5397010824000543 -7.035096471050928e-17 -2.0266025929719365e-17 -7.035096471050928e-17 -2.0266025929719365e-17 0.8418563854941261 0.5397016084862185
12619129333.333334 0.8461823893132882 0.5328933889774776 -7.050008254061022e-17 -1.9687831793113833e-17 -7.050008254061022e-17 -1.9687831793113833e-17 0.8461820563180052 0.5328939177409312
12619746666.666666 0.85045300655553 0.5260510276014179 -7.064445303091138e-17 -1.910855449004899e-17 -7.064445303091138e-17 -1.910855449004899e-17 0.8504526778519924 0.5260515590075006
12620364000.0 0.8546682966571044 0.5191744434090441 -7.07840684400882e-17 -1.852823296128307e-17 -7.07840684400882e-17 -1.852823296128307e-17 0.8546679722662762 0.5191749774229284
12620981333.333334 0.8588279853877612 0.5122640837640746 -7.091892134592288e-17 -1.79469062017572e-17 -7.091892134592288e-17 -1.79469062017572e-17 0.8588276653303222 0.5122646203507659
12621598666.666666 0.8629318021345146 0.5053203982274278 -7.104900464567783e-17 -1.736461325796267e-17 -7.104900464567783e-17 -1.736461325796267e-17 0.8629314864308621 0.505320937351768
12622216000.0 0.8669794799191778 0.4983438385280972 -7.117431155643989e-17 -1.6781393225336103e-17 -7.117431155643989e-17 -1.6781393225336103e-17 0.8669791685894234 0.49834438015476645
12622833333.333334 0.8709707554157597 0.4913348585337161 -7.129483561544698e-17 -1.6197285245638238e-17 -7.129483561544698e-17 -1.6197285245638238e-17 0.8709704484797283 0.4913354026272352
12623450666.666666 0.8749053689675388 0.484293914221128 -7.141057068039074e-17 -1.561232850434287e-17 -7.141057068039074e-17 -1.561232850434287e-17 0.8749050664447671 0.4842944607458606
12624068000.0 0.8787830646040258 0.47722146364660006 -7.152151092970125e-17 -1.5026562228005607e-17 -7.152151092970125e-17 -1.5026562228005607e-17 0.8787827665137624 0.47722201256675534
12624685333.333334 0.8826035900576293 0.4701179669159972 -7.162765086280872e-17 -1.444002568163896e-17 -7.162765086280872e-17 -1.444002568163896e-17 0.8826032964188324 0.4701185181956321
12625302666.666666 0.8863666967799312 0.46298388615510033 -7.172898530037963e-17 -1.38527581661085e-17 -7.172898530037963e-17 -1.38527581661085e-17 0.8863664076112678 0.46298443975812203
12625920000.0 0.8900721399580601 0.45581968547916685 -7.182550938454092e-17 -1.3264799015476506e-17 -7.182550938454092e-17 -1.3264799015476506e-17 0.8900718552779031 0.4558202413693339
12626537333.333334 0.893719678530425 0.4486258309630858 -7.191721857907174e-17 -1.2676187594403719e-17 -7.191721857907174e-17 -1.2676187594403719e-17 0.8937193983568563 0.44862638910401303
12627154666.666666 0.8973090752024887 0.4414027906109113 -7.200410866958153e-17 -1.2086963295509253e-17 -7.200410866958153e-17 -1.2086963295509253e-17 0.8973087995532926 0.4414033509660695
12627772000.0 0.9008400964622707 0.4341510343252588 -7.208617576366591e-17 -1.1497165536729576e-17 -7.208617576366591e-17 -1.1497165536729576e-17 0.9008398253549371 0.43415159685797894
12628389333.333334 0.904312512595368 0.4268710338770939 -7.21634162910351e-17 -1.0906833758717886e-17 -7.21634162910351e-17 -1.0906833758717886e-17 0.9043122460470882 0.4268715985505681
12629006666.666666 0.9077260977000818 0.4195632628746559 -7.223582700362948e-17 -1.031600742218347e-17 -7.223582700362948e-17 -1.031600742218347e-17 0.9077258357277506 0.4195638296519418
12629624000.0 0.911080629701983 0.4122281967329303 -7.230340497570656e-17 -9.724726005284222e-18 -7.230340497570656e-17 -9.724726005284222e-18 0.911080372322195 0.41222876557695165
12630241333.333334 0.9143758903684293 0.4048663126425651 -7.23661476039106e-17 -9.13302900098399e-18 -7.23661476039106e-17 -9.13302900098399e-18 0.9143756375974783 0.40486688351611455
12630858666.666666 0.9176116653226938 0.397478089538982 -7.242405260731856e-17 -8.540955914434773e-18 -7.242405260731856e-17 -8.540955914434773e-18 0.9176114171765724 0.397478662404724
12631476000.0 0.9207877440580351 0.3900640080709321 -7.247711802746756e-17 -7.948546260324009e-18 -7.247711802746756e-17 -7.948546260324009e-18 0.9207875005524349 0.39006458289140594
12632093333.333334 0.9239039199512488 0.3826245505695675 -7.252534222835623e-17 -7.355839560273861e-18 -7.252534222835623e-17 -7.355839560273861e-18 0.9239036811015556 0.38262512730718773
12632710666.666666 0.9269599902761733 0.37516020101690367 -7.256872389642949e-17 -6.7628753401915695e-18 -7.256872389642949e-17 -6.7628753401915695e-18 0.9269597560974705 0.3751607796339647
12633328000.0 0.929955756216936 0.3676714450142046 -7.260726204053917e-17 -6.169693127643197e-18 -7.260726204053917e-17 -6.169693127643197e-18 0.9299555267240015 0.3676720254728822
12633945333.333334 0.9328910228807876 0.3601587697506261 -7.264095599188307e-17 -5.576332449236579e-18 -7.264095599188307e-17 -5.576332449236579e-18 0.9328907980880919 0.36015935201297944
12634562666.666666 0.9357655993108356 0.3526226639713905 -7.266980540392435e-17 -4.982832827986816e-18 -7.266980540392435e-17 -4.982832827986816e-18 0.9357653792325427 0.35262324799936545
12635180000.0 0.9385792984984543 0.34506361794601637 -7.269381025228799e-17 -4.389233780693278e-18 -7.269381025228799e-17 -4.389233780693278e-18 0.9385790831484219 0.3450642037014483
12635797333.333334 0.9413319373954678 0.3374821234363989 -7.271297083463679e-17 -3.7955748153139825e-18 -7.271297083463679e-17 -3.7955748153139825e-18 0.9413317267872413 0.33748271088101317
12636414666.666666 0.9440233369260098 0.32987867366492146 -7.272728777052536e-17 -3.201895428351907e-18 -7.272728777052536e-17 -3.201895428351907e-18 0.9440231310728262 0.32987926276033813
12637032000.0 0.9466533219982384 0.32225376328221084 -7.273676200123349e-17 -2.608235102222379e-18 -7.273676200123349e-17 -2.608235102222379e-18 0.9466531209130242 0.32225435398994606
12637649333.333334 0.9492217215156848 0.3146078883350623 -7.274139478957771e-17 -2.014633302643152e-18 -7.274139478957771e-17 -2.014633302643152e-18 0.9492215252110561 0.31460848061653157
12638266666.666666 0.9517283683883965 0.30694154623414355 -7.274118771970162e-17 -1.421129476016234e-18 -7.274118771970162e-17 -1.421129476016234e-18 0.9517281768766568 0.30694214005066356
12638884000.0 0.9541730995438068 0.29925523572163426 -7.273614269684506e-17 -8.27763046814115e-19 -7.273614269684506e-17 -8.27763046814115e-19 0.9541729128369458 0.29925583103442555
12639501333.333334 0.95655575593735 0.29154945683875255 -7.272626194709212e-17 -2.345734149663949e-19 -7.272626194709212e-17 -2.345734149663949e-19 0.9565555740470439 0.29155005360894204
12640118666.666666 0.95887618256276 0.2838247108933879 -7.271154801709776e-17 3.5840004673646873e-19 -7.271154801709776e-17 3.5840004673646873e-19 0.9588760055003707 0.2838253090820114
12640736000.0 0.9611342284622869 0.27608150042705243 -7.269200377379302e-17 9.51117995282056e-19 -7.269200377379302e-17 9.51117995282056e-19 0.9611340562388606 0.27608209999505745
12641353333.333334 0.9633297467363181 0.26832032918284027 -7.266763240407008e-17 1.5435411199892215e-18 -7.266763240407008e-17 1.5435411199892215e-18 0.9633295793625876 0.26832093009108876
12641970666.666666 0.9654625945531121 0.26054170207208593 -7.263843741444466e-17 2.1356301451511558e-18 -7.263843741444466e-17 2.1356301451511558e-18 0.9654624320394907 0.26054230428135594
12642588000.0 0.9675326331580032 0.2527461251417872 -7.260442263069864e-17 2.727345832611058e-18 -7.260442263069864e-17 2.727345832611058e-18 0.9675324755145877 0.2527467286127761
12643205333.333334 0.9695397278824391 0.24493410554165726 -7.256559219750112e-17 3.3186489843570244e-18 -7.256559219750112e-17 3.3186489843570244e-18 0.9695395751190101 0.2449347102349846
12643822666.666666 0.9714837481527743 0.23710615149102257 -7.252195057800754e-17 3.9095004451194226e-18 -7.252195057800754e-17 3.9095004451194226e-18 0.971483600278792 0.23710675736723164
12644440000.0 0.9733645674987221 0.2292627722458959 -7.247350255343977e-17 4.49986110494589e-18 -7.247350255343977e-17 4.49986110494589e-18 0.9733644245233279 0.22926337926545698
12645057333.333334 0.9751820635615934 0.22140447806581934 -7.242025322264384e-17 5.0896919017846595e-18 -7.242025322264384e-17 5.0896919017846595e-18 0.9751819254936123 0.22140508618913304
12645674666.666666 0.9769361181022638 0.21353178018067095 -7.236220800162721e-17 5.67895382406166e-18 -7.236220800162721e-17 5.67895382406166e-18 0.9769359849501963 0.21353238936806876
12646292000.0 0.9786266170088971 0.20564519075720875 -7.229937262307338e-17 6.267607913267592e-18 -7.229937262307338e-17 6.267607913267592e-18 0.9786264887809252 0.20564580096895738
12646909333.333334 0.9802534503042964 0.19774522286611368 -7.223175313583999e-17 6.855615266499422e-18 -7.223175313583999e-17 6.855615266499422e-18 0.9802533270082817 0.19774583406241725
12647526666.666666 0.9818165121531204 0.18983239044833383 -7.215935590443139e-17 7.442937039044428e-18 -7.215935590443139e-17 7.442937039044428e-18 0.9818163937966018 0.18983300258933605
12648144000.0 0.9833157008687564 0.18190720828167592 -7.208218760845227e-17 8.02953444693672e-18 -7.208218760845227e-17 8.02953444693672e-18 0.9833155874589514 0.18190782132746308
12648761333.333334 0.9847509189199178 0.17397019194742833 -7.200025524204202e-17 8.615368769502671e-18 -7.200025524204202e-17 8.615368769502671e-18 0.98475081046372 0.17397080585803149
12649378666.666666 0.9861220729369868 0.16602185779681863 -7.19135661132872e-17 9.200401351907263e-18 -7.19135661132872e-17 9.200401351907263e-18 0.9861219694409691 0.16602247253221686
12649996000.0 0.9874290737181183 0.15806272291728318 -7.182212784361121e-17 9.784593607715501e-18 -7.182212784361121e-17 9.784593607715501e-18 0.987428975188529 0.15806333843740566
12650613333.333334 0.9886718362350234 0.1500933050989104 -7.172594836714737e-17 1.0367907021411484e-17 -7.172594836714737e-17 1.0367907021411484e-17 0.988671742677787 0.15009392136363903
12651230666.666666 0.9898502796384854 0.14211412280086783 -7.162503593009018e-17 1.0950303150930227e-17 -7.162503593009018e-17 1.0950303150930227e-17 0.9898501910592025 0.14211473977004016
12651848000.0 0.9909643272636626 0.13412569511739264 -7.151939909002258e-17 1.1531743630201906e-17 -7.151939909002258e-17 1.1531743630201906e-17 0.9909642436676105 0.13412631275080433
12652465333.333334 0.9920139066350384 0.12612854174427413 -7.140904671522821e-17 1.2112190171653372e-17 -7.140904671522821e-17 1.2112190171653372e-17 0.9920138280271685 0.1261291600016815
12653082666.666666 0.9929989494711351 0.1181231829450444 -7.129398798398153e-17 1.2691604568721916e-17 -7.129398798398153e-17 1.2691604568721916e-17 0.9929988758560748 0.11812380178616717
12653700000.0 0.9939193916889976 0.11011013951685067 -7.117423238381254e-17 1.3269948698382781e-17 -7.117423238381254e-17 1.3269948698382781e-17 0.9939193230710475 0.11011075890137434
12654317333.333334 0.9947751734083056 0.10208993275696843 -7.104978971076144e-17 1.384718452362168e-17 -7.104978971076144e-17 1.384718452362168e-17 0.9947751097914429 0.10209055264454732
12654934666.666666 0.9955662389553115 0.09406308442860631 -7.092067006860294e-17 1.442327409594904e-17 -7.092067006860294e-17 1.442327409594904e-17 0.9955661803431856 0.09406370477886575
12655552000.0 0.9962925368664531 0.08603011672696155 -7.078688386805482e-17 1.499817955788727e-17 -7.078688386805482e-17 1.499817955788727e-17 0.9962924832623896 0.0860307374995009
12656169333.333334 0.9969540198916816 0.07799155224550296 -7.064844182597016e-17 1.5571863145432875e-17 -7.064844182597016e-17 1.5571863145432875e-17 0.996953971298679 0.07799217339989793
12656786666.666666 0.9975506449975624 0.06994791394169002 -7.050535496450135e-17 1.6144287190549598e-17 -7.050535496450135e-17 1.6144287190549598e-17 0.9975506014182921 0.06994853543749543
12657404000.0 0.9980823733700583 0.06189972510309272 -7.035763461025063e-17 1.671541412362409e-17 -7.035763461025063e-17 1.671541412362409e-17 0.9980823348068667 0.061900346899845166
12658021333.333334 0.9985491704170614 0.05384750931329187 -7.02052923933977e-17 1.7285206475928102e-17 -7.02052923933977e-17 1.7285206475928102e-17 0.9985491368719676 0.0538481313705123
12658638666.666666 0.9989510057706361 0.045791790417958854 -7.004834024681088e-17 1.7853626882059097e-17 -7.004834024681088e-17 1.7853626882059097e-17 0.9989509772453317 0.045792412695155174
12659256000.0 0.999287853289007 0.0377330924904922 -6.988679040513108e-17 1.8420638082402877e-17 -6.988679040513108e-17 1.8420638082402877e-17 0.9992878297848592 0.03773371494716208
12659873333.333334 0.9995596910582478 0.029671939798179066 -6.972065540384526e-17 1.8986202925550372e-17 -6.972065540384526e-17 1.8986202925550372e-17 0.999559672576296 0.029672562393812375
12660490666.666666 0.9997665013937118 0.021608856768088575 -6.954994807833675e-17 1.9550284370724386e-17 -6.954994807833675e-17 1.9550284370724386e-17 0.9997664879346685 0.021609479462170105
12661108000.0 0.9999082708411853 0.013544367952670389 -6.937468156290899e-17 2.011284549021751e-17 -6.937468156290899e-17 2.011284549021751e-17 0.9999082624054353 0.013544990704682463
12661725333.333334 0.9999849901777553 0.005478997996027236 -6.919486928980467e-17 2.0673849471774512e-17 -6.919486928980467e-17 2.0673849471774512e-17 0.9999849867653585 0.005479620765452386
12662342666.666666 0.9999966544124174 -0.002586728400528932 -6.901052498819024e-17 2.123325962101516e-17 -6.901052498819024e-17 2.123325962101516e-17 0.999996656023105 -0.002586105654205373
12662960000.0 0.9999432627863958 -0.010652286512469899 -6.88216626831306e-17 2.1791039363816864e-17 -6.88216626831306e-17 2.1791039363816864e-17 0.9999432694195731 -0.010651663829757132
12663577333.333334 0.9998248187731928 -0.018717151626216084 -6.862829669454124e-17 2.234715224870022e-17 -6.862829669454124e-17 2.234715224870022e-17 0.9998248304279392 -0.018716529047615234
12664194666.666666 0.9996413300783659 -0.026780799073272396 -6.843044163612161e-17 2.2901561949203504e-17 -6.843044163612161e-17 2.2901561949203504e-17 0.9996413467534325 -0.026780176639273835
12664812000.0 0.9993928086390228 -0.034842704264361056 -6.822811241426933e-17 2.3454232266247864e-17 -6.822811241426933e-17 2.3454232266247864e-17 0.9993928303328359 -0.034842082015441825
12665429333.333334 0.9990792706230449 -0.042902342723577694 -6.802132422697468e-17 2.4005127130495102e-17 -6.802132422697468e-17 2.4005127130495102e-17 0.9990792973337046 -0.0429017207001989
12666046666.666666 0.9987007364280447 -0.05095919012236991 -6.781009256270085e-17 2.455421060468451e-17 -6.781009256270085e-17 2.455421060468451e-17 0.9987007681533239 -0.05095856836497396
12666664000.0 0.99825723068002 -0.05901272231396009 -6.759443319923379e-17 2.5101446885988542e-17 -6.759443319923379e-17 2.5101446885988542e-17 0.9982572674173658 -0.05901210086296817
12667281333.333334 0.9977487822317722 -0.06706241536704698 -6.737436220252838e-17 2.5646800308320502e-17 -6.737436220252838e-17 2.5646800308320502e-17 0.9977488239783066 -0.06706179426285644
12667898666.666666 0.9971754241610176 -0.0751077456001746 -6.714989592552476e-17 2.6190235344660954e-17 -6.714989592552476e-17 2.6190235344660954e-17 0.9971754709135364 -0.07510712488315625
12668516000.0 0.9965371937682316 -0.0831481896158007 -6.692105100695026e-17 2.6731716609362348e-17 -6.692105100695026e-17 2.6731716609362348e-17 0.9965372455232046 -0.08314756932629622
12669133333.333334 0.9958341325742386 -0.09118322433409165 -6.668784437010275e-17 2.7271208860445582e-17 -6.668784437010275e-17 2.7271208860445582e-17 0.995834189327812 -0.09118260451241102
12669750666.666666 0.9950662863174935 -0.09921232702723563 -6.64502932216145e-17 2.780867700188569e-17 -6.64502932216145e-17 2.780867700188569e-17 0.9950663480654883 -0.09921170771365449
12670368000.0 0.9942337049511131 -0.10723497535333593 -6.620841505019787e-17 2.8344086085889266e-17 -6.620841505019787e-17 2.8344086085889266e-17 0.9942337716890255 -0.10723435658809286
