! Parameters = {f0=12700.012000; bw=77.238000; Q=6100.000000; N=10; m_0_1=1.151046; m_1_1=-1.499055; m_1_2=0.985858; m_2_2=-1.499704; m_2_3=0.622821; m_2_8=-0.005384; m_2_9=0.031320; m_3_3=-1.501641; m_3_4=0.511350; m_3_7=-0.004784; m_3_8=-0.101872; m_3_9=-0.005384; m_4_4=-1.504566; m_4_5=0.347685; m_4_6=-0.001267; m_4_7=-0.122421; m_4_8=-0.004784; m_5_5=-1.504184; m_5_6=0.755040; m_5_7=-0.001267; m_6_6=-1.504185; m_6_7=0.348027; m_7_7=-1.504552; m_7_8=0.511468; m_8_8=-1.501643; m_8_9=0.623134; m_9_9=-1.499709; m_9_10=0.986936; m_10_10=-1.499065; m_10_11=1.151841}
!
! Created with skrf (http://scikit-rf.org).
# Hz S RI R 50.0 
!freq ReS11 ImS11 ReS21 ImS21 ReS12 ImS12 ReS22 ImS22
12607400000.0 -0.9309214900432317 -0.365219357887207 6.065845000263982e-17 5.220929633061438e-18 6.065845000263982e-17 5.220929633061438e-18 -0.9309212684870024 -0.36521992261978914
12608017333.333334 -0.9334574768124325 -0.35868808034673 6.068207630358957e-17 4.789489114257601e-18 6.068207630358957e-17 4.789489114257601e-18 -0.9334572592289825 -0.35868864659000627
12608634666.666666 -0.9359476412593211 -0.3521391952353051 6.070263750043999e-17 4.3579764140933796e-18 6.070263750043999e-17 4.3579764140933796e-18 -0.9359474276589423 -0.35213976296133315
12609252000.0 -0.9383918611446969 -0.34557302403001205 6.072013375900299e-17 3.92641328284157e-18 6.072013375900299e-17 3.92641328284157e-18 -0.9383916515374837 -0.3455735932107788
12609869333.333334 -0.9407900164847627 -0.3389898890563769 6.073456539925296e-17 3.494821464794584e-18 6.073456539925296e-17 3.494821464794584e-18 -0.9407898108806133 -0.33899045966380104
12610486666.666666 -0.9431419895569373 -0.33239011347276387 6.074593289525057e-17 3.06322269717132e-18 6.074593289525057e-17 3.06322269717132e-18 -0.9431417879655518 -0.33239068547869643
12611104000.0 -0.9454476649057099 -0.32577402125429705 6.075423687505881e-17 2.631638709014431e-18 6.075423687505881e-17 2.631638709014431e-18 -0.9454474673365905 -0.32577459463052333
12611721333.333334 -0.9477069293482336 -0.31914193717717193 6.075947812065044e-17 2.200091220121274e-18 6.075947812065044e-17 2.200091220121274e-18 -0.9477067358106842 -0.31914251189541265
12612338666.666666 -0.9499196719799442 -0.31249418680252367 6.076165756780868e-17 1.7686019399446407e-18 6.076165756780868e-17 1.7686019399446407e-18 -0.9499194824830705 -0.31249476283443683
12612956000.0 -0.9520857841799798 -0.3058310964605277 6.076077630602018e-17 1.337192566494448e-18 6.076077630602018e-17 1.337192566494448e-18 -0.9520855987326875 -0.30583167377770903
12613573333.333334 -0.9542051596164834 -0.29915299323446 6.075683557835956e-17 9.058847852715136e-19 6.075683557835956e-17 9.058847852715136e-19 -0.9542049782274793 -0.29915357180844543
12614190666.666666 -0.9562776942518864 -0.2924602049444531 6.0749836781367e-17 4.747002681695692e-19 6.0749836781367e-17 4.747002681695692e-19 -0.9562775169296768 -0.29246078474671944
12614808000.0 -0.9583032863479448 -0.2857530601316196 6.073978146491776e-17 4.366067238874619e-20 6.073978146491776e-17 4.366067238874619e-20 -0.9583031131008356 -0.2857536411335862
12615425333.333334 -0.9602818364707933 -0.2790318880417347 6.072667133208414e-17 -3.8721236064458694e-19 6.072667133208414e-17 -3.8721236064458694e-19 -0.9602816673068907 -0.279032470214765
12616042666.666666 -0.9622132474958042 -0.2722970186091563 6.071050823899017e-17 -8.178972063550553e-19 6.071050823899017e-17 -8.178972063550553e-19 -0.9622130824230098 -0.2722976019245583
12616660000.0 -0.9640974246123226 -0.2655487824407083 6.069129419465774e-17 -1.2483722581097656e-18 6.069129419465774e-17 -1.2483722581097656e-18 -0.964097263638341 -0.265549366869738
12617277333.333334 -0.9659342753283866 -0.2587875107992636 6.066903136084615e-17 -1.6786159282929371e-18 6.066903136084615e-17 -1.6786159282929371e-18 -0.965934118460718 -0.25878809631312427
12617894666.666666 -0.9677237094752015 -0.25201353558769984 6.064372205188357e-17 -2.1086066493791594e-18 6.064372205188357e-17 -2.1086066493791594e-18 -0.967723556721142 -0.2520141221575441
12618512000.0 -0.9694656392116188 -0.24522718933238613 6.061536873449031e-17 -2.538322875022451e-18 6.061536873449031e-17 -2.538322875022451e-18 -0.9694654905782666 -0.24522777692931869
12619129333.333334 -0.9711599790284057 -0.2384288051670832 6.058397402759598e-17 -2.9677430811179947e-18 6.058397402759598e-17 -2.9677430811179947e-18 -0.9711598345226515 -0.23842939376216
12619746666.666666 -0.9728066457524764 -0.2316187168163937 6.054954070214746e-17 -3.3968457668881607e-18 6.054954070214746e-17 -3.3968457668881607e-18 -0.9728065053810101 -0.23161930638062517
12620364000.0 -0.9744055585509623 -0.2247972585794646 6.051207168090995e-17 -3.825609455949704e-18 6.051207168090995e-17 -3.825609455949704e-18 -0.9744054223202706 -0.22479784908381653
12620981333.333334 -0.9759566389351614 -0.21796476531366027 6.047157003826153e-17 -4.254012697379366e-18 6.047157003826153e-17 -4.254012697379366e-18 -0.975956506851525 -0.21796535672905468
12621598666.666666 -0.9774598107644309 -0.2111215724179296 6.042803899997795e-17 -4.682034066793205e-18 6.042803899997795e-17 -4.682034066793205e-18 -0.9774596828339283 -0.21112216471524703
12622216000.0 -0.9789150002498785 -0.2042680158165643 6.038148194301146e-17 -5.109652167408701e-18 6.038148194301146e-17 -5.109652167408701e-18 -0.9789148764783826 -0.20426860896664464
12622833333.333334 -0.9803221359580329 -0.19740443194248655 6.033190239526251e-17 -5.536845631106843e-18 6.033190239526251e-17 -5.536845631106843e-18 -0.9803220163512126 -0.19740502591613088
12623450666.666666 -0.9816811488143019 -0.19053115772095613 6.027930403534251e-17 -5.963593119499137e-18 6.027930403534251e-17 -5.963593119499137e-18 -0.9816810333776208 -0.1905317524889277
12624068000.0 -0.9829919721064044 -0.18364853055283645 6.022369069232967e-17 -6.38987332499276e-18 6.022369069232967e-17 -6.38987332499276e-18 -0.9829918608451214 -0.18364912608586267
12624685333.333334 -0.9842545414876291 -0.1767568882981157 6.016506634551772e-17 -6.815664971846853e-18 6.016506634551772e-17 -6.815664971846853e-18 -0.9842544344067959 -0.17675748456688892
12625302666.666666 -0.9854687949799729 -0.16985656925940457 6.010343512415797e-17 -7.240946817223435e-18 6.010343512415797e-17 -7.240946817223435e-18 -0.9854686920844374 -0.16985716623458433
12625920000.0 -0.9866346729772265 -0.1629479121651353 6.003880130719041e-17 -7.665697652261827e-18 6.003880130719041e-17 -7.665697652261827e-18 -0.9866345742716299 -0.16294850981734899
12626537333.333334 -0.9877521182478581 -0.15603125615312805 5.997116932297288e-17 -8.089896303110001e-18 5.997116932297288e-17 -8.089896303110001e-18 -0.9877520237366371 -0.15603185445297305
12627154666.666666 -0.9888210759378416 -0.14910694075388883 5.990054374899844e-17 -8.51352163198792e-18 5.990054374899844e-17 -8.51352163198792e-18 -0.9888209856252234 -0.1491075396719332
12627772000.0 -0.9898414935733758 -0.1421753058737161 5.982692931160561e-17 -8.936552538239989e-18 5.982692931160561e-17 -8.936552538239989e-18 -0.9898414074633823 -0.14217590538050054
12628389333.333334 -0.9908133210633858 -0.13523669177852168 5.975033088568527e-17 -9.358967959370136e-18 5.975033088568527e-17 -9.358967959370136e-18 -0.9908132391598351 -0.1352372918445613
12629006666.666666 -0.9917365107020748 -0.12829143907653756 5.967075349437437e-17 -9.780746872098112e-18 5.967075349437437e-17 -9.780746872098112e-18 -0.9917364330085744 -0.12829203967232233
12629624000.0 -0.9926110171711996 -0.12133988870198834 5.958820230874708e-17 -1.0201868293394932e-17 5.958820230874708e-17 -1.0201868293394932e-17 -0.9926109436911525 -0.12134048979798553
12630241333.333334 -0.9934367975423167 -0.11438238189827224 5.950268264749601e-17 -1.0622311281525962e-17 5.950268264749601e-17 -1.0622311281525962e-17 -0.9934367282789165 -0.11438298346492712
12630858666.666666 -0.994213811278885 -0.10741926020118046 5.941419997660814e-17 -1.1042054937081387e-17 5.941419997660814e-17 -1.1042054937081387e-17 -0.9942137462351202 -0.1074198622089184
12631476000.0 -0.9949420202382734 -0.10045086542204801 5.932275990903007e-17 -1.1461078404022744e-17 5.932275990903007e-17 -1.1461078404022744e-17 -0.9949419594169242 -0.10045146784127545
12632093333.333334 -0.9956213886736078 -0.09347753963114307 5.922836820433054e-17 -1.1879360870703225e-17 5.922836820433054e-17 -1.1879360870703225e-17 -0.995621332077247 -0.0934781424322492
12632710666.666666 -0.9962518832355367 -0.08649962514081938 5.913103076835238e-17 -1.2296881570902237e-17 5.913103076835238e-17 -1.2296881570902237e-17 -0.9962518308665287 -0.08650022829417746
12633328000.0 -0.9968334729738828 -0.07951746448851404 5.903075365285747e-17 -1.2713619784855535e-17 5.903075365285747e-17 -1.2713619784855535e-17 -0.9968334248343858 -0.07951806796448306
12633945333.333334 -0.9973661293391334 -0.07253140042030094 5.892754305516634e-17 -1.3129554840274236e-17 5.892754305516634e-17 -1.3129554840274236e-17 -0.9973660854310967 -0.0725320041892269
12634562666.666666 -0.9978498261838652 -0.06554177587375427 5.88214053177893e-17 -1.354466611336782e-17 5.88214053177893e-17 -1.354466611336782e-17 -0.99784978650903 -0.06554237990597162
12635180000.0 -0.998284539764019 -0.058548933961227165 5.871234692804996e-17 -1.3958933029864127e-17 5.871234692804996e-17 -1.3958933029864127e-17 -0.9982845043239194 -0.058549538227060424
12635797333.333334 -0.9986702487400628 -0.05155321795306578 5.860037451770383e-17 -1.4372335066020023e-17 5.860037451770383e-17 -1.4372335066020023e-17 -0.9986702175360247 -0.05155382242283088
12636414666.666666 -0.9990069341780439 -0.04455497126070175 5.848549486254722e-17 -1.478485174963727e-17 5.848549486254722e-17 -1.478485174963727e-17 -0.9990069072111841 -0.04455557590470748
12637032000.0 -0.9992945795505171 -0.03755453741973759 5.836771488201895e-17 -1.5196462661077134e-17 5.836771488201895e-17 -1.5196462661077134e-17 -0.9992945568217464 -0.03755514220828715
12637649333.333334 -0.9995331707373594 -0.03055226007313998 5.824704163879914e-17 -1.5607147434255378e-17 5.824704163879914e-17 -1.5607147434255378e-17 -0.9995331522473785 -0.03055286497653232
12638266666.666666 -0.9997226960264523 -0.023548482954455628 5.812348233839484e-17 -1.6016885757657324e-17 5.812348233839484e-17 -1.6016885757657324e-17 -0.9997226817757555 -0.02354908794298701
12638884000.0 -0.9998631461142714 -0.016543549870739284 5.799704432872349e-17 -1.6425657375331604e-17 5.799704432872349e-17 -1.6425657375331604e-17 -0.9998631361031438 -0.016544154914704665
12639501333.333334 -0.9999545141063313 -0.009537804685875274 5.786773509968645e-17 -1.6833442087892315e-17 5.786773509968645e-17 -1.6833442087892315e-17 -0.9999545083348491 -0.00953840975556978
12640118666.666666 -0.9999967955175283 -0.0025315913036693715 5.773556228274138e-17 -1.724021975349647e-17 5.773556228274138e-17 -1.724021975349647e-17 -0.9999967939855616 -0.002532196369389795
12640736000.0 -0.999989988272365 0.004474746349374116 5.76005336504523e-17 -1.764597028887078e-17 5.76005336504523e-17 -1.764597028887078e-17 -0.9999899909795734 0.004474141317327894
12641353333.333334 -0.999934092705042 0.011480864340310044 5.746265711605759e-17 -1.8050673670253137e-17 5.746265711605759e-17 -1.8050673670253137e-17 -0.9999340996508794 0.011480259371633581
12641970666.666666 -0.9998291115594518 0.018486418747118826 5.732194073300507e-17 -1.845430993441415e-17 5.732194073300507e-17 -1.845430993441415e-17 -0.9998291227431632 0.01848581387150168
12642588000.0 -0.9996750499890379 0.025491065675475502 5.717839269449949e-17 -1.8856859179614797e-17 5.717839269449949e-17 -1.8856859179614797e-17 -0.9996750654096603 0.025490460922599753
12643205333.333334 -0.9994719155565435 0.03249446127557421 5.703202133303172e-17 -1.9258301566596587e-17 5.703202133303172e-17 -1.9258301566596587e-17 -0.9994719352129067 0.03249385667511304
12643822666.666666 -0.9992197182336409 0.03949626175903585 5.688283511990688e-17 -1.9658617319548433e-17 5.688283511990688e-17 -1.9658617319548433e-17 -0.9992197421243662 0.039495657340652045
12644440000.0 -0.9989184704004416 0.046496123415812676 5.673084266476337e-17 -2.0057786727079983e-17 5.673084266476337e-17 -2.0057786727079983e-17 -0.9989184985239418 0.04649551920915714
12645057333.333334 -0.9985681868448866 0.05349370263097516 5.657605271508722e-17 -2.0455790143183037e-17 5.657605271508722e-17 -2.0455790143183037e-17 -0.9985682191993686 0.0534930986656856
12645674666.666666 -0.9981688847620268 0.06048865590163688 5.641847415571727e-17 -2.085260798819753e-17 5.641847415571727e-17 -2.085260798819753e-17 -0.9981689213454895 0.06048805220733622
12646292000.0 -0.9977205837531687 0.06748063985390144 5.625811600834237e-17 -2.1248220749775116e-17 5.625811600834237e-17 -2.1248220749775116e-17 -0.9977206245634024 0.06748003646019637
12646909333.333334 -0.9972233058249209 0.07446931125954816 5.609498743099886e-17 -2.164260898382336e-17 5.609498743099886e-17 -2.164260898382336e-17 -0.9972233508595107 0.07446870819602781
12647526666.666666 -0.9966770753881159 0.08145432705293754 5.592909771755219e-17 -2.2035753315468238e-17 5.592909771755219e-17 -2.2035753315468238e-17 -0.9966771246444383 0.08145372434917189
12648144000.0 -0.9960819192565955 0.08843534434802207 5.576045629717869e-17 -2.2427634439995248e-17 5.576045629717869e-17 -2.2427634439995248e-17 -0.9960819727318198 0.0884347420335605
12648761333.333334 -0.995437866645907 0.09541202045497933 5.558907273383722e-17 -2.2818233123796252e-17 5.558907273383722e-17 -2.2818233123796252e-17 -0.9954379243369968 0.09541141855934933
12649378666.666666 -0.9947449491718833 0.10238401289694982 5.541495672573828e-17 -2.3207530205302936e-17 5.541495672573828e-17 -2.3207530205302936e-17 -0.9947450110755957 0.10238341144965542
12649996000.0 -0.9940032008490598 0.10935097942715996 5.52381181047989e-17 -2.359550659593348e-17 5.52381181047989e-17 -2.359550659593348e-17 -0.9940032669619445 0.1093503784576803
12650613333.333334 -0.9932126580890211 0.11631257804552428 5.505856683610056e-17 -2.3982143281013187e-17 5.505856683610056e-17 -2.3982143281013187e-17 -0.9932127284074218 0.11631197758331209
12651230666.666666 -0.9923733596986248 0.12326846701537772 5.487631301733478e-17 -2.4367421320705367e-17 5.487631301733478e-17 -2.4367421320705367e-17 -0.9923734342186784 0.12326786708985792
12651848000.0 -0.9914853468780698 0.13021830488041977 5.4691366878238294e-17 -2.475132185094554e-17 5.4691366878238294e-17 -2.475132185094554e-17 -0.9914854255957095 0.13021770552098835
12652465333.333334 -0.9905486632188936 0.13716175048139262 5.4503738780035555e-17 -2.5133826084342204e-17 5.4503738780035555e-17 -2.5133826084342204e-17 -0.9905487461298451 0.1371611517174146
12653082666.666666 -0.9895633547018348 0.14409846297274256 5.431343921486192e-17 -2.5514915311101205e-17 5.431343921486192e-17 -2.5514915311101205e-17 -0.9895634418016199 0.1440978648335512
12653700000.0 -0.9885294696945551 0.1510281018395497 5.412047880518028e-17 -2.5894570899945756e-17 5.412047880518028e-17 -2.5894570899945756e-17 -0.9885295609784892 0.1510275043544444
12654317333.333334 -0.9874470589492941 0.1579503269140179 5.392486830320483e-17 -2.627277429900454e-17 5.392486830320483e-17 -2.627277429900454e-17 -0.9874471544124879 0.1579497301122632
12654934666.666666 -0.9863161756003497 0.1648647983923701 5.3726618590305123e-17 -2.664950703672315e-17 5.3726618590305123e-17 -2.664950703672315e-17 -0.9863162752377088 0.16486420230319412
12655552000.0 -0.9851368751614804 0.17177117685144427 5.3525740676403564e-17 -2.7024750722770904e-17 5.3525740676403564e-17 -2.7024750722770904e-17 -0.9851369789677074 0.1717705815040375
12656169333.333334 -0.983909215523198 0.17866912326527187 5.3322245699381595e-17 -2.7398487048914516e-17 5.3322245699381595e-17 -2.7398487048914516e-17 -0.9839093234927907 0.17866852868878544
12656786666.666666 -0.98263325694989 0.18555829902191584 5.311614492446007e-17 -2.777069778992512e-17 5.311614492446007e-17 -2.777069778992512e-17 -0.982633369077142 0.18555770524546003
12657404000.0 -0.9813090620769019 0.19243836593986896 5.290744974359006e-17 -2.814136480444906e-17 5.290744974359006e-17 -2.814136480444906e-17 -0.9813091783559036 0.1924377729925121
12658021333.333334 -0.9799366959074194 0.1993089862848781 5.269617167482385e-17 -2.8510470035899675e-17 5.269617167482385e-17 -2.8510470035899675e-17 -0.9799368163320582 0.199308394195645
12658638666.666666 -0.9785162258093224 0.20616982278630028 5.248232236169302e-17 -2.887799551332054e-17 5.248232236169302e-17 -2.887799551332054e-17 -0.9785163503732827 0.20616923158417072
12659256000.0 -0.9770477215118397 0.21302053865385398 5.22659135725679e-17 -2.9243923352266437e-17 5.22659135725679e-17 -2.9243923352266437e-17 -0.9770478502086026 0.2130199483677614
12659873333.333334 -0.9755312551021397 0.2198607975940678 5.2046957200019366e-17 -2.9608235755664664e-17 5.2046957200019366e-17 -2.9608235755664664e-17 -0.9755313879249856 0.21986020825289793
12660490666.666666 -0.9739669010218133 0.22669026382670573 5.182546526017491e-17 -2.997091501467192e-17 5.182546526017491e-17 -2.997091501467192e-17 -0.9739670379638192 0.22668967545929494
12661108000.0 -0.9723547360631737 0.23350860210144436 5.1601449892059695e-17 -3.033194350954069e-17 5.1601449892059695e-17 -3.033194350954069e-17 -0.9723548771172168 0.23350801473657867
12661725333.333334 -0.9706948393655419 0.2403154777141086 5.137492335694532e-17 -3.069130371045933e-17 5.137492335694532e-17 -3.069130371045933e-17 -0.9706949845242965 0.24031489138052173
12662342666.666666 -0.9689872924113039 0.24711055652332248 5.114589803767885e-17 -3.1048978178408705e-17 5.114589803767885e-17 -3.1048978178408705e-17 -0.9689874416672442 0.24710997124969483
12662960000.0 -0.9672321790219686 0.2538935049666914 5.091438643801543e-17 -3.1404949565999784e-17 5.091438643801543e-17 -3.1404949565999784e-17 -0.9672323323673685 0.2538929207816486
12663577333.333334 -0.9654295853540027 0.2606639900773691 5.068040118194472e-17 -3.175920061830602e-17 5.068040118194472e-17 -3.175920061830602e-17 -0.965429742780937 0.2606634070094806
12664194666.666666 -0.963579599894624 0.26742167950031986 5.0443955013003573e-17 -3.2111714173703995e-17 5.0443955013003573e-17 -3.2111714173703995e-17 -0.9635797613949673 0.2674210975780976
12664812000.0 -0.9616823134574795 0.2741662415085517 5.0205060793591306e-17 -3.2462473164695906e-17 5.0205060793591306e-17 -3.2462473164695906e-17 -0.9616824790229066 0.27416566076044835
12665429333.333334 -0.9597378191781335 0.28089734501959146 4.9963731504277846e-17 -3.28114606187284e-17 4.9963731504277846e-17 -3.28114606187284e-17 -0.959737988800121 0.2808967654739993
12666046666.666666 -0.9577462125095595 0.2876146596115191 4.971998024310419e-17 -3.315865965901099e-17 4.971998024310419e-17 -3.315865965901099e-17 -0.9577463861793852 0.2876140812967686
12666664000.0 -0.9557075912173877 0.29431785553940515 4.947382022487078e-17 -3.350405350533719e-17 4.947382022487078e-17 -3.350405350533719e-17 -0.955707768926133 0.2943172784837639
12667281333.333334 -0.953622055375176 0.3010066037512813 4.9225264780438886e-17 -3.384762547487425e-17 4.9225264780438886e-17 -3.384762547487425e-17 -0.9536222371137236 0.301006027982952
12667898666.666666 -0.9514897073594349 0.30768057590448156 4.897432735600889e-17 -3.418935898297262e-17 4.897432735600889e-17 -3.418935898297262e-17 -0.9514898931184709 0.30768000145160107
12668516000.0 -0.9493106518446276 0.3143394443816796 4.8721021512393214e-17 -3.452923754397035e-17 4.8721021512393214e-17 -3.452923754397035e-17 -0.9493108416146427 0.3143388712723178
12669133333.333334 -0.947084995798063 0.3209828823068909 4.846536092430127e-17 -3.4867244771967026e-17 4.846536092430127e-17 -3.4867244771967026e-17 -0.9470851895693497 0.3209823105690483
12669750666.666666 -0.9448128484745738 0.3276105635617055 4.8207359379600186e-17 -3.520336438161879e-17 4.8207359379600186e-17 -3.520336438161879e-17 -0.9448130462372313 0.3276099932233132
