! Parameters = {f0=12700.012000; bw=77.238000; Q=6100.000000; N=10; m_0_1=1.234129; m_1_1=-0.252809; m_1_2=1.068941; m_2_2=-0.253458; m_2_3=0.705904; m_2_8=-0.001230; m_2_9=0.035474; m_3_3=-0.255395; m_3_4=0.594433; m_3_7=-0.000630; m_3_8=-0.097718; m_3_9=-0.001230; m_4_4=-0.258320; m_4_5=0.430768; m_4_6=0.002887; m_4_7=-0.118267; m_4_8=-0.000630; m_5_5=-0.257938; m_5_6=0.838123; m_5_7=0.002887; m_6_6=-0.257939; m_6_7=0.431110; m_7_7=-0.258306; m_7_8=0.594551; m_8_8=-0.255397; m_8_9=0.706217; m_9_9=-0.253463; m_9_10=1.070019; m_10_10=-0.252819; m_10_11=1.234924}
!
! Created with skrf (http://scikit-rf.org).
# Hz S RI R 50.0 
!freq ReS11 ImS11 ReS21 ImS21 ReS12 ImS12 ReS22 ImS22
12607400000.0 -0.9022683772081662 -0.43117487808309934 9.194807672777468e-17 1.4629677563060086e-17 9.194807672777468e-17 1.4629677563060086e-17 -0.9022680968251046 -0.4311754648068894
12608017333.333334 -0.9063079189674901 -0.42261797881378815 9.206557714525316e-17 1.3748116302941323e-17 9.206557714525316e-17 1.3748116302941323e-17 -0.906307644162234 -0.4226185681355409
12608634666.666666 -0.910266311344251 -0.4140232389994127 9.21746318873058e-17 1.2865645988182878e-17 9.21746318873058e-17 1.2865645988182878e-17 -0.9102660421408593 -0.4140238308661095
12609252000.0 -0.9141431999102785 -0.4053914281994996 9.227523431427579e-17 1.198234747061397e-17 9.227523431427579e-17 1.198234747061397e-17 -0.9141429363323051 -0.4053920225578989
12609869333.333334 -0.9179382375351715 -0.39672331929274823 9.236737855993523e-17 1.1098301645920953e-17 9.236737855993523e-17 1.1098301645920953e-17 -0.9179379796056654 -0.396723916089391
12610486666.666666 -0.9216510844172768 -0.3880196884080626 9.245105953171474e-17 1.0213589446277909e-17 9.245105953171474e-17 1.0213589446277909e-17 -0.9216508321587784 -0.3880202875892764
12611104000.0 -0.9252814081142602 -0.3792813148547183 9.252627291086899e-17 9.32829183290837e-18 9.252627291086899e-17 9.32829183290837e-18 -0.9252811615487995 -0.37928191636662245
12611721333.333334 -0.9288288835726736 -0.37050898105305563 9.259301515256345e-17 8.44248978873947e-18 9.259301515256345e-17 8.44248978873947e-18 -0.9288286427217689 -0.3705095848415661
12612338666.666666 -0.9322931931572357 -0.3617034724640039 9.265128348589663e-17 7.556264310980576e-18 9.265128348589663e-17 7.556264310980576e-18 -0.932292958041892 -0.3617040784748381
12612956000.0 -0.9356740266792263 -0.3528655775188558 9.270107591384983e-17 6.669696403729897e-18 9.270107591384983e-17 6.669696403729897e-18 -0.9356737973199333 -0.3528661856975378
12613573333.333334 -0.9389710814241893 -0.34399608754885913 9.274239121316411e-17 5.782867070620261e-18 9.274239121316411e-17 5.782867070620261e-18 -0.9389708578409186 -0.3439966978407238
12614190666.666666 -0.9421840621790987 -0.3350957967142025 9.277522893415155e-17 4.895857307391374e-18 9.277522893415155e-17 4.895857307391374e-18 -0.9421838443913039 -0.33509640906440125
12614808000.0 -0.9453126812588015 -0.32616550193288135 9.279958940043158e-17 4.0087480945315655e-18 9.279958940043158e-17 4.0087480945315655e-18 -0.9453124692854149 -0.32616611628638675
12615425333.333334 -0.9483566585317471 -0.3172060028094231 9.281547370859967e-17 3.1216203898922474e-18 9.281547370859967e-17 3.1216203898922474e-18 -0.9483564523911782 -0.3172066191110333
12616042666.666666 -0.9513157214450877 -0.30821810156323753 9.282288372782395e-17 2.2345551213257103e-18 9.282288372782395e-17 2.2345551213257103e-18 -0.9513155211552217 -0.30821871975758186
12616660000.0 -0.9541896050490443 -0.2992026029568952 9.282182209937297e-17 1.347633179302208e-18 9.282182209937297e-17 1.347633179302208e-18 -0.9541894106272422 -0.2992032229884392
12617277333.333334 -0.9569780520206987 -0.2901603142238825 9.281229223607253e-17 4.609354095570655e-19 9.281229223607253e-17 4.609354095570655e-19 -0.9569778634837928 -0.2901609360369321
12617894666.666666 -0.9596808126869486 -0.2810920449965653 9.27942983216923e-17 -4.254573942526263e-19 9.27942983216923e-17 -4.254573942526263e-19 -0.9596806300512439 -0.281092668535273
12618512000.0 -0.9622976450469755 -0.2719986072333437 9.276784531026253e-17 -1.311464497925884e-18 9.276784531026253e-17 -1.311464497925884e-18 -0.9622974683282466 -0.2719992324417125
12619129333.333334 -0.9648283147937654 -0.26288081514643996 9.273293892532154e-17 -2.1970052340082915e-18 9.273293892532154e-17 -2.1970052340082915e-18 -0.9648281440072556 -0.2628814419683292
12619746666.666666 -0.9672725953352174 -0.2537394851285598 9.268958565909189e-17 -3.0819990091631675e-18 9.268958565909189e-17 -3.0819990091631675e-18 -0.9672724304956375 -0.2537401135076897
12620364000.0 -0.9696302678143973 -0.24457543567990178 9.263779277158769e-17 -3.966365311480355e-18 9.263779277158769e-17 -3.966365311480355e-18 -0.9696301089359252 -0.24457606555985878
12620981333.333334 -0.9719011211290838 -0.23538948733506232 9.257756828965297e-17 -4.850023717764209e-18 9.257756828965297e-17 -4.850023717764209e-18 -0.9719009682253603 -0.2353901186593038
12621598666.666666 -0.9740849519507155 -0.22618246258940272 9.250892100592886e-17 -5.732893900860698e-18 9.250892100592886e-17 -5.732893900860698e-18 -0.974084805034846 -0.2261830953012622
12622216000.0 -0.9761815647426002 -0.21695518582537515 9.24318604777529e-17 -6.614895636920202e-18 9.24318604777529e-17 -6.614895636920202e-18 -0.9761814238271537 -0.2169558198680679
12622833333.333334 -0.9781907717774101 -0.20770848323876448 9.234639702598753e-17 -7.495948812692789e-18 9.234639702598753e-17 -7.495948812692789e-18 -0.9781906368744162 -0.20770911855539184
12623450666.666666 -0.9801123931539804 -0.19844318276476772 9.225254173378175e-17 -8.37597343276852e-18 9.225254173378175e-17 -8.37597343276852e-18 -0.9801122642749293 -0.19844381929832258
12624068000.0 -0.9819462568134217 -0.18916011400383403 9.215030644526092e-17 -9.254889626843544e-18 9.215030644526092e-17 -9.254889626843544e-18 -0.9819461339692628 -0.1891607516972059
12624685333.333334 -0.9836921985545657 -0.1798601081471888 9.203970376414941e-17 -1.0132617656945682e-17 9.203970376414941e-17 -1.0132617656945682e-17 -0.9836920817557082 -0.17986074694316903
12625302666.666666 -0.9853500620485914 -0.17054399790280028 9.19207470523261e-17 -1.100907792464262e-17 9.19207470523261e-17 -1.100907792464262e-17 -0.9853499513049016 -0.17054463774408712
12625920000.0 -0.9869196988531105 -0.16121261742034557 9.179345042830535e-17 -1.1884190978273627e-17 9.179345042830535e-17 -1.1884190978273627e-17 -0.9869195941739112 -0.16121325824954916
12626537333.333334 -0.9884009684253694 -0.15186680221702556 9.165782876565868e-17 -1.275787752010254e-17 9.165782876565868e-17 -1.275787752010254e-17 -0.9884008698194402 -0.15186744397667326
12627154666.666666 -0.9897937381348931 -0.1425073891024185 9.151389769136064e-17 -1.3630058413506009e-17 9.151389769136064e-17 -1.3630058413506009e-17 -0.9897936456104682 -0.14250803173495993
12627772000.0 -0.9910978832753649 -0.13313521610349627 9.136167358406815e-17 -1.450065469013117e-17 9.136167358406815e-17 -1.450065469013117e-17 -0.9910977968401341 -0.1331358595513087
12628389333.333334 -0.9923132870757443 -0.12375112238992671 9.120117357233717e-17 -1.5369587557009342e-17 9.120117357233717e-17 -1.5369587557009342e-17 -0.9923132067368504 -0.12375176659531975
12629006666.666666 -0.9934398407107639 -0.11435594819862559 9.103241553276224e-17 -1.6236778403700075e-17 9.103241553276224e-17 -1.6236778403700075e-17 -0.9934397664748049 -0.11435659310384703
12629624000.0 -0.9944774433106587 -0.10495053475866457 9.085541808805869e-17 -1.710214880936143e-17 9.085541808805869e-17 -1.710214880936143e-17 -0.9944773751836847 -0.10495118030590506
12630241333.333334 -0.9954260019702007 -0.09553572421589203 9.067020060506958e-17 -1.7965620549844234e-17 9.067020060506958e-17 -1.7965620549844234e-17 -0.9954259399577144 -0.09553637034729033
12630858666.666666 -0.9962854317570061 -0.08611235955767026 9.047678319271433e-17 -1.8827115604721777e-17 9.047678319271433e-17 -1.8827115604721777e-17 -0.9962853758639609 -0.08611300621531841
12631476000.0 -0.9970556557191689 -0.07668128453705589 9.027518669985554e-17 -1.9686556164367546e-17 9.027518669985554e-17 -1.9686556164367546e-17 -0.9970556059499711 -0.07668193166300459
12632093333.333334 -0.9977366048921089 -0.06724334359773292 9.006543271311814e-17 -2.0543864636923718e-17 9.006543271311814e-17 -2.0543864636923718e-17 -0.9977365612506162 -0.06724399113399661
12632710666.666666 -0.99832821830478 -0.05779938179806312 8.984754355462883e-17 -2.1398963655311348e-17 8.984754355462883e-17 -2.1398963655311348e-17 -0.9983281807943015 -0.057800029686625204
12633328000.0 -0.9988304429851254 -0.04835024473539196 8.96215422796916e-17 -2.2251776084199004e-17 8.96215422796916e-17 -2.2251776084199004e-17 -0.99883041160842 -0.0483508929182099
12633945333.333334 -0.9992432339648085 -0.0388967784705338 8.938745267440169e-17 -2.3102225026937778e-17 8.938745267440169e-17 -2.3102225026937778e-17 -0.9992432087240856 -0.03889742688954438
12634562666.666666 -0.9995665542832414 -0.029439829451988538 8.914529925319005e-17 -2.3950233832481716e-17 8.914529925319005e-17 -2.3950233832481716e-17 -0.9995665351801617 -0.029440478049113136
12635180000.0 -0.9998003749909036 -0.019980244440010207 8.889510725630349e-17 -2.479572610228073e-17 8.889510725630349e-17 -2.479572610228073e-17 -0.9998003620265778 -0.01998089315715988
12635797333.333334 -0.9999446751519275 -0.010518870430874393 8.863690264721842e-17 -2.563862569715289e-17 8.863690264721842e-17 -2.563862569715289e-17 -0.9999446683269158 -0.010519519209955126
12636414666.666666 -0.9999994418459701 -0.0010565545810963736 8.837071210999628e-17 -2.6478856744105013e-17 8.837071210999628e-17 -2.6478856744105013e-17 -0.999999441160284 -0.0010572033640143114
12637032000.0 -0.999964670169378 0.008405855868478659 8.809656304656086e-17 -2.7316343643177034e-17 8.809656304656086e-17 -2.7316343643177034e-17 -0.9999646756224795 0.008405207139812052
12637649333.333334 -0.9998403632356203 0.017867513668593144 8.781448357392422e-17 -2.815101107420793e-17 8.781448357392422e-17 -2.815101107420793e-17 -0.9998403748264213 0.017866865052255876
12638266666.666666 -0.9996265321750115 0.027327571637353207 8.752450252134283e-17 -2.8982784003599216e-17 8.752450252134283e-17 -2.8982784003599216e-17 -0.9996265499018744 0.027326923191407546
12638884000.0 -0.999323196133714 0.03678518273614082 8.72266494274095e-17 -2.9811587691046755e-17 8.72266494274095e-17 -2.9811587691046755e-17 -0.9993232199944527 0.036784534518628134
12639501333.333334 -0.998930382272028 0.046239500145371155 8.692095453708548e-17 -3.063734769623341e-17 8.692095453708548e-17 -3.063734769623341e-17 -0.9989304122639061 0.04623885221430663
12640118666.666666 -0.9984481257619569 0.055689677340315324 8.660744879866709e-17 -3.1459989885499304e-17 8.660744879866709e-17 -3.1459989885499304e-17 -0.9984481618816909 0.055689029753682916
12640736000.0 -0.9978764697840462 0.0651348681672378 8.628616386067799e-17 -3.227944043851073e-17 8.628616386067799e-17 -3.227944043851073e-17 -0.9978765120278027 0.06513422098298485
12641353333.333334 -0.997215465523543 0.07457422691853485 8.5957132068731e-17 -3.309562585481218e-17 8.5957132068731e-17 -3.309562585481218e-17 -0.9972155138869423 0.07457358019456713
12641970666.666666 -0.9964651721657942 0.08400690840894075 8.562038646228628e-17 -3.390847296045688e-17 8.562038646228628e-17 -3.390847296045688e-17 -0.9964652266439081 0.08400626220311709
12642588000.0 -0.9956256568909472 0.09343206805109043 8.527596077138092e-17 -3.47179089145169e-17 8.527596077138092e-17 -3.47179089145169e-17 -0.9956257174783012 0.0934314224212177
12643205333.333334 -0.9946969948679444 0.10284886193105783 8.492388941327712e-17 -3.55238612156117e-17 8.492388941327712e-17 -3.55238612156117e-17 -0.994697061558517 0.10284821693488559
12643822666.666666 -0.9936792692477763 0.1122564468840881 8.456420748905533e-17 -3.632625770838587e-17 8.456420748905533e-17 -3.632625770838587e-17 -0.993679342035 0.11225580257930354
12644440000.0 -0.9925725711560573 0.12165398056983862 8.419695078014978e-17 -3.7125026589945797e-17 8.419695078014978e-17 -3.7125026589945797e-17 -0.9925726500328209 0.12165333701406156
12645057333.333334 -0.9913769996848568 0.13104062154799948 8.382215574482364e-17 -3.792009641626171e-17 8.382215574482364e-17 -3.792009641626171e-17 -0.9913770846435024 0.13103997879877682
12645674666.666666 -0.9900926618838284 0.1404155293535208 8.343985951457416e-17 -3.8711396108556124e-17 8.343985951457416e-17 -3.8711396108556124e-17 -0.9900927529161558 0.14041488746832181
12646292000.0 -0.988719672750598 0.149777864572121 8.305009989048054e-17 -3.949885495964892e-17 8.305009989048054e-17 -3.949885495964892e-17 -0.988719769847864 0.14977722360833187
12646909333.333334 -0.9872581552205307 0.15912678891496745 8.26529153395092e-17 -4.028240264023086e-17 8.26529153395092e-17 -4.028240264023086e-17 -0.98725825837345 0.15912614892988639
12647526666.666666 -0.9857082401556613 0.16846146529418649 8.224834499073426e-17 -4.1061969205154616e-17 8.224834499073426e-17 -4.1061969205154616e-17 -0.9857083493544059 0.16846082634501822
12648144000.0 -0.9840700663329919 0.17778105789767285 8.183642863151651e-17 -4.183748509965018e-17 8.183642863151651e-17 -4.183748509965018e-17 -0.9840701815671956 0.17778042004152408
12648761333.333334 -0.982343780432079 0.18708473226387193 8.141720670361658e-17 -4.2608881165519223e-17 8.141720670361658e-17 -4.2608881165519223e-17 -0.9823439016908356 0.18708409555774594
12649378666.666666 -0.9805295370219228 0.19637165535638448 8.099072029925716e-17 -4.3376088647276804e-17 8.099072029925716e-17 -4.3376088647276804e-17 -0.9805296642937872 0.19637101985717578
12649996000.0 -0.978627498547068 0.20564099563886257 8.055701115711427e-17 -4.4139039198276676e-17 8.055701115711427e-17 -4.4139039198276676e-17 -0.9786276318200566 0.20564036140335196
12650613333.333334 -0.9766378353130928 0.21489192314926775 8.011612165826225e-17 -4.489766488677905e-17 8.011612165826225e-17 -4.489766488677905e-17 -0.9766379745746886 0.21489129023411774
12651230666.666666 -0.9745607254713772 0.2241236095741302 7.966809482206862e-17 -4.565189820196417e-17 7.966809482206862e-17 -4.565189820196417e-17 -0.9745608707085273 0.22412297803587944
12651848000.0 -0.9723963550031152 0.2333352283228809 7.921297430200216e-17 -4.6401672059959934e-17 7.921297430200216e-17 -4.6401672059959934e-17 -0.9723965062022316 0.233334598217939
12652465333.333334 -0.9701449177026751 0.24252595460177928 7.875080438142155e-17 -4.7146919809762235e-17 7.875080438142155e-17 -4.7146919809762235e-17 -0.9701450748496401 0.2425253259864225
12653082666.666666 -0.9678066151602823 0.25169496548765485 7.828162996929122e-17 -4.788757523914572e-17 7.828162996929122e-17 -4.788757523914572e-17 -0.9678067782404445 0.25169433841802014
12653700000.0 -0.9653816567438804 0.2608414400019199 7.780549659582708e-17 -4.862357258055388e-17 7.780549659582708e-17 -4.862357258055388e-17 -0.9653818257420597 0.26084081453400043
12654317333.333334 -0.9628702595805143 0.269964559183584 7.732245040812751e-17 -4.9354846516882293e-17 7.732245040812751e-17 -4.9354846516882293e-17 -0.9628704344810034 0.26996393537322455
12654934666.666666 -0.960272648536776 0.2790635061630225 7.683253816570295e-17 -5.008133218729372e-17 7.683253816570295e-17 -5.008133218729372e-17 -0.9602728293233385 0.27906288406591345
12655552000.0 -0.957589056198694 0.2881374662350072 7.633580723597857e-17 -5.080296519294485e-17 7.633580723597857e-17 -5.080296519294485e-17 -0.957589242854568 0.28813684590667976
12656169333.333334 -0.9548197228509626 0.29718562693146094 7.583230558974871e-17 -5.1519681602662837e-17 7.583230558974871e-17 -5.1519681602662837e-17 -0.954819915358865 0.29718500842728374
12656786666.666666 -0.9519648964553872 0.30620717809437253 7.532208179655857e-17 -5.223141795860486e-17 7.532208179655857e-17 -5.223141795860486e-17 -0.9519650947975103 0.30620656146954445
12657404000.0 -0.9490248326286664 0.3152013119483605 7.48051850200406e-17 -5.293811128186144e-17 7.48051850200406e-17 -5.293811128186144e-17 -0.9490250367866826 0.31520069725790706
12658021333.333334 -0.9459997946195208 0.3241672231729464 7.428166501320311e-17 -5.363969907800778e-17 7.428166501320311e-17 -5.363969907800778e-17 -0.9460000045745848 0.324166610471715
12658638666.666666 -0.9428900532851563 0.33310410897458276 7.375157211367003e-17 -5.433611934260435e-17 7.375157211367003e-17 -5.433611934260435e-17 -0.9428902690179028 0.33310349831723657
12659256000.0 -0.9396958870669482 0.3420111691586932 7.32149572388461e-17 -5.5027310566682245e-17 7.32149572388461e-17 -5.5027310566682245e-17 -0.9396961085574997 0.3420105605997078
12659873333.333334 -0.936417581965545 0.3508876062012415 7.267187188106818e-17 -5.571321174213095e-17 7.267187188106818e-17 -5.571321174213095e-17 -0.9364178091935083 0.35088699979489885
12660490666.666666 -0.9330554315152938 0.35973262532003286 7.212236810267714e-17 -5.63937623670784e-17 7.212236810267714e-17 -5.63937623670784e-17 -0.9330556644597654 0.35973202112041724
12661108000.0 -0.9296097367578552 0.36854543454617206 7.156649853103834e-17 -5.706890245122185e-17 7.156649853103834e-17 -5.706890245122185e-17 -0.9296099753974201 0.36854483260716436
12661725333.333334 -0.9260808062153704 0.3773252447946266 7.100431635354393e-17 -5.773857252107183e-17 7.100431635354393e-17 -5.773857252107183e-17 -0.9260810505281075 0.37732464516990066
12662342666.666666 -0.9224689558627742 0.3860712699350694 7.043587531252549e-17 -5.84027136251976e-17 7.043587531252549e-17 -5.84027136251976e-17 -0.9224692058262564 0.3860706726780865
12662960000.0 -0.918774509099489 0.39478272686229215 6.986122970015204e-17 -5.906126733938039e-17 6.986122970015204e-17 -5.906126733938039e-17 -0.9187747646907849 0.39478213202629614
12663577333.333334 -0.9149977967204976 0.4034588355662438 6.928043435325385e-17 -5.971417577174895e-17 6.928043435325385e-17 -5.971417577174895e-17 -0.9149980579161738 0.40345824320425655
12664194666.666666 -0.9111391568867039 0.41209881920192415 6.869354464811668e-17 -6.036138156784236e-17 6.869354464811668e-17 -6.036138156784236e-17 -0.9111394236628285 0.41209822936674123
12664812000.0 -0.907198935094703 0.4207019041588384 6.810061649521893e-17 -6.100282791563388e-17 6.810061649521893e-17 -6.100282791563388e-17 -0.9071992074268453 0.4207013169030234
12665429333.333334 -0.9031774841457583 0.42926732013044433 6.750170633393059e-17 -6.163845855049358e-17 6.750170633393059e-17 -6.163845855049358e-17 -0.903177762008995 0.42926673550632566
12666046666.666666 -0.8990751641143272 0.43779430018289467 6.68968711271596e-17 -6.226821776010731e-17 6.68968711271596e-17 -6.226821776010731e-17 -0.8990754474832405 0.4377937182425593
12666664000.0 -0.8948923423156557 0.4462820808240386 6.628616835594109e-17 -6.289205038935393e-17 6.628616835594109e-17 -6.289205038935393e-17 -0.8948926311643379 0.44628150161932856
12667281333.333334 -0.8906293932731156 0.4547299020713246 6.566965601401771e-17 -6.350990184509272e-17 6.566965601401771e-17 -6.350990184509272e-17 -0.8906296875751707 0.45472932565383173
12667898666.666666 -0.8862866986844705 0.4631370075202563 6.504739260233225e-17 -6.412171810094257e-17 6.504739260233225e-17 -6.412171810094257e-17 -0.8862869984130165 0.46313643394131776
12668516000.0 -0.8818646473877444 0.47150264441201545 6.441943712350289e-17 -6.472744570197953e-17 6.441943712350289e-17 -6.472744570197953e-17 -0.8818649525154173 0.4715020737227099
12669133333.333334 -0.8773636353265027 0.47982606370068903 6.378584907625368e-17 -6.532703176938268e-17 6.378584907625368e-17 -6.532703176938268e-17 -0.8773639458254564 0.4798254959518305
12669750666.666666 -0.8727840655143192 0.4881065201204872 6.314668844978494e-17 -6.592042400504169e-17 6.314668844978494e-17 -6.592042400504169e-17 -0.8727843813562298 0.4881059553626221
12670368000.0 -0.8681263479986617 0.4963432722525229 6.250201571811774e-17 -6.650757069609355e-17 6.250201571811774e-17 -6.650757069609355e-17 -0.8681266691547302 0.49634271053592477
