! Parameters = {f0=12700.012000; bw=77.238000; Q=6100.000000; N=10; m_0_1=1.217112; m_1_1=-0.508064; m_1_2=1.051924; m_2_2=-0.508713; m_2_3=0.688887; m_2_8=-0.002081; m_2_9=0.034623; m_3_3=-0.510650; m_3_4=0.577416; m_3_7=-0.001481; m_3_8=-0.098569; m_3_9=-0.002081; m_4_4=-0.513575; m_4_5=0.413751; m_4_6=0.002036; m_4_7=-0.119118; m_4_8=-0.001481; m_5_5=-0.513193; m_5_6=0.821106; m_5_7=0.002036; m_6_6=-0.513194; m_6_7=0.414093; m_7_7=-0.513561; m_7_8=0.577534; m_8_8=-0.510652; m_8_9=0.689200; m_9_9=-0.508718; m_9_10=1.053002; m_10_10=-0.508074; m_10_11=1.217907}
!
! Created with skrf (http://scikit-rf.org).
# Hz S RI R 50.0 
!freq ReS11 ImS11 ReS21 ImS21 ReS12 ImS12 ReS22 ImS22
12607400000.0 0.2659335504621689 0.9639913623774972 -4.5269324647798336e-17 -7.265996617374042e-17 -4.5269324647798336e-17 -7.265996617374042e-17 0.26593293221590336 0.9639915329311195
12608017333.333334 0.27455958620667426 0.9615700877324843 -4.591590471048877e-17 -7.223324461509094e-17 -4.591590471048877e-17 -7.223324461509094e-17 0.27455896954346515 0.961570263809706
12608634666.666666 0.2831635827589238 0.9590716268344966 -4.655847189723529e-17 -7.180077567097341e-17 -4.655847189723529e-17 -7.180077567097341e-17 0.2831629677281141 0.9590718084206442
12609252000.0 0.2917448494670085 0.9564961802376994 -4.7196975178231896e-17 -7.136259699521576e-17 -4.7196975178231896e-17 -7.136259699521576e-17 0.29174423611780526 0.956496367317658
12609869333.333334 0.30030269750351546 0.953843954675999 -4.783136387626285e-17 -7.091874669419445e-17 -4.783136387626285e-17 -7.091874669419445e-17 0.3003020858849854 0.9538441472342137
12610486666.666666 0.30883643992084636 0.9511151630464392 -4.8461587670695036e-17 -7.046926332355006e-17 -4.8461587670695036e-17 -7.046926332355006e-17 0.30883583008191307 0.9511153610669175
12611104000.0 0.3173453917065778 0.9483100243920426 -4.9087596601489753e-17 -7.001418588483335e-17 -4.9087596601489753e-17 -7.001418588483335e-17 0.317344783696017 0.9483102278583554
12611721333.333334 0.3258288698379866 0.9454287638843755 -4.970934107311346e-17 -6.955355382216409e-17 -4.970934107311346e-17 -6.955355382216409e-17 0.3258282637044225 0.9454289727796577
12612338666.666666 0.3342861933373106 0.9424716128053345 -5.0326771858477103e-17 -6.908740701881393e-17 -5.0326771858477103e-17 -6.908740701881393e-17 0.3342855891292121 0.9424718271122874
12612956000.0 0.34271668332632793 0.9394388085286017 -5.093984010281147e-17 -6.861578579377613e-17 -5.093984010281147e-17 -6.861578579377613e-17 0.3427160810920048 0.9394390282294941
12613573333.333334 0.351119663080532 0.9363305945007093 -5.154849732751335e-17 -6.813873089830062e-17 -5.154849732751335e-17 -6.813873089830062e-17 0.3511190628681302 0.9363308195773774
12614190666.666666 0.3594944580838794 0.9331472202213412 -5.215269543397853e-17 -6.765628351238031e-17 -5.215269543397853e-17 -6.765628351238031e-17 0.3594938599413786 0.9331474506551929
12614808000.0 0.36784039608272084 0.9298889412233836 -5.2752386707372884e-17 -6.716848524122499e-17 -5.2752386707372884e-17 -6.716848524122499e-17 0.36783980005792966 0.9298891769953986
12615425333.333334 0.3761568071397107 0.9265560190524351 -5.3347523820399903e-17 -6.667537811168059e-17 -5.3347523820399903e-17 -6.667537811168059e-17 0.37615621328026305 0.9265562601431662
12616042666.666666 0.3844430236877432 0.92314872124575 -5.3938059837013854e-17 -6.617700456863117e-17 -5.3938059837013854e-17 -6.617700456863117e-17 0.38444243204109446 0.9231489676353247
12616660000.0 0.3926983805834578 0.9196673213107923 -5.4523948216110834e-17 -6.567340747135929e-17 -5.4523948216110834e-17 -6.567340747135929e-17 0.39269779119688153 0.9196675729789157
12617277333.333334 0.40092221516057935 0.9161120987033031 -5.5105142815176435e-17 -6.516463008988127e-17 -5.5105142815176435e-17 -6.516463008988127e-17 0.40092162808116266 0.9161123556292581
12617894666.666666 0.4091138672831395 0.9124833388048638 -5.568159789390775e-17 -6.465071610124509e-17 -5.568159789390775e-17 -6.465071610124509e-17 0.4091132825577794 0.9124836009675118
12618512000.0 0.4172726793986701 0.9087813328998856 -5.625326811781252e-17 -6.413170958578355e-17 -5.625326811781252e-17 -6.413170958578355e-17 0.41727209707407054 0.9087816002776716
12619129333.333334 0.42539799659054817 0.9050063781524341 -5.682010856172928e-17 -6.360765502337782e-17 -5.682010856172928e-17 -6.360765502337782e-17 0.42539741671321585 0.9050066507233862
12619746666.666666 0.4334891666309799 0.9011587775821841 -5.738207471337176e-17 -6.307859728963504e-17 -5.738207471337176e-17 -6.307859728963504e-17 0.4334885892472207 0.9011590553239163
12620364000.0 0.4415455400332774 0.897238840040131 -5.79391224768023e-17 -6.254458165206843e-17 -5.79391224768023e-17 -6.254458165206843e-17 0.44154496518919195 0.8972391229298431
12620981333.333334 0.4495664701036852 0.8932468801839446 -5.849120817586451e-17 -6.200565376625126e-17 -5.849120817586451e-17 -6.200565376625126e-17 0.44956589784516643 0.8932471681984266
12621598666.666666 0.4575513129937028 0.8891832184525166 -5.903828855760335e-17 -6.146185967191956e-17 -5.903828855760335e-17 -6.146185967191956e-17 0.45755074336643126 0.8891835115681492
12622216000.0 0.46549942775156056 0.8850481810403359 -5.958032079564053e-17 -6.091324578905299e-17 -5.958032079564053e-17 -6.091324578905299e-17 0.465498860801001 0.885048479233092
12622833333.333334 0.4734101763736449 0.8808420998713173 -6.011726249350974e-17 -6.035985891392925e-17 -6.011726249350974e-17 -6.035985891392925e-17 0.473409612145043 0.8808424031167654
12623450666.666666 0.4812829238557636 0.8765653125721353 -6.064907168794568e-17 -5.980174621516001e-17 -6.064907168794568e-17 -5.980174621516001e-17 0.48128236239414207 0.8765656208454404
12624068000.0 0.48911703824414166 0.872218162445106 -6.117570685216691e-17 -5.923895522966682e-17 -6.117570685216691e-17 -5.923895522966682e-17 0.48911647959429677 0.872218475721032
12624685333.333334 0.4969118906862236 0.8678009984405877 -6.169712689909758e-17 -5.867153385865236e-17 -6.169712689909758e-17 -5.867153385865236e-17 0.49691133489272177 0.8678013166934998
12625302666.666666 0.5046668554808054 0.8633141751291672 -6.221329118454426e-17 -5.80995303635527e-17 -6.221329118454426e-17 -5.80995303635527e-17 0.5046663025879792 0.8633144983330334
12625920000.0 0.5123813101287794 0.858758052672902 -6.272415951036624e-17 -5.752299336192783e-17 -6.272415951036624e-17 -5.752299336192783e-17 0.5123807601807238 0.8587583808012949
12626537333.333334 0.5200546353826823 0.8541329967966488 -6.322969212757736e-17 -5.694197182335887e-17 -6.322969212757736e-17 -5.694197182335887e-17 0.5200540884232527 0.8541333298227496
12627154666.666666 0.5276862152964807 0.8494393787586697 -6.372984973942751e-17 -5.63565150652979e-17 -6.372984973942751e-17 -5.63565150652979e-17 0.5276856713692876 0.8494397166552683
12627772000.0 0.5352754372753027 0.8446775753206496 -6.422459350444583e-17 -5.576667274889116e-17 -6.422459350444583e-17 -5.576667274889116e-17 0.5352748964237092 0.8446779180601481
12628389333.333334 0.5428216921242 0.8398479687177068 -6.471388503942817e-17 -5.517249487479587e-17 -6.471388503942817e-17 -5.517249487479587e-17 0.5428211543913176 0.8398483162721206
12629006666.666666 0.5503243740973384 0.8349509466275313 -6.519768642241742e-17 -5.457403177893408e-17 -6.519768642241742e-17 -5.457403177893408e-17 0.5503238395260247 0.8349512989684922
12629624000.0 0.5577828809465022 0.8299869021393401 -6.567596019560403e-17 -5.397133412826875e-17 -6.567596019560403e-17 -5.397133412826875e-17 0.5577823495793565 0.8299872592380989
12630241333.333334 0.5651966139695064 0.8249562337222761 -6.614866936822816e-17 -5.336445291650635e-17 -6.614866936822816e-17 -5.336445291650635e-17 0.5651960858488669 0.8249565955497047
12630858666.666666 0.5725649780580463 0.8198593451935692 -6.661577741940847e-17 -5.2753439459815364e-17 -6.661577741940847e-17 -5.2753439459815364e-17 0.5725644532259859 0.8198597117201613
12631476000.0 0.5798873817458636 0.8146966456858438 -6.707724830096603e-17 -5.213834539247657e-17 -6.707724830096603e-17 -5.213834539247657e-17 0.5798868602441882 0.8146970168817214
12632093333.333334 0.5871632372558514 0.8094685496145401 -6.753304644016389e-17 -5.1519222662566213e-17 -6.753304644016389e-17 -5.1519222662566213e-17 0.5871627191260946 0.8094689254494513
12632710666.666666 0.5943919605473063 0.804175476644599 -6.798313674244983e-17 -5.089612352756005e-17 -6.798313674244983e-17 -5.089612352756005e-17 0.5943914458307273 0.8041758570879233
12633328000.0 0.6015729713630631 0.7988178516565926 -6.842748459414338e-17 -5.0269100549932153e-17 -6.842748459414338e-17 -5.0269100549932153e-17 0.601572460100643 0.7988182366773421
12633945333.333334 0.6087056932757959 0.7933961047128171 -6.886605586506303e-17 -4.96382065927584e-17 -6.886605586506303e-17 -4.96382065927584e-17 0.6087051855082352 0.7933964942796405
12634562666.666666 0.6157895537343363 0.7879106710227405 -6.929881691114546e-17 -4.9003494815252006e-17 -6.929881691114546e-17 -4.9003494815252006e-17 0.6157890495020502 0.7879110651039238
12635180000.0 0.622823984109746 0.7823619909079828 -6.972573457700146e-17 -4.8365018668307914e-17 -6.972573457700146e-17 -4.8365018668307914e-17 0.622823483452862 0.7823623894714529
12635797333.333334 0.6298084197409124 0.7767505097670001 -7.014677619844173e-17 -4.7722831890009235e-17 -7.014677619844173e-17 -4.7722831890009235e-17 0.6298079226992676 0.7767509127803277
12636414666.666666 0.6367422999797231 0.7710766780394609 -7.056190960494669e-17 -4.7076988501133877e-17 -7.056190960494669e-17 -4.7076988501133877e-17 0.6367418065928607 0.7710770854698628
12637032000.0 0.6436250682363357 0.765340951169876 -7.097110312212256e-17 -4.6427542800600183e-17 -7.097110312212256e-17 -4.6427542800600183e-17 0.643624578543501 0.7653413629842168
12637649333.333334 0.6504561720236972 0.7595437895711593 -7.137432557408909e-17 -4.577454936092898e-17 -7.137432557408909e-17 -4.577454936092898e-17 0.6504556860638356 0.7595442057359557
12638266666.666666 0.6572350630018522 0.7536856585877103 -7.177154628583322e-17 -4.511806302367544e-17 -7.177154628583322e-17 -4.511806302367544e-17 0.6572345808136056 0.7536860790691328
12638884000.0 0.6639611970220887 0.7477670284579501 -7.216273508553142e-17 -4.445813889482468e-17 -7.216273508553142e-17 -4.445813889482468e-17 0.6639607186437929 0.7477674532218266
12639501333.333334 0.6706340341705539 0.7417883742766315 -7.254786230681765e-17 -4.379483234018537e-17 -7.254786230681765e-17 -4.379483234018537e-17 0.6706335596402337 0.7417888032884479
12640118666.666666 0.6772530388115038 0.735750175956773 -7.292689879100837e-17 -4.312819898076632e-17 -7.292689879100837e-17 -4.312819898076632e-17 0.6772525681668733 0.7357506091816796
12640736000.0 0.683817679630559 0.7296529181909136 -7.329981588930463e-17 -4.2458294688100683e-17 -7.329981588930463e-17 -4.2458294688100683e-17 0.683817212909016 0.7296533555937255
12641353333.333334 0.6903274296769722 0.723497090412548 -7.366658546491552e-17 -4.178517557961413e-17 -7.366658546491552e-17 -4.178517557961413e-17 0.6903269669155958 0.7234975319577477
12641970666.666666 0.6967817664063043 0.7172831867564924 -7.402717989518153e-17 -4.110889801389926e-17 -7.402717989518153e-17 -4.110889801389926e-17 0.6967813076418516 0.7172836324082332
12642588000.0 0.7031801717220981 0.7110117060194715 -7.438157207361887e-17 -4.042951858603732e-17 -7.438157207361887e-17 -4.042951858603732e-17 0.7031797169910031 0.7110121557415816
12643205333.333334 0.7095221320176144 0.7046831516199449 -7.472973541194379e-17 -3.9747094122860263e-17 -7.472973541194379e-17 -3.9747094122860263e-17 0.7095216813559827 0.7046836053759287
12643822666.666666 0.7158071382170743 0.6982980315576737 -7.50716438420454e-17 -3.906168167821028e-17 -7.50716438420454e-17 -3.906168167821028e-17 0.7158066916606819 0.6982984893107154
12644440000.0 0.7220346858163657 0.6918568583731043 -7.540727181791243e-17 -3.83733385281893e-17 -7.540727181791243e-17 -3.83733385281893e-17 0.7220342434006558 0.6918573200860715
12645057333.333334 0.7282042749236797 0.6853601491060862 -7.573659431751607e-17 -3.7682122166391996e-17 -7.573659431751607e-17 -3.7682122166391996e-17 0.7282038366837598 0.685360614741532
12645674666.666666 0.7343154102995796 0.67880842525443 -7.605958684465967e-17 -3.698809029910385e-17 -7.605958684465967e-17 -3.698809029910385e-17 0.7343149762702174 0.6788088947745955
12646292000.0 0.7403676013968294 0.6722022127319613 -7.637622543078117e-17 -3.629130084048735e-17 -7.637622543078117e-17 -3.629130084048735e-17 0.7403671716124522 0.6722026860987804
12646909333.333334 0.7463603623996364 0.6655420418264524 -7.668648663669224e-17 -3.559181190779701e-17 -7.668648663669224e-17 -3.559181190779701e-17 0.7463599368943276 0.6655425190015536
12647526666.666666 0.7522932122627826 0.658828447156908 -7.699034755430551e-17 -3.4889681816509804e-17 -7.699034755430551e-17 -3.4889681816509804e-17 0.752292791070279 0.658828928101619
12648144000.0 0.7581656747501638 0.6520619676307369 -7.72877858082966e-17 -3.418496907548709e-17 -7.72877858082966e-17 -3.418496907548709e-17 0.7581652579038515 0.6520624523060844
12648761333.333334 0.7639772784730513 0.6452431464004471 -7.757877955772465e-17 -3.347773238211598e-17 -7.757877955772465e-17 -3.347773238211598e-17 0.7639768660059653 0.645243634767164
12649378666.666666 0.7697275569278794 0.6383725308201147 -7.786330749760745e-17 -3.2768030617441915e-17 -7.786330749760745e-17 -3.2768030617441915e-17 0.7697271488726996 0.6383730228386404
12649996000.0 0.7754160485337261 0.6314506724014014 -7.81413488604656e-17 -3.20559228412547e-17 -7.81413488604656e-17 -3.20559228412547e-17 0.7754156449227756 0.6314511680318871
12650613333.333334 0.781042296669421 0.6244781267692205 -7.841288341780619e-17 -3.1341468287199505e-17 -7.841288341780619e-17 -3.1341468287199505e-17 0.781041897534663 0.624478625971531
12651230666.666666 0.7866058497100734 0.6174554536172898 -7.867789148156143e-17 -3.06247263578779e-17 -7.867789148156143e-17 -3.06247263578779e-17 0.786605455083108 0.6174559563510065
12651848000.0 0.7921062610634454 0.6103832166630471 -7.89363539055027e-17 -2.9905756619885645e-17 -7.89363539055027e-17 -2.9905756619885645e-17 0.7921058709755084 0.6103837228874723
12652465333.333334 0.7975430892057515 0.6032619836024694 -7.918825208658426e-17 -2.918461879890378e-17 -7.918825208658426e-17 -2.918461879890378e-17 0.797542703687711 0.6032624932766294
12653082666.666666 0.802915897717046 0.5960923260645699 -7.94335679662554e-17 -2.8461372774745195e-17 -7.94335679662554e-17 -2.8461372774745195e-17 0.8029155167994005 0.596092839147218
12653700000.0 0.8082242553163762 0.5888748195653545 -7.967228403172998e-17 -2.7736078576381156e-17 -7.967228403172998e-17 -2.7736078576381156e-17 0.8082238790292519 0.5888753360149739
12654317333.333334 0.8134677358962652 0.5816100434618059 -7.990438331720049e-17 -2.700879637698962e-17 -7.990438331720049e-17 -2.700879637698962e-17 0.8134673642694137 0.5816105632366148
12654934666.666666 0.8186459185570342 0.5742985809052197 -8.012984940501804e-17 -2.62795864889594e-17 -8.012984940501804e-17 -2.62795864889594e-17 0.8186455516198304 0.5742991039631725
12655552000.0 0.8237583876405368 0.56694101879446 -8.034866642681898e-17 -2.5548509358907537e-17 -8.034866642681898e-17 -2.5548509358907537e-17 0.823758025421977 0.5669415450932526
12656169333.333334 0.8288047327634809 0.5595379477289232 -8.05608190646077e-17 -2.4815625562688106e-17 -8.05608190646077e-17 -2.4815625562688106e-17 0.8288043752921769 0.5595384772259935
12656786666.666666 0.833784548850457 0.5520899619609821 -8.076629255179872e-17 -2.408099580037124e-17 -8.076629255179872e-17 -2.408099580037124e-17 0.8337841961546405 0.552090494613518
12657404000.0 0.8386974361664179 0.5445976593483633 -8.096507267420813e-17 -2.3344680891235026e-17 -8.096507267420813e-17 -2.3344680891235026e-17 0.8386970882739326 0.5445981951133024
12658021333.333334 0.8435430003487263 0.5370616413061985 -8.115714577099934e-17 -2.2606741768747e-17 -8.115714577099934e-17 -2.2606741768747e-17 0.8435426572870275 0.5370621801402324
12658638666.666666 0.8483208524388304 0.5294825127587268 -8.13424987355862e-17 -2.1867239475531647e-17 -8.13424987355862e-17 -2.1867239475531647e-17 0.8483205142349838 0.5294830546183057
12659256000.0 0.8530306089135917 0.5218608820905688 -8.152111901649311e-17 -2.1126235158316804e-17 -8.152111901649311e-17 -2.1126235158316804e-17 0.85303027559427 0.521861426931904
12659873333.333334 0.8576718917158873 0.5141973610981776 -8.169299461815801e-17 -2.0383790062917524e-17 -8.169299461815801e-17 -2.0383790062917524e-17 0.8576715633073693 0.5141979088772458
12660490666.666666 0.8622443282850534 0.5064925649405898 -8.185811410170139e-17 -1.9639965529172388e-17 -8.185811410170139e-17 -1.9639965529172388e-17 0.862244004813219 0.5064931156131348
12661108000.0 0.8667475515868842 0.4987471120898678 -8.201646658564745e-17 -1.889482298587357e-17 -8.201646658564745e-17 -1.889482298587357e-17 0.866747233077217 0.4987476656114071
12661725333.333334 0.8711812001428535 0.4909616242818753 -8.216804174659103e-17 -1.8148423945733872e-17 -8.216804174659103e-17 -1.8148423945733872e-17 0.8711808866204361 0.49096218060770186
12662342666.666666 0.8755449180593775 0.4831367264659534 -8.231282981982847e-17 -1.7400830000304517e-17 -8.231282981982847e-17 -1.7400830000304517e-17 0.875544609548889 0.483137285551139
12662960000.0 0.8798383550562617 0.4752730467549481 -8.24508215999387e-17 -1.665210281490232e-17 -8.24508215999387e-17 -1.665210281490232e-17 0.8798380515819763 0.4752736085543473
12663577333.333334 0.884061166494796 0.46737121637484363 -8.258200844131768e-17 -1.5902304123539997e-17 -8.258200844131768e-17 -1.5902304123539997e-17 0.8840608680805813 0.4673717808430976
12664194666.666666 0.8882130134054985 0.4594318696139428 -8.270638225866596e-17 -1.5151495723855043e-17 -8.270638225866596e-17 -1.5151495723855043e-17 0.8882127200748148 0.45943243670548334
12664812000.0 0.892293562515288 0.4514556437720277 -8.282393552743449e-17 -1.4399739472014383e-17 -8.282393552743449e-17 -1.4399739472014383e-17 0.8922932742911834 0.4514562134410799
12665429333.333334 0.8963024862742037 0.44344317910925185 -8.293466128422009e-17 -1.3647097277637246e-17 -8.293466128422009e-17 -1.3647097277637246e-17 0.8963022031793166 0.44344375130983926
12666046666.666666 0.9002394628817197 0.4353951187947238 -8.303855312711572e-17 -1.2893631098715793e-17 -8.303855312711572e-17 -1.2893631098715793e-17 0.9002391849382724 0.4353956934806702
12666664000.0 0.9041041763126706 0.427312108854672 -8.313560521601736e-17 -1.2139402936510036e-17 -8.313560521601736e-17 -1.2139402936510036e-17 0.9041039035424705 0.42731268597960687
12667281333.333334 0.9078963163424081 0.4191947981210237 -8.322581227288052e-17 -1.1384474830476759e-17 -8.322581227288052e-17 -1.1384474830476759e-17 0.9078960487668458 0.4191953776383851
12667898666.666666 0.9116155785719046 0.4110438381789133 -8.330916958193514e-17 -1.0628908853161768e-17 -8.330916958193514e-17 -1.0628908853161768e-17 0.9116153162119506 0.4110444200419516
12668516000.0 0.915261664452142 0.4028598833144524 -8.338567298985091e-17 -9.872767105115022e-18 -8.338567298985091e-17 -9.872767105115022e-18 0.9152614073283484 0.4028604674762351
12669133333.333334 0.9188342813079446 0.3946435904625241 -8.345531890585753e-17 -9.116111709805628e-18 -8.345531890585753e-17 -9.116111709805628e-18 0.9188340294404386 0.3946441768759377
12669750666.666666 0.922333142361653 0.38639561915363296 -8.35181043018206e-17 -8.359004808515468e-18 -8.35181043018206e-17 -8.359004808515468e-18 0.9223328957701388 0.3863962077713883
12670368000.0 0.9257579667560505 0.3781166314611708 -8.357402671226936e-17 -7.601508555252348e-18 -8.357402671226936e-17 -7.601508555252348e-18 0.9257577254598076 0.37811722223580646
12670985333.333334 0.9291084795769035 0.3698072919483003 -8.362308423437787e-17 -6.8436851116760374e-18 -8.362308423437787e-17 -6.8436851116760374e-18 0.9291082435947834 0.36980788483218624
