! Parameters = {f0=12700.012000; bw=77.238000; Q=6100.000000; N=10; m_0_1=1.250946; m_1_1=-0.000557; m_1_2=1.085758; m_2_2=-0.001206; m_2_3=0.722721; m_2_8=-0.000389; m_2_9=0.036315; m_3_3=-0.003143; m_3_4=0.611250; m_3_7=0.000211; m_3_8=-0.096877; m_3_9=-0.000389; m_4_4=-0.006068; m_4_5=0.447585; m_4_6=0.003728; m_4_7=-0.117426; m_4_8=0.000211; m_5_5=-0.005686; m_5_6=0.854940; m_5_7=0.003728; m_6_6=-0.005687; m_6_7=0.447927; m_7_7=-0.006054; m_7_8=0.611368; m_8_8=-0.003145; m_8_9=0.723034; m_9_9=-0.001211; m_9_10=1.086836; m_10_10=-0.000567; m_10_11=1.251741}
!
! Created with skrf (http://scikit-rf.org).
# Hz S RI R 50.0 
!freq ReS11 ImS11 ReS21 ImS21 ReS12 ImS12 ReS22 ImS22
12607400000.0 0.9585046705282095 -0.2850768257425283 -8.465341202002619e-17 5.5111511839143846e-17 -8.465341202002619e-17 5.5111511839143846e-17 0.958504858424145 -0.28507619398528866
12608017333.333334 0.9556179105168231 -0.29460890872356527 -8.407889885457778e-17 5.59483830354709e-17 -8.407889885457778e-17 5.59483830354709e-17 0.9556181046859139 -0.2946082788998472
12608634666.666666 0.9526363589533814 -0.3041117682692886 -8.34961206170502e-17 5.677927696285475e-17 -8.34961206170502e-17 5.677927696285475e-17 0.9526365593757544 -0.3041111404413746
12609252000.0 0.9495603115899401 -0.31358446175319993 -8.290513938073773e-17 5.760411207670408e-17 -8.290513938073773e-17 5.760411207670408e-17 0.9495605182451038 -0.3135838359831684
12609869333.333334 0.9463900735519878 -0.32302604954104036 -8.230601802262635e-17 5.842280747593552e-17 -8.230601802262635e-17 5.842280747593552e-17 0.9463902864188338 -0.32302542589075944
12610486666.666666 0.9431259593081721 -0.3324355950840237 -8.169882021673913e-17 5.923528291087944e-17 -8.169882021673913e-17 5.923528291087944e-17 0.943126178364977 -0.3324349736151448
12611104000.0 0.9397682926390271 -0.3418121650119499 -8.10836104273857e-17 6.004145879113955e-17 -8.10836104273857e-17 6.004145879113955e-17 0.9397685178634577 -0.3418115457859026
12611721333.333334 0.936317406605022 -0.35115482922533575 -8.046045390236123e-17 6.084125619334898e-17 -8.046045390236123e-17 6.084125619334898e-17 0.9363176379741346 -0.35115421230332106
12612338666.666666 0.9327736435133689 -0.360462660988103 -7.982941666604424e-17 6.163459686888746e-17 -7.982941666604424e-17 6.163459686888746e-17 0.9327738810036128 -0.3604620464310872
12612956000.0 0.9291373548841021 -0.3697347370193961 -7.919056551242554e-17 6.242140325151838e-17 -7.919056551242554e-17 6.242140325151838e-17 0.9291375984713222 -0.3697341248881054
12613573333.333334 0.9254089014152864 -0.37897013758498294 -7.854396799808953e-17 6.320159846492054e-17 -7.854396799808953e-17 6.320159846492054e-17 0.9254091510747235 -0.3789695279398963
12614190666.666666 0.9215886529471724 -0.3881679465886439 -7.788969243506924e-17 6.397510633021238e-17 -7.788969243506924e-17 6.397510633021238e-17 0.9215889086534697 -0.38816733948998844
12614808000.0 0.9176769884255022 -0.3973272516630711 -7.72278078836723e-17 6.474185137334631e-17 -7.72278078836723e-17 6.474185137334631e-17 0.9176772501527033 -0.3973266471708147
12615425333.333334 0.9136742958639387 -0.40644714426031486 -7.655838414521343e-17 6.55017588324568e-17 -7.655838414521343e-17 6.55017588324568e-17 0.9136745635854945 -0.40644654243416173
12616042666.666666 0.9095809723056129 -0.4155267197418297 -7.588149175468708e-17 6.62547546651174e-17 -7.588149175468708e-17 6.62547546651174e-17 0.9095812459943818 -0.4155261206412135
12616660000.0 0.9053974237836723 -0.4245650774683652 -7.519720197335094e-17 6.700076555554477e-17 -7.519720197335094e-17 6.700076555554477e-17 0.9053977034119233 -0.42456448115244355
12617277333.333334 0.901124065281023 -0.43356132088925015 -7.450558678125349e-17 6.773971892170878e-17 -7.450558678125349e-17 6.773971892170878e-17 0.9011243508204394 -0.43356072741689883
12617894666.666666 0.8967613206892684 -0.44251455763112174 -7.380671886970397e-17 6.847154292235349e-17 -7.380671886970397e-17 6.847154292235349e-17 0.896761612110949 -0.44251396706092844
12618512000.0 0.8923096227664503 -0.451423899586878 -7.310067163362506e-17 6.919616646399311e-17 -7.310067163362506e-17 6.919616646399311e-17 0.8923099200409135 -0.45142331197713675
12619129333.333334 0.8877694130943444 -0.4602884630033124 -7.238751916390548e-17 6.99135192077564e-17 -7.238751916390548e-17 6.99135192077564e-17 0.8877697161915312 -0.460287878412018
12619746666.666666 0.8831411420345107 -0.4691073685690841 -7.166733623962711e-17 7.062353157621524e-17 -7.166733623962711e-17 7.062353157621524e-17 0.8831414509237866 -0.469106787053926
12620364000.0 0.8784252686836646 -0.4778797415018354 -7.094019832025635e-17 7.132613476009953e-17 -7.094019832025635e-17 7.132613476009953e-17 0.8784255833338258 -0.47787916312019335
12620981333.333334 0.8736222608281857 -0.48660471163489416 -7.020618153776913e-17 7.202126072493525e-17 -7.020618153776913e-17 7.202126072493525e-17 0.8736225812074588 -0.48660413644383066
12621598666.666666 0.8687325948976161 -0.495281413503761 -6.946536268869217e-17 7.27088422176194e-17 -6.946536268869217e-17 7.27088422176194e-17 0.868732920973662 -0.4952808415600165
12622216000.0 0.8637567559175134 -0.5039089864317602 -6.871781922609851e-17 7.338881277289509e-17 -6.871781922609851e-17 7.338881277289509e-17 0.8637570876574311 -0.5039084177917472
12622833333.333334 0.8586952374612239 -0.51248657461561 -6.796362925153846e-17 7.406110671974723e-17 -6.796362925153846e-17 7.406110671974723e-17 0.8586955748315556 -0.5124860093354091
12623450666.666666 0.8535485416010441 -0.5210133272101202 -6.720287150690002e-17 7.472565918772362e-17 -6.720287150690002e-17 7.472565918772362e-17 0.853548884567775 -0.5210127653454719
12624068000.0 0.8483171788583102 -0.5294883984127582 -6.643562536620915e-17 7.538240611316988e-17 -6.643562536620915e-17 7.538240611316988e-17 0.848317527386874 -0.5294878400190596
12624685333.333334 0.8430016681528021 -0.5379109475474755 -6.566197082736564e-17 7.603128424538476e-17 -6.566197082736564e-17 7.603128424538476e-17 0.8430020222080853 -0.5379103926797736
12625302666.666666 0.837602536751333 -0.5462801391480019 -6.488198850385611e-17 7.667223115265947e-17 -6.488198850385611e-17 7.667223115265947e-17 0.8376028962976771 -0.5462795878609891
12625920000.0 0.8321203202152638 -0.5545951430410072 -6.409575961633212e-17 7.730518522829692e-17 -6.409575961633212e-17 7.730518522829692e-17 0.8321206852164682 -0.5545945953890148
12626537333.333334 0.8265555623476385 -0.5628551344280416 -6.330336598421274e-17 7.793008569647487e-17 -6.330336598421274e-17 7.793008569647487e-17 0.8265559327669649 -0.5628545904650347
12627154666.666666 0.820908815139058 -0.5710592939676375 -6.250489001718706e-17 7.854687261806023e-17 -6.250489001718706e-17 7.854687261806023e-17 0.820909190939236 -0.5710587537472114
12627772000.0 0.8151806387128769 -0.5792068078566539 -6.170041470663933e-17 7.915548689635206e-17 -6.170041470663933e-17 7.915548689635206e-17 0.8151810198561048 -0.5792062714320264
12628389333.333334 0.8093716012699158 -0.5872968679106011 -6.089002361708688e-17 7.975587028268483e-17 -6.089002361708688e-17 7.975587028268483e-17 0.8093719877178654 -0.5872963353346083
12629006666.666666 0.8034822790317568 -0.5953286716442975 -6.007380087748375e-17 8.03479653820043e-17 -6.007380087748375e-17 8.03479653820043e-17 0.803482670745579 -0.5953281429693892
12629624000.0 0.7975132561838333 -0.6033014223511237 -5.92518311725439e-17 8.093171565830031e-17 -5.92518311725439e-17 8.093171565830031e-17 0.7975136531241589 -0.6033008976293572
12630241333.333334 0.7914651248173472 -0.6112143291822343 -5.842419973395028e-17 8.150706543999734e-17 -5.842419973395028e-17 8.150706543999734e-17 0.7914655269442943 -0.6112138084652706
12630858666.666666 0.7853384848707132 -0.6190666072247816 -5.759099233156245e-17 8.207395992521792e-17 -5.759099233156245e-17 8.207395992521792e-17 0.7853388921438864 -0.6190660905638775
12631476000.0 0.7791339440697465 -0.6268574775801522 -5.675229526451972e-17 8.26323451869943e-17 -5.675229526451972e-17 8.26323451869943e-17 0.7791343564482461 -0.6268569650261586
12632093333.333334 0.7728521178676641 -0.6345861674408736 -5.590819535236476e-17 8.318216817834129e-17 -5.590819535236476e-17 8.318216817834129e-17 0.7728525353100882 -0.6345856590442294
12632710666.666666 0.7664936293839844 -0.64225191016734 -5.505877992605058e-17 8.372337673728546e-17 -5.505877992605058e-17 8.372337673728546e-17 0.7664940518484322 -0.6422514059780662
12633328000.0 0.7600591093425184 -0.6498539453641003 -5.4204136818924216e-17 8.425591959178436e-17 -5.4204136818924216e-17 8.425591959178436e-17 0.7600595367865951 -0.6498534454317956
12633945333.333334 0.7535491960090211 -0.6573915189550193 -5.3344354357682895e-17 8.477974636454193e-17 -5.3344354357682895e-17 8.477974636454193e-17 0.7535496283898424 -0.6573910233288557
12634562666.666666 0.7469645351278449 -0.6648638832581232 -5.24795213532652e-17 8.529480757774492e-17 -5.24795213532652e-17 8.529480757774492e-17 0.7469649724020412 -0.6648633919868409
12635180000.0 0.7403057798577949 -0.6722702970598747 -5.160972709168675e-17 8.580105465771204e-17 -5.160972709168675e-17 8.580105465771204e-17 0.7403062219815143 -0.6722698101917761
12635797333.333334 0.7335735907073894 -0.6796100256886276 -5.073506132484854e-17 8.629843993943929e-17 -5.073506132484854e-17 8.629843993943929e-17 0.7335740376363047 -0.6796095432715751
12636414666.666666 0.7267686354693866 -0.686882341087465 -4.9855614261314394e-17 8.678691667104549e-17 -4.9855614261314394e-17 8.678691667104549e-17 0.7267690871586971 -0.6868818631688736
12637032000.0 0.7198915891545001 -0.6940865218864564 -4.8971476556999035e-17 8.72664390181506e-17 -4.8971476556999035e-17 8.72664390181506e-17 0.7198920455589393 -0.6940860485132918
12637649333.333334 0.7129431339244079 -0.7012218534742582 -4.8082739305864e-17 8.773696206813136e-17 -4.8082739305864e-17 8.773696206813136e-17 0.7129435949982438 -0.7012213846930291
12638266666.666666 0.7059239590241191 -0.7082876280689534 -4.7189494030545865e-17 8.819844183429801e-17 -4.7189494030545865e-17 8.819844183429801e-17 0.7059244247211623 -0.7082871639257096
12638884000.0 0.6988347607136692 -0.7152831447882014 -4.6291832672962165e-17 8.865083525996602e-17 -4.6291832672962165e-17 8.865083525996602e-17 0.6988352309872761 -0.7152826853285277
12639501333.333334 0.6916762421989133 -0.7222077097189015 -4.5389847584851425e-17 8.909410022244767e-17 -4.5389847584851425e-17 8.909410022244767e-17 0.6916767170019907 -0.7222072549879137
12640118666.666666 0.6844491135619754 -0.7290606359858255 -4.448363151831798e-17 8.952819553692483e-17 -4.448363151831798e-17 8.952819553692483e-17 0.6844495928469858 -0.7290601860281666
12640736000.0 0.6771540916904433 -0.7358412438201064 -4.357327761626911e-17 8.995308096026153e-17 -4.357327761626911e-17 8.995308096026153e-17 0.6771545754094087 -0.7358407986799406
12641353333.333334 0.6697919002068345 -0.7425488606261188 -4.2658879402934216e-17 9.036871719466319e-17 -4.2658879402934216e-17 9.036871719466319e-17 0.6697923883113427 -0.742548420347129
12641970666.666666 0.6623632693962611 -0.7491828210487248 -4.174053077420801e-17 9.077506589130596e-17 -4.174053077420801e-17 9.077506589130596e-17 0.6623637618374686 -0.7491823856741068
12642588000.0 0.6548689361342552 -0.7557424670390164 -4.081832598806525e-17 9.117208965381911e-17 -4.081832598806525e-17 9.117208965381911e-17 0.6548694328628938 -0.7557420366114755
12643205333.333334 0.6473096438137218 -0.7622271479195567 -3.9892359654899275e-17 9.155975204169115e-17 -3.9892359654899275e-17 9.155975204169115e-17 0.647310144780103 -0.7622267224813043
12643822666.666666 0.6396861422709859 -0.7686362204491115 -3.8962726727835926e-17 9.193801757357322e-17 -3.8962726727835926e-17 9.193801757357322e-17 0.6396866474250045 -0.768635800041858
12644440000.0 0.6319991877115789 -0.7749690488862987 -3.802952249301466e-17 9.230685173048703e-17 -3.802952249301466e-17 9.230685173048703e-17 0.6319996970027213 -0.774968633551254
12645057333.333334 0.6242495426352808 -0.7812250050526249 -3.709284255984742e-17 9.266622095893033e-17 -3.709284255984742e-17 9.266622095893033e-17 0.6242500560126262 -0.7812245948304896
12645674666.666666 0.6164379757603466 -0.787403468394898 -3.615278285125129e-17 9.301609267388286e-17 -3.615278285125129e-17 9.301609267388286e-17 0.6164384931725756 -0.7874030633258634
12646292000.0 0.6085652619471701 -0.7935038260468583 -3.520943959381121e-17 9.335643526173002e-17 -3.520943959381121e-17 9.335643526173002e-17 0.6085657833425658 -0.7935034261705985
12646909333.333334 0.6006321821217723 -0.7995254728896815 -3.426290930799525e-17 9.368721808305694e-17 -3.426290930799525e-17 9.368721808305694e-17 0.6006327074482297 -0.7995250782453537
12647526666.666666 0.5926395231979866 -0.8054678116122914 -3.331328879826709e-17 9.400841147537192e-17 -3.331328879826709e-17 9.400841147537192e-17 0.5926400524030151 -0.8054674222385289
12648144000.0 0.5845880779995101 -0.811330252770516 -3.236067514321886e-17 9.431998675571352e-17 -3.236067514321886e-17 9.431998675571352e-17 0.5845886110302398 -0.8113298687054261
12648761333.333334 0.5764786451813049 -0.8171122148455237 -3.14051656856617e-17 9.462191622316498e-17 -3.14051656856617e-17 9.462191622316498e-17 0.5764791819844917 -0.8171118361266839
12649378666.666666 0.5683120291504725 -0.8228131243014439 -3.044685802270945e-17 9.491417316126274e-17 -3.044685802270945e-17 9.491417316126274e-17 0.5683125696725027 -0.822812750965896
12649996000.0 0.5600890399862045 -0.8284324156424362 -2.948584999581098e-17 9.519673184031435e-17 -2.948584999581098e-17 9.519673184031435e-17 0.5600895841731017 -0.8284320477266869
12650613333.333334 0.5518104933595664 -0.8339695314686871 -2.852223968079946e-17 9.54695675196036e-17 -2.852223968079946e-17 9.54695675196036e-17 0.5518110411569953 -0.8339691690087
12651230666.666666 0.5434772104527552 -0.8394239225315905 -2.7556125377897924e-17 9.57326564495041e-17 -2.7556125377897924e-17 9.57326564495041e-17 0.5434777618060278 -0.8394235655627854
12651848000.0 0.5350900178772627 -0.8447950477884799 -2.658760560169455e-17 9.598597587349263e-17 -2.658760560169455e-17 9.598597587349263e-17 0.5350905727313439 -0.8447946963457285
12652465333.333334 0.5266497475921658 -0.8500823744561103 -2.561677907113605e-17 9.622950403005327e-17 -2.561677907113605e-17 9.622950403005327e-17 0.5266503058916779 -0.8500820285737319
12653082666.666666 0.5181572368216733 -0.8552853780634616 -2.4643744699496207e-17 9.646322015448232e-17 -2.4643744699496207e-17 9.646322015448232e-17 0.5181577985109035 -0.8552850377752224
12653700000.0 0.5096133279716952 -0.8604035425040066 -2.3668601584273797e-17 9.668710448060633e-17 -2.3668601584273797e-17 9.668710448060633e-17 0.5096138929945988 -0.8604032078431127
12654317333.333334 0.5010188685467135 -0.8654363600866333 -2.26914489971664e-17 9.690113824237514e-17 -2.26914489971664e-17 9.690113824237514e-17 0.5010194368469216 -0.8654360310857312
12654934666.666666 0.4923747110654258 -0.8703833315861854 -2.1712386373964744e-17 9.710530367537069e-17 -2.1712386373964744e-17 9.710530367537069e-17 0.49237528258624935 -0.8703830082773563
12655552000.0 0.483681712976276 -0.8752439662929217 -2.0731513304436895e-17 9.729958401821193e-17 -2.0731513304436895e-17 9.729958401821193e-17 0.4836822876607118 -0.8752436487076781
12656169333.333334 0.47494073657247565 -0.8800177820611491 -1.9748929522253592e-17 9.748396351384774e-17 -1.9748929522253592e-17 9.748396351384774e-17 0.47494131436321285 -0.8800174702304344
12656786666.666666 0.46615264890629626 -0.8847043053571478 -1.8764734894833695e-17 9.765842741076185e-17 -1.8764734894833695e-17 9.765842741076185e-17 0.466153229745721 -0.8847039993113301
12657404000.0 0.4573183217032617 -0.8893030713060315 -1.777902941323833e-17 9.782296196406455e-17 -1.777902941323833e-17 9.782296196406455e-17 0.4573189055334645 -0.8893027710749049
12658021333.333334 0.44843863127547995 -0.8938136237379718 -1.6791913182009272e-17 9.797755443649075e-17 -1.6791913182009272e-17 9.797755443649075e-17 0.44843921803825826 -0.8938133293507463
12658638666.666666 0.43951445843494097 -0.8982355152333222 -1.5803486409047267e-17 9.812219309928882e-17 -1.5803486409047267e-17 9.812219309928882e-17 0.43951504807180863 -0.8982352267186284
12659256000.0 0.4305466884058445 -0.902568307167159 -1.4813849395425073e-17 9.825686723301517e-17 -1.4813849395425073e-17 9.825686723301517e-17 0.430547280858036 -0.9025680245530429
12659873333.333334 0.4215362107371214 -0.9068115697526248 -1.3823102525265134e-17 9.83815671282174e-17 -1.3823102525265134e-17 9.83815671282174e-17 0.42153680594559706 -0.9068112930665421
12660490666.666666 0.4124839192140426 -0.9109648820836364 -1.2831346255559628e-17 9.849628408602281e-17 -1.2831346255559628e-17 9.849628408602281e-17 0.4124845171194955 -0.9109646113524534
12661108000.0 0.4033907117693802 -0.9150278321767183 -1.1838681105987022e-17 9.860101041862372e-17 -1.1838681105987022e-17 9.860101041862372e-17 0.40339131231224123 -0.9150275674267077
12661725333.333334 0.3942574903947761 -0.9190000170116666 -1.0845207648776862e-17 9.869573944965522e-17 -1.0845207648776862e-17 9.869573944965522e-17 0.3942580935152214 -0.9189997582685066
12662342666.666666 0.3850851610508326 -0.9228810425717309 -9.851026498519824e-18 9.87804655144766e-17 -9.851026498519824e-18 9.87804655144766e-17 0.3850857666887875 -0.9228807898604995
12662960000.0 0.3758746335774507 -0.9266705238825973 -8.856238301994378e-18 9.885518396034885e-17 -8.856238301994378e-18 9.885518396034885e-17 0.37587524167259717 -0.9266702772277727
12663577333.333334 0.36662682160363436 -0.9303680850505611 -7.86094372800532e-18 9.891989114650846e-17 -7.86094372800532e-18 9.891989114650846e-17 0.3666274320954159 -0.9303678444760176
12664194666.666666 0.35734264245670466 -0.9339733592998732 -6.8652434572100905e-18 9.8974584444141e-17 -6.8652434572100905e-18 9.8974584444141e-17 0.3573432552843341 -0.9339731248288816
12664812000.0 0.34802301707141403 -0.9374859890090841 -5.869238171964653e-18 9.901926223625077e-17 -5.869238171964653e-18 9.901926223625077e-17 0.3480236321738775 -0.9374857606643059
12665429333.333334 0.33866886989851336 -0.9409056257465438 -4.873028546142265e-18 9.905392391743077e-17 -4.873028546142265e-18 9.905392391743077e-17 0.3386694872145773 -0.9409054035500302
12666046666.666666 0.3292811288132925 -0.9442319303048772 -3.876715234999287e-18 9.907856989352848e-17 -3.876715234999287e-18 9.907856989352848e-17 0.3292817482815106 -0.9442317142780697
12666664000.0 0.3198607250230878 -0.9474645727347991 -2.8803988650017266e-18 9.909320158121088e-17 -2.8803988650017266e-18 9.909320158121088e-17 0.3198613465818055 -0.947464362898523
12667281333.333334 0.31040859297536494 -0.9506032323776754 -1.884180023703788e-18 9.909782140742741e-17 -1.884180023703788e-18 9.909782140742741e-17 0.3104092165627267 -0.9506030287521413
12667898666.666666 0.3009256702648419 -0.9536475978974033 -8.881592495947892e-19 9.909243280877118e-17 -8.881592495947892e-19 9.909243280877118e-17 0.3009262958187967 -0.9536474005022026
12668516000.0 0.29141289754032085 -0.9565973673113393 1.0756297803369272e-19 9.907704023073813e-17 1.0756297803369272e-19 9.907704023073813e-17 0.29141352499862905 -0.9565971761654452
12669133333.333334 0.28187121841170787 -0.9594522480201557 1.1028862491685343e-18 9.905164912688611e-17 1.1028862491685343e-18 9.905164912688611e-17 0.28187184771194673 -0.9594520631419181
12669750666.666666 0.27230157935622173 -0.9622119568369214 2.097710233226524e-18 9.901626595789048e-17 2.097710233226524e-18 9.901626595789048e-17 0.2723022104357922 -0.9622117782440682
12670368000.0 0.2627049296244554 -0.9648762200152103 3.091934689126254e-18 9.89708981904999e-17 3.091934689126254e-18 9.89708981904999e-17 0.2627055624205877 -0.9648760477248429
12670985333.333334 0.25308222114637857 -0.9674447732762046 4.0854594753667945e-18 9.891555429639114e-17 4.0854594753667945e-18 9.891555429639114e-17 0.2530828555961388 -0.9674446073047978
