! Parameters = {f0=12700.012000; bw=77.238000; Q=6100.000000; N=10; m_0_1=1.222117; m_1_1=-0.432989; m_1_2=1.056929; m_2_2=-0.433638; m_2_3=0.693892; m_2_8=-0.001830; m_2_9=0.034874; m_3_3=-0.435575; m_3_4=0.582421; m_3_7=-0.001230; m_3_8=-0.098318; m_3_9=-0.001830; m_4_4=-0.438500; m_4_5=0.418756; m_4_6=0.002287; m_4_7=-0.118867; m_4_8=-0.001230; m_5_5=-0.438118; m_5_6=0.826111; m_5_7=0.002287; m_6_6=-0.438119; m_6_7=0.419098; m_7_7=-0.438486; m_7_8=0.582539; m_8_8=-0.435577; m_8_9=0.694205; m_9_9=-0.433643; m_9_10=1.058007; m_10_10=-0.432999; m_10_11=1.222912}
!
! Created with skrf (http://scikit-rf.org).
# Hz S RI R 50.0 
!freq ReS11 ImS11 ReS21 ImS21 ReS12 ImS12 ReS22 ImS22
12607400000.0 -0.15071123667155006 -0.9885778285702994 3.732535742891691e-17 7.942888432763767e-17 3.732535742891691e-17 7.942888432763767e-17 -0.15071060005859632 -0.9885779256233747
12608017333.333334 -0.15970823866249026 -0.9871642611557419 3.8046751029826206e-17 7.90667946169379e-17 3.8046751029826206e-17 7.90667946169379e-17 -0.15970760299095596 -0.9871643639975662
12608634666.666666 -0.1686919937761818 -0.9856688141742399 3.876464410612914e-17 7.869815927721228e-17 3.876464410612914e-17 7.869815927721228e-17 -0.1686913590986976 -0.985668922795718
12609252000.0 -0.1776617568621248 -0.9840916116645343 3.947897732351086e-17 7.832301204428854e-17 3.947897732351086e-17 7.832301204428854e-17 -0.1776611232312333 -0.9840917260560893
12609869333.333334 -0.1866167839303213 -0.982432784446519 4.018969167185456e-17 7.794138719130369e-17 4.018969167185456e-17 7.794138719130369e-17 -0.18661615139847376 -0.9824329045980997
12610486666.666666 -0.19555633221301494 -0.9806924701103962 4.089672847009119e-17 7.755331952560261e-17 4.089672847009119e-17 7.755331952560261e-17 -0.19555570083256585 -0.9806925960114722
12611104000.0 -0.20447966022649286 -0.9788708130052174 4.1600029371054464e-17 7.715884438557365e-17 4.1600029371054464e-17 7.715884438557365e-17 -0.20447903004969636 -0.9788709446447842
12611721333.333334 -0.21338602783222563 -0.9769679642269861 4.2299536366251087e-17 7.675799763747049e-17 4.2299536366251087e-17 7.675799763747049e-17 -0.21338539891123082 -0.9769681015935635
12612338666.666666 -0.22227469629853652 -0.9749840816060696 4.299519179065316e-17 7.635081567216222e-17 4.299519179065316e-17 7.635081567216222e-17 -0.22227406868538327 -0.9749842246877036
12612956000.0 -0.23114492836187353 -0.9729193296941023 4.368693832743726e-17 7.593733540185146e-17 4.368693832743726e-17 7.593733540185146e-17 -0.2311443021084882 -0.9729194784783665
12613573333.333334 -0.23999598828771296 -0.9707738797503986 4.437471901267357e-17 7.5517594256762e-17 4.437471901267357e-17 7.5517594256762e-17 -0.2399953634459039 -0.9707740342243942
12614190666.666666 -0.2488271419318604 -0.9685479097276807 4.5058477240023686e-17 7.509163018175946e-17 4.5058477240023686e-17 7.509163018175946e-17 -0.24882651855331386 -0.9685480698780384
12614808000.0 -0.2576376568012057 -0.9662416042573521 4.573815676537452e-17 7.46594816329491e-17 4.573815676537452e-17 7.46594816329491e-17 -0.2576370349374817 -0.9662417700702343
12615425333.333334 -0.2664268021145068 -0.9638551546341777 4.6413701711452455e-17 7.42211875742239e-17 4.6413701711452455e-17 7.42211875742239e-17 -0.2664261818170346 -0.9638553260952772
12616042666.666666 -0.2751938488630038 -0.9613887588004156 4.7085056572402535e-17 7.377678747377238e-17 4.7085056572402535e-17 7.377678747377238e-17 -0.27519323018307756 -0.9613889358949586
12616660000.0 -0.2839380698708854 -0.9588426213293987 4.775216621833467e-17 7.332632130054551e-17 4.775216621833467e-17 7.332632130054551e-17 -0.2839374528596602 -0.9588428040421456
12617277333.333334 -0.2926587398556322 -0.9562169534085612 4.8414975899838047e-17 7.286982952068057e-17 4.8414975899838047e-17 7.286982952068057e-17 -0.2926581245641198 -0.9562171417238077
12617894666.666666 -0.30135513548803794 -0.9535119728219588 4.907343125244971e-17 7.240735309389381e-17 4.907343125244971e-17 7.240735309389381e-17 -0.30135452196710244 -0.9535121667235379
12618512000.0 -0.31002653545250414 -0.950727903932115 4.972747830112111e-17 7.193893346980926e-17 4.972747830112111e-17 7.193893346980926e-17 -0.31002592375285803 -0.9507281034033987
12619129333.333334 -0.31867222050651745 -0.9478649776615243 5.037706346459955e-17 7.146461258428377e-17 5.037706346459955e-17 7.146461258428377e-17 -0.31867161067871663 -0.9478651826854223
12619746666.666666 -0.3272914735404683 -0.9449234314734426 5.102213355982497e-17 7.098443285565635e-17 5.102213355982497e-17 7.098443285565635e-17 -0.32729086563490895 -0.9449236420324072
12620364000.0 -0.3358835796372926 -0.941903509352139 5.16626358062611e-17 7.049843718097948e-17 5.16626358062611e-17 7.049843718097948e-17 -0.33588297370420656 -0.9419037254281651
12620981333.333334 -0.34444782613142116 -0.9388054617827783 5.2298517830193444e-17 7.000666893221114e-17 5.2298517830193444e-17 7.000666893221114e-17 -0.3444472222208713 -0.9388056833574041
12621598666.666666 -0.35298350266818507 -0.9356295457305396 5.29297276690084e-17 6.950917195235359e-17 5.29297276690084e-17 6.950917195235359e-17 -0.3529829008300624 -0.9356297727848506
12622216000.0 -0.36148990126260316 -0.9323760246193539 5.355621377541669e-17 6.900599055156959e-17 5.355621377541669e-17 6.900599055156959e-17 -0.36148930154662123 -0.9323762571339816
12622833333.333334 -0.36996631635815697 -0.9290451683100304 5.4177925021651444e-17 6.849716950325118e-17 5.4177925021651444e-17 6.849716950325118e-17 -0.3699657188138488 -0.929045406265156
12623450666.666666 -0.3784120448852078 -0.925637253077917 5.47948107036179e-17 6.798275404006044e-17 5.47948107036179e-17 6.798275404006044e-17 -0.37841144956192135 -0.9256374964532723
12624068000.0 -0.38682638631944427 -0.9221525615899339 5.540682054502314e-17 6.746278984991906e-17 5.540682054502314e-17 6.746278984991906e-17 -0.38682579326633865 -0.9221528103648033
12624685333.333334 -0.3952086427400121 -0.9185913828811126 5.601390470145936e-17 6.693732307196619e-17 5.601390470145936e-17 6.693732307196619e-17 -0.3952080520060529 -0.9185916370343341
12625302666.666666 -0.4035581188871407 -0.9149540123307344 5.661601376442972e-17 6.640640029249906e-17 5.661601376442972e-17 6.640640029249906e-17 -0.4035575305210969 -0.9149542718407027
12625920000.0 -0.4118741222202038 -0.9112407516376633 5.721309876538163e-17 6.587006854083561e-17 5.721309876538163e-17 6.587006854083561e-17 -0.41187353627064305 -0.9112410164823312
12626537333.333334 -0.4201559629747959 -0.9074519087954797 5.780511117964764e-17 6.532837528518926e-17 5.780511117964764e-17 6.532837528518926e-17 -0.42015537949008036 -0.9074521789523585
12627154666.666666 -0.4284029542201007 -0.903587798066866 5.839200293038452e-17 6.478136842847542e-17 5.839200293038452e-17 6.478136842847542e-17 -0.42840237324838387 -0.9035880735130298
12627772000.0 -0.4366144119160237 -0.8996487399574694 5.89737263924723e-17 6.422909630408212e-17 5.89737263924723e-17 6.422909630408212e-17 -0.43661383350524574 -0.8996490206695555
12628389333.333334 -0.444789654969567 -0.8956350611894841 5.955023439633786e-17 6.36716076716404e-17 5.955023439633786e-17 6.36716076716404e-17 -0.4447890791674511 -0.8956353471436955
12629006666.666666 -0.45292800529173377 -0.8915470946743573 6.012148023179048e-17 6.310895171271065e-17 6.012148023179048e-17 6.310895171271065e-17 -0.45292743214578196 -0.8915473858464644
12629624000.0 -0.4610287878533889 -0.8873851794853643 6.068741765177055e-17 6.254117802647947e-17 6.068741765177055e-17 6.254117802647947e-17 -0.46102821741087807 -0.8873854758507067
12630241333.333334 -0.4690913307415523 -0.8831496608293277 6.124800087608815e-17 6.196833662539379e-17 6.124800087608815e-17 6.196833662539379e-17 -0.46909076304953107 -0.8831499623628174
12630858666.666666 -0.4771149652148798 -0.8788408900181204 6.180318459509939e-17 6.13904779307828e-17 6.180318459509939e-17 6.13904779307828e-17 -0.4771144003201632 -0.8788411966942421
12631476000.0 -0.48509902575943026 -0.8744592244393609 6.23529239733711e-17 6.080765276841662e-17 6.23529239733711e-17 6.080765276841662e-17 -0.48509846370859794 -0.8744595362321773
12632093333.333334 -0.4930428501435429 -0.87000502752695 6.289717465326264e-17 6.021991236407547e-17 6.289717465326264e-17 6.021991236407547e-17 -0.49304229098293323 -0.8700053444101004
12632710666.666666 -0.5009457794729146 -0.8654786687308423 6.343589275849882e-17 5.96273083390531e-17 6.343589275849882e-17 5.96273083390531e-17 -0.5009452232486221 -0.8654789906775467
12633328000.0 -0.5088071582453753 -0.8608805234863333 6.396903489769822e-17 5.902989270562951e-17 6.396903489769822e-17 5.902989270562951e-17 -0.5088066050032463 -0.8608808504693947
12633945333.333334 -0.5166263344050348 -0.8562109731830438 6.44965581678364e-17 5.842771786253854e-17 6.44965581678364e-17 5.842771786253854e-17 -0.5166257841906635 -0.8562113051748497
12634562666.666666 -0.5244026593964909 -0.8514704051332167 6.501842015768944e-17 5.782083659037873e-17 6.501842015768944e-17 5.782083659037873e-17 -0.5244021122552168 -0.8514707421057429
12635180000.0 -0.5321354882186002 -0.8466592125396083 6.553457895122484e-17 5.720930204700473e-17 6.553457895122484e-17 5.720930204700473e-17 -0.5321349441955023 -0.8466595544644181
12635797333.333334 -0.5398241794779974 -0.8417777944628521 6.604499313095221e-17 5.659316776288497e-17 6.604499313095221e-17 5.659316776288497e-17 -0.5398236386178931 -0.8417781413111036
12636414666.666666 -0.547468095442204 -0.8368265557884281 6.654962178122301e-17 5.597248763643904e-17 6.654962178122301e-17 5.597248763643904e-17 -0.5474675577896425 -0.8368269075308717
12637032000.0 -0.5550666020926638 -0.8318059071929825 6.704842449150192e-17 5.5347315929326826e-17 6.704842449150192e-17 5.5347315929326826e-17 -0.5550660676919255 -0.831806263799967
12637649333.333334 -0.5626190691772399 -0.82671626511033 6.754136135957904e-17 5.4717707261728025e-17 6.754136135957904e-17 5.4717707261728025e-17 -0.5626185380723295 -0.8267166265518024
12638266666.666666 -0.5701248702625094 -0.8215580516968927 6.802839299474504e-17 5.4083716607583196e-17 6.802839299474504e-17 5.4083716607583196e-17 -0.5701243424971552 -0.8215584179424029
12638884000.0 -0.5775833827857492 -0.8163316947966724 6.850948052092096e-17 5.344539928980928e-17 6.850948052092096e-17 5.344539928980928e-17 -0.5775828584033983 -0.8163320658153752
12639501333.333334 -0.5849939881065037 -0.8110376279058118 6.89845855797444e-17 5.280281097548503e-17 6.89845855797444e-17 5.280281097548503e-17 -0.584993467150317 -0.8110380036664673
12640118666.666666 -0.5923560715578963 -0.8056762901366368 6.945367033360205e-17 5.215600767102148e-17 6.945367033360205e-17 5.215600767102148e-17 -0.5923555540707481 -0.8056766706076172
12640736000.0 -0.5996690224978907 -0.8002481261810376 6.991669746864155e-17 5.1505045717271454e-17 6.991669746864155e-17 5.1505045717271454e-17 -0.5996685085223626 -0.8002485113303262
12641353333.333334 -0.6069322343594107 -0.7947535862739672 7.037363019769521e-17 5.084998178467314e-17 7.037363019769521e-17 5.084998178467314e-17 -0.606931723937788 -0.7947539760691619
12641970666.666666 -0.6141451047011309 -0.7891931261557423 7.082443226320754e-17 5.019087286829704e-17 7.082443226320754e-17 5.019087286829704e-17 -0.6141445978754025 -0.7891935205640614
12642588000.0 -0.6213070352572222 -0.7835672070344175 7.126906794008035e-17 4.9527776282920097e-17 7.126906794008035e-17 4.9527776282920097e-17 -0.6213065320690722 -0.783567606022697
12643205333.333334 -0.6284174319869922 -0.7778762955475064 7.170750203848558e-17 4.88607496580542e-17 7.170750203848558e-17 4.88607496580542e-17 -0.6284169324777996 -0.7778766990822069
12643822666.666666 -0.6354757051242492 -0.7721208637232109 7.213969990663606e-17 4.818985093294419e-17 7.213969990663606e-17 4.818985093294419e-17 -0.6354752093350842 -0.7721212717704186
12644440000.0 -0.6424812692261068 -0.7663013889413539 7.256562743349729e-17 4.7515138351559946e-17 7.256562743349729e-17 4.7515138351559946e-17 -0.6424807771977276 -0.766301801466786
12645057333.333334 -0.6494335432215699 -0.7604183538937731 7.2985251051461e-17 4.683667045755243e-17 7.2985251051461e-17 4.683667045755243e-17 -0.6494330549944174 -0.7604187708627762
12645674666.666666 -0.6563319504597266 -0.7544722465442771 7.339853773897013e-17 4.6154506089188527e-17 7.339853773897013e-17 4.6154506089188527e-17 -0.656331466073924 -0.754472667921835
12646292000.0 -0.6631759187577327 -0.748463560088048 7.38054550231053e-17 4.5468704374247835e-17 7.38054550231053e-17 4.5468704374247835e-17 -0.6631754382530795 -0.7484639858387802
12646909333.333334 -0.6699648804479874 -0.7423927929109698 7.420597098209908e-17 4.47793247249397e-17 7.420597098209908e-17 4.47793247249397e-17 -0.6699644038639584 -0.7423932229991382
12647526666.666666 -0.6766982724254385 -0.7362604485481099 7.46000542478311e-17 4.408642683274901e-17 7.46000542478311e-17 4.408642683274901e-17 -0.676697799801178 -0.7362608829376189
12648144000.0 -0.6833755361942587 -0.7300670356419654 7.498767400826213e-17 4.339007066328427e-17 7.498767400826213e-17 4.339007066328427e-17 -0.68337506756858 -0.7300674742963664
12648761333.333334 -0.6899961179141119 -0.7238130679003332 7.536880000981614e-17 4.2690316451110377e-17 7.536880000981614e-17 4.2690316451110377e-17 -0.6899956533254926 -0.7238135107828285
12649378666.666666 -0.696559468446007 -0.717499064053782 7.57434025597196e-17 4.1987224694552694e-17 7.57434025597196e-17 4.1987224694552694e-17 -0.6965590079325864 -0.7174995111272262
12649996000.0 -0.7030650433980745 -0.7111255478124108 7.611145252829808e-17 4.128085615046977e-17 7.611145252829808e-17 4.128085615046977e-17 -0.7030645869976495 -0.7111259990393138
12650613333.333334 -0.709512303170573 -0.7046930478225434 7.647292135121488e-17 4.0571271829023447e-17 7.647292135121488e-17 4.0571271829023447e-17 -0.7095118509205963 -0.7046935031650756
12651230666.666666 -0.7159007130005904 -0.6982020976229472 7.682778103166021e-17 3.9858532988432105e-17 7.682778103166021e-17 3.9858532988432105e-17 -0.7159002649381664 -0.6982025570429402
12651848000.0 -0.7222297430065957 -0.691653235600372 7.717600414250728e-17 3.914270112967422e-17 7.717600414250728e-17 3.914270112967422e-17 -0.7222292991684782 -0.691653699059324
12652465333.333334 -0.7284988682322122 -0.6850470049450794 7.751756382839789e-17 3.8423837991215067e-17 7.751756382839789e-17 3.8423837991215067e-17 -0.7284984286548005 -0.6850474724041563
12653082666.666666 -0.7347075686897598 -0.6783839536057877 7.785243380778949e-17 3.7702005543695864e-17 7.785243380778949e-17 3.7702005543695864e-17 -0.7347071334090975 -0.6783844250258287
12653700000.0 -0.7408553294035803 -0.6716646342440168 7.818058837496284e-17 3.697726598458295e-17 7.818058837496284e-17 3.697726598458295e-17 -0.7408548984553506 -0.6716651095855357
12654317333.333334 -0.7469416404524817 -0.6648896041885398 7.850200240195587e-17 3.6249681732853495e-17 7.850200240195587e-17 3.6249681732853495e-17 -0.7469412138720035 -0.6648900834117283
12654934666.666666 -0.7529659970122222 -0.6580594253889444 7.881665134047177e-17 3.551931542361075e-17 7.881665134047177e-17 3.551931542361075e-17 -0.752965574834451 -0.6580599084536775
12655552000.0 -0.7589278993973848 -0.6511746643690236 7.912451122372788e-17 3.4786229902705644e-17 7.912451122372788e-17 3.4786229902705644e-17 -0.758927481656906 -0.6511751512348609
12656169333.333334 -0.7648268531026522 -0.6442358921799772 7.94255586682458e-17 3.4050488221363043e-17 7.94255586682458e-17 3.4050488221363043e-17 -0.764826439833681 -0.6442363828061672
12656786666.666666 -0.7706623688440124 -0.6372436843528323 7.971977087560938e-17 3.331215363074958e-17 7.971977087560938e-17 3.331215363074958e-17 -0.7706619600803887 -0.6372441786983155
12657404000.0 -0.776433962599247 -0.6301986208508145 8.000712563415923e-17 3.2571289576561e-17 8.000712563415923e-17 3.2571289576561e-17 -0.7764335583744341 -0.6301991188742266
12658021333.333334 -0.7821411556481145 -0.6231012860211981 8.028760132064251e-17 3.1827959693579e-17 8.028760132064251e-17 3.1827959693579e-17 -0.7821407559951957 -0.6231017876808741
12658638666.666666 -0.7877834746119852 -0.615952268546926 8.056117690180687e-17 3.10822278002304e-17 8.056117690180687e-17 3.10822278002304e-17 -0.7877830795636633 -0.6159527738009046
12659256000.0 -0.7933604514932178 -0.608752161397654 8.082783193595657e-17 3.033415789309842e-17 8.082783193595657e-17 3.033415789309842e-17 -0.7933600610818079 -0.6087526702036777
12659873333.333334 -0.7988716237139143 -0.6015015617806262 8.108754657444176e-17 2.958381414146465e-17 8.108754657444176e-17 2.958381414146465e-17 -0.7988712379713451 -0.6015020740961482
12660490666.666666 -0.8043165341542257 -0.5942010710912352 8.13403015631059e-17 2.8831260881815836e-17 8.13403015631059e-17 2.8831260881815836e-17 -0.8043161531120359 -0.5942015868734223
12661108000.0 -0.8096947311904567 -0.5868512948628916 8.158607824368579e-17 2.8076562612326676e-17 8.158607824368579e-17 2.8076562612326676e-17 -0.8096943548797906 -0.5868518140686257
12661725333.333334 -0.8150057687322807 -0.5794528427171123 8.182485855515e-17 2.7319783987363903e-17 8.182485855515e-17 2.7319783987363903e-17 -0.8150053971838891 -0.5794533653029973
12662342666.666666 -0.8202492062599331 -0.5720063283127087 8.205662503499794e-17 2.6560989811944272e-17 8.205662503499794e-17 2.6560989811944272e-17 -0.820248839504168 -0.5720068542350719
12662960000.0 -0.8254246088606644 -0.5645123692950026 8.228136082049929e-17 2.5800245036207678e-17 8.228136082049929e-17 2.5800245036207678e-17 -0.8254242469274764 -0.5645128985098976
12663577333.333334 -0.8305315472648254 -0.5569715872445675 8.249904964988599e-17 2.5037614749868422e-17 8.249904964988599e-17 2.5037614749868422e-17 -0.8305311901837634 -0.5569721197077806
12664194666.666666 -0.8355695978814791 -0.5493846076256783 8.270967586349249e-17 2.4273164176659268e-17 8.270967586349249e-17 2.4273164176659268e-17 -0.835569245681687 -0.5493851432927305
12664812000.0 -0.8405383428335323 -0.5417520597344297 8.291322440484454e-17 2.3506958668766334e-17 8.291322440484454e-17 2.3506958668766334e-17 -0.840537995543745 -0.5417525985605798
12665429333.333334 -0.8454373699924103 -0.5340745766465151 8.310968082169699e-17 2.273906370125279e-17 8.310968082169699e-17 2.273906370125279e-17 -0.8454370276409535 -0.534075118586765
12666046666.666666 -0.8502662730121664 -0.526352795164839 8.329903126701694e-17 2.1969544866488834e-17 8.329903126701694e-17 2.1969544866488834e-17 -0.8502659356269532 -0.5263533401739361
12666664000.0 -0.8550246513633507 -0.5185873557664306 8.348126249992453e-17 2.119846786853569e-17 8.348126249992453e-17 2.119846786853569e-17 -0.8550243189718805 -0.5185879037988732
12667281333.333334 -0.8597121103660248 -0.5107789025496605 8.365636188656762e-17 2.0425898517581932e-17 8.365636188656762e-17 2.0425898517581932e-17 -0.8597117829953781 -0.5107794535596993
12667898666.666666 -0.8643282612226415 -0.5029280831805717 8.382431740095871e-17 1.9651902724315818e-17 8.382431740095871e-17 1.9651902724315818e-17 -0.8643279388994827 -0.5029286371222165
12668516000.0 -0.8688727210503127 -0.49503554883913664 8.398511762575428e-17 1.8876546494315203e-17 8.398511762575428e-17 1.8876546494315203e-17 -0.8688724038008824 -0.49503610566615724
12669133333.333334 -0.8733451129123754 -0.48710195416556246 8.413875175297768e-17 1.8099895922453015e-17 8.413875175297768e-17 1.8099895922453015e-17 -0.8733448007624919 -0.4871025138314943
12669750666.666666 -0.8777450658498889 -0.4791279572056007 8.428520958470066e-17 1.7322017187252166e-17 8.428520958470066e-17 1.7322017187252166e-17 -0.8777447588249463 -0.47912851966374886
12670368000.0 -0.8820722149122887 -0.47111421935616293 8.442448153366498e-17 1.654297654526877e-17 8.442448153366498e-17 1.654297654526877e-17 -0.8820719130372512 -0.4711147845596045
12670985333.333334 -0.8863262011876288 -0.46306140531051043 8.455655862385363e-17 1.5762840325468885e-17 8.455655862385363e-17 1.5762840325468885e-17 -0.8863259044870316 -0.4630619732120995
