! Parameters = {f0=12700.012000; bw=77.238000; Q=6100.000000; N=10; m_0_1=1.258754; m_1_1=0.116561; m_1_2=1.093566; m_2_2=0.115912; m_2_3=0.730529; m_2_8=0.000001; m_2_9=0.036705; m_3_3=0.113975; m_3_4=0.619058; m_3_7=0.000601; m_3_8=-0.096487; m_3_9=0.000001; m_4_4=0.111050; m_4_5=0.455393; m_4_6=0.004118; m_4_7=-0.117036; m_4_8=0.000601; m_5_5=0.111432; m_5_6=0.862748; m_5_7=0.004118; m_6_6=0.111431; m_6_7=0.455735; m_7_7=0.111064; m_7_8=0.619176; m_8_8=0.113973; m_8_9=0.730842; m_9_9=0.115907; m_9_10=1.094644; m_10_10=0.116551; m_10_11=1.259549}
!
! Created with skrf (http://scikit-rf.org).
# Hz S RI R 50.0 
!freq ReS11 ImS11 ReS21 ImS21 ReS12 ImS12 ReS22 ImS22
12607400000.0 0.2894786229370059 0.957184479012443 -5.761360656094252e-17 -8.761350216916769e-17 -5.761360656094252e-17 -8.761350216916769e-17 0.2894779881257764 0.9571846709963964
12608017333.333334 0.2992175914611397 0.9541849050158052 -5.849968212599773e-17 -8.69996231234672e-17 -5.849968212599773e-17 -8.69996231234672e-17 0.29921695867023035 0.9541851034489923
12608634666.666666 0.30892548774640793 0.951086243734222 -5.937922911445456e-17 -8.637679137688877e-17 -5.937922911445456e-17 -8.637679137688877e-17 0.3089248570413296 0.9510864485954056
12609252000.0 0.318601303676837 0.9478888169480887 -6.025215715971214e-17 -8.574507623738277e-17 -6.025215715971214e-17 -8.574507623738277e-17 0.3186006751228781 0.9478890282153671
12609869333.333334 0.3282440344678379 0.9445929566941007 -6.111837662972497e-17 -8.510454792410541e-17 -6.111837662972497e-17 -8.510454792410541e-17 0.3282434081300568 0.9445931743449091
12610486666.666666 0.33785267877044034 0.9411990052308092 -6.19777986361601e-17 -8.44552775596621e-17 -6.19777986361601e-17 -8.44552775596621e-17 0.33785205471365853 0.9411992292419208
12611104000.0 0.3474262387755983 0.9377073150029638 -6.283033504353377e-17 -8.379733716221177e-17 -6.283033504353377e-17 -8.379733716221177e-17 0.34742561706439473 0.9377075453504953
12611721333.333334 0.35696372031732815 0.93411824860509 -6.367589847818215e-17 -8.313079963754299e-17 -6.367589847818215e-17 -8.313079963754299e-17 0.35696310101603135 0.934118485264501
12612338666.666666 0.36646413297637254 0.9304321787436749 -6.451440233721651e-17 -8.245573877100656e-17 -6.451440233721651e-17 -8.245573877100656e-17 0.3664635161490551 0.930432421689774
12612956000.0 0.37592649018294616 0.9266494881985085 -6.534576079736982e-17 -8.177222921937663e-17 -6.534576079736982e-17 -8.177222921937663e-17 0.3759258758934171 0.9266497374054525
12613573333.333334 0.3853498093189974 0.9227705697829977 -6.616988882372537e-17 -8.108034650264931e-17 -6.616988882372537e-17 -8.108034650264931e-17 0.3853491976307961 0.9227708252242961
12614190666.666666 0.39473311182041065 0.9187958263033208 -6.698670217842567e-17 -8.038016699569898e-17 -6.698670217842567e-17 -8.038016699569898e-17 0.39473250279679967 0.9187960879518376
12614808000.0 0.404075423278648 0.9147256705165804 -6.779611742923608e-17 -7.967176791989445e-17 -6.779611742923608e-17 -7.967176791989445e-17 0.40407481698260794 0.9147259383445395
12615425333.333334 0.41337577354186056 0.9105605250879782 -6.859805195804543e-17 -7.895522733460841e-17 -6.859805195804543e-17 -7.895522733460841e-17 0.41337517003608204 0.9105607990669634
12616042666.666666 0.4226331968156586 0.9063008225469091 -6.939242396927268e-17 -7.82306241286456e-17 -6.939242396927268e-17 -7.82306241286456e-17 0.42263259616253634 0.9063011026478679
12616660000.0 0.4318467317634295 0.901947005242033 -7.017915249818559e-17 -7.749803801158437e-17 -7.017915249818559e-17 -7.749803801158437e-17 0.4318461340250564 0.9019472914352812
12617277333.333334 0.44101542160609225 0.8974995252953767 -7.095815741911973e-17 -7.675754950504334e-17 -7.095815741911973e-17 -7.675754950504334e-17 0.44101482684425225 0.8974998175506004
12617894666.666666 0.4501383142214801 0.8929588445553749 -7.172935945361477e-17 -7.600923993385802e-17 -7.172935945361477e-17 -7.600923993385802e-17 0.4501377224976417 0.8929591428416326
12618512000.0 0.45921446224339035 0.8883254345488151 -7.249268017847004e-17 -7.525319141716259e-17 -7.249268017847004e-17 -7.525319141716259e-17 0.45921387361870053 0.888325738834542
12619129333.333334 0.4682429231596332 0.883599776432039 -7.32480420336648e-17 -7.44894868594338e-17 -7.32480420336648e-17 -7.44894868594338e-17 0.46824233769491175 0.8836000866850519
12619746666.666666 0.47722275941018694 0.878782360940838 -7.399536833023481e-17 -7.371820994140475e-17 -7.399536833023481e-17 -7.371820994140475e-17 0.47722217716591947 0.8787826771283366
12620364000.0 0.4861530384844574 0.8738736883395429 -7.473458325802215e-17 -7.293944511093201e-17 -7.473458325802215e-17 -7.293944511093201e-17 0.48615245952078884 0.8738740104281134
12620981333.333334 0.49503283301803824 0.8688742683691134 -7.546561189333182e-17 -7.215327757378343e-17 -7.546561189333182e-17 -7.215327757378343e-17 0.49503225739476725 0.8688745963247332
12621598666.666666 0.5038612208891644 0.8637846201941247 -7.618838020650974e-17 -7.135979328432981e-17 -7.618838020650974e-17 -7.135979328432981e-17 0.5038606486657367 0.8637849539821646
12622216000.0 0.512637285314393 0.8586052723488931 -7.690281506940315e-17 -7.0559078936183e-17 -7.690281506940315e-17 -7.0559078936183e-17 0.5126367165498957 0.8586056119341223
12622833333.333334 0.5213601149437599 0.8533367626826217 -7.7608844262737e-17 -6.975122195274424e-17 -7.7608844262737e-17 -6.975122195274424e-17 0.5213595496969151 0.8533371080292106
12623450666.666666 0.5300288039554663 0.8479796383035177 -7.830639648336996e-17 -6.893631047770364e-17 -7.830639648336996e-17 -6.893631047770364e-17 0.5300282422846253 0.8479799893750425
12624068000.0 0.53864245214997 0.8425344555219656 -7.899540135148791e-17 -6.811443336542497e-17 -7.899540135148791e-17 -6.811443336542497e-17 0.5386418941131067 0.8425348122814105
12624685333.333334 0.5472001650435114 0.8370017797927207 -7.967578941766939e-17 -6.728568017129007e-17 -7.967578941766939e-17 -6.728568017129007e-17 0.5471996106982168 0.8370021422024838
12625302666.666666 0.5557010539607864 0.831382185656331 -8.034749216983957e-17 -6.64501411419873e-17 -8.034749216983957e-17 -6.64501411419873e-17 0.555700503364263 0.8313825536782278
12625920000.0 0.5641442361274958 0.825676256679306 -8.101044204016739e-17 -6.56079072056758e-17 -8.101044204016739e-17 -6.56079072056758e-17 0.5641436893365508 0.8256766302745718
12626537333.333334 0.5725288347618239 0.8198845853936363 -8.166457241180766e-17 -6.475906996214563e-17 -8.166457241180766e-17 -6.475906996214563e-17 0.572528291832864 0.8198849645229325
12627154666.666666 0.580853979165538 0.8140077732352367 -8.230981762556883e-17 -6.390372167287692e-17 -8.230981762556883e-17 -6.390372167287692e-17 0.5808534401545628 0.8140081578586527
12627772000.0 0.5891188048145891 0.8080464304813535 -8.294611298649413e-17 -6.304195525100884e-17 -8.294611298649413e-17 -6.304195525100884e-17 0.5891182697771867 0.8080468205584134
12628389333.333334 0.5973224534484752 0.8020011761874927 -8.357339477028499e-17 -6.217386425131477e-17 -8.357339477028499e-17 -6.217386425131477e-17 0.5973219224398151 0.8020015716771571
12629006666.666666 0.6054640731598481 0.7958726381227802 -8.419160022967961e-17 -6.129954286003286e-17 -8.419160022967961e-17 -6.129954286003286e-17 0.6054635462346764 0.795873038983453
12629624000.0 0.6135428184826366 0.789661452705025 -8.48006676006801e-17 -6.041908588469584e-17 -8.48006676006801e-17 -6.041908588469584e-17 0.6135422956952699 0.7896618588945555
12630241333.333334 0.6215578504800036 0.7833682649345107 -8.540053610869451e-17 -5.953258874387057e-17 -8.540053610869451e-17 -5.953258874387057e-17 0.6215573318843236 0.7833686764101995
12630858666.666666 0.6295083368313527 0.7769937283271029 -8.599114597456899e-17 -5.864014745684223e-17 -8.599114597456899e-17 -5.864014745684223e-17 0.6295078224808008 0.7769941450457059
12631476000.0 0.637393451918918 0.7705385048462627 -8.657243842052283e-17 -5.774185863322124e-17 -8.657243842052283e-17 -5.774185863322124e-17 0.6373929418664892 0.7705389267639952
12632093333.333334 0.6452123769133424 0.7640032648344266 -8.714435567594502e-17 -5.683781946253898e-17 -8.714435567594502e-17 -5.683781946253898e-17 0.6452118712115803 0.7640036919069683
12632710666.666666 0.6529642998587563 0.7573886869433627 -8.77068409831121e-17 -5.592812770374239e-17 -8.77068409831121e-17 -5.592812770374239e-17 0.6529637985597482 0.7573891191258635
12633328000.0 0.6606484157572248 0.7506954580635857 -8.82598386027951e-17 -5.5012881674631454e-17 -8.82598386027951e-17 -5.5012881674631454e-17 0.6606479189125947 0.7506958953106676
12633945333.333334 0.6682639266521657 0.7439242732531693 -8.8803293819728e-17 -5.4092180241290016e-17 -8.8803293819728e-17 -5.4092180241290016e-17 0.6682634343130709 0.7439247155189341
12634562666.666666 0.675810041711241 0.737075835665557 -8.933715294800337e-17 -5.3166122807402644e-17 -8.933715294800337e-17 -5.3166122807402644e-17 0.6758095539283652 0.7370762829035888
12635180000.0 0.6832859773085828 0.7301508564764432 -8.98613633363317e-17 -5.2234809303558825e-17 -8.98613633363317e-17 -5.2234809303558825e-17 0.6832854941321322 0.7301513086398154
12635797333.333334 0.6906909571061066 0.7231500548099805 -9.037587337320101e-17 -5.129834017648818e-17 -9.037587337320101e-17 -5.129834017648818e-17 0.6906904785858048 0.7231505118512598
12636414666.666666 0.6980242121340902 0.716074157664142 -9.088063249191666e-17 -5.035681637825827e-17 -9.088063249191666e-17 -5.035681637825827e-17 0.698023738319171 0.716074619535392
12637032000.0 0.7052849808710664 0.7089238998351851 -9.137559117553631e-17 -4.941033935541019e-17 -9.137559117553631e-17 -4.941033935541019e-17 0.7052845118102712 0.7089243664879734
12637649333.333334 0.7124725093229453 0.7017000238413084 -9.186070096169213e-17 -4.845901103804634e-17 -9.186070096169213e-17 -4.845901103804634e-17 0.7124720450645177 0.7017004952267115
12638266666.666666 0.719586051101252 0.6944032798456048 -9.233591444729269e-17 -4.7502933828884307e-17 -9.233591444729269e-17 -4.7502933828884307e-17 0.7195855916929303 0.6944037559142111
12638884000.0 0.7266248675006539 0.6870344255781395 -9.28011852931165e-17 -4.6542210592254676e-17 -9.28011852931165e-17 -4.6542210592254676e-17 0.7266244129896694 0.6870349062800564
12639501333.333334 0.7335882275757114 0.6795942262572229 -9.32564682282933e-17 -4.557694464305189e-17 -9.32564682282933e-17 -4.557694464305189e-17 0.7335877780087824 0.679594711542082
12640118666.666666 0.7404754082165896 0.6720834545101542 -9.370171905465434e-17 -4.460723973567338e-17 -9.370171905465434e-17 -4.460723973567338e-17 0.7404749636399154 0.6720839443271154
12640736000.0 0.7472856942245734 0.6645028902925293 -9.413689465100946e-17 -4.3633200052831774e-17 -9.413689465100946e-17 -4.3633200052831774e-17 0.7472852546838319 0.6645033845902879
12641353333.333334 0.7540183783857988 0.6568533208078321 -9.456195297724533e-17 -4.2654930194459575e-17 -9.456195297724533e-17 -4.2654930194459575e-17 0.7540179439261405 0.6568538195346232
12641970666.666666 0.7606727615451359 0.6491355404252058 -9.497685307837012e-17 -4.167253516644027e-17 -9.497685307837012e-17 -4.167253516644027e-17 0.7606723322111778 0.6491360435288082
12642588000.0 0.7672481526785231 0.6413503505972543 -9.538155508840242e-17 -4.068612036938664e-17 -9.538155508840242e-17 -4.068612036938664e-17 0.7672477285143471 0.6413508580249986
12643205333.333334 0.7737438689648616 0.6334985597766698 -9.577602023415936e-17 -3.969579158735012e-17 -9.577602023415936e-17 -3.969579158735012e-17 0.773743450014008 0.6334990714754424
12643822666.666666 0.7801592358569187 0.625580983332275 -9.616021083892359e-17 -3.8701654976498604e-17 -9.616021083892359e-17 -3.8701654976498604e-17 0.7801588221623824 0.6255814992485244
12644440000.0 0.7864935871513055 0.6175984434644406 -9.6534090325996e-17 -3.7703817053757445e-17 -9.6534090325996e-17 -3.7703817053757445e-17 0.7864931787555309 0.6175989635441821
12645057333.333334 0.7927462650576931 0.6095517691196587 -9.689762322212562e-17 -3.6702384685427286e-17 -9.689762322212562e-17 -3.6702384685427286e-17 0.792745862002571 0.609552293308481
12645674666.666666 0.7989166202670547 0.6014417959045532 -9.725077516082602e-17 -3.5697465075758645e-17 -9.725077516082602e-17 -3.5697465075758645e-17 0.7989162225939169 0.6014423241476234
12646292000.0 0.8050040120193163 0.5932693659988122 -9.759351288558074e-17 -3.468916575547585e-17 -9.759351288558074e-17 -3.468916575547585e-17 0.8050036197689311 0.5932698982408814
12646909333.333334 0.8110078081696016 0.5850353280681146 -9.792580425290511e-17 -3.367759457034015e-17 -9.792580425290511e-17 -3.367759457034015e-17 0.8110074213821713 0.5850358642535247
12647526666.666666 0.8169273852540694 0.5767405371757534 -9.824761823532237e-17 -3.2662859669592784e-17 -9.824761823532237e-17 -3.2662859669592784e-17 0.8169270039692249 0.5767410772484423
12648144000.0 0.8227621285546521 0.5683858546938388 -9.855892492419928e-17 -3.164506949442833e-17 -9.855892492419928e-17 -3.164506949442833e-17 0.8227617528114483 0.5683863985973455
12648761333.333334 0.8285114321627596 0.5599721482140344 -9.885969553246544e-17 -3.0624332766436595e-17 -9.885969553246544e-17 -3.0624332766436595e-17 0.8285110619996731 0.5599726958915063
12649378666.666666 0.8341746990423013 0.5515002914573242 -9.914990239721619e-17 -2.960075847601115e-17 -9.914990239721619e-17 -2.960075847601115e-17 0.8341743344972252 0.5515008428515222
12649996000.0 0.8397513410916991 0.5429711641832571 -9.942951898219965e-17 -2.857445587071665e-17 -9.942951898219965e-17 -2.857445587071665e-17 0.8397509822019386 0.5429717192365615
12650613333.333334 0.8452407792049393 0.5343856520986093 -9.969851988017402e-17 -2.7545534443670522e-17 -9.969851988017402e-17 -2.7545534443670522e-17 0.8452404260072097 0.5343862107530263
12651230666.666666 0.8506424433315913 0.5257446467656024 -9.995688081515207e-17 -2.65141039218779e-17 -9.995688081515207e-17 -2.65141039218779e-17 0.8506420958620144 0.5257452089627707
12651848000.0 0.8559557725362497 0.5170490455089348 -1.0020457864452717e-16 -2.548027425453469e-17 -1.0020457864452717e-16 -2.548027425453469e-17 0.8559554308303462 0.5170496111901292
12652465333.333334 0.8611802150565796 0.5082997513229089 -1.0044159136106966e-16 -2.4444155601351842e-17 -1.0044159136106966e-16 -2.4444155601351842e-17 0.8611798791492709 0.50830032042905
12653082666.666666 0.8663152283606402 0.49949767277764084 -1.0066789809480852e-16 -2.340585832083625e-17 -1.0066789809480852e-16 -2.340585832083625e-17 0.8663148982862408 0.49949824524929826
12653700000.0 0.8713602792033774 0.49064372392443756 -1.0088347911479554e-16 -2.2365492958540875e-17 -1.0088347911479554e-16 -2.2365492958540875e-17 0.8713599549955924 0.4906442997018372
12654317333.333334 0.876314843681743 0.48173882420132047 -1.0108831583073976e-16 -2.1323170235339903e-17 -1.0108831583073976e-16 -2.1323170235339903e-17 0.876314525373666 0.4817394032243513
12654934666.666666 0.8811784072893258 0.47278389833715256 -1.0128239079452928e-16 -2.0279001035649736e-17 -1.0128239079452928e-16 -2.0279001035649736e-17 0.8811780949134344 0.4727844805453723
12655552000.0 0.8859504649697238 0.463779876255708 -1.0146568770162836e-16 -1.9233096395651528e-17 -1.0146568770162836e-16 -1.9233096395651528e-17 0.8859501585578761 0.46378046158834924
12656169333.333334 0.89063052116888 0.4547276929793025 -1.0163819139234918e-16 -1.8185567491528505e-17 -1.0163819139234918e-16 -1.8185567491528505e-17 0.8906302207523121 0.4547282813752798
12656786666.666666 0.8952180898866952 0.44562828853142267 -1.0179988785300916e-16 -1.7136525627652504e-17 -1.0179988785300916e-16 -1.7136525627652504e-17 0.8952177954960181 0.4456288799293386
12657404000.0 0.899712694727378 0.4364826078393361 -1.019507642169647e-16 -1.6086082224776164e-17 -1.019507642169647e-16 -1.6086082224776164e-17 0.899712406392573 0.43648320217748676
12658021333.333334 0.9041138689490158 0.42729160063576066 -1.0209080876552079e-16 -1.5034348808225904e-17 -1.0209080876552079e-16 -1.5034348808225904e-17 0.9041135866994325 0.4272921978521432
12658638666.666666 0.908421155511932 0.4180562213604702 -1.0222001092871985e-16 -1.3981436996094514e-17 -1.0222001092871985e-16 -1.3981436996094514e-17 0.9084208793762863 0.4180568213927892
12659256000.0 0.9126341071262957 0.4087774290608732 -1.0233836128601325e-16 -1.2927458487387744e-17 -1.0233836128601325e-16 -1.2927458487387744e-17 0.9126338371326649 0.40877803184654676
12659873333.333334 0.9167522862984108 0.39945618729275467 -1.0244585156680541e-16 -1.1872525050219362e-17 -1.0244585156680541e-16 -1.1872525050219362e-17 0.916752022474232 0.39945679276892093
12660490666.666666 0.9207752653762246 0.39009346402006223 -1.0254247465087694e-16 -1.0816748509991875e-17 -1.0254247465087694e-16 -1.0816748509991875e-17 0.9207750077482912 0.39009407212358616
12661108000.0 0.9247026265937989 0.38069023151422976 -1.0262822456869322e-16 -9.760240737517552e-18 -1.0262822456869322e-16 -9.760240737517552e-18 0.9247023751882592 0.3806908421817099
12661725333.333334 0.9285339621145505 0.37124746625355265 -1.0270309650158074e-16 -8.703113637238397e-18 -1.0270309650158074e-16 -8.703113637238397e-18 0.9285337169569036 0.37124807942132726
12662342666.666666 0.9322688740737355 0.3617661488214705 -1.0276708678179025e-16 -7.645479135359634e-18 -1.0276708678179025e-16 -7.645479135359634e-18 0.9322686351888291 0.36176676442562444
12662960000.0 0.9359069746196663 0.3522472638049754 -1.0282019289243433e-16 -6.587449168032257e-18 -1.0282019289243433e-16 -6.587449168032257e-18 0.9359067420316951 0.35224788178134714
12663577333.333334 0.9394478859540645 0.3426917996921829 -1.028624134673037e-16 -5.529135669536188e-18 -1.028624134673037e-16 -5.529135669536188e-18 0.9394476596865663 0.34269241997637045
12664194666.666666 0.9428912403712502 0.3331007487697882 -1.0289374829056419e-16 -4.470650560441979e-18 -1.0289374829056419e-16 -4.470650560441979e-18 0.9428910204471045 0.3331013712971563
12664812000.0 0.9462366802963358 0.3234751070199953 -1.0291419829632993e-16 -3.412105735807759e-18 -1.0291419829632993e-16 -3.412105735807759e-18 0.9462364667377611 0.3234757317256822
12665429333.333334 0.9494838583223791 0.31381587401703637 -1.0292376556811667e-16 -2.353613053365978e-18 -1.0292376556811667e-16 -2.353613053365978e-18 0.9494836511509301 0.3138165008359601
12666046666.666666 0.952632437246375 0.30412405282361205 -1.0292245333817328e-16 -1.2952843217391432e-18 -1.0292245333817328e-16 -1.2952843217391432e-18 0.9526322364829427 0.304124681690478
12666664000.0 0.9556820901044278 0.2944006498862715 -1.0291026598669304e-16 -2.372312886156271e-19 -1.0291026598669304e-16 -2.372312886156271e-19 0.9556818957692348 0.29440128073557875
12667281333.333334 0.9586325002055452 0.2846466749313836 -1.0288720904090305e-16 8.204343709757404e-19 -1.0288720904090305e-16 8.204343709757404e-19 0.9586323123181439 0.28464730769743135
12667898666.666666 0.9614833611646264 0.2748631408599567 -1.0285328917403355e-16 1.8776010664782817e-18 -1.0285328917403355e-16 1.8776010664782817e-18 0.9614831797438987 0.2748637754768517
12668516000.0 0.9642343769342462 0.2650510636425627 -1.0280851420416594e-16 2.9341573035480456e-18 -1.0280851420416594e-16 2.9341573035480456e-18 0.9642342019984008 0.2650517000442261
12669133333.333334 0.9668852618353757 0.25521146221391583 -1.0275289309296188e-16 3.989991695767991e-18 -1.0275289309296188e-16 3.989991695767991e-18 0.9668850934019462 0.25521210033409
12669750666.666666 0.9694357405870938 0.2453453583668975 -1.0268643594426987e-16 5.044992976401714e-18 -1.0268643594426987e-16 5.044992976401714e-18 0.9694355786729361 0.24534599813915237
12670368000.0 0.9718855483351566 0.2354537766465019 -1.0260915400261366e-16 6.099050010074438e-18 -1.0260915400261366e-16 6.099050010074438e-18 0.9718853929564492 0.23545441800424283
