! Parameters = {f0=12700.012000; bw=77.238000; Q=6100.000000; N=10; m_0_1=1.151647; m_1_1=-1.490046; m_1_2=0.986459; m_2_2=-1.490695; m_2_3=0.623422; m_2_8=-0.005354; m_2_9=0.031350; m_3_3=-1.492632; m_3_4=0.511951; m_3_7=-0.004754; m_3_8=-0.101842; m_3_9=-0.005354; m_4_4=-1.495557; m_4_5=0.348286; m_4_6=-0.001237; m_4_7=-0.122391; m_4_8=-0.004754; m_5_5=-1.495175; m_5_6=0.755641; m_5_7=-0.001237; m_6_6=-1.495176; m_6_7=0.348628; m_7_7=-1.495543; m_7_8=0.512069; m_8_8=-1.492634; m_8_9=0.623735; m_9_9=-1.490700; m_9_10=0.987537; m_10_10=-1.490056; m_10_11=1.152442}
!
! Created with skrf (http://scikit-rf.org).
# Hz S RI R 50.0 
!freq ReS11 ImS11 ReS21 ImS21 ReS12 ImS12 ReS22 ImS22
12607400000.0 -0.9999392426630797 -0.011023201995839258 5.87505554707936e-17 -1.670240478268562e-17 5.87505554707936e-17 -1.670240478268562e-17 -0.9999392359723205 -0.011023808912801927
12608017333.333334 -0.9999920027522938 -0.003999303853309385 5.861878440947198e-17 -1.7116506013926914e-17 5.861878440947198e-17 -1.7116506013926914e-17 -0.9999920003248356 -0.003999910772570537
12608634666.666666 -0.9999954253073385 0.003024791604480912 5.848409823773286e-17 -1.7529578752485384e-17 5.848409823773286e-17 -1.7529578752485384e-17 -0.9999954271428828 0.0030241847128641766
12609252000.0 -0.9999495101593956 0.010048737823210942 5.834650491161574e-17 -1.7941602503377428e-17 5.834650491161574e-17 -1.7941602503377428e-17 -0.9999495162574353 0.010048130989177229
12609869333.333334 -0.9998542595738681 0.017072188255952102 5.820601253106434e-17 -1.835255683269882e-17 5.820601253106434e-17 -1.835255683269882e-17 -0.9998542699336844 0.017071581509434233
12610486666.666666 -0.9997096782502681 0.024094796380123688 5.806262933946076e-17 -1.8762421368633723e-17 5.806262933946076e-17 -1.8762421368633723e-17 -0.9997096928709328 0.024094189751047247
12611104000.0 -0.9995157733219809 0.031116215714902185 5.791636372315217e-17 -1.917117580246014e-17 5.791636372315217e-17 -1.917117580246014e-17 -0.9995157922023554 0.031115609233184037
12611721333.333334 -0.9992725543559207 0.038136099837918117 5.776722421097146e-17 -1.9578799889552068e-17 5.776722421097146e-17 -1.9578799889552068e-17 -0.9992725774946563 0.038135493533464924
12612338666.666666 -0.9989800333520522 0.04515410240263198 5.761521947375028e-17 -1.9985273450375954e-17 5.761521947375028e-17 -1.9985273450375954e-17 -0.9989800607475895 0.04515349630533867
12612956000.0 -0.9986382247427955 0.05216987715542201 5.746035832382255e-17 -2.0390576371493662e-17 5.746035832382255e-17 -2.0390576371493662e-17 -0.9986382563933677 0.05216927129517051
12613573333.333334 -0.9982471453923291 0.059183077952412455 5.730264971452929e-17 -2.0794688606537033e-17 5.730264971452929e-17 -2.0794688606537033e-17 -0.9982471812959564 0.059182472359069885
12614190666.666666 -0.9978068145957393 0.06619335877683503 5.714210273970475e-17 -2.1197590177211234e-17 5.714210273970475e-17 -2.1197590177211234e-17 -0.9978068547502349 0.06619275348025258
12614808000.0 -0.9973172540780807 0.07320037375595924 5.697872663316494e-17 -2.159926117427007e-17 5.697872663316494e-17 -2.159926117427007e-17 -0.9973172984810481 0.07319976878597048
12615425333.333334 -0.9967784879932984 0.08020377717818487 5.68125307681851e-17 -2.1999681758496897e-17 5.68125307681851e-17 -2.1999681758496897e-17 -0.9967785366421309 0.08020317256460437
12616042666.666666 -0.996190542923041 0.0872032235100993 5.664352465697139e-17 -2.2398832161680227e-17 5.664352465697139e-17 -2.2398832161680227e-17 -0.9961905958149216 0.08720261928272101
12616660000.0 -0.9955534478753448 0.0941983674134964 5.647171795012569e-17 -2.2796692687585256e-17 5.647171795012569e-17 -2.2796692687585256e-17 -0.9955535050072494 0.0941977636020924
12617277333.333334 -0.994867234283197 0.10118886376255692 5.629712043610336e-17 -2.3193243712921327e-17 5.629712043610336e-17 -2.3193243712921327e-17 -0.9948672956518921 0.10118826039687587
12617894666.666666 -0.9941319360030102 0.10817436766056475 5.61197420406653e-17 -2.358846568830388e-17 5.61197420406653e-17 -2.358846568830388e-17 -0.9941320016050526 0.10817376477033028
12618512000.0 -0.9933475893129082 0.11515453445734741 5.593959282631879e-17 -2.398233913922165e-17 5.593959282631879e-17 -2.398233913922165e-17 -0.993347659144649 0.11515393207225708
12619129333.333334 -0.9925142329109877 0.12212901976585719 5.575668299176234e-17 -2.437484466697608e-17 5.575668299176234e-17 -2.437484466697608e-17 -0.9925143069685658 0.12212841791558035
12619746666.666666 -0.99163190791337 0.12909747947944405 5.557102287131048e-17 -2.4765962949646482e-17 5.557102287131048e-17 -2.4765962949646482e-17 -0.9916319861927189 0.12909687819362103
12620364000.0 -0.9907006578521752 0.13605956978883352 5.538262293431823e-17 -2.5155674743036835e-17 5.538262293431823e-17 -2.5155674743036835e-17 -0.9907007403490202 0.1360589690970739
12620981333.333334 -0.9897205286734079 0.14301494719883592 5.51914937846053e-17 -2.5543960881603926e-17 5.51914937846053e-17 -2.5543960881603926e-17 -0.9897206153832657 0.14301434713071692
12621598666.666666 -0.9886915687346499 0.14996326854557498 5.499764615986045e-17 -2.5930802279411318e-17 5.499764615986045e-17 -2.5930802279411318e-17 -0.9886916596528311 0.14996266913064032
12622216000.0 -0.9876138288026971 0.15690419101327863 5.480109093104951e-17 -2.6316179931054977e-17 5.480109093104951e-17 -2.6316179931054977e-17 -0.9876139239243041 0.15690359228103684
12622833333.333334 -0.9864873620510447 0.16383737215124877 5.4601839101813454e-17 -2.670007491259439e-17 5.4601839101813454e-17 -2.670007491259439e-17 -0.986487461370973 0.1638367741311717
12623450666.666666 -0.9853122240572793 0.17076246989064434 5.439990180785975e-17 -2.70824683824771e-17 5.439990180785975e-17 -2.70824683824771e-17 -0.9853123275702186 0.17076187261216605
12624068000.0 -0.9840884728003201 0.17767914256149972 5.4195290316348706e-17 -2.7463341582457533e-17 5.4195290316348706e-17 -2.7463341582457533e-17 -0.9840885805007527 0.17767854605401456
12624685333.333334 -0.9828161686575505 0.18458704890958053 5.3988016025268415e-17 -2.7842675838520314e-17 5.3988016025268415e-17 -2.7842675838520314e-17 -0.9828162805397544 0.18458645320244232
12625302666.666666 -0.9814953744018715 0.19148584811308186 5.377809046281627e-17 -2.8220452561774574e-17 5.377809046281627e-17 -2.8220452561774574e-17 -0.9814954904599166 0.19148525323560162
12625920000.0 -0.9801261551985755 0.1983751997995541 5.356552528675299e-17 -2.859665324938316e-17 5.356552528675299e-17 -2.859665324938316e-17 -0.980126275426329 0.19837460578099944
12626537333.333334 -0.9787085786021403 0.20525476406269758 5.33503322837741e-17 -2.8971259485443146e-17 5.33503322837741e-17 -2.8971259485443146e-17 -0.9787087029932621 0.20525417093229062
12627154666.666666 -0.9772427145529178 0.21212420147899272 5.313252336885868e-17 -2.934425294189184e-17 5.313252336885868e-17 -2.934425294189184e-17 -0.9772428431008637 0.21212360926590898
12627772000.0 -0.9757286353736213 0.21898317312475257 5.2912110584612567e-17 -2.97156153794065e-17 5.2912110584612567e-17 -2.97156153794065e-17 -0.9757287680716433 0.21898258185811958
12628389333.333334 -0.9741664157658494 0.22583134059242843 5.268910610061749e-17 -3.008532864827823e-17 5.268910610061749e-17 -3.008532864827823e-17 -0.9741665526069948 0.22583075030132402
12629006666.666666 -0.9725561328063033 0.2326683660077216 5.246352221276137e-17 -3.0453374689301694e-17 5.246352221276137e-17 -3.0453374689301694e-17 -0.9725562737834155 0.2326677767211726
12629624000.0 -0.9708978659430577 0.239493912045949 5.223537134256976e-17 -3.081973553465001e-17 5.223537134256976e-17 -3.081973553465001e-17 -0.9708980110487764 0.23949332379292984
12630241333.333334 -0.9691916969915967 0.2463076419488515 5.200466603652382e-17 -3.118439330875451e-17 5.200466603652382e-17 -3.118439330875451e-17 -0.9691918462183611 0.24630705475828327
12630858666.666666 -0.9674377101308277 0.25310921954104504 5.177141896538729e-17 -3.1547330229156225e-17 5.177141896538729e-17 -3.1547330229156225e-17 -0.9674378634708709 0.25310863344179274
12631476000.0 -0.9656359918988391 0.25989830924690704 5.153564292350354e-17 -3.1908528607390327e-17 5.153564292350354e-17 -3.1908528607390327e-17 -0.9656361493441951 0.2598977242677799
12632093333.333334 -0.9637866311887402 0.26667457610675077 5.129735082811338e-17 -3.2267970849823164e-17 5.129735082811338e-17 -3.2267970849823164e-17 -0.9637867927312396 0.26667399227649935
12632710666.666666 -0.9618897192441903 0.2734376857936516 5.105655571864864e-17 -3.2625639458513514e-17 5.105655571864864e-17 -3.2625639458513514e-17 -0.9618898848754628 0.2734371031409671
12633328000.0 -0.9599453496549365 0.28018730462980596 5.081327075602014e-17 -3.298151703206664e-17 5.081327075602014e-17 -3.298151703206664e-17 -0.9599455193664117 0.28018672318331905
12633945333.333334 -0.9579536183521961 0.28692309960299456 5.056750922191361e-17 -3.333558626646346e-17 5.056750922191361e-17 -3.333558626646346e-17 -0.9579537921351008 0.2869225193912729
12634562666.666666 -0.955914623603889 0.2936447383831204 5.031928451806624e-17 -3.368782995590444e-17 5.031928451806624e-17 -3.368782995590444e-17 -0.9559148014492517 0.29364415943466826
12635180000.0 -0.9538284660098398 0.30035188933844237 5.0068610165543087e-17 -3.4038230993639445e-17 5.0068610165543087e-17 -3.4038230993639445e-17 -0.9538286479084898 0.30035131168169915
12635797333.333334 -0.9516952484967743 0.30704422155207406 4.9815499804006995e-17 -3.4386772372793854e-17 4.9815499804006995e-17 -3.4386772372793854e-17 -0.9516954344393415 0.30704364521541255
12636414666.666666 -0.9495150763132825 0.3137214048381737 4.9559967190982763e-17 -3.473343718718941e-17 4.9559967190982763e-17 -3.473343718718941e-17 -0.9495152662901981 0.3137208298498989
12637032000.0 -0.9472880570245744 0.3203831097583985 4.930202620111545e-17 -3.5078208632159327e-17 4.930202620111545e-17 -3.5078208632159327e-17 -0.947288251026072 0.3203825361467459
12637649333.333334 -0.9450143005072081 0.32702900763804943 4.904169082542316e-17 -3.542107000535817e-17 4.904169082542316e-17 -3.542107000535817e-17 -0.9450144985233229 0.327028435431184
12638266666.666666 -0.9426939189436593 0.3336587705823144 4.877897517054435e-17 -3.576200470756625e-17 4.877897517054435e-17 -3.576200470756625e-17 -0.942694120964229 0.33365819980832867
12638884000.0 -0.9403270268167851 0.3402720714924458 4.8513893457979636e-17 -3.6100996243488554e-17 4.8513893457979636e-17 -3.6100996243488554e-17 -0.940327232831453 0.3402715021793596
12639501333.333334 -0.9379137409041705 0.34686858408192667 4.824646002332652e-17 -3.6438028222549157e-17 4.824646002332652e-17 -3.6438028222549157e-17 -0.9379139509023809 0.34686801625768415
12640118666.666666 -0.9354541802724198 0.3534479828924073 4.797668931551685e-17 -3.677308435967095e-17 4.797668931551685e-17 -3.677308435967095e-17 -0.935454394243424 0.3534474165848771
12640736000.0 -0.9329484662711282 0.3600099433101902 4.770459589602581e-17 -3.710614847607779e-17 4.770459589602581e-17 -3.710614847607779e-17 -0.9329486842039818 0.36000937854716336
12641353333.333334 -0.9303967225271415 0.36655414158157995 4.74301944381135e-17 -3.74372045000441e-17 4.74301944381135e-17 -3.74372045000441e-17 -0.930396944410706 0.3665535783907686
12641970666.666666 -0.9277990749382078 0.3730802548295217 4.7153499726022966e-17 -3.776623646768539e-17 4.7153499726022966e-17 -3.776623646768539e-17 -0.9277993007611504 0.3730796932385574
12642588000.0 -0.925155651666926 0.37958796106910575 4.6874526654196294e-17 -3.8093228523715334e-17 4.6874526654196294e-17 -3.8093228523715334e-17 -0.9251558814177198 0.37958740110553835
12643205333.333334 -0.9224665831343606 0.3860769392236128 4.6593290226478436e-17 -3.8418164922204844e-17 4.6593290226478436e-17 -3.8418164922204844e-17 -0.9224668168012877 0.3860763809149096
12643822666.666666 -0.9197320020136192 0.392546869140329 4.630980555531152e-17 -3.874103002734049e-17 4.630980555531152e-17 -3.874103002734049e-17 -0.9197322395847696 0.3925463125138731
12644440000.0 -0.916952043223308 0.3989974316063426 4.602408786093397e-17 -3.906180831416541e-17 4.602408786093397e-17 -3.906180831416541e-17 -0.9169522846865776 0.3989968766894302
12645057333.333334 -0.9141268439208563 0.4054283083643155 4.5736152470567977e-17 -3.938048436932224e-17 4.5736152470567977e-17 -3.938048436932224e-17 -0.9141270892639547 0.40542775518415775
12645674666.666666 -0.9112565434958182 0.41183918212806103 4.5446014817602867e-17 -3.969704289178869e-17 4.5446014817602867e-17 -3.969704289178869e-17 -0.9112567927062611 0.4118386307117794
12646292000.0 -0.908341283562859 0.4182297365984796 4.5153690440766434e-17 -4.001146869361481e-17 4.5153690440766434e-17 -4.001146869361481e-17 -0.9083415366279742 0.41822918697310624
12646909333.333334 -0.9053812079549354 0.42459965647880243 4.485919498330872e-17 -4.032374670063519e-17 4.485919498330872e-17 -4.032374670063519e-17 -0.905381464861862 0.4245991086712789
12647526666.666666 -0.9023764627160824 0.4309486274904077 4.456254419216572e-17 -4.063386195319158e-17 4.456254419216572e-17 -4.063386195319158e-17 -0.9023767234517698 0.43094808152758246
12648144000.0 -0.8993271960942156 0.4372763363882984 4.426375391711915e-17 -4.09417996068482e-17 4.426375391711915e-17 -4.09417996068482e-17 -0.8993274606454259 0.4372757922969264
12648761333.333334 -0.8962335585338664 0.44358247097645437 4.3962840109961174e-17 -4.1247544933090935e-17 4.3962840109961174e-17 -4.1247544933090935e-17 -0.8962338268871769 0.4435819287831967
12649378666.666666 -0.8930957026687648 0.4498667201232387 4.365981882364803e-17 -4.155108332002677e-17 4.365981882364803e-17 -4.155108332002677e-17 -0.8930959748105637 0.4498661798546588
12649996000.0 -0.8899137833142395 0.4561287737768721 4.335470621144295e-17 -4.185240027308283e-17 4.335470621144295e-17 -4.185240027308283e-17 -0.8899140592307306 0.45612823545943654
12650613333.333334 -0.8866879574596335 0.46236832298063035 4.304751852606413e-17 -4.2151481415689827e-17 4.304751852606413e-17 -4.2151481415689827e-17 -0.8866882371368355 0.4623677866407066
12651230666.666666 -0.8834183842605572 0.46858505988808674 4.273827211882896e-17 -4.244831248995785e-17 4.273827211882896e-17 -4.244831248995785e-17 -0.8834186676843069 0.4685845255519433
12651848000.0 -0.8801052250309882 0.47477867777840393 4.2426983438777006e-17 -4.274287935736297e-17 4.2426983438777006e-17 -4.274287935736297e-17 -0.8801055121869354 0.47477814547220626
12652465333.333334 -0.8767486432353707 0.4809488710713369 4.211366903181206e-17 -4.3035167999403064e-17 4.211366903181206e-17 -4.3035167999403064e-17 -0.876748934108984 0.4809483408211483
12653082666.666666 -0.8733488044805695 0.4870953353422878 4.179834553982234e-17 -4.3325164518266084e-17 4.179834553982234e-17 -4.3325164518266084e-17 -0.8733490990571366 0.4870948071740682
12653700000.0 -0.8699058765075643 0.4932177673375754 4.148102969980237e-17 -4.361285513748387e-17 4.148102969980237e-17 -4.361285513748387e-17 -0.8699061747721908 0.4932172412771792
12654317333.333334 -0.8664200291833618 0.49931586498904645 4.116173834297008e-17 -4.3898226202581486e-17 4.116173834297008e-17 -4.3898226202581486e-17 -0.8664203311209718 0.499315341062221
12654934666.666666 -0.8628914344924787 0.505389327429229 4.084048839388038e-17 -4.418126418171871e-17 4.084048839388038e-17 -4.418126418171871e-17 -0.862891740087818 0.5053888056616145
12655552000.0 -0.8593202665284563 0.5114378550061761 4.0517296869526676e-17 -4.446195566633185e-17 4.0517296869526676e-17 -4.446195566633185e-17 -0.8593205757660916 0.5114373354233036
12656169333.333334 -0.855706701485398 0.5174611492980278 4.019218087845731e-17 -4.4740287371752126e-17 4.019218087845731e-17 -4.4740287371752126e-17 -0.8557070143497171 0.5174606319253179
12656786666.666666 -0.8520509176491325 0.5234589131279807 3.9865157619862223e-17 -4.5016246137840305e-17 3.9865157619862223e-17 -4.5016246137840305e-17 -0.8520512341243466 0.5234583979907426
12657404000.0 -0.8483530953884916 0.529430850578827 3.953624438267442e-17 -4.528981892959766e-17 3.953624438267442e-17 -4.528981892959766e-17 -0.8483534154586343 0.5294303377022571
12658021333.333334 -0.8446134171463798 0.5353766670076044 3.920545854465963e-17 -4.556099283777719e-17 3.920545854465963e-17 -4.556099283777719e-17 -0.8446137407953097 0.5353761564167852
12658638666.666666 -0.8408320674308492 0.5412960690600112 3.887281757150331e-17 -4.5829755079487324e-17 3.887281757150331e-17 -4.5829755079487324e-17 -0.8408323946422495 0.5412955607799097
12659256000.0 -0.8370092328058445 0.5471887646851205 3.8538339015893084e-17 -4.6096092998788523e-17 3.8538339015893084e-17 -4.6096092998788523e-17 -0.8370095635632246 0.5471882587405876
12659873333.333334 -0.8331451018821505 0.5530544631495502 3.820204051659775e-17 -4.63599940672838e-17 3.820204051659775e-17 -4.63599940672838e-17 -0.8331454361688468 0.5530539595653194
12660490666.666666 -0.8292398653080109 0.5588928750519266 3.78639397975432e-17 -4.6621445884701224e-17 3.78639397975432e-17 -4.6621445884701224e-17 -0.8292402031071866 0.558892373852612
12661108000.0 -0.825293715759736 0.5647037123371386 3.752405466687639e-17 -4.6880436179475877e-17 3.752405466687639e-17 -4.6880436179475877e-17 -0.8252940570543826 0.5647032135472343
12661725333.333334 -0.8213068479321963 0.5704866883105494 3.7182403016045816e-17 -4.713695280930967e-17 3.7182403016045816e-17 -4.713695280930967e-17 -0.8213071927051355 0.5704861919544286
12662342666.666666 -0.8172794585292181 0.5762415176521417 3.6839002818851075e-17 -4.739098376174525e-17 3.6839002818851075e-17 -4.739098376174525e-17 -0.8172798067631021 0.5762410237540561
12662960000.0 -0.8132117462538796 0.5819679164305979 3.6493872130508665e-17 -4.7642517154717214e-17 3.6493872130508665e-17 -4.7642517154717214e-17 -0.8132120979311895 0.5819674250146735
12663577333.333334 -0.8091039117987039 0.5876656021173026 3.6147029086706306e-17 -4.7891541237103086e-17 3.6147029086706306e-17 -4.7891541237103086e-17 -0.8091042669017535 0.5876651132075416
12664194666.666666 -0.804956157835758 0.593334293600286 3.5798491902654676e-17 -4.813804438926627e-17 3.5798491902654676e-17 -4.813804438926627e-17 -0.8049565163466943 0.5933338072205647
12664812000.0 -0.8007686890066565 0.5989737111980936 3.54482788721355e-17 -4.838201512359218e-17 3.54482788721355e-17 -4.838201512359218e-17 -0.8007690509074598 0.5989732273721611
12665429333.333334 -0.7965417119124442 0.604583576673606 3.509640836654616e-17 -4.862344208501742e-17 3.509640836654616e-17 -4.862344208501742e-17 -0.796542077184929 0.6045830954250828
12666046666.666666 -0.7922754351034903 0.6101636132476537 3.4742898833942085e-17 -4.8862314051551304e-17 3.4742898833942085e-17 -4.8862314051551304e-17 -0.7922758037293073 0.6101631346000314
12666664000.0 -0.7879700690690093 0.6157135456129222 3.438776879806714e-17 -4.909861993479585e-17 3.438776879806714e-17 -4.909861993479585e-17 -0.7879704410296464 0.6157130695895622
12667281333.333334 -0.7836258262269203 0.6212330999472202 3.403103685740188e-17 -4.9332348780444886e-17 3.403103685740188e-17 -4.9332348780444886e-17 -0.7836262015036999 0.6212326265713507
12667898666.666666 -0.7792429209131875 0.6267220039272116 3.367272168418134e-17 -4.956348976879394e-17 3.367272168418134e-17 -4.956348976879394e-17 -0.7792432994872723 0.6267215332219289
12668516000.0 -0.7748215693712497 0.6321799867418525 3.331284202342241e-17 -4.979203221523471e-17 3.331284202342241e-17 -4.979203221523471e-17 -0.7748219512236415 0.6321795187301191
12669133333.333334 -0.7703619897415275 0.637606779105532 3.2951416691960655e-17 -5.001796557073429e-17 3.2951416691960655e-17 -5.001796557073429e-17 -0.7703623748530674 0.6376063138101743
12669750666.666666 -0.7658644020504085 0.6430021132716635 3.258846457745664e-17 -5.0241279422324587e-17 3.258846457745664e-17 -5.0241279422324587e-17 -0.7658647904017797 0.6430016507153731
12670368000.0 -0.7613290281995752 0.6483657230456799 3.22240046374209e-17 -5.046196349357141e-17 3.22240046374209e-17 -5.046196349357141e-17 -0.7613294197713009 0.6483652632510091
