! Parameters = {f0=12700.012000; bw=77.238000; Q=6100.000000; N=10; m_0_1=1.216912; m_1_1=-0.511067; m_1_2=1.051724; m_2_2=-0.511716; m_2_3=0.688687; m_2_8=-0.002091; m_2_9=0.034613; m_3_3=-0.513653; m_3_4=0.577216; m_3_7=-0.001491; m_3_8=-0.098579; m_3_9=-0.002091; m_4_4=-0.516578; m_4_5=0.413551; m_4_6=0.002026; m_4_7=-0.119128; m_4_8=-0.001491; m_5_5=-0.516196; m_5_6=0.820906; m_5_7=0.002026; m_6_6=-0.516197; m_6_7=0.413893; m_7_7=-0.516564; m_7_8=0.577334; m_8_8=-0.513655; m_8_9=0.689000; m_9_9=-0.511721; m_9_10=1.052802; m_10_10=-0.511077; m_10_11=1.217707}
!
! Created with skrf (http://scikit-rf.org).
# Hz S RI R 50.0 
!freq ReS11 ImS11 ReS21 ImS21 ReS12 ImS12 ReS22 ImS22
12607400000.0 0.14768173126780684 0.9890349368195143 -3.6135899892825e-17 -7.751379157148676e-17 -3.6135899892825e-17 -7.751379157148676e-17 0.1476810970641064 0.9890350315179841
12608017333.333334 0.15653104107701818 0.9876730396134051 -3.682809471459605e-17 -7.716876176728692e-17 -3.682809471459605e-17 -7.716876176728692e-17 0.1565304077776245 0.9876731399814455
12608634666.666666 0.16536780256550007 0.9862319655509524 -3.7517006854167533e-17 -7.681755671801783e-17 -3.7517006854167533e-17 -7.681755671801783e-17 0.1653671702210909 0.9862320715799636
12609252000.0 0.17419130733379795 0.9847118301560007 -3.82025812755929e-17 -7.646020755510638e-17 -3.82025812755929e-17 -7.646020755510638e-17 0.17419067599496887 0.9847119418369278
12609869333.333334 0.18300084804529515 0.9831127552903283 -3.888476323729478e-17 -7.609674589997597e-17 -3.888476323729478e-17 -7.609674589997597e-17 0.18300021776255668 0.9831128726136659
12610486666.666666 0.19179571848269378 0.9814348691439215 -3.9563498296405936e-17 -7.57272038612799e-17 -3.9563498296405936e-17 -7.57272038612799e-17 0.19179508930646663 0.9814349920997122
12611104000.0 0.20057521360485145 0.9796783062246536 -4.0238732313139635e-17 -7.535161403206616e-17 -4.0238732313139635e-17 -7.535161403206616e-17 0.2005745855854629 0.9796784348024903
12611721333.333334 0.20933862960310623 0.9778432073475437 -4.0910411455048044e-17 -7.497000948694972e-17 -4.0910411455048044e-17 -7.497000948694972e-17 0.2093380027907857 0.9778433415365687
12612338666.666666 0.21808526395775316 0.9759297196234549 -4.1578482201339355e-17 -7.458242377920034e-17 -4.1578482201339355e-17 -7.458242377920034e-17 0.21808463840262837 0.9759298594123618
12612956000.0 0.22681441549458356 0.9739379964472525 -4.224289134711199e-17 -7.41888909378224e-17 -4.224289134711199e-17 -7.41888909378224e-17 0.22681379124667678 0.973938141824288
12613573333.333334 0.23552538444062315 0.9718681974856126 -4.2903586007574563e-17 -7.378944546459049e-17 -4.2903586007574563e-17 -7.378944546459049e-17 0.23552476154984683 0.971868348438576
12614190666.666666 0.244217472480729 0.9697204886641111 -4.356051362225689e-17 -7.338412233103659e-17 -4.356051362225689e-17 -7.338412233103659e-17 0.24421685099688178 0.9697206451803555
12614808000.0 0.2528899828132089 0.9674950421540011 -4.4213621959161076e-17 -7.297295697541787e-17 -4.4213621959161076e-17 -7.297295697541787e-17 0.25288936278597207 0.9674952042204361
12615425333.333334 0.26154222020593015 0.965192036358356 -4.486285911891802e-17 -7.255598529962849e-17 -4.486285911891802e-17 -7.255598529962849e-17 0.2615416016848632 0.9651922039614468
12616042666.666666 0.2701734910518322 0.9628116558978211 -4.550817353888147e-17 -7.213324366609417e-17 -4.550817353888147e-17 -7.213324366609417e-17 0.2701728740863687 0.9628118290235893
12616660000.0 0.2787831034247212 0.9603540915957607 -4.614951399722624e-17 -7.170476889461027e-17 -4.614951399722624e-17 -7.170476889461027e-17 0.278782488064166 0.9603542702297895
12617277333.333334 0.2873703671346851 0.9578195404629801 -4.67868296169861e-17 -7.127059825916314e-17 -4.67868296169861e-17 -7.127059825916314e-17 0.28736975342820886 0.95781972459041
12617894666.666666 0.29593459378320247 0.9552082056819913 -4.742006987008049e-17 -7.083076948470396e-17 -4.742006987008049e-17 -7.083076948470396e-17 0.29593398177983876 0.9552083952875249
12618512000.0 0.30447509681881985 0.9525202965905812 -4.8049184581322833e-17 -7.038532074387838e-17 -4.8049184581322833e-17 -7.038532074387838e-17 0.30447448656746096 0.9525204916584836
12619129333.333334 0.31299119159159017 0.9497560286652118 -4.867412393234853e-17 -6.993429065375531e-17 -4.867412393234853e-17 -6.993429065375531e-17 0.31299058314098327 0.9497562291793121
12619746666.666666 0.32148219540844725 0.9469156235035958 -4.929483846558028e-17 -6.947771827247394e-17 -4.929483846558028e-17 -6.947771827247394e-17 0.32148158880718986 0.9469158294472869
12620364000.0 0.32994742758771506 0.9439993088069968 -4.991127908811228e-17 -6.901564309589035e-17 -4.991127908811228e-17 -6.901564309589035e-17 0.3299468228842525 0.9439995201632396
12620981333.333334 0.33838620951365017 0.9410073183619894 -5.0523397075575544e-17 -6.8548105054182e-17 -5.0523397075575544e-17 -6.8548105054182e-17 0.3383856067562701 0.941007535113311
12621598666.666666 0.34679786469089563 0.9379398920216971 -5.113114407598881e-17 -6.807514450840442e-17 -5.113114407598881e-17 -6.807514450840442e-17 0.3467972639277257 0.9379401141501957
12622216000.0 0.35518171879876625 0.9347972756865484 -5.1734472113548364e-17 -6.759680224703621e-17 -5.1734472113548364e-17 -6.759680224703621e-17 0.3551811200777689 0.9347975031738908
12622833333.333334 0.3635370997452775 0.9315797212845665 -5.2333333592418676e-17 -6.711311948246542e-17 -5.2333333592418676e-17 -6.711311948246542e-17 0.36353650311424723 0.9315799541119933
12623450666.666666 0.37186333772083935 0.9282874867512522 -5.292768130045014e-17 -6.66241378474739e-17 -5.292768130045014e-17 -6.66241378474739e-17 0.37186274322739826 0.9282877248995771
12624068000.0 0.38015976525226897 0.9249208360087786 -5.3517468412911783e-17 -6.612989939165123e-17 -5.3517468412911783e-17 -6.612989939165123e-17 0.3801591729438636 0.9249210794583916
12624685333.333334 0.3884257172561138 0.9214800389449089 -5.4102648496152484e-17 -6.563044657780592e-17 -5.4102648496152484e-17 -6.563044657780592e-17 0.38842512718001043 0.9214802876757763
12625302666.666666 0.3966605310919158 0.917965371391382 -5.468317551123713e-17 -6.512582227833875e-17 -5.468317551123713e-17 -6.512582227833875e-17 0.3966599432951968 0.9179656253830475
12625920000.0 0.4048635466155139 0.914377115101721 -5.52590038175763e-17 -6.461606977156021e-17 -5.52590038175763e-17 -6.461606977156021e-17 0.4048629611450753 0.9143773743333111
12626537333.333334 0.4130341062318097 0.9107155577287175 -5.583008817646886e-17 -6.410123273802204e-17 -5.583008817646886e-17 -6.410123273802204e-17 0.41303352313435565 0.9107158221789384
12627154666.666666 0.4211715549474312 0.9069809928013932 -5.639638375466548e-17 -6.358135525677001e-17 -5.639638375466548e-17 -6.358135525677001e-17 0.42117097426947187 0.9069812624485373
12627772000.0 0.4292752404235778 0.90317371970132 -5.695784612786958e-17 -6.305648180158901e-17 -5.695784612786958e-17 -6.305648180158901e-17 0.4292746622114239 0.9031739945232627
12628389333.333334 0.4373445130278735 0.8992940436388153 -5.75144312841954e-17 -6.25266572372259e-17 -5.75144312841954e-17 -6.25266572372259e-17 0.4373439373276343 0.8992943236130211
12629006666.666666 0.4453787258867564 0.8953422756283362 -5.806609562762428e-17 -6.199192681555072e-17 -5.806609562762428e-17 -6.199192681555072e-17 0.4453781527443353 0.8953425607318588
12629624000.0 0.4533772349372314 0.8913187324635942 -5.861279598137993e-17 -6.145233617173059e-17 -5.861279598137993e-17 -6.145233617173059e-17 0.4533766643983219 0.8913190226730775
12630241333.333334 0.4613393989784506 0.8872237366921829 -5.915448959131551e-17 -6.090793132032912e-17 -5.915448959131551e-17 -6.090793132032912e-17 0.461338831088533 0.8872240319838638
12630858666.666666 0.46926457972316676 0.8830576165896986 -5.969113412921778e-17 -6.035875865142136e-17 -5.969113412921778e-17 -6.035875865142136e-17 0.46926401452750477 0.8830579169394093
12631476000.0 0.4771521418489759 0.878820706133381 -6.022268769613205e-17 -5.980486492662387e-17 -6.022268769613205e-17 -5.980486492662387e-17 0.4771515793926129 0.8788210115165508
12632093333.333334 0.4850014530491232 0.8745133449754087 -6.074910882558244e-17 -5.924629727516427e-17 -6.074910882558244e-17 -5.924629727516427e-17 0.4850008933768789 0.8745136553670664
12632710666.666666 0.4928118840831432 0.8701358784157001 -6.127035648681346e-17 -5.8683103189864e-17 -6.127035648681346e-17 -5.8683103189864e-17 0.49281132723960924 0.8701361937904742
12633328000.0 0.5005828088276245 0.8656886573740501 -6.178639008797547e-17 -5.81153305231114e-17 -6.178639008797547e-17 -5.81153305231114e-17 0.5005822548571615 0.8656889777061726
12633945333.333334 0.5083136043259818 0.8611720383622361 -6.229716947925032e-17 -5.754302748283197e-17 -6.229716947925032e-17 -5.754302748283197e-17 0.5083130532727159 0.8611723636255447
12634562666.666666 0.5160036508386924 0.8565863834552704 -6.280265495597949e-17 -5.696624262838905e-17 -6.280265495597949e-17 -5.696624262838905e-17 0.5160031027465118 0.8565867136232103
12635180000.0 0.5236523318928784 0.8519320602624302 -6.330280726171939e-17 -5.63850248664939e-17 -6.330280726171939e-17 -5.63850248664939e-17 0.5236517868054295 0.8519323953080546
12635797333.333334 0.5312590343316782 0.8472094418978178 -6.379758759128764e-17 -5.579942344705963e-17 -6.379758759128764e-17 -5.579942344705963e-17 0.5312584922923614 0.8472097817937921
12636414666.666666 0.5388231483634718 0.8424189069504047 -6.42869575937458e-17 -5.520948795905477e-17 -6.42869575937458e-17 -5.520948795905477e-17 0.5388226094154407 0.8424192516690094
12637032000.0 0.5463440676107195 0.8375608394537152 -6.477087937536112e-17 -5.461526832631323e-17 -6.477087937536112e-17 -5.461526832631323e-17 0.5463435317968741 0.8375611889668455
12637649333.333334 0.5538211891586647 0.8326356288549761 -6.524931550252869e-17 -5.401681480331841e-17 -6.524931550252869e-17 -5.401681480331841e-17 0.5538206565216504 0.8326359831341463
12638266666.666666 0.5612539136035012 0.8276436699840047 -6.572222900463966e-17 -5.341417797097989e-17 -6.572222900463966e-17 -5.341417797097989e-17 0.5612533841857045 0.8276440290003501
12638884000.0 0.5686416451006142 0.822585363021435 -6.618958337693412e-17 -5.2807408732358346e-17 -6.618958337693412e-17 -5.2807408732358346e-17 0.5686411189441591 0.8225857267457131
12639501333.333334 0.5759837914121806 0.8174611134667441 -6.665134258329082e-17 -5.219655830839243e-17 -6.665134258329082e-17 -5.219655830839243e-17 0.5759832685589259 0.8174614818693383
12640118666.666666 0.5832797639546933 0.812271332105717 -6.710747105899124e-17 -5.1581678233587885e-17 -6.710747105899124e-17 -5.1581678233587885e-17 0.5832792444462289 0.8122717051566393
12640736000.0 0.5905289778463315 0.807016434977384 -6.755793371345957e-17 -5.0962820351658153e-17 -6.755793371345957e-17 -5.0962820351658153e-17 0.590528461723975 0.8070168126462758
12641353333.333334 0.5977308519534524 0.8016968433409476 -6.800269593290661e-17 -5.034003681121958e-17 -6.800269593290661e-17 -5.034003681121958e-17 0.5977303392582457 0.8016972255970831
12641970666.666666 0.604884808937594 0.7963129836417144 -6.84417235830119e-17 -4.9713380061356516e-17 -6.84417235830119e-17 -4.9713380061356516e-17 0.6048842997103012 0.7963133704540045
12642588000.0 0.6119902753014601 0.7908652874771288 -6.887498301150015e-17 -4.908290284725302e-17 -6.887498301150015e-17 -4.908290284725302e-17 0.6119897695825628 0.7908656788141208
12643205333.333334 0.6190466814350762 0.785354191562036 -6.930244105071431e-17 -4.8448658205751505e-17 -6.930244105071431e-17 -4.8448658205751505e-17 0.6190461792647699 0.7853545873919174
12643822666.666666 0.6260534616613598 0.7797801376937393 -6.972406502013757e-17 -4.781069946090252e-17 -6.972406502013757e-17 -4.781069946090252e-17 0.6260529630795534 0.779780537984342
12644440000.0 0.6330100542815386 0.7741435727165361 -7.013982272886282e-17 -4.716908021951117e-17 -7.013982272886282e-17 -4.716908021951117e-17 0.6330095593278477 0.7741439774353361
12645057333.333334 0.6399159016200201 0.7684449484860163 -7.054968247804308e-17 -4.65238543666303e-17 -7.054968247804308e-17 -4.65238543666303e-17 0.639915410333767 0.7684453576001384
12645674666.666666 0.6467704500692786 0.7626847218326996 -7.09536130632787e-17 -4.587507606106437e-17 -7.09536130632787e-17 -4.587507606106437e-17 0.6467699624894871 0.76268513530892
12646292000.0 0.6535731501342096 0.7568633545254292 -7.135158377699369e-17 -4.522279973080665e-17 -7.135158377699369e-17 -4.522279973080665e-17 0.6535726662996028 0.756863772330177
12646909333.333334 0.6603234564760504 0.7509813132344646 -7.174356441072423e-17 -4.4567080068529146e-17 -7.174356441072423e-17 -4.4567080068529146e-17 0.6603229764250476 0.7509817353338257
12647526666.666666 0.66702082795625 0.7450390694939419 -7.212952525741365e-17 -4.390797202697508e-17 -7.212952525741365e-17 -4.390797202697508e-17 0.6670203517269627 0.7450394958536608
12648144000.0 0.6736647276797606 0.7390370996641469 -7.250943711363918e-17 -4.3245530814375136e-17 -7.250943711363918e-17 -4.3245530814375136e-17 0.6736642553099911 0.7390375302496305
12648761333.333334 0.6802546230381431 0.7329758848932705 -7.288327128179301e-17 -4.257981188985048e-17 -7.288327128179301e-17 -4.257981188985048e-17 0.680254154565381 0.7329763196695904
12649378666.666666 0.6867899857520975 0.7268559110789935 -7.325099957223862e-17 -4.1910870958768735e-17 -7.325099957223862e-17 -4.1910870958768735e-17 0.6867895212135146 0.7268563500108877
12649996000.0 0.6932702919140802 0.7206776688292801 -7.361259430541224e-17 -4.1238763968101773e-17 -7.361259430541224e-17 -4.1238763968101773e-17 0.6932698313465312 0.7206781118811584
12650613333.333334 0.6996950220300774 0.7144416534232649 -7.396802831389013e-17 -4.056354710175121e-17 -7.396802831389013e-17 -4.056354710175121e-17 0.699694565470094 0.7144421005592091
12651230666.666666 0.7060636610613331 0.7081483647714696 -7.431727494440107e-17 -3.9885276775879707e-17 -7.431727494440107e-17 -3.9885276775879707e-17 0.7060632085451224 0.7081488159552383
12651848000.0 0.7123756984656757 0.7017983073756875 -7.466030805981084e-17 -3.920400963419504e-17 -7.466030805981084e-17 -3.920400963419504e-17 0.7123752500291176 0.7017987625707183
12652465333.333334 0.7186306282384264 0.695391990288559 -7.499710204105495e-17 -3.851980254323706e-17 -7.499710204105495e-17 -3.851980254323706e-17 0.7186301839170697 0.6953924494579716
12653082666.666666 0.7248279489528043 0.6889299270729289 -7.532763178902099e-17 -3.783271258766075e-17 -7.532763178902099e-17 -3.783271258766075e-17 0.7248275087818642 0.688930390179527
12653700000.0 0.7309671638004578 0.6824126357603244 -7.565187272641602e-17 -3.714279706544779e-17 -7.565187272641602e-17 -3.714279706544779e-17 0.7309667278148153 0.6824131027666023
12654317333.333334 0.7370477806309604 0.6758406388097826 -7.59698007995478e-17 -3.645011348318829e-17 -7.59698007995478e-17 -3.645011348318829e-17 0.7370473488651549 0.6758411096779225
12654934666.666666 0.7430693119913975 0.6692144630658177 -7.628139248010423e-17 -3.57547195512637e-17 -7.628139248010423e-17 -3.57547195512637e-17 0.7430688844796286 0.6692149377576981
12655552000.0 0.749031275165579 0.6625346397160421 -7.658662476686715e-17 -3.505667317905757e-17 -7.658662476686715e-17 -3.505667317905757e-17 0.7490308519417013 0.6625351181932381
12656169333.333334 0.7549331922124116 0.6558017042489421 -7.688547518737486e-17 -3.4356032470172064e-17 -7.688547518737486e-17 -3.4356032470172064e-17 0.754932773309933 0.6558021864727291
12656786666.666666 0.7607745900045545 0.6490161964105682 -7.717792179956843e-17 -3.3652855717566916e-17 -7.717792179956843e-17 -3.3652855717566916e-17 0.7607741754566328 0.6490166823419249
12657404000.0 0.7665550002661026 0.6421786601615438 -7.746394319336556e-17 -3.2947201398750635e-17 -7.746394319336556e-17 -3.2947201398750635e-17 0.7665545901055439 0.6421791497611558
12658021333.333334 0.7722739596103109 0.6352896436332426 -7.774351849221059e-17 -3.223912817090993e-17 -7.774351849221059e-17 -3.223912817090993e-17 0.772273553869566 0.635290136861505
12658638666.666666 0.777931009576505 0.6283496990841314 -7.801662735456546e-17 -3.152869486606425e-17 -7.801662735456546e-17 -3.152869486606425e-17 0.777930608287668 0.6283501959011532
12659256000.0 0.783525696667162 0.6213593828551057 -7.828324997536909e-17 -3.081596048617429e-17 -7.828324997536909e-17 -3.081596048617429e-17 0.7835252998619658 0.6213598832207108
12659873333.333334 0.7890575723839532 0.6143192553252591 -7.854336708744493e-17 -3.010098419825885e-17 -7.854336708744493e-17 -3.010098419825885e-17 0.7890571800937696 0.6143197591989922
12660490666.666666 0.7945261932638308 0.6072298808668134 -7.879695996285858e-17 -2.938382532951325e-17 -7.879695996285858e-17 -2.938382532951325e-17 0.7945258055196652 0.6072303882079406
12661108000.0 0.7999311209146945 0.6000918277997129 -7.904401041425297e-17 -2.8664543362358646e-17 -7.904401041425297e-17 -2.8664543362358646e-17 0.799930737747185 0.6000923385672269
12661725333.333334 0.8052719220502416 0.5929056683464489 -7.928450079610564e-17 -2.794319792957009e-17 -7.928450079610564e-17 -2.794319792957009e-17 0.8052715434896579 0.592906182499072
12662342666.666666 0.8105481685250132 0.5856719785857825 -7.951841400597387e-17 -2.721984880930448e-17 -7.951841400597387e-17 -2.721984880930448e-17 0.8105477946012523 0.5856724960819701
12662960000.0 0.8157594373684947 0.5783913384068579 -7.974573348567386e-17 -2.6494555920176888e-17 -7.974573348567386e-17 -2.6494555920176888e-17 0.8157590681110773 0.5783918592048001
12663577333.333334 0.8209053108191707 0.5710643314625071 -7.996644322242026e-17 -2.57673793163141e-17 -7.996644322242026e-17 -2.57673793163141e-17 0.8209049462572429 0.5710648555201346
12664194666.666666 0.8259853763578869 0.563691545122649 -8.018052774992707e-17 -2.5038379182378392e-17 -8.018052774992707e-17 -2.5038379182378392e-17 0.8259850165202142 0.563692072397635
12664812000.0 0.8309992267410481 0.5562735704270152 -8.038797214945246e-17 -2.4307615828616745e-17 -8.038797214945246e-17 -2.4307615828616745e-17 0.8309988716560152 0.5562741008767789
12665429333.333334 0.8359464600331526 0.5488110020379339 -8.058876205081094e-17 -2.3575149685863037e-17 -8.058876205081094e-17 -2.3575149685863037e-17 0.8359461097287595 0.5488115356196439
12666046666.666666 0.8408266796390451 0.5413044381926108 -8.078288363332474e-17 -2.284104130058251e-17 -8.078288363332474e-17 -2.284104130058251e-17 0.8408263341429074 0.5413049748631903
12666664000.0 0.8456394943358361 0.5337544806549837 -8.097032362675073e-17 -2.2105351329837767e-17 -8.097032362675073e-17 -2.2105351329837767e-17 0.8456391536751797 0.5337550203711106
12667281333.333334 0.8503845183039983 0.5261617346678836 -8.115106931213936e-17 -2.1368140536328054e-17 -8.115106931213936e-17 -2.1368140536328054e-17 0.8503841825056603 0.5261622773859972
12667898666.666666 0.8550613711585598 0.5185268089041126 -8.132510852266354e-17 -2.0629469783366598e-17 -8.132510852266354e-17 -2.0629469783366598e-17 0.8550610402489843 0.5185273545804155
12668516000.0 0.8596696779794749 0.5108503154178392 -8.149242964440148e-17 -1.9889400029851672e-17 -8.149242964440148e-17 -1.9889400029851672e-17 0.8596693519847105 0.5108508640083004
12669133333.333334 0.8642090693416612 0.5031328695955563 -8.165302161706056e-17 -1.9147992325287313e-17 -8.165302161706056e-17 -1.9147992325287313e-17 0.8642087482873617 0.5031334210559166
12669750666.666666 0.8686791813446512 0.495375090106704 -8.180687393467507e-17 -1.840530780471991e-17 -8.180687393467507e-17 -1.840530780471991e-17 0.8686788652560717 0.4953756443924784
12670368000.0 0.8730796556418169 0.487577598853973 -8.195397664624431e-17 -1.7661407683725242e-17 -8.195397664624431e-17 -1.7661407683725242e-17 0.8730793445438102 0.4875781559204531
12670985333.333334 0.8774101394689408 0.4797410209237204 -8.209432035632657e-17 -1.691635325338878e-17 -8.209432035632657e-17 -1.691635325338878e-17 0.8774098333859591 0.47974158072598055
