! Parameters = {f0=12700.012000; bw=77.238000; Q=6100.000000; N=10; m_0_1=1.183278; m_1_1=-1.015572; m_1_2=1.018090; m_2_2=-1.016221; m_2_3=0.655053; m_2_8=-0.003772; m_2_9=0.032932; m_3_3=-1.018158; m_3_4=0.543582; m_3_7=-0.003172; m_3_8=-0.100260; m_3_9=-0.003772; m_4_4=-1.021083; m_4_5=0.379917; m_4_6=0.000345; m_4_7=-0.120809; m_4_8=-0.003172; m_5_5=-1.020701; m_5_6=0.787272; m_5_7=0.000345; m_6_6=-1.020702; m_6_7=0.380259; m_7_7=-1.021069; m_7_8=0.543700; m_8_8=-1.018160; m_8_9=0.655366; m_9_9=-1.016226; m_9_10=1.019168; m_10_10=-1.015582; m_10_11=1.184073}
!
! Created with skrf (http://scikit-rf.org).
# Hz S RI R 50.0 
!freq ReS11 ImS11 ReS21 ImS21 ReS12 ImS12 ReS22 ImS22
12607400000.0 -0.9690959513302438 0.2466840836275743 6.195834919968019e-17 -3.690980135222876e-17 6.195834919968019e-17 -3.690980135222876e-17 -0.9690961051548374 0.24668347932841037
12608017333.333334 -0.9671018623666156 0.2543894412252016 6.164722161799424e-17 -3.7399908951615757e-17 6.164722161799424e-17 -3.7399908951615757e-17 -0.9671020209882708 0.25438883819902297
12608634666.666666 -0.9650465085387643 0.26207868352269414 6.13322221122288e-17 -3.788740163618353e-17 6.13322221122288e-17 -3.788740163618353e-17 -0.9650466719469624 0.262078081807575
12609252000.0 -0.9629300200512131 0.2697513234147658 6.10133726002412e-17 -3.837224885759394e-17 6.10133726002412e-17 -3.837224885759394e-17 -0.9629301882351354 0.2697507230486943
12609869333.333334 -0.960752530981272 0.2774068748479859 6.069069524057836e-17 -3.885442025075628e-17 6.069069524057836e-17 -3.885442025075628e-17 -0.9607527039297967 0.2774062758688605
12610486666.666666 -0.9585141792706035 0.28504485285135056 6.036421243094748e-17 -3.93338856357228e-17 6.036421243094748e-17 -3.93338856357228e-17 -0.958514356972308 0.28504425529697813
12611104000.0 -0.9562151067164196 0.2926647735672235 6.00339468066644e-17 -3.981061501958149e-17 6.00339468066644e-17 -3.981061501958149e-17 -0.9562152891595816 0.2926641774753171
12611721333.333334 -0.9538554589625637 0.3002661542817693 5.969992123910925e-17 -4.0284578598303773e-17 5.969992123910925e-17 -4.0284578598303773e-17 -0.953855646135163 0.30026555968994595
12612338666.666666 -0.9514353854902324 0.30784851345572545 5.936215883414669e-17 -4.075574675860996e-17 5.936215883414669e-17 -4.075574675860996e-17 -0.9514355773799487 0.3078479204015029
12612956000.0 -0.9489550396085217 0.31541137075482284 5.902068293053135e-17 -4.122409007982115e-17 5.902068293053135e-17 -4.122409007982115e-17 -0.9489552362027375 0.3154107792756181
12613573333.333334 -0.9464145784447479 0.3229542470801352 5.86755170983202e-17 -4.168957933566821e-17 5.86755170983202e-17 -4.168957933566821e-17 -0.9464147797305499 0.32295365721326197
12614190666.666666 -0.9438141629344299 0.3304766645986183 5.832668513724823e-17 -4.2152185496119146e-17 5.832668513724823e-17 -4.2152185496119146e-17 -0.9438143688986079 0.33047607638128423
12614808000.0 -0.9411539578111675 0.33797814677316435 5.797421107509654e-17 -4.261187972918269e-17 5.797421107509654e-17 -4.261187972918269e-17 -0.9411541684402159 0.33797756024246894
12615425333.333334 -0.9384341315961375 0.3454582183929778 5.76181191660502e-17 -4.30686334026938e-17 5.76181191660502e-17 -4.30686334026938e-17 -0.9384343468762579 0.34545763358591036
12616042666.666666 -0.9356548565874505 0.3529164056035999 5.725843388904367e-17 -4.352241808608378e-17 5.725843388904367e-17 -4.352241808608378e-17 -0.9356550765045505 0.3529158225570369
12616660000.0 -0.9328163088492619 0.3603522359368458 5.689517994608064e-17 -4.3973205552151393e-17 5.689517994608064e-17 -4.3973205552151393e-17 -0.9328165333889572 0.3603516546875486
12617277333.333334 -0.9299186682005544 0.36776523834092345 5.65283822605518e-17 -4.442096777880539e-17 5.65283822605518e-17 -4.442096777880539e-17 -0.9299188973481675 0.36776465892553534
12617894666.666666 -0.9269621182038164 0.3751549432100572 5.615806597553838e-17 -4.4865676950793107e-17 5.615806597553838e-17 -4.4865676950793107e-17 -0.9269623519443828 0.375154365665103
12618512000.0 -0.9239468461533454 0.38252088241445453 5.578425645209015e-17 -4.5307305461431196e-17 5.578425645209015e-17 -4.5307305461431196e-17 -0.923947084471608 0.38252030677633575
12619129333.333334 -0.9208730430634575 0.3898625893297462 5.5406979267508745e-17 -4.5745825914298224e-17 5.5406979267508745e-17 -4.5745825914298224e-17 -0.9208732859438722 0.3898620156347407
12619746666.666666 -0.9177409036563146 0.3971795988667322 5.502626021359834e-17 -4.6181211124936627e-17 5.502626021359834e-17 -4.6181211124936627e-17 -0.9177411510830491 0.3971790271509909
12620364000.0 -0.9145506263496204 0.404471447500765 5.464212529491603e-17 -4.661343412252447e-17 5.464212529491603e-17 -4.661343412252447e-17 -0.9145508783065565 0.40447087780031005
12620981333.333334 -0.9113024132440752 0.41173767330106226 5.425460072700965e-17 -4.704246815153323e-17 5.425460072700965e-17 -4.704246815153323e-17 -0.9113026697148091 0.41173710565178445
12621598666.666666 -0.9079964701105492 0.4189778159600208 5.386371293462879e-17 -4.7468286673385886e-17 5.386371293462879e-17 -4.7468286673385886e-17 -0.9079967310783934 0.418977250397678
12622216000.0 -0.9046330063770267 0.4261914168224301 5.3469488549943355e-17 -4.7890863368077675e-17 5.3469488549943355e-17 -4.7890863368077675e-17 -0.9046332718250091 0.4261908533826438
12622833333.333334 -0.9012122351153548 0.4333780189144726 5.3071954410727595e-17 -4.8310172135806194e-17 5.3071954410727595e-17 -4.8310172135806194e-17 -0.9012125050262235 0.4333774576327273
12623450666.666666 -0.8977343730277798 0.44053716697262474 5.2671137558552405e-17 -4.872618709856427e-17 5.2671137558552405e-17 -4.872618709856427e-17 -0.8977346473839994 0.44053660788426363
12624068000.0 -0.8941996404332001 0.44766840747252085 5.226706523695217e-17 -4.913888260173096e-17 5.226706523695217e-17 -4.913888260173096e-17 -0.8941999192169565 0.4476678506127453
12624685333.333334 -0.8906082612531118 0.454771288657888 5.185976488957268e-17 -4.9548233215655146e-17 5.185976488957268e-17 -4.9548233215655146e-17 -0.8906085444463124 0.454770734061755
12625302666.666666 -0.8869604629976511 0.461845360568707 5.144926415833491e-17 -4.995421373719446e-17 5.144926415833491e-17 -4.995421373719446e-17 -0.886960750581926 0.4618448082711266
12625920000.0 -0.883256476750901 0.46889017507027475 5.103559088155094e-17 -5.0356799191275284e-17 5.103559088155094e-17 -5.0356799191275284e-17 -0.8832567687076024 0.46888962510600746
12626537333.333334 -0.8794965371564809 0.4759052858811356 5.0618773092057e-17 -5.075596483240876e-17 5.0618773092057e-17 -5.075596483240876e-17 -0.8794968334666882 0.4759047382847918
12627154666.666666 -0.8756808824025863 0.4828902486015596 5.0198839015319906e-17 -5.1151686146205535e-17 5.0198839015319906e-17 -5.1151686146205535e-17 -0.8756811830471023 0.48288970340759474
12627772000.0 -0.8718097542068622 0.4898446207417385 4.9775817067522915e-17 -5.154393885088326e-17 4.9775817067522915e-17 -5.154393885088326e-17 -0.8718100591662193 0.489844077984454
12628389333.333334 -0.8678833978011948 0.4967679617496475 4.9349735853678495e-17 -5.193269889872214e-17 4.9349735853678495e-17 -5.193269889872214e-17 -0.8678837070556539 0.4967674214631869
12629006666.666666 -0.8639020619160755 0.5036598330391259 4.892062416567179e-17 -5.2317942477559236e-17 4.892062416567179e-17 -5.2317942477559236e-17 -0.8639023754456252 0.5036592952574717
12629624000.0 -0.8598659987648988 0.51051979801756 4.8488510980344635e-17 -5.269964601221806e-17 4.8488510980344635e-17 -5.269964601221806e-17 -0.859866316549261 0.5105192627745341
12630241333.333334 -0.8557754640279436 0.5173474221136174 4.8053425457543244e-17 -5.30777861659461e-17 4.8053425457543244e-17 -5.30777861659461e-17 -0.8557757860465715 0.5173468894428764
12630858666.666666 -0.8516307168363071 0.5241422728045549 4.761539693815947e-17 -5.345233984183235e-17 4.761539693815947e-17 -5.345233984183235e-17 -0.8516310430683892 0.5241417427395906
12631476000.0 -0.847432019755242 0.5309039196440346 4.717445494214808e-17 -5.382328418421871e-17 4.717445494214808e-17 -5.382328418421871e-17 -0.8474323501796993 0.5309033922181685
12632093333.333334 -0.8431796387677515 0.5376319342889986 4.673062916657097e-17 -5.4190596580064095e-17 4.673062916657097e-17 -5.4190596580064095e-17 -0.8431799733632455 0.5376314095353844
12632710666.666666 -0.8388738432577091 0.5443258905268856 4.6283949483587216e-17 -5.4554254660329244e-17 4.6283949483587216e-17 -5.4554254660329244e-17 -0.8388741820026352 0.5443253684785022
12633328000.0 -0.834514905992614 0.5509853643028875 4.583444593844758e-17 -5.4914236301331305e-17 4.583444593844758e-17 -5.4914236301331305e-17 -0.8345152488651084 0.5509848449925397
12633945333.333334 -0.8301031031064997 0.5576099337465276 4.5382148747501165e-17 -5.5270519626064734e-17 4.5382148747501165e-17 -5.5270519626064734e-17 -0.83010345008444 0.5576094172068444
12634562666.666666 -0.8256387140824125 0.5641991791984359 4.492708829615535e-17 -5.562308300553498e-17 4.492708829615535e-17 -5.562308300553498e-17 -0.8256390651434172 0.5641986654618669
12635180000.0 -0.8211220217346236 0.5707526832370484 4.446929513684907e-17 -5.597190506005618e-17 4.446929513684907e-17 -5.597190506005618e-17 -0.8211223768560569 0.5707521723358636
12635797333.333334 -0.8165533121907508 0.5772700307050089 4.400879998701341e-17 -5.631696466053535e-17 4.400879998701341e-17 -5.631696466053535e-17 -0.8165536713497187 0.5772695226712933
12636414666.666666 -0.8119328748737381 0.5837508087352974 4.3545633727015456e-17 -5.665824092974436e-17 4.3545633727015456e-17 -5.665824092974436e-17 -0.8119332380470956 0.5837503036009535
12637032000.0 -0.8072610024833338 0.5901946067776719 4.307982739809272e-17 -5.699571324357538e-17 4.307982739809272e-17 -5.699571324357538e-17 -0.8072613696476828 0.5901941045744141
12637649333.333334 -0.8025379909776552 0.5966010166245082 4.2611412200284085e-17 -5.732936123227422e-17 4.2611412200284085e-17 -5.732936123227422e-17 -0.8025383621093478 0.5966005173838627
12638266666.666666 -0.7977641395544798 0.6029696324366164 4.214041949035331e-17 -5.765916478165603e-17 4.214041949035331e-17 -5.765916478165603e-17 -0.7977645146296185 0.6029691361899187
12638884000.0 -0.7929397506321872 0.6093000507690874 4.1666880779688254e-17 -5.798510403431437e-17 4.1666880779688254e-17 -5.798510403431437e-17 -0.7929401296266273 0.60929955754748
12639501333.333334 -0.7880651298306347 0.6155918705968036 4.11908277322041e-17 -5.830715939080389e-17 4.11908277322041e-17 -5.830715939080389e-17 -0.7880655127199859 0.6155913804312348
12640118666.666666 -0.7831405859519558 0.6218446933396432 4.07122921622491e-17 -5.862531151079754e-17 4.07122921622491e-17 -5.862531151079754e-17 -0.7831409727115825 0.6218442062608639
12640736000.0 -0.7781664309606099 0.6280581228882208 4.0231306032449944e-17 -5.893954131426263e-17 4.0231306032449944e-17 -5.893954131426263e-17 -0.7781668215656342 0.6280576389267836
12641353333.333334 -0.7731429799640941 0.6342317656283765 3.9747901451630136e-17 -5.924982998256325e-17 3.9747901451630136e-17 -5.924982998256325e-17 -0.7731433743893982 0.6342312848146345
12641970666.666666 -0.7680705511926701 0.6403652304665173 3.926211067264428e-17 -5.955615895959657e-17 3.926211067264428e-17 -5.955615895959657e-17 -0.7680709494128948 0.6403647528306203
12642588000.0 -0.7629494659792665 0.6464581288542969 3.877396609024097e-17 -5.985850995288691e-17 3.877396609024097e-17 -5.985850995288691e-17 -0.7629498679688166 0.6464576544261914
12643205333.333334 -0.7577800487391656 0.6525100748131901 3.828350023891383e-17 -6.015686493466442e-17 3.828350023891383e-17 -6.015686493466442e-17 -0.7577804544722075 0.6525096036226151
12643822666.666666 -0.752562626949429 0.6585206849589638 3.779074579073939e-17 -6.045120614292978e-17 3.779074579073939e-17 -6.045120614292978e-17 -0.7525630363998953 0.6585202170354506
12644440000.0 -0.7472975311281354 0.664489578525985 3.7295735553206854e-17 -6.074151608250104e-17 3.7295735553206854e-17 -6.074151608250104e-17 -0.747297944269727 0.6644891138988563
12645057333.333334 -0.7419850948134816 0.6704163773913014 3.679850246704682e-17 -6.102777752603866e-17 3.679850246704682e-17 -6.102777752603866e-17 -0.7419855116196671 0.6704159160896677
12645674666.666666 -0.7366256545427098 0.6763007060985317 3.629907960404365e-17 -6.130997351505815e-17 3.629907960404365e-17 -6.130997351505815e-17 -0.7366260749867277 0.6763002481512889
12646292000.0 -0.7312195498305382 0.6821421918819213 3.5797500164838326e-17 -6.158808736092561e-17 3.5797500164838326e-17 -6.158808736092561e-17 -0.731219973885401 0.6821417373177519
12646909333.333334 -0.725767123147963 0.6879404646896246 3.5293797476741505e-17 -6.186210264582574e-17 3.5293797476741505e-17 -6.186210264582574e-17 -0.7257675507864553 0.6879400135369923
12647526666.666666 -0.7202687199004264 0.6936951572072914 3.47880049915144e-17 -6.213200322372543e-17 3.47880049915144e-17 -6.213200322372543e-17 -0.7202691510951091 0.6936947094944419
12648144000.0 -0.714724688405818 0.6994059048814599 3.428015628316207e-17 -6.239777322130892e-17 3.428015628316207e-17 -6.239777322130892e-17 -0.7147251231290297 0.6994054606364181
12648761333.333334 -0.7091353798726462 0.7050723459424046 3.377028504570902e-17 -6.265939703890062e-17 3.377028504570902e-17 -6.265939703890062e-17 -0.7091358180965044 0.7050719051929728
12649378666.666666 -0.7035011483776498 0.7106941214271968 3.325842509097662e-17 -6.291685935136512e-17 3.325842509097662e-17 -6.291685935136512e-17 -0.7035015900740537 0.7106936842009541
12649996000.0 -0.6978223508433301 0.7162708752024861 3.274461034634518e-17 -6.317014510899391e-17 3.274461034634518e-17 -6.317014510899391e-17 -0.6978227959839608 0.7162704415267848
12650613333.333334 -0.6920993470154577 0.7218022539869385 3.222887485250727e-17 -6.341923953837469e-17 3.222887485250727e-17 -6.341923953837469e-17 -0.6920997955717806 0.7218018238889028
12651230666.666666 -0.6863324994402447 0.7272879073736579 3.1711252761232766e-17 -6.366412814323333e-17 3.1711252761232766e-17 -6.366412814323333e-17 -0.6863329513835127 0.7272874808801844
12651848000.0 -0.6805221734412339 0.7327274878525215 3.119177833310222e-17 -6.390479670527012e-17 3.119177833310222e-17 -6.390479670527012e-17 -0.6805226287424876 0.7327270649902743
12652465333.333334 -0.6746687370964021 0.7381206508319581 3.067048593525228e-17 -6.414123128496911e-17 3.067048593525228e-17 -6.414123128496911e-17 -0.6746691957264722 0.7381202316273697
12653082666.666666 -0.6687725612147216 0.7434670546608978 3.0147410039115186e-17 -6.437341822238907e-17 3.0147410039115186e-17 -6.437341822238907e-17 -0.6687730231442308 0.7434666391401655
12653700000.0 -0.662834019312518 0.748766360650544 2.962258521813366e-17 -6.460134413794386e-17 2.962258521813366e-17 -6.460134413794386e-17 -0.6628344845118838 0.7487659488396311
12654317333.333334 -0.6568534875901721 0.7540182330955111 2.909604614549832e-17 -6.48249959331531e-17 2.909604614549832e-17 -6.48249959331531e-17 -0.6568539560296063 0.754017825020141
12654934666.666666 -0.6508313449079457 0.7592223392953892 2.8567827591853156e-17 -6.50443607913848e-17 2.8567827591853156e-17 -6.50443607913848e-17 -0.6508318165574587 0.7592219349810481
12655552000.0 -0.6447679727620445 0.7643783495757658 2.803796442300323e-17 -6.525942617857648e-17 2.803796442300323e-17 -6.525942617857648e-17 -0.644768447591446 0.7643779490476977
12656169333.333334 -0.6386637552607106 0.7694859373088859 2.750649159764485e-17 -6.547017984392596e-17 2.750649159764485e-17 -6.547017984392596e-17 -0.6386642332396119 0.7694855405920935
12656786666.666666 -0.6325190790995435 0.7745447789346418 2.6973444165036886e-17 -6.567660982058648e-17 2.6973444165036886e-17 -6.567660982058648e-17 -0.6325195601973594 0.7745443860538836
12657404000.0 -0.6263343335371754 0.7795545539809196 2.6438857262711534e-17 -6.587870442632392e-17 2.6438857262711534e-17 -6.587870442632392e-17 -0.6263348177231257 0.7795541649607081
12658021333.333334 -0.6201099103706356 0.7845149450838845 2.5902766114167496e-17 -6.60764522641614e-17 2.5902766114167496e-17 -6.60764522641614e-17 -0.620110397613748 0.7845145599484864
12658638666.666666 -0.6138462039105095 0.7894256380081065 2.5365206026554643e-17 -6.626984222300645e-17 2.5365206026554643e-17 -6.626984222300645e-17 -0.6138466941796209 0.7894252567815392
12659256000.0 -0.6075436109558009 0.7942863216665847 2.482621238834277e-17 -6.645886347826351e-17 2.482621238834277e-17 -6.645886347826351e-17 -0.6075441042195605 0.7942859443726171
12659873333.333334 -0.6012025307690674 0.7990966881402501 2.4285820667021946e-17 -6.664350549241428e-17 2.4285820667021946e-17 -6.664350549241428e-17 -0.601203026995936 0.7990963148023976
12660490666.666666 -0.5948233650509892 0.803856432697572 2.374406640676471e-17 -6.682375801559233e-17 2.374406640676471e-17 -6.682375801559233e-17 -0.5948238642092435 0.8038560633390978
12661108000.0 -0.588406517914764 0.8085652538139827 2.3200985226083916e-17 -6.69996110861378e-17 2.3200985226083916e-17 -6.69996110861378e-17 -0.5884070199724993 0.8085648884578968
12661725333.333334 -0.5819523958608956 0.8132228531906924 2.26566128155212e-17 -6.717105503112229e-17 2.26566128155212e-17 -6.717105503112229e-17 -0.5819529007860259 0.8132224918597483
12662342666.666666 -0.5754614077510527 0.8178289357738716 2.21109849352953e-17 -6.733808046686652e-17 2.21109849352953e-17 -6.733808046686652e-17 -0.575461915511313 0.8178285784905652
12662960000.0 -0.5689339647823506 0.8223832097732067 2.156413741295837e-17 -6.750067829943586e-17 2.156413741295837e-17 -6.750067829943586e-17 -0.5689344753453002 0.8223828565597758
12663577333.333334 -0.5623704804613504 0.8268853866803538 2.1016106141054438e-17 -6.76588397251143e-17 2.1016106141054438e-17 -6.76588397251143e-17 -0.5623709937943733 0.8268850375587753
12664194666.666666 -0.5557713705777223 0.831335181287312 2.0466927074776665e-17 -6.78125562308596e-17 2.0466927074776665e-17 -6.78125562308596e-17 -0.5557718866480316 0.8313348362793033
12664812000.0 -0.5491370531779783 0.8357323117044442 1.991663622960401e-17 -6.796181959474431e-17 1.991663622960401e-17 -6.796181959474431e-17 -0.5491375719526157 0.8357319708314586
12665429333.333334 -0.542467948539034 0.8400764993783004 1.936526967895041e-17 -6.810662188637318e-17 1.936526967895041e-17 -6.810662188637318e-17 -0.5424684699848741 0.840076162661528
12666046666.666666 -0.53576447914154 0.8443674691092986 1.8812863551822782e-17 -6.824695546727878e-17 1.8812863551822782e-17 -6.824695546727878e-17 -0.5357650032252909 0.8443671365696633
12666664000.0 -0.5290270696430445 0.8486049490692016 1.8259454030427725e-17 -6.83828129913106e-17 1.8259454030427725e-17 -6.83828129913106e-17 -0.5290275963312498 0.8486046207273612
12667281333.333334 -0.5222561468512587 0.8527886708182303 1.770507734784195e-17 -6.851418740498816e-17 1.770507734784195e-17 -6.851418740498816e-17 -0.5222566761103021 0.8527883466945756
12667898666.666666 -0.5154521396968549 0.8569183693221791 1.7149769785633437e-17 -6.864107194784675e-17 1.7149769785633437e-17 -6.864107194784675e-17 -0.5154526714929587 0.8569180494368295
12668516000.0 -0.5086154792063602 0.8609937829691527 1.65935676714825e-17 -6.876346015276384e-17 1.65935676714825e-17 -6.876346015276384e-17 -0.5086160135055904 0.8609934673419595
12669133333.333334 -0.50174659847493 0.8650146535861025 1.6036507376837746e-17 -6.888134584625695e-17 1.6036507376837746e-17 -6.888134584625695e-17 -0.5017471352431966 0.8650143422366439
12669750666.666666 -0.49484593263873816 0.8689807264552798 1.5478625314521335e-17 -6.899472314877452e-17 1.5478625314521335e-17 -6.899472314877452e-17 -0.4948464718417986 0.8689804194028611
12670368000.0 -0.48791391884758323 0.8728917503302701 1.491995793637158e-17 -6.910358647495796e-17 1.491995793637158e-17 -6.910358647495796e-17 -0.48791446045104403 0.8728914475939236
