! Parameters = {f0=12700.012000; bw=77.238000; Q=6100.000000; N=10; m_0_1=1.244539; m_1_1=-0.096653; m_1_2=1.079351; m_2_2=-0.097302; m_2_3=0.716314; m_2_8=-0.000709; m_2_9=0.035995; m_3_3=-0.099239; m_3_4=0.604843; m_3_7=-0.000109; m_3_8=-0.097197; m_3_9=-0.000709; m_4_4=-0.102164; m_4_5=0.441178; m_4_6=0.003408; m_4_7=-0.117746; m_4_8=-0.000109; m_5_5=-0.101782; m_5_6=0.848533; m_5_7=0.003408; m_6_6=-0.101783; m_6_7=0.441520; m_7_7=-0.102150; m_7_8=0.604961; m_8_8=-0.099241; m_8_9=0.716627; m_9_9=-0.097307; m_9_10=1.080429; m_10_10=-0.096663; m_10_11=1.245334}
!
! Created with skrf (http://scikit-rf.org).
# Hz S RI R 50.0 
!freq ReS11 ImS11 ReS21 ImS21 ReS12 ImS12 ReS22 ImS22
12607400000.0 -0.9048934294347984 -0.4256382047767314 9.681560645187276e-17 1.479647403583924e-17 9.681560645187276e-17 1.479647403583924e-17 -0.9048931503252905 -0.4256387981542586
12608017333.333334 -0.9090087735899403 -0.41677697817459025 9.693778840583607e-17 1.3838558816760282e-17 9.693778840583607e-17 1.3838558816760282e-17 -0.9090085003045011 -0.4167775742215412
12608634666.666666 -0.913037346135044 -0.40787596713033464 9.705049938309734e-17 1.2879673536176336e-17 9.705049938309734e-17 1.2879673536176336e-17 -0.9130370786991895 -0.40787656578955367
12609252000.0 -0.9169787625131616 -0.398936021311264 9.715373213880128e-17 1.1919911766930225e-17 9.715373213880128e-17 1.1919911766930225e-17 -0.9169785009518465 -0.3989366225253518
12609869333.333334 -0.9208326464870097 -0.3899579941013657 9.72474803519258e-17 1.0959367130381455e-17 9.72474803519258e-17 1.0959367130381455e-17 -0.9208323908246253 -0.38995859781268466
12610486666.666666 -0.9245986301749107 -0.3809427425198038 9.733173862553175e-17 9.998133287313925e-18 9.733173862553175e-17 9.998133287313925e-18 -0.9245983804352832 -0.3809433486704833
12611104000.0 -0.9282763540859963 -0.37189112713889855 9.740650248693044e-17 9.036303928771522e-18 9.740650248693044e-17 9.036303928771522e-18 -0.9282761102923848 -0.3718917356708412
12611721333.333334 -0.9318654671543388 -0.36280401200242546 9.74717683877505e-17 8.073972767005052e-18 9.74717683877505e-17 8.073972767005052e-18 -0.9318652293294313 -0.36280462285731213
12612338666.666666 -0.9353656267726465 -0.3536822645426894 9.752753370392525e-17 7.1112335263099e-18 9.752753370392525e-17 7.1112335263099e-18 -0.9353653949385596 -0.35368287766198486
12612956000.0 -0.9387764988248799 -0.34452675549793077 9.757379673558315e-17 6.1481799339380706e-18 9.757379673558315e-17 6.1481799339380706e-18 -0.9387762730031569 -0.34452737082288953
12613573333.333334 -0.9420977577181395 -0.3353383588292354 9.761055670685177e-17 5.184905710994224e-18 9.761055670685177e-17 5.184905710994224e-18 -0.9420975379297465 -0.33533897630090687
12614190666.666666 -0.9453290864137647 -0.326117951637055 9.76378137655715e-17 4.221504563327455e-18 9.76378137655715e-17 4.221504563327455e-18 -0.9453288726790907 -0.32611857119628984
12614808000.0 -0.9484701764576259 -0.31686641407740085 9.765556898291955e-17 3.2580701724281474e-18 9.765556898291955e-17 3.2580701724281474e-18 -0.9484699687964806 -0.31686703566485636
12615425333.333334 -0.9515207280095043 -0.30758462927801467 9.766382435294437e-17 2.294696186341866e-18 9.766382435294437e-17 2.294696186341866e-18 -0.951520526441115 -0.30758525283416005
12616042666.666666 -0.9544804498717849 -0.29827348325385156 9.766258279201028e-17 1.3314762105928146e-18 9.766258279201028e-17 1.3314762105928146e-18 -0.9544802544147952 -0.2982741087189738
12616660000.0 -0.9573490595171845 -0.28893386482271993 9.765184813815388e-17 3.685037990872431e-19 9.765184813815388e-17 3.685037990872431e-19 -0.9573488701896529 -0.28893449213692984
12617277333.333334 -0.9601262831157946 -0.27956666552019244 9.763162515034949e-17 -5.941275549357387e-19 9.763162515034949e-17 -5.941275549357387e-19 -0.9601260999351942 -0.27956729462343055
12617894666.666666 -0.9628118555611197 -0.2701727795148575 9.760191950768745e-17 -1.5563244279716525e-18 9.760191950768745e-17 -1.5563244279716525e-18 -0.962811678544333 -0.27017341034689885
12618512000.0 -0.9654055204955295 -0.26075310352244485 9.756273780846081e-17 -2.517993475307813e-18 9.756273780846081e-17 -2.517993475307813e-18 -0.9654053496588505 -0.2607537360229057
12619129333.333334 -0.96790703033456 -0.2513085367208287 9.751408756916631e-17 -3.479041440041576e-18 9.751408756916631e-17 -3.479041440041576e-18 -0.9679068656936909 -0.2513091708291719
12619746666.666666 -0.9703161462906806 -0.24183998066372997 9.745597722341315e-17 -4.439375162125319e-18 9.745597722341315e-17 -4.439375162125319e-18 -0.9703159878607305 -0.24184061631927087
12620364000.0 -0.9726326383960586 -0.23234833919473716 9.738841612074559e-17 -5.398901587370777e-18 9.738841612074559e-17 -5.398901587370777e-18 -0.9726324861915427 -0.23234897633664942
12620981333.333334 -0.9748562855244313 -0.22283451836135904 9.731141452537667e-17 -6.357527776442357e-18 9.731141452537667e-17 -6.357527776442357e-18 -0.9748561395592689 -0.22283515692868025
12621598666.666666 -0.9769868754123308 -0.21329942632806698 9.722498361483218e-17 -7.315160913846806e-18 9.722498361483218e-17 -7.315160913846806e-18 -0.9769867356998434 -0.2133000662597046
12622216000.0 -0.9790242046792559 -0.20374397328996222 9.712913547850754e-17 -8.271708316910156e-18 9.712913547850754e-17 -8.271708316910156e-18 -0.9790240712321694 -0.20374461452469977
12622833333.333334 -0.980968078847156 -0.1941690713856153 9.702388311613722e-17 -9.227077444713312e-18 9.702388311613722e-17 -9.227077444713312e-18 -0.9809679516775934 -0.19416971386211745
12623450666.666666 -0.9828183123589149 -0.18457563461032747 9.690924043617514e-17 -1.0181175907038069e-17 9.690924043617514e-17 -1.0181175907038069e-17 -0.9828181914784032 -0.18457627826714704
12624068000.0 -0.9845747285961499 -0.17496457872852347 9.678522225408876e-17 -1.1133911473275658e-17 9.678522225408876e-17 -1.1133911473275658e-17 -0.9845746140156107 -0.17496522350410584
12624685333.333334 -0.9862371598960189 -0.16533682118652726 9.665184429056197e-17 -1.2085192081346499e-17 9.665184429056197e-17 -1.2085192081346499e-17 -0.9862370516257738 -0.16533746701921762
12625302666.666666 -0.9878054475672262 -0.1556932810250436 9.650912316961859e-17 -1.3034925846542504e-17 9.650912316961859e-17 -1.3034925846542504e-17 -0.9878053456169928 -0.15569392785309208
12625920000.0 -0.9892794419051987 -0.14603487879123112 9.63570764166493e-17 -1.3983021070417232e-17 9.63570764166493e-17 -1.3983021070417232e-17 -0.9892793462840906 -0.14603552655279892
12626537333.333334 -0.9906590022063501 -0.1363625364509982 9.619572245635931e-17 -1.4929386249602414e-17 9.619572245635931e-17 -1.4929386249602414e-17 -0.9906589129228754 -0.13636318508416334
12627154666.666666 -0.9919439967815062 -0.126677177301051 9.602508061062787e-17 -1.5873930084615847e-17 9.602508061062787e-17 -1.5873930084615847e-17 -0.9919439138435678 -0.1266778267438145
12627772000.0 -0.993134302968529 -0.11697972588036355 9.584517109627331e-17 -1.6816561488689583e-17 9.584517109627331e-17 -1.6816561488689583e-17 -0.9931342263834225 -0.11698037607065509
12628389333.333334 -0.9942298071439438 -0.10727110788254365 9.565601502274995e-17 -1.7757189596475976e-17 9.565601502274995e-17 -1.7757189596475976e-17 -0.994229736918358 -0.10727175875822767
12629006666.666666 -0.9952304047338626 -0.09755225006684809 9.545763438973702e-17 -1.8695723772848537e-17 9.545763438973702e-17 -1.8695723772848537e-17 -0.9952303408738792 -0.09755290156572978
12629624000.0 -0.9961360002239182 -0.08782408017011156 9.525005208466043e-17 -1.9632073621579112e-17 9.525005208466043e-17 -1.9632073621579112e-17 -0.9961359427350114 -0.08782473222994273
12630241333.333334 -0.9969465071683955 -0.07808752681810313 9.503329188012056e-17 -2.0566148994034652e-17 9.503329188012056e-17 -2.0566148994034652e-17 -0.9969464560554301 -0.07808817937658802
12630858666.666666 -0.9976618481984845 -0.06834351943685346 9.480737843123652e-17 -2.1497859997841206e-17 9.480737843123652e-17 -2.1497859997841206e-17 -0.9976618034657152 -0.0683441724316548
12631476000.0 -0.9982819550296714 -0.05859298816384916 9.457233727290319e-17 -2.242711700552474e-17 9.457233727290319e-17 -2.242711700552474e-17 -0.9982819166807446 -0.05859364153259418
12632093333.333334 -0.9988067684682452 -0.04883686375938603 9.432819481697027e-17 -2.335383066310157e-17 9.432819481697027e-17 -2.335383066310157e-17 -0.9988067365061979 -0.04883751743967235
12632710666.666666 -0.9992362384169503 -0.03907607751777808 9.407497834933493e-17 -2.4277911898646932e-17 9.407497834933493e-17 -2.4277911898646932e-17 -0.9992362128442084 -0.03907673144717968
12633328000.0 -0.9995703238797834 -0.02931156117808945 9.381271602694065e-17 -2.519927193087012e-17 9.381271602694065e-17 -2.519927193087012e-17 -0.9995703046981635 -0.029312215294162638
12633945333.333334 -0.9998089929658843 -0.019544246835675672 9.354143687470976e-17 -2.611782227759397e-17 9.354143687470976e-17 -2.611782227759397e-17 -0.9998089801765944 -0.019544901075965074
12634562666.666666 -0.999952222892601 -0.009775066852839225 9.326117078238323e-17 -2.7033474764239457e-17 9.326117078238323e-17 -2.7033474764239457e-17 -0.9999522164962349 -0.009775721154883638
12635180000.0 -0.9999999999876457 -4.953770084125948e-06 9.297194850127395e-17 -2.7946141532287504e-17 9.297194850127395e-17 -2.7946141532287504e-17 -0.9999999999841905 -5.608071422613203e-06
12635797333.333334 -0.9999523196904139 0.009765159783157512 9.267380164094807e-17 -2.885573504767249e-17 9.267380164094807e-17 -2.885573504767249e-17 -0.9999523260792452 0.009764505544979731
12636414666.666666 -0.9998091865524157 0.01953434117721091 9.236676266581585e-17 -2.976216810917008e-17 9.236676266581585e-17 -2.976216810917008e-17 -0.9998091993322986 0.019533687064636485
12637032000.0 -0.999570614236837 0.029301657871582874 9.20508648916446e-17 -3.066535385673333e-17 9.20508648916446e-17 -3.066535385673333e-17 -0.9995706334059273 0.029301003947036358
12637649333.333334 -0.9992366255172415 0.03906617750363863 9.172614248198639e-17 -3.156520577980849e-17 9.172614248198639e-17 -3.156520577980849e-17 -0.9992366510730862 0.039065523829520575
12638266666.666666 -0.9988072522753931 0.04882696797785862 9.139263044453363e-17 -3.246163772558463e-17 9.139263044453363e-17 -3.246163772558463e-17 -0.9988072842149269 0.04882631461653945
12638884000.0 -0.9982825354982131 0.05858309755458627 9.105036462738206e-17 -3.335456390724191e-17 9.105036462738206e-17 -3.335456390724191e-17 -0.9982825738177651 0.05858244456840063
12639501333.333334 -0.9976625252738642 0.06833363493922548 9.069938171522138e-17 -3.424389891213759e-17 9.069938171522138e-17 -3.424389891213759e-17 -0.9976625699691533 0.06833298239046598
12640118666.666666 -0.9969472807869884 0.0780776493707419 9.033971922545344e-17 -3.512955770993459e-17 9.033971922545344e-17 -3.512955770993459e-17 -0.9969473318531256 0.07807699732165345
12640736000.0 -0.9961368703130142 0.08781421071116355 8.997141550419858e-17 -3.6011455660771744e-17 8.997141550419858e-17 -3.6011455660771744e-17 -0.9961369277445021 0.08781355922393712
12641353333.333334 -0.9952313712116925 0.09754238953360353 8.959450972227975e-17 -3.688950852325241e-17 8.959450972227975e-17 -3.688950852325241e-17 -0.995231435002428 0.09754173867037054
12641970666.666666 -0.9942308699196788 0.10726125721149139 8.920904187106467e-17 -3.776363246254687e-17 8.920904187106467e-17 -3.776363246254687e-17 -0.9942309400629518 0.10726060703431756
12642588000.0 -0.9931354619422821 0.11696988600713185 8.881505275827868e-17 -3.863374405833214e-17 8.881505275827868e-17 -3.863374405833214e-17 -0.9931355384307765 0.11696923657801132
12643205333.333334 -0.9919452518443715 0.12666734916006644 8.841258400371309e-17 -3.9499760312754865e-17 8.841258400371309e-17 -3.9499760312754865e-17 -0.991945334670167 0.12666670054091597
12643822666.666666 -0.9906603532403552 0.13635272097587847 8.800167803486335e-17 -4.0361598658331934e-17 8.800167803486335e-17 -4.0361598658331934e-17 -0.9906604423949271 0.1363520732285315
12644440000.0 -0.989280888783381 0.14602507691419098 8.758237808250067e-17 -4.121917696578388e-17 8.758237808250067e-17 -4.121917696578388e-17 -0.9892809842576007 0.1460244301003915
12645057333.333334 -0.9878069901535929 0.15568349367717385 8.715472817614934e-17 -4.207241355186266e-17 8.715472817614934e-17 -4.207241355186266e-17 -0.9878070919377309 0.15568284785857103
12645674666.666666 -0.986238798045599 0.16532704929745562 8.671877313950687e-17 -4.292122718709324e-17 8.671877313950687e-17 -4.292122718709324e-17 -0.9862389061293227 0.16532640453559727
12646292000.0 -0.9845764621549701 0.1749548232265521 8.62745585857606e-17 -4.37655371035247e-17 8.62745585857606e-17 -4.37655371035247e-17 -0.9845765765273482 0.17495417958287943
12646909333.333334 -0.9828201411640481 0.18456589642215107 8.582213091287417e-17 -4.460526300234519e-17 8.582213091287417e-17 -4.460526300234519e-17 -0.9828202618135491 0.18456525395799236
12647526666.666666 -0.980970002726714 0.194159351436346 8.536153729875258e-17 -4.5440325061541574e-17 8.536153729875258e-17 -4.5440325061541574e-17 -0.9809701296412089 0.19415871021291112
12648144000.0 -0.9790262234524264 0.20373427250296106 8.489282569635837e-17 -4.627064394345784e-17 8.489282569635837e-17 -4.627064394345784e-17 -0.9790263566191898 0.2037336325813355
12648761333.333334 -0.9769889888893422 0.21328974562507946 8.441604482876017e-17 -4.709614080229701e-17 8.441604482876017e-17 -4.709614080229701e-17 -0.9769891282950524 0.21328910706621843
12649378666.666666 -0.9748584935066529 0.22282485866206916 8.393124418408929e-17 -4.7916737291606e-17 8.393124418408929e-17 -4.7916737291606e-17 -0.9748586391373933 0.22282422152679152
12649996000.0 -0.9726349406759459 0.23233870141698595 8.3438474010437e-17 -4.873235557168467e-17 8.3438474010437e-17 -4.873235557168467e-17 -0.972635092517209 0.23233806576596935
12650613333.333334 -0.9703185426518295 0.24183036572329242 8.293778531066935e-17 -4.954291831696214e-17 8.293778531066935e-17 -4.954291831696214e-17 -0.9703187006885153 0.24182973161706653
12651230666.666666 -0.9679095205517196 0.251298945531356 8.242922983719467e-17 -5.034834872328003e-17 8.242922983719467e-17 -5.034834872328003e-17 -0.9679096847681389 0.2512983130302973
12651848000.0 -0.9654081043346157 0.2607435369954069 8.191286008661733e-17 -5.114857051519276e-17 8.191286008661733e-17 -5.114857051519276e-17 -0.9654082747144898 0.26074290615973267
12652465333.333334 -0.9628145327792659 0.27016323855934843 8.138872929437131e-17 -5.194350795313136e-17 8.138872929437131e-17 -5.194350795313136e-17 -0.9628147093057307 0.27016260944911114
12653082666.666666 -0.9601290534613212 0.27955715104303736 8.08568914292508e-17 -5.27330858405694e-17 8.08568914292508e-17 -5.27330858405694e-17 -0.9601292361169264 0.27955652371811884
12653700000.0 -0.9573519227296825 0.2889243777281719 8.031740118786922e-17 -5.351722953113183e-17 8.031740118786922e-17 -5.351722953113183e-17 -0.9573521114963955 0.288923752248278
12654317333.333334 -0.9544834056820808 0.29826402444372674 7.977031398908777e-17 -5.4295864935593687e-17 7.977031398908777e-17 -5.4295864935593687e-17 -0.9544836005412868 0.29826340086838105
12654934666.666666 -0.9515237761397539 0.3075751996513621 7.921568596832355e-17 -5.5068918528899234e-17 7.921568596832355e-17 -5.5068918528899234e-17 -0.9515239770722587 0.3075745780399008
12655552000.0 -0.94847331662124 0.3168570145307449 7.865357397182824e-17 -5.583631735706634e-17 7.865357397182824e-17 -5.583631735706634e-17 -0.9484735236072713 0.3168563949423108
12656169333.333334 -0.9453323183155571 0.326108583063933 7.808403555089004e-17 -5.659798904404926e-17 7.808403555089004e-17 -5.659798904404926e-17 -0.9453325313347672 0.3261079655574703
12656786666.666666 -0.9421010810542481 0.3353290221204386 7.750712895596426e-17 -5.735386179854889e-17 7.750712895596426e-17 -5.735386179854889e-17 -0.9421013000857151 0.3353284067546868
12657404000.0 -0.9387799132828755 0.3445174515411789 7.692291313073801e-17 -5.810386442076355e-17 7.692291313073801e-17 -5.810386442076355e-17 -0.9387801383051064 0.34451683837466796
12658021333.333334 -0.9353691320314876 0.3536729942227632 7.633144770613487e-17 -5.884792630907306e-17 7.633144770613487e-17 -5.884792630907306e-17 -0.9353693630224177 0.3536723833138062
12658638666.666666 -0.9318690628844766 0.3627947762008692 7.573279299426718e-17 -5.958597746664709e-17 7.573279299426718e-17 -5.958597746664709e-17 -0.9318692998214767 0.3627941676075596
12659256000.0 -0.9282800399493386 0.3718819267341259 7.512700998228214e-17 -6.031794850804623e-17 7.512700998228214e-17 -6.031794850804623e-17 -0.9282802828092122 0.3718813205143297
12659873333.333334 -0.9246024058248913 0.38093357838690917 7.451416032620216e-17 -6.104377066568736e-17 7.451416032620216e-17 -6.104377066568736e-17 -0.9246026545838781 0.38093297459825987
12660490666.666666 -0.9208365115686091 0.38994886711206844 7.389430634466091e-17 -6.17633757963013e-17 7.389430634466091e-17 -6.17633757963013e-17 -0.9208367662023901 0.3899482658119625
12661108000.0 -0.9169827166629326 0.3989269323338549 7.326751101258645e-17 -6.247669638731296e-17 7.326751101258645e-17 -6.247669638731296e-17 -0.9169829771466281 0.398926333579445
12661725333.333334 -0.9130413889811855 0.4078669170294895 7.263383795483813e-17 -6.318366556314213e-17 7.263383795483813e-17 -6.318366556314213e-17 -0.9130416552893614 0.4078663208776803
12662342666.666666 -0.9090129047522523 0.41676796781147113 7.19933514397663e-17 -6.388421709145798e-17 7.19933514397663e-17 -6.388421709145798e-17 -0.9090131768589225 0.4167673743189137
12662960000.0 -0.9048976485248151 0.4256292350087013 7.134611637271428e-17 -6.457828538936704e-17 7.134611637271428e-17 -6.457828538936704e-17 -0.9048979264034391 0.42562864423178615
12663577333.333334 -0.9006960131305308 0.43444987274782026 7.069219828946761e-17 -6.526580552952705e-17 7.069219828946761e-17 -6.526580552952705e-17 -0.9006962967540227 0.43444928474267436
12664194666.666666 -0.8964083996466391 0.443229039033751 7.00316633496472e-17 -6.59467132461931e-17 7.00316633496472e-17 -6.59467132461931e-17 -0.8964086889873657 0.44322845385623066
12664812000.0 -0.8920352173575703 0.451965895830275 6.93645783300253e-17 -6.662094494121712e-17 6.93645783300253e-17 -6.662094494121712e-17 -0.892035512387356 0.4519653135359613
12665429333.333334 -0.8875768837159685 0.46065960913985243 6.869101061781087e-17 -6.728843768995231e-17 6.869101061781087e-17 -6.728843768995231e-17 -0.8875771844060968 0.46065902978404577
12666046666.666666 -0.8830338243028022 0.46930934908330885 6.801102820385898e-17 -6.794912924710958e-17 6.801102820385898e-17 -6.794912924710958e-17 -0.8830341306240196 0.46930877272102384
12666664000.0 -0.8784064727867023 0.4779142899791298 6.732469967582429e-17 -6.860295805254557e-17 6.732469967582429e-17 -6.860295805254557e-17 -0.8784067847092212 0.47791371666509025
12667281333.333334 -0.8736952708826414 0.4864736104221259 6.663209421127868e-17 -6.924986323696285e-17 6.663209421127868e-17 -6.924986323696285e-17 -0.8736955883761421 0.4864730402107591
12667898666.666666 -0.868900668309748 0.4949864933618947 6.5933281570747e-17 -6.988978462756739e-17 6.5933281570747e-17 -6.988978462756739e-17 -0.868900991343381 0.4949859263073261
12668516000.0 -0.8640231227482587 0.5034521261810093 6.522833209070802e-17 -7.052266275363685e-17 6.522833209070802e-17 -7.052266275363685e-17 -0.8640234512906503 0.5034515623370585
12669133333.333334 -0.8590630997960742 0.5118697007721715 6.451731667654114e-17 -7.114843885202129e-17 6.451731667654114e-17 -7.114843885202129e-17 -0.8590634338153271 0.5118691401923459
12669750666.666666 -0.8540210729240704 0.5202384136157686 6.380030679541181e-17 -7.176705487257969e-17 6.380030679541181e-17 -7.176705487257969e-17 -0.8540214123877679 0.520237856353259
12670368000.0 -0.8488975234310016 0.5285574658564032 6.30773744691016e-17 -7.237845348354903e-17 6.30773744691016e-17 -7.237845348354903e-17 -0.8488978683062107 0.5285569119640787
