! Parameters = {f0=12700.012000; bw=77.238000; Q=6100.000000; N=10; m_0_1=1.276572; m_1_1=0.383828; m_1_2=1.111384; m_2_2=0.383179; m_2_3=0.748347; m_2_8=0.000892; m_2_9=0.037596; m_3_3=0.381242; m_3_4=0.636876; m_3_7=0.001492; m_3_8=-0.095596; m_3_9=0.000892; m_4_4=0.378317; m_4_5=0.473211; m_4_6=0.005009; m_4_7=-0.116145; m_4_8=0.001492; m_5_5=0.378699; m_5_6=0.880566; m_5_7=0.005009; m_6_6=0.378698; m_6_7=0.473553; m_7_7=0.378331; m_7_8=0.636994; m_8_8=0.381240; m_8_9=0.748660; m_9_9=0.383174; m_9_10=1.112462; m_10_10=0.383818; m_10_11=1.277367}
!
! Created with skrf (http://scikit-rf.org).
# Hz S RI R 50.0 
!freq ReS11 ImS11 ReS21 ImS21 ReS12 ImS12 ReS22 ImS22
12607400000.0 -0.9980470002319847 0.06246747415861849 1.0713571761778414e-16 -3.917039951349788e-17 1.0713571761778414e-16 -3.917039951349788e-17 -0.9980470422449932 0.062466802910361115
12608017333.333334 -0.9973202186893763 0.07315997124928258 1.0668530323177815e-16 -4.03178918923246e-17 1.0668530323177815e-16 -4.03178918923246e-17 -0.9973202678913405 0.073159300522669
12608634666.666666 -0.9964788872350702 0.08384406535096815 1.0622260733185958e-16 -4.1460226888576656e-17 1.0622260733185958e-16 -4.1460226888576656e-17 -0.9964789436196352 0.0838433952229816
12609252000.0 -0.9955231025025547 0.0945185293130928 1.0574768874897546e-16 -4.2597273150692764e-17 1.0574768874897546e-16 -4.2597273150692764e-17 -0.9955231660625413 0.09451785986064026
12609869333.333334 -0.9944529742711447 0.10518213709131274 1.0526060771783918e-16 -4.372889999592097e-17 1.0526060771783918e-16 -4.372889999592097e-17 -0.9944530449985503 0.1051814683912161
12610486666.666666 -0.9932686254534081 0.11583366388800423 1.0476142586935354e-16 -4.485497742530362e-17 1.0476142586935354e-16 -4.485497742530362e-17 -0.993268703339408 0.11583299601699142
12611104000.0 -0.991970192081006 0.12647188629333664 1.0425020622285245e-16 -4.597537613862387e-17 1.0425020622285245e-16 -4.597537613862387e-17 -0.991970277115954 0.12647121932803285
12611721333.333334 -0.9905578232891001 0.1370955824254795 1.0372701317822923e-16 -4.708996754916112e-17 1.0372701317822923e-16 -4.708996754916112e-17 -0.9905579154625302 0.13709491644239852
12612338666.666666 -0.9890316812992211 0.1477035320710305 1.031919125078565e-16 -4.8198623798473026e-17 1.031919125078565e-16 -4.8198623798473026e-17 -0.9890317805998479 0.14770286714656564
12612956000.0 -0.987391941400596 0.15829451682539075 1.0264497134838166e-16 -4.930121777100927e-17 1.0264497134838166e-16 -4.930121777100927e-17 -0.9873920478163171 0.15829385303580634
12613573333.333334 -0.9856387919300851 0.1688673202322582 1.0208625819235975e-16 -5.03976231086547e-17 1.0208625819235975e-16 -5.03976231086547e-17 -0.9856389054479819 0.16886665765368086
12614190666.666666 -0.9837724342504969 0.17942072792371308 1.0151584287972349e-16 -5.148771422518906e-17 1.0151584287972349e-16 -5.148771422518906e-17 -0.983772554856836 0.17942006663212265
12614808000.0 -0.9817930827274605 0.1899535277596395 1.0093379658910737e-16 -5.257136632063683e-17 1.0093379658910737e-16 -5.257136632063683e-17 -0.9817932104076975 0.18995286783086096
12615425333.333334 -0.9797009647048376 0.20046450996681103 1.0034019182901053e-16 -5.3648455395537115e-17 1.0034019182901053e-16 -5.3648455395537115e-17 -0.9797010994436148 0.20046385147650497
12616042666.666666 -0.9774963204785878 0.21095246727792466 9.973510242882341e-17 -5.471885826508273e-17 9.973510242882341e-17 -5.471885826508273e-17 -0.9774964622597403 0.21095181030157956
12616660000.0 -0.9751794032691576 0.22141619507034987 9.911860352968187e-17 -5.578245257320169e-17 9.911860352968187e-17 -5.578245257320169e-17 -0.9751795520757122 0.2214155396832726
12617277333.333334 -0.9727504791924203 0.2318544915043484 9.849077157519256e-17 -5.683911680649643e-17 9.849077157519256e-17 -5.683911680649643e-17 -0.9727506350065978 0.23185383778165575
12617894666.666666 -0.9702098272291251 0.24226615766105983 9.785168430200517e-17 -5.788873030809134e-17 9.785168430200517e-17 -5.788873030809134e-17 -0.9702099900323455 0.2422655056776707
12618512000.0 -0.9675577391927667 0.252649997680595 9.720142073020954e-17 -5.89311732914185e-17 9.720142073020954e-17 -5.89311732914185e-17 -0.9675579089656474 0.25264934751122076
12619129333.333334 -0.9647945196962031 0.2630048188988081 9.654006115364605e-17 -5.996632685380007e-17 9.654006115364605e-17 -5.996632685380007e-17 -0.9647946964185639 0.2630041706179447
12619746666.666666 -0.9619204861165501 0.2733294319847814 9.58676871300054e-17 -6.09940729900299e-17 9.58676871300054e-17 -6.09940729900299e-17 -0.9619206697674132 0.2733287856667002
12620364000.0 -0.9589359685587685 0.2836226510772335 9.518438147082786e-17 -6.20142946057727e-17 9.518438147082786e-17 -6.20142946057727e-17 -0.9589361591163647 0.2836220067959738
12620981333.333334 -0.9558413098178069 0.2938832939205642 9.449022823135036e-17 -6.30268755308725e-17 9.449022823135036e-17 -6.30268755308725e-17 -0.9558415072595742 0.29388265174992373
12621598666.666666 -0.9526368653391191 0.30411018200099815 9.378531270020317e-17 -6.403170053255735e-17 9.378531270020317e-17 -6.403170053255735e-17 -0.9526370696417066 0.30410954201452484
12622216000.0 -0.949323003177935 0.3143021406816193 9.306972138897667e-17 -6.50286553285167e-17 9.306972138897667e-17 -6.50286553285167e-17 -0.9493232143172081 0.31430150295260356
12622833333.333334 -0.9459001039569084 0.32445799933756014 9.234354202163696e-17 -6.60176265998816e-17 9.234354202163696e-17 -6.60176265998816e-17 -0.9459003219079487 0.3244573639390257
12623450666.666666 -0.9423685608224894 0.33457659149015767 9.160686352383259e-17 -6.699850200404429e-17 9.160686352383259e-17 -6.699850200404429e-17 -0.9423687855595987 0.3345759584948535
12624068000.0 -0.9387287793997038 0.34465675494115044 9.08597760120219e-17 -6.797117018742306e-17 9.08597760120219e-17 -6.797117018742306e-17 -0.9387290108964061 0.34465612442154214
12624685333.333334 -0.9349811777455181 0.35469733190627056 9.010237078249984e-17 -6.893552079805568e-17 9.010237078249984e-17 -6.893552079805568e-17 -0.9349814159745641 0.35469670393453234
12625302666.666666 -0.931126186300989 0.3646971691477704 8.93347403002952e-17 -6.989144449806995e-17 8.93347403002952e-17 -6.989144449806995e-17 -0.9311264312343608 0.36469654379577754
12625920000.0 -0.9271642478416007 0.37465511810749524 8.85569781878854e-17 -7.083883297609398e-17 8.85569781878854e-17 -7.083883297609398e-17 -0.9271644994505104 0.37465449544681406
12626537333.333334 -0.9230958174266127 0.3845700350382433 8.776917921385886e-17 -7.177757895944326e-17 8.776917921385886e-17 -7.177757895944326e-17 -0.9230960756815106 0.3845694151401248
12627154666.666666 -0.9189213623467113 0.39444078113537623 8.69714392813779e-17 -7.270757622627022e-17 8.69714392813779e-17 -7.270757622627022e-17 -0.918921627217286 0.39444016407074683
12627772000.0 -0.9146413620702312 0.40426622266785306 8.616385541654274e-17 -7.362871961754771e-17 8.616385541654274e-17 -7.362871961754771e-17 -0.9146416335254148 0.40426560850730686
12628389333.333334 -0.9102563081883074 0.4140452311079245 8.534652575665221e-17 -7.454090504890095e-17 8.534652575665221e-17 -7.454090504890095e-17 -0.9102565861962794 0.4140446199217153
12629006666.666666 -0.9057667043582132 0.4237766832612245 8.451954953827598e-17 -7.544402952237855e-17 8.451954953827598e-17 -7.544402952237855e-17 -0.9057669888864024 0.42377607511925725
12629624000.0 -0.9011730662455953 0.43345946139556607 8.368302708528136e-17 -7.633799113800596e-17 8.368302708528136e-17 -7.633799113800596e-17 -0.9011733572606867 0.43345885636738996
12630241333.333334 -0.8964759214652656 0.4430924533692997 8.283705979666835e-17 -7.72226891052828e-17 8.283705979666835e-17 -7.72226891052828e-17 -0.896476218933201 0.443091851524099
12630858666.666666 -0.8916758095205736 0.45267455275910123 8.198175013434572e-17 -7.809802375448022e-17 8.198175013434572e-17 -7.809802375448022e-17 -0.891676113406557 0.45267395416568773
12631476000.0 -0.8867732817413877 0.46220465898715407 8.11172016107138e-17 -7.896389654787938e-17 8.11172016107138e-17 -7.896389654787938e-17 -0.8867735920098907 0.46220406371396
12632093333.333334 -0.8817689012209023 0.471681677447307 8.024351877621753e-17 -7.982021009078398e-17 8.024351877621753e-17 -7.982021009078398e-17 -0.8817692178356653 0.4716810855623758
12632710666.666666 -0.8766632427508435 0.4811045196310244 7.936080720671775e-17 -8.066686814246143e-17 7.936080720671775e-17 -8.066686814246143e-17 -0.8766635656748829 0.48110393120200456
12633328000.0 -0.8714568927554616 0.4904721032523847 7.84691734907497e-17 -8.150377562694243e-17 7.84691734907497e-17 -8.150377562694243e-17 -0.8714572219510724 0.4904715183465209
12633945333.333334 -0.8661504492242597 0.4997833523722406 7.756872521672353e-17 -8.233083864362676e-17 7.756872521672353e-17 -8.233083864362676e-17 -0.8661507846530201 0.4997827710563659
12634562666.666666 -0.8607445216431969 0.509037197521995 7.665957095994617e-17 -8.314796447781229e-17 7.665957095994617e-17 -8.314796447781229e-17 -0.8607448632659732 0.5090366198625241
12635180000.0 -0.8552397309247974 0.5182325758262425 7.57418202695842e-17 -8.395506161103277e-17 7.57418202695842e-17 -8.395506161103277e-17 -0.8552400787017481 0.5182320018891634
12635797333.333334 -0.849636709336706 0.5273684311250687 7.481558365547617e-17 -8.475203973129176e-17 7.481558365547617e-17 -8.475203973129176e-17 -0.8496370632272868 0.5273678609759356
12636414666.666666 -0.8439361004292256 0.5364437140950896 7.388097257488493e-17 -8.5538809743108e-17 7.388097257488493e-17 -8.5538809743108e-17 -0.8439364603921946 0.5364431477990153
12637032000.0 -0.8381385589612715 0.5454573823701951 7.293809941909751e-17 -8.63152837774583e-17 7.293809941909751e-17 -8.63152837774583e-17 -0.8381389249546929 0.5454568199918435
12637649333.333334 -0.8322447508251775 0.5544084006612457 7.198707749994427e-17 -8.708137520155134e-17 7.198707749994427e-17 -8.708137520155134e-17 -0.8322451228064267 0.5544078422648244
12638266666.666666 -0.8262553529702907 0.5632957408748648 7.102802103622895e-17 -8.783699862844389e-17 7.102802103622895e-17 -8.783699862844389e-17 -0.8262557308960599 0.5632951865241176
12638884000.0 -0.8201710533251738 0.5721183822315947 7.006104514002345e-17 -8.858206992653617e-17 7.006104514002345e-17 -8.858206992653617e-17 -0.8201714371514768 0.5721178319897949
12639501333.333334 -0.813992550718526 0.5808753113832354 6.90862658028983e-17 -8.931650622888852e-17 6.90862658028983e-17 -8.931650622888852e-17 -0.8139929404007034 0.5808747653131779
12640118666.666666 -0.8077205547991286 0.5895655225289315 6.810379988204924e-17 -9.004022594239403e-17 6.810379988204924e-17 -9.004022594239403e-17 -0.807720950291852 0.5895649806929258
12640736000.0 -0.8013557859539391 0.5981880175312505 6.711376508627076e-17 -9.075314875683979e-17 6.711376508627076e-17 -9.075314875683979e-17 -0.8013561872112188 0.5981874799911151
12641353333.333334 -0.7948989752258679 0.606741806030116 6.611627996196548e-17 -9.145519565372075e-17 6.611627996196548e-17 -9.145519565372075e-17 -0.7948993822010556 0.6067412728471685
12641970666.666666 -0.7883508642294115 0.6152259055571078 6.511146387890544e-17 -9.214628891501235e-17 6.511146387890544e-17 -9.214628891501235e-17 -0.7883512768752061 0.6152253767921598
12642588000.0 -0.7817122050655827 0.6236393416481418 6.409943701602226e-17 -9.282635213170116e-17 6.409943701602226e-17 -9.282635213170116e-17 -0.7817126233340375 0.6236388173614915
12643205333.333334 -0.7749837602356375 0.6319811479552647 6.308032034705447e-17 -9.349531021219988e-17 6.308032034705447e-17 -9.349531021219988e-17 -0.774984184078165 0.6319806282066905
12643822666.666666 -0.7681663025532827 0.6402503663579121 6.205423562609861e-17 -9.415308939060918e-17 6.205423562609861e-17 -9.415308939060918e-17 -0.768166731920659 0.6402498512066651
12644440000.0 -0.7612606150561227 0.6484460470726886 6.102130537312595e-17 -9.479961723478815e-17 6.102130537312595e-17 -9.479961723478815e-17 -0.7612610498984946 0.6484455365774859
12645057333.333334 -0.7542674909156557 0.6565672487625502 5.998165285935971e-17 -9.543482265430367e-17 5.998165285935971e-17 -9.543482265430367e-17 -0.7542679311825458 0.6565667429815684
12645674666.666666 -0.7471877333461131 0.6646130386449856 5.893540209261517e-17 -9.605863590818947e-17 5.893540209261517e-17 -9.605863590818947e-17 -0.7471881789864264 0.6646125376358548
12646292000.0 -0.7400221555121852 0.6725824925991764 5.788267780249812e-17 -9.667098861258468e-17 5.788267780249812e-17 -9.667098861258468e-17 -0.7400226064742149 0.672581996418973
12646909333.333334 -0.7327715804358145 0.6804746952719268 5.682360542561948e-17 -9.727181374815182e-17 5.682360542561948e-17 -9.727181374815182e-17 -0.7327720366672466 0.6804742039771662
12647526666.666666 -0.7254368409014132 0.688288740183072 5.575831109064345e-17 -9.786104566738779e-17 5.575831109064345e-17 -9.786104566738779e-17 -0.7254373023493345 0.6882882538297037
12648144000.0 -0.7180187793603693 0.6960237298294281 5.468692160329056e-17 -9.843862010175324e-17 5.468692160329056e-17 -9.843862010175324e-17 -0.7180192459712719 0.6960232484728281
12648761333.333334 -0.7105182478342023 0.7036787757879576 5.360956443130351e-17 -9.90044741686177e-17 5.360956443130351e-17 -9.90044741686177e-17 -0.7105187195539913 0.7036782994829236
12649378666.666666 -0.7029361078168432 0.7112529988176712 5.252636768928942e-17 -9.955854637807101e-17 5.252636768928942e-17 -9.955854637807101e-17 -0.7029365845908423 0.711252527618415
12649996000.0 -0.6952732301755282 0.718745528960779 5.143746012351973e-17 -1.0010077663955292e-16 5.143746012351973e-17 -1.0010077663955292e-16 -0.6952737119484852 0.71874506292092
12650613333.333334 -0.6875304950507666 0.7261555056426067 5.034297109665686e-17 -1.0063110626832004e-16 5.034297109665686e-17 -1.0063110626832004e-16 -0.6875309817668616 0.7261550448151676
12651230666.666666 -0.67970879175548 0.7334820777702263 4.924303057241838e-17 -1.0114947799174604e-16 4.924303057241838e-17 -1.0114947799174604e-16 -0.6797092833583296 0.7334816222076246
12651848000.0 -0.6718090186724832 0.7407244038305596 4.8137769100164385e-17 -1.0165583595545801e-16 4.8137769100164385e-17 -1.0165583595545801e-16 -0.671809515105149 0.7407239535846042
12652465333.333334 -0.6638320831516303 0.7478816519867224 4.702731779943521e-17 -1.0215012572930143e-16 4.702731779943521e-17 -1.0215012572930143e-16 -0.6638325843566252 0.7478812071086067
12653082666.666666 -0.655778901405541 0.7549530001736299 4.591180834444825e-17 -1.0263229431312611e-16 4.591180834444825e-17 -1.0263229431312611e-16 -0.6557794073248339 0.7549525607139242
12653700000.0 -0.6476503984040842 0.7619376361926565 4.479137294846074e-17 -1.0310229014243779e-16 4.479137294846074e-17 -1.0310229014243779e-16 -0.6476509089791104 0.7619372022013063
12654317333.333334 -0.6394475077685706 0.7688347578045537 4.36661443481895e-17 -1.0356006309382903e-16 4.36661443481895e-17 -1.0356006309382903e-16 -0.6394480229402345 0.7688343293308696
12654934666.666666 -0.6311711716642369 0.775643572821832 4.253625578807617e-17 -1.0400556449028375e-16 4.253625578807617e-17 -1.0400556449028375e-16 -0.6311716913729218 0.7756431499144874
12655552000.0 -0.6228223406919653 0.7823632991998052 4.1401841004528506e-17 -1.0443874710629749e-16 4.1401841004528506e-17 -1.0443874710629749e-16 -0.622822864877539 0.7823628819068285
12656169333.333334 -0.6144019737794508 0.7889931651261235 4.026303421016668e-17 -1.0485956517280374e-16 4.026303421016668e-17 -1.0485956517280374e-16 -0.6144025023812724 0.7889927534948932
12656786666.666666 -0.6059110380706627 0.7955324091097445 3.9119970077919576e-17 -1.0526797438196932e-16 3.9119970077919576e-17 -1.0526797438196932e-16 -0.605911571027591 0.7955320031869864
12657404000.0 -0.5973505088150302 0.8019802800681871 3.7972783725162285e-17 -1.0566393189178111e-16 3.7972783725162285e-17 -1.0566393189178111e-16 -0.5973510460654287 0.8019798798999644
12658021333.333334 -0.588721369255311 0.8083360374138804 3.6821610697757744e-17 -1.0604739633048069e-16 3.6821610697757744e-17 -1.0604739633048069e-16 -0.5887219107370572 0.8083356430455929
12658638666.666666 -0.5800246105147091 0.8145989511391991 3.566658695407525e-17 -1.0641832780081721e-16 3.566658695407525e-17 -1.0641832780081721e-16 -0.5800251561651991 0.8145985626155744
12659256000.0 -0.5712612314829633 0.8207683019003547 3.450784884895209e-17 -1.067766878841318e-16 3.450784884895209e-17 -1.067766878841318e-16 -0.5712617812391217 0.8207679192654457
12659873333.333334 -0.5624322387016407 0.8268433811000023 3.3345533117627095e-17 -1.0712243964426356e-16 3.3345533117627095e-17 -1.0712243964426356e-16 -0.562432792499927 0.8268430043971815
12660490666.666666 -0.5535386462486932 0.8328234909685168 3.217977685965779e-17 -1.0745554763127537e-16 3.217977685965779e-17 -1.0745554763127537e-16 -0.5535392040251079 0.8328231202404706
12661108000.0 -0.5445814756216762 0.8387079446443442 3.101071752272153e-17 -1.0777597788502782e-16 3.101071752272153e-17 -1.0777597788502782e-16 -0.5445820373117697 0.8387075799330689
12661725333.333334 -0.5355617556206812 0.8444960662527188 2.9838492886501817e-17 -1.0808369793854311e-16 2.9838492886501817e-17 -1.0808369793854311e-16 -0.5355623211595607 0.8444957075995158
12662342666.666666 -0.5264805222300523 0.8501871909833707 2.866324104643496e-17 -1.0837867682122453e-16 2.866324104643496e-17 -1.0837867682122453e-16 -0.5264810915523889 0.850186838428841
12662960000.0 -0.5173388184994424 0.8557806651668548 2.7485100397475202e-17 -1.0866088506188576e-16 2.7485100397475202e-17 -1.0866088506188576e-16 -0.5173393915394797 0.8557803187508956
12663577333.333334 -0.5081376944239152 0.8612758463496876 2.6304209617840442e-17 -1.0893029469160166e-16 2.6304209617840442e-17 -1.0893029469160166e-16 -0.5081382711154755 0.8612755061114871
12664194666.666666 -0.498878206823515 0.8666721033680377 2.512070765270683e-17 -1.0918687924638969e-16 2.512070765270683e-17 -1.0918687924638969e-16 -0.4988787871000082 0.8666717693460704
12664812000.0 -0.48956141922168583 0.871968816420331 2.393473369787819e-17 -1.0943061376971358e-16 2.393473369787819e-17 -1.0943061376971358e-16 -0.48956200301611663 0.8719684886523543
12665429333.333334 -0.4801884017232663 0.8771653771383575 2.274642718346078e-17 -1.0966147481480441e-16 2.274642718346078e-17 -1.0966147481480441e-16 -0.4801889889682423 0.8771650556614078
12666046666.666666 -0.47076023089163194 0.8822611886571236 2.155592775748895e-17 -1.0987944044681076e-16 2.155592775748895e-17 -1.0987944044681076e-16 -0.4707608215193696 0.8822608735075079
12666664000.0 -0.4612779896246897 0.8872556656835885 2.0363375269528582e-17 -1.1008449024477125e-16 2.0363375269528582e-17 -1.1008449024477125e-16 -0.461278583567025 0.8872553568968871
12667281333.333334 -0.45174276703100325 0.8921482345636277 1.916890975431039e-17 -1.1027660530340184e-16 1.916890975431039e-17 -1.1027660530340184e-16 -0.451743364219397 0.892147932174684
12667898666.666666 -0.44215565830437187 0.8969383333480905 1.7972671415276078e-17 -1.1045576823471851e-16 1.7972671415276078e-17 -1.1045576823471851e-16 -0.4421562586699202 0.8969380373910126
12668516000.0 -0.43251776459796487 0.9016254118573869 1.6774800608154702e-17 -1.1062196316947305e-16 1.6774800608154702e-17 -1.1062196316947305e-16 -0.43251836807140454 0.9016251223655385
12669133333.333334 -0.4228301928982493 0.9062089317444694 1.557543782455646e-17 -1.1077517575840887e-16 1.557543782455646e-17 -1.1077517575840887e-16 -0.4228307994099673 0.9062086487504692
12669750666.666666 -0.41309405589738735 0.9106883665568977 1.437472367548434e-17 -1.1091539317334852e-16 1.437472367548434e-17 -1.1091539317334852e-16 -0.413094665377428 0.9106880900926144
12670368000.0 -0.40331047186571406 0.9150632017971649 1.3172798874879317e-17 -1.1104260410809757e-16 1.3172798874879317e-17 -1.1104260410809757e-16 -0.4033110842437886 0.9150629318937157
