! Parameters = {f0=12700.012000; bw=77.238000; Q=6100.000000; N=10; m_0_1=1.342437; m_1_1=1.371816; m_1_2=1.177249; m_2_2=1.371167; m_2_3=0.814212; m_2_8=0.004186; m_2_9=0.040890; m_3_3=1.369230; m_3_4=0.702741; m_3_7=0.004786; m_3_8=-0.092302; m_3_9=0.004186; m_4_4=1.366305; m_4_5=0.539076; m_4_6=0.008303; m_4_7=-0.112851; m_4_8=0.004786; m_5_5=1.366687; m_5_6=0.946431; m_5_7=0.008303; m_6_6=1.366686; m_6_7=0.539418; m_7_7=1.366319; m_7_8=0.702859; m_8_8=1.369228; m_8_9=0.814525; m_9_9=1.371162; m_9_10=1.178327; m_10_10=1.371806; m_10_11=1.343232}
!
! Created with skrf (http://scikit-rf.org).
# Hz S RI R 50.0 
!freq ReS11 ImS11 ReS21 ImS21 ReS12 ImS12 ReS22 ImS22
12607400000.0 0.5518617216046219 0.8339356331440605 -1.1782958438527125e-16 -9.888291664810466e-17 -1.1782958438527125e-16 -9.888291664810466e-17 0.5518611318979759 0.83393602338554
12608017333.333334 0.5623784690001007 0.8268799535633363 -1.190577143930252e-16 -9.735316171786002e-17 -1.190577143930252e-16 -9.735316171786002e-17 0.5623778843114056 0.8268803512221284
12608634666.666666 0.5728050195529889 0.8196916551818153 -1.202660005088687e-16 -9.580817265302539e-17 -1.202660005088687e-16 -9.580817265302539e-17 0.5728044399755233 0.819692060193418
12609252000.0 0.5831397010053113 0.8123718908918742 -1.2145425401539887e-16 -9.424820665920423e-17 -1.2145425401539887e-16 -9.424820665920423e-17 0.5831391266315263 0.8123723031906143
12609869333.333334 0.5933808558335302 0.8049218346709633 -1.2262228952635802e-16 -9.267352327649396e-17 -1.2262228952635802e-16 -9.267352327649396e-17 0.5933802867550328 0.8049222541900045
12610486666.666666 0.6035268415141556 0.7973426813934834 -1.237699250154275e-16 -9.108438433643236e-17 -1.237699250154275e-16 -9.108438433643236e-17 0.6035262778216939 0.797343108064837
12611104000.0 0.6135760307876378 0.7896356466388094 -1.2489698184459458e-16 -8.948105391841348e-17 -1.2489698184459458e-16 -8.948105391841348e-17 0.6135754725710878 0.7896360803933473
12611721333.333334 0.6235268119188984 0.7818019664966683 -1.2600328479177994e-16 -8.786379830599313e-17 -1.2600328479177994e-16 -8.786379830599313e-17 0.6235262592672491 0.7818024072641333
12612338666.666666 0.6333775889560124 0.7738428973687571 -1.270886620780251e-16 -8.623288594268575e-17 -1.270886620780251e-16 -8.623288594268575e-17 0.6333770419573517 0.7738433450777737
12612956000.0 0.6431267819863468 0.7657597157670866 -1.2815294539410015e-16 -8.458858738743143e-17 -1.2815294539410015e-16 -8.458858738743143e-17 0.6431262407278474 0.7657601703451737
12613573333.333334 0.6527728273895176 0.7575537181096125 -1.2919596992645102e-16 -8.293117526986825e-17 -1.2919596992645102e-16 -8.293117526986825e-17 0.6527722919574231 0.757554179483194
12614190666.666666 0.6623141780886073 0.7492262205119465 -1.3021757438266057e-16 -8.126092424514747e-17 -1.3021757438266057e-16 -8.126092424514747e-17 0.6623136485682182 0.7492266886063639
12614808000.0 0.6717493037980308 0.7407785585764911 -1.3121760101629693e-16 -7.957811094847996e-17 -1.3121760101629693e-16 -7.957811094847996e-17 0.6717487802736919 0.7407790333160156
12615425333.333334 0.6810766912691839 0.7322120871780419 -1.3219589565116253e-16 -7.788301394940112e-17 -1.3219589565116253e-16 -7.788301394940112e-17 0.6810761738242689 0.7322125684858851
12616042666.666666 0.6902948445328881 0.7235281802467111 -1.331523077049493e-16 -7.617591370574722e-17 -1.331523077049493e-16 -7.617591370574722e-17 0.6902943332497894 0.7235286680450413
12616660000.0 0.6994022851394961 0.7147282305474256 -1.3408669021234085e-16 -7.445709251727526e-17 -1.3408669021234085e-16 -7.445709251727526e-17 0.6994017800996074 0.714728724757375
12617277333.333334 0.7083975523959619 0.7058136494565779 -1.3499889984747577e-16 -7.272683447906827e-17 -1.3499889984747577e-16 -7.272683447906827e-17 0.7083970536796697 0.7058141499982598
12617894666.666666 0.7172792036001208 0.6967858667356703 -1.3588879694581416e-16 -7.098542543466887e-17 -1.3588879694581416e-16 -7.098542543466887e-17 0.7172787112867889 0.6967863735281901
12618512000.0 0.7260458142720726 0.6876463303019995 -1.3675624552543914e-16 -6.923315292886873e-17 -1.3675624552543914e-16 -6.923315292886873e-17 0.7260453284400298 0.6876468432634675
12619129333.333334 0.7346959783826466 0.6783965059964332 -1.3760111330769247e-16 -6.747030616035697e-17 -1.3760111330769247e-16 -6.747030616035697e-17 0.7346954991091758 0.6783970250439796
12619746666.666666 0.7432283085788706 0.669037877348356 -1.3842327173725827e-16 -6.569717593400081e-17 -1.3842327173725827e-16 -6.569717593400081e-17 0.7432278359401947 0.6690384023981423
12620364000.0 0.7516414364066696 0.6595719453375205 -1.392225960015947e-16 -6.39140546129619e-17 -1.392225960015947e-16 -6.39140546129619e-17 0.7516409704779393 0.6595724763047532
12620981333.333334 0.7599340125299644 0.6500002281537376 -1.3999896504975123e-16 -6.212123607057894e-17 -1.3999896504975123e-16 -6.212123607057894e-17 0.7599335533852476 0.6500007649526834
12621598666.666666 0.7681047069474289 0.6403242609530017 -1.4075226161060267e-16 -6.031901564194387e-17 -1.4075226161060267e-16 -6.031901564194387e-17 0.7681042546596983 0.6403248034970003
12622216000.0 0.7761522092057569 0.6305455956113135 -1.414823722104074e-16 -5.850769007537858e-17 -1.414823722104074e-16 -5.850769007537858e-17 0.7761517638468787 0.6305461438127918
12622833333.333334 0.7840752286096931 0.620665800475957 -1.4218918718979864e-16 -5.668755748357341e-17 -1.4218918718979864e-16 -5.668755748357341e-17 0.7840747902504146 0.6206663542464428
12623450666.666666 0.791872494429045 0.6106864601139645 -1.4287260072009402e-16 -5.485891729465142e-17 -1.4287260072009402e-16 -5.485891729465142e-17 0.7918720631389846 0.6106870193641015
12624068000.0 0.7995427561026318 0.6006091750577995 -1.435325108190253e-16 -5.3022070202916497e-17 -1.435325108190253e-16 -5.3022070202916497e-17 0.7995423319502671 0.600609739697361
12624685333.333334 0.8070847834388483 0.5904355615486507 -1.4416881936580415e-16 -5.117731811949614e-17 -1.4416881936580415e-16 -5.117731811949614e-17 0.8070843664915055 0.5904361314865547
12625302666.666666 0.8144973668127984 0.5801672512774402 -1.4478143211555637e-16 -4.932496412280622e-17 -1.4478143211555637e-16 -4.932496412280622e-17 0.8144969571366417 0.5801678264217638
12625920000.0 0.8217793173604393 0.5698058911229447 -1.453702587131481e-16 -4.7465312408762915e-17 -1.453702587131481e-16 -4.7465312408762915e-17 0.8217789150204606 0.5698064713809393
12626537333.333334 0.828929467169253 0.5593531428876586 -1.4593521270633486e-16 -4.559866824094771e-17 -1.4593521270633486e-16 -4.559866824094771e-17 0.8289290722292612 0.5593537281657645
12627154666.666666 0.8359466694654025 0.5488106830315026 -1.4647621155829723e-16 -4.3725337900544475e-17 -1.4647621155829723e-16 -4.3725337900544475e-17 0.835946281988013 0.5488112732353637
12627772000.0 0.8428297987979751 0.5381802024024743 -1.4699317665954522e-16 -4.184562863608841e-17 -1.4699317665954522e-16 -4.184562863608841e-17 0.8428294188446009 0.5381807974369545
12628389333.333334 0.8495777512191692 0.5274634059659333 -1.4748603333913157e-16 -3.9959848613244395e-17 -1.4748603333913157e-16 -3.9959848613244395e-17 0.8495773788500103 0.5274640057351302
12629006666.666666 0.8561894444614799 0.516662012530964 -1.4795471087527772e-16 -3.806830686425538e-17 -1.4795471087527772e-16 -3.806830686425538e-17 0.8561890797355145 0.516662616938226
12629624000.0 0.8626638181113648 0.5057777544745576 -1.4839914250531864e-16 -3.617131323739521e-17 -1.4839914250531864e-16 -3.617131323739521e-17 0.8626634610863394 0.5057783634224986
12630241333.333334 0.8689998337791667 0.4948123774640075 -1.4881926543500495e-16 -3.426917834629185e-17 -1.4881926543500495e-16 -3.426917834629185e-17 0.8689994845115879 0.494812990854523
12630858666.666666 0.8751964752656368 0.4837676401769852 -1.4921502084716384e-16 -3.2362213519120935e-17 -1.4921502084716384e-16 -3.2362213519120935e-17 0.8751961338107601 0.483768257911267
12631476000.0 0.8812527487251917 0.47264531401897764 -1.4958635390971842e-16 -3.0450730747651667e-17 -1.4958635390971842e-16 -3.0450730747651667e-17 0.881252415137015 0.472645935997531
12632093333.333334 0.8871676828249241 0.46144718283987707 -1.4993321378302385e-16 -2.853504263636634e-17 -1.4993321378302385e-16 -2.853504263636634e-17 0.8871673571561784 0.46144780896253634
12632710666.666666 0.8929403289006673 0.4501750426473824 -1.5025555362658492e-16 -2.661546235133872e-17 -1.5025555362658492e-16 -2.661546235133872e-17 0.8929400112028084 0.4501756728133271
12633328000.0 0.8985697611091104 0.438830701318993 -1.5055333060510882e-16 -2.4692303569091855e-17 -1.5055333060510882e-16 -2.4692303569091855e-17 0.8985694514323119 0.43883133542676456
12633945333.333334 0.9040550765761657 0.4274159783123085 -1.5082650589390167e-16 -2.276588042541876e-17 -1.5082650589390167e-16 -2.276588042541876e-17 0.9040547749693074 0.42741661625982497
12634562666.666666 0.909395395541872 0.4159327043730105 -1.5107504468360846e-16 -2.0836507464156835e-17 -1.5107504468360846e-16 -2.0836507464156835e-17 0.909395102052537 0.41593334605758525
12635180000.0 0.9145898615014771 0.4043827212412932 -1.5129891618431216e-16 -1.890449958583917e-17 -1.5129891618431216e-16 -1.890449958583917e-17 0.9145895761759412 0.4043833665596497
12635797333.333334 0.9196376413428017 0.39276788135647406 -1.5149809362896477e-16 -1.6970171996376066e-17 -1.5149809362896477e-16 -1.6970171996376066e-17 0.9196373642260267 0.39276853020476327
12636414666.666666 0.9245379254798604 0.3810900475598923 -1.5167255427616159e-16 -1.503384015575049e-17 -1.5167255427616159e-16 -1.503384015575049e-17 0.9245376566154877 0.38109069983370925
12637032000.0 0.9292899279827057 0.3693510927961373 -1.518222794122765e-16 -1.3095819726528453e-17 -1.518222794122765e-16 -1.3095819726528453e-17 0.9292896674130494 0.3693517483905381
12637649333.333334 0.9338928867034819 0.3575528998126583 -1.5194725435292403e-16 -1.115642652252021e-17 -1.5194725435292403e-16 -1.115642652252021e-17 0.9338926344695206 0.3575535586221762
12638266666.666666 0.9383460633986572 0.34569736085779884 -1.5204746844377207e-16 -9.215976457394041e-18 -1.5204746844377207e-16 -9.215976457394041e-18 0.9383458195400289 0.34569802277646206
12638884000.0 0.94264874384741 0.33378637737736394 -1.5212291506070338e-16 -7.274785493224673e-18 -1.5212291506070338e-16 -7.274785493224673e-18 0.9426485084024062 0.3337870422987124
12639501333.333334 0.946800237966274 0.3218218597093896 -1.5217359160931582e-16 -5.333169589131671e-18 -1.5217359160931582e-16 -5.333169589131671e-18 0.9468000109718335 0.3218225275264925
12640118666.666666 0.950799879919611 0.3098057267783443 -1.521994995237699e-16 -3.3914446499471066e-18 -1.521994995237699e-16 -3.3914446499471066e-18 0.9507996614113114 0.3098063973838159
12640736000.0 0.954647028226673 0.29773990578655524 -1.5220064426498373e-16 -1.4499264747736256e-18 -1.5220064426498373e-16 -1.4499264747736256e-18 0.9546468182387305 0.297740579072574
12641353333.333334 0.9583410658642201 0.2856263319059251 -1.5217703531817073e-16 4.910692941606105e-19 -1.5217703531817073e-16 4.910692941606105e-19 0.958340864429481 0.2856270077642503
12641970666.666666 0.9618814003656618 0.27346694796702087 -1.5212868618972694e-16 2.4312272229129936e-18 -1.5212868618972694e-16 2.4312272229129936e-18 0.9618812075155947 0.27346762628900884
12642588000.0 0.9652674639160476 0.26126370414752337 -1.520556144034645e-16 4.370232136915413e-18 -1.520556144034645e-16 4.370232136915413e-18 0.965267279680744 0.26126438482414677
12643205333.333334 0.9684987134430517 0.24901855765977998 -1.5195784149619368e-16 6.307769172182734e-18 -1.5195784149619368e-16 6.307769172182734e-18 0.9684985378512168 0.24901924058164396
12643822666.666666 0.9715746307041881 0.23673347243645756 -1.5183539301265391e-16 8.243523826346984e-18 -1.5183539301265391e-16 8.243523826346984e-18 0.9715744637831399 0.23673415749381843
12644440000.0 0.9744947223698452 0.22441041881588863 -1.516882984997963e-16 1.0177182009664747e-17 -1.516882984997963e-16 1.0177182009664747e-17 0.9744945641455056 0.22441110589867017
12645057333.333334 0.9772585201024071 0.21205137322605938 -1.5151659150041758e-16 1.2108430095894345e-17 -1.5151659150041758e-16 1.2108430095894345e-17 0.9772583705993038 0.212052062223872
12645674666.666666 0.9798655806314381 0.19965831786734545 -1.5132030954614715e-16 1.4036954973121043e-17 -1.5132030954614715e-16 1.4036954973121043e-17 0.9798654398726977 0.1996590086695032
12646292000.0 0.9823154858247222 0.18723324039481856 -1.510994941497841e-16 1.5962444094487212e-17 -1.510994941497841e-16 1.5962444094487212e-17 0.9823153538320639 0.18723393289035645
12646909333.333334 0.9846078427553349 0.17477813359940111 -1.508541907970005e-16 1.788458552872498e-17 -1.508541907970005e-16 1.788458552872498e-17 0.9846077195490721 0.17477882767709374
12647526666.666666 0.9867422837646568 0.16229499508831008 -1.5058444893738904e-16 1.980306801068932e-17 -1.5058444893738904e-16 1.980306801068932e-17 0.9867421693636912 0.162295690636689
12648144000.0 0.9887184665213755 0.14978582696444687 -1.502903219748794e-16 2.171758099166861e-17 -1.502903219748794e-16 2.171758099166861e-17 0.9887183609431964 0.14978652387181907
12648761333.333334 0.9905360740763454 0.13725263550557168 -1.4997186725751075e-16 2.362781468961072e-17 -1.4997186725751075e-16 2.362781468961072e-17 0.9905359773370227 0.1372533336600365
12649378666.666666 0.992194814913414 0.12469743084258367 -1.496291460665739e-16 2.5533460139153454e-17 -1.496291460665739e-16 2.5533460139153454e-17 0.9921947270276001 0.12469813013205172
12649996000.0 0.9936944229962504 0.1121222266366208 -1.4926222360510334e-16 2.743420924159659e-17 -1.4926222360510334e-16 2.743420924159659e-17 0.9936943439771763 0.11212292694883158
12650613333.333334 0.9950346578109388 0.09952903975660582 -1.4887116898575597e-16 2.9329754814594195e-17 -1.4887116898575597e-16 2.9329754814594195e-17 0.9950345876704128 0.09952974097914577
12651230666.666666 0.9962153044045654 0.086919889955773 -1.4845605521804712e-16 3.121979064175549e-17 -1.4845605521804712e-16 3.121979064175549e-17 0.9962152431529692 0.08692059197609343
12651848000.0 0.9972361734197396 0.07429679954722118 -1.48016959194947e-16 3.310401152211096e-17 -1.48016959194947e-16 3.310401152211096e-17 0.9972361210660293 0.07429750225265652
12652465333.333334 0.9980971011249096 0.061661793080131894 -1.4755396167888511e-16 3.498211331923392e-17 -1.4755396167888511e-16 3.498211331923392e-17 0.9980970576766135 0.061662496357917686
12653082666.666666 0.9987979494406496 0.049016897014779945 -1.4706714728710092e-16 3.6853793010322136e-17 -1.4706714728710092e-16 3.6853793010322136e-17 0.9987979149038679 0.04901760075207098
12653700000.0 0.9993386059618025 0.03636413939757703 -1.4655660447636893e-16 3.8718748735078074e-17 -1.4655660447636893e-16 3.8718748735078074e-17 0.9993385803412035 0.03636484348146533
12654317333.333334 0.9997189839755022 0.023705549535804192 -1.460224255271447e-16 4.0576679844231043e-17 -1.460224255271447e-16 4.0576679844231043e-17 0.9997189672743262 0.02370625385333727
12654934666.666666 0.9999390224750873 0.011043157672199261 -1.454647065270581e-16 4.242728694799416e-17 -1.454647065270581e-16 4.242728694799416e-17 0.9999390146951421 0.011043862110398156
12655552000.0 0.9999986861698812 -0.0016210053409471195 -1.448835473537917e-16 4.427027196429675e-17 -1.448835473537917e-16 4.427027196429675e-17 0.9999986873115456 -0.0016203008950696962
12656169333.333334 0.9998979654908566 -0.014284908366883588 -1.4427905165739267e-16 4.6105338166636775e-17 -1.4427905165739267e-16 4.6105338166636775e-17 0.9998979755530759 -0.014284204026305139
12656786666.666666 0.9996368765921638 -0.026946520310956904 -1.4365132684193343e-16 4.793219023185117e-17 -1.4365132684193343e-16 4.793219023185117e-17 0.9996368955724543 -0.026945816188627014
12657404000.0 0.9992154613485434 -0.03960381044574289 -1.4300048404658253e-16 4.975053428758977e-17 -1.4300048404658253e-16 4.975053428758977e-17 0.9992154892429922 -0.03960310665456516
12658021333.333334 0.9986337873486101 -0.052254748737084876 -1.4232663812608365e-16 5.156007795951008e-17 -1.4232663812608365e-16 5.156007795951008e-17 0.9986338241518736 -0.052254045389898744
12658638666.666666 0.9978919478840221 -0.06489730616933917 -1.4162990763064359e-16 5.3360530418203056e-17 -1.4162990763064359e-16 5.3360530418203056e-17 0.9978919935893296 -0.06489660337890188
12659256000.0 0.9969900619344922 -0.07752945507136551 -1.4091041478519786e-16 5.515160242592095e-17 -1.4091041478519786e-16 5.515160242592095e-17 0.9969901165336447 -0.077528752950334
12659873333.333334 0.9959282741487322 -0.09014916944116654 -1.4016828546811645e-16 5.69330063829567e-17 -1.4016828546811645e-16 5.69330063829567e-17 0.9959283376321076 -0.09014846810207958
12660490666.666666 0.9947067548212484 -0.10275442527105486 -1.3940364918932356e-16 5.870445637373859e-17 -1.3940364918932356e-16 5.870445637373859e-17 0.9947068271777986 -0.10275372482631459
12661108000.0 0.9933256998649994 -0.1153432008724983 -1.3861663906780217e-16 6.046566821271276e-17 -1.3861663906780217e-16 6.046566821271276e-17 0.9933257810822547 -0.1153425014343526
12661725333.333334 0.9917853307800335 -0.12791347719980223 -1.37807391808569e-16 6.221635948981585e-17 -1.37807391808569e-16 6.221635948981585e-17 0.9917854208441045 -0.12791277888032657
12662342666.666666 0.9900858946179052 -0.14046323817449874 -1.3697604767903993e-16 6.395624961572007e-17 -1.3697604767903993e-16 6.395624961572007e-17 0.9900859935134863 -0.14046254108557846
12662960000.0 0.9882276639420837 -0.15299047100841226 -1.3612275048482997e-16 6.568505986675691e-17 -1.3612275048482997e-16 6.568505986675691e-17 0.9882277716524529 -0.1529897752617241
12663577333.333334 0.9862109367842374 -0.16549316652647955 -1.3524764754500033e-16 6.740251342948813e-17 -1.3524764754500033e-16 6.740251342948813e-17 0.9862110532912607 -0.1654924722334743
12664194666.666666 0.9840360365963997 -0.17796931948921527 -1.3435088966674952e-16 6.910833544494205e-17 -1.3435088966674952e-16 6.910833544494205e-17 0.9840361618805342 -0.17796862676109954
12664812000.0 0.9817033121991444 -0.19041692891398415 -1.3343263111951311e-16 7.080225305258426e-17 -1.3343263111951311e-16 7.080225305258426e-17 0.9817034462394434 -0.19041623786170322
12665429333.333334 0.9792131377255979 -0.20283399839620922 -1.3249302960854363e-16 7.248399543387618e-17 -1.3249302960854363e-16 7.248399543387618e-17 0.9792132804997103 -0.20283330913042835
12666046666.666666 0.9765659125614952 -0.21521853642922845 -1.3153224624794487e-16 7.41532938554862e-17 -1.3153224624794487e-16 7.41532938554862e-17 0.9765660640456719 -0.21521784906031566
12666664000.0 0.9737620612810103 -0.22756855672425896 -1.3055044553312003e-16 7.580988171221959e-17 -1.3055044553312003e-16 7.580988171221959e-17 0.9737622214501088 -0.22756787136226755
12667281333.333334 0.9708020335787789 -0.2398820785284106 -1.2954779531274428e-16 7.745349456947353e-17 -1.2954779531274428e-16 7.745349456947353e-17 0.9708022024062657 -0.2398813952830612
12667898666.666666 0.9676863041977304 -0.25215712694259157 -1.285244667601395e-16 7.90838702054347e-17 -1.285244667601395e-16 7.90838702054347e-17 0.9676864816556846 -0.2521564459232544
12668516000.0 0.9644153728528815 -0.2643917332384703 -1.2748063434416132e-16 8.070074865282571e-17 -1.2748063434416132e-16 8.070074865282571e-17 0.9644155589120023 -0.2643910545541482
12669133333.333334 0.9609897641513389 -0.27658393517367996 -1.2641647579956467e-16 8.230387224027049e-17 -1.2641647579956467e-16 8.230387224027049e-17 0.9609899587809492 -0.2765832589329908
12669750666.666666 0.9574100275080154 -0.288731777307082 -1.2533217209680282e-16 8.38929856333419e-17 -1.2533217209680282e-16 8.38929856333419e-17 0.9574102306760657 -0.28873110361824067
12670368000.0 0.9536767370575816 -0.30083331131211266 -1.2422790741137634e-16 8.5467835875112e-17 -1.2422790741137634e-16 8.5467835875112e-17 0.9536769487306562 -0.3008326402829147
