! Parameters = {f0=12700.012000; bw=77.238000; Q=6100.000000; N=10; m_0_1=1.310806; m_1_1=0.897341; m_1_2=1.145618; m_2_2=0.896692; m_2_3=0.782581; m_2_8=0.002604; m_2_9=0.039308; m_3_3=0.894755; m_3_4=0.671110; m_3_7=0.003204; m_3_8=-0.093884; m_3_9=0.002604; m_4_4=0.891830; m_4_5=0.507445; m_4_6=0.006721; m_4_7=-0.114433; m_4_8=0.003204; m_5_5=0.892212; m_5_6=0.914800; m_5_7=0.006721; m_6_6=0.892211; m_6_7=0.507787; m_7_7=0.891844; m_7_8=0.671228; m_8_8=0.894753; m_8_9=0.782894; m_9_9=0.896687; m_9_10=1.146696; m_10_10=0.897331; m_10_11=1.311601}
!
! Created with skrf (http://scikit-rf.org).
# Hz S RI R 50.0 
!freq ReS11 ImS11 ReS21 ImS21 ReS12 ImS12 ReS22 ImS22
12607400000.0 0.31866225995809955 0.947868326339797 -7.676734336775692e-17 -1.0929477311170119e-16 -7.676734336775692e-17 -1.0929477311170119e-16 0.31866160542296146 0.9478685463866138
12608017333.333334 0.3297578925658767 0.9440655338959919 -7.803831033397886e-17 -1.0835870663366642e-16 -7.803831033397886e-17 -1.0835870663366642e-16 0.32975724068860746 0.9440657615935701
12608634666.666666 0.3408081589620467 0.9401328623044254 -7.929788048193734e-17 -1.0740787288208985e-16 -7.929788048193734e-17 -1.0740787288208985e-16 0.3408075098320635 0.940133097620693
12609252000.0 0.35181153891407946 0.9360708525996944 -8.054588238196084e-17 -1.0644241041861523e-16 -8.054588238196084e-17 -1.0644241041861523e-16 0.3518108926204123 0.9360710955015331
12609869333.333334 0.36276651863976167 0.9318800636100119 -8.178214628673358e-17 -1.054624597931694e-16 -8.178214628673358e-17 -1.054624597931694e-16 0.362765875271042 0.9318803140632635
12610486666.666666 0.3736715910154828 0.9275610718803204 -8.300650415431121e-17 -1.0446816352358128e-16 -8.300650415431121e-17 -1.0446816352358128e-16 0.3736709506599311 0.9275613298497921
12611104000.0 0.3845252557837879 0.9231144715928916 -8.42187896709629e-17 -1.0345966607487457e-16 -8.42187896709629e-17 -1.0345966607487457e-16 0.38452461852920133 0.9231147370423594
12611721333.333334 0.39532601975932496 0.918540874485759 -8.541883827366322e-17 -1.0243711383837769e-16 -8.541883827366322e-17 -1.0243711383837769e-16 0.395325385693065 0.918541147377972
12612338666.666666 0.4060723970346902 0.9138409097683869 -8.660648717240143e-17 -1.0140065511051562e-16 -8.660648717240143e-17 -1.0140065511051562e-16 0.4060717662436725 0.913841190065077
12612956000.0 0.41676290918477243 0.9090152240351411 -8.778157537223104e-17 -1.0035044007134616e-16 -8.778157537223104e-17 -1.0035044007134616e-16 0.4167622817554522 0.9090155116970231
12613573333.333334 0.4273960854698321 0.9040644811764679 -8.894394369500577e-17 -9.928662076288866e-17 -8.894394369500577e-17 -9.928662076288866e-17 0.4273954614881947 0.9040647761632484
12614190666.666666 0.4379704630382552 0.8989893622873792 -9.009343480092488e-17 -9.820935106713898e-17 -9.009343480092488e-17 -9.820935106713898e-17 0.4379698425898025 0.8989896645577606
12614808000.0 0.4484845871275938 0.8937905655738393 -9.122989320975388e-17 -9.711878668388921e-17 -9.122989320975388e-17 -9.711878668388921e-17 0.448483970297334 0.8937908750855266
12615425333.333334 0.45893701126465586 0.88846880625674 -9.235316532182243e-17 -9.601508510826176e-17 -9.235316532182243e-17 -9.601508510826176e-17 0.45893639813709075 0.888469122966446
12616042666.666666 0.46932629746465454 0.8830248164734275 -9.3463099438723e-17 -9.489840560802635e-17 -9.3463099438723e-17 -9.489840560802635e-17 0.469325688123768 0.8830251403368782
12616660000.0 0.4796510164289612 0.877459345177016 -9.455954578373733e-17 -9.376890920068021e-17 -9.455954578373733e-17 -9.376890920068021e-17 0.4796504109582079 0.8774596761489577
12617277333.333334 0.48990974774168944 0.8717731580333772 -9.564235652201237e-17 -9.262675863026477e-17 -9.564235652201237e-17 -9.262675863026477e-17 0.4899091462239843 0.8717734960675844
12617894666.666666 0.5001010800651358 0.8659670373157957 -9.671138578041611e-17 -9.147211834399511e-17 -9.671138578041611e-17 -9.147211834399511e-17 0.5001004825828419 0.8659673823650754
12618512000.0 0.5102236113341398 0.8600417817972337 -9.77664896671677e-17 -9.030515446859904e-17 -9.77664896671677e-17 -9.030515446859904e-17 0.5102230179690561 0.8600421338134318
12619129333.333334 0.5202759489485522 0.8539982066406794 -9.880752629110451e-17 -8.912603478651771e-17 -9.880752629110451e-17 -8.912603478651771e-17 0.5202753597819033 0.8539985655746873
12619746666.666666 0.5302567099652148 0.8478371432867745 -9.983435578074942e-17 -8.793492871179009e-17 -9.983435578074942e-17 -8.793492871179009e-17 0.5302561250776407 0.8478375090885387
12620364000.0 0.5401645212881434 0.8415594393394703 -1.0084684030303915e-16 -8.67320072657707e-17 -1.0084684030303915e-16 -8.67320072657707e-17 0.540163940759687 0.8415598119579965
12620981333.333334 0.5499980198571406 0.8351659584495995 -1.0184484408173961e-16 -8.551744305265972e-17 -1.0184484408173961e-16 -8.551744305265972e-17 0.549997443767237 0.8351663378329599
12621598666.666666 0.5597558528357026 0.828657580195817 -1.0282823341563651e-16 -8.429141023474158e-17 -1.0282823341563651e-16 -8.429141023474158e-17 0.55975528126317 0.8286579662911605
12622216000.0 0.569436677796945 0.8220351999637184 -1.0379687669636877e-16 -8.305408450748364e-17 -1.0379687669636877e-16 -8.305408450748364e-17 0.5694361108199705 0.8220355927172733
12622833333.333334 0.5790391629082587 0.8152997288226675 -1.0475064442598122e-16 -8.180564307441142e-17 -1.0475064442598122e-16 -8.180564307441142e-17 0.5790386006043908 0.8153001281797528
12623450666.666666 0.5885619871146106 0.8084520934004151 -1.0568940923418286e-16 -8.054626462177421e-17 -1.0568940923418286e-16 -8.054626462177421e-17 0.5885614295607468 0.8084524993054463
12624068000.0 0.5980038403202154 0.8014932357556657 -1.0661304589529857e-16 -7.927612929301635e-17 -1.0661304589529857e-16 -7.927612929301635e-17 0.5980032875925926 0.8014936481521628
12624685333.333334 0.607363423568955 0.7944241132483401 -1.075214313449189e-16 -7.799541866304847e-17 -1.075214313449189e-16 -7.799541866304847e-17 0.6073628757431387 0.7944245320789363
12625302666.666666 0.6166394492227608 0.7872456984081033 -1.0841444469620446e-16 -7.670431571238164e-17 -1.0841444469620446e-16 -7.670431571238164e-17 0.6166389063736354 0.7872461236145525
12625920000.0 0.6258306411391473 0.7799589788002813 -1.0929196725595985e-16 -7.540300480096508e-17 -1.0929196725595985e-16 -7.540300480096508e-17 0.6258301033409037 0.7799594103234646
12626537333.333334 0.6349357348463673 0.7725649568903039 -1.1015388254029711e-16 -7.409167164197602e-17 -1.1015388254029711e-16 -7.409167164197602e-17 0.6349352021724958 0.7725653946702404
12627154666.666666 0.6439534777176671 0.7650646499055711 -1.1100007629006347e-16 -7.277050327532453e-17 -1.1100007629006347e-16 -7.277050327532453e-17 0.6439529502409455 0.7650650938814256
12627772000.0 0.6528826291435672 0.7574590896955393 -1.11830436485927e-16 -7.143968804101207e-17 -1.11830436485927e-16 -7.143968804101207e-17 0.6528821069360512 0.7574595398056289
12628389333.333334 0.6617219607023862 0.7497493225898921 -1.1264485336310574e-16 -7.009941555238411e-17 -1.1264485336310574e-16 -7.009941555238411e-17 0.661721443835399 0.7497497787716965
12629006666.666666 0.6704702563294771 0.7419364092543905 -1.1344321942585196e-16 -6.87498766690938e-17 -1.1344321942585196e-16 -6.87498766690938e-17 0.6704697448736008 0.7419368714445598
12629624000.0 0.6791263124843332 0.7340214245451184 -1.1422542946154237e-16 -6.739126347001754e-17 -1.1422542946154237e-16 -6.739126347001754e-17 0.6791258065093986 0.7340218926794834
12630241333.333334 0.6876889383162087 0.7260054573605756 -1.149913805544897e-16 -6.602376922593701e-17 -1.149913805544897e-16 -6.602376922593701e-17 0.6876884378912863 0.7260059313741553
12630858666.666666 0.6961569558279505 0.7178896104918735 -1.157409720993935e-16 -6.464758837212413e-17 -1.157409720993935e-16 -6.464758837212413e-17 0.6961564610213399 0.7178900903188845
12631476000.0 0.7045292000382221 0.7096750004708612 -1.1647410581451375e-16 -6.326291648068541e-17 -1.1647410581451375e-16 -6.326291648068541e-17 0.7045287109174433 0.7096754860447263
12632093333.333334 0.7128045191414671 0.701362757416813 -1.1719068575445366e-16 -6.186995023286706e-17 -1.1719068575445366e-16 -6.186995023286706e-17 0.712804035773252 0.7013632486701716
12632710666.666666 0.7209817746665377 0.6929540248808009 -1.1789061832264751e-16 -6.046888739115397e-17 -1.1789061832264751e-16 -6.046888739115397e-17 0.7209812971168204 0.6929545217455182
12633328000.0 0.7290598416334543 0.6844499596882272 -1.1857381228352787e-16 -5.905992677120107e-17 -1.1857381228352787e-16 -5.905992677120107e-17 0.7290593699673603 0.6844504620954011
12633945333.333334 0.7370376087079312 0.6758517317799125 -1.1924017877431726e-16 -5.764326821370923e-17 -1.1924017877431726e-16 -5.764326821370923e-17 0.7370371429897727 0.6758522396598876
12634562666.666666 0.7449139783544124 0.6671605240510071 -1.1988963131651905e-16 -5.621911255610226e-17 -1.1988963131651905e-16 -5.621911255610226e-17 0.7449135186476754 0.6671610373333801
12635180000.0 0.7526878669869641 0.658377532188354 -1.2052208582705018e-16 -5.478766160411583e-17 -1.2052208582705018e-16 -5.478766160411583e-17 0.7526874133543021 0.6583780508019865
12635797333.333334 0.7603582051184822 0.6495039645058481 -1.2113746062905516e-16 -5.3349118103222113e-17 -1.2113746062905516e-16 -5.3349118103222113e-17 0.7603577576217065 0.6495044883788743
12636414666.666666 0.767923937507693 0.6405410417783496 -1.2173567646235677e-16 -5.19036857099815e-17 -1.2173567646235677e-16 -5.19036857099815e-17 0.7679234962077659 0.6405415708381882
12637032000.0 0.7753840233043884 0.631489997073677 -1.2231665649358276e-16 -5.045156896324498e-17 -1.2231665649358276e-16 -5.045156896324498e-17 0.7753835882614128 0.6314905312470397
12637649333.333334 0.7827374361926508 0.6223520755829207 -1.2288032632594598e-16 -4.8992973255247046e-17 -1.2288032632594598e-16 -4.8992973255247046e-17 0.7827370074658633 0.6223526147958232
12638266666.666666 0.7899831645320127 0.6131285344491814 -1.2342661400867613e-16 -4.752810480260526e-17 -1.2342661400867613e-16 -4.752810480260526e-17 0.7899827421797749 0.6131290786269528
12638884000.0 0.7971202114965806 0.6038206425946867 -1.2395545004610483e-16 -4.6057170617219416e-17 -1.2395545004610483e-16 -4.6057170617219416e-17 0.7971197955763725 0.6038211916619813
12639501333.333334 0.8041475952123119 0.5944296805460413 -1.2446676740641816e-16 -4.458037847703615e-17 -1.2446676740641816e-16 -4.458037847703615e-17 0.8041471857807225 0.5944302344268477
12640118666.666666 0.8110643488918399 0.5849569402583991 -1.249605015300393e-16 -4.309793689677771e-17 -1.249605015300393e-16 -4.309793689677771e-17 0.8110639460045597 0.5849574988760512
12640736000.0 0.8178695209679491 0.5754037249370832 -1.2543659033769732e-16 -4.161005509848008e-17 -1.2543659033769732e-16 -4.161005509848008e-17 0.817869124679763 0.5754042882142706
12641353333.333334 0.8245621752238506 0.5657713488591706 -1.258949742380925e-16 -4.0116942982107814e-17 -1.258949742380925e-16 -4.0116942982107814e-17 0.8245617855886306 0.5657719167179492
12641970666.666666 0.8311413909225319 0.556061137191921 -1.2633559613527596e-16 -3.8618811095885746e-17 -1.2633559613527596e-16 -3.8618811095885746e-17 0.8311410079932297 0.5560617095537248
12642588000.0 0.8376062629331129 0.5462744258109091 -1.2675840143562583e-16 -3.711587060671631e-17 -1.2675840143562583e-16 -3.711587060671631e-17 0.8376058867617523 0.54627500259656
12643205333.333334 0.8439559018554987 0.5364125611160548 -1.271633380545005e-16 -3.5608333270428917e-17 -1.271633380545005e-16 -3.5608333270428917e-17 0.8439555324931687 0.5364131422457739
12643822666.666666 0.850189434142736 0.5264768998463925 -1.2755035642252963e-16 -3.409641140198723e-17 -1.2755035642252963e-16 -3.409641140198723e-17 0.8501890716395841 0.5264774852398109
12644440000.0 0.8563060022211423 0.516468808893488 -1.2791940949154907e-16 -3.258031784564116e-17 -1.2791940949154907e-16 -3.258031784564116e-17 0.8563056466263679 0.5164693984696586
12645057333.333334 0.8623047646082614 0.5063896651134425 -1.2827045274018246e-16 -3.1060265945016656e-17 -1.2827045274018246e-16 -3.1060265945016656e-17 0.862304415970108 0.50639025879085
12645674666.666666 0.8681848960286589 0.4962408551374221 -1.286034441790753e-16 -2.953646951311468e-17 -1.286034441790753e-16 -2.953646951311468e-17 0.8681845543944089 0.4962414528339956
12646292000.0 0.8739455875275872 0.48602377518067297 -1.2891834435577135e-16 -2.80091428022635e-17 -1.2891834435577135e-16 -2.80091428022635e-17 0.8739452529435545 0.48602437681379634
12646909333.333334 0.8795860465820616 0.47573983085080523 -1.2921511635921695e-16 -2.6478500474094628e-17 -1.2921511635921695e-16 -2.6478500474094628e-17 0.8795857190935861 0.47574043633732904
12647526666.666666 0.885105497209993 0.4653904369542472 -1.29493725823935e-16 -2.4944757569356307e-17 -1.29493725823935e-16 -2.4944757569356307e-17 0.8851051768614333 0.46539104621049987
12648144000.0 0.8905031800770078 0.4549770173014772 -1.29754140933824e-16 -2.3408129477762484e-17 -1.29754140933824e-16 -2.3408129477762484e-17 0.8905028669117383 0.45497763024327764
12648761333.333334 0.8957783526008083 0.44450100451134644 -1.2999633242560353e-16 -2.18688319077942e-17 -1.2999633242560353e-16 -2.18688319077942e-17 0.8957780466612074 0.44450162105401314
12649378666.666666 0.9009302890533539 0.43396383981393366 -1.3022027359190079e-16 -2.032708085647559e-17 -1.3022027359190079e-16 -2.032708085647559e-17 0.9009299903808048 0.4339644598722992
12649996000.0 0.9059582806607249 0.4233669728522489 -1.3042594028398874e-16 -1.8783092579065992e-17 -1.3042594028398874e-16 -1.8783092579065992e-17 0.9059579892956058 0.42336759634067034
12650613333.333334 0.9108616357006722 0.4127118614826929 -1.3061331091415362e-16 -1.723708355879049e-17 -1.3061331091415362e-16 -1.723708355879049e-17 0.9108613516823523 0.41271248831506363
12651230666.666666 0.9156396795976406 0.40199997157480477 -1.3078236645770737e-16 -1.5689270476554562e-17 -1.3078236645770737e-16 -1.5689270476554562e-17 0.9156394029644748 0.4020006016645667
12651848000.0 0.9202917550157725 0.391232776809156 -1.3093309045464953e-16 -1.413987018055726e-17 -1.3093309045464953e-16 -1.413987018055726e-17 0.9202914858050961 0.39123341006931145
12652465333.333334 0.9248172219491982 0.3804117584749196 -1.3106546901095963e-16 -1.2589099655997104e-17 -1.3106546901095963e-16 -1.2589099655997104e-17 0.9248169601973217 0.3804123948180432
12653082666.666666 0.9292154578100569 0.3695384052661644 -1.3117949079953462e-16 -1.1037175994737197e-17 -1.3117949079953462e-16 -1.1037175994737197e-17 0.929215203552261 0.36953904460441506
12653700000.0 0.9334858575143199 0.3586142130766272 -1.3127514706077366e-16 -9.48431636489647e-18 -1.3127514706077366e-16 -9.48431636489647e-18 0.9334856107848508 0.3586148553217604
12654317333.333334 0.9376278335648525 0.3476406847943639 -1.3135243160279404e-16 -7.930737980565176e-18 -1.3135243160279404e-16 -7.930737980565176e-18 0.9376275943969185 0.3476413298577443
12654934666.666666 0.9416408161323166 0.33661933009480804 -1.3141134080129572e-16 -6.3766580714362636e-18 -1.3141134080129572e-16 -6.3766580714362636e-18 0.9416405845580815 0.33661997788742076
12655552000.0 0.9455242531336192 0.32555166523291607 -1.3145187359906663e-16 -4.8222938524501536e-18 -1.3145187359906663e-16 -4.8222938524501536e-18 0.9455240291841992 0.3255523156653795
12656169333.333334 0.9492776103077386 0.31443921283491705 -1.3147403150512662e-16 -3.2678624935243695e-18 -1.3147403150512662e-16 -3.2678624935243695e-18 0.9492773940131984 0.31443986581749545
12656786666.666666 0.9529003712893412 0.30328350168851814 -1.31477818593517e-16 -1.713581089207857e-18 -1.31477818593517e-16 -1.713581089207857e-18 0.9529001626786885 0.30328415713113327
12657404000.0 0.9563920376797347 0.2920860665328234 -1.3146324150173042e-16 -1.5966662843614577e-19 -1.3146324150173042e-16 -1.5966662843614577e-19 0.9563918367809197 0.29208672434506805
12658021333.333334 0.9597521291155185 0.2808484478469517 -1.3143030942878477e-16 1.3936640357542125e-18 -1.3143030942878477e-16 1.3936640357542125e-18 0.9597519359554252 0.2808491079381009
12658638666.666666 0.9629801833345544 0.2695721916384572 -1.3137903413293944e-16 2.9461942163982362e-18 -1.3137903413293944e-16 2.9461942163982362e-18 0.9629799979390007 0.2695728539174816
12659256000.0 0.9660757562397048 0.25825884923017717 -1.3130942992905548e-16 4.497707422852211e-18 -1.3130942992905548e-16 4.497707422852211e-18 0.9660755786334378 0.2582595136057553
12659873333.333334 0.9690384219598296 0.24690997704713605 -1.312215136856e-16 6.0479873908921294e-18 -1.312215136856e-16 6.0479873908921294e-18 0.9690382521665226 0.2469106434276668
12660490666.666666 0.9718677729083568 0.2355271364025049 -1.3111530482129631e-16 7.596818112821127e-18 -1.3111530482129631e-16 7.596818112821127e-18 0.9718676109506063 0.23552780469612059
12661108000.0 0.9745634198394726 0.22411189328236503 -1.3099082530141526e-16 9.143983867566546e-18 -1.3099082530141526e-16 9.143983867566546e-18 0.9745632657387947 0.22411256339694352
12661725333.333334 0.9771249919015466 0.21266581813073562 -1.308480996337202e-16 1.0689269250617266e-17 -1.308480996337202e-16 1.0689269250617266e-17 0.9771248456783754 0.21266648997391355
12662342666.666666 0.979552136688216 0.20119048563330252 -1.3068715486404998e-16 1.2232459204039232e-17 -1.3068715486404998e-16 1.2232459204039232e-17 0.9795519983618979 0.20119115911248722
12662960000.0 0.981844520286863 0.1896874745007518 -1.3050802057155614e-16 1.3773339046315467e-17 -1.3050802057155614e-16 1.3773339046315467e-17 0.9818443898756574 0.18968814952313495
12663577333.333334 0.9840018273245404 0.17815836725166453 -1.3031072886358385e-16 1.5311694502200092e-17 -1.3031072886358385e-16 1.5311694502200092e-17 0.9840017048456164 0.17815904372423452
12664194666.666666 0.9860237610113671 0.16660474999474623 -1.3009531437020465e-16 1.6847311732459283e-17 -1.3009531437020465e-16 1.6847311732459283e-17 0.9860236464808009 0.16660542782430104
12664812000.0 0.9879100431813409 0.15502821221073165 -1.2986181423839779e-16 1.8379977363562193e-17 -1.2986181423839779e-16 1.8379977363562193e-17 0.9879099366141124 0.15502889130389155
12665429333.333334 0.9896604143306414 0.14343034653348852 -1.2961026812588407e-16 1.990947851727662e-17 -1.2961026812588407e-16 1.990947851727662e-17 0.9896603157406358 0.1434310267967093
12666046666.666666 0.9912746336532801 0.1318127485312777 -1.2934071819461107e-16 2.1435602840199057e-17 -1.2934071819461107e-16 2.1435602840199057e-17 0.9912745430532817 0.13181342987086297
12666664000.0 0.9927524790742959 0.12017701648673683 -1.2905320910388484e-16 2.29581385332253e-17 -1.2905320910388484e-16 2.29581385332253e-17 0.9927523964759907 0.12017769880885161
12667281333.333334 0.9940937472802452 0.1085247511774771 -1.2874778800317286e-16 2.4476874380840687e-17 -1.2874778800317286e-16 2.4476874380840687e-17 0.9940936726942156 0.10852543438816016
12667898666.666666 0.9952982537471994 0.09685755565566025 -1.284245045245409e-16 2.5991599780438452e-17 -1.284245045245409e-16 2.5991599780438452e-17 0.9952981871829253 0.09685823966083734
12668516000.0 0.9963658327661452 0.08517703502728963 -1.2808341077475729e-16 2.7502104771471227e-17 -1.2808341077475729e-16 2.7502104771471227e-17 0.9963657742320018 0.08517771973278639
12669133333.333334 0.9972963374657462 0.0734847962317569 -1.277245613270637e-16 2.900818006446912e-17 -1.277245613270637e-16 2.900818006446912e-17 0.9972962869690034 0.0734854815433118
12669750666.666666 0.9980896398325806 0.06178244782042875 -1.2734801321258286e-16 3.050961707005472e-17 -1.2734801321258286e-16 3.050961707005472e-17 0.9980895973794023 0.06178313364370612
12670368000.0 0.9987456307287327 0.0500715997355783 -1.2695382591140332e-16 3.200620792776509e-17 -1.2695382591140332e-16 3.200620792776509e-17 0.9987455963241755 0.05007228597618123
