! Parameters = {f0=12700.012000; bw=77.238000; Q=6100.000000; N=10; m_0_1=1.330225; m_1_1=1.188633; m_1_2=1.165037; m_2_2=1.187984; m_2_3=0.802000; m_2_8=0.003575; m_2_9=0.040279; m_3_3=1.186047; m_3_4=0.690529; m_3_7=0.004175; m_3_8=-0.092913; m_3_9=0.003575; m_4_4=1.183122; m_4_5=0.526864; m_4_6=0.007692; m_4_7=-0.113462; m_4_8=0.004175; m_5_5=1.183504; m_5_6=0.934219; m_5_7=0.007692; m_6_6=1.183503; m_6_7=0.527206; m_7_7=1.183136; m_7_8=0.690647; m_8_8=1.186045; m_8_9=0.802313; m_9_9=1.187979; m_9_10=1.166115; m_10_10=1.188623; m_10_11=1.331020}
!
! Created with skrf (http://scikit-rf.org).
# Hz S RI R 50.0 
!freq ReS11 ImS11 ReS21 ImS21 ReS12 ImS12 ReS22 ImS22
12607400000.0 -0.48823531557477395 0.8727120238803909 3.2095517195591044e-17 -1.4215344233897283e-16 3.2095517195591044e-17 -1.4215344233897283e-16 -0.48823592710754854 0.8727116817604995
12608017333.333334 -0.4774613411201905 0.8786527572002009 3.032558634097261e-17 -1.4251233743674787e-16 3.032558634097261e-17 -1.4251233743674787e-16 -0.47746195678565945 0.878652422646302
12608634666.666666 -0.4666150929448344 0.8844604881145848 2.85516917209335e-17 -1.4284920786356027e-16 2.85516917209335e-17 -1.4284920786356027e-16 -0.4666157126494039 0.8844601611765766
12609252000.0 -0.4556982128543781 0.8901343375025663 2.6774107252188208e-17 -1.4316401052017787e-16 2.6774107252188208e-17 -1.4316401052017787e-16 -0.4556988365038518 0.8901340182291891
12609869333.333334 -0.4447123533461538 0.8956734465089013 2.4993107310646816e-17 -1.4345670571212135e-16 2.4993107310646816e-17 -1.4345670571212135e-16 -0.4447129808457475 0.8956731349477307
12610486666.666666 -0.43365917735906584 0.9010769766740604 2.3208966689166863e-17 -1.437272571544158e-16 2.3208966689166863e-17 -1.437272571544158e-16 -0.43365980861342296 0.901076672871502
12611104000.0 -0.4225403580215147 0.9063441100613255 2.1421960555147516e-17 -1.4397563197583582e-16 2.1421960555147516e-17 -1.4397563197583582e-16 -0.4225409929347188 0.9063438140626042
12611721333.333334 -0.41135757839864284 0.9114740493803491 1.96323644082096e-17 -1.442018007226044e-16 1.96323644082096e-17 -1.442018007226044e-16 -0.41135821687423285 0.9114737612295037
12612338666.666666 -0.4001125312372365 0.916466018108003 1.7840454037718433e-17 -1.444057373615851e-16 1.7840454037718433e-17 -1.444057373615851e-16 -0.4001131731782218 0.916465737847881
12612956000.0 -0.38880691870941303 0.9213192606059526 1.6046505480360625e-17 -1.4458741928293465e-16 1.6046505480360625e-17 -1.4458741928293465e-16 -0.3888075640182883 0.921318988278203
12613573333.333334 -0.37744245215535244 0.9260330422348666 1.425079497769982e-17 -1.4474682730223204e-16 1.425079497769982e-17 -1.4474682730223204e-16 -0.3774431007341117 0.9260327778799334
12614190666.666666 -0.3660208518238855 0.9306066494657795 1.2453598933639301e-17 -1.4488394566208763e-16 1.2453598933639301e-17 -1.4488394566208763e-16 -0.36602150357403784 0.9306063931228964
12614808000.0 -0.354543846612282 0.9350393899880229 1.0655193871979246e-17 -1.4499876203321596e-16 1.0655193871979246e-17 -1.4499876203321596e-16 -0.3545445014348659 0.9350391416952066
12615425333.333334 -0.34301317380441243 0.9393305928140686 8.855856393885692e-18 -1.4509126751498932e-16 8.855856393885692e-18 -1.4509126751498932e-16 -0.34301383160001137 0.9393303526081151
12616042666.666666 -0.3314305788079349 0.9434796083810421 7.055863135430253e-18 -1.4516145663546062e-16 7.055863135430253e-18 -1.4516145663546062e-16 -0.3314312394766912 0.9434793762975165
12616660000.0 -0.31979781489000964 0.9474858086490701 5.255490725099842e-18 -1.4520932735086207e-16 5.255490725099842e-18 -1.4520932735086207e-16 -0.3197984783316414 0.9474855847223077
12617277333.333334 -0.30811664291179963 0.9513485871963905 3.4550157413200476e-18 -1.4523488104457786e-16 3.4550157413200476e-18 -1.4523488104457786e-16 -0.30811730902561496 0.9513483714594883
12617894666.666666 -0.2963888310622237 0.9550673593110462 1.6547146700647288e-18 -1.4523812252558985e-16 1.6547146700647288e-18 -1.4523812252558985e-16 -0.2963894997471355 0.9550671517958563
12618512000.0 -0.2846161545898976 0.958641562079522 -1.451361376109448e-19 -1.4521906002639925e-16 -1.451361376109448e-19 -1.4521906002639925e-16 -0.28461682574443997 0.9586413628166508
12619129333.333334 -0.27280039553484814 0.96207065447182 -1.9442605078721437e-18 -1.451777052004238e-16 -1.9442605078721437e-18 -1.451777052004238e-16 -0.2728010690571915 0.9620704634906218
12619746666.666666 -0.26094334245838385 0.9653541174234729 -3.74238248648613e-18 -1.4511407311887007e-16 -3.74238248648613e-18 -1.4511407311887007e-16 -0.2609440182463498 0.9653539347520445
12620364000.0 -0.24904679017252102 0.9684914539140604 -5.53922638106702e-18 -1.450281822670825e-16 -5.53922638106702e-18 -1.450281822670825e-16 -0.24904746812359815 0.9684912795792389
12620981333.333334 -0.23711253946846664 0.9714821890424042 -7.33451680328865e-18 -1.4492005454037124e-16 -7.33451680328865e-18 -1.4492005454037124e-16 -0.2371132194798266 0.9714820230697623
12621598666.666666 -0.22514239684367485 0.9743258700985481 -9.127978711050688e-18 -1.4478971523931598e-16 -9.127978711050688e-18 -1.4478971523931598e-16 -0.22514307881218718 0.9743257125123896
12622216000.0 -0.21313817422869752 0.9770220666322048 -1.0919337450554571e-17 -1.446371930645515e-16 -1.0919337450554571e-17 -1.446371930645515e-16 -0.21313885805094582 0.977021917455563
12622833333.333334 -0.201101688712746 0.9795703705179577 -1.2708318798332109e-17 -1.444625201110297e-16 -1.2708318798332109e-17 -1.444625201110297e-16 -0.2011023742850433 0.97957022977259
12623450666.666666 -0.18903476226880306 0.981970396017 -1.4494649003130042e-17 -1.4426573186176938e-16 -1.4494649003130042e-17 -1.4426573186176938e-16 -0.18903544948720766 0.9819702637233856
12624068000.0 -0.17693922147757912 0.9842217798355787 -1.62780548277796e-17 -1.4404686718108098e-16 -1.62780548277796e-17 -1.4404686718108098e-16 -0.17693991023791036 0.984221656012916
12624685333.333334 -0.16481689725115975 0.9863241811799546 -1.8058263590954316e-17 -1.4380596830727681e-16 -1.8058263590954316e-17 -1.4380596830727681e-16 -0.16481758744901354 0.9863240658461564
12625302666.666666 -0.1526696245560553 0.9882772818079554 -1.9835003208744407e-17 -1.43543080844875e-16 -1.9835003208744407e-17 -1.43543080844875e-16 -0.15267031608682038 0.9882771749796492
12625920000.0 -0.1404992421349362 0.9900807860772349 -2.1608002236266238e-17 -1.4325825375627332e-16 -2.1608002236266238e-17 -1.4325825375627332e-16 -0.14049993489381002 0.9900806877697604
12626537333.333334 -0.12830759222886215 0.9917344209899337 -2.33769899090146e-17 -1.4295153935292918e-16 -2.33769899090146e-17 -1.4295153935292918e-16 -0.12830828611086614 0.9917343312173372
12627154666.666666 -0.11609652029816787 0.9932379362340445 -2.5141696184200437e-17 -1.4262299328601442e-16 -2.5141696184200437e-17 -1.4262299328601442e-16 -0.1160972151981639 0.99323785500908
12627772000.0 -0.10386787474286048 0.9945911042213321 -2.6901851781920573e-17 -1.4227267453656562e-16 -2.6901851781920573e-17 -1.4227267453656562e-16 -0.10386857055556654 0.9945910315554582
12628389333.333334 -0.09162350662338935 0.9957937201217131 -2.865718822615021e-17 -1.419006454051378e-16 -2.865718822615021e-17 -1.419006454051378e-16 -0.09162420324339564 0.9957936560250923
12629006666.666666 -0.07936526937994214 0.9968456018943244 -3.0407437885712963e-17 -1.4150697150092872e-16 -3.0407437885712963e-17 -1.4150697150092872e-16 -0.0793659667017269 0.9968455463758203
12629624000.0 -0.06709501855211292 0.9977465903150449 -3.215233401495989e-17 -1.4109172173042864e-16 -3.215233401495989e-17 -1.4109172173042864e-16 -0.06709571647005863 0.9977465433822243
12630241333.333334 -0.05481461149802876 0.9984965490006101 -3.389161079442581e-17 -1.4065496828554239e-16 -3.389161079442581e-17 -1.4065496828554239e-16 -0.054815309906437806 0.998496510659736
12630858666.666666 -0.04252590711328428 0.9990953644292417 -3.562500337121901e-17 -1.4019678663123533e-16 -3.562500337121901e-17 -1.4019678663123533e-16 -0.04252660590639528 0.9990953346852789
12631476000.0 -0.03023076554916221 0.9995429459578606 -3.735224789935884e-17 -1.3971725549265506e-16 -3.735224789935884e-17 -1.3971725549265506e-16 -0.03023146462116582 0.9995429248144706
12632093333.333334 -0.017931047931599817 0.9998392258357754 -3.9073081579823366e-17 -1.3921645684178828e-16 -3.9073081579823366e-17 -1.3921645684178828e-16 -0.017931747176654828 0.9998392132953178
12632710666.666666 -0.005628616079184939 0.9999841592149553 -4.0787242700520316e-17 -1.3869447588359822e-16 -4.0787242700520316e-17 -1.3869447588359822e-16 -0.005629315391434327 0.9999841552784879
12633328000.0 0.006674667778754315 0.9999777241568185 -4.249447067602735e-17 -1.3815140104168339e-16 -4.249447067602735e-17 -1.3815140104168339e-16 0.006673968505167433 0.9999777288240972
12633945333.333334 0.01897694128389479 0.9998199216355486 -4.4194506087148614e-17 -1.375873239434486e-16 -4.4194506087148614e-17 -1.375873239434486e-16 0.0189762421548111 0.9998199349050255
12634562666.666666 0.03127634223079656 0.9995107755379476 -4.5887090720272345e-17 -1.3700233940478927e-16 -4.5887090720272345e-17 -1.3700233940478927e-16 0.0312756433520245 0.9995107974067734
12635180000.0 0.043571008848843316 0.9990503326598219 -4.757196760654423e-17 -1.3639654541428964e-16 -4.757196760654423e-17 -1.3639654541428964e-16 0.043570310326143155 0.9990503631238469
12635797333.333334 0.055859080084173854 0.9984386626988947 -4.9248881060841617e-17 -1.3577004311693543e-16 -4.9248881060841617e-17 -1.3577004311693543e-16 0.055858382023241594 0.998438701752668
12636414666.666666 0.06813869588110721 0.9976758582442647 -5.0917576720481576e-17 -1.351229367973682e-16 -5.0917576720481576e-17 -1.351229367973682e-16 0.06813799838755863 0.9976759058810353
12637032000.0 0.08040799746398483 0.9967620347623793 -5.257780158378799e-17 -1.3445533386263713e-16 -5.257780158378799e-17 -1.3445533386263713e-16 0.08040730064333959 0.9967620909740993
12637649333.333334 0.09266512761836497 0.995697330579569 -5.422930404837333e-17 -1.3376734482450045e-16 -5.422930404837333e-17 -1.3376734482450045e-16 0.09266443157603044 0.9956973953568916
12638266666.666666 0.10490823097229204 0.9944819068610913 -5.587183394923217e-17 -1.3305908328124044e-16 -5.587183394923217e-17 -1.3305908328124044e-16 0.10490753581354757 0.9944819801933752
12638884000.0 0.11713545427697601 0.9931159475867529 -5.750514259655435e-17 -1.3233066589903164e-16 -5.750514259655435e-17 -1.3233066589903164e-16 0.11713476010695698 0.993116029462063
12639501333.333334 0.12934494668743376 0.9915996595230518 -5.912898281335696e-17 -1.3158221239281908e-16 -5.912898281335696e-17 -1.3158221239281908e-16 0.12934425361111554 0.9915997499281606
12640118666.666666 0.1415348600425401 0.989933272191892 -6.074310897278349e-17 -1.3081384550677462e-16 -6.074310897278349e-17 -1.3081384550677462e-16 0.14153416816472228 0.9899333711122822
12640736000.0 0.15370334914520728 0.9881170378357788 -6.234727703529508e-17 -1.3002569099422825e-16 -6.234727703529508e-17 -1.3002569099422825e-16 0.15370265857049784 0.9881171452556463
12641353333.333334 0.16584857204082248 0.9861512313797656 -6.394124458537852e-17 -1.292178775972535e-16 -6.394124458537852e-17 -1.292178775972535e-16 0.16584788287362193 0.9861513472820206
12641970666.666666 0.17796869029702156 0.984036150389695 -6.552477086825207e-17 -1.2839053702567512e-16 -6.552477086825207e-17 -1.2839053702567512e-16 0.17796800264150725 0.9840362747559666
12642588000.0 0.19006186928138424 0.9817721150272467 -6.70976168260961e-17 -1.275438039357302e-16 -6.70976168260961e-17 -1.275438039357302e-16 0.19006118324149437 0.9817722478378832
12643205333.333334 0.20212627843928485 0.9793594680014546 -6.865954513410501e-17 -1.2667781590823865e-16 -6.865954513410501e-17 -1.2667781590823865e-16 0.20212559411870318 0.9793596092355294
12643822666.666666 0.2141600915711793 0.9767985745167888 -7.021032023626156e-17 -1.2579271342633012e-16 -7.021032023626156e-17 -1.2579271342633012e-16 0.21415940907331898 0.9767987241521017
12644440000.0 0.22616148710873246 0.9740898222179385 -7.17497083807796e-17 -1.2488863985275982e-16 -7.17497083807796e-17 -1.2488863985275982e-16 0.2261608065367207 0.9740899802310193
12645057333.333334 0.23812864839068895 0.9712336211311013 -7.327747765527742e-17 -1.2396574140677984e-16 -7.327747765527742e-17 -1.2396574140677984e-16 0.23812796984735166 0.9712337874972157
12645674666.666666 0.2500597639378094 0.9682304036019398 -7.479339802166979e-17 -1.2302416714057324e-16 -7.479339802166979e-17 -1.2302416714057324e-16 0.250059087525655 0.96823057829509
12646292000.0 0.2619530277273765 0.9650806242300518 -7.629724135076801e-17 -1.2206406891525474e-16 -7.629724135076801e-17 -1.2206406891525474e-16 0.26195235354858143 0.9650808072229841
12646909333.333334 0.2738066394660529 0.961784759800297 -7.778878145650447e-17 -1.2108560137649317e-16 -7.778878145650447e-17 -1.2108560137649317e-16 0.27380596762244463 0.9617849510645008
12647526666.666666 0.2856188048627487 0.9583433092105262 -7.926779412994284e-17 -1.2008892192965583e-16 -7.926779412994284e-17 -1.2008892192965583e-16 0.28561813545579234 0.9583435087162454
12648144000.0 0.29738773590028084 0.9547567933960519 -8.07340571728946e-17 -1.1907419071458572e-16 -8.07340571728946e-17 -1.1907419071458572e-16 0.2973870690310622 0.9547570011122839
12648761333.333334 0.3091116511057521 0.9510257552508677 -8.218735043125669e-17 -1.1804157057994448e-16 -8.218735043125669e-17 -1.1804157057994448e-16 0.309110986874963 0.95102597114537
12649378666.666666 0.32078877582029763 0.9471507595454501 -8.362745582798316e-17 -1.1699122705717222e-16 -8.362745582798316e-17 -1.1699122705717222e-16 0.32078811432822074 0.9471509835847461
12649996000.0 0.3324173424679321 0.9431323928411989 -8.505415739577792e-17 -1.1592332833401383e-16 -8.505415739577792e-17 -1.1592332833401383e-16 0.3324166838144262 0.9431326249905829
12650613333.333334 0.34399559082286646 0.9389712634017267 -8.64672413094213e-17 -1.148380452276632e-16 -8.64672413094213e-17 -1.148380452276632e-16 0.3439949351073505 0.9389715036252683
12651230666.666666 0.35552176827592896 0.9346680011007997 -8.786649591772516e-17 -1.1373555115754174e-16 -8.786649591772516e-17 -1.1373555115754174e-16 0.35552111559736765 0.9346682493613502
12651848000.0 0.3669941301002054 0.9302232573268641 -8.925171177521482e-17 -1.126160221176297e-16 -8.925171177521482e-17 -1.126160221176297e-16 0.3669934805570941 0.9302235135860614
12652465333.333334 0.37841093971474 0.9256377048845923 -9.062268167339973e-17 -1.1147963664846114e-16 -9.062268167339973e-17 -1.1147963664846114e-16 0.3784102934050898 0.9256379691028679
12653082666.666666 0.3897704689474846 0.9209120378930147 -9.197920067168854e-17 -1.1032657580873942e-16 -9.197920067168854e-17 -1.1032657580873942e-16 0.38976982596880794 0.9209123100295992
12653700000.0 0.40107099829723564 0.9160469716803099 -9.332106612800663e-17 -1.091570231465247e-16 -9.332106612800663e-17 -1.091570231465247e-16 0.40107035874653085 0.9160472516932392
12654317333.333334 0.4123108171933898 0.9110432426757401 -9.464807772895626e-17 -1.0797116467013051e-16 -9.464807772895626e-17 -1.0797116467013051e-16 0.4123101811671269 0.9110435305218617
12654934666.666666 0.42348822425521704 0.9059016082980376 -9.596003751969931e-17 -1.0676918881857333e-16 -9.596003751969931e-17 -1.0676918881857333e-16 0.4234875918493237 0.9059019039330187
12655552000.0 0.4346015275494755 0.9006228468407134 -9.725674993340194e-17 -1.055512864317169e-16 -9.725674993340194e-17 -1.055512864317169e-16 0.4346008988593217 0.9006231502190458
12656169333.333334 0.4456490448461331 0.8952077573544243 -9.853802182032053e-17 -1.0431765072004454e-16 -9.853802182032053e-17 -1.0431765072004454e-16 0.4456484199665171 0.8952080684294323
12656786666.666666 0.45662910387337036 0.8896571595258543 -9.980366247651631e-17 -1.0306847723406749e-16 -9.980366247651631e-17 -1.0306847723406749e-16 0.45662848289850433 0.8896574782497018
12657404000.0 0.46754004257053267 0.8839718935537219 -1.0105348367216905e-16 -1.0180396383340022e-16 -1.0105348367216905e-16 -1.0180396383340022e-16 0.4675394255940289 0.8839722198774201
12658021333.333334 0.47838020933986997 0.8781528200215207 -1.0228729967952026e-16 -1.0052431065547363e-16 -1.0228729967952026e-16 -1.0052431065547363e-16 0.4783795964547263 0.8781531538949349
12658638666.666666 0.489147963296265 0.8722008197673999 -1.0350492730037533e-16 -9.922972008395667e-17 -1.0350492730037533e-16 -9.922972008395667e-17 0.4891473545948502 0.8722011611392569
12659256000.0 0.49984167451593836 0.8661167937506531 -1.0470618589327509e-16 -9.792039671677581e-17 -1.0470618589327509e-16 -9.792039671677581e-17 0.49984107008998 0.866117142568551
12659873333.333334 0.5104597242830237 0.8599016629154219 -1.0589089740021057e-16 -9.659654733386273e-17 -1.0589089740021057e-16 -9.659654733386273e-17 0.510459124223593 0.8599020191258364
12660490666.666666 0.5210005053344458 0.8535563680513785 -1.0705888637293165e-16 -9.525838086458039e-17 -1.0705888637293165e-16 -9.525838086458039e-17 0.5209999097319443 0.853556731599672
12661108000.0 0.5314624221035567 0.8470818696511154 -1.0820997999889631e-16 -9.390610835477418e-17 -1.0820997999889631e-16 -9.390610835477418e-17 0.531461831047702 0.8470822404815441
12661725333.333334 0.5418438909612681 0.8404791477649892 -1.0934400812674025e-16 -9.253994293358408e-17 -1.0934400812674025e-16 -9.253994293358408e-17 0.5418433045410809 0.8404795258207125
12662342666.666666 0.5521433404561293 0.8337492018525449 -1.1046080329137114e-16 -9.116009977990084e-17 -1.1046080329137114e-16 -9.116009977990084e-17 0.5521427587599209 0.8337495870756352
12662960000.0 0.5623592115519349 0.8268930506313945 -1.115602007386226e-16 -8.976679608854295e-17 -1.115602007386226e-16 -8.976679608854295e-17 0.5623586346672921 0.8268934429628446
12663577333.333334 0.5724899578638137 0.8199117319229536 -1.1264203844949756e-16 -8.836025103611784e-17 -1.1264203844949756e-16 -8.836025103611784e-17 0.5724893858775864 0.8199121313026853
12664194666.666666 0.5825340458923751 0.8128063024952924 -1.1370615716395623e-16 -8.694068574662359e-17 -1.1370615716395623e-16 -8.694068574662359e-17 0.5825334788906641 0.8128067088621677
12664812000.0 0.592489955255697 0.8055778379032725 -1.1475240040429605e-16 -8.550832325673802e-17 -1.1475240040429605e-16 -8.550832325673802e-17 0.5924893933238394 0.8055782511951007
12665429333.333334 0.6023561789195822 0.798227432325655 -1.1578061449809538e-16 -8.406338848082239e-17 -1.1578061449809538e-16 -8.406338848082239e-17 0.6023556221421404 0.7982278524792051
12666046666.666666 0.6121312234255226 0.7907561983995969 -1.1679064860068347e-16 -8.260610817570135e-17 -1.1679064860068347e-16 -8.260610817570135e-17 0.6121306718862692 0.7907566253506025
12666664000.0 0.6218136091170998 0.7831652670519647 -1.177823547172279e-16 -8.113671090508668e-17 -1.177823547172279e-16 -8.113671090508668e-17 0.6218130628990077 0.7831657007351396
12667281333.333334 0.6314018703635165 0.7754557873284987 -1.187555877243049e-16 -7.965542700384186e-17 -1.187555877243049e-16 -7.965542700384186e-17 0.6314013295487444 0.7754562276775429
12667898666.666666 0.640894555781739 0.7676289262196516 -1.1971020539108644e-16 -7.816248854189084e-17 -1.1971020539108644e-16 -7.816248854189084e-17 0.6408940204516205 0.7676293731672633
12668516000.0 0.6502902284562602 0.7596858684838842 -1.2064606840004046e-16 -7.665812928792478e-17 -1.2064606840004046e-16 -7.665812928792478e-17 0.6502896986912897 0.7596863219617682
12669133333.333334 0.6595874661562757 0.7516278164685982 -1.2156304036715755e-16 -7.514258467289402e-17 -1.2156304036715755e-16 -7.514258467289402e-17 0.6595869420360981 0.7516282764074784
12669750666.666666 0.6687848615512558 0.7434559899279017 -1.2246098786177091e-16 -7.361609175317602e-17 -1.2246098786177091e-16 -7.361609175317602e-17 0.6687843431546538 0.7434564562575308
