! Parameters = {f0=12700.012000; bw=77.238000; Q=6100.000000; N=10; m_0_1=1.179675; m_1_1=-1.069626; m_1_2=1.014487; m_2_2=-1.070275; m_2_3=0.651450; m_2_8=-0.003953; m_2_9=0.032751; m_3_3=-1.072212; m_3_4=0.539979; m_3_7=-0.003353; m_3_8=-0.100441; m_3_9=-0.003953; m_4_4=-1.075137; m_4_5=0.376314; m_4_6=0.000164; m_4_7=-0.120990; m_4_8=-0.003353; m_5_5=-1.074755; m_5_6=0.783669; m_5_7=0.000164; m_6_6=-1.074756; m_6_7=0.376656; m_7_7=-1.075123; m_7_8=0.540097; m_8_8=-1.072214; m_8_9=0.651763; m_9_9=-1.070280; m_9_10=1.015565; m_10_10=-1.069636; m_10_11=1.180470}
!
! Created with skrf (http://scikit-rf.org).
# Hz S RI R 50.0 
!freq ReS11 ImS11 ReS21 ImS21 ReS12 ImS12 ReS22 ImS22
12607400000.0 0.34948043738901063 -0.9369436609968784 -4.8809953484627155e-18 7.061913565637627e-17 -4.8809953484627155e-18 7.061913565637627e-17 0.34948101986536967 -0.9369434437327091
12608017333.333334 0.3421122069080568 -0.9396591072747317 -4.31918770249573e-18 7.06418305493842e-17 -4.31918770249573e-18 7.06418305493842e-17 0.3421127910439405 -0.9396588946016383
12608634666.666666 0.3347228802616683 -0.9423166099720315 -3.75732765745425e-18 7.066006035177536e-17 -3.75732765745425e-18 7.066006035177536e-17 0.3347234660208947 -0.9423164019026765
12609252000.0 0.32731291310871063 -0.944916005215351 -3.1954506661387396e-18 7.067382566308638e-17 -3.1954506661387396e-18 7.067382566308638e-17 0.3273135004550026 -0.9449158017621146
12609869333.333334 0.31988276238089003 -0.9474571327144138 -2.633592168527524e-18 7.068312736407506e-17 -2.633592168527524e-18 7.068312736407506e-17 0.31988335127787537 -0.9474569338893892
12610486666.666666 0.3124328862546012 -0.949939835771964 -2.0717875895522753e-18 7.068796661655503e-17 -2.0717875895522753e-18 7.068796661655503e-17 0.31243347666581595 -0.9499396415869581
12611104000.0 0.30496374412243354 -0.9523639612935139 -1.5100723368632175e-18 7.0688344863212e-17 -1.5100723368632175e-18 7.0688344863212e-17 0.3049643360113236 -0.9523637717600453
12611721333.333334 0.29747579656511136 -0.9547293597966919 -9.484817986164424e-19 7.068426382740316e-17 -9.484817986164424e-19 7.068426382740316e-17 0.29747638989503516 -0.9547291749259915
12612338666.666666 0.2899695053229842 -0.9570358854204953 -3.8705134124519234e-19 7.06757255129383e-17 -3.8705134124519234e-19 7.06757255129383e-17 0.28997010005721535 -0.9570357052235071
12612956000.0 0.2824453332674746 -0.959283395934316 1.741836927665839e-19 7.066273220384394e-17 1.741836927665839e-19 7.066273220384394e-17 0.2824459293692034 -0.959283220421693
12613573333.333334 0.2749037443726955 -0.9614717527466521 7.351879870902335e-19 7.06452864641097e-17 7.351879870902335e-19 7.06452864641097e-17 0.27490434180503154 -0.9614715819287589
12614190666.666666 0.26734520368673304 -0.9636008209136954 1.295926253775969e-18 7.062339113741674e-17 1.295926253775969e-18 7.062339113741674e-17 0.26734580241270745 -0.9636006548006043
12614808000.0 0.2597701773030225 -0.9656704691476301 1.8563632354637404e-18 7.059704934684939e-17 1.8563632354637404e-18 7.059704934684939e-17 0.25977077728559045 -0.9656703077491239
12615425333.333334 0.2521791323314987 -0.9676805698247639 2.416463707591313e-18 7.056626449458871e-17 2.416463707591313e-18 7.056626449458871e-17 0.25217973353354134 -0.9676804131503332
12616042666.666666 0.2445725368699558 -0.9696309989933504 2.9761924806094455e-18 7.053104026158874e-17 2.9761924806094455e-18 7.053104026158874e-17 0.2445731392542828 -0.9696308470521933
12616660000.0 0.2369508599750994 -0.9715216363812538 3.5355144021739354e-18 7.049138060723545e-17 3.5355144021739354e-18 7.049138060723545e-17 0.23695146350445118 -0.971521489182276
12617277333.333334 0.22931457163351326 -0.9733523654033956 4.094394359354519e-18 7.044728976898821e-17 4.094394359354519e-18 7.044728976898821e-17 0.2293151762705633 -0.9733522229552102
12617894666.666666 0.22166414273298102 -0.9751230731688696 4.652797280828417e-18 7.03987722620042e-17 4.652797280828417e-18 7.03987722620042e-17 0.22166474844033784 -0.9751229354797936
12618512000.0 0.21400004503306172 -0.9768336504879919 5.2106881390823506e-18 7.034583287874407e-17 5.2106881390823506e-18 7.034583287874407e-17 0.2140006517732719 -0.9768335175660502
12619129333.333334 0.20632275113630366 -0.9784839918789653 5.7680319525909975e-18 7.028847668856263e-17 5.7680319525909975e-18 7.028847668856263e-17 0.20632335887185374 -0.978483863731888
12619746666.666666 0.19863273445899154 -0.9800739955744114 6.32479378800967e-18 7.022670903728042e-17 6.32479378800967e-18 7.022670903728042e-17 0.1986333431523103 -0.9800738722096332
12620364000.0 0.19093046920186918 -0.9816035635276606 6.880938762363063e-18 7.016053554673789e-17 6.880938762363063e-18 7.016053554673789e-17 0.19093107881532986 -0.9816034449523201
12620981333.333334 0.18321643032106516 -0.9830726014187632 7.436432045212073e-18 7.008996211433453e-17 7.436432045212073e-18 7.008996211433453e-17 0.1832170408169881 -0.9830724876397032
12621598666.666666 0.17549109349869407 -0.98448101866033 7.991238860836349e-18 7.001499491254823e-17 7.991238860836349e-18 7.001499491254823e-17 0.17549170483934884 -0.9844809096840967
12622216000.0 0.16775493511355125 -0.9858287284031119 8.545324490400593e-18 6.993564038843902e-17 8.545324490400593e-18 6.993564038843902e-17 0.16775554726115918 -0.9858286242359557
12622833333.333334 0.16000843221173747 -0.9871156475413564 9.098654274130402e-18 6.985190526313443e-17 9.098654274130402e-18 6.985190526313443e-17 0.16000904512847347 -0.9871155481892289
12623450666.666666 0.15225206247724143 -0.9883416967179286 9.65119361345366e-18 6.976379653130088e-17 9.65119361345366e-18 6.976379653130088e-17 0.15225267612523727 -0.9883416021864868
12624068000.0 0.14448630420251307 -0.9895068003292078 1.0202907973173058e-17 6.967132146059394e-17 1.0202907973173058e-17 6.967132146059394e-17 0.14448691854385862 -0.9895067106238081
12624685333.333334 0.13671163625885613 -0.9906108865297588 1.0753762883625685e-17 6.957448759109186e-17 1.0753762883625685e-17 6.957448759109186e-17 0.1367122512556023 -0.99061080165546
12625302666.666666 0.12892853806709614 -0.9916538872367359 1.1303723942798234e-17 6.947330273471911e-17 1.1303723942798234e-17 6.947330273471911e-17 0.12892915368125737 -0.9916538071982998
12625920000.0 0.12113748956776417 -0.992635738134119 1.185275681850422e-17 6.936777497464167e-17 1.185275681850422e-17 6.936777497464167e-17 0.12113810576132038 -0.9926356629360076
12626537333.333334 0.11333897119181101 -0.9935563786766354 1.2400827250498705e-17 6.925791266465517e-17 1.2400827250498705e-17 6.925791266465517e-17 0.11333958792671008 -0.9935563083230118
12627154666.666666 0.10553346383072827 -0.9944157520935275 1.2947901052609442e-17 6.914372442855278e-17 1.2947901052609442e-17 6.914372442855278e-17 0.1055340810688885 -0.9944156865882561
12627772000.0 0.09772144880689412 -0.9952138053920517 1.3493944114880065e-17 6.902521915947244e-17 1.3493944114880065e-17 6.902521915947244e-17 0.09772206651020658 -0.9952137447386983
12628389333.333334 0.08990340784420388 -0.9959504893607141 1.403892240566853e-17 6.890240601923557e-17 1.403892240566853e-17 6.890240601923557e-17 0.08990402597453453 -0.9959504335625435
12629006666.666666 0.08207982303785562 -0.9966257585723561 1.4582801973778807e-17 6.877529443766053e-17 1.4582801973778807e-17 6.877529443766053e-17 0.08208044155704776 -0.9966257076323327
12629624000.0 0.0742511768251026 -0.9972395713869042 1.512554895055363e-17 6.864389411186718e-17 1.512554895055363e-17 6.864389411186718e-17 0.0742517956949796 -0.997239525307696
12630241333.333334 0.06641795195525019 -0.9977918899539707 1.566712955199427e-17 6.850821500555716e-17 1.566712955199427e-17 6.850821500555716e-17 0.06641857113761739 -0.9977918487379448
12630858666.666666 0.05858063145997193 -0.9982826802151784 1.6207510080833324e-17 6.836826734828721e-17 1.6207510080833324e-17 6.836826734828721e-17 0.05858125091661891 -0.9982826438643979
12631476000.0 0.050739698623381305 -0.99871191190626 1.674665692865162e-17 6.822406163471363e-17 1.674665692865162e-17 6.822406163471363e-17 0.05074031831608476 -0.998711880422492
12632093333.333334 0.04289563695251491 -0.9990795585589204 1.7284536577942365e-17 6.807560862383238e-17 1.7284536577942365e-17 6.807560862383238e-17 0.042896256843040596 -0.9990795319436306
12632710666.666666 0.03504893014726121 -0.9993855975024757 1.782111560418602e-17 6.7922919338198e-17 1.782111560418602e-17 6.7922919338198e-17 0.03504955019736645 -0.9993855757568295
12633328000.0 0.027200062070562133 -0.9996300098652537 1.8356360677945604e-17 6.776600506311937e-17 1.8356360677945604e-17 6.776600506311937e-17 0.02720068224199812 -0.9996299929901152
12633945333.333334 0.019349516718717624 -0.9998127805757434 1.8890238566899157e-17 6.760487734585349e-17 1.8890238566899157e-17 6.760487734585349e-17 0.019350136973231857 -0.9998127685716787
12634562666.666666 0.011497778191455399 -0.999933898363541 1.9422716137911762e-17 6.74395479947719e-17 1.9422716137911762e-17 6.74395479947719e-17 0.011498398490793931 -0.9999338912308126
12635180000.0 0.0036453306619936687 -0.9999933557600338 1.9953760359088652e-17 6.727002907851268e-17 1.9953760359088652e-17 6.727002907851268e-17 0.003645950967903569 -0.999993353498606
12635797333.333334 -0.00420734165267293 -0.9999911490988638 2.048333830180793e-17 6.709633292512113e-17 2.048333830180793e-17 6.709633292512113e-17 -0.004206721378441268 -0.9999911517083997
12636414666.666666 -0.012059754521603903 -0.9999272785161563 2.1011417142753605e-17 6.691847212117189e-17 2.1011417142753605e-17 6.691847212117189e-17 -0.012059134317294402 -0.9999272859960197
12637032000.0 -0.01991142373002855 -0.9998017479505078 2.1537964165960212e-17 6.673645951086944e-17 2.1537964165960212e-17 6.673645951086944e-17 -0.019910803633877077 -0.9998017602997614
12637649333.333334 -0.027761865108920588 -0.9996145651427462 2.206294676481375e-17 6.655030819514383e-17 2.206294676481375e-17 6.655030819514383e-17 -0.0277612451591526 -0.9996145823601522
12638266666.666666 -0.0356105945649679 -0.999365741635452 2.25863324440715e-17 6.636003153072212e-17 2.25863324440715e-17 6.636003153072212e-17 -0.0356099747997961 -0.9993657637194732
12638884000.0 -0.04345712811050908 -0.9990552927722449 2.310808882187223e-17 6.616564312918493e-17 2.310808882187223e-17 6.616564312918493e-17 -0.043456508568131026 -0.9990553197210434
12639501333.333334 -0.05130098189323609 -0.9986832376968371 2.3628183631723165e-17 6.596715685601181e-17 2.3628183631723165e-17 6.596715685601181e-17 -0.05130036261183197 -0.9986832695082775
12640118666.666666 -0.05914167222597443 -0.9982495993518671 2.4146584724484943e-17 6.576458682961018e-17 2.4146584724484943e-17 6.576458682961018e-17 -0.059141053243704486 -0.9982496360235117
12640736000.0 -0.06697871561690633 -0.997754404477453 2.4663260070377842e-17 6.555794742031631e-17 2.4663260070377842e-17 6.555794742031631e-17 -0.06697809697190871 -0.997754446006566
12641353333.333334 -0.07481162879881785 -0.9971976836095824 2.5178177760916778e-17 6.534725324940587e-17 2.5178177760916778e-17 6.534725324940587e-17 -0.07481101052920608 -0.9971977299931278
12641970666.666666 -0.08263992875929607 -0.9965794710782008 2.5691306010900756e-17 6.513251918806405e-17 2.5691306010900756e-17 6.513251918806405e-17 -0.08263931090315699 -0.9965795223128454
12642588000.0 -0.09046313277045762 -0.9958998050051032 2.620261316036425e-17 6.491376035635198e-17 2.620261316036425e-17 6.491376035635198e-17 -0.09046251536584873 -0.995899861087214
12643205333.333334 -0.09828075841854526 -0.9951587273015918 2.6712067676512645e-17 6.469099212216145e-17 2.6712067676512645e-17 6.469099212216145e-17 -0.09828014150349246 -0.9951587882272364
12643822666.666666 -0.10609232363390242 -0.9943562836658738 2.7219638155672637e-17 6.446423010014388e-17 2.7219638155672637e-17 6.446423010014388e-17 -0.10609170724639781 -0.9943563494308226
12644440000.0 -0.1138973467205017 -0.9934925235802619 2.7725293325217332e-17 6.423349015063132e-17 2.7725293325217332e-17 6.423349015063132e-17 -0.11389673089850118 -0.9934925941799879
12645057333.333334 -0.12169534638578997 -0.9925675003081106 2.822900204547513e-17 6.399878837854594e-17 2.822900204547513e-17 6.399878837854594e-17 -0.1216947311672107 -0.9925675757377874
12645674666.666666 -0.129485841770197 -0.9915812708905465 2.873073331165484e-17 6.376014113228293e-17 2.873073331165484e-17 6.376014113228293e-17 -0.12948522719291544 -0.9915813511450522
12646292000.0 -0.13726835247707062 -0.9905338961429235 2.9230456255747043e-17 6.351756500258493e-17 2.9230456255747043e-17 6.351756500258493e-17 -0.13726773857891963 -0.9905339812168369
12646909333.333334 -0.1450423986020165 -0.9894254406510993 2.9728140148397975e-17 6.327107682141008e-17 2.9728140148397975e-17 6.327107682141008e-17 -0.14504178542078394 -0.989425530538706
12647526666.666666 -0.15280750076260594 -0.9882559727674479 3.0223754400815655e-17 6.302069366076628e-17 3.0223754400815655e-17 6.302069366076628e-17 -0.15280688833603123 -0.9882560674627338
12648144000.0 -0.1605631801279914 -0.9870255646066293 3.071726856663004e-17 6.27664328315471e-17 3.071726856663004e-17 6.27664328315471e-17 -0.16056256849376405 -0.9870256641032864
12648761333.333334 -0.16830895844840543 -0.9857342920411466 3.1208652343754575e-17 6.250831188234847e-17 3.1208652343754575e-17 6.250831188234847e-17 -0.16830834764416247 -0.9857343963325719
12649378666.666666 -0.17604435808448435 -0.9843822346967005 3.1697875576245046e-17 6.224634859826748e-17 3.1697875576245046e-17 6.224634859826748e-17 -0.1760437481478076 -0.9843823437759938
12649996000.0 -0.18376890203694482 -0.9829694759472364 3.2184908256141183e-17 6.198056099968972e-17 3.2184908256141183e-17 6.198056099968972e-17 -0.1837682930053593 -0.982969589807205
12650613333.333334 -0.19148211397599796 -0.9814961029098036 3.2669720525300034e-17 6.171096734106166e-17 3.2669720525300034e-17 6.171096734106166e-17 -0.19148150588696902 -0.9814962215429596
12651230666.666666 -0.19918351827044273 -0.9799622064392365 3.315228267721785e-17 6.143758610965022e-17 3.315228267721785e-17 6.143758610965022e-17 -0.19918291116137418 -0.9799623298377996
12651848000.0 -0.20687264001738614 -0.9783678811224769 3.3632565158849615e-17 6.116043602428217e-17 3.3632565158849615e-17 6.116043602428217e-17 -0.20687203392561754 -0.978368009278373
12652465333.333334 -0.21454900507122124 -0.9767132252728014 3.411053857240155e-17 6.087953603408027e-17 3.411053857240155e-17 6.087953603408027e-17 -0.2145484000340257 -0.9767133581776634
12653082666.666666 -0.2222121400729761 -0.9749983409237352 3.458617367712852e-17 6.059490531717614e-17 3.458617367712852e-17 6.059490531717614e-17 -0.22221153612755826 -0.974998478568905
12653700000.0 -0.22986157247961514 -0.97322333382274 3.505944139112226e-17 6.030656327940799e-17 3.505944139112226e-17 6.030656327940799e-17 -0.22986096966310837 -0.9732234761992666
12654317333.333334 -0.23749683059287163 -0.9713883134247544 3.553031279306358e-17 6.001452955301992e-17 3.553031279306358e-17 6.001452955301992e-17 -0.23749622894233666 -0.9713884605233983
12654934666.666666 -0.24511744358869728 -0.9694933928853722 3.59987591240046e-17 5.971882399532306e-17 3.59987591240046e-17 5.971882399532306e-17 -0.24511684314111873 -0.9694935446966014
12655552000.0 -0.2527229415461263 -0.9675386890538907 3.646475178910744e-17 5.941946668736204e-17 3.646475178910744e-17 5.941946668736204e-17 -0.25272234233841145 -0.9675388455678852
12656169333.333334 -0.2603128554760899 -0.965524322466158 3.692826235937255e-17 5.911647793256876e-17 3.692826235937255e-17 5.911647793256876e-17 -0.26031225754506554 -0.9655244836728071
12656786666.666666 -0.26788671735069286 -0.9634504173370418 3.7389262573387446e-17 5.880987825538224e-17 3.7389262573387446e-17 5.880987825538224e-17 -0.26788612073310375 -0.9634505832259475
12657404000.0 -0.2754440601317718 -0.9613171015528506 3.784772433902382e-17 5.849968839988006e-17 3.784772433902382e-17 5.849968839988006e-17 -0.27544346486427845 -0.961317272113328
12658021333.333334 -0.2829844177998335 -0.9591245066634144 3.830361973515064e-17 5.818592932838051e-17 3.830361973515064e-17 5.818592932838051e-17 -0.28298382391900906 -0.9591246818844902
12658638666.666666 -0.2905073253827354 -0.9568727678739835 3.875692101332369e-17 5.786862222003818e-17 3.875692101332369e-17 5.786862222003818e-17 -0.290506732925064 -0.9568729477443983
12659256000.0 -0.2980123189844675 -0.9545620240368611 3.9207600599473485e-17 5.754778846942008e-17 3.9207600599473485e-17 5.754778846942008e-17 -0.2980117279863422 -0.9545622085450706
12659873333.333334 -0.305498935813595 -0.9521924176428893 3.965563109556529e-17 5.722344968507984e-17 3.965563109556529e-17 5.722344968507984e-17 -0.3054983463113152 -0.952192606777064
12660490666.666666 -0.3129667142118774 -0.9497640948126382 4.010098528126232e-17 5.689562768810946e-17 4.010098528126232e-17 5.689562768810946e-17 -0.31296612624164694 -0.949764288560665
12661108000.0 -0.32041519368284527 -0.9472772052873609 4.054363611557799e-17 5.656434451067586e-17 4.054363611557799e-17 5.656434451067586e-17 -0.32041460728076987 -0.9472774036368432
12661725333.333334 -0.3278439149199254 -0.9447319024198473 4.098355673849281e-17 5.622962239456312e-17 4.098355673849281e-17 5.622962239456312e-17 -0.32784333012201067 -0.9447321053581059
12662342666.666666 -0.33525241983500803 -0.9421283431648894 4.1420720472598954e-17 5.589148378967254e-17 4.1420720472598954e-17 5.589148378967254e-17 -0.3352518366771566 -0.9421285506789623
12662960000.0 -0.3426402515866654 -0.9394666880696066 4.185510082469276e-17 5.554995135253939e-17 4.185510082469276e-17 5.554995135253939e-17 -0.34263967010467566 -0.9394669001462521
12663577333.333334 -0.35000695460818915 -0.9367471012635956 4.2286671487379014e-17 5.520504794481978e-17 4.2286671487379014e-17 5.520504794481978e-17 -0.35000637483775304 -0.9367473178892924
12664194666.666666 -0.35735207463576507 -0.9339697504487835 4.271540634066118e-17 5.4856796631766126e-17 4.271540634066118e-17 5.4856796631766126e-17 -0.357351496612465 -0.9339699716097303
12664812000.0 -0.364675158736562 -0.931134806889052 4.314127945350502e-17 5.450522068070126e-17 4.314127945350502e-17 5.450522068070126e-17 -0.36467458249586937 -0.9311350325711695
12665429333.333334 -0.3719757553365299 -0.9282424453997279 4.3564265085405516e-17 5.415034355946844e-17 4.3564265085405516e-17 5.415034355946844e-17 -0.37197518091380277 -0.9282426755886592
12666046666.666666 -0.37925341424819375 -0.9252928443368271 4.398433768793189e-17 5.379218893487676e-17 4.398433768793189e-17 5.379218893487676e-17 -0.37925284167867485 -0.9252930790179397
12666664000.0 -0.38650768669878355 -0.9222861855859076 4.440147190626857e-17 5.3430780671126405e-17 4.440147190626857e-17 5.3430780671126405e-17 -0.38650711601759735 -0.9222864247442921
12667281333.333334 -0.3937381253573798 -0.9192226545510644 4.4815642580729e-17 5.306614282823584e-17 4.4815642580729e-17 5.306614282823584e-17 -0.39373755659953114 -0.9192228981715371
12667898666.666666 -0.4009442843628665 -0.9161024401433484 4.522682474826947e-17 5.2698299660444884e-17 4.522682474826947e-17 5.2698299660444884e-17 -0.4009437175632386 -0.916102688210453
12668516000.0 -0.4081257193513733 -0.9129257347691392 4.5634993643990267e-17 5.232727561460656e-17 4.5634993643990267e-17 5.232727561460656e-17 -0.40812515454472503 -0.9129259872671461
12669133333.333334 -0.4152819874835447 -0.9096927343183335 4.604012470261039e-17 5.19530953285792e-17 4.604012470261039e-17 5.19530953285792e-17 -0.4152814247045085 -0.9096929912312413
12669750666.666666 -0.4224126474719271 -0.9064036381522343 4.644219355994366e-17 5.1575783629593725e-17 4.644219355994366e-17 5.1575783629593725e-17 -0.42241208675500697 -0.9064038994637708
12670368000.0 -0.4295172596082825 -0.9030586490912087 4.684117605435454e-17 5.1195365532616556e-17 4.684117605435454e-17 5.1195365532616556e-17 -0.4295167009878526 -0.9030589147848332
