! Parameters = {f0=12700.012000; bw=77.238000; Q=6100.000000; N=10; m_0_1=1.157452; m_1_1=-1.402959; m_1_2=0.992264; m_2_2=-1.403608; m_2_3=0.629227; m_2_8=-0.005064; m_2_9=0.031640; m_3_3=-1.405545; m_3_4=0.517756; m_3_7=-0.004464; m_3_8=-0.101552; m_3_9=-0.005064; m_4_4=-1.408470; m_4_5=0.354091; m_4_6=-0.000947; m_4_7=-0.122101; m_4_8=-0.004464; m_5_5=-1.408088; m_5_6=0.761446; m_5_7=-0.000947; m_6_6=-1.408089; m_6_7=0.354433; m_7_7=-1.408456; m_7_8=0.517874; m_8_8=-1.405547; m_8_9=0.629540; m_9_9=-1.403613; m_9_10=0.993342; m_10_10=-1.402969; m_10_11=1.158247}
!
! Created with skrf (http://scikit-rf.org).
# Hz S RI R 50.0 
!freq ReS11 ImS11 ReS21 ImS21 ReS12 ImS12 ReS22 ImS22
12607400000.0 0.9376862482674658 -0.3474830928404112 -5.0421328012274774e-17 3.776824195829829e-17 -5.0421328012274774e-17 3.776824195829829e-17 0.9376864602333088 -0.34748252084814407
12608017333.333334 0.9351615938974236 -0.3542213902336848 -5.013504972755272e-17 3.812705741477041e-17 -5.013504972755272e-17 3.812705741477041e-17 0.9351618099630715 -0.354220819809403
12608634666.666666 0.9325885182341509 -0.36094134656157884 -4.98462223610323e-17 3.8483708486922274e-17 -4.98462223610323e-17 3.8483708486922274e-17 0.932588738388015 -0.36094077773466304
12609252000.0 0.9299671545077687 -0.3676426138746395 -4.955486223711254e-17 3.8838177098092935e-17 -4.955486223711254e-17 3.8838177098092935e-17 0.9299673787380514 -0.3676420466743854
12609869333.333334 0.9272976384486752 -0.37432484519113135 -4.9260985808140246e-17 3.9190445294468644e-17 -4.9260985808140246e-17 3.9190445294468644e-17 0.9272978667433663 -0.37432427964674647
12610486666.666666 0.9245801082805534 -0.3809876945148945 -4.896460965349325e-17 3.9540495245979854e-17 -4.896460965349325e-17 3.9540495245979854e-17 0.9245803406274351 -0.3809871306554985
12611104000.0 0.9218147047131452 -0.38763081685344675 -4.866575047863881e-17 3.988830924721318e-17 -4.866575047863881e-17 3.988830924721318e-17 0.921814941099791 -0.38763025470806906
12611721333.333334 0.9190015709350507 -0.3942538682356361 -4.8364425114214804e-17 4.023386971828239e-17 -4.8364425114214804e-17 4.023386971828239e-17 0.9190018113488254 -0.39425330783321433
12612338666.666666 0.9161408526062472 -0.4008565057296074 -4.80606505150753e-17 4.057715920572619e-17 -4.80606505150753e-17 4.057715920572619e-17 0.9161410970343095 -0.40085594709898664
12612956000.0 0.913232697850537 -0.4074383874605863 -4.775444375934764e-17 4.091816038337874e-17 -4.775444375934764e-17 4.091816038337874e-17 0.9132329462798374 -0.4074378306305164
12613573333.333334 0.9102772572479771 -0.41399917262834474 -4.7445822047482206e-17 4.1256856053234637e-17 -4.7445822047482206e-17 4.1256856053234637e-17 0.910277509665261 -0.4139986176274796
12614190666.666666 0.907274683826959 -0.420538521525134 -4.7134802701285286e-17 4.159322914631842e-17 -4.7134802701285286e-17 4.159322914631842e-17 0.9072749402187674 -0.4205379683820306
12614808000.0 0.9042251330563889 -0.42705609555304114 -4.6821403162957974e-17 4.192726272353401e-17 -4.6821403162957974e-17 4.192726272353401e-17 0.9042253934090584 -0.42705554429615744
12615425333.333334 0.9011287628375582 -0.43355155724170324 -4.650564099412278e-17 4.225893997651308e-17 -4.650564099412278e-17 4.225893997651308e-17 0.9011290271372197 -0.4335510078993959
12616042666.666666 0.8979857334960073 -0.4400245702656744 -4.6187533874845865e-17 4.2588244228455295e-17 -4.6187533874845865e-17 4.2588244228455295e-17 0.8979860017285904 -0.4400240228661988
12616660000.0 0.894796207773221 -0.4464747994618695 -4.586709960265321e-17 4.291515893496109e-17 -4.586709960265321e-17 4.291515893496109e-17 0.8947964799244532 -0.4464742540333779
12617277333.333334 0.8915603508181839 -0.4529019108469421 -4.5544356091539465e-17 4.323966768485814e-17 -4.5544356091539465e-17 4.323966768485814e-17 0.8915606268735901 -0.4529013674174814
12617894666.666666 0.8882783301788815 -0.459305571634476 -4.521932137097773e-17 4.356175420101443e-17 -4.521932137097773e-17 4.356175420101443e-17 0.8882786101237867 -0.4593050302319872
12618512000.0 0.8849503157935362 -0.4656854502523948 -4.48920135849095e-17 4.3881402341157813e-17 -4.48920135849095e-17 4.3881402341157813e-17 0.8849505996130654 -0.46568491090471126
12619129333.333334 0.88157647998191 -0.4720412163599271 -4.456245099074779e-17 4.419859609866883e-17 -4.456245099074779e-17 4.419859609866883e-17 0.8815767676609897 -0.47204067909477315
12619746666.666666 0.8781569974363063 -0.47837254086486314 -4.423065195835728e-17 4.451331960338409e-17 -4.423065195835728e-17 4.451331960338409e-17 0.8781572889596637 -0.4783720057098526
12620364000.0 0.8746920452125068 -0.4846790959406189 -4.389663496903458e-17 4.4825557122385336e-17 -4.389663496903458e-17 4.4825557122385336e-17 0.8746923405646715 -0.4846785629232532
12620981333.333334 0.8711818027207282 -0.49096055504298536 -4.3560418614496596e-17 4.5135293060769005e-17 -4.3560418614496596e-17 4.5135293060769005e-17 0.8711821018860332 -0.49096002419065266
12621598666.666666 0.8676264517161957 -0.4972165929272862 -4.32220215958385e-17 4.544251196243145e-17 -4.32220215958385e-17 4.544251196243145e-17 0.8676267546787787 -0.49721606426726034
12622216000.0 0.864026176289785 -0.5034468856651187 -4.288146272250552e-17 4.574719851082763e-17 -4.288146272250552e-17 4.574719851082763e-17 0.8640264830335882 -0.5034463592245569
12622833333.333334 0.860381162858523 -0.5096511106610777 -4.253876091125113e-17 4.6049337529731687e-17 -4.253876091125113e-17 4.6049337529731687e-17 0.8603814733672943 -0.50965058646702
12623450666.666666 0.8566916001559022 -0.5158289466695071 -4.219393518509543e-17 4.634891398398257e-17 -4.219393518509543e-17 4.634891398398257e-17 0.8566919144131971 -0.5158284247488746
12624068000.0 0.8529576792220993 -0.5219800738111606 -4.184700467227393e-17 4.6645912980227606e-17 -4.184700467227393e-17 4.6645912980227606e-17 0.852957997211279 -0.5219795541907531
12624685333.333334 0.8491795933940472 -0.5281041735898088 -4.1497988605172584e-17 4.694031976766474e-17 -4.1497988605172584e-17 4.694031976766474e-17 0.849179915098283 -0.5281036562963056
12625302666.666666 0.845357538295562 -0.5342009289085156 -4.1146906319286223e-17 4.7232119738752736e-17 -4.1146906319286223e-17 4.7232119738752736e-17 0.8453578636978342 -0.5342004139684726
12625920000.0 0.8414917118270654 -0.5402700240862983 -4.0793777252131205e-17 4.7521298429947976e-17 -4.0793777252131205e-17 4.7521298429947976e-17 0.8414920409101636 -0.5402695115261469
12626537333.333334 0.8375823141553929 -0.5463111448743752 -4.043862094219387e-17 4.780784152239904e-17 -4.043862094219387e-17 4.780784152239904e-17 0.8375826469019189 -0.5463106347204206
12627154666.666666 0.8336295477034812 -0.5523239784723667 -4.008145702784712e-17 4.8091734842656384e-17 -4.008145702784712e-17 4.8091734842656384e-17 0.8336298840958485 -0.5523234707507876
12627772000.0 0.8296336171397749 -0.5583082135446576 -3.972230524626137e-17 4.8372964363373355e-17 -3.972230524626137e-17 4.8372964363373355e-17 0.8296339571602099 -0.5583077082815038
12628389333.333334 0.8255947293677727 -0.5642635402363051 -3.936118543233769e-17 4.8651516203978666e-17 -3.936118543233769e-17 4.8651516203978666e-17 0.8255950729983154 -0.5642630374574965
12629006666.666666 0.8215130935151377 -0.5701896501893413 -3.899811751760228e-17 4.892737663136676e-17 -3.899811751760228e-17 4.892737663136676e-17 0.8215134407376431 -0.5701891499206669
12629624000.0 0.8173889209230122 -0.5760862365585275 -3.8633121529119065e-17 4.920053206056326e-17 -3.8633121529119065e-17 4.920053206056326e-17 0.8173892717191517 -0.5760857388256438
12630241333.333334 0.8132224251350626 -0.581952994027267 -3.8266217588387465e-17 4.947096905538921e-17 -3.8266217588387465e-17 4.947096905538921e-17 0.8132227794863246 -0.5819524988556974
12630858666.666666 0.8090138218863393 -0.5877896188235313 -3.7897425910245686e-17 4.9738674329110143e-17 -3.7897425910245686e-17 4.9738674329110143e-17 0.8090141797740281 -0.5877891262386623
12631476000.0 0.8047633290921524 -0.5935958087355155 -3.752676680174662e-17 5.000363474509365e-17 -3.752676680174662e-17 5.000363474509365e-17 0.8047636904973924 -0.5935953187625985
12632093333.333334 0.8004711668368236 -0.5993712631272426 -3.7154260661063664e-17 5.026583731743364e-17 -3.7154260661063664e-17 5.026583731743364e-17 0.8004715317405601 -0.599370775791392
12632710666.666666 0.7961375573622803 -0.6051156829541572 -3.67799279763649e-17 5.052526921158626e-17 -3.67799279763649e-17 5.052526921158626e-17 0.7961379257452763 -0.6051151982803461
12633328000.0 0.7917627250564344 -0.6108287707787379 -3.6403789324682925e-17 5.0781917744997477e-17 -3.6403789324682925e-17 5.0781917744997477e-17 0.7917630968992766 -0.6108282887918008
12633945333.333334 0.7873468964417084 -0.616510230785722 -3.602586537080764e-17 5.103577038770245e-17 -3.602586537080764e-17 5.103577038770245e-17 0.7873472717248071 -0.6165097515103526
12634562666.666666 0.7828903001632886 -0.6221597687974452 -3.564617686614058e-17 5.128681476294207e-17 -3.564617686614058e-17 5.128681476294207e-17 0.7828906788668762 -0.6221592922581927
12635180000.0 0.7783931669771981 -0.6277770922891839 -3.5264744647567727e-17 5.153503864775362e-17 -3.5264744647567727e-17 5.153503864775362e-17 0.7783935490813326 -0.6277766185104543
12635797333.333334 0.7738557297383996 -0.6333619104042351 -3.488158963631837e-17 5.1780429973561126e-17 -3.488158963631837e-17 5.1780429973561126e-17 0.7738561152229657 -0.6333614394102894
12636414666.666666 0.7692782233887959 -0.6389139339689119 -3.4496732836828886e-17 5.2022976826750955e-17 -3.4496732836828886e-17 5.2022976826750955e-17 0.7692786122335037 -0.6389134657838639
12637032000.0 0.7646608849449537 -0.6444328755076462 -3.411019533558737e-17 5.226266744924869e-17 -3.411019533558737e-17 5.226266744924869e-17 0.7646612771293417 -0.6444324101554618
12637649333.333334 0.7600039534859055 -0.649918449257788 -3.3721998299989526e-17 5.2499490239077926e-17 -3.3721998299989526e-17 5.2499490239077926e-17 0.7600043489893417 -0.6499179867622843
12638266666.666666 0.7553076701407316 -0.6553703711844426 -3.3332162977183184e-17 5.273343375091548e-17 -3.3332162977183184e-17 5.273343375091548e-17 0.7553080689424141 -0.655369911569287
12638884000.0 0.7505722780761513 -0.6607883589950947 -3.294071069290897e-17 5.296448669663786e-17 -3.294071069290897e-17 5.296448669663786e-17 0.7505726801551099 -0.660787902283803
12639501333.333334 0.745798022483802 -0.6661721321543737 -3.254766285034337e-17 5.3192637945855655e-17 -3.254766285034337e-17 5.3192637945855655e-17 0.7457984278188985 -0.6661716783703088
12640118666.666666 0.7409851505677287 -0.6715214118983656 -3.215304092893368e-17 5.341787652644209e-17 -3.215304092893368e-17 5.341787652644209e-17 0.7409855591376576 -0.6715209610647362
12640736000.0 0.7361339115312642 -0.6768359212494081 -3.1756866483210815e-17 5.364019162506371e-17 -3.1756866483210815e-17 5.364019162506371e-17 0.7361343233145561 -0.6768354733892687
12641353333.333334 0.7312445565645818 -0.6821153850299247 -3.135916114165237e-17 5.3859572587671195e-17 -3.135916114165237e-17 5.3859572587671195e-17 0.7312449715396017 -0.6821149401661729
12641970666.666666 0.7263173388312879 -0.687359529877116 -3.0959946605474664e-17 5.4076008920020583e-17 -3.0959946605474664e-17 5.4076008920020583e-17 0.7263177569762385 -0.6873590880324926
12642588000.0 0.7213525134554867 -0.692568084256924 -3.055924464746902e-17 5.42894902881586e-17 -3.055924464746902e-17 5.42894902881586e-17 0.7213529347484084 -0.692567645454011
12643205333.333334 0.7163503375086283 -0.6977407784780313 -3.015707711081618e-17 5.450000651890955e-17 -3.015707711081618e-17 5.450000651890955e-17 0.7163507619274004 -0.6977403427392507
12643822666.666666 0.7113110699960015 -0.7028773447060296 -2.975346590790067e-17 5.4707547600352e-17 -2.975346590790067e-17 5.4707547600352e-17 0.7113114975183444 -0.7028769120536431
12644440000.0 0.7062349718435009 -0.7079775169771035 -2.934843301912022e-17 5.4912103682287383e-17 -2.934843301912022e-17 5.4912103682287383e-17 0.7062354024469759 -0.7079770874332106
12645057333.333334 0.7011223058840766 -0.7130410312118436 -2.894200049169856e-17 5.511366507669687e-17 -2.894200049169856e-17 5.511366507669687e-17 0.7011227395460887 -0.7130406047983817
12645674666.666666 0.6959733368441279 -0.718067625228922 -2.853419043848869e-17 5.531222225819247e-17 -2.853419043848869e-17 5.531222225819247e-17 0.6959737735419247 -0.7180672019676628
12646292000.0 0.6907883313296512 -0.7230570387588042 -2.8125025036763503e-17 5.550776586446386e-17 -2.8125025036763503e-17 5.550776586446386e-17 0.690788771040325 -0.723056618671354
12646909333.333334 0.6855675578126784 -0.7280090134569861 -2.7714526527035504e-17 5.570028669670121e-17 -2.7714526527035504e-17 5.570028669670121e-17 0.6855680005131695 -0.7280085965647862
12647526666.666666 0.6803112866172586 -0.7329232929174947 -2.7302717211836875e-17 5.588977572002679e-17 -2.7302717211836875e-17 5.588977572002679e-17 0.6803117322843536 -0.7329228792418183
12648144000.0 0.6750197899053543 -0.7377996226862588 -2.6889619454512602e-17 5.607622406390977e-17 -2.6889619454512602e-17 5.607622406390977e-17 0.6750202385156879 -0.7377992122482092
12648761333.333334 0.6696933416629132 -0.742637750274126 -2.64752556780254e-17 5.62596230225658e-17 -2.64752556780254e-17 5.62596230225658e-17 0.6696937931929714 -0.7426373430946385
12649378666.666666 0.6643322176856654 -0.7474374251699606 -2.605964836372588e-17 5.643996405536243e-17 -2.605964836372588e-17 5.643996405536243e-17 0.6643326721117848 -0.7474370212697996
12649996000.0 0.6589366955647353 -0.7521983988537082 -2.564282005015208e-17 5.661723878720087e-17 -2.564282005015208e-17 5.661723878720087e-17 0.6589371528631046 -0.7521979982534653
12650613333.333334 0.6535070546723315 -0.7569204248092054 -2.522479333179923e-17 5.679143900890119e-17 -2.522479333179923e-17 5.679143900890119e-17 0.6535075148189937 -0.7569200275293008
12651230666.666666 0.6480435761473481 -0.7616032585368913 -2.4805590857914386e-17 5.696255667756641e-17 -2.4805590857914386e-17 5.696255667756641e-17 0.6480440391181999 -0.7616028645975693
12651848000.0 0.6425465428806748 -0.7662466575665744 -2.4385235331256276e-17 5.713058391695187e-17 -2.4385235331256276e-17 5.713058391695187e-17 0.6425470086514703 -0.7662462669879063
12652465333.333334 0.637016239500618 -0.7708503814699367 -2.3963749506885114e-17 5.729551301781109e-17 -2.3963749506885114e-17 5.729551301781109e-17 0.6370167080469673 -0.7708499942718162
12653082666.666666 0.6314529523582463 -0.7754141918729047 -2.3541156190935893e-17 5.745733643824013e-17 -2.3541156190935893e-17 5.745733643824013e-17 0.6314534236556197 -0.7754138080750504
12653700000.0 0.6258569695123267 -0.7799378524681961 -2.3117478239372608e-17 5.761604680401817e-17 -2.3117478239372608e-17 5.761604680401817e-17 0.625857443536054 -0.7799374720901476
12654317333.333334 0.6202285807147153 -0.784421129027301 -2.2692738556779903e-17 5.777163690892419e-17 -2.2692738556779903e-17 5.777163690892419e-17 0.620229057439987 -0.7844207520884184
12654934666.666666 0.6145680773951109 -0.7888637894128058 -2.2266960095111543e-17 5.792409971506041e-17 -2.2266960095111543e-17 5.792409971506041e-17 0.6145685567969806 -0.7888634159322705
12655552000.0 0.6088757526460558 -0.7932656035903449 -2.1840165852461486e-17 5.807342835315741e-17 -2.1840165852461486e-17 5.807342835315741e-17 0.6088762346994407 -0.7932652335871566
12656169333.333334 0.603151901207824 -0.7976263436404553 -2.1412378871831443e-17 5.821961612287056e-17 -2.1412378871831443e-17 5.821961612287056e-17 0.6031523858875072 -0.7976259771334322
12656786666.666666 0.5973968194530296 -0.8019457837704856 -2.09836222398815e-17 5.836265649307307e-17 -2.09836222398815e-17 5.836265649307307e-17 0.5973973067336594 -0.8019454207782626
12657404000.0 0.591610805371367 -0.8062237003262169 -2.055391908569564e-17 5.850254310213382e-17 -2.055391908569564e-17 5.850254310213382e-17 0.5916112952274601 -0.8062233408672447
12658021333.333334 0.5857941585541377 -0.8104598718034747 -2.0123292579535424e-17 5.863926975818966e-17 -2.0123292579535424e-17 5.863926975818966e-17 0.5857946509600802 -0.8104595158960206
12658638666.666666 0.5799471801788302 -0.8146540788595358 -1.9691765931603732e-17 5.877283043940483e-17 -1.9691765931603732e-17 5.877283043940483e-17 0.5799476751088786 -0.8146537265216806
12659256000.0 0.5740701729933867 -0.8188061043245822 -1.925936239078003e-17 5.89032192942297e-17 -1.925936239078003e-17 5.89032192942297e-17 0.5740706704216693 -0.8188057555742203
12659873333.333334 0.568163441300596 -0.8229157332128966 -1.882610524339432e-17 5.903043064163765e-17 -1.882610524339432e-17 5.903043064163765e-17 0.5681639412011142 -0.8229153880677349
12660490666.666666 0.5622272909424322 -0.8269827527339301 -1.839201781196784e-17 5.915445897136331e-17 -1.839201781196784e-17 5.915445897136331e-17 0.5622277932890622 -0.8269824112114879
12661108000.0 0.5562620292839593 -0.8310069523034971 -1.7957123453952036e-17 5.927529894413064e-17 -1.7957123453952036e-17 5.927529894413064e-17 0.5562625340504527 -0.8310066144211027
12661725333.333334 0.5502679651977457 -0.834988123554454 -1.7521445560498428e-17 5.939294539186307e-17 -1.7521445560498428e-17 5.939294539186307e-17 0.5502684723577316 -0.8349877893292469
12662342666.666666 0.5442454090476123 -0.8389260603476638 -1.7085007555186626e-17 5.950739331789618e-17 -1.7085007555186626e-17 5.950739331789618e-17 0.5442459185745989 -0.8389257297965925
12662960000.0 0.5381946726726569 -0.842820558782607 -1.6647832892778044e-17 5.961863789717325e-17 -1.6647832892778044e-17 5.961863789717325e-17 0.5381951845400322 -0.8428202319224279
12663577333.333334 0.5321160693711793 -0.8466714172078926 -1.620994505795842e-17 5.97266744764346e-17 -1.620994505795842e-17 5.97266744764346e-17 0.5321165835522123 -0.8466710940551687
12664194666.666666 0.5260099138843142 -0.8504784362317893 -1.5771367564079232e-17 5.98314985743979e-17 -1.5771367564079232e-17 5.98314985743979e-17 0.5260104303521572 -0.8504781168028914
12664812000.0 0.5198765223798337 -0.8542414187324946 -1.5332123951906506e-17 5.993310588192692e-17 -1.5332123951906506e-17 5.993310588192692e-17 0.5198770411075229 -0.8542411030435973
12665429333.333334 0.5137162124357234 -0.8579601698683623 -1.489223778834996e-17 6.003149226219563e-17 -1.489223778834996e-17 6.003149226219563e-17 0.5137167333961807 -0.8579598579354466
12666046666.666666 0.5075293030238649 -0.8616344970879266 -1.4451732665218657e-17 6.012665375083704e-17 -1.4451732665218657e-17 6.012665375083704e-17 0.5075298261898996 -0.8616341889267769
12666664000.0 0.5013161144932489 -0.8652642101400272 -1.4010632197939713e-17 6.021858655609058e-17 -1.4010632197939713e-17 6.021858655609058e-17 0.5013166398375586 -0.8652639057662315
12667281333.333334 0.49507696855370714 -0.8688491210834745 -1.3568960024320975e-17 6.030728705893061e-17 -1.3568960024320975e-17 6.030728705893061e-17 0.49507749604887896 -0.868848820512422
12667898666.666666 0.488812188259107 -0.8723890442968654 -1.3126739803271737e-17 6.039275181319454e-17 -1.3126739803271737e-17 6.039275181319454e-17 0.48881271787761976 -0.8723887475437481
12668516000.0 0.4825220979904764 -0.8758837964882802 -1.2683995213540025e-17 6.047497754569831e-17 -1.2683995213540025e-17 6.047497754569831e-17 0.48252262970470167 -0.8758835035680909
12669133333.333334 0.47620702343953014 -0.8793331967045923 -1.2240749952464804e-17 6.055396115633922e-17 -1.2240749952464804e-17 6.055396115633922e-17 0.4762075572217335 -0.8793329076321232
12669750666.666666 0.4698672915915316 -0.8827370663409878 -1.1797027734693288e-17 6.062969971819673e-17 -1.1797027734693288e-17 6.062969971819673e-17 0.4698678274138743 -0.8827367811308308
12670368000.0 0.4635032307084624 -0.886095229150159 -1.135285229093219e-17 6.070219047761681e-17 -1.135285229093219e-17 6.070219047761681e-17 0.46350376854300285 -0.886094947816705
