! Parameters = {f0=12700.012000; bw=77.238000; Q=6100.000000; N=10; m_0_1=1.339835; m_1_1=1.332777; m_1_2=1.174647; m_2_2=1.332128; m_2_3=0.811610; m_2_8=0.004055; m_2_9=0.040759; m_3_3=1.330191; m_3_4=0.700139; m_3_7=0.004655; m_3_8=-0.092433; m_3_9=0.004055; m_4_4=1.327266; m_4_5=0.536474; m_4_6=0.008172; m_4_7=-0.112982; m_4_8=0.004655; m_5_5=1.327648; m_5_6=0.943829; m_5_7=0.008172; m_6_6=1.327647; m_6_7=0.536816; m_7_7=1.327280; m_7_8=0.700257; m_8_8=1.330189; m_8_9=0.811923; m_9_9=1.332123; m_9_10=1.175725; m_10_10=1.332767; m_10_11=1.340630}
!
! Created with skrf (http://scikit-rf.org).
# Hz S RI R 50.0 
!freq ReS11 ImS11 ReS21 ImS21 ReS12 ImS12 ReS22 ImS22
12607400000.0 -0.834779936009005 0.5505837433457377 9.793398072639913e-17 -1.163364866675978e-16 9.793398072639913e-17 -1.163364866675978e-16 -0.8347803245946989 0.5505831541823386
12608017333.333334 -0.8277835424350285 0.5610475976898203 9.6432570174558e-17 -1.1754551194700404e-16 9.6432570174558e-17 -1.1754551194700404e-16 -0.8277839383864231 0.5610470134928682
12608634666.666666 -0.8206559933723657 0.5714225586567439 9.4916252745137e-17 -1.1873517667833867e-16 9.4916252745137e-17 -1.1873517667833867e-16 -0.8206563966260064 0.5714219795183086
12609252000.0 -0.8133984181226289 0.5817069824193347 9.338527788712216e-17 -1.199052973102276e-16 9.338527788712216e-17 -1.199052973102276e-16 -0.813398828613913 0.581706408430677
12609869333.333334 -0.806011966588981 0.5918992394953454 9.183989730641537e-17 -1.2105569350275403e-16 9.183989730641537e-17 -1.2105569350275403e-16 -0.8060123842521635 0.5918986707469001
12610486666.666666 -0.7984978090939993 0.6019977150055353 9.028036492454964e-17 -1.2218618815514754e-16 9.028036492454964e-17 -1.2218618815514754e-16 -0.7984982338622071 0.601997151586899
12611104000.0 -0.7908571361941225 0.6120008089297232 8.87069368369597e-17 -1.2329660743301885e-16 8.87069368369597e-17 -1.2329660743301885e-16 -0.7908575679993611 0.6120002509296382
12611721333.333334 -0.7830911584912087 0.6219069363600161 8.711987127109347e-17 -1.243867807949303e-16 8.711987127109347e-17 -1.243867807949303e-16 -0.7830915972643772 0.6219063838663585
12612338666.666666 -0.7752011064406344 0.6317145277520698 8.551942854402424e-17 -1.2545654101855657e-16 8.551942854402424e-17 -1.2545654101855657e-16 -0.7752015521115342 0.6317139808518345
12612956000.0 -0.7671882301561896 0.6414220291739416 8.390587101984731e-17 -1.265057242262237e-16 8.390587101984731e-17 -1.265057242262237e-16 -0.767188682653537 0.6414214879532294
12613573333.333334 -0.7590537992124056 0.6510279025518164 8.227946306675913e-17 -1.275341699099083e-16 8.227946306675913e-17 -1.275341699099083e-16 -0.7590542584638404 0.6510273670958183
12614190666.666666 -0.7507991024428918 0.6605306259143123 8.064047101376646e-17 -1.2854172095572865e-16 8.064047101376646e-17 -1.2854172095572865e-16 -0.7507995683749924 0.6605300963072988
12614808000.0 -0.7424254477365327 0.6699286936331464 7.898916310716912e-17 -1.295282236678328e-16 7.898916310716912e-17 -1.295282236678328e-16 -0.7424259202748259 0.6699281699584531
12615425333.333334 -0.7339341618301195 0.6792206166618646 7.732580946671624e-17 -1.304935277917526e-16 7.732580946671624e-17 -1.304935277917526e-16 -0.7339346408990932 0.6792200990018794
12616042666.666666 -0.7253265900980239 0.6884049227718945 7.565068204147853e-17 -1.3143748653719571e-16 7.565068204147853e-17 -1.3143748653719571e-16 -0.7253270756211376 0.688404411208043
12616660000.0 -0.7166040963392599 0.6974801567855512 7.396405456548086e-17 -1.323599566002499e-16 7.396405456548086e-17 -1.323599566002499e-16 -0.7166045882389592 0.6974796513982866
12617277333.333334 -0.7077680625612531 0.7064448808067716 7.226620251298396e-17 -1.332607981850669e-16 7.226620251298396e-17 -1.332607981850669e-16 -0.7077685607589805 0.7064443816755602
12617894666.666666 -0.6988198887609498 0.7152976744488535 7.055740305362408e-17 -1.3413987502490648e-16 7.055740305362408e-17 -1.3413987502490648e-16 -0.6988203931771576 0.7152971816521623
12618512000.0 -0.6897609927027947 0.7240371350597014 6.883793500713852e-17 -1.3499705440269122e-16 6.883793500713852e-17 -1.3499705440269122e-16 -0.6897615032569576 0.7240366486749863
12619129333.333334 -0.680592809694547 0.7326618779436302 6.710807879804239e-17 -1.358322071708794e-16 6.710807879804239e-17 -1.358322071708794e-16 -0.6805933263051757 0.7326613980473243
12619746666.666666 -0.6713167923593374 0.7411705365812742 6.536811640987443e-17 -1.3664520777085614e-16 6.536811640987443e-17 -1.3664520777085614e-16 -0.6713173149439913 0.7411700632487751
12620364000.0 -0.6619344104057538 0.7495617628458593 6.361833133932433e-17 -1.3743593425167998e-16 6.361833133932433e-17 -1.3743593425167998e-16 -0.6619349388810526 0.749561296151516
12620981333.333334 -0.6524471503952328 0.7578342272165763 6.185900855012883e-17 -1.3820426828824981e-16 6.185900855012883e-17 -1.3820426828824981e-16 -0.6524476846768722 0.7578337672336805
12621598666.666666 -0.6428565155059788 0.7659866189897281 6.009043442667951e-17 -1.3895009519891355e-16 6.009043442667951e-17 -1.3895009519891355e-16 -0.6428570555087432 0.7659861657905007
12622216000.0 -0.6331640252952638 0.7740176464859845 5.831289672749835e-17 -1.396733039624488e-16 5.831289672749835e-17 -1.396733039624488e-16 -0.6331645709330379 0.7740172001415635
12622833333.333334 -0.623371215458452 0.7819260372552232 5.652668453846424e-17 -1.4037378723447024e-16 5.652668453846424e-17 -1.4037378723447024e-16 -0.6233717666442374 0.7819255978356549
12623450666.666666 -0.6134796375857243 0.789710538278104 5.473208822589221e-17 -1.4105144136322102e-16 5.473208822589221e-17 -1.4105144136322102e-16 -0.6134801942316522 0.7897101058523299
12624068000.0 -0.6034908589162886 0.7973699161645637 5.2929399389345264e-17 -1.417061664047961e-16 5.2929399389345264e-17 -1.417061664047961e-16 -0.6034914209336337 0.7973694908004116
12624685333.333334 -0.5934064620898819 0.8049029573493772 5.111891081433863e-17 -1.423378661377354e-16 5.111891081433863e-17 -1.423378661377354e-16 -0.5934070293890757 0.8049025391135479
12625302666.666666 -0.5832280448963293 0.8123084682841912 4.930091642488075e-17 -1.4294644807701271e-16 4.930091642488075e-17 -1.4294644807701271e-16 -0.583228617386976 0.812308057242251
12625920000.0 -0.5729572200219791 0.8195852756269421 4.7475711235728026e-17 -1.435318234874604e-16 4.7475711235728026e-17 -1.435318234874604e-16 -0.5729577976128688 0.8195848718433096
12626537333.333334 -0.5625956147946894 0.8267322264273904 4.564359130467781e-17 -1.4409390739651927e-16 4.564359130467781e-17 -1.4409390739651927e-16 -0.562596197393814 0.8267318299653305
12627154666.666666 -0.5521448709255808 0.8337481883101024 4.3804853684558915e-17 -1.446326186064341e-16 4.3804853684558915e-17 -1.446326186064341e-16 -0.5521454584401471 0.8337477992317119
12627772000.0 -0.5416066442489595 0.8406320496538217 4.1959796375079426e-17 -1.4514787970583324e-16 4.1959796375079426e-17 -1.4514787970583324e-16 -0.5416072365854048 0.8406316680200224
12628389333.333334 -0.530982604460202 0.8473827197674403 4.010871827469809e-17 -1.4563961708065008e-16 4.010871827469809e-17 -1.4563961708065008e-16 -0.5309832015242086 0.8473823456379682
12629006666.666666 -0.5202744348510661 0.8539991290629096 3.8251919132172804e-17 -1.4610776092449004e-16 3.8251919132172804e-17 -1.4610776092449004e-16 -0.5202750365475763 0.8539987624963055
12629624000.0 -0.5094838320428391 0.8604802292247906 3.6389699498123016e-17 -1.4655224524834204e-16 3.6389699498123016e-17 -1.4655224524834204e-16 -0.5094844382760716 0.8604798702783927
12630241333.333334 -0.49861250571781396 0.8668249933761759 3.452236067642447e-17 -1.4697300788968962e-16 3.452236067642447e-17 -1.4697300788968962e-16 -0.4986131163912769 0.866824642106108
12630858666.666666 -0.4876621783482593 0.8730324162414789 3.2650204675560644e-17 -1.473699905209907e-16 3.2650204675560644e-17 -1.473699905209907e-16 -0.4876627933647678 0.8730320727026448
12631476000.0 -0.4766345849233091 0.8791015143058222 3.0773534159745833e-17 -1.4774313865756773e-16 3.0773534159745833e-17 -1.4774313865756773e-16 -0.47663520418499883 0.8791011785518942
12632093333.333334 -0.46553147267456263 0.8850313259705883 2.889265240016317e-17 -1.4809240166483273e-16 2.889265240016317e-17 -1.4809240166483273e-16 -0.4655320960829065 0.8850309980540003
12632710666.666666 -0.4543546007988059 0.8908209117060294 2.70078632259568e-17 -1.4841773276492949e-16 2.70078632259568e-17 -1.4841773276492949e-16 -0.4543552282546301 0.8908205916779693
12633328000.0 -0.44310574017932697 0.8964693542000945 2.5119470975203424e-17 -1.4871908904273994e-16 2.5119470975203424e-17 -1.4871908904273994e-16 -0.44310637158282523 0.8964690421104944
12633945333.333334 -0.4317866731055865 0.9019757585036388 2.322778044585532e-17 -1.4899643145126372e-16 2.322778044585532e-17 -1.4899643145126372e-16 -0.43178730835633733 0.9019754544011684
12634562666.666666 -0.42039919299067857 0.9073392521723009 2.1333096846594814e-17 -1.4924972481637915e-16 2.1333096846594814e-17 -1.4924972481637915e-16 -0.4203998319876609 0.9073389561043604
12635180000.0 -0.4089451040870253 0.9125589854048101 1.9435725747650513e-17 -1.4947893784098057e-16 1.9435725747650513e-17 -1.4947893784098057e-16 -0.40894574672863426 0.912558697417522
12635797333.333334 -0.39742622120081406 0.9176341311774787 1.7535973031566114e-17 -1.496840431084904e-16 1.7535973031566114e-17 -1.496840431084904e-16 -0.39742686738487726 0.9176338513156801
12636414666.666666 -0.3858443694042526 0.9225638853753381 1.5634144843972364e-17 -1.4986501708574433e-16 1.5634144843972364e-17 -1.4986501708574433e-16 -0.38584501902804635 0.922563613682575
12637032000.0 -0.37420138374645157 0.9273474669195176 1.3730547544293497e-17 -1.5002184012525603e-16 1.3730547544293497e-17 -1.5002184012525603e-16 -0.37420203670671753 0.9273472034380377
12637649333.333334 -0.36249910896272997 0.931984117890982 1.182548765643844e-17 -1.5015449646685613e-16 1.182548765643844e-17 -1.5015449646685613e-16 -0.362499765155691 0.9319838626617273
12638266666.666666 -0.35073939918211977 0.9364731036506978 9.919271819527617e-18 -1.5026297423870286e-16 9.919271819527617e-18 -1.5026297423870286e-16 -0.35074005850349693 0.9364728567132996
12638884000.0 -0.33892411763391156 0.9408137129559062 8.012206738586271e-18 -1.5034726545767017e-16 8.012206738586271e-18 -1.5034726545767017e-16 -0.3389247799789405 0.9408134743486785
12639501333.333334 -0.32705513635223066 0.9450052580729004 6.104599135246578e-18 -1.504073660291119e-16 6.104599135246578e-18 -1.504073660291119e-16 -0.3270558016156777 0.9450050278328317
12640118666.666666 -0.31513433587953427 0.9490470748859462 4.196755698517541e-18 -1.5044327574599875e-16 4.196755698517541e-18 -1.5044327574599875e-16 -0.31513500395571414 0.949046853048698
12640736000.0 -0.3031636049683859 0.9529385230026006 2.288983035434035e-18 -1.5045499828743573e-16 2.288983035434035e-18 -1.5045499828743573e-16 -0.3031642757511782 0.9529383096024991
12641353333.333334 -0.2911448402827924 0.9566789858549796 3.8158762199484654e-19 -1.504425412165507e-16 3.8158762199484654e-19 -1.504425412165507e-16 -0.2911455136656579 0.9566787809250108
12641970666.666666 -0.2790799460969356 0.9602678707976937 -1.5251242461584265e-18 -1.5040591597776482e-16 -1.5251242461584265e-18 -1.5040591597776482e-16 -0.27908062197293365 0.9602676743694986
12642588000.0 -0.2669708339940512 0.9637046092015568 -3.430846502791882e-18 -1.5034513789343699e-16 -3.430846502791882e-18 -1.5034513789343699e-16 -0.26697151225585664 0.963704421305426
12643205333.333334 -0.2548194225633387 0.9669886565437524 -5.335273360167892e-18 -1.5026022615988904e-16 -5.335273360167892e-18 -1.5026022615988904e-16 -0.25482010310325875 0.9669884772086219
12643822666.666666 -0.242627637095866 0.970119492494137 -7.238099358052678e-18 -1.5015120384280933e-16 -7.238099358052678e-18 -1.5015120384280933e-16 -0.24262831980585753 0.9701193217475835
12644440000.0 -0.23039740927957617 0.9730966209976598 -9.139019412660686e-18 -1.5001809787203658e-16 -9.139019412660686e-18 -1.5001809787203658e-16 -0.23039809405126302 0.9730964588658976
12645057333.333334 -0.21813067689356075 0.9759195703528861 -1.103772886548528e-17 -1.4986093903572694e-16 -1.103772886548528e-17 -1.4986093903572694e-16 -0.2181313636182503 0.9759194168607609
12645674666.666666 -0.2058293835005915 0.9785878932868374 -1.2933923532076217e-17 -1.4967976197390232e-16 -1.2933923532076217e-17 -1.4967976197390232e-16 -0.20583007206929266 0.9785877484578244
12646292000.0 -0.19349547813917858 0.9811011670258555 -1.482729975077295e-17 -1.4947460517137754e-16 -1.482729975077295e-17 -1.4947460517137754e-16 -0.19349616844261855 0.9811010308820545
12646909333.333334 -0.18113091501531678 0.9834589933624679 -1.6717554431164718e-17 -1.4924551095008677e-16 -1.6717554431164718e-17 -1.4924551095008677e-16 -0.1811316069439588 0.9834588659246016
12647526666.666666 -0.16873765319213527 0.9856609987186342 -1.860438510264424e-17 -1.4899252546077984e-16 -1.860438510264424e-17 -1.4899252546077984e-16 -0.16873834663619566 0.9856608800060433
12648144000.0 -0.1563176562798883 0.9877068342048498 -2.0487489962706727e-17 -1.4871569867411808e-16 -2.0487489962706727e-17 -1.4871569867411808e-16 -0.15631835112935405 0.9877067242354912
12648761333.333334 -0.1438728921248951 0.9895961756754235 -2.2366567925182333e-17 -1.4841508437115566e-16 -2.2366567925182333e-17 -1.4841508437115566e-16 -0.1438735882695411 0.9895960744658656
12649378666.666666 -0.13140533249758202 0.9913287237798596 -2.4241318668283884e-17 -1.4809074013321814e-16 -2.4241318668283884e-17 -1.4809074013321814e-16 -0.13140602982698898 0.9913286313452837
12649996000.0 -0.11891695278012834 0.9929042040102826 -2.6111442682597615e-17 -1.4774272733116305e-16 -2.6111442682597615e-17 -1.4774272733116305e-16 -0.11891765118370001 0.9929041203644775
12650613333.333334 -0.10640973165348308 0.9943223667449296 -2.797664131884861e-17 -1.4737111111404681e-16 -2.797664131884861e-17 -1.4737111111404681e-16 -0.10641043102046362 0.9943222919002892
12651230666.666666 -0.09388565078391556 0.9955829872876925 -2.9836616835501427e-17 -1.4697596039719254e-16 -2.9836616835501427e-17 -1.4697596039719254e-16 -0.09388635100340748 0.9955829212552162
12651848000.0 -0.08134669450881067 0.9966858659037436 -3.169107244632189e-17 -1.4655734784963286e-16 -3.169107244632189e-17 -1.4655734784963286e-16 -0.08134739546979218 0.9966858086930336
12652465333.333334 -0.06879484952260628 0.9976308278511482 -3.353971236755768e-17 -1.461153498809962e-16 -3.353971236755768e-17 -1.461153498809962e-16 -0.06879555111394897 0.9976307794704075
12653082666.666666 -0.05623210456184832 0.9984177234085689 -3.538224186514867e-17 -1.4565004662775588e-16 -3.538224186514867e-17 -1.4565004662775588e-16 -0.05623280667233478 0.9984176838646023
12653700000.0 -0.04366045008986487 0.999046427899002 -3.7218367301624497e-17 -1.4516152193890927e-16 -3.7218367301624497e-17 -1.4516152193890927e-16 -0.043661152608206195 0.9990463971972112
12654317333.333334 -0.031081877982017565 0.9995168417094914 -3.904779618281708e-17 -1.446498633610697e-16 -3.904779618281708e-17 -1.446498633610697e-16 -0.03108258079687118 0.9995168198538785
12654934666.666666 -0.018498381209367802 0.9998288903069558 -4.0870237204444954e-17 -1.4411516212294812e-16 -4.0870237204444954e-17 -1.4411516212294812e-16 -0.01849908420935499 0.9998288773001209
12655552000.0 -0.005911953523247102 0.9999825242499708 -4.2685400298406056e-17 -1.4355751311927158e-16 -4.2685400298406056e-17 -1.4355751311927158e-16 -0.00591265659697069 0.9999825200931122
12656169333.333334 0.006675410860351914 0.9999777191966078 -4.449299667890346e-17 -1.42977014894107e-16 -4.449299667890346e-17 -1.42977014894107e-16 0.006674707824289941 0.99997772388952
12656786666.666666 0.01926171757719739 0.9998144759082964 -4.6292738888297913e-17 -1.4237376962361853e-16 -4.6292738888297913e-17 -1.4237376962361853e-16 0.019261014690178196 0.9998144894493727
12657404000.0 0.03184497243075192 0.999492820249695 -4.8084340842810614e-17 -1.417478830982239e-16 -4.8084340842810614e-17 -1.417478830982239e-16 0.03184426980412221 0.9994928426359275
12658021333.333334 0.04442318170785246 0.9990128031846015 -4.986751787791447e-17 -1.410994647041998e-16 -4.986751787791447e-17 -1.410994647041998e-16 0.04442247945290681 0.9990128344115807
12658638666.666666 0.05699435249476834 0.9983745007678771 -5.1641986793472174e-17 -1.4042862740472157e-16 -5.1641986793472174e-17 -1.4042862740472157e-16 0.05699365072273156 0.9983745408297929
12659256000.0 0.06955649299313209 0.9975780141333818 -5.340746589873293e-17 -1.3973548772029382e-16 -5.340746589873293e-17 -1.3973548772029382e-16 0.06955579181514175 0.9975780630230268
12659873333.333334 0.08210761283518318 0.9966234694779738 -5.516367505691804e-17 -1.3902016570867407e-16 -5.516367505691804e-17 -1.3902016570867407e-16 0.08210691236227176 0.9966235271867407
12660490666.666666 0.09464572339929549 0.9955110180415021 -5.691033572961935e-17 -1.382827849442071e-16 -5.691033572961935e-17 -1.382827849442071e-16 0.0946450237423731 0.9955110845593893
12661108000.0 0.10716883812528483 0.9942408360828284 -5.864717102096246e-17 -1.3752347249658495e-16 -5.864717102096246e-17 -1.3752347249658495e-16 0.10716813939512121 0.9942409113984363
12661725333.333334 0.11967497282859625 0.9928131248519428 -6.037390572137938e-17 -1.3674235890910045e-16 -6.037390572137938e-17 -1.3674235890910045e-16 0.11967427513580384 0.9928132089524825
12662342666.666666 0.13216214601519224 0.9912281105580415 -6.209026635121049e-17 -1.3593957817630103e-16 -6.209026635121049e-17 -1.3593957817630103e-16 0.1321614494702081 0.9912282034293309
12662960000.0 0.14462837919544583 0.9894860443336753 -6.379598120392552e-17 -1.3511526772113344e-16 -6.379598120392552e-17 -1.3511526772113344e-16 0.14462768390851455 0.9894861459601465
12663577333.333334 0.15707169719733485 0.9875872021950031 -6.549078038908257e-17 -1.342695683715312e-16 -6.549078038908257e-17 -1.342695683715312e-16 0.15707100327849094 0.9875873125597018
12664194666.666666 0.1694901284795609 0.9855318849980388 -6.717439587497787e-17 -1.3340262433646267e-16 -6.717439587497787e-17 -1.3340262433646267e-16 0.16948943603861136 0.985532004082627
12664812000.0 0.1818817054440918 0.9833204183909504 -6.884656153094272e-17 -1.3251458318146506e-16 -6.884656153094272e-17 -1.3251458318146506e-16 0.1818810145905988 0.9833205461757115
12665429333.333334 0.19424446474757479 0.9809531527625232 -7.050701316940213e-17 -1.3160559580360702e-16 -7.050701316940213e-17 -1.3160559580360702e-16 0.1942437755908383 0.9809532892263635
12666046666.666666 0.2065764476125806 0.978430463186614 -7.215548858748393e-17 -1.3067581640598738e-16 -7.215548858748393e-17 -1.3067581640598738e-16 0.2065757602616212 0.9784306083070677
12666664000.0 0.21887570013817814 0.9757527493626793 -7.379172760845049e-17 -1.2972540247162998e-16 -7.379172760845049e-17 -1.2972540247162998e-16 0.21887501470171958 0.9757529031159102
12667281333.333334 0.2311402736089573 0.9729204355525588 -7.541547212259525e-17 -1.287545147369671e-16 -7.541547212259525e-17 -1.287545147369671e-16 0.23113959019540964 0.9729205979133668
12667898666.666666 0.24336822480428832 0.969933970513155 -7.702646612797668e-17 -1.2776331716470803e-16 -7.702646612797668e-17 -1.2776331716470803e-16 0.24336754352173037 0.9699341414549776
12668516000.0 0.25555761630615137 0.9667938274253326 -7.862445577068657e-17 -1.2675197691626174e-16 -7.862445577068657e-17 -1.2675197691626174e-16 0.25555693726231354 0.9667940069202493
12669133333.333334 0.2677065168058286 0.9635005038190155 -8.020918938476647e-17 -1.2572066432365445e-16 -8.020918938476647e-17 -1.2572066432365445e-16 0.26770584010807663 0.9635006918377558
12669750666.666666 0.27981300141007115 0.9600545214943232 -8.178041753182114e-17 -1.2466955286090783e-16 -8.178041753182114e-17 -1.2466955286090783e-16 0.27981232716538845 0.9600547180062683
