! Parameters = {f0=12700.012000; bw=77.238000; Q=6100.000000; N=10; m_0_1=1.254349; m_1_1=0.050495; m_1_2=1.089161; m_2_2=0.049846; m_2_3=0.726124; m_2_8=-0.000219; m_2_9=0.036485; m_3_3=0.047909; m_3_4=0.614653; m_3_7=0.000381; m_3_8=-0.096707; m_3_9=-0.000219; m_4_4=0.044984; m_4_5=0.450988; m_4_6=0.003898; m_4_7=-0.117256; m_4_8=0.000381; m_5_5=0.045366; m_5_6=0.858343; m_5_7=0.003898; m_6_6=0.045365; m_6_7=0.451330; m_7_7=0.044998; m_7_8=0.614771; m_8_8=0.047907; m_8_9=0.726437; m_9_9=0.049841; m_9_10=1.090239; m_10_10=0.050485; m_10_11=1.255144}
!
! Created with skrf (http://scikit-rf.org).
# Hz S RI R 50.0 
!freq ReS11 ImS11 ReS21 ImS21 ReS12 ImS12 ReS22 ImS22
12607400000.0 -0.6992956631650008 -0.7148325506567605 8.969051652802409e-17 4.9978062297644727e-17 8.969051652802409e-17 4.9978062297644727e-17 -0.6992951907362364 -0.7148330128169782
12608017333.333334 -0.7064515649816179 -0.7077613908195698 9.017545084937613e-17 4.9055629685264264e-17 9.017545084937613e-17 4.9055629685264264e-17 -0.7064510972490424 -0.707761857686222
12608634666.666666 -0.7135359680824201 -0.7006185997049408 9.065090636383257e-17 4.812850514752612e-17 9.065090636383257e-17 4.812850514752612e-17 -0.7135355050929101 -0.700619071230318
12609252000.0 -0.7205481554675474 -0.6934049002221878 9.111683781660516e-17 4.719678600651072e-17 9.111683781660516e-17 4.719678600651072e-17 -0.7205476972674948 -0.6934053763581146
12609869333.333334 -0.7274874174460054 -0.6861210224570947 9.157320095133081e-17 4.626057001928983e-17 9.157320095133081e-17 4.626057001928983e-17 -0.7274869640813119 -0.6861215031549325
12610486666.666666 -0.7343530517073135 -0.6787677035982076 9.201995251423044e-17 4.531995536770501e-17 9.201995251423044e-17 4.531995536770501e-17 -0.7343526032233875 -0.6787681888088613
12611104000.0 -0.7411443633929186 -0.6713456878618747 9.245705025818316e-17 4.437504064806432e-17 9.245705025818316e-17 4.437504064806432e-17 -0.7411439198346705 -0.6713461775357978
12611721333.333334 -0.7478606651661703 -0.6638557264173005 9.288445294666428e-17 4.3425924860866406e-17 9.288445294666428e-17 4.3425924860866406e-17 -0.7478602265780075 -0.6638562205044994
12612338666.666666 -0.7545012772820974 -0.6562985773102902 9.330212035760717e-17 4.247270740042351e-17 9.330212035760717e-17 4.247270740042351e-17 -0.7545008437079206 -0.6562990757603302
12612956000.0 -0.7610655276562028 -0.6486750053865291 9.371001328714661e-17 4.151548804447426e-17 9.371001328714661e-17 4.151548804447426e-17 -0.7610650991393996 -0.6486755081485378
12613573333.333334 -0.7675527519323132 -0.6409857822143645 9.410809355324617e-17 4.055436694378556e-17 9.410809355324617e-17 4.055436694378556e-17 -0.7675523285157559 -0.6409862892370389
12614190666.666666 -0.7739622935500066 -0.6332316860065044 9.449632399924035e-17 3.958944461166895e-17 9.449632399924035e-17 3.958944461166895e-17 -0.7739618752760479 -0.6332321972381155
12614808000.0 -0.780293503810969 -0.6254135015413633 9.487466849725263e-17 3.862082191350399e-17 9.487466849725263e-17 3.862082191350399e-17 -0.7802930907214353 -0.6254140169297601
12615425333.333334 -0.7865457419446634 -0.6175320200836127 9.524309195151366e-17 3.7648600056213746e-17 9.524309195151366e-17 3.7648600056213746e-17 -0.786545334080853 -0.6175325395762291
12616042666.666666 -0.7927183751731833 -0.6095880393040999 9.560156030157e-17 3.667288057771138e-17 9.560156030157e-17 3.667288057771138e-17 -0.7927179725758624 -0.6095885628479603
12616660000.0 -0.7988107787752949 -0.6015823631991172 9.595004052538583e-17 3.569376533631736e-17 9.595004052538583e-17 3.569376533631736e-17 -0.798810381484693 -0.6015828907408411
12617277333.333334 -0.8048223361496984 -0.5935158020089857 9.628850064233769e-17 3.471135650014186e-17 9.628850064233769e-17 3.471135650014186e-17 -0.804821944205503 -0.593516333494793
12617894666.666666 -0.8107524388772793 -0.5853891721362563 9.661690971609111e-17 3.3725756536470026e-17 9.661690971609111e-17 3.3725756536470026e-17 -0.8107520523186328 -0.5853897075119727
12618512000.0 -0.8166004867829727 -0.5772032960626958 9.693523785739259e-17 3.273706820104883e-17 9.693523785739259e-17 3.273706820104883e-17 -0.8166001056484692 -0.5772038352737587
12619129333.333334 -0.8223658879962049 -0.5689590022664563 9.724345622672051e-17 3.174539452744499e-17 9.724345622672051e-17 3.174539452744499e-17 -0.8223655123238863 -0.5689595452579209
12619746666.666666 -0.8280480590109792 -0.5606571251379755 9.754153703685326e-17 3.075083881629838e-17 9.754153703685326e-17 3.075083881629838e-17 -0.8280476888383295 -0.560657671854519
12620364000.0 -0.8336464247449252 -0.5522985048955243 9.782945355531798e-17 2.9753504624582427e-17 9.782945355531798e-17 2.9753504624582427e-17 -0.8336460601088702 -0.5522990552814533
12620981333.333334 -0.8391604185973666 -0.543883987500387 9.810718010672257e-17 2.875349575486759e-17 9.810718010672257e-17 2.875349575486759e-17 -0.8391600595342661 -0.5438845414996412
12621598666.666666 -0.8445894825068161 -0.5354144245710015 9.837469207499376e-17 2.775091624451073e-17 9.837469207499376e-17 2.775091624451073e-17 -0.8445891290524639 -0.5354149821271613
12622216000.0 -0.8499330670073828 -0.5268906732968914 9.863196590549258e-17 2.6745870354866346e-17 9.863196590549258e-17 2.6745870354866346e-17 -0.8499327191970009 -0.5268912343531822
12622833333.333334 -0.8551906312844103 -0.5183135963518609 9.887897910702569e-17 2.5738462560459446e-17 9.887897910702569e-17 2.5738462560459446e-17 -0.8551902891526459 -0.5183141608511596
12623450666.666666 -0.8603616432291522 -0.5096840618067819 9.911571025374208e-17 2.4728797538157644e-17 9.911571025374208e-17 2.4728797538157644e-17 -0.8603613068100755 -0.5096846296916229
12624068000.0 -0.8654455794927041 -0.5010029430416199 9.934213898692573e-17 2.3716980156301237e-17 9.934213898692573e-17 2.3716980156301237e-17 -0.8654452488198027 -0.5010035142541998
12624685333.333334 -0.8704419255389918 -0.49227111865698625 9.955824601667429e-17 2.2703115463829016e-17 9.955824601667429e-17 2.2703115463829016e-17 -0.8704416006451678 -0.4922716931391707
12625302666.666666 -0.8753501756966502 -0.483489472385564 9.976401312346103e-17 2.1687308679421076e-17 9.976401312346103e-17 2.1687308679421076e-17 -0.8753498566142204 -0.48349005007889456
12625920000.0 -0.8801698332105014 -0.47465889300214953 9.995942315960056e-17 2.0669665180557326e-17 9.995942315960056e-17 2.0669665180557326e-17 -0.8801695199711893 -0.47465947384784746
12626537333.333334 -0.8849004102915728 -0.4657802742341438 1.0014446005058718e-16 1.9650290492646442e-17 1.0014446005058718e-16 1.9650290492646442e-17 -0.8849001029265073 -0.46578085817311715
12627154666.666666 -0.8895414281665681 -0.45685451467092936 1.0031910879633368e-16 1.8629290278086986e-17 1.0031910879633368e-16 1.8629290278086986e-17 -0.8895411267062813 -0.4568551016437791
12627772000.0 -0.894092417126399 -0.44788251767277293 1.0048335547229837e-16 1.760677032531557e-17 1.0048335547229837e-16 1.760677032531557e-17 -0.8940921216008225 -0.447883107619799
12628389333.333334 -0.8985529165735405 -0.4388651912797509 1.0063718723048906e-16 1.658283653792087e-17 1.0063718723048906e-16 1.658283653792087e-17 -0.8985526270120024 -0.43886578414095795
12629006666.666666 -0.9029224750688413 -0.4298034481194686 1.0078059230037697e-16 1.5557594923621232e-17 1.0078059230037697e-16 1.5557594923621232e-17 -0.9029221915000636 -0.4298040438345725
12629624000.0 -0.9072006503770742 -0.42069820531497537 1.0091355998967583e-16 1.4531151583381852e-17 1.0091355998967583e-16 1.4531151583381852e-17 -0.9072003728291681 -0.4206988038234084
12630241333.333334 -0.9113870095117658 -0.41155038439178926 1.0103608068502836e-16 1.3503612700406318e-17 1.0103608068502836e-16 1.3503612700406318e-17 -0.9113867380122315 -0.4115509856327073
12630858666.666666 -0.9154811287789483 -0.4023609111847863 1.0114814585256999e-16 1.247508452920431e-17 1.0114814585256999e-16 1.247508452920431e-17 -0.9154808633546714 -0.4023615150970748
12631476000.0 -0.9194825938201706 -0.39313071574421465 1.0124974803838948e-16 1.1445673384590115e-17 1.0124974803838948e-16 1.1445673384590115e-17 -0.9194823344974201 -0.393131322266495
12632093333.333334 -0.923390999654296 -0.38386073224187656 1.013408808688696e-16 1.0415485630751156e-17 1.013408808688696e-16 1.0415485630751156e-17 -0.9233907464587181 -0.38386134131251065
12632710666.666666 -0.9272059507185089 -0.37455189887652945 1.0142153905092345e-16 9.384627670261086e-18 1.0142153905092345e-16 9.384627670261086e-18 -0.9272057036751308 -0.37455251043362936
12633328000.0 -0.9309270609084802 -0.3652051577786485 1.0149171837211771e-16 8.353205933095985e-18 1.0149171837211771e-16 8.353205933095985e-18 -0.9309268200417009 -0.36520577176007896
12633945333.333334 -0.9345539536172902 -0.35582145491541123 1.0155141570068204e-16 7.3213268656925e-18 1.0155141570068204e-16 7.3213268656925e-18 -0.9345537189508833 -0.3558220712587987
12634562666.666666 -0.938086261773618 -0.3464017399948038 1.0160062898540979e-16 6.289096919968079e-18 1.0160062898540979e-16 6.289096919968079e-18 -0.9380860333307264 -0.3464023586375414
12635180000.0 -0.9415236278788763 -0.33694696636952687 1.0163935725544712e-16 5.256622542362371e-18 1.0163935725544712e-16 5.256622542362371e-18 -0.9415234056820112 -0.33694758724878127
12635797333.333334 -0.944865704043407 -0.32745809094048356 1.0166760061997047e-16 4.22401016287759e-18 1.0166760061997047e-16 4.22401016287759e-18 -0.9448654881144444 -0.3274587139932009
12636414666.666666 -0.9481121520216474 -0.3179360740600383 1.0168536026775287e-16 3.1913661841393582e-18 1.0168536026775287e-16 3.1913661841393582e-18 -0.9481119423818283 -0.31793669922295154
12637032000.0 -0.9512626432464242 -0.308381879434662 1.0169263846662052e-16 2.158796970435731e-18 1.0169263846662052e-16 2.158796970435731e-18 -0.9512624399163508 -0.30838250664429656
12637649333.333334 -0.9543168588621704 -0.2987964740275046 1.0168943856279675e-16 1.1264088367933406e-18 1.0168943856279675e-16 1.1264088367933406e-18 -0.9543166618618029 -0.2987971032201845
12638266666.666666 -0.9572744897572002 -0.28918082796050176 1.0167576498013659e-16 9.430803804844283e-20 1.0167576498013659e-16 9.430803804844283e-20 -0.9572742991058576 -0.28918145907235704
12638884000.0 -0.9601352365949979 -0.27953591441619186 1.0165162321925008e-16 -9.373992420686872e-19 1.0165162321925008e-16 -9.373992420686872e-19 -0.9601350523113549 -0.2795365473831645
12639501333.333334 -0.9628988098445277 -0.26986270953916697 1.0161701985651528e-16 -1.9686069018406618e-18 1.0161701985651528e-16 -1.9686069018406618e-18 -0.9628986319466127 -0.26986334429701747
12640118666.666666 -0.9655649298094523 -0.26016219233758026 1.0157196254298132e-16 -2.999208932436975e-18 1.0157196254298132e-16 -2.999208932436975e-18 -0.9655647583146448 -0.260162828821894
12640736000.0 -0.9681333266566446 -0.2504353445833222 1.0151646000315916e-16 -4.029099428840575e-18 1.0151646000315916e-16 -4.029099428840575e-18 -0.9681331615816752 -0.25043598272951634
12641353333.333334 -0.9706037404432123 -0.24068315071369917 1.0145052203370715e-16 -5.058172600629617e-18 1.0145052203370715e-16 -5.058172600629617e-18 -0.9706035818041602 -0.24068379045702884
12641970666.666666 -0.9729759211430455 -0.23090659773092284 1.0137415950200061e-16 -6.086322782901922e-18 1.0137415950200061e-16 -6.086322782901922e-18 -0.972975768955337 -0.23090723900648805
12642588000.0 -0.9752496286720085 -0.22110667510262852 1.0128738434459597e-16 -7.113444447063916e-18 1.0128738434459597e-16 -7.113444447063916e-18 -0.9752494829504145 -0.22110731784538012
12643205333.333334 -0.9774246329122533 -0.21128437466167815 1.0119020956558476e-16 -8.139432211647558e-18 1.0119020956558476e-16 -8.139432211647558e-18 -0.9774244936708907 -0.2112850188064254
12643822666.666666 -0.9795007137355376 -0.20144069050566832 1.0108264923483615e-16 -9.164180853113552e-18 1.0108264923483615e-16 -9.164180853113552e-18 -0.9795005809878659 -0.20144133598708486
12644440000.0 -0.9814776610254711 -0.19157661889645797 1.0096471848613408e-16 -1.0187585316608267e-17 1.0096471848613408e-16 -1.0187585316608267e-17 -0.9814775347842899 -0.1915772656490883
12645057333.333334 -0.9833552746987859 -0.18169315815931028 1.0083643351520274e-16 -1.1209540726716276e-17 1.0083643351520274e-16 -1.1209540726716276e-17 -0.9833551549762358 -0.1816938061175767
12645674666.666666 -0.9851333647255905 -0.17179130858185485 1.0069781157762567e-16 -1.2229942398187505e-17 1.0069781157762567e-16 -1.2229942398187505e-17 -0.9851332515331512 -0.17179195768006422
12646292000.0 -0.9868117511486353 -0.16187207231265419 1.0054887098665153e-16 -1.3248685846660402e-17 1.0054887098665153e-16 -1.3248685846660402e-17 -0.9868116444971256 -0.1618727224850044
12646909333.333334 -0.9883902641014662 -0.15193645326011357 1.0038963111090147e-16 -1.4265666799303255e-17 1.0038963111090147e-16 -1.4265666799303255e-17 -0.9883901640010406 -0.15193710444070016
12647526666.666666 -0.9898687438256487 -0.14198545699071008 1.0022011237195875e-16 -1.5280781205495235e-17 1.0022011237195875e-16 -1.5280781205495235e-17 -0.9898686502857983 -0.14198610911353302
12648144000.0 -0.9912470406869552 -0.13202009062707973 1.0004033624185543e-16 -1.6293925247448907e-17 1.0004033624185543e-16 -1.6293925247448907e-17 -0.9912469537165061 -0.13202074362605
12648761333.333334 -0.9925250151904744 -0.12204136274631323 9.985032524045337e-17 -1.7304995350796192e-17 9.985032524045337e-17 -1.7304995350796192e-17 -0.9925249347975869 -0.1220420165552597
12649378666.666666 -0.993702537994737 -0.11205028327785208 9.965010293271728e-17 -1.8313888195156582e-17 9.965010293271728e-17 -1.8313888195156582e-17 -0.9937024641869051 -0.11205093783052811
12649996000.0 -0.9947794899248232 -0.10204786340113425 9.943969392587744e-17 -1.9320500724689075e-17 9.943969392587744e-17 -1.9320500724689075e-17 -0.9947794227088744 -0.10204851863122438
12650613333.333334 -0.9957557619844133 -0.09203511544333916 9.921912386649132e-17 -2.032473015859024e-17 9.921912386649132e-17 -2.032473015859024e-17 -0.9957557013665058 -0.09203577128446574
12651230666.666666 -0.9966312553668075 -0.0820130527770447 9.898841943740005e-17 -2.1326474001557096e-17 9.898841943740005e-17 -2.1326474001557096e-17 -0.9966312013524323 -0.08201370916277484
12651848000.0 -0.9974058814649532 -0.07198268971738296 9.874760835457042e-17 -2.2325630054255802e-17 9.874760835457042e-17 -2.2325630054255802e-17 -0.9974058340589321 -0.07198334658123513
12652465333.333334 -0.9980795618803887 -0.061945041419637824 9.849671936384321e-17 -2.3322096423705268e-17 9.849671936384321e-17 -2.3322096423705268e-17 -0.9980795210868748 -0.06194569869508859
12653082666.666666 -0.998652228431181 -0.05190112377650297 9.823578223757555e-17 -2.431577153363375e-17 9.823578223757555e-17 -2.431577153363375e-17 -0.9986521942536586 -0.0519017813969938
12653700000.0 -0.9991238231588463 -0.041851953314981837 9.796482777116062e-17 -2.5306554134871372e-17 9.796482777116062e-17 -2.5306554134871372e-17 -0.9991237956001272 -0.041852611213925604
12654317333.333334 -0.9994942983341865 -0.03179854709387497 9.768388777947738e-17 -2.6294343315568052e-17 9.768388777947738e-17 -2.6294343315568052e-17 -0.9994942773964144 -0.03179920520466301
12654934666.666666 -0.9997636164621388 -0.02174192260067568 9.739299509320257e-17 -2.7279038511509565e-17 9.739299509320257e-17 -2.7279038511509565e-17 -0.9997636021467872 -0.021742580856684356
12655552000.0 -0.9999317502855714 -0.01168309764842114 9.709218355503744e-17 -2.826053951632101e-17 9.709218355503744e-17 -2.826053951632101e-17 -0.9999317425934421 -0.011683755983018589
12656169333.333334 -0.9999986827880298 -0.0016230902730506886 9.678148801583572e-17 -2.923874649162179e-17 9.678148801583572e-17 -2.923874649162179e-17 -0.9999986817192554 -0.001623748619603623
12656786666.666666 -0.9999644071954688 0.008437081369940279 9.646094433061338e-17 -3.021355997718783e-17 9.646094433061338e-17 -3.021355997718783e-17 -0.9999644127495122 0.008436423078059866
12657404000.0 -0.9998289269769358 0.018496399108403963 9.613058935447022e-17 -3.1184880901030176e-17 9.613058935447022e-17 -3.1184880901030176e-17 -0.9998289391525882 0.018495740937812047
12658021333.333334 -0.9995922558442177 0.02855384485664443 9.579046093840336e-17 -3.21526105894484e-17 9.579046093840336e-17 -3.21526105894484e-17 -0.9995922746396004 0.028553186873938183
12658638666.666666 -0.9992544177504565 0.0386084007183141 9.544059792502674e-17 -3.311665077702052e-17 9.544059792502674e-17 -3.311665077702052e-17 -0.9992544431630227 0.03860774299006525
12659256000.0 -0.9988154468877187 0.048659049089717396 9.508104014417548e-17 -3.407690361658715e-17 9.508104014417548e-17 -3.407690361658715e-17 -0.9988154789142512 0.0486583916824654
12659873333.333334 -0.9982753876835427 0.058704772762545036 9.471182840842927e-17 -3.5033271689137766e-17 9.471182840842927e-17 -3.5033271689137766e-17 -0.9982754263201544 0.05870411574279032
12660490666.666666 -0.9976342947964413 0.0687445550268237 9.433300450852725e-17 -3.598565801367314e-17 9.433300450852725e-17 -3.598565801367314e-17 -0.9976343400385786 0.06874389846102111
12661108000.0 -0.9968922331103586 0.07877737977409953 9.394461120867368e-17 -3.693396605704562e-17 9.394461120867368e-17 -3.693396605704562e-17 -0.9968922849527971 0.07877672372865131
12661725333.333334 -0.9960492777281186 0.08880223159990752 9.354669224177027e-17 -3.787809974368534e-17 9.354669224177027e-17 -3.787809974368534e-17 -0.996049336164969 0.08880157614115694
12662342666.666666 -0.9951055139638192 0.09881809590673762 9.313929230452451e-17 -3.8817963465342283e-17 9.313929230452451e-17 -3.8817963465342283e-17 -0.9951055789885249 0.09881744110096212
12662960000.0 -0.9940610373341907 0.10882395900674867 9.272245705247692e-17 -3.97534620907336e-17 9.272245705247692e-17 -3.97534620907336e-17 -0.9940611089395283 0.10882330492015299
12663577333.333334 -0.9929159535489356 0.11881880822427665 9.229623309492669e-17 -4.06845009751545e-17 9.229623309492669e-17 -4.06845009751545e-17 -0.9929160317270169 0.11881815492298647
12664194666.666666 -0.9916703785000286 0.12880163199835445 9.186066798976028e-17 -4.161098597003205e-17 9.186066798976028e-17 -4.161098597003205e-17 -0.9916704632423008 0.12880097954840944
12664812000.0 -0.9903244382499861 0.1387714199850899 9.141581023818577e-17 -4.2532823432424606e-17 9.141581023818577e-17 -4.2532823432424606e-17 -0.9903245295472335 0.13877076845243716
12665429333.333334 -0.9888782690191061 0.14872716315994938 9.096170927936937e-17 -4.344992023447063e-17 9.096170927936937e-17 -4.344992023447063e-17 -0.9888783668614491 0.14872651261043662
12666046666.666666 -0.987332017171698 0.1586678539197381 9.049841548499084e-17 -4.4362183772752205e-17 9.049841548499084e-17 -4.4362183772752205e-17 -0.9873321215485976 0.15866720441910737
12666664000.0 -0.9856858392012272 0.16859248618488776 9.002598015367272e-17 -4.526952197766805e-17 9.002598015367272e-17 -4.526952197766805e-17 -0.9856859501014829 0.1685918377987684
12667281333.333334 -0.9839399017145356 0.17850005550088657 8.954445550536069e-17 -4.6171843322658e-17 8.954445550536069e-17 -4.6171843322658e-17 -0.9839400191262877 0.17849940829478872
12667898666.666666 -0.9820943814149343 0.18838955914021888 8.905389467557393e-17 -4.7069056833442244e-17 8.905389467557393e-17 -4.7069056833442244e-17 -0.9820945053256667 0.18838891317952705
12668516000.0 -0.98014946508432 0.19825999620384932 8.855435170957762e-17 -4.7961072097171857e-17 8.855435170957762e-17 -4.7961072097171857e-17 -0.980149595480858 0.19825935155381533
12669133333.333334 -0.9781053495643091 0.20811036772229816 8.804588155647656e-17 -4.8847799271495523e-17 8.804588155647656e-17 -4.8847799271495523e-17 -0.9781054864328248 0.2081097244480351
12669750666.666666 -0.9759622417362888 0.21793967675691334 8.7528540063192e-17 -4.9729149093611727e-17 8.7528540063192e-17 -4.9729149093611727e-17 -0.975962385062299 0.21793903492338842
