! Parameters = {f0=12700.012000; bw=77.238000; Q=6100.000000; N=10; m_0_1=1.269765; m_1_1=0.281726; m_1_2=1.104577; m_2_2=0.281077; m_2_3=0.741540; m_2_8=0.000552; m_2_9=0.037256; m_3_3=0.279140; m_3_4=0.630069; m_3_7=0.001152; m_3_8=-0.095936; m_3_9=0.000552; m_4_4=0.276215; m_4_5=0.466404; m_4_6=0.004669; m_4_7=-0.116485; m_4_8=0.001152; m_5_5=0.276597; m_5_6=0.873759; m_5_7=0.004669; m_6_6=0.276596; m_6_7=0.466746; m_7_7=0.276229; m_7_8=0.630187; m_8_8=0.279138; m_8_9=0.741853; m_9_9=0.281072; m_9_10=1.105655; m_10_10=0.281716; m_10_11=1.270560}
!
! Created with skrf (http://scikit-rf.org).
# Hz S RI R 50.0 
!freq ReS11 ImS11 ReS21 ImS21 ReS12 ImS12 ReS22 ImS22
12607400000.0 0.6152115984413965 0.7883620292372066 -8.9908726563475e-17 -6.42046932576686e-17 -8.9908726563475e-17 -6.42046932576686e-17 0.6152110710365097 0.7883624408062156
12608017333.333334 0.623467838523529 0.7818489971385918 -9.056678936952719e-17 -6.323526180072382e-17 -9.056678936952719e-17 -6.323526180072382e-17 0.6234673155013903 0.7818494142105069
12608634666.666666 0.6316551323582559 0.7752495042019039 -9.121440888108702e-17 -6.225909823631778e-17 -9.121440888108702e-17 -6.225909823631778e-17 0.6316546137762712 0.7752499267300662
12609252000.0 0.6397725745530234 0.7685642802327077 -9.185151636597791e-17 -6.127631496640723e-17 -9.185151636597791e-17 -6.127631496640723e-17 0.6397720604681024 0.7685647081698598
12609869333.333334 0.6478192674398506 0.7617940645171228 -9.247804430077395e-17 -6.02870250931574e-17 -9.247804430077395e-17 -6.02870250931574e-17 0.6478187579084012 0.7617944978154145
12610486666.666666 0.6557943211744907 0.7549396057401626 -9.309392637790832e-17 -5.929134240596778e-17 -9.309392637790832e-17 -5.929134240596778e-17 0.6557938162524104 0.7549400443511546
12611104000.0 0.6636968538350702 0.7480016619027351 -9.369909751266868e-17 -5.828938136838259e-17 -9.369909751266868e-17 -5.828938136838259e-17 0.6636963535777414 0.7480021057774056
12611721333.333334 0.6715259915193145 0.74098100023808 -9.429349385001154e-17 -5.728125710499786e-17 -9.429349385001154e-17 -5.728125710499786e-17 0.6715254959815995 0.7409814493268305
12612338666.666666 0.6792808684414064 0.7338783971267401 -9.48770527712747e-17 -5.626708538823488e-17 -9.48770527712747e-17 -5.626708538823488e-17 0.6792803776776393 0.7338788513793999
12612956000.0 0.6869606270277236 0.7266946380106992 -9.544971290073178e-17 -5.524698262507277e-17 -9.544971290073178e-17 -5.524698262507277e-17 0.6869601410917054 0.7266950973765318
12613573333.333334 0.6945644180114875 0.7194305173067008 -9.601141411199092e-17 -5.422106584373956e-17 -9.601141411199092e-17 -5.422106584373956e-17 0.694563936956481 0.7194309817344098
12614190666.666666 0.7020914005268887 0.7120868383182043 -9.656209753427955e-17 -5.3189452680286846e-17 -9.656209753427955e-17 -5.3189452680286846e-17 0.7020909244056103 0.7120873077559371
12614808000.0 0.7095407422019678 0.7046644131466445 -9.710170555856267e-17 -5.2152261365142274e-17 -9.710170555856267e-17 -5.2152261365142274e-17 0.7095402710665847 0.7046648875420012
12615425333.333334 0.716911619250686 0.6971640626016109 -9.763018184352637e-17 -5.1109610709584275e-17 -9.763018184352637e-17 -5.1109610709584275e-17 0.7169111531528082 0.6971645419016477
12616042666.666666 0.7242032165640244 0.6895866161100763 -9.814747132141465e-17 -5.006162009215935e-17 -9.814747132141465e-17 -5.006162009215935e-17 0.7242027555546988 0.6895871002613116
12616660000.0 0.7314147278001184 0.6819329116246722 -9.865352020372076e-17 -4.9008409445040905e-17 -9.865352020372076e-17 -4.9008409445040905e-17 0.7314142719298266 0.681933400573095
12617277333.333334 0.7385453554734522 0.6742037955310073 -9.914827598673564e-17 -4.7950099240325755e-17 -9.914827598673564e-17 -4.7950099240325755e-17 0.7385449047921008 0.6742042892220802
12617894666.666666 0.7455943110429486 0.6664001225541716 -9.963168745693369e-17 -4.688681047630922e-17 -9.963168745693369e-17 -4.688681047630922e-17 0.7455938655998661 0.666400620932838
12618512000.0 0.7525608149993824 0.6585227556639858 -1.0010370469625335e-16 -4.581866466361548e-17 -1.0010370469625335e-16 -4.581866466361548e-17 0.7525603748433135 0.658523258674677
12619129333.333334 0.7594440969513334 0.6505725659798439 -1.0056427908716479e-16 -4.474578381141806e-17 -1.0056427908716479e-16 -4.474578381141806e-17 0.7594436621304327 0.6505730735664835
12619746666.666666 0.7662433957104774 0.6425504326742769 -1.010133633176522e-16 -4.366829041347316e-17 -1.010133633176522e-16 -4.366829041347316e-17 0.7662429662723059 0.6425509447802891
12620364000.0 0.7729579593759651 0.63445724287549 -1.0145091138602033e-16 -4.2586307434160515e-17 -1.0145091138602033e-16 -4.2586307434160515e-17 0.7729575353674826 0.6344577594438033
12620981333.333334 0.7795870454171455 0.626293891569757 -1.0187687860553079e-16 -4.149995829452885e-17 -1.0187687860553079e-16 -4.149995829452885e-17 0.7795866268847077 0.6262944125428132
12621598666.666666 0.7861299207560662 0.6180612815019932 -1.0229122160893527e-16 -4.0409366858186394e-17 -1.0229122160893527e-16 -4.0409366858186394e-17 0.7861295077454189 0.6180618068217526
12622216000.0 0.7925858618483569 0.6097603230761427 -1.0269389835282187e-16 -3.931465741723324e-17 -1.0269389835282187e-16 -3.931465741723324e-17 0.7925854544046305 0.6097608526840905
12622833333.333334 0.7989541547632965 0.6013919342544349 -1.0308486812182644e-16 -3.8215954678113544e-17 -1.0308486812182644e-16 -3.8215954678113544e-17 0.7989537529310019 0.601392468091588
12623450666.666666 0.8052340952626948 0.5929570404559626 -1.0346409153268583e-16 -3.7113383747447395e-17 -1.0346409153268583e-16 -3.7113383747447395e-17 0.8052336990857172 0.5929575784628752
12624068000.0 0.811424988878856 0.5844565744542298 -1.038315305381491e-16 -3.6007070117796626e-17 -1.038315305381491e-16 -3.6007070117796626e-17 0.8114245984004517 0.5844571165710019
12624685333.333334 0.8175261509913925 0.5758914762739787 -1.0418714843073195e-16 -3.489713965340441e-17 -1.0418714843073195e-16 -3.489713965340441e-17 0.8175257662541834 0.5758920224402614
12625302666.666666 0.8235369069027682 0.5672626930874675 -1.0453090984630975e-16 -3.378371857593153e-17 -1.0453090984630975e-16 -3.378371857593153e-17 0.8235365279487361 0.5672632432424694
12625920000.0 0.8294565919131539 0.5585711791093773 -1.0486278076758143e-16 -3.2666933450083817e-17 -1.0486278076758143e-16 -3.2666933450083817e-17 0.829456218783639 0.5585717331918728
12626537333.333334 0.8352845513937089 0.5498178954916195 -1.0518272852735325e-16 -3.154691116929267e-17 -1.0518272852735325e-16 -3.154691116929267e-17 0.8352841841294021 0.5498184534399546
12627154666.666666 0.841020140859072 0.5410038102169068 -1.0549072181168899e-16 -3.042377894130509e-17 -1.0549072181168899e-16 -3.042377894130509e-17 0.8410197795000108 0.541004371969005
12627772000.0 0.8466627260387184 0.5321298979915625 -1.0578673066290496e-16 -2.929766427374337e-17 -1.0578673066290496e-16 -2.929766427374337e-17 0.846662370624285 0.5321304634849338
12628389333.333334 0.8522116829468891 0.5231971401380692 -1.0607072648239578e-16 -2.8168694959697224e-17 -1.0607072648239578e-16 -2.8168694959697224e-17 0.8522113335158044 0.5231977093098161
12629006666.666666 0.857666397951825 0.5142065244861898 -1.0634268203332991e-16 -2.7036999063202104e-17 -1.0634268203332991e-16 -2.7036999063202104e-17 0.8576660545421428 0.5142070972730132
12629624000.0 0.8630262678434526 0.5051590452639902 -1.0660257144316979e-16 -2.590270490477095e-17 -1.0660257144316979e-16 -2.590270490477095e-17 0.8630259304925592 0.5051596216021985
12630241333.333334 0.868290699900185 0.49605570298775015 -1.0685037020605131e-16 -2.4765941046851668e-17 -1.0685037020605131e-16 -2.4765941046851668e-17 0.8682903686447928 0.49605628281326536
12630858666.666666 0.8734591119543813 0.4868975043514676 -1.0708605518500037e-16 -2.3626836279299404e-17 -1.0708605518500037e-16 -2.3626836279299404e-17 0.8734587868305241 0.4868980875998315
12631476000.0 0.8785309324568928 0.4776854621152365 -1.0730960461400519e-16 -2.2485519604777108e-17 -1.0730960461400519e-16 -2.2485519604777108e-17 0.8785306134999233 0.47768604872161907
12632093333.333334 0.8835056005400304 0.468420594993671 -1.0752099809991878e-16 -2.1342120224211115e-17 -1.0752099809991878e-16 -2.1342120224211115e-17 0.8835052877846159 0.4684211848928773
12632710666.666666 0.8883825660797591 0.459103927542956 -1.077202166242189e-16 -2.019676752217227e-17 -1.077202166242189e-16 -2.019676752217227e-17 0.8883822595598779 0.45910452066943325
12633328000.0 0.893161289756539 0.4497364900475169 -1.0790724254461065e-16 -1.9049591052244884e-17 -1.0790724254461065e-16 -1.9049591052244884e-17 0.8931609895054771 0.4497370863353623
12633945333.333334 0.8978412431148648 0.44031931840628913 -1.0808205959646705e-16 -1.790072052242552e-17 -1.0808205959646705e-16 -1.790072052242552e-17 0.8978409491652108 0.44031991778925633
12634562666.666666 0.9024219086217672 0.4308534540180359 -1.0824465289412145e-16 -1.6750285780467144e-17 -1.0824465289412145e-16 -1.6750285780467144e-17 0.9024216210054103 0.4308540564295427
12635180000.0 0.9069027797240337 0.4213399436662105 -1.0839500893200115e-16 -1.5598416799231647e-17 -1.0839500893200115e-16 -1.5598416799231647e-17 0.9069024984721601 0.42134054903934687
12635797333.333334 0.9112833609042369 0.41177983940317264 -1.0853311558560684e-16 -1.4445243662028003e-17 -1.0853311558560684e-16 -1.4445243662028003e-17 0.9112830860473252 0.41178044767070693
12636414666.666666 0.9155631677354846 0.4021741984339494 -1.0865896211233391e-16 -1.3290896547959035e-17 -1.0865896211233391e-16 -1.3290896547959035e-17 0.915562899303303 0.4021748095283367
12637032000.0 0.91974172693506 0.39252408299916985 -1.0877253915214258e-16 -1.2135505717232391e-17 -1.0877253915214258e-16 -1.2135505717232391e-17 0.9197414649566642 0.3925246968525594
12637649333.333334 0.9238185764167122 0.38283056025769996 -1.0887383872806785e-16 -1.0979201496498918e-17 -1.0887383872806785e-16 -1.0979201496498918e-17 0.9238183209204415 0.38283117680194256
12638266666.666666 0.9277932653417701 0.3730947021686052 -1.0896285424657658e-16 -9.822114264173951e-18 -1.0896285424657658e-16 -9.822114264173951e-18 0.9277930163552444 0.37309532133526097
12638884000.0 0.9316653541689971 0.36331758537260805 -1.0903958049776765e-16 -8.664374435761517e-18 -1.0903958049776765e-16 -8.664374435761517e-18 0.9316651117191125 0.36331820709295326
12639501333.333334 0.9354344147032059 0.3535002910730001 -1.0910401365541744e-16 -7.506112449177074e-18 -1.0910401365541744e-16 -7.506112449177074e-18 0.9354341788161341 0.3535009152780357
12640118666.666666 0.9391000301425538 0.3436439049162377 -1.0915615127686844e-16 -6.347458750095178e-18 -1.0915615127686844e-16 -6.347458750095178e-18 0.9390998008437381 0.3436445315366966
12640736000.0 0.9426617951247908 0.3337495168714589 -1.0919599230276525e-16 -5.1885437772336505e-18 -1.0919599230276525e-16 -5.1885437772336505e-18 0.9426615724389437 0.33375014583781387
12641353333.333334 0.9461193157718528 0.3238182211105895 -1.0922353705663058e-16 -4.02949794776855e-18 -1.0922353705663058e-16 -4.02949794776855e-18 0.9461190997229529 0.32381885235306046
12641970666.666666 0.9494722097336212 0.3138511158867829 -1.092387872442909e-16 -2.8704516426174686e-18 -1.092387872442909e-16 -2.8704516426174686e-18 0.9494720003449116 0.31385174933534504
12642588000.0 0.9527201062301118 0.30384930341323785 -1.092417459531437e-16 -1.7115351918289533e-18 -1.092417459531437e-16 -1.7115351918289533e-18 0.9527199035240953 0.303849938997629
12643205333.333334 0.9558626460924834 0.2938138897412821 -1.0923241765127103e-16 -5.528788599491686e-19 -1.0923241765127103e-16 -5.528788599491686e-19 0.9558624500909225 0.29381452739101094
12643822666.666666 0.9588994818027929 0.28374598463795236 -1.0921080818639791e-16 6.0538716860766e-19 -1.0921080818639791e-16 6.0538716860766e-19 0.9588992925267074 0.2837466242823063
12644440000.0 0.9618302775323915 0.2736467014633784 -1.091769247846962e-16 1.76313280414615e-18 -1.091769247846962e-16 1.76313280414615e-18 0.9618300950020551 0.2736473430314311
12645057333.333334 0.9646547091790407 0.2635171570477452 -1.0913077604943423e-16 2.9202280662789553e-18 -1.0913077604943423e-16 2.9202280662789553e-18 0.9646545334139778 0.26351780046836415
12645674666.666666 0.967372464402799 0.2533584715676232 -1.0907237195947186e-16 4.076543098494875e-18 -1.0907237195947186e-16 4.076543098494875e-18 0.9673722954217854 0.2533591167694784
12646292000.0 0.9699832426605813 0.24317176842201135 -1.0900172386760063e-16 5.231948182729026e-18 -1.0900172386760063e-16 5.231948182729026e-18 0.969983080481642 0.2431724153335829
12646909333.333334 0.972486755239314 0.2329581741084361 -1.0891884449873312e-16 6.386313753849818e-18 -1.0891884449873312e-16 6.386313753849818e-18 0.9724865998797166 0.23295882265802145
12647526666.666666 0.9748827252879242 0.2227188180981014 -1.0882374794793527e-16 7.539510414194329e-18 -1.0882374794793527e-16 7.539510414194329e-18 0.9748825767641839 0.2227194682138245
12648144000.0 0.9771708878479552 0.21245483271101437 -1.087164496783067e-16 8.691408948045074e-18 -1.087164496783067e-16 8.691408948045074e-18 0.9771707461758281 0.2124554843208326
12648761333.333334 0.979350989882834 0.2021673529908769 -1.0859696651870944e-16 9.841880336071437e-18 -1.0859696651870944e-16 9.841880336071437e-18 0.9793508550773179 0.20216800602258983
12649378666.666666 0.9814227903058629 0.19185751657956904 -1.0846531666134387e-16 1.0990795769755841e-17 -1.0846531666134387e-16 1.0990795769755841e-17 0.9814226623811938 0.1918581709608257
12649996000.0 0.9833860600069009 0.18152646359120173 -1.08321519659169e-16 1.213802666580585e-17 -1.08321519659169e-16 1.213802666580585e-17 0.9833859389765536 0.1815271192495092
12650613333.333334 0.9852405818776893 0.17117533648612202 -1.081655964231745e-16 1.328344468051385e-17 -1.081655964231745e-16 1.328344468051385e-17 0.9852404677543741 0.1711759933488531
12651230666.666666 0.9869861508358342 0.16080527994468483 -1.0799756921950363e-16 1.4426921724062738e-17 -1.0799756921950363e-16 1.4426921724062738e-17 0.9869860436314971 0.16080593793908637
12651848000.0 0.9886225738475405 0.15041744074038932 -1.0781746166641285e-16 1.556832997488643e-17 -1.0781746166641285e-16 1.556832997488643e-17 0.988622473573361 0.15041809979359005
12652465333.333334 0.990149669948911 0.1400129676133144 -1.0762529873109699e-16 1.670754189387809e-17 -1.0762529873109699e-16 1.670754189387809e-17 0.9901495766153005 0.14001362765233305
12653082666.666666 0.9915672702659623 0.1295930111430858 -1.0742110672635696e-16 1.7844430238616373e-17 -1.0742110672635696e-16 1.7844430238616373e-17 0.9915671838825648 0.12959367209483932
12653700000.0 0.9928752180333412 0.11915872362135771 -1.0720491330710604e-16 1.897886807761365e-17 -1.0720491330710604e-16 1.897886807761365e-17 0.9928751386090295 0.11915938541266907
12654317333.333334 0.9940733686116001 0.1087112589247803 -1.069767474667527e-16 2.0110728804377402e-17 -1.069767474667527e-16 2.0110728804377402e-17 0.9940732961544798 0.1087119214823871
12654934666.666666 0.9951615895032394 0.09825177238711728 -1.0673663953340848e-16 2.1239886151575902e-17 -1.0673663953340848e-16 2.1239886151575902e-17 0.995161524020643 0.09825243563767933
12655552000.0 0.9961397603673504 0.08778142067148237 -1.0648462116595687e-16 2.2366214205099068e-17 -1.0648462116595687e-16 2.2366214205099068e-17 0.9961397018658369 0.08778208454158987
12656169333.333334 0.9970077730328967 0.0773013616426553 -1.0622072534998732e-16 2.348958741801997e-17 -1.0622072534998732e-16 2.348958741801997e-17 0.9970077215182559 0.07730202605883742
12656786666.666666 0.9977655315107059 0.06681275423887093 -1.0594498639355696e-16 2.4609880624624506e-17 -1.0594498639355696e-16 2.4609880624624506e-17 0.9977654869879515 0.06681341912760336
12657404000.0 0.998412952004075 0.05631675834362847 -1.0565743992282435e-16 2.5726969054301986e-17 -1.0565743992282435e-16 2.5726969054301986e-17 0.9984129144774485 0.056317423631341956
12658021333.333334 0.9989499629180347 0.045814534657482586 -1.0535812287752856e-16 2.68407283454252e-17 -1.0535812287752856e-16 2.68407283454252e-17 0.9989499323910043 0.04581520027057095
12658638666.666666 0.9993765048672669 0.03530724456980109 -1.0504707350632857e-16 2.795103455915521e-17 -1.0504707350632857e-16 2.795103455915521e-17 0.9993764813425244 0.03530791043462926
12659256000.0 0.9996925306826754 0.024796050030048238 -1.0472433136198496e-16 2.9057764193237844e-17 -1.0472433136198496e-16 2.9057764193237844e-17 0.9996925141621407 0.02479671607296058
12659873333.333334 0.9998980054166007 0.014282113419546404 -1.0438993729641247e-16 3.01607941956892e-17 -1.0438993729641247e-16 3.01607941956892e-17 0.9998979959014165 0.014282779566874699
12660490666.666666 0.9999929063466791 0.0037665974229338156 -1.040439334555816e-16 3.126000197845213e-17 -1.040439334555816e-16 3.126000197845213e-17 0.9999929038372151 0.0037672636010055234
12661108000.0 0.9999772229783653 -0.00674933510069501 -1.0368636327426707e-16 3.235526543102458e-17 -1.0368636327426707e-16 3.235526543102458e-17 0.999977227474215 -0.006748668965548653
12661725333.333334 0.9998509570460844 -0.017264521245986354 -1.0331727147067568e-16 3.344646293395826e-17 -1.0331727147067568e-16 3.344646293395826e-17 0.9998509685460686 -0.017263855227422194
12662342666.666666 0.9996141225130468 -0.027777798190239948 -1.0293670404090904e-16 3.453347337237052e-17 -1.0293670404090904e-16 3.453347337237052e-17 0.9996141410152094 -0.027777132361894708
12662960000.0 0.999266745569696 -0.03828800332185752 -1.025447082532992e-16 3.561617614934702e-17 -1.025447082532992e-16 3.561617614934702e-17 0.9992667710713095 -0.03828733775733978
12663577333.333334 0.9988088646308203 -0.04879397436893897 -1.0214133264259861e-16 3.6694451199298835e-17 -1.0214133264259861e-16 3.6694451199298835e-17 0.9988088971283824 -0.04879330914182093
12664194666.666666 0.9982405303313019 -0.05929454952781216 -1.017266270040303e-16 3.7768179001251406e-17 -1.017266270040303e-16 3.7768179001251406e-17 0.9982405698205369 -0.05929388471162153
12664812000.0 0.997561805520515 -0.06978856759151103 -1.0130064238719926e-16 3.883724059206743e-17 -1.0130064238719926e-16 3.883724059206743e-17 0.9975618519963745 -0.06978790325972294
12665429333.333334 0.9967727652553767 -0.08027486807821625 -1.0086343108986371e-16 3.99015175796045e-17 -1.0086343108986371e-16 3.99015175796045e-17 0.9967728187120402 -0.08027420430424506
12666046666.666666 0.9958734967920553 -0.09075229135944538 -1.0041504665157558e-16 4.0960892155786396e-17 -1.0041504665157558e-16 4.0960892155786396e-17 0.9958735572229311 -0.09075162821663663
12666664000.0 0.9948640995762975 -0.1012196787886021 -9.99555438471651e-17 4.201524710964927e-17 -9.99555438471651e-17 4.201524710964927e-17 0.9948641669740235 -0.10121901635022439
12667281333.333334 0.9937446852324654 -0.11167587282870894 -9.948497868011901e-17 4.3064465840244557e-17 -9.948497868011901e-17 4.3064465840244557e-17 0.9937447595889094 -0.11167521116794583
12667898666.666666 0.9925153775511653 -0.12211971718069654 -9.900340837579419e-17 4.41084323695363e-17 -9.900340837579419e-17 4.41084323695363e-17 0.9925154588574275 -0.12211905637063857
12668516000.0 0.9911763124755539 -0.13255005691130106 -9.851089137450832e-17 4.514703135519501e-17 -9.851089137450832e-17 4.514703135519501e-17 0.9911764007219657 -0.13254939702493743
12669133333.333334 0.9897276380863481 -0.1429657385804156 -9.800748732450919e-17 4.618014810329025e-17 -9.800748732450919e-17 4.618014810329025e-17 0.9897277332624754 -0.1429650796906264
12669750666.666666 0.9881695145853973 -0.15336561036909546 -9.749325707478573e-17 4.72076685809582e-17 -9.749325707478573e-17 4.72076685809582e-17 0.98816961668004 -0.1533649525486434
12670368000.0 0.9865021142779906 -0.16374852220670563 -9.696826266776517e-17 4.822947942895099e-17 -9.696826266776517e-17 4.822947942895099e-17 0.9865022232791845 -0.16374786552822795
