! Parameters = {f0=12700.012000; bw=77.238000; Q=6100.000000; N=10; m_0_1=1.329224; m_1_1=1.173618; m_1_2=1.164036; m_2_2=1.172969; m_2_3=0.800999; m_2_8=0.003525; m_2_9=0.040229; m_3_3=1.171032; m_3_4=0.689528; m_3_7=0.004125; m_3_8=-0.092963; m_3_9=0.003525; m_4_4=1.168107; m_4_5=0.525863; m_4_6=0.007642; m_4_7=-0.113512; m_4_8=0.004125; m_5_5=1.168489; m_5_6=0.933218; m_5_7=0.007642; m_6_6=1.168488; m_6_7=0.526205; m_7_7=1.168121; m_7_8=0.689646; m_8_8=1.171030; m_8_9=0.801312; m_9_9=1.172964; m_9_10=1.165114; m_10_10=1.173608; m_10_11=1.330019}
!
! Created with skrf (http://scikit-rf.org).
# Hz S RI R 50.0 
!freq ReS11 ImS11 ReS21 ImS21 ReS12 ImS12 ReS22 ImS22
12607400000.0 -0.8978262966407049 0.4403497939822873 1.0674782439492578e-16 -9.825564798638031e-17 1.0674782439492578e-16 -9.825564798638031e-17 -0.8978266049741223 0.44034916532275575
12608017333.333334 -0.8923540539189191 0.4513360637643269 1.0550435501479722e-16 -9.954827639282508e-17 1.0550435501479722e-16 -9.954827639282508e-17 -0.8923543699294711 0.45133543896705386
12608634666.666666 -0.8867473838032952 0.4622543426705887 1.0424524857690136e-16 -1.0082518497454021e-16 1.0424524857690136e-16 -1.0082518497454021e-16 -0.8867477074426271 0.4622537218293128
12609252000.0 -0.88100713090268 0.4731029859326973 1.0297070360580157e-16 -1.020861847648412e-16 1.0297070360580157e-16 -1.020861847648412e-16 -0.8810074621212935 0.47310236914055265
12609869333.333334 -0.8751341599492942 0.4838803592724667 1.0168092090717022e-16 -1.0333108930171717e-16 1.0168092090717022e-16 -1.0333108930171717e-16 -0.8751344986965529 0.4838797466219676
12610486666.666666 -0.8691293556685689 0.4945848391478907 1.0037610353621543e-16 -1.0455971465533874e-16 1.0037610353621543e-16 -1.0455971465533874e-16 -0.8691297018927097 0.49458423073091995
12611104000.0 -0.8629936226456442 0.5052148129981483 9.905645676575568e-17 -1.0577187945518819e-16 9.905645676575568e-17 -1.0577187945518819e-16 -0.8629939762937808 0.5052142089059407
12611721333.333334 -0.8567278851893251 0.5157686794860971 9.772218805404291e-17 -1.0696740491671711e-16 9.772218805404291e-17 -1.0696740491671711e-16 -0.8567282462074589 0.5157680798092278
12612338666.666666 -0.85033308719275 0.5262448487396836 9.637350701216599e-17 -1.0814611486769258e-16 9.637350701216599e-17 -1.0814611486769258e-16 -0.8503334555257773 0.5262442535680535
12612956000.0 -0.8438101919911071 0.5366417425915893 9.501062537119377e-17 -1.093078357740788e-16 9.501062537119377e-17 -1.093078357740788e-16 -0.8438105675828267 0.5366411520144112
12613573333.333334 -0.8371601822166894 0.5469577948166799 9.363375694903678e-17 -1.1045239676548313e-16 9.363375694903678e-17 -1.1045239676548313e-16 -0.837160565009814 0.5469572089224669
12614190666.666666 -0.8303840596507704 0.5571914513681202 9.22431176169158e-17 -1.1157962966026053e-16 9.22431176169158e-17 -1.1157962966026053e-16 -0.8303844495869324 0.5571908702446707
12614808000.0 -0.8234828450726691 0.5673411706115008 9.083892526560421e-17 -1.1268936899013257e-16 9.083892526560421e-17 -1.1268936899013257e-16 -0.8234832420924318 0.5673405943458867
12615425333.333334 -0.8164575781060113 0.5774054235570303 8.942139977135694e-17 -1.137814520243986e-16 8.942139977135694e-17 -1.137814520243986e-16 -0.816457982148875 0.5774048522355819
12616042666.666666 -0.809309317062161 0.5873826940897945 8.799076296152397e-17 -1.1485571879374082e-16 8.799076296152397e-17 -1.1485571879374082e-16 -0.8093097280665755 0.5873821277980902
12616660000.0 -0.8020391387807017 0.5972714791982934 8.6547238579911e-17 -1.159120121135716e-16 8.6547238579911e-17 -1.159120121135716e-16 -0.8020395566840736 0.5972709180211451
12617277333.333334 -0.7946481384672416 0.6070702892008091 8.509105225183802e-17 -1.1695017760696367e-16 8.509105225183802e-17 -1.1695017760696367e-16 -0.7946485632059452 0.6070697332222503
12617894666.666666 -0.7871374295285721 0.6167776479696386 8.362243144896477e-17 -1.1797006372711464e-16 8.362243144896477e-17 -1.1797006372711464e-16 -0.7871378610379569 0.6167770972729106
12618512000.0 -0.7795081434046247 0.626392093153867 8.21416054537568e-17 -1.1897152177943385e-16 8.21416054537568e-17 -1.1897152177943385e-16 -0.7795085816190275 0.626391547821408
12619129333.333334 -0.7717614293984122 0.6359121763991684 8.064880532382385e-17 -1.199544059430907e-16 8.064880532382385e-17 -1.199544059430907e-16 -0.7717618742511662 0.6359116365126007
12619746666.666666 -0.7638984545025963 0.6453364635663726 7.914426385586918e-17 -1.2091857329220721e-16 7.914426385586918e-17 -1.2091857329220721e-16 -0.7638989059260417 0.6453359292064902
12620364000.0 -0.7559204032237354 0.6546635349474365 7.762821554945793e-17 -1.2186388381655e-16 7.762821554945793e-17 -1.2186388381655e-16 -0.755920861149228 0.6546630061941922
12620981333.333334 -0.7478284774040672 0.6638919854790557 7.6100896570551e-17 -1.22790200441764e-16 7.6100896570551e-17 -1.22790200441764e-16 -0.7478289417619911 0.6638914624115506
12621598666.666666 -0.7396238960401667 0.6730204249546758 7.456254471475318e-17 -1.2369738904917788e-16 7.456254471475318e-17 -1.2369738904917788e-16 -0.7396243667599443 0.6730199076511474
12622216000.0 -0.7313078950994573 0.6820474782337431 7.301339937034441e-17 -1.2458531849513948e-16 7.301339937034441e-17 -1.2458531849513948e-16 -0.7313083721095588 0.682046966771552
12622833333.333334 -0.722881727334041 0.6909717854488407 7.145370148108854e-17 -1.2545386062988405e-16 7.145370148108854e-17 -1.2545386062988405e-16 -0.7228822105619965 0.6909712799044607
12623450666.666666 -0.7143466620919434 0.6997920022105887 6.988369350884123e-17 -1.2630289031592716e-16 6.988369350884123e-17 -1.2630289031592716e-16 -0.7143471514643528 0.6997915026595938
12624068000.0 -0.7057039851258716 0.7085067998101848 6.830361939587591e-17 -1.271322854460255e-16 6.830361939587591e-17 -1.271322854460255e-16 -0.7057044805684168 0.7085063063272393
12624685333.333334 -0.6969549983994648 0.7171148654196267 6.671372452704469e-17 -1.279419269606417e-16 6.671372452704469e-17 -1.279419269606417e-16 -0.6969554998369202 0.7171143780784734
12625302666.666666 -0.6881010198914416 0.7256149022891994 6.511425569177415e-17 -1.2873169886491683e-16 6.511425569177415e-17 -1.2873169886491683e-16 -0.6881015272476874 0.7256144211626501
12625920000.0 -0.6791433833966134 0.7340056299432642 6.350546104573735e-17 -1.2950148824523121e-16 6.350546104573735e-17 -1.2950148824523121e-16 -0.6791438965946437 0.7340051551031851
12626537333.333334 -0.6700834383254016 0.7422857843727142 6.188759007247125e-17 -1.3025118528521863e-16 6.188759007247125e-17 -1.3025118528521863e-16 -0.6700839572873398 0.7422853158900196
12627154666.666666 -0.6609225495002953 0.7504541182256499 6.026089354473302e-17 -1.3098068328133718e-16 6.026089354473302e-17 -1.3098068328133718e-16 -0.660923074147403 0.7504536561702883
12627772000.0 -0.6516620969501792 0.7585094009953347 5.862562348563686e-17 -1.3168987865797563e-16 5.862562348563686e-17 -1.3168987865797563e-16 -0.6516626272028708 0.7585089454362814
12628389333.333334 -0.6423034757028077 0.7664504192052475 5.698203312974975e-17 -1.323786709820151e-16 5.698203312974975e-17 -1.323786709820151e-16 -0.642304011480659 0.7664499702104897
12629006666.666666 -0.6328480955741986 0.7742759765922717 5.5330376883829625e-17 -1.330469629769877e-16 5.5330376883829625e-17 -1.330469629769877e-16 -0.6328486367959628 0.7742755342288036
12629624000.0 -0.623297380956558 0.781984894286649 5.367091028759548e-17 -1.336946605366626e-16 5.367091028759548e-17 -1.336946605366626e-16 -0.6232979275401747 0.7819844586204576
12630241333.333334 -0.613652770603639 0.7895760109896229 5.200388997417804e-17 -1.3432167273821292e-16 5.200388997417804e-17 -1.3432167273821292e-16 -0.6136533224662487 0.7895755820856806
12630858666.666666 -0.6039157174140034 0.7970481831483822 5.0329573630543304e-17 -1.3492791185483806e-16 5.0329573630543304e-17 -1.3492791185483806e-16 -0.6039162744719603 0.797047761070637
12631476000.0 -0.594087688211973 0.804400285128468 4.864821995764487e-17 -1.3551329336794237e-16 4.864821995764487e-17 -1.3551329336794237e-16 -0.5940882503808561 0.8043998699398331
12632093333.333334 -0.5841701635269981 0.8116312093830845 4.6960088630567475e-17 -1.3607773597877103e-16 4.6960088630567475e-17 -1.3607773597877103e-16 -0.5841707307216248 0.8116308011454287
12632710666.666666 -0.5741646373704475 0.818739866620082 4.526544025846412e-17 -1.3662116161957544e-16 4.526544025846412e-17 -1.3662116161957544e-16 -0.5741652095048869 0.8187394653942223
12633328000.0 -0.5640726170103826 0.8257251859661697 4.3564536344335163e-17 -1.3714349546429154e-16 4.3564536344335163e-17 -1.3714349546429154e-16 -0.5640731939979676 0.8257247918118592
12633945333.333334 -0.5538956227447718 0.8325861151280316 4.1857639244779603e-17 -1.376446659386869e-16 4.1857639244779603e-17 -1.376446659386869e-16 -0.5538962044981136 0.8325857281039539
12634562666.666666 -0.543635187672332 0.8393216205509515 4.014501212955411e-17 -1.381246047300336e-16 4.014501212955411e-17 -1.381246047300336e-16 -0.5436357741033312 0.8393212407147094
12635180000.0 -0.5332928574615728 0.8459306875745064 3.842691894107027e-17 -1.3858324679626318e-16 3.842691894107027e-17 -1.3858324679626318e-16 -0.533293448481435 0.8459303149826151
12635797333.333334 -0.5228701901180268 0.8524123205853762 3.6703624353739026e-17 -1.3902053037463514e-16 3.6703624353739026e-17 -1.3902053037463514e-16 -0.5228707856372744 0.8524119552932534
12636414666.666666 -0.5123687557494708 0.8587655431673685 3.4975393733297356e-17 -1.3943639698987717e-16 3.4975393733297356e-17 -1.3943639698987717e-16 -0.5123693556779579 0.858765185229328
12637032000.0 -0.5017901363294522 0.8649893982484859 3.324249309594712e-17 -1.39830791461848e-16 3.324249309594712e-17 -1.39830791461848e-16 -0.5017907405763765 0.8649890477177263
12637649333.333334 -0.491135925458896 0.8710829482451379 3.150518906749318e-17 -1.4020366191267168e-16 3.150518906749318e-17 -1.4020366191267168e-16 -0.49113653393281476 0.8710826051737391
12638266666.666666 -0.4804077281260919 0.8770452752033583 2.976374884236087e-17 -1.4055495977337526e-16 2.976374884236087e-17 -1.4055495977337526e-16 -0.48040834073493405 0.8770449396422713
12638884000.0 -0.46960716046498596 0.8828754809370465 2.801844014257063e-17 -1.4088463979001295e-16 2.801844014257063e-17 -1.4088463979001295e-16 -0.46960777711606627 0.8828751529360845
12639501333.333334 -0.45873584951152074 0.8885726871633804 2.6269531176599957e-17 -1.4119266002929107e-16 2.6269531176599957e-17 -1.4119266002929107e-16 -0.4587364701115548 0.8885723667712147
12640118666.666666 -0.4477954329589117 0.8941360356349298 2.4517290598279463e-17 -1.4147898188366595e-16 2.4517290598279463e-17 -1.4147898188366595e-16 -0.4477960574140288 0.8941357228990793
12640736000.0 -0.43678755891022963 0.8995646882693045 2.276198746546397e-17 -1.4174357007596216e-16 2.276198746546397e-17 -1.4174357007596216e-16 -0.4367881871259877 0.8995643832361311
12641353333.333334 -0.42571388563106216 0.9048578272749325 2.1003891198923707e-17 -1.4198639266343544e-16 2.1003891198923707e-17 -1.4198639266343544e-16 -0.4257145175124621 0.904857529989633
12641970666.666666 -0.4145760812989982 0.9100146552746143 1.9243271540910364e-17 -1.4220742104137259e-16 1.9243271540910364e-17 -1.4220742104137259e-16 -0.41457671675049773 0.910014365781214
12642588000.0 -0.4033758237525537 0.9150343954255251 1.748039851389943e-17 -1.4240662994614459e-16 1.748039851389943e-17 -1.4240662994614459e-16 -0.40337646267808247 0.915034113766872
12643205333.333334 -0.3921148002384699 0.9199162915362206 1.5715542379197318e-17 -1.4258399745776743e-16 1.5715542379197318e-17 -1.4258399745776743e-16 -0.3921154425414432 0.9199160177539772
12643822666.666666 -0.3807947071573822 0.9246596081806168 1.3948973595560063e-17 -1.427395050019434e-16 1.3948973595560063e-17 -1.427395050019434e-16 -0.38079535274071624 0.9246593423152557
12644440000.0 -0.36941724980850493 0.9292636308086796 1.21809627778105e-17 -1.4287313735159164e-16 1.21809627778105e-17 -1.4287313735159164e-16 -0.369417898574631 0.9292633728994764
12645057333.333334 -0.357984142132529 0.9337276658541531 1.0411780655447687e-17 -1.429848826278664e-16 1.0411780655447687e-17 -1.429848826278664e-16 -0.35798479398340916 0.9337274159391826
12645674666.666666 -0.34649710645364024 0.938051040838963 8.641698031218436e-18 -1.4307473230066729e-16 8.641698031218436e-18 -1.4307473230066729e-16 -0.34649776129078097 0.938050798955091
12646292000.0 -0.33495787321968973 0.9422331044746575 6.8709857397018025e-18 -1.4314268118863397e-16 6.8709857397018025e-18 -1.4314268118863397e-16 -0.3349585309441572 0.9422328706575359
12646909333.333334 -0.3233681807419371 0.946273226760357 5.0999146059864116e-18 -1.431887274586281e-16 5.0999146059864116e-18 -1.431887274586281e-16 -0.3233688412543723 0.9462730010444198
12647526666.666666 -0.3117297749330018 0.9501707990777383 3.328755404235106e-18 -1.4321287262470946e-16 3.328755404235106e-18 -1.4321287262470946e-16 -0.3117304381336356 0.950170581496196
12648144000.0 -0.3000444090437165 0.9539252342827585 1.5577788163548795e-18 -1.4321512154659588e-16 1.5577788163548795e-18 -1.4321512154659588e-16 -0.30004507483238435 0.9539250248675925
12648761333.333334 -0.2883138433991974 0.957535966794037 -2.127446092906596e-19 -1.4319548242761517e-16 -2.127446092906596e-19 -1.4319548242761517e-16 -0.28831451167535516 0.9575357655759964
12649378666.666666 -0.2765398451337486 0.9610024526780411 -1.982544499185286e-18 -1.4315396681214763e-16 -1.982544499185286e-18 -1.4315396681214763e-16 -0.2765405157964866 0.9610022596866361
12649996000.0 -0.2647241879243524 0.9643241697311127 -3.751350695905019e-18 -1.4309058958255706e-16 -3.751350695905019e-18 -1.4309058958255706e-16 -0.264724860872412 0.9643239849946129
12650613333.333334 -0.25286865172364104 0.967500617558085 -5.518893299281323e-18 -1.4300536895561522e-16 -5.518893299281323e-18 -1.4300536895561522e-16 -0.2528693268554287 0.9675004411035119
12651230666.666666 -0.2409750224919497 0.9705313176476131 -7.284902707541542e-18 -1.428983264784179e-16 -7.284902707541542e-18 -1.428983264784179e-16 -0.240975699705553 0.9705311495007395
12651848000.0 -0.22904509192783434 0.9734158134443774 -9.049109658407909e-18 -1.427694870237912e-16 -9.049109658407909e-18 -1.427694870237912e-16 -0.22904577112103727 0.9734156536297212
12652465333.333334 -0.21708065719849237 0.9761536704177677 -1.0811245270051556e-17 -1.4261887878519662e-16 -1.0811245270051556e-17 -1.4261887878519662e-16 -0.21708133826879072 0.97615351895859
12653082666.666666 -0.20508352066911628 0.9787444761273338 -1.2571041082045587e-17 -1.4244653327112801e-16 -1.2571041082045587e-17 -1.4244653327112801e-16 -0.2050842035137332 0.9787443330456355
12653700000.0 -0.1930554896309068 0.9811878402850188 -1.4328229096241564e-17 -1.4225248529899997e-16 -1.4328229096241564e-17 -1.4225248529899997e-16 -0.19305617414680795 0.9811877056015353
12654317333.333334 -0.18099837602942706 0.9834833948138212 -1.608254181746253e-17 -1.4203677298854553e-16 -1.608254181746253e-17 -1.4203677298854553e-16 -0.18099906211333666 0.9834832685480218
12654934666.666666 -0.1689139961911723 0.9856307939033443 -1.7833712294236756e-17 -1.4179943775469746e-16 -1.7833712294236756e-17 -1.4179943775469746e-16 -0.16891468373958823 0.985630676073428
12655552000.0 -0.1568041705500342 0.9876297140618661 -1.958147415935548e-17 -1.4154052429997576e-16 -1.958147415935548e-17 -1.4154052429997576e-16 -0.15680485945924394 0.9876296046847597
12656169333.333334 -0.14467072337340073 0.9894798541650175 -2.1325561670289798e-17 -1.4126008060638346e-16 -2.1325561670289798e-17 -1.4126008060638346e-16 -0.14467141353949683 0.9894797532563724
12656786666.666666 -0.13251548248689407 0.9911809355012203 -2.3065709749608686e-17 -1.4095815792678735e-16 -2.3065709749608686e-17 -1.4095815792678735e-16 -0.1325161738057899 0.9911808430754105
12657404000.0 -0.120340278999272 0.9927327018136279 -2.480165402517944e-17 -1.40634810775818e-16 -2.480165402517944e-17 -1.40634810775818e-16 -0.12034097136671758 0.9927326178837499
12658021333.333334 -0.10814694702647143 0.9941349193387501 -2.6533130870296536e-17 -1.4029009692026572e-16 -2.6533130870296536e-17 -1.4029009692026572e-16 -0.10814764033806881 0.9941348439166168
12658638666.666666 -0.09593732341556407 0.9953873768416329 -2.825987744362945e-17 -1.3992407736899465e-16 -2.825987744362945e-17 -1.3992407736899465e-16 -0.09593801756678336 0.9953873099377768
12659256000.0 -0.08371324746759597 0.9964898856477366 -2.998163172913423e-17 -1.3953681636234496e-16 -2.998163172913423e-17 -1.3953681636234496e-16 -0.08371394235379097 0.9964898272714049
12659873333.333334 -0.07147656066084689 0.9974422796713125 -3.1698132575712084e-17 -1.3912838136106784e-16 -3.1698132575712084e-17 -1.3912838136106784e-16 -0.07147725617727099 0.997442229830468
12660490666.666666 -0.05922910637350954 0.998244415440429 -3.340911973675653e-17 -1.3869884303476755e-16 -3.340911973675653e-17 -1.3869884303476755e-16 -0.05922980241533133 0.9982443741417475
12661108000.0 -0.046972729605514144 0.9988961721186123 -3.511433390962141e-17 -1.382482752498376e-16 -3.511433390962141e-17 -1.382482752498376e-16 -0.04697342606783322 0.9988961393674809
12661725333.333334 -0.03470927670121507 0.9993974515230102 -3.6813516774799876e-17 -1.3777675505694726e-16 -3.6813516774799876e-17 -1.3777675505694726e-16 -0.03470997347907801 0.9993974273235295
12662342666.666666 -0.022440595070740393 0.9997481781392153 -3.850641103503565e-17 -1.3728436267801976e-16 -3.850641103503565e-17 -1.3728436267801976e-16 -0.022441292059156466 0.9997481624941973
12662960000.0 -0.010168532911918321 0.9999482991326238 -4.019276045423591e-17 -1.3677118149273996e-16 -4.019276045423591e-17 -1.3677118149273996e-16 -0.0101692300058753 0.9999482920435915
12663577333.333334 0.002105061068084935 0.9999977843563995 -4.187230989619475e-17 -1.3623729802458672e-16 -4.187230989619475e-17 -1.3623729802458672e-16 0.0021043639736049386 0.9999977858235861
12664194666.666666 0.014378337931431524 0.9998966263560142 -4.354480536313e-17 -1.3568280192639284e-16 -4.354480536313e-17 -1.3568280192639284e-16 0.014377640941436232 0.9998966363783645
12664812000.0 0.026649448788057247 0.9996448403703696 -4.520999403406597e-17 -1.351077859654216e-16 -4.520999403406597e-17 -1.351077859654216e-16 0.02664875200752841 0.9996448589455404
12665429333.333334 0.0389165450741381 0.9992424643295046 -4.686762430299018e-17 -1.3451234600798254e-16 -4.686762430299018e-17 -1.3451234600798254e-16 0.03891584860801569 0.9992424914538642
12666046666.666666 0.05117777883059302 0.9986895588488824 -4.8517445816787384e-17 -1.338965810035891e-16 -4.8517445816787384e-17 -1.338965810035891e-16 0.05117708278375942 0.9986895945175119
12666664000.0 0.06343130298169401 0.9979862072202463 -5.015920951306216e-17 -1.3326059296861662e-16 -5.015920951306216e-17 -1.3326059296861662e-16 0.06343060745895825 0.9979862514269403
12667281333.333334 0.07567527161283381 0.9971325153990976 -5.179266765762067e-17 -1.326044869695457e-16 -5.179266765762067e-17 -1.326044869695457e-16 0.0756745767189157 0.9971325681363644
12667898666.666666 0.08790784024905504 0.9961286119887107 -5.3417573881825886e-17 -1.3192837110571244e-16 -5.3417573881825886e-17 -1.3192837110571244e-16 0.08790714608856944 0.9961286732477742
12668516000.0 0.10012716613282274 0.994974648220756 -5.5033683219725604e-17 -1.3123235649160296e-16 -5.5033683219725604e-17 -1.3123235649160296e-16 0.10012647281026404 0.9949747179915596
12669133333.333334 0.11233140850128517 0.9936707979325574 -5.664075214488071e-17 -1.3051655723872345e-16 -5.664075214488071e-17 -1.3051655723872345e-16 0.1123307161210111 0.9936708762037605
12669750666.666666 0.12451872886402461 0.992217257540855 -5.823853860705232e-17 -1.297810904369799e-16 -5.823853860705232e-17 -1.297810904369799e-16 0.12451803753024093 0.9922173442998392
