! Parameters = {f0=12700.012000; bw=77.238000; Q=6100.000000; N=10; m_0_1=1.293589; m_1_1=0.639083; m_1_2=1.128401; m_2_2=0.638434; m_2_3=0.765364; m_2_8=0.001743; m_2_9=0.038447; m_3_3=0.636497; m_3_4=0.653893; m_3_7=0.002343; m_3_8=-0.094745; m_3_9=0.001743; m_4_4=0.633572; m_4_5=0.490228; m_4_6=0.005860; m_4_7=-0.115294; m_4_8=0.002343; m_5_5=0.633954; m_5_6=0.897583; m_5_7=0.005860; m_6_6=0.633953; m_6_7=0.490570; m_7_7=0.633586; m_7_8=0.654011; m_8_8=0.636495; m_8_9=0.765677; m_9_9=0.638429; m_9_10=1.129479; m_10_10=0.639073; m_10_11=1.294384}
!
! Created with skrf (http://scikit-rf.org).
# Hz S RI R 50.0 
!freq ReS11 ImS11 ReS21 ImS21 ReS12 ImS12 ReS22 ImS22
12607400000.0 0.6071423186785805 -0.7945931064824399 -4.4004132906054073e-17 1.1534743869943343e-16 -4.4004132906054073e-17 1.1534743869943343e-16 0.6071428601901303 -0.7945926927174478
12608017333.333334 0.5981887247439791 -0.8013552580403964 -4.2688524619138834e-17 1.1581501060613647e-16 -4.2688524619138834e-17 1.1581501060613647e-16 0.5981892708371701 -0.8013548503971958
12608634666.666666 0.5891598227165282 -0.8080165241481431 -4.136797184962835e-17 1.1626758722327743e-16 -4.136797184962835e-17 1.1626758722327743e-16 0.5891603733221658 -0.8080161226774519
12609252000.0 0.5800567492767476 -0.8145760661953614 -4.0042645400961596e-17 1.1670511654930331e-16 -4.0042645400961596e-17 1.1670511654930331e-16 0.5800573043250755 -0.8145756709471156
12609869333.333334 0.5708806504427406 -0.8210330583782182 -3.87127166200222e-17 1.171275485269309e-16 -3.87127166200222e-17 1.171275485269309e-16 0.5708812098634506 -0.8210326694015652
12610486666.666666 0.5616326814261974 -0.8273866878031313 -3.73783573750644e-17 1.1753483504877106e-16 -3.73783573750644e-17 1.1753483504877106e-16 0.5616332451484372 -0.8273863051464244
12611104000.0 0.5523140064866353 -0.8336361545893374 -3.6039740033474154e-17 1.1792692996273476e-16 -3.6039740033474154e-17 1.1792692996273476e-16 0.5523145744390185 -0.8336357783001297
12611721333.333334 0.5429257987850824 -0.8397806719694118 -3.4697037439612364e-17 1.1830378907714528e-16 -3.4697037439612364e-17 1.1830378907714528e-16 0.5429263708956966 -0.8397803020944499
12612338666.666666 0.5334692402363154 -0.8458194663883689 -3.335042289247502e-17 1.1866537016563699e-16 -3.335042289247502e-17 1.1866537016563699e-16 0.533469816432732 -0.8458191029735872
12612956000.0 0.5239455213598709 -0.8517517776011677 -3.200007012337095e-17 1.1901163297178042e-16 -3.200007012337095e-17 1.1901163297178042e-16 0.5239461015691547 -0.851751420691684
12613573333.333334 0.5143558411305772 -0.8575768587681648 -3.064615327358047e-17 1.1934253921344774e-16 -3.064615327358047e-17 1.1934253921344774e-16 0.5143564252792937 -0.857576508408272
12614190666.666666 0.5047014068271746 -0.8632939765494061 -2.9288846871892457e-17 1.1965805258694466e-16 -2.9288846871892457e-17 1.1965805258694466e-16 0.5047019948414018 -0.8632936327825699
12614808000.0 0.49498343388064436 -0.8689024111967598 -2.7928325812148016e-17 1.1995813877087505e-16 -2.7928325812148016e-17 1.1995813877087505e-16 0.49498402568597977 -0.8689020740656095
12615425333.333334 0.4852031457209712 -0.8744014566446531 -2.6564765330759852e-17 1.2024276542974724e-16 -2.6564765330759852e-17 1.2024276542974724e-16 0.48520374124254345 -0.874401126190981
12616042666.666666 0.47536177362332077 -0.8797904205988538 -2.5198340984149232e-17 1.205119022173373e-16 -2.5198340984149232e-17 1.205119022173373e-16 0.4753623727857977 -0.8797900968636063
12616660000.0 0.4654605565528307 -0.8850686246237329 -2.3829228626205245e-17 1.2076552077978359e-16 -2.3829228626205245e-17 1.2076552077978359e-16 0.46546115928042875 -0.8850683076470066
12617277333.333334 0.4555007410087819 -0.890235404227594 -2.2457604385656746e-17 1.2100359475843793e-16 -2.2457604385656746e-17 1.2100359475843793e-16 0.45550134722527674 -0.8902350940486311
12617894666.666666 0.4454835808677246 -0.8952901089463048 -2.108364464349358e-17 1.2122609979244605e-16 -2.108364464349358e-17 1.2122609979244605e-16 0.44548419049645954 -0.8952898056034876
12618512000.0 0.4354103372252684 -0.9002321024253667 -1.9707526010254342e-17 1.2143301352109195e-16 -1.9707526010254342e-17 1.2143301352109195e-16 0.43541095018916504 -0.9002318059562132
12619129333.333334 0.42528227823785025 -0.9050607624997565 -1.8329425303434742e-17 1.216243155858601e-16 -1.8329425303434742e-17 1.216243155858601e-16 0.4252828944594184 -0.905060472940917
12619746666.666666 0.4151006789626269 -0.9097754812724861 -1.6949519524740724e-17 1.2179998763226577e-16 -1.6949519524740724e-17 1.2179998763226577e-16 0.4151012983639729 -0.9097751986597356
12620364000.0 0.4048668211971529 -0.9143756651910253 -1.5567985837416303e-17 1.2196001331141166e-16 -1.5567985837416303e-17 1.2196001331141166e-16 0.4048674436999909 -0.9143753895592615
12620981333.333334 0.39458199331804017 -0.9188607351220205 -1.4185001543535854e-17 1.2210437828129403e-16 -1.4185001543535854e-17 1.2210437828129403e-16 0.39458261884370155 -0.9188604665052593
12621598666.666666 0.38424749011870674 -0.923230126424225 -1.2800744061276826e-17 1.2223307020785122e-16 -1.2800744061276826e-17 1.2223307020785122e-16 0.3842481185881505 -0.9232298648555968
12622216000.0 0.37386461264629356 -0.927483289019621 -1.1415390902183212e-17 1.2234607876575619e-16 -1.1415390902183212e-17 1.2234607876575619e-16 0.37386524398011495 -0.9274830345313634
12622833333.333334 0.363434668037999 -0.9316196874626078 -1.002911964845713e-17 1.2244339563894835e-16 -1.002911964845713e-17 1.2244339563894835e-16 0.3634353021564409 -0.9316194400860652
12623450666.666666 0.35295896935654836 -0.9356388010074085 -8.642107930215568e-18 1.225250145209122e-16 -8.642107930215568e-18 1.225250145209122e-16 0.35295960617951094 -0.9356385607730272
12624068000.0 0.3424388354247021 -0.9395401236737003 -7.254533402774255e-18 1.2259093111469674e-16 -7.254533402774255e-18 1.2259093111469674e-16 0.342439474871753 -0.9395398906110242
12624685333.333334 0.3318755906592488 -0.9433231643102972 -5.866573723895324e-18 1.2264114313268037e-16 -5.866573723895324e-18 1.2264114313268037e-16 0.33187623264963323 -0.9433229384479652
12625302666.666666 0.3212705649046187 -0.9469874466568627 -4.4784065311377365e-18 1.2267565029607448e-16 -4.4784065311377365e-18 1.2267565029607448e-16 0.3212712093572693 -0.9469872280226036
12625920000.0 0.31062509326487475 -0.9505325094040737 -3.090209419076181e-18 1.2269445433417673e-16 -3.090209419076181e-18 1.2269445433417673e-16 0.3106257400984223 -0.9505322980247037
12626537333.333334 0.29994051593619564 -0.9539579062515008 -1.7021599166877771e-18 1.2269755898336164e-16 -1.7021599166877771e-18 1.2269755898336164e-16 0.29994116506897917 -0.9539577021529205
12627154666.666666 0.2892181780379129 -0.9572632059638808 -3.144354646514502e-19 1.2268496998582034e-16 -3.144354646514502e-19 1.2268496998582034e-16 0.28921882938799015 -0.9572630091710728
12627772000.0 0.27845942944292396 -0.9604479924254815 1.0727866073325877e-18 1.2265669508804095e-16 1.0727866073325877e-18 1.2265669508804095e-16 0.27846008292808155 -0.9604478029625053
12628389333.333334 0.26766562460832244 -0.9635118646923112 2.4593291030956757e-18 1.2261274403903512e-16 2.4593291030956757e-18 1.2261274403903512e-16 0.2676662801460856 -0.9635116825822997
12629006666.666666 0.2568381224042537 -0.9664544370427794 3.845014982677557e-18 1.2255312858830781e-16 3.845014982677557e-18 1.2255312858830781e-16 0.2568387799118981 -0.96645426230794
12629624000.0 0.24597828594336155 -0.9692753390261117 5.229667384848934e-18 1.2247786248357415e-16 5.229667384848934e-18 1.2247786248357415e-16 0.24597894533792278 -0.9692751716877206
12630241333.333334 0.2350874824087975 -0.9719742155090904 6.61310964966161e-18 1.223869614682202e-16 6.61310964966161e-18 1.223869614682202e-16 0.2350881436070815 -0.9719740555874901
12630858666.666666 0.22416708288248618 -0.9745507267206641 7.995165340957136e-18 1.2228044327851066e-16 7.995165340957136e-18 1.2228044327851066e-16 0.22416774580108034 -0.9745505742352624
12631476000.0 0.21321846217199095 -0.9770045482948528 9.37565826884495e-18 1.2215832764054085e-16 9.37565826884495e-18 1.2215832764054085e-16 0.2132191267272739 -0.9770044032641181
12632093333.333334 0.20224299863798692 -0.9793353713114491 1.0754412512112492e-17 1.2202063626693896e-16 1.0754412512112492e-17 1.2202063626693896e-16 0.20224366474613964 -0.9793352337529108
12632710666.666666 0.1912420740204862 -0.9815429023349722 1.2131252440602691e-17 1.2186739285331448e-16 1.2131252440602691e-17 1.2186739285331448e-16 0.19124274159750232 -0.981542772265217
12633328000.0 0.18021707326466244 -0.9836268634516526 1.3506002737597401e-17 1.216986230744494e-16 1.3506002737597401e-17 1.216986230744494e-16 0.18021774222635903 -0.983626740886324
12633945333.333334 0.16916938434694065 -0.9855869923043296 1.4878488422048146e-17 1.2151435458024842e-16 1.4878488422048146e-17 1.2151435458024842e-16 0.16917005460896845 -0.9855868772581221
12634562666.666666 0.15810039809989723 -0.9874230421255472 1.624853487085914e-17 1.2131461699142746e-16 1.624853487085914e-17 1.2131461699142746e-16 0.15810106957775172 -0.9874229346122102
12635180000.0 0.14701150803741564 -0.9891347817685826 1.7615967841039742e-17 1.2109944189496039e-16 1.7615967841039742e-17 1.2109944189496039e-16 0.14701218064644722 -0.9891346818009132
12635797333.333334 0.1359041101789983 -0.9907219957365799 1.89806134918618e-17 1.2086886283926868e-16 1.89806134918618e-17 1.2086886283926868e-16 0.1359047838344236 -0.9907219033264261
12636414666.666666 0.12477960287432698 -0.9921844842096368 2.03422984068881e-17 1.2062291532917166e-16 2.03422984068881e-17 1.2062291532917166e-16 0.12478027749123893 -0.9921843993678932
12637032000.0 0.11363938662696603 -0.993522063069998 2.1700849616006594e-17 1.2036163682057801e-16 2.1700849616006594e-17 1.2036163682057801e-16 0.113640062120345 -0.993521985806606
12637649333.333334 0.10248486391807594 -0.9947345639252267 2.30560946173648e-17 1.2008506671493608e-16 2.30560946173648e-17 1.2008506671493608e-16 0.1024855402028003 -0.9947344942491729
12638266666.666666 0.09131743903001968 -0.9958218341293865 2.4407861399218524e-17 1.1979324635344003e-16 2.4407861399218524e-17 1.1979324635344003e-16 0.09131811602087646 -0.9958217720487016
12638884000.0 0.08013851786934635 -0.9967837368022822 2.5755978461757366e-17 1.1948621901098197e-16 2.5755978461757366e-17 1.1948621901098197e-16 0.08013919548104184 -0.9967836823240385
12639501333.333334 0.06894950778999463 -0.9976201508466712 2.7100274838805015e-17 1.1916402988986906e-16 2.7100274838805015e-17 1.1916402988986906e-16 0.0689501859371654 -0.997620103976984
12640118666.666666 0.05775181741608789 -0.9983309709635153 2.8440580119470303e-17 1.188267261132918e-16 2.8440580119470303e-17 1.188267261132918e-16 0.05775249601331154 -0.9983309317075426
12640736000.0 0.04654685646422901 -0.9989161076652613 2.977672446975895e-17 1.1847435671853818e-16 2.977672446975895e-17 1.1847435671853818e-16 0.04654753542603471 -0.9989160760272008
12641353333.333334 0.03533603556676326 -0.9993754872870565 3.110853865397195e-17 1.1810697264999918e-16 3.110853865397195e-17 1.1810697264999918e-16 0.035336714807642694 -0.9993754632701471
12641970666.666666 0.02412076609353675 -0.9997090519960686 3.243585405618402e-17 1.1772462675189212e-16 3.243585405618402e-17 1.1772462675189212e-16 0.024121445527954807 -0.9997090356025898
12642588000.0 0.012902459974412315 -0.9999167597987477 3.375850270153347e-17 1.173273737607683e-16 3.375850270153347e-17 1.173273737607683e-16 0.012903139516817866 -0.9999167510300181
12643205333.333334 0.001682529521687293 -0.9999985845461112 3.5076317277425335e-17 1.1691527029778257e-16 3.5076317277425335e-17 1.1691527029778257e-16 0.001683209086523986 -0.9999985834024911
12643822666.666666 -0.009537612748048456 -0.9999545159370431 3.6389131154698356e-17 1.1648837486070846e-16 3.6389131154698356e-17 1.1648837486070846e-16 -0.009536933246331458 -0.9999545224179314
12644440000.0 -0.020756554291398246 -0.9997845595195827 3.769677840863278e-17 1.1604674781573416e-16 3.769677840863278e-17 1.1604674781573416e-16 -0.020755874938335476 -0.999784573623419
12645057333.333334 -0.031972882716102324 -0.9994887366902341 3.899909383988381e-17 1.1559045138901816e-16 3.899909383988381e-17 1.1559045138901816e-16 -0.031972203597201244 -0.999488758414499
12645674666.666666 -0.04318518595893419 -0.9990670846912685 4.0295912995323654e-17 1.151195496580054e-16 4.0295912995323654e-17 1.151195496580054e-16 -0.04318450715966446 -0.999067114032483
12646292000.0 -0.054392052463470106 -0.9985196566060317 4.158707218880602e-17 1.1463410854250123e-16 4.158707218880602e-17 1.1463410854250123e-16 -0.054391374069252825 -0.9985196935597598
12646909333.333334 -0.0655920713576532 -0.9978465213522726 4.28724085217269e-17 1.1413419579554882e-16 4.28724085217269e-17 1.1413419579554882e-16 -0.06559139345384998 -0.9978465659131167
12647526666.666666 -0.07678383263146946 -0.9970477636734564 4.4151759903600215e-17 1.1361988099403005e-16 4.4151759903600215e-17 1.1361988099403005e-16 -0.07678315530337212 -0.9970478158350665
12648144000.0 -0.0879659273146579 -0.9961234841280918 4.542496507243428e-17 1.130912355290698e-16 4.542496507243428e-17 1.130912355290698e-16 -0.08796525064747732 -0.9961235438831595
12648761333.333334 -0.09913694765375045 -0.9950737990770916 4.669186361503693e-17 1.1254833259619659e-16 4.669186361503693e-17 1.1254833259619659e-16 -0.09913627173260582 -0.9950738664173514
12649378666.666666 -0.11029548728952526 -0.9938988406691016 4.795229598716519e-17 1.119912471852909e-16 4.795229598716519e-17 1.119912471852909e-16 -0.11029481219943381 -0.9938989155853372
12649996000.0 -0.12144014143397419 -0.9925987568238812 4.9206103533623757e-17 1.114200560702816e-16 4.9206103533623757e-17 1.114200560702816e-16 -0.12143946725984019 -0.9925988393059225
12650613333.333334 -0.132569507047297 -0.9911737112136577 5.045312850816784e-17 1.1083483779864749e-16 5.045312850816784e-17 1.1083483779864749e-16 -0.13256883387390098 -0.9911738012503819
12651230666.666666 -0.14368218301419666 -0.989623883242564 5.169321409331169e-17 1.1023567268068626e-16 5.169321409331169e-17 1.1023567268068626e-16 -0.1436815109261852 -0.9896239808219012
12651848000.0 -0.15477677032077838 -0.9879494680239908 5.29262044200508e-17 1.0962264277854182e-16 5.29262044200508e-17 1.0962264277854182e-16 -0.15477609940265288 -0.9879495731329198
12652465333.333334 -0.16585187223022516 -0.9861506763560773 5.415194458738327e-17 1.0899583189504589e-16 5.415194458738327e-17 1.0899583189504589e-16 -0.1658512025663314 -0.9861507889806307
12653082666.666666 -0.1769060944587228 -0.984227734695167 5.537028068172504e-17 1.0835532556233061e-16 5.537028068172504e-17 1.0835532556233061e-16 -0.17690542613324087 -0.9842278548204344
12653700000.0 -0.18793804535135636 -0.9821808851272402 5.658105979625327e-17 1.0770121103019299e-16 5.658105979625327e-17 1.0770121103019299e-16 -0.1879373784482895 -0.9821810127373681
12654317333.333334 -0.1989463360567219 -0.9800103853375355 5.778413004999281e-17 1.0703357725430522e-16 5.778413004999281e-17 1.0703357725430522e-16 -0.19894567065988578 -0.980010520415728
12654934666.666666 -0.20992958070227666 -0.9777165085780154 5.897934060688755e-17 1.0635251488414868e-16 5.897934060688755e-17 1.0635251488414868e-16 -0.2099289168952897 -0.9777166511065406
12655552000.0 -0.22088639656858927 -0.9752995436330132 6.016654169465043e-17 1.0565811625077692e-16 6.016654169465043e-17 1.0565811625077692e-16 -0.22088573443486098 -0.9752996935932003
12656169333.333334 -0.23181540426338573 -0.9727597947828757 6.134558462349244e-17 1.0495047535435849e-16 6.134558462349244e-17 1.0495047535435849e-16 -0.2318147438861074 -0.9727599521551226
12656786666.666666 -0.24271522789526367 -0.9700975817656534 6.251632180471428e-17 1.0422968785150528e-16 6.251632180471428e-17 1.0422968785150528e-16 -0.24271456935739727 -0.9700977465294266
12657404000.0 -0.25358449524698967 -0.9673132397368222 6.367860676915323e-17 1.0349585104239254e-16 6.367860676915323e-17 1.0349585104239254e-16 -0.25358383863125733 -0.9673134118706587
12658021333.333334 -0.2644218379481148 -0.9644071192271232 6.483229418545587e-17 1.0274906385768766e-16 6.483229418545587e-17 1.0274906385768766e-16 -0.26442118333698866 -0.9644072987086344
12658638666.666666 -0.2752258916471888 -0.9613795860984498 6.597723987820743e-17 1.0198942684527112e-16 6.597723987820743e-17 1.0198942684527112e-16 -0.27522523912288066 -0.9613797729043247
12659256000.0 -0.2859952961838533 -0.9582310214977012 6.711330084594692e-17 1.0121704215672958e-16 6.711330084594692e-17 1.0121704215672958e-16 -0.28599464582830403 -0.9582312156037086
12659873333.333334 -0.2967286957597731 -0.954961821808873 6.82403352789581e-17 1.0043201353369143e-16 6.82403352789581e-17 1.0043201353369143e-16 -0.296728047654643 -0.954962023189866
12660490666.666666 -0.3074247391092715 -0.9515723986031827 6.935820257692519e-17 9.963444629395114e-17 6.935820257692519e-17 9.963444629395114e-17 -0.3074240933359293 -0.9515726072331003
12661108000.0 -0.3180820796697704 -0.9480631785871508 7.046676336648331e-17 9.882444731735726e-17 7.046676336648331e-17 9.882444731735726e-17 -0.3180814363092834 -0.9480633944390223
12661725333.333334 -0.32869937575101577 -0.9444346035489756 7.156587951849816e-17 9.800212503158173e-17 7.156587951849816e-17 9.800212503158173e-17 -0.3286987348841398 -0.9444348265949237
12662342666.666666 -0.3392752907040964 -0.9406871303028806 7.265541416527806e-17 9.716758939762681e-17 7.265541416527806e-17 9.716758939762681e-17 -0.33927465241126536 -0.9406873605141257
12662960000.0 -0.34980849308979944 -0.9368212306315764 7.373523171757074e-17 9.632095189517633e-17 7.373523171757074e-17 9.632095189517633e-17 -0.3498078574511156 -0.9368214679784393
12663577333.333334 -0.3602976568460429 -0.9328373912269329 7.480519788139522e-17 9.546232550775366e-17 7.480519788139522e-17 9.546232550775366e-17 -0.36029702394126595 -0.932837635678838
12664194666.666666 -0.3707414614550307 -0.9287361136286273 7.586517967469652e-17 9.459182470769825e-17 7.586517967469652e-17 9.459182470769825e-17 -0.37074083136356945 -0.9287363651541101
12664812000.0 -0.38113859210928586 -0.9245179141610876 7.691504544385372e-17 9.37095654409366e-17 7.691504544385372e-17 9.37095654409366e-17 -0.3811379649101866 -0.9245181727277944
12665429333.333334 -0.39148773987741503 -0.9201833238683974 7.795466487997559e-17 9.281566511159797e-17 7.795466487997559e-17 9.281566511159797e-17 -0.3914871156493518 -0.9201835894430903
12666046666.666666 -0.4017876018685497 -0.9157328884475755 7.898390903503015e-17 9.191024256644195e-17 7.898390903503015e-17 9.191024256644195e-17 -0.40178698068981533 -0.9157331609961391
12666664000.0 -0.4120368813968714 -0.9111671681796701 8.000265033783488e-17 9.099341807907136e-17 8.000265033783488e-17 9.099341807907136e-17 -0.4120362633453677 -0.9111674476671155
12667281333.333334 -0.422234288144308 -0.9064867378594614 8.101076260977408e-17 9.00653133340481e-17 8.101076260977408e-17 9.00653133340481e-17 -0.4222336732975351 -0.9064870242499279
12667898666.666666 -0.4323785383233154 -0.9016921867229483 8.200812108043035e-17 8.912605141074846e-17 8.200812108043035e-17 8.912605141074846e-17 -0.4323779267583622 -0.9016924799797097
12668516000.0 -0.4424683548385721 -0.8967841183731273 8.299460240297796e-17 8.817575676709154e-17 8.299460240297796e-17 8.817575676709154e-17 -0.442467746632107 -0.8967844184585971
12669133333.333334 -0.45250246744734823 -0.8917631507041999 8.397008466936913e-17 8.721455522311787e-17 8.397008466936913e-17 8.721455522311787e-17 -0.45250186267560966 -0.8917634575799361
12669750666.666666 -0.46247961291988093 -0.8866299158235611 8.493444742538751e-17 8.624257394434512e-17 8.493444742538751e-17 8.624257394434512e-17 -0.4624790116586677 -0.8866302294502711
