! Parameters = {f0=12700.012000; bw=77.238000; Q=6100.000000; N=10; m_0_1=1.325420; m_1_1=1.116561; m_1_2=1.160232; m_2_2=1.115912; m_2_3=0.797195; m_2_8=0.003335; m_2_9=0.040039; m_3_3=1.113975; m_3_4=0.685724; m_3_7=0.003935; m_3_8=-0.093153; m_3_9=0.003335; m_4_4=1.111050; m_4_5=0.522059; m_4_6=0.007452; m_4_7=-0.113702; m_4_8=0.003935; m_5_5=1.111432; m_5_6=0.929414; m_5_7=0.007452; m_6_6=1.111431; m_6_7=0.522401; m_7_7=1.111064; m_7_8=0.685842; m_8_8=1.113973; m_8_9=0.797508; m_9_9=1.115907; m_9_10=1.161310; m_10_10=1.116551; m_10_11=1.326215}
!
! Created with skrf (http://scikit-rf.org).
# Hz S RI R 50.0 
!freq ReS11 ImS11 ReS21 ImS21 ReS12 ImS12 ReS22 ImS22
12607400000.0 0.2679198929076786 -0.9634411922811613 2.392807312854811e-18 1.4262188472708624e-16 2.392807312854811e-18 1.4262188472708624e-16 0.26792056558713084 -0.963441005217901
12608017333.333334 0.2561836523992398 -0.9666281271736271 4.138892799514851e-18 1.4255395467653646e-16 4.138892799514851e-18 1.4255395467653646e-16 0.2561843272707892 -0.9666279483134245
12608634666.666666 0.2444095233828772 -0.9696721017331391 5.883673510370186e-18 1.4246465954955204e-16 5.883673510370186e-18 1.4246465954955204e-16 0.2444102003465034 -0.969671931101643
12609252000.0 0.23259924720396713 -0.9725726657684536 7.626888167613988e-18 1.423540211099267e-16 7.626888167613988e-18 1.423540211099267e-16 0.23259992615935018 -0.972572503390093
12609869333.333334 0.22075457055387313 -0.9753293902981613 9.368275830704911e-18 1.4222206431489469e-16 9.368275830704911e-18 1.4222206431489469e-16 0.22075525140040828 -0.9753292361961426
12610486666.666666 0.20887724521178389 -0.9779418676140951 1.1107575935332399e-17 1.420688173101403e-16 1.1107575935332399e-17 1.420688173101403e-16 0.20887792784859638 -0.9779417218103973
12611104000.0 0.19696902778521616 -0.9804097113417204 1.2844528332415286e-17 1.4189431142432252e-16 1.2844528332415286e-17 1.4189431142432252e-16 0.1969697121111765 -0.9804095738570942
12611721333.333334 0.18503167945077462 -0.9827325564971553 1.4578873326901766e-17 1.4169858116313485e-16 1.4578873326901766e-17 1.4169858116313485e-16 0.18503236536451342 -0.9827324273511185
12612338666.666666 0.17306696569329275 -0.9849100595412374 1.6310351716582945e-17 1.4148166420288224e-16 1.6310351716582945e-17 1.4148166420288224e-16 0.1730676530932159 -0.9849099387520741
12612956000.0 0.16107665604475188 -0.9869418984303222 1.803870483079693e-17 1.4124360138358615e-16 1.803870483079693e-17 1.4124360138358615e-16 0.1610773448290552 -0.986941786015077
12613573333.333334 0.1490625238228261 -0.988827772663863 1.9763674568961847e-17 1.409844367016274e-16 1.9763674568961847e-17 1.409844367016274e-16 0.14906321388951066 -0.9888276686383417
12614190666.666666 0.13702634586836474 -0.9905674033289068 2.148500343912469e-17 1.4070421730190419e-16 2.148500343912469e-17 1.4070421730190419e-16 0.13702703711525188 -0.9905673077076712
12614808000.0 0.12496990228263147 -0.9921605331413251 2.3202434596319447e-17 1.40402993469531e-16 2.3202434596319447e-17 1.40402993469531e-16 0.12497059460737833 -0.9921604459376955
12615425333.333334 0.11289497616417649 -0.9936069264838573 2.491571188086145e-17 1.4008081862106446e-16 2.491571188086145e-17 1.4008081862106446e-16 0.11289566946429067 -0.993606847709907
12616042666.666666 0.10080335334501057 -0.9949063694409683 2.6624579856479722e-17 1.397377492952681e-16 2.6624579856479722e-17 1.397377492952681e-16 0.10080404751786527 -0.9949062991075213
12616660000.0 0.08869682212651557 -0.9960586698304797 2.8328783848366073e-17 1.393738451434075e-16 2.8328783848366073e-17 1.393738451434075e-16 0.08869751706936511 -0.9960586079471114
12617277333.333334 0.07657717301493427 -0.997063657231999 3.002806998107892e-17 1.389891689190839e-16 3.002806998107892e-17 1.389891689190839e-16 0.07657786862492919 -0.9970636038070347
12617894666.666666 0.06444619845673148 -0.9979211830121073 3.172218521628888e-17 1.3858378646761237e-16 3.172218521628888e-17 1.3858378646761237e-16 0.06444689463093366 -0.9979211380526208
12618512000.0 0.05230569257307365 -0.9986311203463769 3.3410877390466774e-17 1.3815776671492175e-16 3.3410877390466774e-17 1.3815776671492175e-16 0.05230638920847162 -0.9986310838581887
12619129333.333334 0.04015745089505253 -0.9991933642380834 3.5093895252287746e-17 1.3771118165602795e-16 3.5093895252287746e-17 1.3771118165602795e-16 0.040158147888576724 -0.9991933362257615
12619746666.666666 0.02800327009773676 -0.999607831533768 3.677098850001797e-17 1.3724410634302146e-16 3.677098850001797e-17 1.3724410634302146e-16 0.02800396734627468 -0.9996078120006251
12620364000.0 0.01584494773447889 -0.9998744609355213 3.8441907818684735e-17 1.3675661887261267e-16 3.8441907818684735e-17 1.3675661887261267e-16 0.015845645134890462 -0.999874449883618
12620981333.333334 0.0036842819713489676 -0.9999932130100501 4.010640491704985e-17 1.3624880037323838e-16 4.010640491704985e-17 1.3624880037323838e-16 0.0036849794204817142 -0.9999932104401903
12621598666.666666 -0.008476928679204736 -0.9999640701945132 4.1764232564507586e-17 1.357207349916894e-16 4.1764232564507586e-17 1.357207349916894e-16 -0.00847623128450039 -0.9999640761062469
12622216000.0 -0.020636885624035695 -0.999787036799112 4.3415144627712556e-17 1.3517250987932097e-16 4.3415144627712556e-17 1.3517250987932097e-16 -0.02063618838689121 -0.999787051190737
12622833333.333334 -0.03279379045547423 -0.9994621390064614 4.505889610709425e-17 1.3460421517779666e-16 4.505889610709425e-17 1.3460421517779666e-16 -0.03279309347898766 -0.9994621618750191
12623450666.666666 -0.04494584521716248 -0.9989894248677127 4.669524317314518e-17 1.340159440044044e-16 4.669524317314518e-17 1.340159440044044e-16 -0.044945148604383235 -0.9989894562089923
12624068000.0 -0.057091252670078585 -0.9983689642954507 4.8323943202553656e-17 1.334077924369193e-16 4.8323943202553656e-17 1.334077924369193e-16 -0.05709055652399221 -0.998369004103988
12624685333.333334 -0.06922821655851087 -0.9976008490533359 4.994475481414488e-17 1.3277985949802652e-16 4.994475481414488e-17 1.3277985949802652e-16 -0.06922752098202392 -0.9976008973224169
12625302666.666666 -0.08135494187512121 -0.9966851927425752 5.155743790454266e-17 1.321322471393384e-16 5.155743790454266e-17 1.321322471393384e-16 -0.08135424697104583 -0.9966852494642338
12625920000.0 -0.09346963512724156 -0.9956221307850631 5.3161753683757546e-17 1.314650602249292e-16 5.3161753683757546e-17 1.314650602249292e-16 -0.09346894099828044 -0.9956221959500844
12626537333.333334 -0.1055705046014152 -0.9944118204034036 5.475746471043585e-17 1.3077840651448755e-16 5.475746471043585e-17 1.3077840651448755e-16 -0.10556981135014641 -0.994411894001325
12627154666.666666 -0.11765576062869632 -0.9930544405976404 5.634433492696847e-17 1.3007239664601394e-16 5.634433492696847e-17 1.3007239664601394e-16 -0.11765506835755797 -0.9930545226167528
12627772000.0 -0.12972361584947495 -0.9915501921187584 5.792212969439548e-17 1.293471441180817e-16 5.792212969439548e-17 1.293471441180817e-16 -0.12972292466075033 -0.9915502825461093
12628389333.333334 -0.1417722854773973 -0.9898992974390495 5.949061582697455e-17 1.2860276527172662e-16 5.949061582697455e-17 1.2860276527172662e-16 -0.14177159547319962 -0.9898993962604441
12629006666.666666 -0.15379998756386365 -0.9881020007191381 6.104956162666091e-17 1.2783937927185268e-16 6.104956162666091e-17 1.2783937927185268e-16 -0.15379929884612092 -0.9881021079191408
12629624000.0 -0.16580494326109263 -0.9861585677719353 6.259873691723379e-17 1.270571080882749e-16 6.259873691723379e-17 1.270571080882749e-16 -0.16580425593153256 -0.9861586833338734
12630241333.333334 -0.17778537708548628 -0.9840692860232861 6.413791307826448e-17 1.2625607647630915e-16 6.413791307826448e-17 1.2625607647630915e-16 -0.17778469124562157 -0.9840694099292526
12630858666.666666 -0.18973951717999363 -0.9818344644695008 6.566686307875918e-17 1.254364119569921e-16 6.566686307875918e-17 1.254364119569921e-16 -0.18973883293110655 -0.9818345967003557
12631476000.0 -0.20166559557660738 -0.9794544336315707 6.718536151064605e-17 1.2459824479684274e-16 6.718536151064605e-17 1.2459824479684274e-16 -0.2016649130197351 -0.9794545741669445
12632093333.333334 -0.21356184845719717 -0.9769295455064068 6.869318462190339e-17 1.2374170798727633e-16 6.869318462190339e-17 1.2374170798727633e-16 -0.21356116769311675 -0.9769296943247043
12632710666.666666 -0.2254265164147902 -0.974260173514704 7.019011034949354e-17 1.228669372235804e-16 7.019011034949354e-17 1.228669372235804e-16 -0.22542583754400386 -0.9742603305931082
12633328000.0 -0.23725784471389036 -0.9714467124456848 7.167591835204396e-17 1.2197407088348523e-16 7.167591835204396e-17 1.2197407088348523e-16 -0.2372571678366102 -0.9714468777601576
12633945333.333334 -0.24905408354960723 -0.9684895783987946 7.315039004217409e-17 1.2106325000538846e-16 7.315039004217409e-17 1.2106325000538846e-16 -0.2490534087657411 -0.9684897519240836
12634562666.666666 -0.2608134883066957 -0.9653892087221094 7.461330861862982e-17 1.2013461826614102e-16 7.461330861862982e-17 1.2013461826614102e-16 -0.2608128157158322 -0.9653893904317508
12635180000.0 -0.2725343198174949 -0.9621460619476775 7.606445909809635e-17 1.1918832195847063e-16 7.606445909809635e-17 1.1918832195847063e-16 -0.27253364951888787 -0.9621462518139975
12635797333.333334 -0.28421484461927876 -0.9587606177236566 7.75036283467555e-17 1.1822450996800166e-16 7.75036283467555e-17 1.1822450996800166e-16 -0.284214176711834 -0.9587608157177796
12636414666.666666 -0.29585333521035667 -0.9552333767434624 7.893060511148389e-17 1.1724333374994217e-16 7.893060511148389e-17 1.1724333374994217e-16 -0.29585266979261643 -0.955233582835313
12637032000.0 -0.30744807030583593 -0.951564860671634 8.034518005087344e-17 1.1624494730531659e-16 8.034518005087344e-17 1.1624494730531659e-16 -0.30744740747596505 -0.9515650748299436
12637649333.333334 -0.31899733509205697 -0.9477556120667261 8.174714576583613e-17 1.1522950715690405e-16 8.174714576583613e-17 1.1522950715690405e-16 -0.3189966749478275 -0.9477558342590344
12638266666.666666 -0.33049942148023387 -0.9438061943010542 8.313629682997578e-17 1.1419717232476081e-16 8.313629682997578e-17 1.1419717232476081e-16 -0.3304987641190113 -0.9438064244937168
12638884000.0 -0.34195262835904716 -0.9397171914773867 8.451242981962516e-17 1.1314810430139582e-16 8.451242981962516e-17 1.1314810430139582e-16 -0.34195197387777615 -0.9397174296355798
12639501333.333334 -0.35335526184639154 -0.9354892083424996 8.587534334359388e-17 1.120824670265682e-16 8.587534334359388e-17 1.120824670265682e-16 -0.35335461034158105 -0.9354894544302239
12640118666.666666 -0.3647056355394407 -0.9311228701979031 8.722483807254571e-17 1.1100042686176971e-16 8.722483807254571e-17 1.1100042686176971e-16 -0.3647049871071503 -0.931123124177991
12640736000.0 -0.37600207076485737 -0.9266188228070633 8.856071676815578e-17 1.0990215256427374e-16 8.856071676815578e-17 1.0990215256427374e-16 -0.3760014255006828 -0.9266190846411829
12641353333.333334 -0.3872428968261332 -0.9219777323002512 8.988278431180244e-17 1.0878781526094891e-16 8.988278431180244e-17 1.0878781526094891e-16 -0.38724225482519214 -0.9219780019489131
12641970666.666666 -0.39842645125136733 -0.917200285075758 9.119084773306993e-17 1.0765758842161328e-16 9.119084773306993e-17 1.0765758842161328e-16 -0.3984258126082857 -0.9172005624983208
12642588000.0 -0.40955108003884627 -0.9122871876984916 9.248471623783646e-17 1.065116478321131e-16 9.248471623783646e-17 1.065116478321131e-16 -0.40955044484774494 -0.9122874728531701
12643205333.333334 -0.4206151379016682 -0.9072391667954864 9.376420123602902e-17 1.0535017156706335e-16 9.376420123602902e-17 1.0535017156706335e-16 -0.42061450625614744 -0.9072394596393538
12643822666.666666 -0.43161698851127883 -0.9020569689483386 9.502911636907285e-17 1.0417333996222368e-16 9.502911636907285e-17 1.0417333996222368e-16 -0.43161636050440505 -0.9020572694373346
12644440000.0 -0.4425550047391915 -0.8967413605829181 9.627927753697128e-17 1.0298133558656717e-16 9.627927753697128e-17 1.0298133558656717e-16 -0.44255438046348533 -0.896741668671859
12645057333.333334 -0.45342756889776675 -0.8912931278559656 9.751450292501268e-17 1.0177434321404656e-16 9.751450292501268e-17 1.0177434321404656e-16 -0.45342694844518655 -0.8912934434985454
12645674666.666666 -0.46423307297940747 -0.8857130765388442 9.873461303017808e-17 1.0055254979499319e-16 9.873461303017808e-17 1.0055254979499319e-16 -0.4642324564413387 -0.8857133996876471
12646292000.0 -0.474969918894682 -0.8800020318982154 9.993943068718074e-17 9.9316144427206e-17 9.993943068718074e-17 9.9316144427206e-17 -0.4749693063619213 -0.8800023625047178
12646909333.333334 -0.485636518708068 -0.8741608385742967 1.0112878109407776e-16 9.806531832679905e-17 1.0112878109407776e-16 9.806531832679905e-17 -0.4856359102708106 -0.8741611765888769
12647526666.666666 -0.4962312948734056 -0.8681903604556276 1.0230249183760516e-16 9.680026479865473e-17 1.0230249183760516e-16 9.680026479865473e-17 -0.4962306906212331 -0.8681907058275748
12648144000.0 -0.5067526804669089 -0.8620914805514622 1.034603929181133e-16 9.552117920660621e-17 1.034603929181133e-16 9.552117920660621e-17 -0.5067520804887752 -0.862091833228982
12648761333.333334 -0.5171991194189326 -0.8558651008611637 1.0460231677409706e-16 9.422825894335709e-17 1.0460231677409706e-16 9.422825894335709e-17 -0.51719852380315 -0.8558654607913858
12649378666.666666 -0.5275690667440848 -0.8495121422408183 1.0572809830639069e-16 9.292170340006901e-17 1.0572809830639069e-16 9.292170340006901e-17 -0.5275684755783129 -0.8495125093698055
12649996000.0 -0.5378609887698226 -0.8430335442669868 1.0683757490198234e-16 9.160171393566013e-17 1.0683757490198234e-16 9.160171393566013e-17 -0.5378604021410537 -0.8430339185397426
12650613333.333334 -0.5480733633632969 -0.8364302650977264 1.079305864574281e-16 9.026849384584153e-17 1.079305864574281e-16 9.026849384584153e-17 -0.5480727813578439 -0.8364306464582024
12651230666.666666 -0.558204680156231 -0.8297032813310364 1.0900697540187572e-16 8.892224833188178e-17 1.0900697540187572e-16 8.892224833188178e-17 -0.5582041028597149 -0.8297036697221422
12651848000.0 -0.5682534407686328 -0.8228535878602087 1.1006658671974815e-16 8.756318446903934e-17 1.1006658671974815e-16 8.756318446903934e-17 -0.5682528682659699 -0.8228539832238201
12652465333.333334 -0.5782181590301605 -0.8158821977268421 1.1110926797296082e-16 8.61915111748155e-17 1.1110926797296082e-16 8.61915111748155e-17 -0.5782175914055492 -0.8158826000038082
12653082666.666666 -0.5880973611998982 -0.8087901419710344 1.1213486932279035e-16 8.480743917688861e-17 1.1213486932279035e-16 8.480743917688861e-17 -0.5880967985368085 -0.8087905511011896
12653700000.0 -0.5978895861846435 -0.8015784694786695 1.131432435513698e-16 8.341118098075292e-17 1.131432435513698e-16 8.341118098075292e-17 -0.5978890285658021 -0.8015788854008383
12654317333.333334 -0.6075933857545317 -0.7942482468266175 1.141342460826897e-16 8.200295083722856e-17 1.141342460826897e-16 8.200295083722856e-17 -0.6075928332619125 -0.7942486694786279
12654934666.666666 -0.6172073247575482 -0.7868005581247639 1.151077350033109e-16 8.058296470956537e-17 1.151077350033109e-16 8.058296470956537e-17 -0.6172067774723591 -0.7868009874434544
12655552000.0 -0.6267299813317562 -0.7792365048556864 1.160635710825869e-16 7.915144024041458e-17 1.160635710825869e-16 7.915144024041458e-17 -0.626729439334426 -0.779236940776915
12656169333.333334 -0.6361599471153808 -0.7715572057119064 1.1700161779249356e-16 7.770859671854014e-17 1.1700161779249356e-16 7.770859671854014e-17 -0.6361594104855492 -0.7715576481705613
12656786666.666666 -0.6454958274553042 -0.7637637964302842 1.1792174132707266e-16 7.625465504525633e-17 1.1792174132707266e-16 7.625465504525633e-17 -0.6454952962718093 -0.7637642453602934
12657404000.0 -0.6547362416133041 -0.7558574296240625 1.1882381062143872e-16 7.478983770066584e-17 1.1882381062143872e-16 7.478983770066584e-17 -0.65473571595417 -0.7558578849584023
12658021333.333334 -0.6638798229701696 -0.74783927461247 1.1970769737036064e-16 7.331436870968444e-17 1.1970769737036064e-16 7.331436870968444e-17 -0.6638793029125972 -0.7478397362831777
12658638666.666666 -0.6729252192278031 -0.7397105172478095 1.2057327604643085e-16 7.182847360783811e-17 1.2057327604643085e-16 7.182847360783811e-17 -0.6729247048481568 -0.7397109851859913
12659256000.0 -0.6818710926094089 -0.7314723597399023 1.2142042391782671e-16 7.033237940681502e-17 1.2142042391782671e-16 7.033237940681502e-17 -0.6818705839832053 -0.7314728338757438
12659873333.333334 -0.6907161200571499 -0.7231260204784536 1.2224902106562032e-16 6.882631455985449e-17 1.2224902106562032e-16 6.882631455985449e-17 -0.6907156172590494 -0.7231265007412323
12660490666.666666 -0.6994589934278126 -0.7146727338528871 1.2305895040065815e-16 6.73105089269371e-17 1.2305895040065815e-16 6.73105089269371e-17 -0.6994584965316041 -0.7146732201709792
12661108000.0 -0.7080984196865544 -0.7061137500695007 1.2385009768004817e-16 6.578519373970749e-17 1.2385009768004817e-16 6.578519373970749e-17 -0.7080979287651475 -0.7061142423703949
12661725333.333334 -0.7166331210977338 -0.6974503349669644 1.246223515231583e-16 6.42506015663067e-17 1.246223515231583e-16 6.42506015663067e-17 -0.716632636223148 -0.6974508331772716
12662342666.666666 -0.7250618354141856 -0.6886837698288096 1.25375603427228e-16 6.270696627592608e-17 1.25375603427228e-16 6.270696627592608e-17 -0.7250613566575396 -0.6886842738742748
12662960000.0 -0.7333833160637845 -0.6798153511940548 1.2610974778251132e-16 6.115452300324054e-17 1.2610974778251132e-16 6.115452300324054e-17 -0.7333828434952838 -0.6798158609995659
12663577333.333334 -0.7415963323338035 -0.6708463906654496 1.268246818869992e-16 5.959350811262606e-17 1.268246818869992e-16 5.959350811262606e-17 -0.7415958660227321 -0.6708469061550503
12664194666.666666 -0.7496996695530099 -0.6617782147154112 1.2752030596068067e-16 5.802415916224616e-17 1.2752030596068067e-16 5.802415916224616e-17 -0.7496992095677207 -0.6617787358123132
12664812000.0 -0.7576921292711977 -0.6526121644899736 1.2819652315937863e-16 5.64467148679383e-17 1.2819652315937863e-16 5.64467148679383e-17 -0.7576916756791007 -0.6526126911165656
12665429333.333334 -0.765572529436524 -0.643349595610327 1.2885323958813128e-16 5.486141506695364e-17 1.2885323958813128e-16 5.486141506695364e-17 -0.7655720823040771 -0.6433501276881883
12666046666.666666 -0.7733397045702237 -0.6339918779724616 1.294903643141185e-16 5.3268500681566306e-17 1.294903643141185e-16 5.3268500681566306e-17 -0.7733392639629231 -0.6339924154223722
12666664000.0 -0.7809925059391749 -0.6245403955443214 1.3010780937916956e-16 5.166821368245558e-17 1.3010780937916956e-16 5.166821368245558e-17 -0.7809920719215456 -0.6245409382862752
12667281333.333334 -0.7885298017255236 -0.6149965461614527 1.3070548981176756e-16 5.006079705207484e-17 1.3070548981176756e-16 5.006079705207484e-17 -0.7885293743611098 -0.6149970941146686
12667898666.666666 -0.7959504771943252 -0.6053617413199607 1.3128332363865155e-16 4.84464947477613e-17 1.3128332363865155e-16 4.84464947477613e-17 -0.7959500565456807 -0.6053622944028946
12668516000.0 -0.8032534348583004 -0.595637405967886 1.318412318959468e-16 4.682555166474999e-17 1.318412318959468e-16 4.682555166474999e-17 -0.8032530209869796 -0.595637964098243
12669133333.333334 -0.810437594640063 -0.5858249782945739 1.32379138639817e-16 4.519821359912946e-17 1.32379138639817e-16 4.519821359912946e-17 -0.8104371876066135 -0.5858255413893222
12669750666.666666 -0.8175018940320185 -0.5759259095177727 1.3289697095669787e-16 4.3564727210568104e-17 1.3289697095669787e-16 4.3564727210568104e-17 -0.8175014938959685 -0.575926477493152
12670368000.0 -0.8244452882534263 -0.5659416636690872 1.333946589730462e-16 4.1925339984996425e-17 1.333946589730462e-16 4.1925339984996425e-17 -0.8244448950732808 -0.565942236440626
