! Parameters = {f0=12700.012000; bw=77.238000; Q=6100.000000; N=10; m_0_1=1.178273; m_1_1=-1.090647; m_1_2=1.013085; m_2_2=-1.091296; m_2_3=0.650048; m_2_8=-0.004023; m_2_9=0.032681; m_3_3=-1.093233; m_3_4=0.538577; m_3_7=-0.003423; m_3_8=-0.100511; m_3_9=-0.004023; m_4_4=-1.096158; m_4_5=0.374912; m_4_6=0.000094; m_4_7=-0.121060; m_4_8=-0.003423; m_5_5=-1.095776; m_5_6=0.782267; m_5_7=0.000094; m_6_6=-1.095777; m_6_7=0.375254; m_7_7=-1.096144; m_7_8=0.538695; m_8_8=-1.093235; m_8_9=0.650361; m_9_9=-1.091301; m_9_10=1.014163; m_10_10=-1.090657; m_10_11=1.179068}
!
! Created with skrf (http://scikit-rf.org).
# Hz S RI R 50.0 
!freq ReS11 ImS11 ReS21 ImS21 ReS12 ImS12 ReS22 ImS22
12607400000.0 0.933357214000686 -0.3589488975783673 -5.572504323990857e-17 4.2817093738412543e-17 -5.572504323990857e-17 4.2817093738412543e-17 0.9333574368865916 -0.3589483180185414
12608017333.333334 0.9305249233437735 -0.3662285721184429 -5.537420628965192e-17 4.324750538813549e-17 -5.537420628965192e-17 4.324750538813549e-17 0.9305251507387908 -0.3662279943455972
12608634666.666666 0.9276358562146666 -0.373485901025366 -5.5020050003761784e-17 4.3675048697855776e-17 -5.5020050003761784e-17 4.3675048697855776e-17 0.9276360881044813 -0.3734853250745772
12609252000.0 0.9246901888913625 -0.3807204414894278 -5.4662597784142334e-17 4.4099698109825844e-17 -5.4662597784142334e-17 4.4099698109825844e-17 0.9246904252613851 -0.3807198673956574
12609869333.333334 0.9216881011053645 -0.38793175209131414 -5.430187322915251e-17 4.452142825685379e-17 -5.430187322915251e-17 4.452142825685379e-17 0.9216883419407347 -0.387931179889407
12610486666.666666 0.9186297760307459 -0.39511939282898945 -5.393790013206008e-17 4.4940213963807746e-17 -5.393790013206008e-17 4.4940213963807746e-17 0.9186300213163335 -0.39511882255367237
12611104000.0 0.9155154002728201 -0.4022829251449115 -5.3570702479476006e-17 4.535603024911688e-17 -5.3570702479476006e-17 4.535603024911688e-17 0.9155156499932227 -0.4022823568307893
12611721333.333334 0.9123451638569812 -0.4094219119522375 -5.32003044497905e-17 4.5768852326244424e-17 -5.32003044497905e-17 4.5768852326244424e-17 0.9123454179965296 -0.40942134563379284
12612338666.666666 0.9091192602169151 -0.4165359176619665 -5.2826730411587577e-17 4.617865560516045e-17 -5.2826730411587577e-17 4.617865560516045e-17 0.9091195187596702 -0.4165353533735563
12612956000.0 0.9058378861828693 -0.4236245082093316 -5.245000492203981e-17 4.658541569381012e-17 -5.245000492203981e-17 4.658541569381012e-17 0.9058381491126262 -0.42362394598518593
12613573333.333334 0.9025012419697199 -0.4306872510801323 -5.207015272532589e-17 4.698910839953255e-17 -5.207015272532589e-17 4.698910839953255e-17 0.902501509270006 -0.43068669095435136
12614190666.666666 0.8991095311645965 -0.43772371533745785 -5.1687198750989787e-17 4.738970973051792e-17 -5.1687198750989787e-17 4.738970973051792e-17 0.8991098028186756 -0.4377231573440111
12614808000.0 0.8956629607146069 -0.4447334716476737 -5.130116811232958e-17 4.778719589720757e-17 -5.130116811232958e-17 4.778719589720757e-17 0.8956632367054794 -0.44473291582039726
12615425333.333334 0.8921617409141004 -0.45171609230684756 -5.0912086104753924e-17 4.818154331370445e-17 -5.0912086104753924e-17 4.818154331370445e-17 0.8921620212245026 -0.45171553867944186
12616042666.666666 0.8886060853919227 -0.4586711512666683 -5.0519978204128946e-17 4.8572728599168625e-17 -5.0519978204128946e-17 4.8572728599168625e-17 0.8886063700043285 -0.45867059987269587
12616660000.0 0.8849962110983427 -0.465598224160516 -5.012487006512819e-17 4.8960728579185036e-17 -5.012487006512819e-17 4.8960728579185036e-17 0.8849964999949664 -0.46559767503340016
12617277333.333334 0.881332338291764 -0.4724968883294573 -4.9726787519550483e-17 4.9345520287141206e-17 -4.9726787519550483e-17 4.9345520287141206e-17 0.8813326314545604 -0.4724963415024801
12617894666.666666 0.8776146905254322 -0.4793667228477575 -4.9325756574655895e-17 4.9727080965560896e-17 -4.9325756574655895e-17 4.9727080965560896e-17 0.8776149879360965 -0.4793661783540568
12618512000.0 0.8738434946336038 -0.4862073085489132 -4.892180341145553e-17 5.0105388067461454e-17 -4.892180341145553e-17 5.0105388067461454e-17 0.8738437962735757 -0.4862067664214822
12619129333.333334 0.8700189807178601 -0.4930182280509554 -4.8514954383026247e-17 5.048041925766227e-17 -4.8514954383026247e-17 5.048041925766227e-17 0.8700192865683205 -0.4930176883226385
12619746666.666666 0.8661413821330207 -0.4997990657819888 -4.810523601279539e-17 5.085215241409903e-17 -4.810523601279539e-17 5.085215241409903e-17 0.8661416921748976 -0.4997985284854815
12620364000.0 0.862210935472797 -0.5065494080057467 -4.7692674992808267e-17 5.122056562913078e-17 -4.7692674992808267e-17 5.122056562913078e-17 0.8622112496867639 -0.5065488731735932
12620981333.333334 0.8582278805555945 -0.5132688428464164 -4.7277298182022324e-17 5.158563721079952e-17 -4.7277298182022324e-17 5.158563721079952e-17 0.8582281989220721 -0.5132683105110072
12621598666.666666 0.8541924604096264 -0.5199569603142136 -4.6859132604540224e-17 5.1947345684122766e-17 -4.6859132604540224e-17 5.1947345684122766e-17 0.8541927829087839 -0.5199564305077831
12622216000.0 0.8501049212582529 -0.5266133523301013 -4.643820544787894e-17 5.230566979233065e-17 -4.643820544787894e-17 5.230566979233065e-17 0.8501052478700099 -0.5266128250847273
12622833333.333334 0.8459655125048902 -0.5332376127508138 -4.601454406119527e-17 5.2660588498119407e-17 -4.601454406119527e-17 5.2660588498119407e-17 0.845965843208916 -0.5332370880984137
12623450666.666666 0.8417744867178041 -0.5398293373936115 -4.558817595353499e-17 5.301208098486206e-17 -4.558817595353499e-17 5.301208098486206e-17 0.8417748214935221 -0.5398288153659425
12624068000.0 0.8375320996147172 -0.54638812406092 -4.51591287920349e-17 5.336012665783705e-17 -4.51591287920349e-17 5.336012665783705e-17 0.8375324384413035 -0.5463876046895756
12624685333.333334 0.8332386100471432 -0.5529135725649649 -4.472743040014452e-17 5.3704705145418114e-17 -4.472743040014452e-17 5.3704705145418114e-17 0.8332389529035289 -0.5529130558813735
12625302666.666666 0.8288942799847018 -0.5594052847520232 -4.429310875584034e-17 5.4045796300248767e-17 -4.429310875584034e-17 5.4045796300248767e-17 0.8288946268495735 -0.5594047707874455
12625920000.0 0.8244993744990069 -0.5658628645269048 -4.3856191989792766e-17 5.4383380200433647e-17 -4.3856191989792766e-17 5.4383380200433647e-17 0.8244997253508105 -0.5658623533124342
12626537333.333334 0.820054161747593 -0.5722859178769824 -4.341670838358443e-17 5.4717437150666695e-17 -4.341670838358443e-17 5.4717437150666695e-17 0.8200545165645318 -0.5722854094435396
12627154666.666666 0.815558912957583 -0.5786740528961832 -4.2974686367865544e-17 5.504794768338821e-17 -4.2974686367865544e-17 5.504794768338821e-17 0.8155592717176205 -0.5786735472745171
12627772000.0 0.8110139024089098 -0.5850268798092273 -4.253015452052543e-17 5.537489255990731e-17 -4.253015452052543e-17 5.537489255990731e-17 0.8110142650897718 -0.5850263770299123
12628389333.333334 0.8064194074179287 -0.5913440109949242 -4.2083141564862145e-17 5.569825277150517e-17 -4.2083141564862145e-17 5.569825277150517e-17 0.8064197739971041 -0.5913435110883585
12629006666.666666 0.8017757083201981 -0.5976250610102392 -4.163367636772141e-17 5.601800954054003e-17 -4.163367636772141e-17 5.601800954054003e-17 0.8017760787749398 -0.5976245640066424
12629624000.0 0.7970830884535072 -0.603869646613627 -4.118178793765295e-17 5.633414432151865e-17 -4.118178793765295e-17 5.633414432151865e-17 0.7970834627608334 -0.6038691525430385
12630241333.333334 0.7923418341406036 -0.6100773867883913 -4.072750542303133e-17 5.664663880217243e-17 -4.072750542303133e-17 5.664663880217243e-17 0.7923422122773002 -0.6100768956806688
12630858666.666666 0.7875522346716933 -0.6162479027659812 -4.0270858110204444e-17 5.695547490449365e-17 -4.0270858110204444e-17 5.695547490449365e-17 0.7875526166143151 -0.616247414650799
12631476000.0 0.7827145822867168 -0.6223808180491901 -3.9811875421582116e-17 5.726063478579276e-17 -3.9811875421582116e-17 5.726063478579276e-17 0.7827149680115879 -0.6223803329560365
12632093333.333334 0.7778291721576925 -0.6284757584349032 -3.9350586913782035e-17 5.756210083969535e-17 -3.9350586913782035e-17 5.756210083969535e-17 0.77782956164091 -0.6284752763930798
12632710666.666666 0.7728963023705522 -0.6345323520371329 -3.8887022275711223e-17 5.785985569716398e-17 -3.8887022275711223e-17 5.785985569716398e-17 0.7728966955879847 -0.6345318730757519
12633328000.0 0.7679162739069842 -0.6405502293096633 -3.842121132666566e-17 5.815388222748584e-17 -3.842121132666566e-17 5.815388222748584e-17 0.7679166708342754 -0.640549753457646
12633945333.333334 0.7628893906260873 -0.6465290230685757 -3.795318401442959e-17 5.844416353924178e-17 -3.795318401442959e-17 5.844416353924178e-17 0.762889791238657 -0.6465285503546512
12634562666.666666 0.7578159592458668 -0.6524683685146083 -3.748297041334426e-17 5.873068298127475e-17 -3.748297041334426e-17 5.873068298127475e-17 0.7578163635189132 -0.652467898967312
12635180000.0 0.7526962893244883 -0.658367903255463 -3.7010600722395916e-17 5.901342414362577e-17 -3.7010600722395916e-17 5.901342414362577e-17 0.7526966972329872 -0.6583674369031329
12635797333.333334 0.7475306932413082 -0.6642272673279963 -3.6536105263268833e-17 5.929237085847283e-17 -3.6536105263268833e-17 5.929237085847283e-17 0.7475311047600172 -0.6642268041987741
12636414666.666666 0.742319486178024 -0.670046103219952 -3.6059514478426156e-17 5.956750720103178e-17 -3.6059514478426156e-17 5.956750720103178e-17 0.742319901281482 -0.670045643341779
12637032000.0 0.7370629860991795 -0.675824055892071 -3.5580858929140626e-17 5.983881749046922e-17 -3.5580858929140626e-17 5.983881749046922e-17 0.73706340476171 -0.6758235992926881
12637649333.333334 0.7317615137329702 -0.6815607727995217 -3.5100169293560576e-17 6.010628629077374e-17 -3.5100169293560576e-17 6.010628629077374e-17 0.7317619359286816 -0.6815603195064667
12638266666.666666 0.7264153925515997 -0.6872559039134946 -3.4617476364744164e-17 6.03698984116269e-17 -3.4617476364744164e-17 6.03698984116269e-17 0.7264158182543878 -0.6872554539541011
12638884000.0 0.7210249487514844 -0.6929091017426231 -3.413281104868885e-17 6.06296389092579e-17 -3.413281104868885e-17 6.06296389092579e-17 0.721025377935033 -0.6929086551440182
12639501333.333334 0.7155905112334661 -0.6985200213540596 -3.364620436237e-17 6.088549308727301e-17 -3.364620436237e-17 6.088549308727301e-17 0.7155909438712498 -0.6985195781431635
12640118666.666666 0.7101124115827071 -0.7040883203945661 -3.315768743175965e-17 6.113744649747773e-17 -3.315768743175965e-17 6.113744649747773e-17 0.7101128476479919 -0.704087880598089
12640736000.0 0.7045909840482973 -0.7096136591115622 -3.266729148982855e-17 6.138548494068801e-17 -3.266729148982855e-17 6.138548494068801e-17 0.7045914235141432 -0.7096132227560039
12641353333.333334 0.6990265655231803 -0.7150957003735343 -3.21750478745846e-17 6.16295944675042e-17 -3.21750478745846e-17 6.16295944675042e-17 0.6990270083624419 -0.7150952674851818
12641970666.666666 0.6934194955233162 -0.7205341096908864 -3.168098802705437e-17 6.186976137909493e-17 -3.168098802705437e-17 6.186976137909493e-17 0.6934199417086453 -0.7205336802958123
12642588000.0 0.6877701161671087 -0.7259285552362097 -3.118514348928552e-17 6.210597222795203e-17 -3.118514348928552e-17 6.210597222795203e-17 0.6877705656709555 -0.7259281293602716
12643205333.333334 0.6820787721544471 -0.7312787078646079 -3.06875459023506e-17 6.233821381862546e-17 -3.06875459023506e-17 6.233821381862546e-17 0.682079224949062 -0.7312782855334455
12643822666.666666 0.6763458107457156 -0.7365842411337407 -3.0188227004322716e-17 6.256647320845416e-17 -3.0188227004322716e-17 6.256647320845416e-17 0.6763462668031515 -0.7365838223727759
12644440000.0 0.6705715817406473 -0.7418448313237036 -2.968721862826161e-17 6.279073770827254e-17 -2.968721862826161e-17 6.279073770827254e-17 0.6705720410327601 -0.7418444161581371
12645057333.333334 0.6647564374568974 -0.7470601574568565 -2.9184552700201903e-17 6.301099488309791e-17 -2.9184552700201903e-17 6.301099488309791e-17 0.6647568999553481 -0.7470597459116669
12645674666.666666 0.6589007327086923 -0.7522299013172745 -2.8680261237111523e-17 6.322723255281365e-17 -2.8680261237111523e-17 6.322723255281365e-17 0.6589011983849504 -0.7522294934172185
12646292000.0 0.6530048247848663 -0.7573537474704504 -2.817437634486078e-17 6.343943879282796e-17 -2.817437634486078e-17 6.343943879282796e-17 0.6530052936102085 -0.7573533432400585
12646909333.333334 0.6470690734275037 -0.7624313832821425 -2.766693021619454e-17 6.36476019347142e-17 -2.766693021619454e-17 6.36476019347142e-17 0.647069545373019 -0.7624309827457197
12647526666.666666 0.6410938408096071 -0.7674624989377878 -2.7157955128684958e-17 6.385171056684068e-17 -2.7157955128684958e-17 6.385171056684068e-17 0.6410943158461962 -0.7674621021194118
12648144000.0 0.6350794915131713 -0.7724467874612603 -2.664748344268158e-17 6.405175353498364e-17 -2.664748344268158e-17 6.405175353498364e-17 0.6350799696115484 -0.7724463943847776
12648761333.333334 0.6290263925069558 -0.777383944733575 -2.6135547599262696e-17 6.424771994292181e-17 -2.6135547599262696e-17 6.424771994292181e-17 0.629026873637653 -0.7773835554226041
12649378666.666666 0.6229349131240348 -0.7822736695115076 -2.562218011819327e-17 6.443959915300992e-17 -2.562218011819327e-17 6.443959915300992e-17 0.6229353972574011 -0.7822732839894337
12649996000.0 0.6168054250392799 -0.7871156634459522 -2.5107413595842182e-17 6.46273807867507e-17 -2.5107413595842182e-17 6.46273807867507e-17 0.6168059121454834 -0.7871152817359267
12650613333.333334 0.6106383022466834 -0.7919096311001255 -2.4591280703139514e-17 6.48110547253329e-17 -2.4591280703139514e-17 6.48110547253329e-17 0.6106387922957145 -0.7919092532250654
12651230666.666666 0.6044339210365605 -0.796655279967576 -2.4073814183502548e-17 6.499061111016421e-17 -2.4073814183502548e-17 6.499061111016421e-17 0.6044344139982328 -0.7966549059501623
12651848000.0 0.5981926599725249 -0.8013523204900853 -2.3555046850759687e-17 6.516604034338619e-17 -2.3555046850759687e-17 6.516604034338619e-17 0.5981931558164768 -0.8013519503527607
12652465333.333334 0.5919148998684076 -0.8060004660753136 -2.3035011587087524e-17 6.533733308836712e-17 -2.3035011587087524e-17 6.533733308836712e-17 0.5919153985641052 -0.8060000998402823
12653082666.666666 0.585601023765186 -0.8105994331141708 -2.251374134092792e-17 6.550448027018455e-17 -2.251374134092792e-17 6.550448027018455e-17 0.5856015252819249 -0.8105990708033978
12653700000.0 0.5792514169073135 -0.8151489409983415 -2.1991269124901406e-17 6.566747307609061e-17 -2.1991269124901406e-17 6.566747307609061e-17 0.5792519212142196 -0.8151485826335493
12654317333.333334 0.5728664667194661 -0.8196487121372197 -2.1467628013734644e-17 6.582630295595608e-17 -2.1467628013734644e-17 6.582630295595608e-17 0.5728669737854976 -0.8196483577398874
12654934666.666666 0.5664465627828342 -0.824098471974898 -2.0942851142167533e-17 6.598096162270243e-17 -2.0942851142167533e-17 6.598096162270243e-17 0.5664470725767843 -0.824098121566261
12655552000.0 0.5599920968111646 -0.8284979490070469 -2.041697170285772e-17 6.61314410527181e-17 -2.041697170285772e-17 6.61314410527181e-17 0.5599926093016641 -0.8284976026080962
12656169333.333334 0.5535034626272373 -0.8328468747972263 -1.989002294429913e-17 6.627773348625262e-17 -1.989002294429913e-17 6.627773348625262e-17 0.5535039777827538 -0.8328465324287047
12656786666.666666 0.5469810561385283 -0.8371449839934715 -1.9362038168720774e-17 6.641983142779901e-17 -1.9362038168720774e-17 6.641983142779901e-17 0.5469815739273711 -0.8371446456758741
12657404000.0 0.5404252753131005 -0.841392014344449 -1.8833050729983225e-17 6.655772764646017e-17 -1.8833050729983225e-17 6.655772764646017e-17 0.540425795703421 -0.8413916800980226
12658021333.333334 0.53383652015544 -0.8455877067153827 -1.830309403148948e-17 6.66914151762929e-17 -1.830309403148948e-17 6.66914151762929e-17 0.5338370431152343 -0.8455873765601234
12658638666.666666 0.5272151926819797 -0.8497318051039112 -1.777220152407678e-17 6.682088731664116e-17 -1.777220152407678e-17 6.682088731664116e-17 0.5272157181790906 -0.8497314790595643
12659256000.0 0.5205616968964977 -0.8538240566557543 -1.7240406703907916e-17 6.694613763245084e-17 -1.7240406703907916e-17 6.694613763245084e-17 0.5205622248986146 -0.8538237347418102
12659873333.333334 0.5138764387656075 -0.8578642116800459 -1.6707743110366363e-17 6.706715995456731e-17 -1.6707743110366363e-17 6.706715995456731e-17 0.5138769692402719 -0.8578638939157431
12660490666.666666 0.507159826193921 -0.8618520236646199 -1.6174244323961007e-17 6.7183948380013e-17 -1.6174244323961007e-17 6.7183948380013e-17 0.5071603591085264 -0.861851710068942
12661108000.0 0.5004122689990835 -0.865787249291093 -1.5639943964190922e-17 6.729649727225776e-17 -1.5639943964190922e-17 6.729649727225776e-17 0.5004128043208773 -0.8657869398827662
12661725333.333334 0.49363417888691546 -0.8696696484496225 -1.510487568745442e-17 6.740480126146169e-17 -1.510487568745442e-17 6.740480126146169e-17 0.4936347165830012 -0.8696693432471156
12662342666.666666 0.4868259694261944 -0.8734989842536146 -1.456907318492781e-17 6.750885524470726e-17 -1.456907318492781e-17 6.750885524470726e-17 0.48682650946353406 -0.8734986832751384
12662960000.0 0.4799880560234694 -0.8772750230541503 -1.403257018044495e-17 6.760865438621522e-17 -1.403257018044495e-17 6.760865438621522e-17 0.4799885983688863 -0.8772747263176575
12663577333.333334 0.4731208558976178 -0.8809975344543002 -1.3495400428394563e-17 6.770419411753885e-17 -1.3495400428394563e-17 6.770419411753885e-17 0.47312140051779655 -0.880997241977481
12664194666.666666 0.4662247880545591 -0.8846662913230792 -1.2957597711587768e-17 6.779547013774776e-17 -1.2957597711587768e-17 6.779547013774776e-17 0.46622533491604945 -0.8846660031233633
12664812000.0 0.4593002732614923 -0.8882810698094202 -1.2419195839153528e-17 6.788247841358941e-17 -1.2419195839153528e-17 6.788247841358941e-17 0.4593008223307103 -0.8882807859039745
12665429333.333334 0.45234773402139644 -0.8918416493557351 -1.188022864441195e-17 6.796521517963715e-17 -1.188022864441195e-17 6.796521517963715e-17 0.4523482852646264 -0.8918413697614622
12666046666.666666 0.4453675945471763 -0.895347812711413 -1.1340729982758779e-17 6.804367693842083e-17 -1.1340729982758779e-17 6.804367693842083e-17 0.4453681479305739 -0.8953475374449518
12666664000.0 0.4383602807356782 -0.8987993459461281 -1.0800733729537342e-17 6.811786046054068e-17 -1.0800733729537342e-17 6.811786046054068e-17 0.4383608362252711 -0.8987990750238509
12667281333.333334 0.43132622014198163 -0.902196038462751 -1.0260273777929781e-17 6.818776278476307e-17 -1.0260273777929781e-17 6.818776278476307e-17 0.43132677770367267 -0.9021957719007639
12667898666.666666 0.4242658419529821 -0.9055376830103639 -9.719384036832323e-18 6.825338121810105e-17 -9.719384036832323e-18 6.825338121810105e-17 0.4242664015525512 -0.905537420824506
12668516000.0 0.4171795769613557 -0.9088240756968287 -9.17809842871876e-18 6.831471333587958e-17 -9.17809842871876e-18 6.831471333587958e-17 0.4171801385644618 -0.9088238179026701
12669133333.333334 0.4100678575394297 -0.9120550160011572 -8.636450887550595e-18 6.837175698177842e-17 -8.636450887550595e-18 6.837175698177842e-17 0.41006842111161274 -0.9120547626139989
12669750666.666666 0.40293111761246625 -0.9152303067859032 -8.094475356630855e-18 6.84245102678649e-17 -8.094475356630855e-18 6.84245102678649e-17 0.402931683119149 -0.9152300578207748
12670368000.0 0.3957697926324683 -0.918349754309055 -7.552205786485446e-18 6.847297157460704e-17 -7.552205786485446e-18 6.847297157460704e-17 0.3957703600389596 -0.9183495097807162
