! Parameters = {f0=12700.012000; bw=77.238000; Q=6100.000000; N=10; m_0_1=1.203899; m_1_1=-0.706262; m_1_2=1.038711; m_2_2=-0.706911; m_2_3=0.675674; m_2_8=-0.002741; m_2_9=0.033963; m_3_3=-0.708848; m_3_4=0.564203; m_3_7=-0.002141; m_3_8=-0.099229; m_3_9=-0.002741; m_4_4=-0.711773; m_4_5=0.400538; m_4_6=0.001376; m_4_7=-0.119778; m_4_8=-0.002141; m_5_5=-0.711391; m_5_6=0.807893; m_5_7=0.001376; m_6_6=-0.711392; m_6_7=0.400880; m_7_7=-0.711759; m_7_8=0.564321; m_8_8=-0.708850; m_8_9=0.675987; m_9_9=-0.706916; m_9_10=1.039789; m_10_10=-0.706272; m_10_11=1.204694}
!
! Created with skrf (http://scikit-rf.org).
# Hz S RI R 50.0 
!freq ReS11 ImS11 ReS21 ImS21 ReS12 ImS12 ReS22 ImS22
12607400000.0 -0.9901370920431131 0.14010188778259844 7.287643768064322e-17 -3.329691543831078e-17 7.287643768064322e-17 -3.329691543831078e-17 -0.9901371809236315 0.14010125963903733
12608017333.333334 -0.9889002481599105 0.14858095163616597 7.257122485443013e-17 -3.3919943401295625e-17 7.257122485443013e-17 -3.3919943401295625e-17 -0.9889003424149359 0.14858032430797888
12608634666.666666 -0.9875907949620273 0.1570491060341076 7.226069118893555e-17 -3.4540184489572685e-17 7.226069118893555e-17 -3.4540184489572685e-17 -0.9875908945841129 0.1570484795672736
12609252000.0 -0.9862088285952157 0.16550572920806825 7.194486204193316e-17 -3.515759330959251e-17 7.194486204193316e-17 -3.515759330959251e-17 -0.9862089335765222 0.16550510364849866
12609869333.333334 -0.9847544505294503 0.17395020023639327 7.162376315804416e-17 -3.5772124697798234e-17 7.162376315804416e-17 -3.5772124697798234e-17 -0.9847545608617453 0.17394957562992835
12610486666.666666 -0.9832277675515068 0.18238189908958025 7.129742066665893e-17 -3.638373372391691e-17 7.129742066665893e-17 -3.638373372391691e-17 -0.9832278832261652 0.18238127548198566
12611104000.0 -0.9816288917570601 0.1908002066761111 7.096586107981819e-17 -3.699237569425377e-17 7.096586107981819e-17 -3.699237569425377e-17 -0.9816290127650665 0.19079958411307482
12611721333.333334 -0.9799579405425373 0.1992045048874898 7.062911129009213e-17 -3.75980061549195e-17 7.062911129009213e-17 -3.75980061549195e-17 -0.9799580668744844 0.1992038834146185
12612338666.666666 -0.978215036596419 0.20759417664401725 7.028719856840608e-17 -3.820058089508625e-17 7.028719856840608e-17 -3.820058089508625e-17 -0.9782151682425102 0.20759355630683315
12612956000.0 -0.976400307890264 0.21596860593993203 6.994015056184967e-17 -3.880005595020425e-17 6.994015056184967e-17 -3.880005595020425e-17 -0.9764004448403141 0.2159679867838697
12613573333.333334 -0.9745138876693457 0.22432717788850207 6.958799529146806e-17 -3.939638760518076e-17 6.958799529146806e-17 -3.939638760518076e-17 -0.9745140299127792 0.2243265599589045
12614190666.666666 -0.9725559144428093 0.23266927876742138 6.923076115000693e-17 -3.9989532397574955e-17 6.923076115000693e-17 -3.9989532397574955e-17 -0.9725560619686656 0.23266866210953754
12614808000.0 -0.9705265319735396 0.2409942960637345 6.8868476899641e-17 -4.057944712075265e-17 6.8868476899641e-17 -4.057944712075265e-17 -0.9705266847704701 0.24099368072271538
12615425333.333334 -0.9684258892675941 0.24930161851883686 6.850117166968043e-17 -4.116608882701285e-17 6.850117166968043e-17 -4.116608882701285e-17 -0.9684260473238632 0.24930100453973209
12616042666.666666 -0.9662541405632618 0.25759063617335576 6.812887495424049e-17 -4.174941483071141e-17 6.812887495424049e-17 -4.174941483071141e-17 -0.966254303866751 0.257590023601111
12616660000.0 -0.9640114453197423 0.265860740411937 6.775161660989067e-17 -4.2329382711353976e-17 6.775161660989067e-17 -4.2329382711353976e-17 -0.9640116138579486 0.2658601292913902
12617277333.333334 -0.9616979682054262 0.2741113240079588 6.736942685327503e-17 -4.290595031667184e-17 6.736942685327503e-17 -4.290595031667184e-17 -0.961698141965463 0.27411071438383666
12617894666.666666 -0.9593138790858462 0.28234178116798064 6.698233625871376e-17 -4.347907576566487e-17 6.698233625871376e-17 -4.347907576566487e-17 -0.9593140580544446 0.28234117308489576
12618512000.0 -0.9568593530111158 0.2905515075765234 6.659037575575927e-17 -4.404871745165349e-17 6.659037575575927e-17 -4.404871745165349e-17 -0.9568595371746259 0.29055090107897086
12619129333.333334 -0.9543345702031897 0.29873990044005927 6.619357662675936e-17 -4.46148340452598e-17 6.619357662675936e-17 -4.46148340452598e-17 -0.9543347595475814 0.29873929557241313
12619746666.666666 -0.9517397160425477 0.3069063585315426 6.579197050435755e-17 -4.5177384497421004e-17 6.579197050435755e-17 -4.5177384497421004e-17 -0.951739910553414 0.30690575533805386
12620364000.0 -0.9490749810545975 0.31505028223453 6.538558936899456e-17 -4.573632804234368e-17 6.538558936899456e-17 -4.573632804234368e-17 -0.9490751807171506 0.31504968075932127
12620981333.333334 -0.9463405608957193 0.3231710735870681 6.497446554638273e-17 -4.629162420043715e-17 6.497446554638273e-17 -4.629162420043715e-17 -0.9463407656947951 0.3231704738741319
12621598666.666666 -0.9435366563388699 0.33126813632570806 6.455863170493797e-17 -4.6843232781250493e-17 6.455863170493797e-17 -4.6843232781250493e-17 -0.94353686625893 0.33126753841890355
12622216000.0 -0.9406634732588512 0.3393408759292597 6.413812085320479e-17 -4.7391113886360815e-17 6.413812085320479e-17 -4.7391113886360815e-17 -0.9406636882839823 0.3393402798723089
12622833333.333334 -0.9377212226171812 0.3473886996624686 6.371296633724808e-17 -4.793522791225123e-17 6.371296633724808e-17 -4.793522791225123e-17 -0.9377214427310969 0.3473881054989537
12623450666.666666 -0.9347101204466461 0.35541101661943286 6.328320183802863e-17 -4.8475535553155156e-17 6.328320183802863e-17 -4.8475535553155156e-17 -0.934710345632687 0.35541042439279213
12624068000.0 -0.9316303878353867 0.36340723776712097 6.284886136874219e-17 -4.9011997803892903e-17 6.284886136874219e-17 -4.9011997803892903e-17 -0.9316306180765241 0.3634066475206471
12624685333.333334 -0.9284822509106558 0.37137677598864893 6.240997927214126e-17 -4.9544575962675857e-17 6.240997927214126e-17 -4.9544575962675857e-17 -0.9284824861894907 0.3713761877654845
12625302666.666666 -0.9252659408223184 0.3793190461261237 6.196659021784278e-17 -5.007323163387664e-17 6.196659021784278e-17 -5.007323163387664e-17 -0.9252661811210828 0.3793184599692581
12625920000.0 -0.9219816937257191 0.3872334650240033 6.151872919958935e-17 -5.059792673080065e-17 6.151872919958935e-17 -5.059792673080065e-17 -0.92198193902628 0.387232880976271
12626537333.333334 -0.9186297507644966 0.3951194515715476 6.10664315325165e-17 -5.111862347840148e-17 6.10664315325165e-17 -5.111862347840148e-17 -0.9186300010483546 0.39511886967562343
12627154666.666666 -0.9152103580528113 0.4029764267456426 6.060973285037362e-17 -5.16352844159969e-17 6.060973285037362e-17 -5.16352844159969e-17 -0.9152106133011028 0.4029758470440392
12627772000.0 -0.911723766657219 0.41080381365344615 6.014866910272161e-17 -5.214787239996263e-17 6.014866910272161e-17 -5.214787239996263e-17 -0.911724026850718 0.4108032361885111
12628389333.333334 -0.908170232578347 0.4186010375744838 5.968327655213707e-17 -5.2656350606366636e-17 5.968327655213707e-17 -5.2656350606366636e-17 -0.9081704976974659 0.41860046238839604
12629006666.666666 -0.9045500167319953 0.4263675260030816 5.921359177135084e-17 -5.3160682533627856e-17 5.921359177135084e-17 -5.3160682533627856e-17 -0.9045502867567888 0.4263669531378495
12629624000.0 -0.900863384930065 0.4341027086902226 5.873965164040408e-17 -5.366083200510622e-17 5.873965164040408e-17 -5.366083200510622e-17 -0.9008636598402265 0.43410213818767884
12630241333.333334 -0.8971106078609727 0.44180601768554195 5.826149334375741e-17 -5.415676317169352e-17 5.826149334375741e-17 -5.415676317169352e-17 -0.8971108876358417 0.44180544958734275
12630858666.666666 -0.8932919610698601 0.4494768873788797 5.777915436739002e-17 -5.464844051436783e-17 5.777915436739002e-17 -5.464844051436783e-17 -0.8932922456884187 0.44947632172649976
12631476000.0 -0.8894077249382145 0.45711475454208594 5.729267249586531e-17 -5.513582884673277e-17 5.729267249586531e-17 -5.513582884673277e-17 -0.8894080143790927 0.45711419137681686
12632093333.333334 -0.8854581846634534 0.464719058370048 5.680208580939838e-17 -5.561889331750904e-17 5.680208580939838e-17 -5.561889331750904e-17 -0.8854584789049291 0.46471849773299484
12632710666.666666 -0.8814436302379051 0.4722892405220187 5.630743268087989e-17 -5.609759941302203e-17 5.630743268087989e-17 -5.609759941302203e-17 -0.8814439292579055 0.4722886824540966
12633328000.0 -0.8773643564274515 0.47982474516273826 5.580875177287906e-17 -5.657191295966309e-17 5.580875177287906e-17 -5.657191295966309e-17 -0.8773646602035549 0.47982418970466967
12633945333.333334 -0.8732206627500003 0.4873250190030178 5.53060820346486e-17 -5.704180012630209e-17 5.53060820346486e-17 -5.704180012630209e-17 -0.8732209712594394 0.4873244661953303
12634562666.666666 -0.8690128534534333 0.49478951134049326 5.4799462699087356e-17 -5.7507227426696e-17 5.4799462699087356e-17 -5.7507227426696e-17 -0.8690131666730933 0.4947889612235147
12635180000.0 -0.8647412374932871 0.502217674100007 5.428893327969165e-17 -5.796816172186058e-17 5.428893327969165e-17 -5.796816172186058e-17 -0.8647415553997115 0.5022171267138649
12635797333.333334 -0.8604061285100032 0.5096089618739756 5.377453356748595e-17 -5.842457022241712e-17 5.377453356748595e-17 -5.842457022241712e-17 -0.8604064510793922 0.5096084172585919
12636414666.666666 -0.8560078448060372 0.5169628319621877 5.3256303627933834e-17 -5.887642049091232e-17 5.3256303627933834e-17 -5.887642049091232e-17 -0.8560081720142533 0.5169622901572786
12637032000.0 -0.8515467093223501 0.5242787444119003 5.273428379782909e-17 -5.932368044410997e-17 5.273428379782909e-17 -5.932368044410997e-17 -0.8515470411449155 0.5242782054569706
12637649333.333334 -0.8470230496147628 0.5315561620573588 5.220851468216836e-17 -5.976631835525629e-17 5.220851468216836e-17 -5.976631835525629e-17 -0.8470233860268641 0.5315556259917003
12638266666.666666 -0.8424371978298936 0.5387945505592633 5.167903715100462e-17 -6.020430285631717e-17 5.167903715100462e-17 -6.020430285631717e-17 -0.8424375388063826 0.5387940174219522
12638884000.0 -0.837789490680771 0.5459933784440028 5.1145892336281924e-17 -6.063760294018746e-17 5.1145892336281924e-17 -6.063760294018746e-17 -0.837789836196167 0.545992848273896
12639501333.333334 -0.8330802694220946 0.5531521171427017 5.060912162865034e-17 -6.106618796287435e-17 5.060912162865034e-17 -6.106618796287435e-17 -0.8330806194505855 0.5531515899784346
12640118666.666666 -0.8283098798252714 0.5602702410298862 5.006876667427478e-17 -6.149002764564232e-17 5.006876667427478e-17 -6.149002764564232e-17 -0.8283102343407179 0.5602697169098705
12640736000.0 -0.8234786721527788 0.567347227462459 4.952486937158729e-17 -6.19090920771611e-17 4.952486937158729e-17 -6.19090920771611e-17 -0.8234790311287138 0.5673467064248785
12641353333.333334 -0.8185870011328236 0.5743825568175047 4.89774718680942e-17 -6.23233517155678e-17 4.89774718680942e-17 -6.23233517155678e-17 -0.8185873645424546 0.5743820389003129
12641970666.666666 -0.8136352259329642 0.581375712530939 4.8426616557077134e-17 -6.27327773905702e-17 4.8426616557077134e-17 -6.27327773905702e-17 -0.8136355937491769 0.5813751977718574
12642588000.0 -0.8086237101339153 0.5883261811351793 4.787234607434997e-17 -6.313734030546474e-17 4.787234607434997e-17 -6.313734030546474e-17 -0.808624082329274 0.5883256695716935
12643205333.333334 -0.8035528217027702 0.5952334522969612 4.7314703294961175e-17 -6.35370120391543e-17 4.7314703294961175e-17 -6.35370120391543e-17 -0.8035531982495198 0.595232943966318
12643822666.666666 -0.7984229329660137 0.6020970188547615 4.6753731329883354e-17 -6.393176454813466e-17 4.6753731329883354e-17 -6.393176454813466e-17 -0.7984233138360833 0.6020965137939676
12644440000.0 -0.7932344205822042 0.6089163768560154 4.6189473522700726e-17 -6.4321570168441e-17 4.6189473522700726e-17 -6.4321570168441e-17 -0.793234805747208 0.6089158751018333
12645057333.333334 -0.7879876655143179 0.6156910255941196 4.56219734462696e-17 -6.470640161757317e-17 4.56219734462696e-17 -6.470640161757317e-17 -0.7879880549455566 0.615690527183065
12645674666.666666 -0.7826830530017761 0.6224204676451947 4.5051274899365e-17 -6.508623199639077e-17 4.5051274899365e-17 -6.508623199639077e-17 -0.7826834466702413 0.6224199726135353
12646292000.0 -0.7773209725320369 0.6291042089047658 4.4477421903298234e-17 -6.546103479098672e-17 4.4477421903298234e-17 -6.546103479098672e-17 -0.7773213704084115 0.6291037172885175
12646909333.333334 -0.771901817812227 0.6357417586237527 4.390045869855879e-17 -6.583078387450588e-17 4.390045869855879e-17 -6.583078387450588e-17 -0.7719022198668883 0.6357412704586768
12647526666.666666 -0.766425986740057 0.6423326294447236 4.3320429741388405e-17 -6.619545350896807e-17 4.3320429741388405e-17 -6.619545350896807e-17 -0.7664263929430771 0.6423321447663242
12648144000.0 -0.7608938813746211 0.6488763374376564 4.2737379700379605e-17 -6.655501834703561e-17 4.2737379700379605e-17 -6.655501834703561e-17 -0.7608942916957714 0.6488758562811786
12648761333.333334 -0.7553059079069488 0.6553724021353828 4.215135345304691e-17 -6.690945343375949e-17 4.215135345304691e-17 -6.690945343375949e-17 -0.7553063223157017 0.6553719245358102
12649378666.666666 -0.7496624766301858 0.6618203465688699 4.1562396082385593e-17 -6.725873420829475e-17 4.1562396082385593e-17 -6.725873420829475e-17 -0.7496628950957154 0.66181987256092
12649996000.0 -0.7439640019093705 0.6682196973023454 4.097055287340445e-17 -6.760283650559171e-17 4.097055287340445e-17 -6.760283650559171e-17 -0.7439644244005569 0.6682192269204699
12650613333.333334 -0.7382109021510853 0.6745699844679742 4.0375869309660624e-17 -6.794173655804845e-17 4.0375869309660624e-17 -6.794173655804845e-17 -0.7382113286365168 0.6745695177463558
12651230666.666666 -0.7324035997727395 0.6808707418003617 3.9778391069782757e-17 -6.827541099713163e-17 3.9778391069782757e-17 -6.827541099713163e-17 -0.7324040302207127 0.6808702787729094
12651848000.0 -0.726542521171472 0.6871215066708686 3.917816402395346e-17 -6.8603836854982e-17 3.917816402395346e-17 -6.8603836854982e-17 -0.726542955549996 0.6871210473712175
12652465333.333334 -0.7206280966929389 0.6933218201214744 3.8575234230418046e-17 -6.892699156596748e-17 3.8575234230418046e-17 -6.892699156596748e-17 -0.7206285349697386 0.6933213645829834
12653082666.666666 -0.7146607605997437 0.6994712268984614 3.796964793195338e-17 -6.924485296822153e-17 3.796964793195338e-17 -6.924485296822153e-17 -0.7146612027422591 0.699470775154209
12653700000.0 -0.7086409510393448 0.7055692754860399 3.7361451552323487e-17 -6.955739930514896e-17 3.7361451552323487e-17 -6.955739930514896e-17 -0.7086413970147368 0.7055688275688233
12654317333.333334 -0.7025691100121702 0.7116155181392193 3.6750691692751454e-17 -6.986460922688754e-17 3.6750691692751454e-17 -6.986460922688754e-17 -0.7025695597873212 0.711615074081552
12654934666.666666 -0.6964456833389602 0.7176095109168852 3.613741512834148e-17 -7.016646179175794e-17 3.613741512834148e-17 -7.016646179175794e-17 -0.6964461368804764 0.7176090707509929
12655552000.0 -0.6902711206280338 0.7235508137143929 3.5521668804506884e-17 -7.046293646767275e-17 3.5521668804506884e-17 -7.046293646767275e-17 -0.6902715779022484 0.7235503774722137
12656169333.333334 -0.6840458752424604 0.7294389902957058 3.4903499833405306e-17 -7.075401313350596e-17 3.4903499833405306e-17 -7.075401313350596e-17 -0.6840463362154353 0.7294385580088857
12656786666.666666 -0.6777704042665653 0.7352736083256207 3.428295549032423e-17 -7.103967208044957e-17 3.428295549032423e-17 -7.103967208044957e-17 -0.6777708689040953 0.7352731800255129
12657404000.0 -0.6714451684724752 0.7410542394014167 3.3660083210086197e-17 -7.131989401332424e-17 3.3660083210086197e-17 -7.131989401332424e-17 -0.6714456367400883 0.7410538151190781
12658021333.333334 -0.6650706322862601 0.7467804590843251 3.3034930583431064e-17 -7.159466005186399e-17 3.3034930583431064e-17 -7.159466005186399e-17 -0.6650711041492223 0.7467800388505154
12658638666.666666 -0.6586472637538615 0.7524518469306816 3.240754535339257e-17 -7.186395173196838e-17 3.240754535339257e-17 -7.186395173196838e-17 -0.6586477391771767 0.7524514307758586
12659256000.0 -0.6521755345066339 0.758067986522864 3.177797541165389e-17 -7.212775100692586e-17 3.177797541165389e-17 -7.212775100692586e-17 -0.6521760134550492 0.7580675744771849
12659873333.333334 -0.6456559197268266 0.7636284654997794 3.114626879491272e-17 -7.238604024859899e-17 3.114626879491272e-17 -7.238604024859899e-17 -0.6456564021648337 0.7636280575930964
12660490666.666666 -0.6390888981127163 0.769132875587123 3.0512473681228345e-17 -7.263880224858073e-17 3.0512473681228345e-17 -7.263880224858073e-17 -0.6390893840045536 0.7691324718489807
12661108000.0 -0.6324749518432392 0.7745808126275366 2.987663838633673e-17 -7.288602021932812e-17 2.987663838633673e-17 -7.288602021932812e-17 -0.6324754411528952 0.7745804130871715
12661725333.333334 -0.6258145665428944 0.7799718766100299 2.9238811360006696e-17 -7.312767779524407e-17 2.9238811360006696e-17 -7.312767779524407e-17 -0.6258150592341111 0.7799714812963674
12662342666.666666 -0.6191082312458471 0.7853056716995507 2.859904118233536e-17 -7.336375903374755e-17 2.859904118233536e-17 -7.336375903374755e-17 -0.61910872728212 0.785305280641202
12662960000.0 -0.6123564383601282 0.7905818062659555 2.79573765600687e-17 -7.359424841629903e-17 2.79573765600687e-17 -7.359424841629903e-17 -0.6123569377047126 0.7905814194912185
12663577333.333334 -0.6055596836314624 0.7957998929127893 2.7313866322903506e-17 -7.381913084939734e-17 2.7313866322903506e-17 -7.381913084939734e-17 -0.6055601862473724 0.7957995104496423
12664194666.666666 -0.5987184661068629 0.8009595485057208 2.666855941977336e-17 -7.40383916655478e-17 2.666855941977336e-17 -7.40383916655478e-17 -0.5987189719568781 0.8009591703818253
12664812000.0 -0.5918332880979942 0.8060603942006823 2.602150491514794e-17 -7.425201662419005e-17 2.602150491514794e-17 -7.425201662419005e-17 -0.5918337971446591 0.8060600204433769
12665429333.333334 -0.5849046551442642 0.811102055471697 2.5372751985302085e-17 -7.445999191260213e-17 2.5372751985302085e-17 -7.445999191260213e-17 -0.5849051673498926 0.8111016861079978
12666046666.666666 -0.5779330759758212 0.8160841621382985 2.4722349914601213e-17 -7.466230414676411e-17 2.4722349914601213e-17 -7.466230414676411e-17 -0.5779335913024987 0.8160837971948957
12666664000.0 -0.5709190624759707 0.8210063483928741 2.4070348091743878e-17 -7.485894037220096e-17 2.4070348091743878e-17 -7.485894037220096e-17 -0.5709195808855572 0.8210059878961316
12667281333.333334 -0.5638631296438207 0.8258682528273619 2.341679600605133e-17 -7.504988806477615e-17 2.341679600605133e-17 -7.504988806477615e-17 -0.5638636510979534 0.8258678968033132
12667898666.666666 -0.5567657955563768 0.8306695184598499 2.276174324369969e-17 -7.523513513146865e-17 2.276174324369969e-17 -7.523513513146865e-17 -0.5567663200164739 0.8306691669341992
12668516000.0 -0.5496275813304075 0.8354097927608515 2.21052394839677e-17 -7.541466991111028e-17 2.21052394839677e-17 -7.541466991111028e-17 -0.5496281087576699 0.8354094457589702
12669133333.333334 -0.5424490110844192 0.8400887276790343 2.1447334495500585e-17 -7.558848117508534e-17 2.1447334495500585e-17 -7.558848117508534e-17 -0.5424495414398334 0.8400883852259582
12669750666.666666 -0.5352306118999346 0.8447059796669283 2.0788078132516854e-17 -7.575655812801102e-17 2.0788078132516854e-17 -7.575655812801102e-17 -0.5352311451442756 0.8447056417873566
12670368000.0 -0.5279729137828869 0.84926120970609 2.012752033106201e-17 -7.591889040837139e-17 2.012752033106201e-17 -7.591889040837139e-17 -0.5279734498767223 0.8492608764243849
12670985333.333334 -0.5206764496247788 0.8537540833319498 1.9465711105233886e-17 -7.607546808912528e-17 1.9465711105233886e-17 -7.607546808912528e-17 -0.5206769885284709 0.8537537546721334
