! Parameters = {f0=12700.012000; bw=77.238000; Q=6100.000000; N=10; m_0_1=1.304800; m_1_1=0.807251; m_1_2=1.139612; m_2_2=0.806602; m_2_3=0.776575; m_2_8=0.002304; m_2_9=0.039008; m_3_3=0.804665; m_3_4=0.665104; m_3_7=0.002904; m_3_8=-0.094184; m_3_9=0.002304; m_4_4=0.801740; m_4_5=0.501439; m_4_6=0.006421; m_4_7=-0.114733; m_4_8=0.002904; m_5_5=0.802122; m_5_6=0.908794; m_5_7=0.006421; m_6_6=0.802121; m_6_7=0.501781; m_7_7=0.801754; m_7_8=0.665222; m_8_8=0.804663; m_8_9=0.776888; m_9_9=0.806597; m_9_10=1.140690; m_10_10=0.807241; m_10_11=1.305595}
!
! Created with skrf (http://scikit-rf.org).
# Hz S RI R 50.0 
!freq ReS11 ImS11 ReS21 ImS21 ReS12 ImS12 ReS22 ImS22
12607400000.0 0.16182417315346442 -0.9868196071131801 1.6263922306498017e-17 1.289429179204748e-16 1.6263922306498017e-17 1.289429179204748e-16 0.1618248514744577 -0.9868194958780877
12608017333.333334 0.15041416518954995 -0.9886230722121273 1.7760256421770636e-17 1.2871965786115582e-16 1.7760256421770636e-17 1.2871965786115582e-16 0.15041484471694413 -0.9886229688251184
12608634666.666666 0.138984085846548 -0.9902946146885849 1.9253598094027766e-17 1.284790437370069e-16 1.9253598094027766e-17 1.284790437370069e-16 0.1389847664895529 -0.9902945191626872
12609252000.0 0.12753546036309452 -0.991834011490727 2.0743746176182855e-17 1.2822111494225988e-16 2.0743746176182855e-17 1.2822111494225988e-16 0.1275361420307798 -0.9918339238379167
12609869333.333334 0.11606981645252176 -0.9932410572003613 2.2230500032539032e-17 1.2794591320118871e-16 2.2230500032539032e-17 1.2794591320118871e-16 0.11607049905382928 -0.9932409774315638
12610486666.666666 0.10458868409925366 -0.9945155640603115 2.371365956573078e-17 1.2765348256155193e-16 2.371365956573078e-17 1.2765348256155193e-16 0.10458936754300968 -0.9945154921853991
12611104000.0 0.09309359535427579 -0.9956573619995119 2.5193025243661797e-17 1.2734386938770718e-16 2.5193025243661797e-17 1.2734386938770718e-16 0.09309427954920302 -0.9956572980273023
12611721333.333334 0.08158608413120634 -0.9966662986556477 2.66683981262437e-17 1.27017122353438e-16 2.66683981262437e-17 1.27017122353438e-16 0.08158676898593618 -0.9966662425939031
12612338666.666666 0.07006768600115709 -0.997542239395534 2.8139579892167067e-17 1.2667329243444563e-16 2.8139579892167067e-17 1.2667329243444563e-16 0.07006837142424191 -0.9975421912509606
12612956000.0 0.05853993798793835 -0.9982850673330642 2.96063728655056e-17 1.2631243290054549e-16 2.96063728655056e-17 1.2631243290054549e-16 0.058540623887863664 -0.9982850271113121
12613573333.333334 0.04700437836315614 -0.9988946833447997 3.1068580042208596e-17 1.259345993075616e-16 3.1068580042208596e-17 1.259345993075616e-16 0.04700506464835266 -0.9988946510504588
12614190666.666666 0.03546254644077356 -0.999371006083201 3.252600511655998e-17 1.2553984948889726e-16 3.252600511655998e-17 1.2553984948889726e-16 0.0354632330196297 -0.999370981719806
12614808000.0 0.023915982371675585 -0.9997139719874938 3.3978452507460924e-17 1.2512824354681864e-16 3.3978452507460924e-17 1.2512824354681864e-16 0.023916669152549454 -0.9997139555575187
12615425333.333334 0.01236622693823494 -0.999923535292137 3.54257273846612e-17 1.2469984384342003e-16 3.54257273846612e-17 1.2469984384342003e-16 0.012366913829466709 -0.9999235267969987
12616042666.666666 0.0008148213486806905 -0.9999996680329368 3.6867635694839134e-17 1.242547149912961e-16 3.6867635694839134e-17 1.242547149912961e-16 0.0008155082586047389 -0.9999996674729916
12616660000.0 -0.01073669296859024 -0.9999423600507742 3.8303984187584354e-17 1.2379292384390946e-16 3.8303984187584354e-17 1.2379292384390946e-16 -0.010736006131633042 -0.9999423674253208
12617277333.333334 -0.02228677457061717 -0.9997516189929645 3.9734580441264615e-17 1.2331453948565613e-16 3.9734580441264615e-17 1.2331453948565613e-16 -0.022286087898267234 -0.9997516343002415
12617894666.666666 -0.03383388220559541 -0.9994274703122344 4.1159232888732254e-17 1.228196332216462e-16 4.1159232888732254e-17 1.228196332216462e-16 -0.033833195789462256 -0.9994274935494247
12618512000.0 -0.04537647501876941 -0.9989699572633228 4.257775084299531e-17 1.2230827856715708e-16 4.257775084299531e-17 1.2230827856715708e-16 -0.04537578895041936 -0.9989699884265493
12619129333.333334 -0.05691301275756264 -0.9983791408972202 4.398994452263764e-17 1.217805512368332e-16 4.398994452263764e-17 1.217805512368332e-16 -0.05691232712850672 -0.9983791799815497
12619746666.666666 -0.06844195597756457 -0.9976551000530088 4.539562507720712e-17 1.2123652913355683e-16 4.539562507720712e-17 1.2123652913355683e-16 -0.06844127087924619 -0.9976551470524508
12620364000.0 -0.0799617662478416 -0.9967979313473416 4.679460461243314e-17 1.2067629233703899e-16 4.679460461243314e-17 1.2067629233703899e-16 -0.07996108177162442 -0.9967979862548509
12620981333.333334 -0.09147090635599947 -0.9958077491615672 4.8186696215256726e-17 1.2009992309213914e-16 4.8186696215256726e-17 1.2009992309213914e-16 -0.09147022259315517 -0.9958078119690431
12621598666.666666 -0.10296784051362207 -0.994684685626443 4.957171397881752e-17 1.1950750579685702e-16 4.957171397881752e-17 1.1950750579685702e-16 -0.1029671575553183 -0.9946847563247327
12622216000.0 -0.11445103456095332 -0.9934288906045277 5.094947302720889e-17 1.1889912699007144e-16 5.094947302720889e-17 1.1889912699007144e-16 -0.11445035249824134 -0.993428969183425
12622833333.333334 -0.12591895617184268 -0.9920405316701568 5.2319789540128235e-17 1.1827487533897593e-16 5.2319789540128235e-17 1.1827487533897593e-16 -0.1259182750956456 -0.9920406181184075
12623450666.666666 -0.13737007505802265 -0.9905197940871086 5.368248077733442e-17 1.1763484162624927e-16 5.368248077733442e-17 1.1763484162624927e-16 -0.13736939505912268 -0.9905198883924063
12624068000.0 -0.1488028631733674 -0.9888668807838701 5.5037365103012886e-17 1.169791187369155e-16 5.5037365103012886e-17 1.169791187369155e-16 -0.1488021843423945 -0.9888669829328645
12624685333.333334 -0.16021579491799465 -0.9870820123265397 5.63842620099346e-17 1.1630780164494505e-16 5.63842620099346e-17 1.1630780164494505e-16 -0.16021511734541358 -0.987082122304831
12625302666.666666 -0.17160734734144711 -0.985165426889437 5.772299214343341e-17 1.1562098739958911e-16 5.772299214343341e-17 1.1562098739958911e-16 -0.17160667111754654 -0.9851655446815871
12625920000.0 -0.182976000346368 -0.9831173802232681 5.905337732530009e-17 1.1491877511139697e-16 5.905337732530009e-17 1.1491877511139697e-16 -0.18297532556124724 -0.9831175058127943
12626537333.333334 -0.19432023689097666 -0.9809381456210418 6.037524057739612e-17 1.1420126593801634e-16 6.037524057739612e-17 1.1420126593801634e-16 -0.19431956363453495 -0.9809382789904257
12627154666.666666 -0.20563854319156366 -0.9786280138816111 6.16884061451944e-17 1.1346856306967192e-16 6.16884061451944e-17 1.1346856306967192e-16 -0.20563787155348642 -0.9786281550122936
12627772000.0 -0.21692940892482207 -0.9761872932707848 6.299269952111105e-17 1.1272077171438986e-16 6.299269952111105e-17 1.1272077171438986e-16 -0.2169287389945711 -0.9761874421431777
12628389333.333334 -0.22819132742888806 -0.9736163094803091 6.428794746761221e-17 1.1195799908298244e-16 6.428794746761221e-17 1.1195799908298244e-16 -0.22819065929568763 -0.973616466073789
12629006666.666666 -0.2394227959048608 -0.9709154055842939 6.557397804023215e-17 1.1118035437371544e-16 6.557397804023215e-17 1.1118035437371544e-16 -0.23942212965768733 -0.9709155698772123
12629624000.0 -0.2506223156169232 -0.968084941993535 6.685062061030873e-17 1.1038794875676836e-16 6.685062061030873e-17 1.1038794875676836e-16 -0.2506216513444925 -0.9680851139632165
12630241333.333334 -0.26178839209266513 -0.9651252964073377 6.81177058876171e-17 1.0958089535838398e-16 6.81177058876171e-17 1.0958089535838398e-16 -0.2617877298834209 -0.9651254760300856
12630858666.666666 -0.2729195353222321 -0.962036863763188 6.937506594274449e-17 1.0875930924480087e-16 6.937506594274449e-17 1.0875930924480087e-16 -0.2729188752643341 -0.9620370510142867
12631476000.0 -0.2840142599575096 -0.9588200561839553 7.062253422934286e-17 1.0792330740588411e-16 7.062253422934286e-17 1.0792330740588411e-16 -0.28401360213882176 -0.9588202510376728
12632093333.333334 -0.2950710855098632 -0.9554753029230246 7.185994560609371e-17 1.0707300873856226e-16 7.185994560609371e-17 1.0707300873856226e-16 -0.2950704300179423 -0.9554755053526182
12632710666.666666 -0.30608853654802626 -0.9520030503069321 7.308713635856302e-17 1.062085340299545e-16 7.308713635856302e-17 1.062085340299545e-16 -0.30608788347010996 -0.9520032602846501
12633328000.0 -0.31706514289500665 -0.9484037616757874 7.430394422081964e-17 1.0533000594026885e-16 7.430394422081964e-17 1.0533000594026885e-16 -0.31706449231800204 -0.9484039791728744
12633945333.333334 -0.3279994398240795 -0.944677917321509 7.551020839682338e-17 1.0443754898547417e-16 7.551020839682338e-17 1.0443754898547417e-16 -0.3279987918345516 -0.944678142308209
12634562666.666666 -0.3388899682542694 -0.9408260144237269 7.670576958164378e-17 1.035312895196993e-16 7.670576958164378e-17 1.035312895196993e-16 -0.3388893229384292 -0.9408262468692864
12635180000.0 -0.34973527494518497 -0.9368485669833895 7.789046998245424e-17 1.0261135571740105e-16 7.789046998245424e-17 1.0261135571740105e-16 -0.3497346323888785 -0.9368488068560639
12635797333.333334 -0.36053391269085955 -0.9327461057542047 7.906415333930387e-17 1.0167787755529898e-16 7.906415333930387e-17 1.0167787755529898e-16 -0.36053327297955634 -0.9327463530212613
12636414666.666666 -0.3712844405128151 -0.928519178171835 8.022666494568893e-17 1.0073098679406272e-16 8.022666494568893e-17 1.0073098679406272e-16 -0.37128380373159664 -0.9285194327995576
12637032000.0 -0.38198542385240053 -0.9241683482808295 8.137785166890522e-17 9.977081695976408e-17 8.137785166890522e-17 9.977081695976408e-17 -0.38198479008594866 -0.924168610234522
12637649333.333334 -0.39263543476227253 -0.9196941966593327 8.25175619701681e-17 9.879750332510681e-17 8.25175619701681e-17 9.879750332510681e-17 -0.3926348040948593 -0.9196944659033272
12638266666.666666 -0.40323305209686355 -0.9150973203416469 8.36456459245058e-17 9.781118289042912e-17 8.36456459245058e-17 9.781118289042912e-17 -0.40323242461233855 -0.9150975968393038
12638884000.0 -0.41377686170207156 -0.9103783327385369 8.47619552404525e-17 9.681199436445962e-17 8.47619552404525e-17 9.681199436445962e-17 -0.41377623748385217 -0.9103786164522544
12639501333.333334 -0.4242654566038897 -0.9055378635554162 8.586634327948901e-17 9.580007814486703e-17 8.586634327948901e-17 9.580007814486703e-17 -0.4242648357349488 -0.9055381544466318
12640118666.666666 -0.43469743719615356 -0.9005765587083152 8.695866507523122e-17 9.47755762986092e-17 8.695866507523122e-17 9.47755762986092e-17 -0.434696819759009 -0.9005768567375128
12640736000.0 -0.44507141142763856 -0.8954950802375321 8.803877735248419e-17 9.373863254197231e-17 8.803877735248419e-17 9.373863254197231e-17 -0.4450707975043427 -0.8954953853642477
12641353333.333334 -0.45538599498712656 -0.8902941062196242 8.910653854588536e-17 9.268939222055618e-17 8.910653854588536e-17 9.268939222055618e-17 -0.45538538465925454 -0.8902944184024503
12641970666.666666 -0.46563981148881817 -0.884974330676587 9.016180881849617e-17 9.162800228887172e-17 9.016180881849617e-17 9.162800228887172e-17 -0.46563920483745747 -0.8849746498731784
12642588000.0 -0.4758314926556412 -0.8795364634834187 9.120445008002652e-17 9.055461128984604e-17 9.120445008002652e-17 9.055461128984604e-17 -0.4758308897613813 -0.8795367896504994
12643205333.333334 -0.4859596785018876 -0.8739812302733716 9.223432600486183e-17 8.946936933407851e-17 9.223432600486183e-17 8.946936933407851e-17 -0.48595907944480815 -0.8739815633667389
12643822666.666666 -0.49602301751479005 -0.8683093723410673 9.32513020498504e-17 8.837242807888377e-17 9.32513020498504e-17 8.837242807888377e-17 -0.4960224223744508 -0.8683097123155983
12644440000.0 -0.5060201668347661 -0.8625216465436278 9.425524547180752e-17 8.726394070717048e-17 9.425524547180752e-17 8.726394070717048e-17 -0.5060195756901971 -0.8625219933532869
12645057333.333334 -0.5159497924345418 -0.8566188251997319 9.524602534480954e-17 8.614406190607995e-17 9.524602534480954e-17 8.614406190607995e-17 -0.5159492053642318 -0.8566191787975753
12645674666.666666 -0.525810569297311 -0.850601695986466 9.622351257720742e-17 8.501294784545832e-17 9.622351257720742e-17 8.501294784545832e-17 -0.5258099863791977 -0.8506020563246496
12646292000.0 -0.5356011815936431 -0.8444710618341578 9.718757992841611e-17 8.387075615610044e-17 9.718757992841611e-17 8.387075615610044e-17 -0.5356006029051019 -0.8444714288639408
12646909333.333334 -0.5453203228566782 -0.8382277408194643 9.813810202538535e-17 8.271764590787662e-17 9.813810202538535e-17 8.271764590787662e-17 -0.5453197484745139 -0.8382281144912208
12647526666.666666 -0.5549666961568558 -0.8318725660559796 9.907495537888948e-17 8.155377758758186e-17 9.907495537888948e-17 8.155377758758186e-17 -0.5549661261572897 -0.8318729463191994
12648144000.0 -0.5645390142748492 -0.8254063855831237 9.999801839950553e-17 8.037931307665955e-17 9.999801839950553e-17 8.037931307665955e-17 -0.5645384487335117 -0.8254067723864245
12648761333.333334 -0.5740359998732909 -0.8188300622530208 1.0090717141333525e-16 7.919441562873684e-17 1.0090717141333525e-16 7.919441562873684e-17 -0.5740354388652087 -0.8188304555441507
12649378666.666666 -0.583456385667126 -0.8121444736154204 1.0180229667745771e-16 7.799924984698939e-17 1.0180229667745771e-16 7.799924984698939e-17 -0.583455829266715 -0.8121448733412682
12649996000.0 -0.5927989145929796 -0.8053505118004219 1.0268327839514759e-16 7.679398166128868e-17 1.0268327839514759e-16 7.679398166128868e-17 -0.592798362874032 -0.8053509179070212
12650613333.333334 -0.6020623399767535 -0.7984490833995178 1.0355000273078314e-16 7.557877830522992e-17 1.0355000273078314e-16 7.557877830522992e-17 -0.6020617930124321 -0.7984494958320596
12651230666.666666 -0.6112454256998332 -0.7914411093447478 1.0440235782449337e-16 7.435380829298208e-17 1.0440235782449337e-16 7.435380829298208e-17 -0.6112448835626569 -0.7914415280475805
12651848000.0 -0.6203469463643926 -0.7843275247855253 1.0524023380656032e-16 7.311924139593125e-17 1.0524023380656032e-16 7.311924139593125e-17 -0.6203464091262303 -0.7843279497021682
12652465333.333334 -0.6293656874566207 -0.7771092789640792 1.0606352281149616e-16 7.187524861923425e-17 1.0606352281149616e-16 7.187524861923425e-17 -0.6293651551886801 -0.7771097100372276
12653082666.666666 -0.6383004455088105 -0.7697873350887695 1.0687211899188351e-16 7.062200217815841e-17 1.0687211899188351e-16 7.062200217815841e-17 -0.6382999182816298 -0.7697877722603029
12653700000.0 -0.6471500282601947 -0.762362670205359 1.0766591853193588e-16 6.93596754742653e-17 1.0766591853193588e-16 6.93596754742653e-17 -0.6471495061436321 -0.7623631134163487
12654317333.333334 -0.6559132548156446 -0.7548362750669596 1.08444819660742e-16 6.808844307149858e-17 1.08444819660742e-16 6.808844307149858e-17 -0.6559127378788696 -0.7548367242576768
12654934666.666666 -0.6645889558036013 -0.7472091540015378 1.0920872266526237e-16 6.680848067207202e-17 1.0920872266526237e-16 6.680848067207202e-17 -0.6645884441150862 -0.7472096091114621
12655552000.0 -0.673175973532028 -0.7394823247779634 1.0995752990305214e-16 6.55199650921933e-17 1.0995752990305214e-16 6.55199650921933e-17 -0.6731754671595374 -0.7394827857457901
12656169333.333334 -0.6816731621427431 -0.7316568184703317 1.1069114581463519e-16 6.422307423775282e-17 1.1069114581463519e-16 6.422307423775282e-17 -0.6816726611533258 -0.7316572852339802
12656786666.666666 -0.690079387764456 -0.7237336793202657 1.1140947693567338e-16 6.29179870797368e-17 1.1140947693567338e-16 6.29179870797368e-17 -0.6900788922244359 -0.7237341518168883
12657404000.0 -0.6983935286640879 -0.7157139645975468 1.121124319087896e-16 6.160488362960279e-17 1.121124319087896e-16 6.160488362960279e-17 -0.6983930386390559 -0.7157144427635376
12658021333.333334 -0.706614475396418 -0.7075987444590753 1.1279992149512698e-16 6.028394491447992e-17 1.1279992149512698e-16 6.028394491447992e-17 -0.7066139909512221 -0.7075992282300771
12658638666.666666 -0.7147411309520459 -0.6993891018061447 1.1347185858559346e-16 5.895535295228279e-17 1.1347185858559346e-16 5.895535295228279e-17 -0.7147406521507838 -0.6993895911170596
12659256000.0 -0.7227724109039994 -0.691086132139718 1.1412815821185684e-16 5.761929072662056e-17 1.1412815821185684e-16 5.761929072662056e-17 -0.7227719378100088 -0.6910866269247149
12659873333.333334 -0.7307072435521805 -0.6826909434145066 1.147687375569959e-16 5.627594216167838e-17 1.147687375569959e-16 5.627594216167838e-17 -0.7307067762280324 -0.6826914436070306
12660490666.666666 -0.7385445700664971 -0.6742046558910043 1.153935159658804e-16 5.492549209693626e-17 1.153935159658804e-16 5.492549209693626e-17 -0.7385441085739856 -0.6742051614237852
12661108000.0 -0.7462833446282848 -0.6656284019858495 1.1600241495526927e-16 5.356812626174093e-17 1.1600241495526927e-16 5.356812626174093e-17 -0.74628288902842 -0.6656289127909111
12661725333.333334 -0.7539225345695366 -0.6569633261210718 1.1659535822356576e-16 5.2204031249862274e-17 1.1659535822356576e-16 5.2204031249862274e-17 -0.7539220849225365 -0.6569638421297409
12662342666.666666 -0.7614611205110273 -0.6482105845710214 1.1717227166032723e-16 5.083339449382754e-17 1.1717227166032723e-16 5.083339449382754e-17 -0.7614606768763104 -0.6482111057139379
12662960000.0 -0.7688980964981714 -0.6393713453082673 1.1773308335543453e-16 4.945640423923744e-17 1.1773308335543453e-16 4.945640423923744e-17 -0.7688976589343474 -0.6393718715153922
12663577333.333334 -0.7762324701352924 -0.6304467878476958 1.182777236079784e-16 4.807324951894287e-17 1.182777236079784e-16 4.807324951894287e-17 -0.7762320387001554 -0.6304473190483214
12664194666.666666 -0.7834632627180689 -0.6214381030890962 1.1880612493483273e-16 4.668412012714803e-17 1.1880612493483273e-16 4.668412012714803e-17 -0.7834628374685892 -0.6214386392118549
12664812000.0 -0.7905895093640611 -0.6123464931583322 1.1931822207893865e-16 4.5289206593387485e-17 1.1931822207893865e-16 4.5289206593387485e-17 -0.7905890903563801 -0.6123470341312081
12665429333.333334 -0.7976102591415938 -0.6031731712467776 1.198139520172705e-16 4.3888700156443434e-17 1.198139520172705e-16 4.3888700156443434e-17 -0.7976098464310116 -0.6031737169971129
12666046666.666666 -0.8045245751964853 -0.5939193614496249 1.2029325396849658e-16 4.248279273818121e-17 1.2029325396849658e-16 4.248279273818121e-17 -0.8045241688374583 -0.593919911904132
12666664000.0 -0.81133153487729 -0.5845862986022479 1.207560694003516e-16 4.1071676917247305e-17 1.207560694003516e-16 4.1071676917247305e-17 -0.8113311349234216 -0.5845868536870191
12667281333.333334 -0.8180302298581101 -0.5751752281158353 1.2120234203666693e-16 3.9655545902791927e-17 1.2120234203666693e-16 3.9655545902791927e-17 -0.8180298363621434 -0.575175787756352
12667898666.666666 -0.8246197662600753 -0.5656874058108362 1.2163201786413186e-16 3.823459350799943e-17 1.2163201786413186e-16 3.823459350799943e-17 -0.8246193792738873 -0.5656879699319796
12668516000.0 -0.8310992647705514 -0.5561240977494725 1.2204504513872229e-16 3.6809014123615975e-17 1.2204504513872229e-16 3.6809014123615975e-17 -0.8310988843451441 -0.5561246662755321
12669133333.333334 -0.8374678607603623 -0.5464865800669563 1.224413743918172e-16 3.537900269141978e-17 1.224413743918172e-16 3.537900269141978e-17 -0.8374674869458588 -0.5464871529216427
12669750666.666666 -0.8437247043992696 -0.5367761388010657 1.2282095843601878e-16 3.394475467758237e-17 1.2282095843601878e-16 3.394475467758237e-17 -0.8437243372449053 -0.5367767159075183
12670368000.0 -0.8498689607693991 -0.5269940697204835 1.231837523706558e-16 3.2506466045982474e-17 1.231837523706558e-16 3.2506466045982474e-17 -0.8498686003235159 -0.5269946510012824
