! Parameters = {f0=12700.012000; bw=77.238000; Q=6100.000000; N=10; m_0_1=1.274970; m_1_1=0.359804; m_1_2=1.109782; m_2_2=0.359155; m_2_3=0.746745; m_2_8=0.000812; m_2_9=0.037516; m_3_3=0.357218; m_3_4=0.635274; m_3_7=0.001412; m_3_8=-0.095676; m_3_9=0.000812; m_4_4=0.354293; m_4_5=0.471609; m_4_6=0.004929; m_4_7=-0.116225; m_4_8=0.001412; m_5_5=0.354675; m_5_6=0.878964; m_5_7=0.004929; m_6_6=0.354674; m_6_7=0.471951; m_7_7=0.354307; m_7_8=0.635392; m_8_8=0.357216; m_8_9=0.747058; m_9_9=0.359150; m_9_10=1.110860; m_10_10=0.359794; m_10_11=1.275765}
!
! Created with skrf (http://scikit-rf.org).
# Hz S RI R 50.0 
!freq ReS11 ImS11 ReS21 ImS21 ReS12 ImS12 ReS22 ImS22
12607400000.0 -0.6176239467671906 -0.7864735598731465 9.23384989924751e-17 6.55135984456866e-17 9.23384989924751e-17 6.55135984456866e-17 -0.6176234184763346 -0.7864739747438747
12608017333.333334 -0.625980203387447 -0.7798389480955886 9.301975407644555e-17 6.45037627425359e-17 9.301975407644555e-17 6.45037627425359e-17 -0.6259796795788432 -0.7798393685588024
12608634666.666666 -0.6342651952279946 -0.7731155554781032 9.368997519030204e-17 6.348685608570285e-17 9.368997519030204e-17 6.348685608570285e-17 -0.634264675960835 -0.773115981485391
12609252000.0 -0.6424779790832227 -0.7663041474460125 9.434908908888869e-17 6.246299893341372e-17 9.434908908888869e-17 6.246299893341372e-17 -0.6424774644161757 -0.7663045789483346
12609869333.333334 -0.6506176199680002 -0.7594054994447935 9.499702384098225e-17 6.143231250099026e-17 9.499702384098225e-17 6.143231250099026e-17 -0.6506171099592049 -0.7594059363924901
12610486666.666666 -0.6586831912240811 -0.7524203968518417 9.563370883709689e-17 6.03949187465353e-17 9.563370883709689e-17 6.03949187465353e-17 -0.6586826859311401 -0.752420839194637
12611104000.0 -0.6666737746258983 -0.7453496348867948 9.625907479715914e-17 5.935094035649347e-17 9.625907479715914e-17 5.935094035649347e-17 -0.6666732741058725 -0.7453500825738052
12611721333.333334 -0.6745884604846722 -0.7381940185213783 9.687305377796915e-17 5.830050073122701e-17 9.687305377796915e-17 5.830050073122701e-17 -0.6745879647940735 -0.738194471501116
12612338666.666666 -0.6824263477522533 -0.7309543623875182 9.747557918055962e-17 5.724372397042361e-17 9.747557918055962e-17 5.724372397042361e-17 -0.6824258569470374 -0.7309548206078974
12612956000.0 -0.6901865441237581 -0.7236314906845374 9.806658575737895e-17 5.618073485845661e-17 9.806658575737895e-17 5.618073485845661e-17 -0.6901860582593209 -0.7236319540928825
12613573333.333334 -0.6978681661388476 -0.7162262370856186 9.864600961928561e-17 5.5111658849724684e-17 9.864600961928561e-17 5.5111658849724684e-17 -0.6978676852700151 -0.7162267056286667
12614190666.666666 -0.7054703392825705 -0.7087394446426394 9.92137882424364e-17 5.4036622053825064e-17 9.92137882424364e-17 5.4036622053825064e-17 -0.7054698634635964 -0.7087399182665503
12614808000.0 -0.7129921980848829 -0.7011719656902364 9.976986047496685e-17 5.295575122074038e-17 9.976986047496685e-17 5.295575122074038e-17 -0.7129917273694397 -0.7011724443405951
12615425333.333334 -0.7204328862190738 -0.6935246617488655 1.0031416654353506e-16 5.1869173725912545e-17 1.0031416654353506e-16 5.1869173725912545e-17 -0.7204324206602477 -0.6935251453706908
12616042666.666666 -0.7277915565993165 -0.6857984034266672 1.008466480597024e-16 5.077701755525292e-17 1.008466480597024e-16 5.077701755525292e-17 -0.7277910962496028 -0.6857988919644179
12616660000.0 -0.7350673714771653 -0.6779940703202899 1.0136724802613585e-16 4.967941129011591e-17 1.0136724802613585e-16 4.967941129011591e-17 -0.7350669163884592 -0.677994563717869
12617277333.333334 -0.7422595025368248 -0.6701125509148493 1.018759108426711e-16 4.857648409216421e-17 1.018759108426711e-16 4.857648409216421e-17 -0.74225905276042 -0.6701130491156145
12617894666.666666 -0.7493671309894223 -0.662154742482831 1.0237258231218145e-16 4.746836568823292e-17 1.0237258231218145e-16 4.746836568823292e-17 -0.7493666865760001 -0.6621552454295964
12618512000.0 -0.7563894476664786 -0.654121550981636 1.0285720964631788e-16 4.635518635505911e-17 1.0285720964631788e-16 4.635518635505911e-17 -0.7563890086661068 -0.6541220586166824
12619129333.333334 -0.7633256531116573 -0.6460138909508716 1.0332974147105101e-16 4.523707690402665e-17 1.0332974147105101e-16 4.523707690402665e-17 -0.763325219573781 -0.6460144032159506
12619746666.666666 -0.7701749576720197 -0.6378326854079563 1.0379012783206577e-16 4.411416866581085e-17 1.0379012783206577e-16 4.411416866581085e-17 -0.7701745296454592 -0.6378332022442997
12620364000.0 -0.7769365815879782 -0.6295788657429738 1.0423832019998945e-16 4.2986593474972397e-17 1.0423832019998945e-16 4.2986593474972397e-17 -0.7769361591209202 -0.6295793870912978
12620981333.333334 -0.7836097550817932 -0.6212533716129638 1.0467427147544152e-16 4.185448365452554e-17 1.0467427147544152e-16 4.185448365452554e-17 -0.7836093382217874 -0.621253897413477
12621598666.666666 -0.7901937184454453 -0.6128571508346644 1.0509793599392761e-16 4.0717972000425895e-17 1.0509793599392761e-16 4.0717972000425895e-17 -0.7901933072393986 -0.6128576810270746
12622216000.0 -0.7966877221270887 -0.6043911592766504 1.0550926953055923e-16 3.957719176602783e-17 1.0550926953055923e-16 3.957719176602783e-17 -0.7966873166212591 -0.6043916938001709
12622833333.333334 -0.8030910268163091 -0.5958563607505998 1.0590822930461279e-16 3.843227664647388e-17 1.0590822930461279e-16 3.843227664647388e-17 -0.8030906270563023 -0.5958568995439574
12623450666.666666 -0.8094029035282795 -0.5872537269015949 1.0629477398390265e-16 3.7283360763084066e-17 1.0629477398390265e-16 3.7283360763084066e-17 -0.8094025095590417 -0.5872542699030356
12624068000.0 -0.8156226336868866 -0.578584237097322 1.066688636890059e-16 3.613057864764834e-17 1.066688636890059e-16 3.613057864764834e-17 -0.8156222455527004 -0.5785847842446192
12624685333.333334 -0.8217495092064473 -0.5698488783166866 1.0703045999731095e-16 3.4974065226688986e-17 1.0703045999731095e-16 3.4974065226688986e-17 -0.8217491269509274 -0.5698494295471482
12625302666.666666 -0.8277828325722127 -0.5610486450376175 1.073795259468765e-16 3.381395580574787e-17 1.073795259468765e-16 3.381395580574787e-17 -0.8277824562383005 -0.5610492002880926
12625920000.0 -0.8337219169200668 -0.5521845391234285 1.0771602604015877e-16 3.2650386053513973e-17 1.0771602604015877e-16 3.2650386053513973e-17 -0.833721546550024 -0.5521850983303139
12626537333.333334 -0.8395660861143968 -0.5432575697092276 1.0803992624752563e-16 3.148349198604944e-17 1.0803992624752563e-16 3.148349198604944e-17 -0.8395657217498039 -0.5432581328084771
12627154666.666666 -0.845314674825221 -0.5342687530868263 1.0835119401062848e-16 3.0313409950890064e-17 1.0835119401062848e-16 3.0313409950890064e-17 -0.8453143165069704 -0.534269320013957
12627772000.0 -0.8509670286040659 -0.5252191125888214 1.0864979824560083e-16 2.914027661111314e-17 1.0864979824560083e-16 2.914027661111314e-17 -0.8509666763723561 -0.5252196832789192
12628389333.333334 -0.8565225039581499 -0.5161096784725947 1.0893570934606024e-16 2.796422892946772e-17 1.0893570934606024e-16 2.796422892946772e-17 -0.8565221578524833 -0.5161102528603245
12629006666.666666 -0.861980468423989 -0.5069414878024712 1.0920889918597504e-16 2.67854041523407e-17 1.0920889918597504e-16 2.67854041523407e-17 -0.8619801284831684 -0.5069420658220843
12629624000.0 -0.8673403006391359 -0.4977155843320915 1.0946934112232471e-16 2.5603939793822863e-17 1.0946934112232471e-16 2.5603939793822863e-17 -0.8673399669012573 -0.49771616591743134
12630241333.333334 -0.8726013904130618 -0.48843301838534026 1.0971700999761008e-16 2.4419973619666838e-17 1.0971700999761008e-16 2.4419973619666838e-17 -0.8726010629155107 -0.4884336034698504
12630858666.666666 -0.8777631387965106 -0.47909484673696917 1.0995188214218048e-16 2.323364363125933e-17 1.0995188214218048e-16 2.323364363125933e-17 -0.8777628175759601 -0.47909543525370235
12631476000.0 -0.8828249581498969 -0.46970213249191767 1.1017393537639366e-16 2.2045088049547284e-17 1.1017393537639366e-16 2.2045088049547284e-17 -0.8828246432423007 -0.4697027243735417
12632093333.333334 -0.8877862722099412 -0.46025594496475425 1.103831490125934e-16 2.0854445298992128e-17 1.103831490125934e-16 2.0854445298992128e-17 -0.8877859636505308 -0.4602565401435606
12632710666.666666 -0.892646516155402 -0.45075735955771856 1.1057950385692535e-16 1.966185399144712e-17 1.1057950385692535e-16 1.966185399144712e-17 -0.8926462139786833 -0.4507579579656302
12633328000.0 -0.8974051366714794 -0.4412074576380884 1.1076298221097227e-16 1.8467452910050435e-17 1.1076298221097227e-16 1.8467452910050435e-17 -0.8974048409112289 -0.4412080592066674
12633945333.333334 -0.9020615920126005 -0.4316073264154763 1.1093356787321474e-16 1.7271380993120905e-17 1.1093356787321474e-16 1.7271380993120905e-17 -0.9020613027018598 -0.4316079310759313
12634562666.666666 -0.9066153520642587 -0.42195805881772525 1.1109124614032397e-16 1.6073777317997644e-17 1.1109124614032397e-16 1.6073777317997644e-17 -0.9066150692353331 -0.4219586665009201
12635180000.0 -0.9110658984032676 -0.41226075336668977 1.112360038082739e-16 1.4874781084920592e-17 1.112360038082739e-16 1.4874781084920592e-17 -0.9110656220877198 -0.41226136400315033
12635797333.333334 -0.9154127243568378 -0.4025165140530445 1.113678291732867e-16 1.3674531600849355e-17 1.113678291732867e-16 1.3674531600849355e-17 -0.9154124545854888 -0.4025171275729683
12636414666.666666 -0.9196553350601953 -0.39272645021075814 1.1148671203259593e-16 1.247316826333926e-17 1.1148671203259593e-16 1.247316826333926e-17 -0.9196550718631149 -0.3927270665440201
12637032000.0 -0.9237932475130276 -0.3828916763905387 1.1159264368504425e-16 1.1270830544350028e-17 1.1159264368504425e-16 1.1270830544350028e-17 -0.9237929909195365 -0.3828922954667012
12637649333.333334 -0.9278259906343501 -0.37301331223323575 1.1168561693150246e-16 1.0067657974083679e-17 1.1168561693150246e-16 1.0067657974083679e-17 -0.9278257406730135 -0.37301393398155536
12638266666.666666 -0.9317531053162351 -0.36309248234213815 1.1176562607511394e-16 8.86379012483484e-18 1.1176562607511394e-16 8.86379012483484e-18 -0.9317528620148605 -0.36309310669157435
12638884000.0 -0.9355741444760008 -0.3531303161551277 1.1183266692136789e-16 7.659366594817042e-18 1.1183266692136789e-16 7.659366594817042e-18 -0.9355739078616359 -0.35313094303435094
12639501333.333334 -0.939288673107169 -0.34312794781596745 1.1188673677799834e-16 6.4545269919891904e-18 1.1188673677799834e-16 6.4545269919891904e-18 -0.9392884432060948 -0.34312857715336637
12640118666.666666 -0.9428962683288996 -0.33308651604539563 1.1192783445470663e-16 5.249410917941242e-18 1.1192783445470663e-16 5.249410917941242e-18 -0.9428960451666332 -0.3330871477690871
12640736000.0 -0.9463965194343338 -0.3230071640109554 1.1195596026271525e-16 4.044157951669217e-18 1.1195596026271525e-16 4.044157951669217e-18 -0.9463963030356229 -0.32300779804879154
12641353333.333334 -0.9497890279370561 -0.3128910391976811 1.1197111601414222e-16 2.838907633534223e-18 1.1197111601414222e-16 2.838907633534223e-18 -0.949788818325873 -0.31289167547725666
12641970666.666666 -0.953073407616726 -0.30273929327668236 1.1197330502120714e-16 1.6337994490571047e-18 1.1197330502120714e-16 1.6337994490571047e-18 -0.9530732048162708 -0.3027399317253449
12642588000.0 -0.9562492845628963 -0.2925530819744912 1.119625320952616e-16 4.28972812824494e-19 1.119625320952616e-16 4.28972812824494e-19 -0.9562490885955893 -0.292553722519348
12643205333.333334 -0.9593162972176149 -0.28233356494138007 1.1193880354564674e-16 -7.754329475938789e-19 1.1193880354564674e-16 -7.754329475938789e-19 -0.9593161081050995 -0.28233420750930754
12643822666.666666 -0.9622740964166469 -0.2720819056191512 1.1190212717837807e-16 -1.9792786077687743e-18 1.1190212717837807e-16 -1.9792786077687743e-18 -0.9622739141797816 -0.272082550136802
12644440000.0 -0.9651223454291322 -0.261799271108983 1.1185251229465832e-16 -3.1824250624404598e-18 1.1185251229465832e-16 -3.1824250624404598e-18 -0.9651221700879911 -0.261799917502795
12645057333.333334 -0.9678607199959611 -0.2514868320384256 1.1178996968921725e-16 -4.384733341581769e-18 1.1178996968921725e-16 -4.384733341581769e-18 -0.967860551569832 -0.2514874802346306
12645674666.666666 -0.9704889083666811 -0.24114576242818678 1.1171451164847982e-16 -5.586064626416978e-18 1.1171451164847982e-16 -5.586064626416978e-18 -0.9704887468740624 -0.24114641235281842
12646292000.0 -0.973006611335059 -0.23077723955817112 1.1162615194856057e-16 -6.7862802654582116e-18 1.1162615194856057e-16 -6.7862802654582116e-18 -0.9730064567936578 -0.2307778911370736
12646909333.333334 -0.9754135422730071 -0.22038244383400393 1.1152490585309104e-16 -7.985241790417811e-18 1.1152490585309104e-16 -7.985241790417811e-18 -0.9754133946997383 -0.22038309699284028
12647526666.666666 -0.9777094271633392 -0.20996255865215183 1.1141079011087036e-16 -9.182810932213935e-18 1.1141079011087036e-16 -9.182810932213935e-18 -0.9777092865743222 -0.20996321331641254
12648144000.0 -0.9798940046309093 -0.1995187702654189 1.1128382295334858e-16 -1.0378849636864315e-17 1.1128382295334858e-16 -1.0378849636864315e-17 -0.9798938710414655 -0.19951942636043013
12648761333.333334 -0.9819670259723593 -0.18905226764792524 1.111440240919391e-16 -1.1573220081371202e-17 1.111440240919391e-16 -1.1573220081371202e-17 -0.9819668993970156 -0.18905292509885815
12649378666.666666 -0.9839282551844631 -0.17856424235966697 1.1099141471515996e-16 -1.2765784689586046e-17 1.1099141471515996e-16 -1.2765784689586046e-17 -0.9839281356369428 -0.17856490109154513
12649996000.0 -0.9857774689909743 -0.1680558884108882 1.1082601748560556e-16 -1.39564061480267e-17 1.1082601748560556e-16 -1.39564061480267e-17 -0.9857773564842008 -0.16805654834859682
12650613333.333334 -0.987514456868053 -0.15752840212615007 1.1064785653674955e-16 -1.514494742166131e-17 1.1064785653674955e-16 -1.514494742166131e-17 -0.9875143514141471 -0.1575290631944445
12651230666.666666 -0.9891390210682279 -0.14698298200816334 1.1045695746957931e-16 -1.633127176965069e-17 1.1045695746957931e-16 -1.633127176965069e-17 -0.989138922678506 -0.14698364413167755
12651848000.0 -0.9906509766429225 -0.13642082860123148 1.1025334734905908e-16 -1.751524276106295e-17 1.1025334734905908e-16 -1.751524276106295e-17 -0.9906508853278967 -0.13642149170448675
12652465333.333334 -0.99205015146349 -0.12584314435474409 1.1003705470042842e-16 -1.8696724290533762e-17 1.1003705470042842e-16 -1.8696724290533762e-17 -0.9920500672328652 -0.1258438083621574
12653082666.666666 -0.993336386240819 -0.1152511334861992 1.0980810950533559e-16 -1.987558059386402e-17 1.0980810950533559e-16 -1.987558059386402e-17 -0.9933363091034916 -0.11525179832209197
12653700000.0 -0.9945095345434799 -0.10464600184399593 1.0956654319779302e-16 -2.1051676263634393e-17 1.0956654319779302e-16 -2.1051676263634393e-17 -0.9945094645075399 -0.10464666743260273
12654317333.333334 -0.9955694628143639 -0.09402895677046563 1.0931238865998076e-16 -2.222487626469775e-17 1.0931238865998076e-16 -2.222487626469775e-17 -0.9955693998870904 -0.0940296230359427
12654934666.666666 -0.9965160503859241 -0.08340120696405424 1.0904568021787497e-16 -2.3395045949666038e-17 1.0904568021787497e-16 -2.3395045949666038e-17 -0.9965159945737881 -0.08340187383048825
12655552000.0 -0.9973491894938961 -0.07276396234188753 1.087664536367075e-16 -2.4562051074361592e-17 1.087664536367075e-16 -2.4562051074361592e-17 -0.997349140802557 -0.07276462973330404
12656169333.333334 -0.9980687852895515 -0.062118433902197845 1.0847474611627792e-16 -2.572575781314168e-17 1.0847474611627792e-16 -2.572575781314168e-17 -0.9980687437238576 -0.062119101742570126
12656786666.666666 -0.9986747558505279 -0.05146583358608988 1.0817059628608091e-16 -2.68860327742583e-17 1.0817059628608091e-16 -2.68860327742583e-17 -0.9986747214145159 -0.05146650179934748
12657404000.0 -0.9991670321901295 -0.04080737413987859 1.078540442002803e-16 -2.804274301511528e-17 1.078540442002803e-16 -2.804274301511528e-17 -0.999167004887024 -0.04080804264991606
12658021333.333334 -0.9995455582651916 -0.030144268976882355 1.0752513133252223e-16 -2.9195756057461454e-17 1.0752513133252223e-16 -2.9195756057461454e-17 -0.9995455380974049 -0.030144937707567862
12658638666.666666 -0.9998102909824578 -0.019477732039338586 1.071839005705853e-16 -3.0344939902530554e-17 1.071839005705853e-16 -3.0344939902530554e-17 -0.9998102779515906 -0.019478400914522635
12659256000.0 -0.9999612002034911 -0.008808977660088748 1.0683039621085573e-16 -3.149016304616522e-17 1.0683039621085573e-16 -3.149016304616522e-17 -0.9999611943103305 -0.008809646603612793
12659873333.333334 -0.9999982687480994 0.0018607795754971008 1.0646466395266597e-16 -3.263129449379269e-17 1.0646466395266597e-16 -3.263129449379269e-17 -0.9999982699926191 0.0018601106397919537
12660490666.666666 -0.9999214923962889 0.01253032496788006 1.0608675089245792e-16 -3.376820377539056e-17 1.0608675089245792e-16 -3.376820377539056e-17 -0.9999215007776532 0.012529656116144386
12661108000.0 -0.9997308798887545 0.023198443841753666 1.0569670551777711e-16 -3.4900760960416147e-17 1.0569670551777711e-16 -3.4900760960416147e-17 -0.9997308954053125 0.02319777515012106
12661725333.333334 -0.999426452925878 0.033863921684016154 1.0529457770113932e-16 -3.602883667256795e-17 1.0529457770113932e-16 -3.602883667256795e-17 -0.9994264755751668 0.03386325322859453
12662342666.666666 -0.9990082461652544 0.04452554428243455 1.0488041869370691e-16 -3.7152302104579757e-17 1.0488041869370691e-16 -3.7152302104579757e-17 -0.9990082759440001 0.0445248761392975
12662960000.0 -0.9984763072177524 0.05518209786356422 1.0445428111882366e-16 -3.827102903289502e-17 1.0445428111882366e-16 -3.827102903289502e-17 -0.9984763441218714 0.0551814301087425
12663577333.333334 -0.9978306966420961 0.06583236923104493 1.0401621896539762e-16 -3.938488983225601e-17 1.0401621896539762e-16 -3.938488983225601e-17 -0.9978307406666915 0.06583170194051753
12664194666.666666 -0.997071487937959 0.07647514590380207 1.0356628758111381e-16 -4.0493757490259837e-17 1.0356628758111381e-16 -4.0493757490259837e-17 -0.9970715390773252 0.07647447915348779
12664812000.0 -0.9961987675376104 0.08710921625391169 1.0310454366550882e-16 -4.159750562179343e-17 1.0310454366550882e-16 -4.159750562179343e-17 -0.9961988257852313 0.08710855011966037
12665429333.333334 -0.9952126347960654 0.0977333696446516 1.0263104526287918e-16 -4.2696008483422755e-17 1.0263104526287918e-16 -4.2696008483422755e-17 -0.9952127001446184 0.09773270420223568
12666046666.666666 -0.9941132019797825 0.1083463965682701 1.0214585175504448e-16 -4.378914098768473e-17 1.0214585175504448e-16 -4.378914098768473e-17 -0.9941132744211356 0.10834573189337574
12666664000.0 -0.9929005942538645 0.11894708878382353 1.0164902385394887e-16 -4.4876778717317655e-17 1.0164902385394887e-16 -4.4876778717317655e-17 -0.9929006737790802 0.1189464249520423
12667281333.333334 -0.9915749496678448 0.1295342394544181 1.0114062359413293e-16 -4.595879793936276e-17 1.0114062359413293e-16 -4.595879793936276e-17 -0.9915750362671799 0.12953357654123818
12667898666.666666 -0.9901364191399291 0.14010664328496925 1.0062071432502422e-16 -4.7035075619250056e-17 1.0062071432502422e-16 -4.7035075619250056e-17 -0.9901365128028349 0.1401059813657667
12668516000.0 -0.9885851664398306 0.15066309665924887 1.0008936070310439e-16 -4.810548943474027e-17 1.0008936070310439e-16 -4.810548943474027e-17 -0.988585267154957 0.15066243580927957
12669133333.333334 -0.9869213681701557 0.1612023977767431 9.9546628683921e-17 -4.916991778979652e-17 9.9546628683921e-17 -4.916991778979652e-17 -0.986921475925349 0.16120173807113353
12669750666.666666 -0.9851452137462386 0.17172334678983614 9.899258551394623e-17 -5.022823982837766e-17 9.899258551394623e-17 -5.022823982837766e-17 -0.985145328528546 0.17172268830357534
