! Parameters = {f0=12700.012000; bw=77.238000; Q=6100.000000; N=10; m_0_1=1.317613; m_1_1=0.999443; m_1_2=1.152425; m_2_2=0.998794; m_2_3=0.789388; m_2_8=0.002944; m_2_9=0.039648; m_3_3=0.996857; m_3_4=0.677917; m_3_7=0.003544; m_3_8=-0.093544; m_3_9=0.002944; m_4_4=0.993932; m_4_5=0.514252; m_4_6=0.007061; m_4_7=-0.114093; m_4_8=0.003544; m_5_5=0.994314; m_5_6=0.921607; m_5_7=0.007061; m_6_6=0.994313; m_6_7=0.514594; m_7_7=0.993946; m_7_8=0.678035; m_8_8=0.996855; m_8_9=0.789701; m_9_9=0.998789; m_9_10=1.153503; m_10_10=0.999433; m_10_11=1.318408}
!
! Created with skrf (http://scikit-rf.org).
# Hz S RI R 50.0 
!freq ReS11 ImS11 ReS21 ImS21 ReS12 ImS12 ReS22 ImS22
12607400000.0 -0.9621998866229111 -0.27234422737166103 1.3772160983324095e-16 -1.677605936311469e-18 1.3772160983324095e-16 -1.677605936311469e-18 -0.9621996975867116 -0.2723448952410362
12608017333.333334 -0.9653805352364566 -0.26084559069760804 1.3766453839388484e-16 -3.332094394519235e-18 1.3766453839388484e-16 -3.332094394519235e-18 -0.9653803541904005 -0.2608462607418915
12608634666.666666 -0.9684237762457848 -0.24930982652447645 1.3758760233284782e-16 -4.985453659379956e-18 1.3758760233284782e-16 -4.985453659379956e-18 -0.9684236032148591 -0.2493104986480894
12609252000.0 -0.971329176490757 -0.23773857679728413 1.374908205413123e-16 -6.6374453610649846e-18 1.374908205413123e-16 -6.6374453610649846e-18 -0.9713290114988039 -0.2377392509043608
12609869333.333334 -0.9740963224308556 -0.22613348851175097 1.373742147692095e-16 -8.287831420594019e-18 1.373742147692095e-16 -8.287831420594019e-18 -0.9740961655005701 -0.22613416450615242
12610486666.666666 -0.9767248202039394 -0.21449621348031545 1.3723780962096115e-16 -9.936374084080853e-18 1.3723780962096115e-16 -9.936374084080853e-18 -0.9767246713568691 -0.2144968912656442
12611104000.0 -0.9792142956824701 -0.20282840809633326 1.370816325508044e-16 -1.1582835956981094e-17 1.370816325508044e-16 -1.1582835956981094e-17 -0.9792141549390098 -0.20282908757594614
12611721333.333334 -0.9815643945266052 -0.19113173309900633 1.369057138577175e-16 -1.3226980038177257e-17 1.369057138577175e-16 -1.3226980038177257e-17 -0.9815642619059911 -0.19113241417602794
12612338666.666666 -0.9837747822347191 -0.17940785333658407 1.367100866799273e-16 -1.4868569754083278e-17 1.367100866799273e-16 -1.4868569754083278e-17 -0.9837746577550331 -0.17940853591392186
12612956000.0 -0.985845144191014 -0.16765843752942564 1.3649478698900983e-16 -1.6507368992654272e-17 1.3649478698900983e-16 -1.6507368992654272e-17 -0.9858450278691768 -0.16765912150978285
12613573333.333334 -0.9877751857102505 -0.1558851580327332 1.3625985358359484e-16 -1.8143142137242878e-17 1.3625985358359484e-16 -1.8143142137242878e-17 -0.9877750775620185 -0.15588584331862262
12614190666.666666 -0.9895646320797421 -0.14408969059823729 1.3600532808264884e-16 -1.977565410048306e-17 1.3600532808264884e-16 -1.977565410048306e-17 -0.989564532119708 -0.14409037709199568
12614808000.0 -0.9912132285984309 -0.13227371413581826 1.3573125491836508e-16 -2.1404670358006915e-17 1.3573125491836508e-16 -2.1404670358006915e-17 -0.9912131368400219 -0.13227440173962016
12615425333.333334 -0.9927207406131477 -0.12043891047453918 1.3543768132864538e-16 -2.3029956982093963e-17 1.3543768132864538e-16 -2.3029956982093963e-17 -0.9927206570686194 -0.12043959909041031
12616042666.666666 -0.9940869535520168 -0.10858696412314865 1.3512465734918132e-16 -2.4651280675213398e-17 1.3512465734918132e-16 -2.4651280675213398e-17 -0.994086878232456 -0.10858765365298054
12616660000.0 -0.9953116729549801 -0.0967195620304857 1.3479223580513203e-16 -2.626840880348166e-17 1.3479223580513203e-16 -2.626840880348166e-17 -0.995311605870304 -0.09672025237604957
12617277333.333334 -0.9963947245014949 -0.0848383933452267 1.3444047230240652e-16 -2.7881109429976086e-17 1.3444047230240652e-16 -2.7881109429976086e-17 -0.9963946656604452 -0.08483908440818702
12617894666.666666 -0.9973359540353268 -0.07294514917562958 1.3406942521854865e-16 -2.948915134795093e-17 1.3406942521854865e-16 -2.948915134795093e-17 -0.9973359034454711 -0.07294584085755836
12618512000.0 -0.9981352275865161 -0.061041522348517965 1.33679155693213e-16 -3.10923041139762e-17 1.33679155693213e-16 -3.10923041139762e-17 -0.9981351852542474 -0.061042214550908795
12619129333.333334 -0.9987924313904176 -0.04912920716872931 1.3326972761826836e-16 -3.2690338080862525e-17 1.3326972761826836e-16 -3.2690338080862525e-17 -0.998792397320954 -0.04912989979301139
12619746666.666666 -0.9993074719039166 -0.03720989917767235 1.328412076274852e-16 -3.428302443054891e-17 1.328412076274852e-16 -3.428302443054891e-17 -0.9993074461012987 -0.03721059212522445
12620364000.0 -0.9996802758187359 -0.025285294911991565 1.3239366508584106e-16 -3.587013520682028e-17 1.3239366508584106e-16 -3.587013520682028e-17 -0.999680258285827 -0.025285988084156042
12620981333.333334 -0.9999107900718616 -0.013357091662345975 1.3192717207844412e-16 -3.7451443347853646e-17 1.3192717207844412e-16 -3.7451443347853646e-17 -0.9999107808103483 -0.013357784960442919
12621598666.666666 -0.9999989818531079 -0.001426987231541066 1.314418033990514e-16 -3.9026722718690456e-17 1.314418033990514e-16 -3.9026722718690456e-17 -0.9999989808634994 -0.0014276805568822905
12622216000.0 -0.9999448386097808 0.010503320306957858 1.309376365382087e-16 -4.05957481435244e-17 1.309376365382087e-16 -4.05957481435244e-17 -0.9999448458914093 0.010502627053054771
12622833333.333334 -0.9997483680484651 0.022432132850920175 1.3041475167101086e-16 -4.2158295437827284e-17 1.3041475167101086e-16 -4.2158295437827284e-17 -0.9997483835994855 0.02243143976711783
12623450666.666666 -0.999409598133933 0.03435775251062336 1.298732316444746e-16 -4.371414144033413e-17 1.298732316444746e-16 -4.371414144033413e-17 -0.9994096219513231 0.0343570596955505
12624068000.0 -0.9989285770851555 0.04627848185106236 1.293131619645249e-16 -4.5263064044882626e-17 1.293131619645249e-16 -4.5263064044882626e-17 -0.9989286091647164 0.04627778940329981
12624685333.333334 -0.9983053733684372 0.05819262413326983 1.287346307826064e-16 -4.680484223207674e-17 1.287346307826064e-16 -4.680484223207674e-17 -0.9983054137047965 0.05819193215133659
12625302666.666666 -0.9975400756876908 0.07009848355568034 1.2813772888193426e-16 -4.833925610073714e-17 1.2813772888193426e-16 -4.833925610073714e-17 -0.9975401242742998 0.07009779213801941
12625920000.0 -0.9966327929717825 0.08199436549589961 1.275225496633281e-16 -4.9866086899290943e-17 1.275225496633281e-16 -4.9866086899290943e-17 -0.9966328498009183 0.08199367474086396
12626537333.333334 -0.9955836543590505 0.09387857675151152 1.2688918913073477e-16 -5.1385117056823237e-17 1.2688918913073477e-16 -5.1385117056823237e-17 -0.9955837194218196 0.0938778867573504
12627154666.666666 -0.9943928091789214 0.10574942578125124 1.2623774587632644e-16 -5.2896130214087754e-17 1.2623774587632644e-16 -5.2896130214087754e-17 -0.9943928824652585 0.10574873664609584
12627772000.0 -0.9930604269306316 0.11760522294594009 1.2556832106524293e-16 -5.4398911254293165e-17 1.2556832106524293e-16 -5.4398911254293165e-17 -0.9930605084293012 0.11760453476778972
12628389333.333334 -0.9915866972591446 0.12944428074855652 1.248810184200069e-16 -5.589324633361305e-17 1.248810184200069e-16 -5.589324633361305e-17 -0.9915867869577467 0.12944359362526509
12629006666.666666 -0.9899718299281064 0.14126491407496383 1.2417594420451603e-16 -5.737892291163519e-17 1.2417594420451603e-16 -5.737892291163519e-17 -0.9899719278130711 0.141264228104225
12629624000.0 -0.988216054790032 0.1530654404332798 1.2345320720772452e-16 -5.885572978150095e-17 1.2345320720772452e-16 -5.885572978150095e-17 -0.9882161608466279 0.1530647557126141
12630241333.333334 -0.9863196217535659 0.16484418019363808 1.2271291872693602e-16 -6.03234570999036e-17 1.2271291872693602e-16 -6.03234570999036e-17 -0.986319735965899 0.16484349682037822
12630858666.666666 -0.9842828007479344 0.17659945682706066 1.21955192550764e-16 -6.178189641683293e-17 1.21955192550764e-16 -6.178189641683293e-17 -0.9842829230989518 0.17659877489833825
12631476000.0 -0.9821058816844752 0.18832959714439576 1.211801449417001e-16 -6.323084070518314e-17 1.211801449417001e-16 -6.323084070518314e-17 -0.9821060121559675 0.18832891675712735
12632093333.333334 -0.9797891744154367 0.20003293153410753 1.203878946183901e-16 -6.467008439002957e-17 1.203878946183901e-16 -6.467008439002957e-17 -0.9797893129880404 0.20003225278498074
12632710666.666666 -0.9773330086898444 0.2117077942000882 1.1957856273752267e-16 -6.609942337776421e-17 1.1957856273752267e-16 -6.609942337776421e-17 -0.9773331553430464 0.21170711718554835
12633328000.0 -0.9747377341065421 0.22335252339889958 1.187522728753547e-16 -6.751865508503576e-17 1.187522728753547e-16 -6.751865508503576e-17 -0.9747378888186782 0.22335184821513507
12633945333.333334 -0.9720037200644731 0.23496546167604487 1.179091510089562e-16 -6.89275784673482e-17 1.179091510089562e-16 -6.89275784673482e-17 -0.9720038828127371 0.23496478841897475
12634562666.666666 -0.9691313557100824 0.24654495610202418 1.170493254970623e-16 -7.032599404752483e-17 1.170493254970623e-16 -7.032599404752483e-17 -0.9691315264705253 0.2465442848672837
12635180000.0 -0.9661210498819354 0.25808935850754766 1.161729270606106e-16 -7.17137039438937e-17 1.161729270606106e-16 -7.17137039438937e-17 -0.9661212286294704 0.2580886893904749
12635797333.333334 -0.962973231052484 0.26959702571829364 1.1528008876294004e-16 -7.309051189824226e-17 1.1528008876294004e-16 -7.309051189824226e-17 -0.9629734177608896 0.2695963588139158
12636414666.666666 -0.9596883472671885 0.28106631978837787 1.1437094598966895e-16 -7.445622330350988e-17 1.1437094598966895e-16 -7.445622330350988e-17 -0.9596885419091137 0.28106565519139826
12637032000.0 -0.9562668660805984 0.2924956082340395 1.1344563642822756e-16 -7.581064523126081e-17 1.1344563642822756e-16 -7.581064523126081e-17 -0.956267068627565 0.2924949460388235
12637649333.333334 -0.9527092744899149 0.30388326426559004 1.1250430004707551e-16 -7.715358645888737e-17 1.1250430004707551e-16 -7.715358645888737e-17 -0.9527094849123224 0.30388260456615224
12638266666.666666 -0.9490160788656269 0.3152276670191268 1.115470790746103e-16 -7.848485749654058e-17 1.115470790746103e-16 -7.848485749654058e-17 -0.9490162971327563 0.315227009909117
12638884000.0 -0.9451878048794452 0.3265272017872111 1.105741179777373e-16 -7.98042706138287e-17 1.105741179777373e-16 -7.98042706138287e-17 -0.945188030959466 0.326526547359902
12639501333.333334 -0.9412249974294742 0.33778026024872604 1.0958556344013375e-16 -8.111163986623854e-17 1.0958556344013375e-16 -8.111163986623854e-17 -0.9412252312894449 0.33777960859699885
12640118666.666666 -0.9371282205627166 0.3489852406976083 1.0858156434021807e-16 -8.240678112126716e-17 1.0858156434021807e-16 -8.240678112126716e-17 -0.9371284621685926 0.34898459191394043
12640736000.0 -0.9328980573945873 0.36014054827138875 1.0756227172874419e-16 -8.368951208436757e-17 1.0756227172874419e-16 -8.368951208436757e-17 -0.9328983067112249 0.3601399024478403
12641353333.333334 -0.92853511002625 0.3712445951772908 1.065278388062217e-16 -8.495965232445047e-17 1.065278388062217e-16 -8.495965232445047e-17 -0.9285353670174119 0.3712439524054919
12641970666.666666 -0.9240399994586107 0.38229580091905524 1.0547842089988254e-16 -8.621702329930302e-17 1.0547842089988254e-16 -8.621702329930302e-17 -0.9240402640869699 0.3822951612901922
12642588000.0 -0.9194133655040743 0.39329259252150034 1.0441417544044656e-16 -8.746144838059899e-17 1.0441417544044656e-16 -8.746144838059899e-17 -0.9194136377312208 0.3932919561263034
12643205333.333334 -0.9146558666954716 0.40423340475444 1.033352619385767e-16 -8.869275287864515e-17 1.033352619385767e-16 -8.869275287864515e-17 -0.9146561464819181 0.4042327716831705
12643822666.666666 -0.9097681801922358 0.41511668035567906 1.022418419610132e-16 -8.991076406687367e-17 1.022418419610132e-16 -8.991076406687367e-17 -0.9097684674974227 0.4151160506981164
12644440000.0 -0.9047510016841411 0.42594087025237914 1.0113407910645499e-16 -9.111531120599961e-17 1.0113407910645499e-16 -9.111531120599961e-17 -0.9047512964664434 0.42594024409780845
12645057333.333334 -0.8996050452922294 0.4367044337816783 1.0001213898114002e-16 -9.23062255679036e-17 1.0001213898114002e-16 -9.23062255679036e-17 -0.8996053475089612 0.4367038112188769
12645674666.666666 -0.894331043467177 0.44740583890995544 9.887618917415001e-17 -9.348334045920809e-17 9.887618917415001e-17 -9.348334045920809e-17 -0.8943313530745978 0.44740522002718086
12646292000.0 -0.8889297468849511 0.45804356245107036 9.772639923240401e-17 -9.464649124458771e-17 9.772639923240401e-17 -9.464649124458771e-17 -0.8889300638382736 0.45804294733604756
12646909333.333334 -0.8834019243401273 0.46861609028283546 9.656294063547526e-17 -9.57955153696723e-17 9.656294063547526e-17 -9.57955153696723e-17 -0.8834022485935237 0.4686154790227453
12647526666.666666 -0.8777483626363379 0.4791219175627844 9.538598677001009e-17 -9.693025238377455e-17 9.538598677001009e-17 -9.693025238377455e-17 -0.8777486941429444 0.47912131024424975
12648144000.0 -0.8719698664743023 0.48955954894231035 9.41957129039781e-17 -9.805054396220467e-17 9.41957129039781e-17 -9.805054396220467e-17 -0.871970205186229 0.48955894565138564
12648761333.333334 -0.8660672583372788 0.49992749877953324 9.299229616062618e-17 -9.915623392830587e-17 9.299229616062618e-17 -9.915623392830587e-17 -0.8660676042056142 0.4999268996016904
12649378666.666666 -0.8600413783741493 0.5102242913504852 9.177591549218038e-17 -1.0024716827516594e-16 9.177591549218038e-17 -1.0024716827516594e-16 -0.8600417313489677 0.5102236963706026
12649996000.0 -0.8538930842795688 0.5204484610596285 9.054675165327645e-17 -1.0132319518702217e-16 9.054675165327645e-17 -1.0132319518702217e-16 -0.8538934443099392 0.5204478703619796
12650613333.333334 -0.84762325117207 0.5305985526481405 8.930498717416335e-17 -1.0238416506032051e-16 8.930498717416335e-17 -1.0238416506032051e-16 -0.8476236182060605 0.5305979663163795
12651230666.666666 -0.8412327714695641 0.5406731214009514 8.805080633366731e-17 -1.0342993052444318e-16 8.805080633366731e-17 -1.0342993052444318e-16 -0.8412331454542522 0.5406725395181039
12651848000.0 -0.8347225547620348 0.5506707333528388 8.678439513185785e-17 -1.0446034646215275e-16 8.678439513185785e-17 -1.0446034646215275e-16 -0.8347229356435141 0.5506701560012897
12652465333.333334 -0.8280935276823561 0.5605899654920724 8.550594126256133e-17 -1.0547527002963036e-16 8.550594126256133e-17 -1.0547527002963036e-16 -0.8280939154057433 0.5605893927535525
12653082666.666666 -0.8213466337743275 0.5704294059630797 8.421563408558498e-17 -1.0647456067622614e-16 8.421563408558498e-17 -1.0647456067622614e-16 -0.8213470282837713 0.5704288379186561
12653700000.0 -0.8144828333582319 0.580187654267616 8.291366459869557e-17 -1.0745808016388139e-16 8.291366459869557e-17 -1.0745808016388139e-16 -0.8144832345969206 0.5801870909976796
12654317333.333334 -0.8075031033943688 0.589863321463774 8.160022540944227e-17 -1.0842569258615518e-16 8.160022540944227e-17 -1.0842569258615518e-16 -0.807503511304538 0.5898627630480279
12654934666.666666 -0.8004084373438587 0.5994550303638914 8.027551070668793e-17 -1.0937726438696067e-16 8.027551070668793e-17 -1.0937726438696067e-16 -0.8004088518668007 0.5994544768813406
12655552000.0 -0.7931998450271479 0.6089614157306851 7.893971623193527e-17 -1.1031266437894545e-16 7.893971623193527e-17 -1.1031266437894545e-16 -0.7932002661032193 0.6089608672596246
12656169333.333334 -0.7858783524806167 0.6183811244711166 7.759303925051779e-17 -1.112317637614655e-16 7.759303925051779e-17 -1.112317637614655e-16 -0.7858787800492474 0.6183805810891208
12656786666.666666 -0.7784450018101297 0.6277128158295311 7.623567852244487e-17 -1.121344361383078e-16 7.623567852244487e-17 -1.121344361383078e-16 -0.778445435809831 0.6277122776134416
12657404000.0 -0.7709008510429797 0.63695516157813 7.486783427316717e-17 -1.1302055753496787e-16 7.486783427316717e-17 -1.1302055753496787e-16 -0.7709012914113539 0.6369546286040463
12658021333.333334 -0.763246973977173 0.6461068462061825 7.348970816406983e-17 -1.138900064156229e-16 7.348970816406983e-17 -1.138900064156229e-16 -0.7632474206509227 0.6461063185494512
12658638666.666666 -0.7554844600287006 0.65516656710714 7.21015032628118e-17 -1.1474266369971873e-16 7.21015032628118e-17 -1.1474266369971873e-16 -0.755484912943636 0.6551660448423424
12659256000.0 -0.7476144140762884 0.6641330347642556 7.070342401342058e-17 -1.1557841277822684e-16 7.070342401342058e-17 -1.1557841277822684e-16 -0.7476148731673389 0.6641325179651993
12659873333.333334 -0.7396379563043021 0.6730049729339344 6.929567620626306e-17 -1.163971395295018e-16 6.929567620626306e-17 -1.163971395295018e-16 -0.7396384215055238 0.6730044616736419
12660490666.666666 -0.731556222043309 0.6817811188273926 6.787846694780721e-17 -1.1719873233478873e-16 6.787846694780721e-17 -1.1719873233478873e-16 -0.7315566932878945 0.6817806131780901
12661108000.0 -0.7233703616082862 0.6904602232906025 6.645200463015534e-17 -1.1798308209339174e-16 6.645200463015534e-17 -1.1798308209339174e-16 -0.7233708388285748 0.690459723323711
12661725333.333334 -0.7150815401351603 0.6990410509817997 6.501649890051738e-17 -1.1875008223740868e-16 6.501649890051738e-17 -1.1875008223740868e-16 -0.7150820232626477 0.6990405567679245
12662342666.666666 -0.7066909374147764 0.7075223805475248 6.357216063039738e-17 -1.1949962874616016e-16 6.357216063039738e-17 -1.1949962874616016e-16 -0.7066914263801238 0.7075218921564459
12662960000.0 -0.6981997477249879 0.7159030047964425 6.211920188468611e-17 -1.2023162016020593e-16 6.211920188468611e-17 -1.2023162016020593e-16 -0.6982002424580329 0.7159025222971042
12663577333.333334 -0.6896091796607697 0.7241817308710656 6.065783589056962e-17 -1.2094595759499942e-16 6.065783589056962e-17 -1.2094595759499942e-16 -0.6896096800905355 0.7241812543315665
12664194666.666666 -0.6809204559621125 0.7323573804176216 5.918827700628554e-17 -1.2164254475416257e-16 5.918827700628554e-17 -1.2164254475416257e-16 -0.6809209620168184 0.732356909905206
12664812000.0 -0.6721348133400041 0.7404287897537543 5.771074068972824e-17 -1.2232128794238252e-16 5.771074068972824e-17 -1.2232128794238252e-16 -0.6721353249470766 0.7404283253348023
12665429333.333334 -0.6632535023003816 0.748394810034176 5.622544346690372e-17 -1.229820960779282e-16 5.622544346690372e-17 -1.229820960779282e-16 -0.6632540193864624 0.7483943517741929
12666046666.666666 -0.6542777869662434 0.7562543074140917 5.4732602900267885e-17 -1.236248807047759e-16 5.4732602900267885e-17 -1.236248807047759e-16 -0.6542783094572029 0.7562538553777007
12666664000.0 -0.6452089448974894 0.7640061632107946 5.32324375568528e-17 -1.24249556004381e-16 5.32324375568528e-17 -1.24249556004381e-16 -0.6452094727184364 0.7640057174617277
12667281333.333334 -0.636048266909378 0.7716492740626325 5.1725166976384015e-17 -1.2485603880701208e-16 5.1725166976384015e-17 -1.2485603880701208e-16 -0.6360487999846686 0.7716488346637187
12667898666.666666 -0.6267970568886042 0.7791825520862211 5.0211011639150036e-17 -1.254442486027497e-16 5.0211011639150036e-17 -1.254442486027497e-16 -0.6267975951418542 0.7791821190993801
12668516000.0 -0.617456631607596 0.7866049250313736 4.8690192933801026e-17 -1.260141075520733e-16 4.8690192933801026e-17 -1.260141075520733e-16 -0.617457174961693 0.7866044985176076
12669133333.333334 -0.6080283205375402 0.7939153364333695 4.716293312505817e-17 -1.2656554049604877e-16 4.716293312505817e-17 -1.2656554049604877e-16 -0.6080288689146522 0.7939149164527525
12669750666.666666 -0.5985134656586132 0.801112745763746 4.5629455321240684e-17 -1.2709847496615034e-16 4.5629455321240684e-17 -1.2709847496615034e-16 -0.5985140189802013 0.8011123323754163
