! Parameters = {f0=12700.012000; bw=77.238000; Q=6100.000000; N=10; m_0_1=1.233128; m_1_1=-0.267824; m_1_2=1.067940; m_2_2=-0.268473; m_2_3=0.704903; m_2_8=-0.001280; m_2_9=0.035424; m_3_3=-0.270410; m_3_4=0.593432; m_3_7=-0.000680; m_3_8=-0.097768; m_3_9=-0.001280; m_4_4=-0.273335; m_4_5=0.429767; m_4_6=0.002837; m_4_7=-0.118317; m_4_8=-0.000680; m_5_5=-0.272953; m_5_6=0.837122; m_5_7=0.002837; m_6_6=-0.272954; m_6_7=0.430109; m_7_7=-0.273321; m_7_8=0.593550; m_8_8=-0.270412; m_8_9=0.705216; m_9_9=-0.268478; m_9_10=1.069018; m_10_10=-0.267834; m_10_11=1.233923}
!
! Created with skrf (http://scikit-rf.org).
# Hz S RI R 50.0 
!freq ReS11 ImS11 ReS21 ImS21 ReS12 ImS12 ReS22 ImS22
12607400000.0 -0.4971059277565013 -0.8676898619836361 6.699443974693393e-17 6.399797537817051e-17 6.699443974693393e-17 6.399797537817051e-17 -0.4971053639742135 -0.8676901849784275
12608017333.333334 -0.5052685372242475 -0.8629621690961331 6.758751759801178e-17 6.334478092739195e-17 6.758751759801178e-17 6.334478092739195e-17 -0.5052679765412356 -0.862962497378512
12608634666.666666 -0.5133861882626499 -0.8581576904631106 6.817423492234125e-17 6.268609874707449e-17 6.817423492234125e-17 6.268609874707449e-17 -0.5133856307284977 -0.8581580240033506
12609252000.0 -0.5214581585690299 -0.8532768535836595 6.875454102398947e-17 6.20219906975503e-17 6.875454102398947e-17 6.20219906975503e-17 -0.5214576042330351 -0.853277192351569
12609869333.333334 -0.5294837299053943 -0.848320092751141 6.932838580794977e-17 6.135251910668322e-17 6.932838580794977e-17 6.135251910668322e-17 -0.5294831788165661 -0.8483204367160664
12610486666.666666 -0.5374621881622031 -0.8432878490146353 6.989571978443516e-17 6.067774676404962e-17 6.989571978443516e-17 6.067774676404962e-17 -0.5374616403692566 -0.843288198145463
12611104000.0 -0.5453928234221719 -0.8381805701395283 7.045649407315124e-17 5.999773691503801e-17 7.045649407315124e-17 5.999773691503801e-17 -0.5453922789735243 -0.8381809244046894
12611721333.333334 -0.5532749300231057 -0.8329987105678867 7.1010660407453e-17 5.93125532549799e-17 7.1010660407453e-17 5.93125532549799e-17 -0.5532743889668712 -0.8329990699353566
12612338666.666666 -0.5611078066209264 -0.8277427313778644 7.15581711385016e-17 5.862225992317354e-17 7.15581711385016e-17 5.862225992317354e-17 -0.5611072690049137 -0.8277430958151694
12612956000.0 -0.5688907562520774 -0.822413100242678 7.209897923933842e-17 5.792692149690024e-17 7.209897923933842e-17 5.792692149690024e-17 -0.5688902221237846 -0.8224134697168968
12613573333.333334 -0.5766230863953045 -0.8170102913891522 7.263303830888804e-17 5.722660298541972e-17 7.263303830888804e-17 5.722660298541972e-17 -0.5766225558019136 -0.8170106658669171
12614190666.666666 -0.5843041090336022 -0.8115347855552975 7.316030257593405e-17 5.652136982388963e-17 7.316030257593405e-17 5.652136982388963e-17 -0.5843035820219769 -0.8115351650027995
12614808000.0 -0.5919331407151773 -0.8059870699477127 7.36807269030104e-17 5.581128786728196e-17 7.36807269030104e-17 5.581128786728196e-17 -0.5919326173318579 -0.8059874543307046
12615425333.333334 -0.5995095026143797 -0.8003676381981552 7.41942667902512e-17 5.509642338424081e-17 7.41942667902512e-17 5.509642338424081e-17 -0.5995089829055787 -0.8003680274819528
12616042666.666666 -0.6070325205920772 -0.7946769903196292 7.470087837916387e-17 5.437684305092819e-17 7.470087837916387e-17 5.437684305092819e-17 -0.6070320046036761 -0.7946773844691168
12616660000.0 -0.6145015252556421 -0.7889156326618985 7.520051845635855e-17 5.365261394481417e-17 7.520051845635855e-17 5.365261394481417e-17 -0.6145010130331872 -0.7889160316415305
12617277333.333334 -0.6219158520185363 -0.7830840778664142 7.569314445721148e-17 5.292380353844193e-17 7.569314445721148e-17 5.292380353844193e-17 -0.6219153436072339 -0.7830844816402188
12617894666.666666 -0.6292748411593327 -0.7771828448207868 7.617871446946031e-17 5.219047969316966e-17 7.617871446946031e-17 5.219047969316966e-17 -0.6292743366040455 -0.7771832533523687
12618512000.0 -0.6365778378806618 -0.7712124586124222 7.665718723676291e-17 5.145271065284546e-17 7.665718723676291e-17 5.145271065284546e-17 -0.6365773372259051 -0.7712128718649668
12619129333.333334 -0.6438241923671639 -0.7651734504820474 7.712852216215854e-17 5.071056503750432e-17 7.712852216215854e-17 5.071056503750432e-17 -0.6438236956571027 -0.7651738684183248
12619746666.666666 -0.6510132598435129 -0.7590663577762863 7.759267931150174e-17 4.996411183698339e-17 7.759267931150174e-17 4.996411183698339e-17 -0.6510127671219551 -0.759066780358651
12620364000.0 -0.6581444006318655 -0.7528917238997623 7.804961941682663e-17 4.921342040451661e-17 7.804961941682663e-17 4.921342040451661e-17 -0.6581439119422612 -0.7528921510901616
12620981333.333334 -0.6652169802084624 -0.7466500982670321 7.849930387962384e-17 4.845856045034176e-17 7.849930387962384e-17 4.845856045034176e-17 -0.665216495593898 -0.746650530027005
12621598666.666666 -0.6722303692603848 -0.7403420362534342 7.894169477409526e-17 4.7699602035212684e-17 7.894169477409526e-17 4.7699602035212684e-17 -0.6722298887635799 -0.7403424725441181
12622216000.0 -0.6791839437414239 -0.7339680991457871 7.937675485031946e-17 4.6936615563927206e-17 7.937675485031946e-17 4.6936615563927206e-17 -0.6791834674047287 -0.7339685399279207
12622833333.333334 -0.68607708492765 -0.7275288540924076 7.980444753736488e-17 4.616967177880815e-17 7.980444753736488e-17 4.616967177880815e-17 -0.686076612793039 -0.7275292993263321
12623450666.666666 -0.6929091794723821 -0.7210248740527231 8.022473694633336e-17 4.539884175317048e-17 8.022473694633336e-17 4.539884175317048e-17 -0.6929087115814522 -0.7210253236983885
12624068000.0 -0.699679619460866 -0.7144567377461921 8.063758787334995e-17 4.462419688474212e-17 8.063758787334995e-17 4.462419688474212e-17 -0.6996791558548335 -0.7144571917631604
12624685333.333334 -0.7063878024643894 -0.7078250296007933 8.104296580249152e-17 4.384580888905616e-17 8.104296580249152e-17 4.384580888905616e-17 -0.7063873431840841 -0.7078254879482403
12625302666.666666 -0.7130331315936587 -0.701130339701239 8.144083690862514e-17 4.306374979286484e-17 8.144083690862514e-17 4.306374979286484e-17 -0.7130326766795215 -0.7011308023379592
12625920000.0 -0.7196150155522926 -0.6943732637360887 8.183116806022607e-17 4.227809192744716e-17 8.183116806022607e-17 4.227809192744716e-17 -0.7196145650443732 -0.6943737306205005
12626537333.333334 -0.7261328686890374 -0.6875544029451511 8.221392682209084e-17 4.1488907921970625e-17 8.221392682209084e-17 4.1488907921970625e-17 -0.7261324226269885 -0.6875548740352977
12627154666.666666 -0.7325861110500763 -0.6806743640657835 8.258908145801116e-17 4.069627069677944e-17 8.258908145801116e-17 4.069627069677944e-17 -0.7325856694731518 -0.6806748393193389
12627772000.0 -0.7389741684307306 -0.6737337592788003 8.295660093338278e-17 3.990025345665884e-17 8.295660093338278e-17 3.990025345665884e-17 -0.7389737313777809 -0.6737342386530711
12628389333.333334 -0.7452964724262784 -0.666733206154291 8.331645491772669e-17 3.910092968412601e-17 8.331645491772669e-17 3.910092968412601e-17 -0.7452960399357478 -0.666733689606222
12629006666.666666 -0.7515524604828214 -0.659673327596357 8.366861378718295e-17 3.8298373132617806e-17 8.366861378718295e-17 3.8298373132617806e-17 -0.7515520325927453 -0.6596738150825353
12629624000.0 -0.7577415759471309 -0.6525547517879187 8.401304862690007e-17 3.749265781974212e-17 8.401304862690007e-17 3.749265781974212e-17 -0.7577411526951304 -0.6525552432645751
12630241333.333334 -0.7638632681162896 -0.6453781121346894 8.434973123338866e-17 3.6683858020443735e-17 8.434973123338866e-17 3.6683858020443735e-17 -0.76386284953957 -0.6453786075577048
12630858666.666666 -0.7699169922865828 -0.6381440472089478 8.467863411679199e-17 3.587204826019027e-17 8.467863411679199e-17 3.587204826019027e-17 -0.7699165784219304 -0.6381445465338563
12631476000.0 -0.7759022098021512 -0.6308532006925012 8.499973050310839e-17 3.5057303308094525e-17 8.499973050310839e-17 3.5057303308094525e-17 -0.7759018006859287 -0.6308537038744939
12632093333.333334 -0.7818183881027512 -0.6235062213196038 8.531299433632504e-17 3.423969817007552e-17 8.531299433632504e-17 3.423969817007552e-17 -0.7818179837708955 -0.6235067283135332
12632710666.666666 -0.7876650007711464 -0.6161037628192373 8.56184002805041e-17 3.341930808195496e-17 8.56184002805041e-17 3.341930808195496e-17 -0.787664601259166 -0.6161042735796216
12633328000.0 -0.793441527580109 -0.6086464838567431 8.59159237218006e-17 3.2596208502540023e-17 8.59159237218006e-17 3.2596208502540023e-17 -0.7934411329230783 -0.6086469983377685
12633945333.333334 -0.7991474545385268 -0.6011350479754337 8.620554077040594e-17 3.177047510671085e-17 8.620554077040594e-17 3.177047510671085e-17 -0.7991470647710864 -0.6011355661309609
12634562666.666666 -0.8047822739372307 -0.593570123537442 8.64872282624286e-17 3.0942183778481304e-17 8.64872282624286e-17 3.0942183778481304e-17 -0.8047818890935823 -0.5935706453210091
12635180000.0 -0.8103454843941504 -0.5859523836642732 8.676096376171218e-17 3.011141060403372e-17 8.676096376171218e-17 3.011141060403372e-17 -0.8103451045080541 -0.5859529090290997
12635797333.333334 -0.815836590898945 -0.578282506176887 8.702672556158391e-17 2.927823186474541e-17 8.702672556158391e-17 2.927823186474541e-17 -0.8158362160037169 -0.5782830350758793
12636414666.666666 -0.8212551048569808 -0.5705611735354789 8.728449268653318e-17 2.844272403021018e-17 8.728449268653318e-17 2.844272403021018e-17 -0.8212547349854894 -0.5705617059212326
12637032000.0 -0.8266005441329075 -0.5627890727786166 8.75342448938312e-17 2.7604963751220585e-17 8.75342448938312e-17 2.7604963751220585e-17 -0.8266001793175713 -0.5627896086034221
12637649333.333334 -0.8318724330934736 -0.5549668954622228 8.777596267507512e-17 2.676502785276395e-17 8.777596267507512e-17 2.676502785276395e-17 -0.8318720733662581 -0.554967434678069
12638266666.666666 -0.8370703026499312 -0.5470953375979253 8.800962725767252e-17 2.5922993326980465e-17 8.800962725767252e-17 2.5922993326980465e-17 -0.8370699480423451 -0.5470958801565038
12638884000.0 -0.842193690299675 -0.5391750995912653 8.823522060625021e-17 2.5078937326136144e-17 8.823522060625021e-17 2.5078937326136144e-17 -0.84219334084277 -0.5391756454439758
12639501333.333334 -0.8472421401674788 -0.53120688617926 8.845272542400444e-17 2.4232937155556833e-17 8.845272542400444e-17 2.4232937155556833e-17 -0.8472417958918448 -0.5312074352772138
12640118666.666666 -0.8522152030459511 -0.5231914063678633 8.866212515397481e-17 2.338507026658102e-17 8.866212515397481e-17 2.338507026658102e-17 -0.8522148639817142 -0.5231919586618874
12640736000.0 -0.8571124364357446 -0.5151293733684915 8.886340398026565e-17 2.2535414249444197e-17 8.886340398026565e-17 2.2535414249444197e-17 -0.8571121026125642 -0.5151299288091337
12641353333.333334 -0.861933404584573 -0.5070215045351444 8.905654682917472e-17 2.168404682625456e-17 8.905654682917472e-17 2.168404682625456e-17 -0.861933076031638 -0.5070220630726762
12641970666.666666 -0.8666776785262919 -0.4988685213000642 8.924153937028136e-17 2.083104584384812e-17 8.924153937028136e-17 2.083104584384812e-17 -0.8666773552723206 -0.49886908288448745
12642588000.0 -0.8713448361189238 -0.4906711491097886 8.941836801745118e-17 1.99764892667012e-17 8.941836801745118e-17 1.99764892667012e-17 -0.871344518192161 -0.4906717136908393
12643205333.333334 -0.8759344620822217 -0.48243011736060104 8.958701992977315e-17 1.9120455169832467e-17 8.958701992977315e-17 1.9120455169832467e-17 -0.875934149510434 -0.48243068488775265
12643822666.666666 -0.8804461480347289 -0.4741461593334303 8.974748301243681e-17 1.8263021731664733e-17 8.974748301243681e-17 1.8263021731664733e-17 -0.8804458408452054 -0.4741467297558998
12644440000.0 -0.884879492529965 -0.4658200121288771 8.989974591753357e-17 1.7404267226915798e-17 8.989974591753357e-17 1.7404267226915798e-17 -0.8848791907495108 -0.4658205853956278
12645057333.333334 -0.8892341010922149 -0.4574524166015029 9.004379804479371e-17 1.654427001946552e-17 9.004379804479371e-17 1.654427001946552e-17 -0.8892338047471543 -0.4574529926612515
12645674666.666666 -0.8935095862516214 -0.4490441172939376 9.017962954225515e-17 1.568310855522014e-17 9.017962954225515e-17 1.568310855522014e-17 -0.8935092953677898 -0.44904469609515585
12646292000.0 -0.8977055675787439 -0.4405958623704486 9.030723130686679e-17 1.4820861354953982e-17 9.030723130686679e-17 1.4820861354953982e-17 -0.8977052821814901 -0.44059644386137053
12646909333.333334 -0.901821671718249 -0.43210840355070335 9.042659498501509e-17 1.3957607007201075e-17 9.042659498501509e-17 1.3957607007201075e-17 -0.9018213918324299 -0.43210898767932776
12647526666.666666 -0.9058575324222534 -0.42358249604262477 9.053771297299402e-17 1.3093424161071501e-17 9.053771297299402e-17 1.3093424161071501e-17 -0.9058572580722345 -0.42358308275672185
12648144000.0 -0.909812790582903 -0.41501889847522105 9.064057841739837e-17 1.2228391519119028e-17 9.064057841739837e-17 1.2228391519119028e-17 -0.9098125217925532 -0.4150194877223351
12648761333.333334 -0.9136870942642712 -0.4064183728311826 9.073518521545171e-17 1.1362587830188653e-17 9.073518521545171e-17 1.1362587830188653e-17 -0.9136868310569649 -0.4064189645586387
12649378666.666666 -0.9174800987336722 -0.3977816843791121 9.082152801526667e-17 1.0496091882265471e-17 9.082152801526667e-17 1.0496091882265471e-17 -0.9174798411322829 -0.3977822785340191
12649996000.0 -0.9211914664924336 -0.38910960160519553 9.089960221603755e-17 9.628982495307087e-18 9.089960221603755e-17 9.628982495307087e-18 -0.9211912145193328 -0.389110198134451
12650613333.333334 -0.9248208673058194 -0.3804028961450547 9.09694039681633e-17 8.761338514096724e-18 9.09694039681633e-17 8.761338514096724e-18 -0.9248206209828781 -0.3804034949953512
12651230666.666666 -0.9283679782324266 -0.3716623427150931 9.103093017330217e-17 7.89323880110205e-18 9.103093017330217e-17 7.89323880110205e-18 -0.9283677375810094 -0.3716629438329212
12651848000.0 -0.9318324836530073 -0.36288871904332165 9.108417848436207e-17 7.024762229285973e-18 9.108417848436207e-17 7.024762229285973e-18 -0.9318322486939725 -0.3628893223749757
12652465333.333334 -0.9352140752984599 -0.3540828058003954 9.112914730541657e-17 6.1559876749943575e-18 9.112914730541657e-17 6.1559876749943575e-18 -0.9352138460521586 -0.35408341129197834
12653082666.666666 -0.9385124522772623 -0.34524538653015135 9.11658357915579e-17 5.286994010797103e-18 9.11658357915579e-17 5.286994010797103e-18 -0.9385122287635332 -0.3452459941275784
12653700000.0 -0.9417273211023413 -0.3363772475796219 9.119424384868111e-17 4.417860098319286e-18 9.119424384868111e-17 4.417860098319286e-18 -0.9417271033405126 -0.33637785722862695
12654317333.333334 -0.9448583957170495 -0.3274791780294398 9.121437213319787e-17 3.548664781135773e-18 9.121437213319787e-17 3.548664781135773e-18 -0.9448581837259352 -0.32747978967557906
12654934666.666666 -0.94790539752071 -0.3185519696233874 9.122622205168549e-17 2.6794868776080084e-18 9.122622205168549e-17 2.6794868776080084e-18 -0.9479051913186085 -0.31855258321204466
12655552000.0 -0.9508680553934357 -0.3095964166978376 9.122979576046605e-17 1.8104051737543808e-18 9.122979576046605e-17 1.8104051737543808e-18 -0.9508678549981293 -0.3095970321742294
12656169333.333334 -0.9537461057201201 -0.30061331611147957 9.122509616511864e-17 9.414984161367053e-19 9.122509616511864e-17 9.414984161367053e-19 -0.9537459111488731 -0.3006139334206601
12656786666.666666 -0.9565392924140201 -0.2916034671740379 9.121212691992333e-17 7.2845304729694e-20 9.121212691992333e-17 7.2845304729694e-20 -0.956539103683576 -0.2916040862609031
12657404000.0 -0.9592473669394885 -0.28256767157531143 9.119089242723844e-17 -7.954755141895882e-19 9.119089242723844e-17 -7.954755141895882e-19 -0.9592471840660695 -0.28256829238460457
12658021333.333334 -0.9618700883341035 -0.2735067333137856 9.116139783680922e-17 -1.6633854551498231e-18 9.116139783680922e-17 -1.6633854551498231e-18 -0.9618699113334097 -0.2735073557901025
12658638666.666666 -0.9644072232300733 -0.2644214586252305 9.112364904501037e-17 -2.530806000569713e-18 9.112364904501037e-17 -2.530806000569713e-18 -0.9644070521172801 -0.2644220827130235
12659256000.0 -0.9668585458750762 -0.2553126559106881 9.107765269401926e-17 -3.3976587078721862e-18 9.107765269401926e-17 -3.3976587078721862e-18 -0.9668583806648333 -0.2553132815542717
12659873333.333334 -0.9692238381522761 -0.2461811356647874 9.102341617092398e-17 -4.263865216539824e-18 9.102341617092398e-17 -4.263865216539824e-18 -0.9692236788587096 -0.2461817628083438
12660490666.666666 -0.9715028895997414 -0.23702771040362985 9.096094760676408e-17 -5.129347255180863e-18 9.096094760676408e-17 -5.129347255180863e-18 -0.9715027362364461 -0.23702833899121237
12661108000.0 -0.9736954974292243 -0.22785319459224168 9.089025587550078e-17 -5.9940266486230755e-18 9.089025587550078e-17 -5.9940266486230755e-18 -0.9736953500092675 -0.227853824567781
12661725333.333334 -0.9758014665441407 -0.21865840457238034 9.081135059292677e-17 -6.857825324908341e-18 9.081135059292677e-17 -6.857825324908341e-18 -0.9758013250800593 -0.2186590358796891
12662342666.666666 -0.9778206095569637 -0.20944415848975928 9.072424211550283e-17 -7.720665322365557e-18 9.072424211550283e-17 -7.720665322365557e-18 -0.9778204740607634 -0.209444791072537
12662960000.0 -0.9797527468058882 -0.2002112762212766 9.062894153913165e-17 -8.582468796616553e-18 9.062894153913165e-17 -8.582468796616553e-18 -0.9797526172890433 -0.20021191002311495
12663577333.333334 -0.9815977063708204 -0.19096057930206403 9.052546069786362e-17 -9.443158027586712e-18 9.052546069786362e-17 -9.443158027586712e-18 -0.9815975828442719 -0.19096121426645174
12664194666.666666 -0.9833553240886722 -0.18169289085238655 9.041381216253673e-17 -1.0302655426499028e-17 9.041381216253673e-17 -1.0302655426499028e-17 -0.9833552065628266 -0.18169352692271437
12664812000.0 -0.9850254435679706 -0.17240903550440245 9.029400923935073e-17 -1.1160883542851009e-17 9.029400923935073e-17 -1.1160883542851009e-17 -0.9850253320526996 -0.17240967262396817
12665429333.333334 -0.9866079162027752 -0.1631098393287593 9.016606596837239e-17 -1.2017765071391611e-17 9.016606596837239e-17 -1.2017765071391611e-17 -0.9866078107074148 -0.163110477440773
12666046666.666666 -0.9881026011858798 -0.15379612976123158 9.002999712198155e-17 -1.2873222859041449e-17 9.002999712198155e-17 -1.2873222859041449e-17 -0.9881025017192299 -0.15379676880882054
12666664000.0 -0.9895093655213927 -0.14446873552878753 8.98858182032411e-17 -1.3727179911862935e-17 8.98858182032411e-17 -1.3727179911862935e-17 -0.9895092720917157 -0.14446937545500133
12667281333.333334 -0.9908280840365001 -0.13512848657627013 8.973354544421324e-17 -1.4579559401936667e-17 8.973354544421324e-17 -1.4579559401936667e-17 -0.9908279966515208 -0.1351291273240858
12667898666.666666 -0.9920586393926698 -0.12577621399215683 8.957319580420045e-17 -1.543028467428393e-17 8.957319580420045e-17 -1.543028467428393e-17 -0.9920585580595729 -0.12577685550448364
12668516000.0 -0.9932009220960576 -0.11641274993477708 8.940478696792478e-17 -1.6279279253745216e-17 8.940478696792478e-17 -1.6279279253745216e-17 -0.9932008468214907 -0.11641339215446213
12669133333.333334 -0.99425483050724 -0.10703892755840982 8.922833734364773e-17 -1.7126466851814542e-17 8.922833734364773e-17 -1.7126466851814542e-17 -0.9942547612973106 -0.10703957042824272
12669750666.666666 -0.9952202708502886 -0.09765558093889579 8.904386606121293e-17 -1.7971771373514936e-17 8.904386606121293e-17 -1.7971771373514936e-17 -0.9952202077105631 -0.09765622440161387
12670368000.0 -0.996097157221096 -0.08826354499953463 8.885139297003669e-17 -1.8815116924192976e-17 8.885139297003669e-17 -1.8815116924192976e-17 -0.9960971001566015 -0.08826418899782808
