! Parameters = {f0=12700.012000; bw=77.238000; Q=6100.000000; N=10; m_0_1=1.345440; m_1_1=1.416861; m_1_2=1.180252; m_2_2=1.416212; m_2_3=0.817215; m_2_8=0.004336; m_2_9=0.041040; m_3_3=1.414275; m_3_4=0.705744; m_3_7=0.004936; m_3_8=-0.092152; m_3_9=0.004336; m_4_4=1.411350; m_4_5=0.542079; m_4_6=0.008453; m_4_7=-0.112701; m_4_8=0.004936; m_5_5=1.411732; m_5_6=0.949434; m_5_7=0.008453; m_6_6=1.411731; m_6_7=0.542421; m_7_7=1.411364; m_7_8=0.705862; m_8_8=1.414273; m_8_9=0.817528; m_9_9=1.416207; m_9_10=1.181330; m_10_10=1.416851; m_10_11=1.346235}
!
! Created with skrf (http://scikit-rf.org).
# Hz S RI R 50.0 
!freq ReS11 ImS11 ReS21 ImS21 ReS12 ImS12 ReS22 ImS22
12607400000.0 0.6763330737253757 -0.7365959363076791 -6.846443231851476e-17 1.4002503536992825e-16 -6.846443231851476e-17 1.4002503536992825e-16 0.6763335957601868 -0.7365954569815768
12608017333.333334 0.6668843990395213 -0.7451611894868778 -6.664760391664429e-17 1.4086508981432796e-16 -6.664760391664429e-17 1.4086508981432796e-16 0.6668849271187872 -0.745160716880306
12608634666.666666 0.6573272616000555 -0.7536052488917349 -6.482049618899672e-17 1.4168158565293285e-16 -6.482049618899672e-17 1.4168158565293285e-16 0.6573277956373018 -0.753604783080898
12609252000.0 0.6476632157895875 -0.7619267411719394 -6.298341442892925e-17 1.4247439747945932e-16 -6.298341442892925e-17 1.4247439747945932e-16 0.6476637556973791 -0.7619262822319282
12609869333.333334 0.6378938333783667 -0.770124312911659 -6.113666545468921e-17 1.432434038414786e-16 -6.113666545468921e-17 1.432434038414786e-16 0.6378943790683212 -0.7701238609164389
12610486666.666666 0.6280207032688668 -0.7781966308494791 -5.9280557558231e-17 1.4398848725889576e-16 -5.9280557558231e-17 1.4398848725889576e-16 0.6280212546516716 -0.7781961858718803
12611104000.0 0.6180454312369287 -0.7861423820956112 -5.741540045375863e-17 1.4470953424178222e-16 -5.741540045375863e-17 1.4470953424178222e-16 0.6180459882223532 -0.7861419442073148
12611721333.333334 0.6079696396710317 -0.7939602743450572 -5.554150522621185e-17 1.45406435307484e-16 -5.554150522621185e-17 1.45406435307484e-16 0.6079702021679436 -0.7939598436165847
12612338666.666666 0.597794967308255 -0.8016490360879409 -5.36591842793979e-17 1.460790849971211e-16 -5.36591842793979e-17 1.460790849971211e-16 0.5977955352246345 -0.8016486125886423
12612956000.0 0.5875230689675668 -0.8092074168164397 -5.1768751283925306e-17 1.4672738189141486e-16 -5.1768751283925306e-17 1.4672738189141486e-16 0.5875236422105209 -0.8092070006144817
12613573333.333334 0.577155615281137 -0.8166341872278274 -4.987052112509937e-17 1.4735122862578936e-16 -4.987052112509937e-17 1.4735122862578936e-16 0.577156193756917 -0.8166337783901855
12614190666.666666 0.5666942924221723 -0.8239281394247538 -4.796480985047977e-17 1.4795053190485683e-16 -4.796480985047977e-17 1.4795053190485683e-16 0.5666948760361861 -0.8239277380171967
12614808000.0 0.556140801830898 -0.8310880871115219 -4.6051934617308285e-17 1.485252025162091e-16 -4.6051934617308285e-17 1.485252025162091e-16 0.5561413904877281 -0.831087693198605
12615425333.333334 0.5454968599377926 -0.8381128657870678 -4.4132213639849846e-17 1.490751553435073e-16 -4.4132213639849846e-17 1.490751553435073e-16 0.5454974535412105 -0.8381124794321207
12616042666.666666 0.5347641978844708 -0.8450013329343214 -4.220596613646256e-17 1.4960030937892956e-16 -4.220596613646256e-17 1.4960030937892956e-16 0.5347647963374534 -0.8450009541994398
12616660000.0 0.5239445612419403 -0.851752368206154 -4.027351227660667e-17 1.5010058773490836e-16 -4.027351227660667e-17 1.5010058773490836e-16 0.5239451644466849 -0.8517519971521865
12617277333.333334 0.513039709726936 -0.8583648736074326 -3.8335173127709655e-17 1.5057591765518917e-16 -3.8335173127709655e-17 1.5057591765518917e-16 0.5130403175848758 -0.8583645102939726
12617894666.666666 0.5020514169157702 -0.8648377736735768 -3.6391270601878454e-17 1.5102623052521038e-16 -3.6391270601878454e-17 1.5102623052521038e-16 0.502052029327593 -0.8648374181589551
12618512000.0 0.4909814699553901 -0.8711700156457677 -3.444212740244185e-17 1.5145146188180882e-16 -3.444212740244185e-17 1.5145146188180882e-16 0.49098208682105166 -0.871169667987039
12619129333.333334 0.4798316692733963 -0.877360569641757 -3.2488066970545916e-17 1.5185155142219607e-16 -3.2488066970545916e-17 1.5185155142219607e-16 0.4798322904921382 -0.8773602298946941
12619746666.666666 0.4686038282847318 -0.8834084288236642 -3.0529413431494976e-17 1.5222644301228594e-16 -3.0529413431494976e-17 1.5222644301228594e-16 0.46860445375509774 -0.8834080970427474
12620364000.0 0.4572997730967914 -0.8893126095616908 -2.856649154099981e-17 1.525760846943264e-16 -2.856649154099981e-17 1.525760846943264e-16 0.45730040271664346 -0.8893122858000995
12620981333.333334 0.445921342212672 -0.8950721515939655 -2.659962663149886e-17 1.529004286938106e-16 -2.659962663149886e-17 1.529004286938106e-16 0.44592197587920707 -0.8950718359035693
12621598666.666666 0.4344703862319573 -0.9006861181828308 -2.4629144558241063e-17 1.531994314257281e-16 -2.4629144558241063e-17 1.531994314257281e-16 0.43447102384172437 -0.9006858106141818
12622216000.0 0.4229487675497834 -0.9061535962671674 -2.2655371645346677e-17 1.534730535001137e-16 -2.2655371645346677e-17 1.534730535001137e-16 0.4229494089987008 -0.906153296869493
12622833333.333334 0.4113583600539392 -0.9114736966108977 -2.067863463188145e-17 1.53721259726891e-16 -2.067863463188145e-17 1.53721259726891e-16 0.41135900523731067 -0.9114734054320908
12623450666.666666 0.3997010488200928 -0.9166455539476095 -1.8699260617805504e-17 1.5394401912003612e-16 -1.8699260617805504e-17 1.5394401912003612e-16 0.3997016976326246 -0.9166452710342206
12624068000.0 0.38797872980520204 -0.921668327121283 -1.6717577009892123e-17 1.5414130490104318e-16 -1.6717577009892123e-17 1.5414130490104318e-16 0.3879793821410211 -0.9216680525185157
12624685333.333334 0.37619330953915403 -0.9265411992231003 -1.4733911467652165e-17 1.5431309450168963e-16 -1.4733911467652165e-17 1.5431309450168963e-16 0.3761939652918246 -0.9265409329748013
12625302666.666666 0.3643467048147384 -0.9312633777242855 -1.2748591849255828e-17 1.54459369566109e-16 -1.2748591849255828e-17 1.54459369566109e-16 0.3643473638772794 -0.931263119872939
12625920000.0 0.3524408423756328 -0.9358340946051055 -1.0761946157310873e-17 1.5458011595217653e-16 -1.0761946157310873e-17 1.5458011595217653e-16 0.3524415046405353 -0.935833845191826
12626537333.333334 0.3404776586035651 -0.9402526064795761 -8.774302484849117e-18 1.5467532373218423e-16 -8.774302484849117e-18 1.5467532373218423e-16 0.34047832396281 -0.9402523655441017
12627154666.666666 0.3284590992028497 -0.9445181947165738 -6.785988961143483e-18 1.5474498719283479e-16 -6.785988961143483e-18 1.5474498719283479e-16 0.32845976754792455 -0.9445179622972587
12627772000.0 0.31638711888419885 -0.9486301655566084 -4.797333697584046e-18 1.54789104834535e-16 -4.797333697584046e-18 1.54789104834535e-16 0.31638779010611734 -0.9486299416904206
12628389333.333334 0.30426368104680995 -0.9525878502246651 -2.808664733657494e-18 1.5480767936999418e-16 -2.808664733657494e-18 1.5480767936999418e-16 0.30426435503612753 -0.952587634947175
12629006666.666666 0.2920907574588181 -0.9563906050390379 -8.203099828362905e-19 1.5480071772213122e-16 -8.203099828362905e-19 1.5480071772213122e-16 0.29209143410565164 -0.9563903983844183
12629624000.0 0.2798703279369315 -0.96003781151592 1.1674028214021768e-18 1.5476823102128726e-16 1.1674028214021768e-18 1.5476823102128726e-16 0.2798710071309762 -0.9600376135169372
12630241333.333334 0.2676043800241605 -0.9635288764700766 3.15414617951453e-18 1.5471023460174543e-16 3.15414617951453e-18 1.5471023460174543e-16 0.26760506165470777 -0.9635286871580853
12630858666.666666 0.25529490866688903 -0.9668632321112264 5.139592879797079e-18 1.5462674799756132e-16 5.139592879797079e-18 1.5462674799756132e-16 0.25529559262284524 -0.9668630515161665
12631476000.0 0.24294391588986772 -0.9700403361365436 7.123416052275686e-18 1.545177949376983e-16 7.123416052275686e-18 1.545177949376983e-16 0.24294460205977172 -0.9700401642869341
12632093333.333334 0.2305534104710944 -0.973059671818717 9.105289222351248e-18 1.5438340334047926e-16 9.105289222351248e-18 1.5438340334047926e-16 0.23055409874313595 -0.9730595087416513
12632710666.666666 0.21812540761510704 -0.9759207480900006 1.108488636452611e-17 1.542236053073464e-16 1.108488636452611e-17 1.542236053073464e-16 0.21812609787714468 -0.9759205938111422
12633328000.0 0.20566192862473034 -0.9786230996221978 1.3061881955982539e-17 1.5403843711593204e-16 1.3061881955982539e-17 1.5403843711593204e-16 0.20566262076431058 -0.9786229541657797
12633945333.333334 0.19316500057288338 -0.9811662869022163 1.50359510300312e-17 1.538279392124477e-16 1.50359510300312e-17 1.538279392124477e-16 0.19316569447725768 -0.9811661502910309
12634562666.666666 0.18063665597261544 -0.9835498963036058 1.7006769229438372e-17 1.5359215620339003e-16 1.7006769229438372e-17 1.5359215620339003e-16 0.18063735152875982 -0.9835497685590079
12635180000.0 0.1680789324465941 -0.9857735401538312 1.897401285971934e-17 1.5333113684655613e-16 1.897401285971934e-17 1.5333113684655613e-16 0.16807962954122663 -0.9857734212957291
12635797333.333334 0.15549387239570195 -0.9878368567973113 2.0937358942179285e-17 1.530449340413896e-16 2.0937358942179285e-17 1.530449340413896e-16 0.15549457091530178 -0.9878367468441679
12636414666.666666 0.14288352266685989 -0.9897395106542483 2.2896485266902965e-17 1.5273360481863975e-16 2.2896485266902965e-17 1.5273360481863975e-16 0.14288422249768545 -0.9897394096230756
12637032000.0 0.1302499342201252 -0.991481192275202 2.4851070445588022e-17 1.5239721032934312e-16 2.4851070445588022e-17 1.5239721032934312e-16 0.1302506352482327 -0.9914811001815591
12637649333.333334 0.11759516179512122 -0.9930616183914179 2.6800793964187314e-17 1.5203581583313453e-16 2.6800793964187314e-17 1.5203581583313453e-16 0.1175958639063834 -0.9930615352494094
12638266666.666666 0.10492126357685301 -0.9944805319609026 2.8745336235378426e-17 1.5164949068588944e-16 2.8745336235378426e-17 1.5164949068588944e-16 0.10492196665697755 -0.9944804577831758
12638884000.0 0.09223030086096143 -0.9957377022102256 3.068437865093744e-17 1.512383083266815e-16 3.068437865093744e-17 1.512383083266815e-16 0.09223100479550964 -0.9957376370079689
12639501333.333334 0.07952433771847227 -0.9968329246720544 3.2617603633853e-17 1.5080234626408432e-16 3.2617603633853e-17 1.5080234626408432e-16 0.07952504239287767 -0.9968328684549952
12640118666.666666 0.06680544066015034 -0.9977660212184046 3.4544694690242076e-17 1.5034168606181372e-16 3.4544694690242076e-17 1.5034168606181372e-16 0.0668061459597373 -0.9977659739948084
12640736000.0 0.054075678300116344 -0.9985368400896307 3.646533646120345e-17 1.4985641332367402e-16 3.646533646120345e-17 1.4985641332367402e-16 0.05407638411011882 -0.9985368018662998
12641353333.333334 0.04133712101997276 -0.9991452559190702 3.8379214774216195e-17 1.49346617677902e-16 3.8379214774216195e-17 1.49346617677902e-16 0.041337827225552785 -0.9991452267013406
12641970666.666666 0.028591840631507336 -0.9995911697534681 4.0286016694578815e-17 1.4881239276079466e-16 4.0286016694578815e-17 1.4881239276079466e-16 0.028592547117773964 -0.9995911495452132
12642588000.0 0.015841910040015582 -0.9998745090690566 4.21854305764873e-17 1.482538361997128e-16 4.21854305764873e-17 1.482538361997128e-16 0.015842616692043374 -0.9998744978726839
12643205333.333334 0.003089402907161203 -0.9999952277833528 4.40771461138898e-17 1.4767104959543362e-16 4.40771461138898e-17 1.4767104959543362e-16 0.0030901096100089745 -0.9999952255998028
12643822666.666666 -0.00966360668651368 -0.9999533062626534 4.596085439112578e-17 1.470641385038474e-16 4.596085439112578e-17 1.470641385038474e-16 -0.009662900047784142 -0.9999533130914009
12644440000.0 -0.022415044578577983 -0.9997487513252233 4.783624793331644e-17 1.464332124170103e-16 4.783624793331644e-17 1.464332124170103e-16 -0.02241433811888325 -0.9997487671642785
12645057333.333334 -0.03516283686233974 -0.9993815962401928 4.97030207564642e-17 1.4577838474356493e-16 4.97030207564642e-17 1.4577838474356493e-16 -0.035162130696556035 -0.9993816210860998
12645674666.666666 -0.04790491022380751 -0.9988519007221508 5.156086841732913e-17 1.4509977278851162e-16 5.156086841732913e-17 1.4509977278851162e-16 -0.04790420446675205 -0.9988519345699894
12646292000.0 -0.060639192279520936 -0.9981597509214097 5.34094880630393e-17 1.4439749773233943e-16 5.34094880630393e-17 1.4439749773233943e-16 -0.06063848704593331 -0.9981597937647977
12646909333.333334 -0.07336361191275378 -0.9973052594100353 5.524857848033783e-17 1.4367168460955802e-16 5.524857848033783e-17 1.4367168460955802e-16 -0.07336290731727717 -0.9973053112411259
12647526666.666666 -0.08607609961121368 -0.9962885651634891 5.707784014465529e-17 1.4292246228655974e-16 5.707784014465529e-17 1.4292246228655974e-16 -0.08607539576837633 -0.996288625972976
12648144000.0 -0.0987745878030055 -0.9951098335380624 5.889697526880229e-17 1.4214996343888875e-16 5.889697526880229e-17 1.4214996343888875e-16 -0.09877388482720206 -0.9951099033151792
12648761333.333334 -0.11145701119318699 -0.9937692562439655 6.070568785136573e-17 1.4135432452789e-16 6.070568785136573e-17 1.4135432452789e-16 -0.11145630919866008 -0.9937693349764902
12649378666.666666 -0.12412130709961405 -0.9922670513141543 6.250368372482387e-17 1.4053568577672928e-16 6.250368372482387e-17 1.4053568577672928e-16 -0.12412060620043534 -0.9922671389884076
12649996000.0 -0.13676541578841686 -0.9906034630688633 6.429067060334001e-17 1.3969419114580182e-16 6.429067060334001e-17 1.3969419114580182e-16 -0.13676471609846882 -0.9906035596697138
12650613333.333334 -0.14938728080899755 -0.988778762075874 6.606635813019531e-17 1.3882998830754856e-16 6.606635813019531e-17 1.3882998830754856e-16 -0.14938658244195493 -0.9887788675867399
12651230666.666666 -0.16198484932849289 -0.9867932451065055 6.783045792487783e-17 1.3794322862067541e-16 6.783045792487783e-17 1.3794322862067541e-16 -0.16198415239780437 -0.9867933595093594
12651848000.0 -0.1745560724656501 -0.9846472350873537 6.958268362989807e-17 1.3703406710374027e-16 6.958268362989807e-17 1.3703406710374027e-16 -0.17455537708451932 -0.9846473583627209
12652465333.333334 -0.18709890562405754 -0.9823410810477612 7.132275095718177e-17 1.361026624081809e-16 7.132275095718177e-17 1.361026624081809e-16 -0.1870982119054253 -0.9823412131747276
12653082666.666666 -0.19961130882462524 -0.9798751580630687 7.305037773410467e-17 1.3514917679075696e-16 7.305037773410467e-17 1.3514917679075696e-16 -0.199610616881151 -0.9798752990192829
12653700000.0 -0.21209124703764753 -0.9772498671935541 7.476528394923687e-17 1.3417377608536547e-16 7.476528394923687e-17 1.3417377608536547e-16 -0.21209055698169108 -0.9772500169552308
12654317333.333334 -0.22453669051322508 -0.974465635419317 7.64671917976059e-17 1.3317662967433708e-16 7.64671917976059e-17 1.3317662967433708e-16 -0.22453600245682817 -0.9744657939612408
12654934666.666666 -0.23694561511188683 -0.9715229155707302 7.815582572564778e-17 1.3215791045912071e-16 7.815582572564778e-17 1.3215791045912071e-16 -0.23694492916675539 -0.9715230828662618
12655552000.0 -0.24931600263374235 -0.9684221862548047 7.9830912475806e-17 1.3111779483037671e-16 7.9830912475806e-17 1.3111779483037671e-16 -0.24931531891122738 -0.9684223622758804
12656169333.333334 -0.2616458411464451 -0.965163951777403 8.149218113059252e-17 1.3005646263759086e-16 8.149218113059252e-17 1.3005646263759086e-16 -0.261645159757526 -0.965164136494546
12656786666.666666 -0.2739331253126391 -0.9617487420611761 8.313936315638805e-17 1.289740971580457e-16 8.313936315638805e-17 1.289740971580457e-16 -0.2739324463679045 -0.9617489354434967
12657404000.0 -0.2861758567160514 -0.9581771125593835 8.477219244678737e-17 1.2787088506526553e-16 8.477219244678737e-17 1.2787088506526553e-16 -0.28617518032568195 -0.9581773145745871
12658021333.333334 -0.29837204418657287 -0.9544496441655418 8.639040536550541e-17 1.267470163969273e-16 8.639040536550541e-17 1.267470163969273e-16 -0.2983713704603229 -0.9544498547799316
12658638666.666666 -0.31051970412383106 -0.9505669431190267 8.799374078885262e-17 1.2560268452223566e-16 8.799374078885262e-17 1.2560268452223566e-16 -0.3105190331710112 -0.9505671622975119
12659256000.0 -0.322616860820349 -0.9465296409063092 8.958194014784453e-17 1.244380861087171e-16 8.958194014784453e-17 1.244380861087171e-16 -0.3226161927498076 -0.9465298686124084
12659873333.333334 -0.3346615467823319 -0.9423383941584144 9.115474746980907e-17 1.2325342108852765e-16 9.115474746980907e-17 1.2325342108852765e-16 -0.3346608817024384 -0.942338630354264
12660490666.666666 -0.3466518030498825 -0.9379938845440675 9.271190941955027e-17 1.2204889262423673e-16 9.271190941955027e-17 1.2204889262423673e-16 -0.34665114106850914 -0.9379941291904256
12661108000.0 -0.35858567951581793 -0.9334968186587363 9.425317534013067e-17 1.208247070740389e-16 9.425317534013067e-17 1.208247070740389e-16 -0.35858502074032295 -0.9334970717149925
12661725333.333334 -0.37046123524230745 -0.9288479279099184 9.577829729309966e-17 1.195810739565272e-16 9.577829729309966e-17 1.195810739565272e-16 -0.37046057977951635 -0.9288481893340957
12662342666.666666 -0.38227653877707685 -0.924047968397973 9.728703009832682e-17 1.183182059149055e-16 9.728703009832682e-17 1.183182059149055e-16 -0.38227588673326746 -0.9240482381467418
12662960000.0 -0.3940296684672807 -0.9190977207932612 9.877913137335808e-17 1.1703631868070485e-16 9.877913137335808e-17 1.1703631868070485e-16 -0.3940290199481636 -0.9190979988219393
12663577333.333334 -0.40571871277209154 -0.9139979902091477 1.0025436157226777e-16 1.1573563103702677e-16 1.0025436157226777e-16 1.1573563103702677e-16 -0.40571806788279324 -0.9139982764717104
12664194666.666666 -0.4173417705735429 -0.9087496060710798 1.0171248402402221e-16 1.1441636478130395e-16 1.0171248402402221e-16 1.1441636478130395e-16 -0.41734112941859064 -0.9087499005201701
12664812000.0 -0.42889695148593926 -0.9033534219816021 1.0315326497041444e-16 1.1307874468752856e-16 1.0315326497041444e-16 1.1307874468752856e-16 -0.42889631416924157 -0.9033537245685341
12665429333.333334 -0.440382376163047 -0.8978103155816333 1.0457647360344306e-16 1.1172299846805357e-16 1.0457647360344306e-16 1.1172299846805357e-16 -0.44038174278787867 -0.8978106262564032
12666046666.666666 -0.451796176603707 -0.8921211884077612 1.0598188210219281e-16 1.1034935673492791e-16 1.0598188210219281e-16 1.1034935673492791e-16 -0.4517955472726915 -0.8921215071190545
12666664000.0 -0.4631364964561566 -0.8862869657453615 1.0736926566927e-16 1.0895805296070706e-16 1.0736926566927e-16 1.0895805296070706e-16 -0.4631358712712503 -0.8862872924405628
12667281333.333334 -0.4744014913192378 -0.8803085964784662 1.0873840256663303e-16 1.0754932343889943e-16 1.0873840256663303e-16 1.0754932343889943e-16 -0.4744008703817118 -0.8803089311036653
12667898666.666666 -0.48558932904287844 -0.8741870529351775 1.10089074150996e-16 1.0612340724387026e-16 1.10089074150996e-16 1.0612340724387026e-16 -0.4855887124533043 -0.8741873954351813
12668516000.0 -0.4966981900260227 -0.8679233307295501 1.1142106490864747e-16 1.0468054619036469e-16 1.1142106490864747e-16 1.0468054619036469e-16 -0.4966975778842549 -0.8679236810478894
12669133333.333334 -0.5077262675123243 -0.8615184485998004 1.1273416248974673e-16 1.032209847925896e-16 1.1273416248974673e-16 1.032209847925896e-16 -0.5077256599174834 -0.8615188066787396
12669750666.666666 -0.5186717678841976 -0.8549734482425081 1.1402815774210907e-16 1.0174497022284102e-16 1.1402815774210907e-16 1.0174497022284102e-16 -0.5186711649346559 -0.854973814023056
12670368000.0 -0.5295329109545324 -0.8482893941431917 1.1530284474445534e-16 1.0025275226970191e-16 1.1530284474445534e-16 1.0025275226970191e-16 -0.5295323127478967 -0.8482897675651097
