! Parameters = {f0=12700.012000; bw=77.238000; Q=6100.000000; N=10; m_0_1=1.310405; m_1_1=0.891335; m_1_2=1.145217; m_2_2=0.890686; m_2_3=0.782180; m_2_8=0.002584; m_2_9=0.039288; m_3_3=0.888749; m_3_4=0.670709; m_3_7=0.003184; m_3_8=-0.093904; m_3_9=0.002584; m_4_4=0.885824; m_4_5=0.507044; m_4_6=0.006701; m_4_7=-0.114453; m_4_8=0.003184; m_5_5=0.886206; m_5_6=0.914399; m_5_7=0.006701; m_6_6=0.886205; m_6_7=0.507386; m_7_7=0.885838; m_7_8=0.670827; m_8_8=0.888747; m_8_9=0.782493; m_9_9=0.890681; m_9_10=1.146295; m_10_10=0.891325; m_10_11=1.311200}
!
! Created with skrf (http://scikit-rf.org).
# Hz S RI R 50.0 
!freq ReS11 ImS11 ReS21 ImS21 ReS12 ImS12 ReS22 ImS22
12607400000.0 0.08232792515524363 0.9966052943565197 -4.8263658304564077e-17 -1.2427612908571273e-16 -4.8263658304564077e-17 -1.2427612908571273e-16 0.08232723717510848 0.9966053511891881
12608017333.333334 0.09399966620382948 0.9955722287977808 -4.9717743023850976e-17 -1.2367345329860735e-16 -4.9717743023850976e-17 -1.2367345329860735e-16 0.09399897897048716 0.9955722936845508
12608634666.666666 0.10565850139975949 0.9944024743944324 -5.116432848418032e-17 -1.2305377534877114e-16 -5.116432848418032e-17 -1.2305377534877114e-16 0.1056578150074872 0.9944025473256066
12609252000.0 0.11730283002267691 0.9930961917500657 -5.260321601837357e-17 -1.2241718825555324e-16 -5.260321601837357e-17 -1.2241718825555324e-16 0.11730214456562707 0.9930962727148441
12609869333.333334 0.1289310533440453 0.991653560213146 -5.4034208109712024e-17 -1.2176378735810575e-16 -5.4034208109712024e-17 -1.2176378735810575e-16 0.1289303689162328 0.9916536491996262
12610486666.666666 0.14054157484631025 0.9900747778524264 -5.545710841901632e-17 -1.2109367030118787e-16 -5.545710841901632e-17 -1.2109367030118787e-16 0.14054089154159946 0.9900748748476065
12611104000.0 0.15213280044263153 0.9883600614296876 -5.687172181155418e-17 -1.2040693702065175e-16 -5.687172181155418e-17 -1.2040693702065175e-16 0.15213211835472343 0.9883601664194667
12611721333.333334 0.16370313869515452 0.9865096463700528 -5.827785438371903e-17 -1.1970368972863994e-16 -5.827785438371903e-17 -1.1970368972863994e-16 0.16370245791757404 0.9865097593392357
12612338666.666666 0.1752510010338764 0.9845237867296237 -5.967531348960481e-17 -1.1898403289843365e-16 -5.967531348960481e-17 -1.1898403289843365e-16 0.175250321659959 0.9845239076619179
12612956000.0 0.18677480197483354 0.9824027551605682 -6.106390776734729e-17 -1.1824807324901423e-16 -6.106390776734729e-17 -1.1824807324901423e-16 0.1867741240977132 0.9824028840385922
12613573333.333334 0.19827295933733666 0.9801468428737746 -6.244344716524647e-17 -1.1749591972933456e-16 -6.244344716524647e-17 -1.1749591972933456e-16 0.1982722830499328 0.9801469796790577
12614190666.666666 0.20974389446170236 0.977756359598776 -6.381374296777328e-17 -1.1672768350224578e-16 -6.381374296777328e-17 -1.1672768350224578e-16 0.20974321985670694 0.9777565043117603
12614808000.0 0.2211860324256625 0.9752316335412868 -6.517460782133298e-17 -1.159434779281461e-16 -6.517460782133298e-17 -1.159434779281461e-16 0.22118535959552735 0.9752317861413308
12615425333.333334 0.23259780226070756 0.9725730113381205 -6.652585575981554e-17 -1.1514341854833714e-16 -6.652585575981554e-17 -1.1514341854833714e-16 0.2325971312976321 0.9725731718035023
12616042666.666666 0.24397763716785964 0.9697808580095821 -6.786730222998926e-17 -1.143276230680581e-16 -6.786730222998926e-17 -1.143276230680581e-16 0.24397696816377726 0.9697810263175003
12616660000.0 0.2553239747325927 0.9668555569093874 -6.919876411663449e-17 -1.1349621133925376e-16 -6.919876411663449e-17 -1.1349621133925376e-16 0.25532330777915985 0.966855733035969
12617277333.333334 0.2666352571395988 0.9637975096719814 -7.052005976752326e-17 -1.1264930534301873e-16 -7.052005976752326e-17 -1.1264930534301873e-16 0.26663459232818026 0.9637976935922794
12617894666.666666 0.2779099313863102 0.9606071361574768 -7.183100901811408e-17 -1.117870291717949e-16 -7.183100901811408e-17 -1.117870291717949e-16 0.27790926880796885 0.9606073278454798
12618512000.0 0.2891464494966448 0.9572848743938749 -7.313143321613173e-17 -1.1090950901121687e-16 -7.313143321613173e-17 -1.1090950901121687e-16 0.28914578924212747 0.9572850738225053
12619129333.333334 0.3003432687329632 0.9538311805170835 -7.44211552458007e-17 -1.1001687312175566e-16 -7.44211552458007e-17 -1.1001687312175566e-16 0.30034261089268877 0.9538313876582043
12619746666.666666 0.3114988518082362 0.9502465287081894 -7.56999995519615e-17 -1.0910925182000912e-16 -7.56999995519615e-17 -1.0910925182000912e-16 0.31149819647228383 0.9502467435326087
12620364000.0 0.32261166709719097 0.9465314111283285 -7.69677921639288e-17 -1.0818677745973434e-16 -7.69677921639288e-17 -1.0818677745973434e-16 0.32261101435528644 0.9465316336058008
12620981333.333334 0.33368018884616363 0.9426863378512499 -7.822436071906127e-17 -1.0724958441264516e-16 -7.822436071906127e-17 -1.0724958441264516e-16 0.33367953878766854 0.9426865679504836
12621598666.666666 0.3447028973830687 0.9387118367931295 -7.946953448620238e-17 -1.0629780904886149e-16 -7.946953448620238e-17 -1.0629780904886149e-16 0.34470225009696664 0.9387120744817873
12622216000.0 0.3556782793257193 0.9346084536401909 -8.070314438878979e-17 -1.053315897171562e-16 -8.070314438878979e-17 -1.053315897171562e-16 0.35567763490060555 0.9346086988848993
12622833333.333334 0.3666048277897461 0.9303767517737448 -8.192502302779529e-17 -1.043510667248827e-16 -8.192502302779529e-17 -1.043510667248827e-16 0.36660418631381364 0.9303770045400945
12623450666.666666 0.3774810425954593 0.9260173121928429 -8.313500470435923e-17 -1.0335638231768606e-16 -8.313500470435923e-17 -1.0335638231768606e-16 0.3774804041564884 0.9260175724453973
12624068000.0 0.388305430473768 0.9215307334345364 -8.433292544223547e-17 -1.0234768065890735e-16 -8.433292544223547e-17 -1.0234768065890735e-16 0.3883047951591127 0.9215310011368322
12624685333.333334 0.3990765052714342 0.9169176314915919 -8.551862300997513e-17 -1.0132510780873747e-16 -8.551862300997513e-17 -1.0132510780873747e-16 0.39907587316801174 0.9169179066061487
12625302666.666666 0.40979278815464887 0.9121786397281251 -8.66919369427988e-17 -1.0028881170316728e-16 -8.66919369427988e-17 -1.0028881170316728e-16 0.4097921593489261 0.912178922216446
12625920000.0 0.42045280781266803 0.9073144087923751 -8.785270856432823e-17 -9.923894213258522e-17 -8.785270856432823e-17 -9.923894213258522e-17 0.4204521823906516 0.9073146986149573
12626537333.333334 0.43105510065927466 0.9023256065276185 -8.900078100793513e-17 -9.817565072023475e-17 -8.900078100793513e-17 -9.817565072023475e-17 0.43105447870649827 0.9023259036439559
12627154666.666666 0.4415982110339601 0.8972129178803759 -9.013599923791545e-17 -9.709909090035045e-17 -9.013599923791545e-17 -9.709909090035045e-17 0.4415975926354723 0.8972132222489637
12627772000.0 0.45208069140200813 0.8919770448062525 -9.125821007039804e-17 -9.600941789604842e-17 -9.125821007039804e-17 -9.600941789604842e-17 0.45208007664236105 0.8919773563845941
12628389333.333334 0.4625011025527267 0.886618706173812 -9.236726219390598e-17 -9.490678869705457e-17 -9.236726219390598e-17 -9.490678869705457e-17 0.4625004915159657 0.8866190249184275
12629006666.666666 0.47285801379750736 0.8811386376656559 -9.346300618976873e-17 -9.379136203708107e-17 -9.346300618976873e-17 -9.379136203708107e-17 0.47285740656715747 0.8811389635320838
12629624000.0 0.48315000316604817 0.8755375916775133 -9.454529455214887e-17 -9.266329837107834e-17 -9.454529455214887e-17 -9.266329837107834e-17 0.48314939982510385 0.8755379246203188
12630241333.333334 0.49337565760158625 0.8698163372149402 -9.56139817078834e-17 -9.152275985216951e-17 -9.56139817078834e-17 -9.152275985216951e-17 0.49337505823250005 0.8698166771877218
12630858666.666666 0.5035335731548344 0.8639756597877849 -9.666892403597374e-17 -9.036991030843201e-17 -9.666892403597374e-17 -9.036991030843201e-17 0.5035329778395056 0.8639760067431809
12631476000.0 0.5136223551770819 0.8580163613021375 -9.770997988688155e-17 -8.920491521936478e-17 -9.770997988688155e-17 -8.920491521936478e-17 0.5136217639968454 0.8580167151918322
12632093333.333334 0.5236406185112082 0.8519392599505038 -9.873700960144304e-17 -8.802794169224241e-17 -9.873700960144304e-17 -8.802794169224241e-17 0.5236400315468229 0.8519396207252338
12632710666.666666 0.5335869876820838 0.8457451900993425 -9.974987552957231e-17 -8.683915843817174e-17 -9.974987552957231e-17 -8.683915843817174e-17 0.533586405013722 0.845745557708904
12633328000.0 0.5434600970855854 0.8394350021744028 -1.007484420486737e-16 -8.563873574793562e-17 -1.007484420486737e-16 -8.563873574793562e-17 0.5434595187928216 0.8394353765676588
12633945333.333334 0.553258591175822 0.8330095625441265 -1.017325755817062e-16 -8.442684546769519e-17 -1.017325755817062e-16 -8.442684546769519e-17 0.5532580173376235 0.8330099436690147
12634562666.666666 0.5629811246513234 0.8264697534006584 -1.0270214461502674e-16 -8.320366097440217e-17 -1.0270214461502674e-16 -8.320366097440217e-17 0.5629805553460361 0.8264701412041948
12635180000.0 0.5726263626397651 0.8198164726387032 -1.0365701971588504e-16 -8.196935715106997e-17 -1.0365701971588504e-16 -8.196935715106997e-17 0.5726257979451068 0.8198168670669949
12635797333.333334 0.5821929808813395 0.8130506337321882 -1.0459707354966559e-16 -8.072411036179331e-17 -1.0459707354966559e-16 -8.072411036179331e-17 0.5821924208743869 0.8130510347304368
12636414666.666666 0.5916796659103376 0.8061731656090055 -1.0552218089678366e-16 -7.946809842662974e-17 -1.0552218089678366e-16 -7.946809842662974e-17 0.5916791106675151 0.8061735731215152
12637032000.0 0.6010851152356909 0.7991850125233257 -1.0643221866932546e-16 -7.820150059622864e-17 -1.0643221866932546e-16 -7.820150059622864e-17 0.6010845648327634 0.7991854264935139
12637649333.333334 0.6104080375197795 0.7920871339259736 -1.0732706592736274e-16 -7.69244975263007e-17 -1.0732706592736274e-16 -7.69244975263007e-17 0.6104074920318391 0.7920875542963753
12638266666.666666 0.619647152755588 0.7848805043327971 -1.0820660389495026e-16 -7.56372712519169e-17 -1.0820660389495026e-16 -7.56372712519169e-17 0.619646612257044 0.7848809310450736
12638884000.0 0.6288011924426282 0.7775661131907314 -1.0907071597584658e-16 -7.434000516158281e-17 -1.0907071597584658e-16 -7.434000516158281e-17 0.6288006570071986 0.7775665461856804
12639501333.333334 0.6378688997609667 0.7701449647420588 -1.0991928776889464e-16 -7.303288397117728e-17 -1.0991928776889464e-16 -7.303288397117728e-17 0.6378683694616668 0.7701454039596207
12640118666.666666 0.6468490297437162 0.7626180778865831 -1.1075220708309756e-16 -7.171609369770752e-17 -1.1075220708309756e-16 -7.171609369770752e-17 0.6468485046528493 0.7626185232658498
12640736000.0 0.6557403494483801 0.7549864860413917 -1.1156936395242523e-16 -7.038982163282385e-17 -1.1156936395242523e-16 -7.038982163282385e-17 0.6557398296375277 0.754986937520616
12641353333.333334 0.6645416381254602 0.7472512369995411 -1.123706506502035e-16 -6.905425631632474e-17 -1.123706506502035e-16 -6.905425631632474e-17 0.6645411236654705 0.7472516945161424
12641970666.666666 0.673251687386683 0.7394133927856579 -1.131559617033074e-16 -6.770958750930892e-17 -1.131559617033074e-16 -6.770958750930892e-17 0.6732511783476649 0.7394138562762355
12642588000.0 0.681869301370549 0.7314740295104489 -1.139251939059401e-16 -6.635600616731671e-17 -1.139251939059401e-16 -6.635600616731671e-17 0.6818687978218588 0.7314744989107865
12643205333.333334 0.6903932969066026 0.7234342372228769 -1.1467824633314465e-16 -6.499370441322924e-17 -1.1467824633314465e-16 -6.499370441322924e-17 0.6903927989168361 0.7234347124679529
12643822666.666666 0.6988225036780024 0.7152951197603836 -1.1541502035396664e-16 -6.362287551005766e-17 -1.1541502035396664e-16 -6.362287551005766e-17 0.6988220113149863 0.7152956007843816
12644440000.0 0.7071557643820567 0.7070577945974726 -1.1613541964430643e-16 -6.224371383356132e-17 -1.1613541964430643e-16 -6.224371383356132e-17 0.7071552777128387 0.7070582813337889
12645057333.333334 0.7153919348890982 0.6987233926923049 -1.1683935019942767e-16 -6.085641484475115e-17 -1.1683935019942767e-16 -6.085641484475115e-17 0.7153914539799366 0.698723885073557
12645674666.666666 0.7235298843996127 0.6902930583313843 -1.1752672034615533e-16 -5.946117506222319e-17 -1.1752672034615533e-16 -5.946117506222319e-17 0.7235294093159693 0.6902935562894223
12646292000.0 0.7315684955996893 0.6817679489722449 -1.1819744075475376e-16 -5.805819203433163e-17 -1.1819744075475376e-16 -5.805819203433163e-17 0.731568026406219 0.6817684524381593
12646909333.333334 0.7395066648140476 0.6731492350849229 -1.1885142445042485e-16 -5.664766431132991e-17 -1.1885142445042485e-16 -5.664766431132991e-17 0.7395062015745922 0.6731497439890558
12647526666.666666 0.7473433021578318 0.6644380999909937 -1.1948858682453637e-16 -5.5229791417255836e-17 -1.1948858682453637e-16 -5.5229791417255836e-17 0.7473428449354078 0.6644386142629466
12648144000.0 0.7550773316862744 0.6556357397010546 -1.2010884564547131e-16 -5.38047738217823e-17 -1.2010884564547131e-16 -5.38047738217823e-17 0.7550768805430668 0.6556362592696992
12648761333.333334 0.7627076915422368 0.6467433627507323 -1.2071212106916363e-16 -5.2372812911903796e-17 -1.2071212106916363e-16 -5.2372812911903796e-17 0.7627072465395897 0.6467438875442201
12649378666.666666 0.7702333341020549 0.6377621900346913 -1.2129833564927902e-16 -5.0934110963547246e-17 -1.2129833564927902e-16 -5.0934110963547246e-17 0.7702328953004633 0.6377627199804634
12649996000.0 0.7776532261195213 0.6286934546388359 -1.2186741434708805e-16 -4.9488871112997594e-17 -1.2186741434708805e-16 -4.9488871112997594e-17 0.7776527935786234 0.6286939896636332
12650613333.333334 0.7849663488675814 0.619538401671205 -1.2241928454096687e-16 -4.803729732829399e-17 -1.2241928454096687e-16 -4.803729732829399e-17 0.7849659226461497 0.6195389417010784
12651230666.666666 0.7921716982781871 0.6102982880910502 -1.2295387603557126e-16 -4.6579594380490665e-17 -1.2295387603557126e-16 -4.6579594380490665e-17 0.7921712784341206 0.6102988330513701
12651848000.0 0.7992682850803615 0.6009743825359882 -1.234711210706868e-16 -4.511596781476778e-17 -1.234711210706868e-16 -4.511596781476778e-17 0.7992678716706784 0.6009749323514562
12652465333.333334 0.8062551349358272 0.5915679651480665 -1.2397095432969816e-16 -4.3646623921547266e-17 -1.2397095432969816e-16 -4.3646623921547266e-17 0.8062547280166577 0.5915685197427252
12653082666.666666 0.813131288572754 0.5820803273980547 -1.24453312947747e-16 -4.21717697074322e-17 -1.24453312947747e-16 -4.21717697074322e-17 0.8131308881993295 0.5820808866952967
12653700000.0 0.8198958019176598 0.5725127719078513 -1.2491813651953662e-16 -4.0691612866074916e-17 -1.2491813651953662e-16 -4.0691612866074916e-17 0.8198954081443097 0.5725133358304321
12654317333.333334 0.8265477462248484 0.5628666122718929 -1.25365367106776e-16 -3.9206361749010564e-17 -1.25365367106776e-16 -3.9206361749010564e-17 0.8265473591049897 0.5628671807419403
12654934666.666666 0.8330862082039737 0.5531431728767332 -1.2579494924530332e-16 -3.771622533632882e-17 -1.2579494924530332e-16 -3.771622533632882e-17 0.8330858277901052 0.5531437458157583
12655552000.0 0.8395102901455562 0.5433437887190186 -1.2620682995184523e-16 -3.622141320731888e-17 -1.2620682995184523e-16 -3.622141320731888e-17 0.8395099164892512 0.543344366047927
12656169333.333334 0.8458191100439848 0.5334698052225776 -1.2660095873042013e-16 -3.472213551107515e-17 -1.2660095873042013e-16 -3.472213551107515e-17 0.8458187431958833 0.5334703868616796
12656786666.666666 0.8520118017188175 0.5235225780533898 -1.269772875784156e-16 -3.321860293695247e-17 -1.269772875784156e-16 -3.321860293695247e-17 0.8520114417286199 0.5235231639224113
12657404000.0 0.8580875149336717 0.5135034729335035 -1.2733577099230097e-16 -3.171102668500751e-17 -1.2733577099230097e-16 -3.171102668500751e-17 0.8580871618501319 0.513504062951598
12658021333.333334 0.8640454155128976 0.5034138654536224 -1.27676365972989e-16 -3.019961843638823e-17 -1.27676365972989e-16 -3.019961843638823e-17 0.8640450693838171 0.5034144595393816
12658638666.666666 0.8698846854560834 0.4932551408842936 -1.2799903203084897e-16 -2.868459032366063e-17 -1.2799903203084897e-16 -2.868459032366063e-17 0.8698843463283044 0.49325573895575897
12659256000.0 0.8756045230505353 0.4830286939854181 -1.2830373119037787e-16 -2.7166154901032994e-17 -1.2830373119037787e-16 -2.7166154901032994e-17 0.8756041909699336 0.4830292959600916
12659873333.333334 0.8812041429811879 0.472735928815024 -1.285904279945027e-16 -2.5644525114617016e-17 -1.285904279945027e-16 -2.5644525114617016e-17 0.8812038179926679 0.4727365346098799
12660490666.666666 0.8866827764384074 0.46237825853654735 -1.2885908950853616e-16 -2.4119914272616706e-17 -1.2885908950853616e-16 -2.4119914272616706e-17 0.8866824585858956 0.4623788680680437
12661108000.0 0.8920396712237052 0.4519571052245081 -1.2910968532379368e-16 -2.2592536015405327e-17 -1.2910968532379368e-16 -2.2592536015405327e-17 0.8920393605501429 0.4519577184085977
12661725333.333334 0.897274091852865 0.4414738996695399 -1.2934218756083081e-16 -2.1062604285706887e-17 -1.2934218756083081e-16 -2.1062604285706887e-17 0.8972737884002046 0.4414745164216823
12662342666.666666 0.9023853196569873 0.43093008118182025 -1.295565708723504e-16 -1.953033329861878e-17 -1.295565708723504e-16 -1.953033329861878e-17 0.902385023466187 0.43093070141699424
12662960000.0 0.907372652881141 0.4203270973935118 -1.2975281244574565e-16 -1.7995937511666986e-17 -1.2975281244574565e-16 -1.7995937511666986e-17 0.9073723639921557 0.4203277210262253
12663577333.333334 0.9122354067807523 0.4096664040599006 -1.2993089200528635e-16 -1.6459631594853733e-17 -1.2993089200528635e-16 -1.6459631594853733e-17 0.9122351252325323 0.4096670310042038
12664194666.666666 0.9169729137155394 0.3989494648597085 -1.3009079181395926e-16 -1.4921630400635833e-17 -1.3009079181395926e-16 -1.4921630400635833e-17 0.9169726395460233 0.3989500950292057
12664812000.0 0.9215845232412704 0.38817775119392706 -1.302324966749456e-16 -1.3382148933948297e-17 -1.302324966749456e-16 -1.3382148933948297e-17 0.9215842564873793 0.38817838450178765
12665429333.333334 0.926069602198995 0.37735274198395374 -1.303559939327519e-16 -1.1841402322155497e-17 -1.303559939327519e-16 -1.1841402322155497e-17 0.9260693428966291 0.37735337834292504
12666046666.666666 0.9304275348019605 0.3664759234685962 -1.3046127347397823e-16 -1.0299605785074804e-17 -1.3046127347397823e-16 -1.0299605785074804e-17 0.9304272829859926 0.36647656279101504
12666664000.0 0.9346577227203009 0.35554878899964576 -1.3054832772774047e-16 -8.756974604902624e-18 -1.3054832772774047e-16 -8.756974604902624e-18 0.9346574784245737 0.3555494311974507
12667281333.333334 0.9387595851629685 0.34457283883740025 -1.3061715166573133e-16 -7.213724096236235e-18 -1.3061715166573133e-16 -7.213724096236235e-18 0.9387593484202884 0.34457348382214376
12667898666.666666 0.94273255895766 0.333549579944207 -1.306677428019306e-16 -5.670069576050788e-18 -1.306677428019306e-16 -5.670069576050788e-18 0.9427323297997926 0.33355022762706715
12668516000.0 0.9465760986280626 0.3224805257777456 -1.307001011919614e-16 -4.126226333669147e-18 -1.307001011919614e-16 -4.126226333669147e-18 0.9465758770857308 0.3224811760695394
12669133333.333334 0.9502896764686956 0.31136719608339797 -1.3071422943209022e-16 -2.582409600836413e-18 -1.3071422943209022e-16 -2.582409600836413e-18 0.9502894625715723 0.3113678488945924
12669750666.666666 0.9538727826174794 0.30021111668524214 -1.3071013265787642e-16 -1.0388345217064154e-18 -1.3071013265787642e-16 -1.0388345217064154e-18 0.953872576394187 0.3002117719259677
12670368000.0 0.9573249251256504 0.28901381927683173 -1.306878185424665e-16 5.042838770959044e-19 -1.306878185424665e-16 5.042838770959044e-19 0.9573247266037527 0.28901447685689324
