! Parameters = {f0=12700.012000; bw=77.238000; Q=6100.000000; N=10; m_0_1=1.199895; m_1_1=-0.766322; m_1_2=1.034707; m_2_2=-0.766971; m_2_3=0.671670; m_2_8=-0.002942; m_2_9=0.033762; m_3_3=-0.768908; m_3_4=0.560199; m_3_7=-0.002342; m_3_8=-0.099430; m_3_9=-0.002942; m_4_4=-0.771833; m_4_5=0.396534; m_4_6=0.001175; m_4_7=-0.119979; m_4_8=-0.002342; m_5_5=-0.771451; m_5_6=0.803889; m_5_7=0.001175; m_6_6=-0.771452; m_6_7=0.396876; m_7_7=-0.771819; m_7_8=0.560317; m_8_8=-0.768910; m_8_9=0.671983; m_9_9=-0.766976; m_9_10=1.035785; m_10_10=-0.766332; m_10_11=1.200690}
!
! Created with skrf (http://scikit-rf.org).
# Hz S RI R 50.0 
!freq ReS11 ImS11 ReS21 ImS21 ReS12 ImS12 ReS22 ImS22
12607400000.0 0.6500163137468733 -0.7599202536205816 -3.198699377071716e-17 7.170539975019867e-17 -3.198699377071716e-17 7.170539975019867e-17 0.6500167942425126 -0.7599198426166599
12608017333.333334 0.6435715089271948 -0.7653859894830949 -3.136738732252154e-17 7.196182609698342e-17 -3.136738732252154e-17 7.196182609698342e-17 0.6435719928551081 -0.7653855825741341
12608634666.666666 0.6370807468109257 -0.7707970693007823 -3.074573590847875e-17 7.221290375642917e-17 -3.074573590847875e-17 7.221290375642917e-17 0.6370812341362215 -0.7707966665154373
12609252000.0 0.6305444909019403 -0.7761531066697192 -3.0122085655389397e-17 7.24586165171481e-17 -3.0122085655389397e-17 7.24586165171481e-17 0.6305449815894874 -0.7761527080363471
12609869333.333334 0.6239632079528756 -0.7814537191164934 -2.9496482817677877e-17 7.26989485651679e-17 -2.9496482817677877e-17 7.26989485651679e-17 0.623963701967307 -0.7814533246631532
12610486666.666666 0.6173373679317429 -0.786698528125578 -2.886897377398831e-17 7.293388448492194e-17 -2.886897377398831e-17 7.293388448492194e-17 0.6173378652374568 -0.7866981378800264
12611104000.0 0.6106674439882946 -0.7918871591664093 -2.823960502373727e-17 7.316340926022357e-17 -2.823960502373727e-17 7.316340926022357e-17 0.6106679445494584 -0.7918867731561006
12611721333.333334 0.6039539124203736 -0.7970192417200275 -2.7608423183703008e-17 7.33875082751948e-17 -2.7608423183703008e-17 7.33875082751948e-17 0.6039544162009248 -0.79701885997211
12612338666.666666 0.5971972526398547 -0.8020944093055714 -2.6975474984555238e-17 7.360616731518473e-17 -2.6975474984555238e-17 7.360616731518473e-17 0.5971977596035055 -0.8020940318468877
12612956000.0 0.5903979471382297 -0.8071122995065849 -2.6340807267419606e-17 7.381937256764257e-17 -2.6340807267419606e-17 7.381937256764257e-17 0.5903984572484683 -0.8071119263636681
12613573333.333334 0.5835564814525398 -0.8120725539966088 -2.5704466980423242e-17 7.402711062296652e-17 -2.5704466980423242e-17 7.402711062296652e-17 0.5835569946726324 -0.8120721851956807
12614190666.666666 0.5766733441302903 -0.8169748185650711 -2.5066501175227287e-17 7.42293684753243e-17 -2.5066501175227287e-17 7.42293684753243e-17 0.5766738604232857 -0.8169744541320416
12614808000.0 0.5697490266948646 -0.8218187431423659 -2.4426957003551223e-17 7.44261335234452e-17 -2.4426957003551223e-17 7.44261335234452e-17 0.5697495460235955 -0.82181838310283
12615425333.333334 0.5627840236102146 -0.8266039818249976 -2.3785881713712324e-17 7.461739357137474e-17 -2.3785881713712324e-17 7.461739357137474e-17 0.5627845459373004 -0.8266036262042344
12616042666.666666 0.555778832245738 -0.8313301929001533 -2.3143322647127854e-17 7.480313682921067e-17 -2.3143322647127854e-17 7.480313682921067e-17 0.555779357533588 -0.8313298417231245
12616660000.0 0.5487339528405752 -0.8359970388702354 -2.249932723484558e-17 7.49833519137975e-17 -2.249932723484558e-17 7.49833519137975e-17 0.54873448105139 -0.8359966921615806
12617277333.333334 0.5416498884680483 -0.8406041864768423 -2.1853942994035182e-17 7.5158027849402e-17 -2.1853942994035182e-17 7.5158027849402e-17 0.5416504195638252 -0.840603844260883
12617894666.666666 0.5345271449996712 -0.8451513067246262 -2.1207217524508977e-17 7.532715406834885e-17 -2.1207217524508977e-17 7.532715406834885e-17 0.534527678942204 -0.8451509690253588
12618512000.0 0.52736623106895 -0.849638074904823 -2.0559198505203483e-17 7.549072041163528e-17 -2.0559198505203483e-17 7.549072041163528e-17 0.5273667678198332 -0.8496377417459191
12619129333.333334 0.5201676580352059 -0.8540641706183505 -1.990993369068916e-17 7.564871712950793e-17 -1.990993369068916e-17 7.564871712950793e-17 0.5201681975558373 -0.8540638420231558
12619746666.666666 0.5129319399469887 -0.858429277798737 -1.9259470907654188e-17 7.580113488201463e-17 -1.9259470907654188e-17 7.580113488201463e-17 0.5129324821985719 -0.858428953790268
12620364000.0 0.505659593505294 -0.862733084734731 -1.8607858051384418e-17 7.594796473952598e-17 -1.8607858051384418e-17 7.594796473952598e-17 0.5056601384488417 -0.8627327653356751
12620981333.333334 0.4983511380268111 -0.8669752840924725 -1.7955143082261488e-17 7.608919818322226e-17 -1.7955143082261488e-17 7.608919818322226e-17 0.4983516856231481 -0.8669749693251871
12621598666.666666 0.49100709540677034 -0.8711555729374917 -1.7301374022224948e-17 7.622482710555757e-17 -1.7301374022224948e-17 7.622482710555757e-17 0.4910076456165345 -0.8711552628239986
12622216000.0 0.483627990081594 -0.8752736527563714 -1.6646598951265866e-17 7.635484381068509e-17 -1.6646598951265866e-17 7.635484381068509e-17 0.4836285428652416 -0.8752733473183598
12622833333.333334 0.47621434899159865 -0.8793292294779868 -1.5990866003880966e-17 7.64792410148618e-17 -1.5990866003880966e-17 7.64792410148618e-17 0.4762149043094057 -0.87932892873681
12623450666.666666 0.4687667015432679 -0.8833220134945622 -1.533422336556959e-17 7.659801184681233e-17 -1.533422336556959e-17 7.659801184681233e-17 0.46876725935533303 -0.8833217174712349
12624068000.0 0.46128557957151967 -0.8872517196823063 -1.467671926927401e-17 7.671114984807393e-17 -1.467671926927401e-17 7.671114984807393e-17 0.461286139837768 -0.8872514283975057
12624685333.333334 0.4537715173015043 -0.8911180674218953 -1.4018401991861148e-17 7.681864897330247e-17 -1.4018401991861148e-17 7.681864897330247e-17 0.45377207998168895 -0.8911177808959565
12625302666.666666 0.4462250513109075 -0.8949207806182734 -1.3359319850591783e-17 7.692050359055108e-17 -1.3359319850591783e-17 7.692050359055108e-17 0.44622561636461383 -0.8949204988711918
12625920000.0 0.4386467204910538 -0.8986595877206703 -1.2699521199568264e-17 7.701670848152101e-17 -1.2699521199568264e-17 7.701670848152101e-17 0.4386472878777012 -0.8986593107720968
12626537333.333334 0.4310370660089807 -0.9023342217417077 -1.2039054426209562e-17 7.710725884177807e-17 -1.2039054426209562e-17 7.710725884177807e-17 0.4310376356878254 -0.9023339496109475
12627154666.666666 0.42339663126843835 -0.9059444202766419 -1.1377967947716477e-17 7.719215028094047e-17 -1.1377967947716477e-17 7.719215028094047e-17 0.4233972031985783 -0.9059441529826573
12627772000.0 0.41572596187113775 -0.909489925522081 -1.0716310207500874e-17 7.727137882284091e-17 -1.0716310207500874e-17 7.727137882284091e-17 0.415726536011513 -0.9094896630834848
12628389333.333334 0.4080256055779408 -0.9129704842943158 -1.0054129671693559e-17 7.734494090564786e-17 -1.0054129671693559e-17 7.734494090564786e-17 0.40802618188733836 -0.9129702267293733
12629006666.666666 0.4002961122695668 -0.9163858480474881 -9.391474825552874e-18 7.741283338196942e-17 -9.391474825552874e-18 7.741283338196942e-17 0.40029669070662205 -0.9163855953741142
12629624000.0 0.39253803390740066 -0.9197357728912993 -8.72839416996578e-18 7.747505351891575e-17 -8.72839416996578e-18 7.747505351891575e-17 0.39253861443060184 -0.9197355251270585
12630241333.333334 0.38475192449413187 -0.9230200196084072 -8.06493621787646e-18 7.753159899813955e-17 -8.06493621787646e-18 7.753159899813955e-17 0.38475250706182207 -0.9230197767705118
12630858666.666666 0.3769383400341407 -0.9262383536715325 -7.401149490777142e-18 7.758246791583958e-17 -7.401149490777142e-18 7.758246791583958e-17 0.37693892460452055 -0.9262381157768399
12631476000.0 0.36909783849368666 -0.9293905452602426 -6.73708251512692e-18 7.762765878274143e-17 -6.73708251512692e-18 7.762765878274143e-17 0.36909842502481915 -0.9293903123252583
12632093333.333334 0.36123097976133156 -0.9324763692772655 -6.072783818859851e-18 7.766717052403965e-17 -6.072783818859851e-18 7.766717052403965e-17 0.3612315682111424 -0.9324761413181364
12632710666.666666 0.3533383256077171 -0.9354956053646521 -5.408301927817095e-18 7.770100247931715e-17 -5.408301927817095e-18 7.770100247931715e-17 0.35333891593400013 -0.9354953823971704
12633328000.0 0.3454204396455039 -0.9384480379194948 -4.7436853622180456e-18 7.772915440242983e-17 -4.7436853622180456e-18 7.772915440242983e-17 0.3454210318059224 -0.9384478199590934
12633945333.333334 0.3374778872891484 -0.9413334561093092 -4.078982633128947e-18 7.775162646136317e-17 -4.078982633128947e-18 7.775162646136317e-17 0.33747848124123897 -0.9413332431710617
12634562666.666666 0.3295112357146084 -0.944151653887062 -3.4142422389378957e-18 7.776841923805736e-17 -3.4142422389378957e-18 7.776841923805736e-17 0.3295118314157845 -0.9441514459856843
12635180000.0 0.32152105381865415 -0.9469024300059561 -2.749512661810086e-18 7.777953372820396e-17 -2.749512661810086e-18 7.777953372820396e-17 0.32152165122620774 -0.9469022271558005
12635797333.333334 0.31350791217843027 -0.9495855880337304 -2.0848423641765485e-18 7.778497134101089e-17 -2.0848423641765485e-18 7.778497134101089e-17 0.3135085112495358 -0.9495853902487877
12636414666.666666 0.30547238301060353 -0.9522009363667249 -1.4202797852013908e-18 7.778473389893858e-17 -1.4202797852013908e-18 7.778473389893858e-17 0.3054729837023212 -0.9522007436606235
12637032000.0 0.2974150401305556 -0.9547482882435471 -7.558733372653697e-19 7.77788236374052e-17 -7.558733372653697e-19 7.77788236374052e-17 0.29741564239983403 -0.9547481006295518
12637649333.333334 0.2893364589112991 -0.9572274617584445 -9.167140243953745e-20 7.776724320446278e-17 -9.167140243953745e-20 7.776724320446278e-17 0.2893370627149781 -0.9572272792494539
12638266666.666666 0.2812372162425785 -0.959638279874229 5.722776710132203e-19 7.774999566044264e-17 5.722776710132203e-19 7.774999566044264e-17 0.2812378215373929 -0.9596381024827769
12638884000.0 0.2731178904894586 -0.9619805704349917 1.2359255721659653e-18 7.772708447757136e-17 1.2359255721659653e-18 7.772708447757136e-17 0.2731184972320408 -0.9619803981732449
12639501333.333334 0.2649790614512134 -0.9642541661783355 1.8992240309182404e-18 7.769851353955684e-17 1.8992240309182404e-18 7.769851353955684e-17 0.2649796695980968 -0.9642539990580935
12640118666.666666 0.2568213103198696 -0.9664589047473402 2.5621248215021674e-18 7.76642871411448e-17 2.5621248215021674e-18 7.76642871411448e-17 0.2568219198274914 -0.9664587427800341
12640736000.0 0.24864521963848255 -0.9685946287022107 3.224579765997138e-18 7.762440998764365e-17 3.224579765997138e-18 7.762440998764365e-17 0.24864583046318733 -0.968594471898903
12641353333.333334 0.24045137325997792 -0.970661185531406 3.886540737786755e-18 7.757888719442383e-17 3.886540737786755e-18 7.757888719442383e-17 0.24045198535801998 -0.9706610339027878
12641970666.666666 0.23224035630510037 -0.9726584276626217 4.5479596650745914e-18 7.752772428638249e-17 4.5479596650745914e-18 7.752772428638249e-17 0.23224096963264793 -0.9726582812190159
12642588000.0 0.22401275512068614 -0.9745862124733158 5.208788534361547e-18 7.747092719738163e-17 5.208788534361547e-18 7.747092719738163e-17 0.22401336963382362 -0.9745860712246728
12643205333.333334 0.21576915723795695 -0.9764444023008505 5.868979393906565e-18 7.740850226965672e-17 5.868979393906565e-18 7.740850226965672e-17 0.2157697728926884 -0.9764442662567486
12643822666.666666 0.20751015133037143 -0.9782328644523701 6.528484357223348e-18 7.734045625319307e-17 6.528484357223348e-18 7.734045625319307e-17 0.20751076808262384 -0.9782327336220159
12644440000.0 0.19923632717164333 -0.9799514712142626 7.187255606515905e-18 7.726679630507672e-17 7.187255606515905e-18 7.726679630507672e-17 0.1992369449772694 -0.9799513456064887
12645057333.333334 0.19094827559379204 -0.9816000998612424 7.845245396156203e-18 7.718752998881253e-17 7.845245396156203e-18 7.718752998881253e-17 0.19094889440857374 -0.9815999794845077
12645674666.666666 0.1826465884447301 -0.9831786326651656 8.502406056117812e-18 7.710266527361591e-17 8.502406056117812e-18 7.710266527361591e-17 0.18264720822438169 -0.9831785175275555
12646292000.0 0.17433185854602648 -0.9846869569034269 9.158689995453108e-18 7.701221053366968e-17 9.158689995453108e-18 7.701221053366968e-17 0.17433247924619757 -0.9846868470126515
12646909333.333334 0.16600467965071264 -0.9861249648669829 9.814049705684586e-18 7.69161745473615e-17 9.814049705684586e-18 7.69161745473615e-17 0.16600530122699136 -0.9861248602303763
12647526666.666666 0.15766564640082753 -0.9874925538680549 1.0468437764274096e-17 7.681456649648101e-17 1.0468437764274096e-17 7.681456649648101e-17 0.15766626880874393 -0.9874924544925758
12648144000.0 0.14931535428475778 -0.9887896262474948 1.1121806838025488e-17 7.670739596539587e-17 1.1121806838025488e-17 7.670739596539587e-17 0.14931597747978698 -0.9887895321397265
12648761333.333334 0.14095439959505085 -0.9900160893817038 1.1774109686507791e-17 7.65946729401949e-17 1.1774109686507791e-17 7.65946729401949e-17 0.14095502353261585 -0.9900160005478515
12649378666.666666 0.13258337938560907 -0.991171855689282 1.2425299165444163e-17 7.647640780780622e-17 1.2425299165444163e-17 7.647640780780622e-17 0.13258400402108425 -0.9911717721351737
12649996000.0 0.12420289142913873 -0.9922568426372708 1.3075328230138216e-17 7.635261135507928e-17 1.3075328230138216e-17 7.635261135507928e-17 0.1242035167178531 -0.9922567643683575
12650613333.333334 0.1158135341743221 -0.9932709727470632 1.3724149938839493e-17 7.622329476784632e-17 1.3724149938839493e-17 7.622329476784632e-17 0.1158141600715623 -0.9932708997684175
12651230666.666666 0.10741590670342101 -0.9942141735998963 1.4371717456132883e-17 7.60884696299505e-17 1.4371717456132883e-17 7.60884696299505e-17 0.10741653316443482 -0.9942141059162145
12651848000.0 0.0990106086889887 -0.9950863778420843 1.5017984056314382e-17 7.594814792224496e-17 1.5017984056314382e-17 7.594814792224496e-17 0.09901123566898765 -0.9950863154576811
12652465333.333334 0.09059824035152672 -0.995887523189768 1.566290312675125e-17 7.58023420215654e-17 1.566290312675125e-17 7.58023420215654e-17 0.0905988678056899 -0.9958874661085814
12653082666.666666 0.082179402416398 -0.9966175524333936 1.630642817121746e-17 7.565106469967724e-17 1.630642817121746e-17 7.565106469967724e-17 0.08218003029987493 -0.9966175006589815
12653700000.0 0.07375469607087207 -0.997276413441798 1.6948512813275293e-17 7.549432912218214e-17 1.6948512813275293e-17 7.549432912218214e-17 0.07375532433878615 -0.997276366977341
12654317333.333334 0.06532472292136478 -0.9978640591659217 1.758911079956102e-17 7.533214884741559e-17 1.758911079956102e-17 7.533214884741559e-17 0.0653253515288161 -0.9978640180142183
12654934666.666666 0.056890084950392224 -0.9983804476421706 1.8228176003146087e-17 7.516453782529671e-17 1.8228176003146087e-17 7.516453782529671e-17 0.05689071385246113 -0.9983804118056406
12655552000.0 0.04845138447349853 -0.9988255419954205 1.8865662426832036e-17 7.499151039616262e-17 1.8865662426832036e-17 7.499151039616262e-17 0.04845201362524874 -0.9988255114761048
12656169333.333334 0.040009224096414726 -0.9991993104416387 1.950152420644978e-17 7.481308128957173e-17 1.950152420644978e-17 7.481308128957173e-17 0.04000985345289651 -0.9991992852411982
12656786666.666666 0.03156420667194185 -0.9995017262901619 2.0135715614154247e-17 7.462926562307747e-17 2.0135715614154247e-17 7.462926562307747e-17 0.03156483618819521 -0.9995017064098772
12657404000.0 0.023116935256815983 -0.9997327679456027 2.0768191061709942e-17 7.444007890097361e-17 2.0768191061709942e-17 7.444007890097361e-17 0.023117564887873882 -0.9997327533863734
12658021333.333334 0.01466801306881451 -0.9998924189093829 2.1398905103745782e-17 7.424553701301632e-17 2.1398905103745782e-17 7.424553701301632e-17 0.01466864276970615 -0.99989240967173
12658638666.666666 0.006218043443595436 -0.9999806677809217 2.202781244101768e-17 7.404565623311486e-17 2.202781244101768e-17 7.404565623311486e-17 0.0062186731693493905 -0.9999806638649852
12659256000.0 -0.002232370208443672 -0.9999975082584437 2.2654867923656724e-17 7.384045321799393e-17 2.2654867923656724e-17 7.384045321799393e-17 -0.0022317405027962025 -0.999997509663985
12659873333.333334 -0.010682624445226602 -0.9999429391394317 2.3280026554399077e-17 7.362994500583139e-17 2.3280026554399077e-17 7.362994500583139e-17 -0.010681994804648607 -0.9999429458658313
12660490666.666666 -0.01913211583586284 -0.9998169643207133 2.3903243491788833e-17 7.341414901487304e-17 2.3903243491788833e-17 7.341414901487304e-17 -0.019131486305308264 -0.9998169763669716
12661108000.0 -0.02758024100424994 -0.9996195927981765 2.4524474053422523e-17 7.319308304200259e-17 2.4524474053422523e-17 7.319308304200259e-17 -0.027579611628660492 -0.9996196101629139
12661725333.333334 -0.03602639667153526 -0.9993508386661355 2.5143673719097457e-17 7.296676526131256e-17 2.5143673719097457e-17 7.296676526131256e-17 -0.03602576749583723 -0.9993508613475947
12662342666.666666 -0.04446997969973601 -0.9990107211163195 2.5760798134032318e-17 7.273521422261921e-17 2.5760798134032318e-17 7.273521422261921e-17 -0.04446935076883699 -0.9990107491123615
12662960000.0 -0.05291038713443963 -0.998599264436504 2.6375803112007924e-17 7.24984488499735e-17 2.6375803112007924e-17 7.24984488499735e-17 -0.052909758493225385 -0.9985992977446121
12663577333.333334 -0.06134701624811647 -0.9981164980087732 2.698864463854014e-17 7.225648844012935e-17 2.698864463854014e-17 7.225648844012935e-17 -0.061346387941447644 -0.9981165366260499
12664194666.666666 -0.06977926458293308 -0.9975624563074278 2.7599278874003913e-17 7.20093526609983e-17 2.7599278874003913e-17 7.20093526609983e-17 -0.06977863665564214 -0.9975625002305988
12664812000.0 -0.07820652999400082 -0.9969371788965145 2.820766215677626e-17 7.175706155006517e-17 2.820766215677626e-17 7.175706155006517e-17 -0.07820590249088877 -0.996937228121926
12665429333.333334 -0.08662821069217622 -0.9962407104270111 2.881375100633427e-17 7.149963551278909e-17 2.881375100633427e-17 7.149963551278909e-17 -0.08662758365800932 -0.996240764950631
12666046666.666666 -0.09504370528711968 -0.9954731006336329 2.941750212635927e-17 7.123709532097097e-17 2.941750212635927e-17 7.123709532097097e-17 -0.09504307876662642 -0.9954731604510514
12666664000.0 -0.10345241283035381 -0.9946344043312701 3.001887240782619e-17 7.096946211109397e-17 3.001887240782619e-17 7.096946211109397e-17 -0.10345178686822167 -0.9946344694377003
12667281333.333334 -0.11185373285786616 -0.9937246814111069 3.0617818932057884e-17 7.069675738264725e-17 3.0617818932057884e-17 7.069675738264725e-17 -0.1118531074987382 -0.9937247518013826
12667898666.666666 -0.120247065433355 -0.9927439968362991 3.121429897379277e-17 7.041900299641165e-17 3.121429897379277e-17 7.041900299641165e-17 -0.12024644072182719 -0.9927440725048807
12668516000.0 -0.12863181119087388 -0.991692420637367 3.180827000421671e-17 7.013622117272791e-17 3.180827000421671e-17 7.013622117272791e-17 -0.12863118717149122 -0.9916925015783351
12669133333.333334 -0.1370073713776028 -0.9905700279071867 3.2399689693981904e-17 6.98484344897396e-17 3.2399689693981904e-17 6.98484344897396e-17 -0.13700674809485688 -0.9905701141142489
12669750666.666666 -0.14537314789666256 -0.9893768987956306 3.2988515916217707e-17 6.955566588160612e-17 3.2988515916217707e-17 6.955566588160612e-17 -0.14537252539498793 -0.989376990262118
12670368000.0 -0.15372854334993657 -0.9881131185038228 3.357470674952955e-17 6.925793863668895e-17 3.357470674952955e-17 6.925793863668895e-17 -0.15372792167370775 -0.988113215222692
