! Parameters = {f0=12700.012000; bw=77.238000; Q=6100.000000; N=10; m_0_1=1.204700; m_1_1=-0.694250; m_1_2=1.039512; m_2_2=-0.694899; m_2_3=0.676475; m_2_8=-0.002701; m_2_9=0.034003; m_3_3=-0.696836; m_3_4=0.565004; m_3_7=-0.002101; m_3_8=-0.099189; m_3_9=-0.002701; m_4_4=-0.699761; m_4_5=0.401339; m_4_6=0.001416; m_4_7=-0.119738; m_4_8=-0.002101; m_5_5=-0.699379; m_5_6=0.808694; m_5_7=0.001416; m_6_6=-0.699380; m_6_7=0.401681; m_7_7=-0.699747; m_7_8=0.565122; m_8_8=-0.696838; m_8_9=0.676788; m_9_9=-0.694904; m_9_10=1.040590; m_10_10=-0.694260; m_10_11=1.205495}
!
! Created with skrf (http://scikit-rf.org).
# Hz S RI R 50.0 
!freq ReS11 ImS11 ReS21 ImS21 ReS12 ImS12 ReS22 ImS22
12607400000.0 -0.8113388040575956 0.5845762097710023 4.9223629191659174e-17 -6.362998655718418e-17 4.9223629191659174e-17 -6.362998655718418e-17 -0.8113391751587749 0.5845756947158507
12608017333.333334 -0.8062859448974183 0.5915259715859651 4.8659865013851835e-17 -6.404235702258018e-17 4.8659865013851835e-17 -6.404235702258018e-17 -0.806286320392065 0.5915254597635383
12608634666.666666 -0.8011735571837112 0.5984320606964829 4.809265383867867e-17 -6.444973868049342e-17 4.809265383867867e-17 -6.444973868049342e-17 -0.801173937043675 0.5984315521442516
12609252000.0 -0.7960020183670315 0.6052939672220865 4.752203975989059e-17 -6.485210278586859e-17 4.752203975989059e-17 -6.485210278586859e-17 -0.7960024025638404 0.6052934619772748
12609869333.333334 -0.7907717102651264 0.6121111845442844 4.694806711033292e-17 -6.524942098292435e-17 4.694806711033292e-17 -6.524942098292435e-17 -0.7907720987699915 0.6121106826438693
12610486666.666666 -0.7854830190347144 0.6188832093440172 4.637078045852815e-17 -6.564166530712679e-17 4.637078045852815e-17 -6.564166530712679e-17 -0.7854834118185317 0.6188827108247246
12611104000.0 -0.7801363351429207 0.6256095416388826 4.579022460519455e-17 -6.602880818716414e-17 4.579022460519455e-17 -6.602880818716414e-17 -0.7801367321762731 0.6256090465371859
12611721333.333334 -0.7747320533385718 0.6322896848198941 4.520644457981299e-17 -6.641082244684763e-17 4.520644457981299e-17 -6.641082244684763e-17 -0.7747324545917315 0.6322891931720104
12612338666.666666 -0.7692705726229278 0.638923145688301 4.4619485637132574e-17 -6.678768130701253e-17 4.4619485637132574e-17 -6.678768130701253e-17 -0.7692709780658582 0.638922657530189
12612956000.0 -0.7637522962202749 0.6455094344919344 4.402939325366251e-17 -6.715935838738741e-17 4.402939325366251e-17 -6.715935838738741e-17 -0.7637527058226339 0.6455089498592921
12613573333.333334 -0.7581776315481966 0.6520480649613252 4.343621312418276e-17 -6.752582770840958e-17 4.343621312418276e-17 -6.752582770840958e-17 -0.7581780452793362 0.6520475838895854
12614190666.666666 -0.7525469901874505 0.6585385543456438 4.283999115820366e-17 -6.788706369303378e-17 4.283999115820366e-17 -6.788706369303378e-17 -0.7525474080164228 0.6585380768699749
12614808000.0 -0.7468607878515506 0.6649804234483916 4.224077347642e-17 -6.824304116850338e-17 4.224077347642e-17 -6.824304116850338e-17 -0.7468612097471073 0.6649799496036918
12615425333.333334 -0.7411194443561075 0.6713731966627322 4.1638606407168156e-17 -6.859373536807971e-17 4.1638606407168156e-17 -6.859373536807971e-17 -0.7411198702867032 0.6713727264836287
12616042666.666666 -0.7353233835878918 0.6777164020065438 4.103353648284188e-17 -6.893912193275685e-17 4.103353648284188e-17 -6.893912193275685e-17 -0.7353238135216866 0.6777159355273898
12616660000.0 -0.7294730334734044 0.6840095711574141 4.042561043631327e-17 -6.927917691293293e-17 4.042561043631327e-17 -6.927917691293293e-17 -0.7294734673782657 0.6840091084122862
12617277333.333334 -0.7235688259474184 0.6902522394870703 3.9814875197338526e-17 -6.96138767700517e-17 3.9814875197338526e-17 -6.96138767700517e-17 -0.7235692637909233 0.6902517805097658
12617894666.666666 -0.717611196921048 0.696443946095723 3.9201377888944214e-17 -6.994319837821566e-17 3.9201377888944214e-17 -6.994319837821566e-17 -0.7176116386704867 0.6964434909197585
12618512000.0 -0.7116005862494102 0.7025842338462615 3.858516582378632e-17 -7.026711902577501e-17 3.858516582378632e-17 -7.026711902577501e-17 -0.711601031871787 0.7025837825048685
12619129333.333334 -0.7055374376994827 0.708672649397653 3.7966286500546476e-17 -7.058561641685762e-17 3.7966286500546476e-17 -7.058561641685762e-17 -0.7055378871615212 0.708672201923779
12619746666.666666 -0.6994221989170093 0.714708743238766 3.734478760024763e-17 -7.089866867290419e-17 3.734478760024763e-17 -7.089866867290419e-17 -0.69942265218515 0.714708299665067
12620364000.0 -0.6932553213936007 0.7206920697213877 3.672071698260728e-17 -7.120625433414381e-17 3.672071698260728e-17 -7.120625433414381e-17 -0.6932557784340079 0.7206916300802299
12620981333.333334 -0.6870372604334464 0.7266221870930901 3.609412268236697e-17 -7.150835236104464e-17 3.609412268236697e-17 -7.150835236104464e-17 -0.6870377212120096 0.7266217514165466
12621598666.666666 -0.6807684751195578 0.7324986575299871 3.5465052905591704e-17 -7.180494213574141e-17 3.5465052905591704e-17 -7.180494213574141e-17 -0.6807689396018932 0.7324982258498342
12622216000.0 -0.674449428280035 0.7383210471688962 3.483355602598816e-17 -7.209600346341475e-17 3.483355602598816e-17 -7.209600346341475e-17 -0.6744498964314887 0.7383206195166125
12622833333.333334 -0.6680805864537318 0.7440889261395307 3.419968058117952e-17 -7.238151657365524e-17 3.419968058117952e-17 -7.238151657365524e-17 -0.6680810582393828 0.7440885025462949
12623450666.666666 -0.661662419855956 0.7498018685960992 3.35634752689997e-17 -7.266146212177921e-17 3.35634752689997e-17 -7.266146212177921e-17 -0.6616628952406187 0.7498014490927871
12624068000.0 -0.6551954023437145 0.7554594527487896 3.2924988943758865e-17 -7.29358211901215e-17 3.2924988943758865e-17 -7.29358211901215e-17 -0.6551958812919402 0.7554590373659709
12624685333.333334 -0.6486800113805523 0.7610612608950529 3.228427061248777e-17 -7.320457528929917e-17 3.228427061248777e-17 -7.320457528929917e-17 -0.6486804938566336 0.761060849662992
12625302666.666666 -0.6421167280016921 0.7666068794501143 3.164136943121416e-17 -7.346770635942532e-17 3.164136943121416e-17 -7.346770635942532e-17 -0.6421172139696638 0.7666064723987647
12625920000.0 -0.6355060367780198 0.7720958989779287 3.099633470117679e-17 -7.372519677131141e-17 3.099633470117679e-17 -7.372519677131141e-17 -0.6355065262016629 0.7720954961369327
12626537333.333334 -0.628848425780786 0.7775279142210069 3.03492158650723e-17 -7.397702932762025e-17 3.03492158650723e-17 -7.397702932762025e-17 -0.6288489186236299 0.7775275156196932
12627154666.666666 -0.6221443865452904 0.7829025241305746 2.9700062503269467e-17 -7.422318726399458e-17 2.9700062503269467e-17 -7.422318726399458e-17 -0.6221448827706163 0.7829021297979574
12627772000.0 -0.6153944140345228 0.7882193318962352 2.904892433001463e-17 -7.446365425015278e-17 2.904892433001463e-17 -7.446365425015278e-17 -0.6153949136053646 0.7882189418610085
12628389333.333334 -0.6085990066029958 0.7934779449749614 2.839585118964988e-17 -7.469841439094372e-17 2.839585118964988e-17 -7.469841439094372e-17 -0.6085995094821446 0.7934775592655001
12629006666.666666 -0.6017586659594626 0.7986779751204675 2.7740893052792805e-17 -7.492745222737877e-17 2.7740893052792805e-17 -7.492745222737877e-17 -0.6017591721094685 0.7986775937648241
12629624000.0 -0.5948738971302993 0.8038190384115392 2.7084100012532213e-17 -7.515075273762324e-17 2.7084100012532213e-17 -7.515075273762324e-17 -0.5948744065134753 0.8038186614374428
12630241333.333334 -0.5879452084219279 0.8089007552806078 2.642552228060061e-17 -7.536830133795851e-17 2.642552228060061e-17 -7.536830133795851e-17 -0.5879457210003516 0.8089003827154607
12630858666.666666 -0.5809731113834896 0.8139227505416157 2.5765210183565317e-17 -7.558008388370273e-17 2.5765210183565317e-17 -7.558008388370273e-17 -0.5809736271190068 0.8139223824124924
12631476000.0 -0.5739581207688961 0.8188846534178542 2.5103214158956403e-17 -7.578608667011676e-17 2.5103214158956403e-17 -7.578608667011676e-17 -0.5739586396231227 0.8188842897514987
12632093333.333334 -0.5669007544989839 0.8237860975692203 2.4439584751458898e-17 -7.5986296433253e-17 2.4439584751458898e-17 -7.5986296433253e-17 -0.5669012764333095 0.8237857383920446
12632710666.666666 -0.5598015336232091 0.8286267211193146 2.3774372609057442e-17 -7.61807003507842e-17 2.3774372609057442e-17 -7.61807003507842e-17 -0.5598020585987998 0.8286263664573968
12633328000.0 -0.552660982281128 0.8334061666821885 2.3107628479155196e-17 -7.636928604280496e-17 2.3107628479155196e-17 -7.636928604280496e-17 -0.55266151025893 0.8334058165612721
12633945333.333334 -0.545479627663751 0.8381240813887033 2.2439403204749456e-17 -7.655204157257924e-17 2.2439403204749456e-17 -7.655204157257924e-17 -0.5454801586044908 0.8381237358341913
12634562666.666666 -0.5382579999746852 0.8427801169125276 2.176974772053892e-17 -7.672895544727466e-17 2.176974772053892e-17 -7.672895544727466e-17 -0.5382585338388761 0.8427797759494859
12635180000.0 -0.5309966323908267 0.8473739294959707 2.1098713049060065e-17 -7.690001661865164e-17 2.1098713049060065e-17 -7.690001661865164e-17 -0.5309971691387696 0.8473735931491229
12635797333.333334 -0.5236960610231627 0.8519051799752515 2.042635029681429e-17 -7.706521448372069e-17 2.042635029681429e-17 -7.706521448372069e-17 -0.5236966006149487 0.8519048482689772
12636414666.666666 -0.5163568248771169 0.8563735338055849 1.9752710650381374e-17 -7.722453888536818e-17 1.9752710650381374e-17 -7.722453888536818e-17 -0.5163573672726316 0.8563732067639194
12637032000.0 -0.5089794658126814 0.8607786610859259 1.907784537252628e-17 -7.737798011294878e-17 1.907784537252628e-17 -7.737798011294878e-17 -0.5089800109716082 0.8607783387325589
12637649333.333334 -0.501564528504584 0.8651202365832258 1.8401805798323716e-17 -7.752552890283848e-17 1.8401805798323716e-17 -7.752552890283848e-17 -0.5015650763864049 0.8651199189414969
12638266666.666666 -0.49411256040187546 0.8693979397565564 1.7724643331247894e-17 -7.766717643896122e-17 1.7724643331247894e-17 -7.766717643896122e-17 -0.4941131109658761 0.869397626849456
12638884000.0 -0.48662411168770964 0.8736114547806647 1.7046409439280806e-17 -7.780291435327671e-17 1.7046409439280806e-17 -7.780291435327671e-17 -0.48662466489298145 0.873611146630831
12639501333.333334 -0.47909973523852545 0.8777604705694019 1.6367155651014866e-17 -7.79327347262344e-17 1.6367155651014866e-17 -7.79327347262344e-17 -0.47910029104396873 0.8777601671991195
12640118666.666666 -0.4715399865834495 0.8818446807985647 1.5686933551745963e-17 -7.805663008719548e-17 1.5686933551745963e-17 -7.805663008719548e-17 -0.47154054494777725 0.8818443822297646
12640736000.0 -0.4639454238629594 0.8858637839286924 1.5005794779548132e-17 -7.817459341482312e-17 1.5005794779548132e-17 -7.817459341482312e-17 -0.46394598474469906 0.8858634901829474
12641353333.333334 -0.456316607788124 0.8898174832270833 1.4323791021401476e-17 -7.828661813742944e-17 1.4323791021401476e-17 -7.828661813742944e-17 -0.4563171711456218 0.8898171943256094
12641970666.666666 -0.448654101598756 0.8937054867899464 1.3640974009239857e-17 -7.839269813330128e-17 1.3640974009239857e-17 -7.839269813330128e-17 -0.4486546673901788 0.8937052027535981
12642588000.0 -0.44095847102215324 0.8975275075637777 1.2957395516065977e-17 -7.849282773098083e-17 1.2957395516065977e-17 -7.849282773098083e-17 -0.44095903920549256 0.8975272284130497
12643205333.333334 -0.43323028423112975 0.9012832633666608 1.2273107352020208e-17 -7.858700170951958e-17 1.2273107352020208e-17 -7.858700170951958e-17 -0.43323085476420486 0.9012829891216846
12643822666.666666 -0.42547011180216787 0.9049724769090465 1.158816136046151e-17 -7.867521529869554e-17 1.158816136046151e-17 -7.867521529869554e-17 -0.42547068464262827 0.9049722075895893
12644440000.0 -0.4176785266732408 0.9085948758142505 1.0902609414067553e-17 -7.875746417919385e-17 1.0902609414067553e-17 -7.875746417919385e-17 -0.4176791017785709 0.9085946114397161
12645057333.333334 -0.40985610410156575 0.9121501926385421 1.0216503410900637e-17 -7.883374448275869e-17 1.0216503410900637e-17 -7.883374448275869e-17 -0.40985668142908543 0.912149933227964
12645674666.666666 -0.40200342162120745 0.9156381648908503 9.529895270495546e-18 -7.890405279230705e-17 9.529895270495546e-18 -7.890405279230705e-17 -0.40200400112807755 0.9156379104628959
12646292000.0 -0.3941210590000778 0.9190585350523106 8.842836929931631e-18 -7.896838614201112e-17 8.842836929931631e-18 -7.896838614201112e-17 -0.39412164064330235 0.9190582856252769
12646909333.333334 -0.38620959819767525 0.9224110505950329 8.155380339927604e-18 -7.902674201734392e-17 8.155380339927604e-18 -7.902674201734392e-17 -0.3862101819341048 0.9224108061868463
12647526666.666666 -0.3782696233216508 0.9256954640009523 7.467577460918815e-18 -7.907911835509309e-17 7.467577460918815e-18 -7.907911835509309e-17 -0.3782702091079853 0.9256952246291664
12648144000.0 -0.37030172058491695 0.9289115327800016 6.77948025912634e-18 -7.912551354334087e-17 6.77948025912634e-18 -7.912551354334087e-17 -0.3703023083777095 0.928911298461797
12648761333.333334 -0.36230647826228884 0.9320590194880468 6.091140702656427e-18 -7.916592642140824e-17 6.091140702656427e-18 -7.916592642140824e-17 -0.36230706801794865 0.9320587902402292
12649378666.666666 -0.3542844866471312 0.935137691744387 5.402610757592312e-18 -7.920035627976573e-17 5.402610757592312e-18 -7.920035627976573e-17 -0.3542850783219267 0.9351374675833858
12649996000.0 -0.3462363380077236 0.9381473222489329 4.7139423840561955e-18 -7.922880285991213e-17 4.7139423840561955e-18 -7.922880285991213e-17 -0.34623693155778584 0.9381471031908009
12650613333.333334 -0.3381626265434531 0.941087688799017 4.025187532311486e-18 -7.925126635421719e-17 4.025187532311486e-18 -7.925126635421719e-17 -0.33816322192477904 0.941087474859428
12651230666.666666 -0.33006394834113023 0.9439585743057296 3.3363981388695615e-18 -7.926774740573014e-17 3.3363981388695615e-18 -7.926774740573014e-17 -0.33006454550958614 0.9439583654999791
12651848000.0 -0.3219409013307941 0.9467597668100174 2.647626122545035e-18 -7.927824710795735e-17 2.647626122545035e-18 -7.927824710795735e-17 -0.32194150024211826 0.9467595631530195
12652465333.333334 -0.3137940852416179 0.9494910594983078 1.9589233805904592e-18 -7.928276700460214e-17 1.9589233805904592e-18 -7.928276700460214e-17 -0.3137946858514244 0.9494908610045956
12653082666.666666 -0.3056241015578477 0.9521522507177097 1.270341784780131e-18 -7.928130908927399e-17 1.270341784780131e-18 -7.928130908927399e-17 -0.3056247038216297 0.9521520574014337
12653700000.0 -0.2974315534739363 0.9547431439910551 5.819331774973007e-19 -7.927387580516217e-17 5.819331774973007e-19 -7.927387580516217e-17 -0.29743215734706874 0.9547429558659809
12654317333.333334 -0.28921704585046626 0.9572635480312478 -1.062506321207642e-19 -7.926047004467654e-17 -1.062506321207642e-19 -7.926047004467654e-17 -0.28921765128821025 0.9572633651107584
12654934666.666666 -0.28098118516930587 0.9597132767554563 -7.941578721080864e-19 -7.924109514905419e-17 -7.941578721080864e-19 -7.924109514905419e-17 -0.28098179212681124 0.9597130990525488
12655552000.0 -0.2727245794886404 0.9620921492989054 -1.4817368115481276e-18 -7.92157549079325e-17 -1.4817368115481276e-18 -7.92157549079325e-17 -0.2727251879209489 0.9620919768261896
12656169333.333334 -0.2644478383985418 0.9643999900280913 -2.168935764427088e-18 -7.918445355888924e-17 -2.168935764427088e-18 -7.918445355888924e-17 -0.26444844826059066 0.9643998227977894
12656786666.666666 -0.25615157297549895 0.9666366285538849 -2.855703093545356e-18 -7.914719578694792e-17 -2.855703093545356e-18 -7.914719578694792e-17 -0.25615218422212466 0.9666364665778323
12657404000.0 -0.24783639573751987 0.9688018997440483 -3.541987214369725e-18 -7.910398672405064e-17 -3.541987214369725e-18 -7.910398672405064e-17 -0.24783700832346098 0.9688017430336913
12658021333.333334 -0.2395029205989372 0.9708956437354231 -4.227736598895894e-18 -7.905483194849711e-17 -4.227736598895894e-18 -7.905483194849711e-17 -0.23950353447883746 0.9708954923018164
12658638666.666666 -0.23115176282502675 0.9729177059457421 -4.912899779511988e-18 -7.899973748435065e-17 -4.912899779511988e-18 -7.899973748435065e-17 -0.231152377953439 0.9729175597995509
12659256000.0 -0.2227835389865275 0.9748679370850603 -5.5974253528559646e-18 -7.893870980080984e-17 -5.5974253528559646e-18 -7.893870980080984e-17 -0.222784155317917 0.9748677962365586
12659873333.333334 -0.21439886691417517 0.9767461931667616 -6.281261983657714e-18 -7.887175581154786e-17 -6.281261983657714e-18 -7.887175581154786e-17 -0.21439948440292267 0.9767460576258311
12660490666.666666 -0.20599836565316987 0.9785523355181702 -6.964358408572335e-18 -7.87988828740192e-17 -6.964358408572335e-18 -7.87988828740192e-17 -0.20599898425357516 0.9785522052942995
12661108000.0 -0.1975826554172782 0.9802862307908334 -7.64666344002883e-18 -7.87200987887306e-17 -7.64666344002883e-18 -7.87200987887306e-17 -0.19758327508356352 0.9802861058931185
12661725333.333334 -0.18915235754323656 0.9819477509703243 -8.328125970038104e-18 -7.863541179848287e-17 -8.328125970038104e-18 -7.863541179848287e-17 -0.18915297822954985 0.9819476314074664
12662342666.666666 -0.18070809444479433 0.9835367733857103 -9.008694974029183e-18 -7.85448305875752e-17 -9.008694974029183e-18 -7.85448305875752e-17 -0.1807087161052127 0.9835366591660161
12662960000.0 -0.17225048956670463 0.9850531807186218 -9.68831951464195e-18 -7.844836428098108e-17 -9.68831951464195e-18 -7.844836428098108e-17 -0.1722511121552379 0.9850530718500029
12663577333.333334 -0.16378016733875092 0.986496861011901 -1.0366948745547574e-17 -7.834602244348707e-17 -1.0366948745547574e-17 -7.834602244348707e-17 -0.1637807908093446 0.9864967575018728
12664194666.666666 -0.15529775312972904 0.9878677076778549 -1.1044531915224841e-17 -7.823781507880292e-17 -1.1044531915224841e-17 -7.823781507880292e-17 -0.15529837743626834 0.9878676095335375
12664812000.0 -0.14680387320107988 0.989165619506159 -1.1721018370761371e-17 -7.8123752628635e-17 -1.1721018370761371e-17 -7.8123752628635e-17 -0.14680449829739245 0.9891655267342738
12665429333.333334 -0.13829915466084816 0.9903905006712944 -1.2396357561625809e-17 -7.800384597172942e-17 -1.2396357561625809e-17 -7.800384597172942e-17 -0.13829978050070818 0.9903904132781673
12666046666.666666 -0.1297842254172988 0.9915422607396392 -1.307049904341765e-17 -7.787810642288528e-17 -1.307049904341765e-17 -7.787810642288528e-17 -0.12978485195442976 0.9915421787311972
12666664000.0 -0.12125971413247334 0.9926208146761546 -1.3743392481662873e-17 -7.77465457319259e-17 -1.3743392481662873e-17 -7.77465457319259e-17 -0.12126034132055206 0.992620738057928
12667281333.333334 -0.11272625017597303 0.9936260828506399 -1.4414987655524678e-17 -7.76091760826509e-17 -1.4414987655524678e-17 -7.76091760826509e-17 -0.11272687796863258 0.9936260116277591
12667898666.666666 -0.10418446357829436 0.9945579910436324 -1.508523446155727e-17 -7.746601009174668e-17 -1.508523446155727e-17 -7.746601009174668e-17 -0.10418509192912782 0.99455792522083
12668516000.0 -0.09563498498439828 0.9954164704518791 -1.5754082917446947e-17 -7.731706080766421e-17 -1.5754082917446947e-17 -7.731706080766421e-17 -0.09563561384696204 0.9954164100334885
12669133333.333334 -0.08707844560723428 0.9962014576934077 -1.6421483165703258e-17 -7.716234170947387e-17 -1.6421483165703258e-17 -7.716234170947387e-17 -0.0870790749350514 0.9962014026833623
12669750666.666666 -0.07851547718093954 0.996912894812226 -1.708738547738085e-17 -7.70018667056788e-17 -1.708738547738085e-17 -7.70018667056788e-17 -0.07851610692750328 0.9969128452140594
12670368000.0 -0.06994671191439558 0.9975507292825807 -1.775174025577931e-17 -7.683565013299892e-17 -1.775174025577931e-17 -7.683565013299892e-17 -0.06994734203317285 0.9975506850994275
