! Parameters = {f0=12700.012000; bw=77.238000; Q=6100.000000; N=10; m_0_1=1.272768; m_1_1=0.326771; m_1_2=1.107580; m_2_2=0.326122; m_2_3=0.744543; m_2_8=0.000702; m_2_9=0.037406; m_3_3=0.324185; m_3_4=0.633072; m_3_7=0.001302; m_3_8=-0.095786; m_3_9=0.000702; m_4_4=0.321260; m_4_5=0.469407; m_4_6=0.004819; m_4_7=-0.116335; m_4_8=0.001302; m_5_5=0.321642; m_5_6=0.876762; m_5_7=0.004819; m_6_6=0.321641; m_6_7=0.469749; m_7_7=0.321274; m_7_8=0.633190; m_8_8=0.324183; m_8_9=0.744856; m_9_9=0.326117; m_9_10=1.108658; m_10_10=0.326761; m_10_11=1.273563}
!
! Created with skrf (http://scikit-rf.org).
# Hz S RI R 50.0 
!freq ReS11 ImS11 ReS21 ImS21 ReS12 ImS12 ReS22 ImS22
12607400000.0 0.616833686414615 -0.7870935162380512 -4.121975178864069e-17 1.0419645982463938e-16 -4.121975178864069e-17 1.0419645982463938e-16 0.6168342142115883 -0.7870931026109904
12608017333.333334 0.6084522129164149 -0.7935905144323115 -4.009534253763849e-17 1.0461078586479181e-16 -4.009534253763849e-17 1.0461078586479181e-16 0.6084527450439928 -0.7935901064455457
12608634666.666666 0.6000023128335799 -0.7999982653694808 -3.896678850163473e-17 1.0501298685183513e-16 -3.896678850163473e-17 1.0501298685183513e-16 0.600002849231498 -0.7999978630683378
12609252000.0 0.5914849364426273 -0.8063160484334188 -3.783422033835165e-17 1.0540302154814344e-16 -3.783422033835165e-17 1.0540302154814344e-16 0.5914854770501478 -0.8063156518625826
12609869333.333334 0.5829010416084432 -0.8125431531257987 -3.6697769113219484e-17 1.0578085012305605e-16 -3.6697769113219484e-17 1.0578085012305605e-16 0.5829015863643592 -0.812542762329304
12610486666.666666 0.5742515936766721 -0.818678879145923 -3.555756628426654e-17 1.0614643415686894e-16 -3.555756628426654e-17 1.0614643415686894e-16 0.5742521425193178 -0.8186784941671518
12611104000.0 0.565537565364904 -0.8247225364696659 -3.4413743686873623e-17 1.0649973664469569e-16 -3.4413743686873623e-17 1.0649973664469569e-16 0.5655381182321595 -0.8247221573513415
12611721333.333334 0.5567599366536043 -0.8306734454268394 -3.326643351864245e-17 1.0684072200011523e-16 -3.326643351864245e-17 1.0684072200011523e-16 0.556760493482903 -0.8306730722110215
12612338666.666666 0.5479196946756747 -0.8365309367777968 -3.2115768324080404e-17 1.0716935605870467e-16 -3.2115768324080404e-17 1.0716935605870467e-16 0.5479202554040106 -0.8365305695058768
12612956000.0 0.5390178336054123 -0.8422943517887024 -3.0961880979330054e-17 1.0748560608138175e-16 -3.0961880979330054e-17 1.0748560608138175e-16 0.5390183981693473 -0.8422939905014004
12613573333.333334 0.5300553545470165 -0.8479630423054181 -2.980490467687662e-17 1.0778944075758264e-16 -2.980490467687662e-17 1.0778944075758264e-16 0.5300559228826871 -0.8479626870427761
12614190666.666666 0.5210332654216214 -0.8535363708266362 -2.8644972910169676e-17 1.0808083020828959e-16 -2.8644972910169676e-17 1.0808083020828959e-16 0.5210338374647471 -0.8535360216280166
12614808000.0 0.5119525808541621 -0.8590137105754395 -2.7482219458262777e-17 1.083597459888815e-16 -2.7482219458262777e-17 1.083597459888815e-16 0.5119531565400511 -0.8590133674795175
12615425333.333334 0.5028143220592202 -0.8643944455698159 -2.631677837040788e-17 1.0862616109182437e-16 -2.631677837040788e-17 1.0862616109182437e-16 0.502814901322777 -0.8643941086145763
12616042666.666666 0.4936195167261784 -0.869677970691933 -2.5148783950628075e-17 1.088800499491959e-16 -2.5148783950628075e-17 1.088800499491959e-16 0.4936200995019121 -0.8696776399146671
12616660000.0 0.4843691989036456 -0.8748636917561873 -2.3978370742267167e-17 1.0912138843504396e-16 -2.3978370742267167e-17 1.0912138843504396e-16 0.4843697851256772 -0.8748633671934886
12617277333.333334 0.4750644088831448 -0.8799510255760441 -2.2805673512514867e-17 1.0935015386758063e-16 -2.2805673512514867e-17 1.0935015386758063e-16 0.4750649984852137 -0.8799507072638032
12617894666.666666 0.46570619308224537 -0.884939400029553 -2.163082723693124e-17 1.0956632501120645e-16 -2.163082723693124e-17 1.0956632501120645e-16 0.4657067859977173 -0.8849390880029537
12618512000.0 0.45629560392660795 -0.8898282541238365 -2.045396708390338e-17 1.0976988207837814e-16 -2.045396708390338e-17 1.0976988207837814e-16 0.4562962000884826 -0.8898279484173528
12619129333.333334 0.4468336997319788 -0.8946170380579922 -1.9275228399164212e-17 1.0996080673129547e-16 -1.9275228399164212e-17 1.0996080673129547e-16 0.4468342990728974 -0.8946167387053835
12619746666.666666 0.43732154458492173 -0.8993052132850567 -1.8094746690222106e-17 1.1013908208343544e-16 -1.8094746690222106e-17 1.1013908208343544e-16 0.4373221470371746 -0.899304920319365
12620364000.0 0.42776020822312255 -0.9038922525725803 -1.6912657610806185e-17 1.1030469270091477e-16 -1.6912657610806185e-17 1.1030469270091477e-16 0.4277608137186569 -0.9038919660261262
12620981333.333334 0.41815076591542044 -0.9083776400617591 -1.5729096945345024e-17 1.1045762460367975e-16 -1.5729096945345024e-17 1.1045762460367975e-16 0.4181513743858475 -0.9083773599661377
12621598666.666666 0.40849429834047113 -0.912760871325644 -1.454420059334536e-17 1.1059786526654238e-16 -1.454420059334536e-17 1.1059786526654238e-16 0.40849490971707497 -0.912760597711723
12622216000.0 0.39879189146544747 -0.9170414534257623 -1.3358104553842319e-17 1.1072540362003863e-16 -1.3358104553842319e-17 1.1072540362003863e-16 0.3987925056791915 -0.9170411863236763
12622833333.333334 0.3890446364238306 -0.9212189049675829 -1.2170944909806678e-17 1.1084023005112568e-16 -1.2170944909806678e-17 1.1084023005112568e-16 0.3890452534053665 -0.9212186444067324
12623450666.666666 0.37925362939280877 -0.925292756154616 -1.0982857812570592e-17 1.1094233640370937e-16 -1.0982857812570592e-17 1.1094233640370937e-16 0.379254249072483 -0.9252925021636619
12624068000.0 0.36941997146986794 -0.9292625488412976 -9.793979466223328e-18 1.1103171597900825e-16 -9.793979466223328e-18 1.1103171597900825e-16 0.3694205937777313 -0.9292623014481606
12624685333.333334 0.359544768548937 -0.933127836584524 -8.604446112019574e-18 1.1110836353574902e-16 -8.604446112019574e-18 1.1110836353574902e-16 0.35954539341475084 -0.933127595816379
12625302666.666666 0.349629131196282 -0.9368881846937527 -7.414394012824445e-18 1.1117227529019348e-16 -7.414394012824445e-18 1.1117227529019348e-16 0.3496297585495272 -0.9368879505770275
12625920000.0 0.33967417452518855 -0.9405431702800541 -6.223959437483037e-18 1.1122344891600383e-16 -6.223959437483037e-18 1.1122344891600383e-16 0.339674804295073 -0.9405429428404253
12626537333.333334 0.3296810180710335 -0.9440923823034846 -5.03327864528713e-18 1.112618835439361e-16 -5.03327864528713e-18 1.112618835439361e-16 0.32968165018650064 -0.9440921615658767
12627154666.666666 0.3196507856650648 -0.9475354216194398 -3.8424878703857905e-18 1.1128757976137076e-16 -3.8424878703857905e-18 1.1128757976137076e-16 0.31965142005480074 -0.9475352076080196
12627772000.0 0.30958460530795806 -0.9508719010235497 -2.65172330620495e-18 1.1130053961167647e-16 -2.65172330620495e-18 1.1130053961167647e-16 0.3095852419004005 -0.9508716937617262
12628389333.333334 0.2994836090433127 -0.9541014452951085 -1.461121089940985e-18 1.1130076659340578e-16 -1.461121089940985e-18 1.1130076659340578e-16 0.29948424776665866 -0.9541012448055302
12629006666.666666 0.2893489328299382 -0.9572236912394093 -2.7081728697506863e-19 1.1128826565932753e-16 -2.7081728697506863e-19 1.1128826565932753e-16 0.28934957361215163 -0.9572234975439586
12629624000.0 0.2791817164143993 -0.9602382877284854 9.190521246159504e-19 1.1126304321529107e-16 9.190521246159504e-19 1.1126304321529107e-16 0.2791823591832205 -0.9602381008482815
12630241333.333334 0.26898310320268004 -0.9631448957406565 2.1083512695895573e-18 1.1122510711892674e-16 2.1083512695895573e-18 1.1122510711892674e-16 0.26898374788563223 -0.9631447156960484
12630858666.666666 0.2587542401317579 -0.9659431883986035 3.2969443909960163e-18 1.111744666781801e-16 3.2969443909960163e-18 1.111744666781801e-16 0.2587548866561567 -0.9659430152091703
12631476000.0 0.24849627754031942 -0.9686328510062147 4.484695865702579e-18 1.1111113264967984e-16 4.484695865702579e-18 1.1111113264967984e-16 0.24849692583328006 -0.9686326846907619
12632093333.333334 0.23821036903972065 -0.9712135810838842 5.671470219788909e-18 1.1103511723694392e-16 5.671470219788909e-18 1.1103511723694392e-16 0.23821101902816685 -0.9712134216604432
12632710666.666666 0.22789767138419922 -0.9736850884025507 6.85713214399527e-18 1.1094643408841829e-16 6.85713214399527e-18 1.1094643408841829e-16 0.22789832299487095 -0.9736849358883752
12633328000.0 0.21755934434048033 -0.9760470950164047 8.041546509139455e-18 1.1084509829535056e-16 8.041546509139455e-18 1.1084509829535056e-16 0.21755999749994262 -0.9760469494279713
12633945333.333334 0.20719655055770972 -0.9782993352940652 9.224578381463058e-18 1.1073112638950374e-16 9.224578381463058e-18 1.1073112638950374e-16 0.2071972051923602 -0.978299196647068
12634562666.666666 0.19681045543653464 -0.9804415559484848 1.0406093037993442e-17 1.1060453634070176e-16 1.0406093037993442e-17 1.1060453634070176e-16 0.19681111147261277 -0.9804414242578384
12635180000.0 0.1864022269980723 -0.982473516065437 1.158595598185682e-17 1.1046534755421437e-16 1.158595598185682e-17 1.1046534755421437e-16 0.18640288436166658 -0.9824733913452692
12635797333.333334 0.17597303575252432 -0.9843949871306054 1.2764032957565719e-17 1.1031358086797763e-16 1.2764032957565719e-17 1.1031358086797763e-16 0.1759736943695816 -0.9843948693942611
12636414666.666666 0.1655240545676543 -0.9862057530552679 1.3940189966257228e-17 1.101492585496535e-16 1.3940189966257228e-17 1.101492585496535e-16 0.16552471436398764 -0.9862056423153052
12637032000.0 0.15505645853671846 -0.9879056102006271 1.511429328092733e-17 1.0997240429352402e-16 1.511429328092733e-17 1.0997240429352402e-16 0.15505711943801562 -0.9879055064688161
12637649333.333334 0.1445714248464271 -0.9894943674006931 1.6286209461596827e-17 1.0978304321722701e-16 1.6286209461596827e-17 1.0978304321722701e-16 0.14457208677825853 -0.9894942706880128
12638266666.666666 0.13407013264452905 -0.9909718459837809 1.7455805370454306e-17 1.0958120185832875e-16 1.7455805370454306e-17 1.0958120185832875e-16 0.13407079553235696 -0.9909717563004223
12638884000.0 0.12355376290717741 -0.9923378797926136 1.862294818695537e-17 1.093669081707357e-16 1.862294818695537e-17 1.093669081707357e-16 0.12355442667636372 -0.9923377971479764
12639501333.333334 0.11302349830620124 -0.9935923152029972 1.9787505422886052e-17 1.0914019152094525e-16 1.9787505422886052e-17 1.0914019152094525e-16 0.11302416288201574 -0.9935922396056857
12640118666.666666 0.10248052307610175 -0.9947350111410935 2.094934493734203e-17 1.0890108268414346e-16 2.094934493734203e-17 1.0890108268414346e-16 0.10248118838373126 -0.9947349425989221
12640736000.0 0.09192602288053502 -0.9957658390993287 2.2108334951779926e-17 1.086496138401212e-16 2.2108334951779926e-17 1.086496138401212e-16 0.0919266888450911 -0.9957657776193161
12641353333.333334 0.08136118467962146 -0.9966846831507707 2.3264344064820294e-17 1.0838581856907053e-16 2.3264344064820294e-17 1.0838581856907053e-16 0.08136185122614911 -0.9966846287391397
12641970666.666666 0.07078719659586674 -0.9974914399622294 2.441724126721808e-17 1.0810973184717968e-16 2.441724126721808e-17 1.0810973184717968e-16 0.07078786364935297 -0.9974913926244091
12642588000.0 0.06020524778082831 -0.99818601880585 2.55668959566372e-17 1.0782139004209938e-16 2.55668959566372e-17 1.0782139004209938e-16 0.06020591526621041 -0.9981859785464735
12643205333.333334 0.049616528281355037 -0.9987683415693197 2.6713177952425397e-17 1.0752083090824143e-16 2.6713177952425397e-17 1.0752083090824143e-16 0.04961719612352902 -0.9987683083922229
12643822666.666666 0.039022228905640895 -0.9992383427646572 2.785595751034111e-17 1.0720809358191874e-16 2.785595751034111e-17 1.0720809358191874e-16 0.03902289702947002 -0.9992383166728798
12644440000.0 0.028423541089448532 -0.9995959695355716 2.899510533719737e-17 1.0688321857633658e-16 2.899510533719737e-17 1.0688321857633658e-16 0.028424209419771675 -0.9995959505313555
12645057333.333334 0.017821656762063477 -0.9998411816634072 3.013049260546656e-17 1.0654624777642308e-16 3.013049260546656e-17 1.0654624777642308e-16 0.017822325223703667 -0.9998411697481975
12645674666.666666 0.0072177682123634596 -0.9999739515716678 3.126199096782348e-17 1.0619722443350688e-16 3.126199096782348e-17 1.0619722443350688e-16 0.0072184367301363 -0.999973946746112
12646292000.0 -0.0033869320456359677 -0.9999942643291216 3.238947257164858e-17 1.0583619315983301e-16 3.238947257164858e-17 1.0583619315983301e-16 -0.0033862635469138463 -0.999994266593071
12646909333.333334 -0.013991251406408584 -0.9999021176514763 3.351281007340907e-17 1.0546319992294473e-16 3.351281007340907e-17 1.0546319992294473e-16 -0.013990583001911066 -0.9999021270039832
12647526666.666666 -0.024593997307350568 -0.9996975219016346 3.463187665304532e-17 1.0507829203989098e-16 3.463187665304532e-17 1.0507829203989098e-16 -0.024593329072233633 -0.9996975383409566
12648144000.0 -0.03519397736286783 -0.9993805000885325 3.5746546028258615e-17 1.046815181712918e-16 3.5746546028258615e-17 1.046815181712918e-16 -0.035193309372261054 -0.9993805236121288
12648761333.333334 -0.04578999949835801 -0.9989510878645482 3.685669246872612e-17 1.0427292831525508e-16 3.685669246872612e-17 1.0427292831525508e-16 -0.0457893318273561 -0.9989511184690812
12649378666.666666 -0.0563808720842714 -0.9984093335214974 3.7962190810244285e-17 1.0385257380114399e-16 3.7962190810244285e-17 1.0385257380114399e-16 -0.05638020480792588 -0.9984093712028351
12649996000.0 -0.06696540407026375 -0.9977552979851974 3.906291646884655e-17 1.0342050728317911e-16 3.906291646884655e-17 1.0342050728317911e-16 -0.06696473726357434 -0.9977553427384115
12650613333.333334 -0.07754240511905644 -0.9969890548086152 4.015874545479559e-17 1.0297678273390982e-16 4.015874545479559e-17 1.0297678273390982e-16 -0.0775417388569628 -0.9969891066279825
12651230666.666666 -0.08811068574018878 -0.9961106901636063 4.1249554386514705e-17 1.0252145543753488e-16 4.1249554386514705e-17 1.0252145543753488e-16 -0.08811002009756205 -0.9961107490426109
12651848000.0 -0.09866905742407162 -0.9951203028312048 4.2335220504481595e-17 1.020545819830594e-16 4.2335220504481595e-17 1.020545819830594e-16 -0.09866839247570584 -0.9951203687625352
12652465333.333334 -0.10921633277542012 -0.9940180041905241 4.341562168499066e-17 1.0157622025732837e-16 4.341562168499066e-17 1.0157622025732837e-16 -0.10921566859602408 -0.9940180771660784
12653082666.666666 -0.11975132564667586 -0.9928039182062529 4.449063645386358e-17 1.0108642943790426e-16 4.449063645386358e-17 1.0108642943790426e-16 -0.11975066231086454 -0.9928039982171373
12653700000.0 -0.13027285127185315 -0.9914781814146627 4.556014400010854e-17 1.0058526998578625e-16 4.556014400010854e-17 1.0058526998578625e-16 -0.1302721888541393 -0.9914782684511927
12654317333.333334 -0.14077972639926917 -0.9900409429083079 4.662402418943001e-17 1.0007280363801711e-16 4.662402418943001e-17 1.0007280363801711e-16 -0.14077906497405532 -0.9900410369600113
12654934666.666666 -0.1512707694249237 -0.988492364319227 4.7682157577724344e-17 9.954909340011587e-17 4.7682157577724344e-17 9.954909340011587e-17 -0.15127010906649327 -0.9884924653748429
12655552000.0 -0.16174480052538148 -0.9868326198007584 4.8734425424462366e-17 9.901420353838082e-17 4.8734425424462366e-17 9.901420353838082e-17 -0.16174414130789078 -0.9868327278482394
12656169333.333334 -0.17220064179020253 -0.9850618960079955 4.9780709705961564e-17 9.846819957206483e-17 4.9780709705961564e-17 9.846819957206483e-17 -0.17219998378767215 -0.9850620110345081
12656786666.666666 -0.18263711735469068 -0.9831803920767502 5.082089312862428e-17 9.791114826538389e-17 5.082089312862428e-17 9.791114826538389e-17 -0.18263646064099767 -0.9831805140686796
12657404000.0 -0.19305305353199198 -0.9811883196011855 5.1854859142045283e-17 9.734311761940712e-17 5.1854859142045283e-17 9.734311761940712e-17 -0.19305239818086095 -0.9811884485441328
12658021333.333334 -0.20344727894517003 -0.9790859026099966 5.288249195205157e-17 9.676417686379748e-17 5.288249195205157e-17 9.676417686379748e-17 -0.20344662503016528 -0.9790860384887833
12658638666.666666 -0.21381862465868917 -0.976873377541271 5.390367653361511e-17 9.617439644843514e-17 5.390367653361511e-17 9.617439644843514e-17 -0.2138179722532067 -0.976873520339942
12659256000.0 -0.22416592431031915 -0.9745509932158111 5.491829864375443e-17 9.557384803485803e-17 5.491829864375443e-17 9.557384803485803e-17 -0.22416527348757762 -0.9745511429176325
12659873333.333334 -0.23448801424194132 -0.9721190108092198 5.592624483423837e-17 9.496260448762658e-17 5.592624483423837e-17 9.496260448762658e-17 -0.23448736507497406 -0.9721191673966828
12660490666.666666 -0.24478373363044242 -0.9695777038225282 5.692740246424588e-17 9.434073986552488e-17 5.692740246424588e-17 9.434073986552488e-17 -0.24478308619209002 -0.9695778672773528
12661108000.0 -0.2550519246185374 -0.9669273580513711 5.792165971296573e-17 9.370832941260545e-17 5.792165971296573e-17 9.370832941260545e-17 -0.25505127898143876 -0.9669275283545072
12661725333.333334 -0.2652914324445959 -0.9641682715539431 5.890890559201003e-17 9.30654495491569e-17 5.890890559201003e-17 9.30654495491569e-17 -0.26529078868118044 -0.9641684486855715
12662342666.666666 -0.27550110557281 -0.9613007546174008 5.988902995780662e-17 9.24121778624898e-17 5.988902995780662e-17 9.24121778624898e-17 -0.27550046375528875 -0.9613009385569354
12662960000.0 -0.2856797958225573 -0.9583251297230012 6.0861923523846e-17 9.17485930976224e-17 6.0861923523846e-17 9.17485930976224e-17 -0.28567915602291605 -0.9583253204490938
12663577333.333334 -0.2958263584975541 -0.9552417315098316 6.18274778728408e-17 9.107477514782673e-17 6.18274778728408e-17 9.107477514782673e-17 -0.2958257207875447 -0.955241929000373
12664194666.666666 -0.30593965251458805 -0.9520509067371754 6.278558546877879e-17 9.039080504504937e-17 6.278558546877879e-17 9.039080504504937e-17 -0.3059390169657199 -0.9520511109692971
12664812000.0 -0.3160185405318436 -0.9487530142455144 6.373613966887039e-17 8.969676495020566e-17 6.373613966887039e-17 8.969676495020566e-17 -0.31601790721537654 -0.9487532251955921
12665429333.333334 -0.3260618890768614 -0.9453484249161539 6.4679034735392e-17 8.899273814334673e-17 6.4679034735392e-17 8.899273814334673e-17 -0.3260612580637973 -0.9453486425598113
12666046666.666666 -0.336068568673768 -0.9418375216296011 6.561416584740615e-17 8.827880901371369e-17 6.561416584740615e-17 8.827880901371369e-17 -0.33606794003484264 -0.94183774594171
12666664000.0 -0.3460374539707524 -0.9382206992223445 6.654142911241244e-17 8.755506304963917e-17 6.654142911241244e-17 8.755506304963917e-17 -0.3460368277764274 -0.9382209301770298
12667281333.333334 -0.3559674238661398 -0.9344983644426189 6.746072157782562e-17 8.682158682837411e-17 6.746072157782562e-17 8.682158682837411e-17 -0.35596680018659566 -0.9344986020132618
12667898666.666666 -0.3658573616347667 -0.9306709359045611 6.837194124240094e-17 8.607846800574844e-17 6.837194124240094e-17 8.607846800574844e-17 -0.3658567405398941 -0.9306711800638013
12668516000.0 -0.37570615505356714 -0.9267388440411302 6.927498706752199e-17 8.532579530573179e-17 6.927498706752199e-17 8.532579530573179e-17 -0.37570553661295875 -0.9267390947608678
12669133333.333334 -0.3855126965264128 -0.9227025310557884 7.016975898835452e-17 8.456365850989179e-17 7.016975898835452e-17 8.456365850989179e-17 -0.38551208080935695 -0.9227027883071905
12669750666.666666 -0.3952758832089412 -0.9185624508726754 7.105615792491848e-17 8.3792148446708e-17 7.105615792491848e-17 8.3792148446708e-17 -0.3952752702844123 -0.9185627146261757
12670368000.0 -0.40499461713247237 -0.914319069085593 7.193408579303395e-17 8.301135698077867e-17 7.193408579303395e-17 8.301135698077867e-17 -0.4049940070691248 -0.9143193393108984
