! Parameters = {f0=12700.012000; bw=77.238000; Q=6100.000000; N=10; m_0_1=1.212507; m_1_1=-0.577133; m_1_2=1.047319; m_2_2=-0.577782; m_2_3=0.684282; m_2_8=-0.002311; m_2_9=0.034393; m_3_3=-0.579719; m_3_4=0.572811; m_3_7=-0.001711; m_3_8=-0.098799; m_3_9=-0.002311; m_4_4=-0.582644; m_4_5=0.409146; m_4_6=0.001806; m_4_7=-0.119348; m_4_8=-0.001711; m_5_5=-0.582262; m_5_6=0.816501; m_5_7=0.001806; m_6_6=-0.582263; m_6_7=0.409488; m_7_7=-0.582630; m_7_8=0.572929; m_8_8=-0.579721; m_8_9=0.684595; m_9_9=-0.577787; m_9_10=1.048397; m_10_10=-0.577143; m_10_11=1.213302}
!
! Created with skrf (http://scikit-rf.org).
# Hz S RI R 50.0 
!freq ReS11 ImS11 ReS21 ImS21 ReS12 ImS12 ReS22 ImS22
12607400000.0 -0.5882987361043847 -0.8086436774611072 6.640904107712645e-17 5.088736331652013e-17 6.640904107712645e-17 5.088736331652013e-17 -0.5882982194442244 -0.808644053337805
12608017333.333334 -0.5954106639907223 -0.803421521497879 6.684681118979656e-17 5.028366213455781e-17 6.684681118979656e-17 5.028366213455781e-17 -0.5954101506922461 -0.8034219018999147
12608634666.666666 -0.6024762388982615 -0.7981368188242202 6.727909976182864e-17 4.967620304509357e-17 6.727909976182864e-17 4.967620304509357e-17 -0.6024757290010986 -0.7981372037215372
12609252000.0 -0.6094949107690086 -0.7927899808565432 6.770587460910953e-17 4.906503576288777e-17 6.770587460910953e-17 4.906503576288777e-17 -0.6094944043125202 -0.7927903702187389
12609869333.333334 -0.6164661331963945 -0.7873814238485211 6.812710399790961e-17 4.845021027765519e-17 6.812710399790961e-17 4.845021027765519e-17 -0.6164656302196695 -0.787381817644848
12610486666.666666 -0.6233893634677412 -0.7819115688587324 6.854275664722697e-17 4.7831776849987334e-17 6.854275664722697e-17 4.7831776849987334e-17 -0.6233888640095935 -0.7819119670581002
12611104000.0 -0.630264062606671 -0.7763808417177578 6.895280173110225e-17 4.720978600724285e-17 6.895280173110225e-17 4.720978600724285e-17 -0.6302635667056377 -0.7763812442887372
12611721333.333334 -0.6370896954148878 -0.7707896729951722 6.935720888087131e-17 4.6584288539455805e-17 6.935720888087131e-17 4.6584288539455805e-17 -0.6370892031092248 -0.7707900799059965
12612338666.666666 -0.6438657305139982 -0.7651384979658999 6.9755948187405e-17 4.5955335495189426e-17 6.9755948187405e-17 4.5955335495189426e-17 -0.6438652418416777 -0.7651389091844675
12612956000.0 -0.6505916403868122 -0.759427756576382 7.014899020331098e-17 4.532297817737074e-17 7.014899020331098e-17 4.532297817737074e-17 -0.6505911553855195 -0.7594281720702584
12613573333.333334 -0.657266901418344 -0.7536578934103776 7.053630594507498e-17 4.468726813914243e-17 7.053630594507498e-17 4.468726813914243e-17 -0.657266420125476 -0.7536583131468003
12614190666.666666 -0.6638909939367309 -0.7478293576542304 7.091786689518874e-17 4.404825717965869e-17 7.091786689518874e-17 4.404825717965869e-17 -0.6638905163893916 -0.7478297816001087
12614808000.0 -0.6704634022535152 -0.7419426030620426 7.129364500423271e-17 4.340599733987516e-17 7.129364500423271e-17 4.340599733987516e-17 -0.6704629284885134 -0.7419430311839621
12615425333.333334 -0.6769836147039425 -0.7359980879202231 7.166361269291648e-17 4.27605408983272e-17 7.166361269291648e-17 4.27605408983272e-17 -0.6769831447577882 -0.7359985201844461
12616042666.666666 -0.6834511236867259 -0.7299962750118596 7.202774285408041e-17 4.2111940366893196e-17 7.202774285408041e-17 4.2111940366893196e-17 -0.6834506575956305 -0.729996711384332
12616660000.0 -0.6898654257035088 -0.7239376315807575 7.238600885466999e-17 4.146024848652276e-17 7.238600885466999e-17 4.146024848652276e-17 -0.6898649635033773 -0.7239380720271057
12617277333.333334 -0.6962260213981997 -0.7178226292949205 7.273838453766048e-17 4.080551822296648e-17 7.273838453766048e-17 4.080551822296648e-17 -0.6962255631246329 -0.7178230737804595
12617894666.666666 -0.7025324155956879 -0.7116517442099938 7.308484422394355e-17 4.0147802762489865e-17 7.308484422394355e-17 4.0147802762489865e-17 -0.7025319612839764 -0.7116521926997263
12618512000.0 -0.7087841173405546 -0.7054254567320425 7.342536271418644e-17 3.948715550755056e-17 7.342536271418644e-17 3.948715550755056e-17 -0.708783667025677 -0.705425909190663
12619129333.333334 -0.7149806399351302 -0.6991442515803092 7.375991529063589e-17 3.882363007249149e-17 7.375991529063589e-17 3.882363007249149e-17 -0.7149801936517513 -0.6991447079722074
12619746666.666666 -0.721121500977529 -0.692808617749343 7.408847771889907e-17 3.8157280279187344e-17 7.408847771889907e-17 3.8157280279187344e-17 -0.7211210587599959 -0.6928090780386053
12620364000.0 -0.7272062223991392 -0.6864190484709852 7.441102624967465e-17 3.748816015269713e-17 7.441102624967465e-17 3.748816015269713e-17 -0.7272057842814791 -0.6864195126213983
12620981333.333334 -0.7332343305017858 -0.6799760411760379 7.472753762044566e-17 3.681632391690294e-17 7.472753762044566e-17 3.681632391690294e-17 -0.7332338965177038 -0.6799765091510916
12621598666.666666 -0.7392053559947436 -0.6734800974553923 7.503798905714144e-17 3.6141825990114974e-17 7.503798905714144e-17 3.6141825990114974e-17 -0.7392049261776188 -0.6734805692182816
12622216000.0 -0.7451188340311145 -0.6669317230211437 7.534235827575084e-17 3.5464720980681976e-17 7.534235827575084e-17 3.5464720980681976e-17 -0.745118408414 -0.6669321985347737
12622833333.333334 -0.7509743042441748 -0.6603314276670594 7.564062348389797e-17 3.4785063682586704e-17 7.564062348389797e-17 3.4785063682586704e-17 -0.750973882859792 -0.6603319068940455
12623450666.666666 -0.7567713107830575 -0.6536797252290545 7.593276338238136e-17 3.410290907101939e-17 7.593276338238136e-17 3.410290907101939e-17 -0.7567708936637962 -0.6536802081317278
12624068000.0 -0.7625094023483757 -0.646977133545044 7.621875716667371e-17 3.341831229793865e-17 7.621875716667371e-17 3.341831229793865e-17 -0.7625089895262898 -0.6469776200854522
12624685333.333334 -0.7681881322272991 -0.640224174414692 7.649858452837776e-17 3.2731328687628643e-17 7.649858452837776e-17 3.2731328687628643e-17 -0.7681877237341045 -0.6402246645546035
12625302666.666666 -0.7738070583282559 -0.6334213735588746 7.677222565664077e-17 3.204201373224891e-17 7.677222565664077e-17 3.204201373224891e-17 -0.7738066541953298 -0.633421867259782
12625920000.0 -0.7793657432155715 -0.6265692605784934 7.703966123954232e-17 3.1350423087339735e-17 7.703966123954232e-17 3.1350423087339735e-17 -0.7793653434739477 -0.6265697578016155
12626537333.333334 -0.7848637541432134 -0.6196683689136164 7.730087246542124e-17 3.065661256736653e-17 7.730087246542124e-17 3.065661256736653e-17 -0.7848633588235806 -0.6196688696199015
12627154666.666666 -0.7903006630886982 -0.6127192358016876 7.755584102417538e-17 2.9960638141222924e-17 7.755584102417538e-17 2.9960638141222924e-17 -0.7903002722213986 -0.612719739951817
12627772000.0 -0.795676046786463 -0.6057224022356327 7.780454910852872e-17 2.926255592770106e-17 7.780454910852872e-17 2.926255592770106e-17 -0.7956756604014895 -0.6057229097900235
12628389333.333334 -0.800989486760522 -0.5986784129221249 7.804697941523339e-17 2.856242219101813e-17 7.804697941523339e-17 2.856242219101813e-17 -0.800989104887515 -0.5986789238409326
12629006666.666666 -0.8062405693574084 -0.5915878162387067 7.828311514625982e-17 2.7860293336255577e-17 7.828311514625982e-17 2.7860293336255577e-17 -0.8062401920256533 -0.5915883304818287
12629624000.0 -0.8114288857781332 -0.5844511641914124 7.851294000992051e-17 2.7156225904859945e-17 7.851294000992051e-17 2.7156225904859945e-17 -0.8114285130165605 -0.5844516817184917
12630241333.333334 -0.8165540321100667 -0.5772690123717296 7.873643822197494e-17 2.6450276570074682e-17 7.873643822197494e-17 2.6450276570074682e-17 -0.8165536639472478 -0.5772695331421575
12630858666.666666 -0.821615609358383 -0.5700419199133456 7.895359450667701e-17 2.5742502132410015e-17 7.895359450667701e-17 2.5742502132410015e-17 -0.8216152458225283 -0.5700424438862648
12631476000.0 -0.8266132234772501 -0.5627704494484319 7.916439409779449e-17 2.503295951506636e-17 7.916439409779449e-17 2.503295951506636e-17 -0.8266128645962079 -0.5627709765827399
12632093333.333334 -0.8315464854002471 -0.5554551670642154 7.936882273957726e-17 2.432170575938374e-17 7.936882273957726e-17 2.432170575938374e-17 -0.8315461312015006 -0.5554556973185679
12632710666.666666 -0.8364150110708521 -0.5480966422586313 7.956686668769078e-17 2.3608798020263172e-17 7.956686668769078e-17 2.3608798020263172e-17 -0.8364146615815156 -0.5480971755914442
12633328000.0 -0.841218421472363 -0.5406954478959344 7.97585127101114e-17 2.2894293561569388e-17 7.97585127101114e-17 2.2894293561569388e-17 -0.8412180767191834 -0.5406959842653889
12633945333.333334 -0.8459563426572232 -0.5332521601623892 7.994374808796823e-17 2.217824975157229e-17 7.994374808796823e-17 2.217824975157229e-17 -0.845956002666575 -0.5332526995264338
12634562666.666666 -0.8506284057763008 -0.5257673585211511 8.012256061635917e-17 2.1460724058327244e-17 8.012256061635917e-17 2.1460724058327244e-17 -0.8506280705741861 -0.5257679008375058
12635180000.0 -0.8552342471075433 -0.51824162566725 8.029493860511613e-17 2.0741774045083424e-17 8.029493860511613e-17 2.0741774045083424e-17 -0.8552339167195877 -0.5182421708934082
12635797333.333334 -0.8597735080842622 -0.5106755474822752 8.046087087953072e-17 2.0021457365681815e-17 8.046087087953072e-17 2.0021457365681815e-17 -0.8597731825357158 -0.5106760955755089
12636414666.666666 -0.8642458353230811 -0.5030697129887177 8.06203467810411e-17 1.9299831759938798e-17 8.06203467810411e-17 1.9299831759938798e-17 -0.864245514638813 -0.5030702639060795
12637032000.0 -0.8686508806514716 -0.4954247143040642 8.077335616787724e-17 1.857695504902455e-17 8.077335616787724e-17 1.857695504902455e-17 -0.8686505648559713 -0.49542526800239123
12637649333.333334 -0.8729883011348318 -0.4877411465947498 8.091988941566286e-17 1.7852885130846064e-17 8.091988941566286e-17 1.7852885130846064e-17 -0.8729879902522054 -0.4877417030306667
12638266666.666666 -0.8772577591031402 -0.48001960802989685 8.105993741797575e-17 1.7127679975428178e-17 8.105993741797575e-17 1.7127679975428178e-17 -0.8772574531571096 -0.4800201671598201
12638884000.0 -0.8814589221773318 -0.47226069973460216 8.119349158687124e-17 1.640139762026993e-17 8.119349158687124e-17 1.640139762026993e-17 -0.8814586211912304 -0.47226126151474157
12639501333.333334 -0.8855914632951378 -0.4644650257431844 8.132054385336018e-17 1.5674096165715897e-17 8.132054385336018e-17 1.5674096165715897e-17 -0.8855911672919118 -0.4644655901295481
12640118666.666666 -0.889655060736434 -0.45663319295238736 8.144108666784282e-17 1.4945833770340433e-17 8.144108666784282e-17 1.4945833770340433e-17 -0.8896547697386397 -0.4566337599007855
12640736000.0 -0.893649398148575 -0.4487658110735802 8.155511300051427e-17 1.4216668646257376e-17 8.155511300051427e-17 1.4216668646257376e-17 -0.8936491121783773 -0.44876638053962775
12641353333.333334 -0.8975741645706711 -0.44086349258597163 8.166261634170848e-17 1.348665905454334e-17 8.166261634170848e-17 1.348665905454334e-17 -0.8975738836498399 -0.4408640645250914
12641970666.666666 -0.9014290544580275 -0.4329268526884726 8.176359070222019e-17 1.2755863300540335e-17 8.176359070222019e-17 1.2755863300540335e-17 -0.9014287786079384 -0.4329274270558993
12642588000.0 -0.9052137677058808 -0.42495650925190376 8.185803061357203e-17 1.2024339729242837e-17 8.185803061357203e-17 1.2024339729242837e-17 -0.9052134969475126 -0.42495708600268783
12643205333.333334 -0.9089280096727376 -0.4169530827709464 8.19459311282478e-17 1.1292146720634665e-17 8.19459311282478e-17 1.1292146720634665e-17 -0.9089277440266708 -0.41695366185995686
12643822666.666666 -0.9125714912033238 -0.4089171963158094 8.202728781988178e-17 1.0559342685038787e-17 8.202728781988178e-17 1.0559342685038787e-17 -0.9125712306897383 -0.4089177776977378
12644440000.0 -0.9161439286511062 -0.4008494754836977 8.210209678340387e-17 9.825986058487527e-18 8.210209678340387e-17 9.825986058487527e-18 -0.9161436732897819 -0.40085005911306176
12645057333.333334 -0.9196450439003554 -0.3927505483501619 8.217035463514854e-17 9.092135298057671e-18 8.217035463514854e-17 9.092135298057671e-18 -0.9196447937106674 -0.3927511341813083
12645674666.666666 -0.9230745643877593 -0.38462104542027975 8.22320585129184e-17 8.357848877231249e-18 8.22320585129184e-17 8.357848877231249e-18 -0.9230743193886788 -0.3846216334073884
12646292000.0 -0.9264322231237891 -0.3764615995792314 8.228720607600974e-17 7.623185281226522e-18 8.228720607600974e-17 7.623185281226522e-18 -0.9264319833338824 -0.3764621896763194
12646909333.333334 -0.9297177587132982 -0.3682728460434751 8.233579550519093e-17 6.888203002390639e-18 8.233579550519093e-17 6.888203002390639e-18 -0.9297175241507232 -0.3682734382043991
12647526666.666666 -0.932930915376 -0.3600554223109791 8.237782550264688e-17 6.152960535516386e-18 8.237782550264688e-17 6.152960535516386e-18 -0.9329306860585065 -0.36005601648944
12648144000.0 -0.9360714429663299 -0.3518099681117249 8.241329529187716e-17 5.417516373207264e-18 8.241329529187716e-17 5.417516373207264e-18 -0.9360712189112569 -0.3518105642612708
12648761333.333334 -0.9391390969929347 -0.3435371253578494 8.244220461755292e-17 4.681929001251659e-18 8.244220461755292e-17 4.681929001251659e-18 -0.939138878217211 -0.3435377234318798
12649378666.666666 -0.9421336386376825 -0.33523753809375334 8.246455374533504e-17 3.9462568939689166e-18 8.246455374533504e-17 3.9462568939689166e-18 -0.9421334251578232 -0.33523813804552216
12649996000.0 -0.9450548347742709 -0.32691185244590787 8.248034346164927e-17 3.2105585095697987e-18 8.248034346164927e-17 3.2105585095697987e-18 -0.945054626606378 -0.3269124542285278
12650613333.333334 -0.947902457986407 -0.3185607165724741 8.24895750734205e-17 2.474892285524765e-18 8.24895750734205e-17 2.474892285524765e-18 -0.9479022551461667 -0.31856132013891936
12651230666.666666 -0.9506762865854423 -0.3101847806130293 8.249225040776522e-17 1.7393166339520947e-18 8.249225040776522e-17 1.7393166339520947e-18 -0.9506760890881262 -0.31018538591614064
12651848000.0 -0.9533761046277016 -0.301784696637768 8.248837181164447e-17 1.0038899369535743e-18 8.248837181164447e-17 1.0038899369535743e-18 -0.9533759124881617 -0.3017853036302548
12652465333.333334 -0.9560017019312594 -0.293361118596816 8.247794215147358e-17 2.686705420200097e-19 8.247794215147358e-17 2.686705420200097e-19 -0.9560015151639307 -0.29336172723126114
12653082666.666666 -0.9585528740922842 -0.2849147022694032 8.246096481269261e-17 -4.662832425798015e-19 8.246096481269261e-17 -4.662832425798015e-19 -0.9585526927111808 -0.28491531249826607
12653700000.0 -0.9610294225010036 -0.2764461052126195 8.243744369929433e-17 -1.2009131524497318e-18 8.243744369929433e-17 -1.2009131524497318e-18 -0.9610292465197212 -0.27644671698824075
12654317333.333334 -0.9634311543571099 -0.26795598671044385 8.240738323331291e-17 -1.9351609716320046e-18 8.240738323331291e-17 -1.9351609716320046e-18 -0.9634309837888199 -0.26795659998504745
12654934666.666666 -0.9657578826848143 -0.25944500772222445 8.237078835426947e-17 -2.668968537237534e-18 8.237078835426947e-17 -2.668968537237534e-18 -0.9657577175422674 -0.259445622447923
12655552000.0 -0.9680094263473875 -0.2509138308313071 8.232766451857887e-17 -3.402277744032776e-18 8.232766451857887e-17 -3.402277744032776e-18 -0.9680092666429103 -0.25091444696010473
12656169333.333334 -0.9701856100612369 -0.2423631201935347 8.227801769891489e-17 -4.13503054902256e-18 8.227801769891489e-17 -4.13503054902256e-18 -0.9701854558067307 -0.24236373767733085
12656786666.666666 -0.9722862644096023 -0.23379354148534937 8.222185438353403e-17 -4.867168976049583e-18 8.222185438353403e-17 -4.867168976049583e-18 -0.9722861156165433 -0.23379416027594266
12657404000.0 -0.9743112258556887 -0.22520576185218988 8.215918157556e-17 -5.598635120351724e-18 8.215918157556e-17 -5.598635120351724e-18 -0.9743110825351282 -0.2252063819012824
12658021333.333334 -0.9762603367554549 -0.21660044985633387 8.209000679222605e-17 -6.3293711531493205e-18 8.209000679222605e-17 -6.3293711531493205e-18 -0.9762601989180155 -0.21660107111553398
12658638666.666666 -0.97813344536983 -0.20797827542507055 8.201433806407919e-17 -7.059319326184927e-18 8.201433806407919e-17 -7.059319326184927e-18 -0.978133313025707 -0.20797889784589724
12659256000.0 -0.9799304058765722 -0.19933990979835275 8.193218393413988e-17 -7.788421976303872e-18 8.193218393413988e-17 -7.788421976303872e-18 -0.9799302790355332 -0.19934053333223947
12659873333.333334 -0.9816510783816054 -0.19068602547662433 8.18435534570267e-17 -8.516621529968033e-18 8.18435534570267e-17 -8.516621529968033e-18 -0.9816509570529866 -0.1906866500749223
12660490666.666666 -0.9832953289298855 -0.18201729616854811 8.174845619803722e-17 -9.243860507805032e-18 8.174845619803722e-17 -9.243860507805032e-18 -0.9832952131225944 -0.1820179217825307
12661108000.0 -0.984863029515875 -0.17333439673836348 8.164690223218677e-17 -9.97008152915036e-18 8.164690223218677e-17 -9.97008152915036e-18 -0.9848629192383892 -0.17333502331922984
12661725333.333334 -0.9863540580934637 -0.1646380031535708 8.153890214321536e-17 -1.0695227316524316e-17 8.153890214321536e-17 -1.0695227316524316e-17 -0.9863539533538282 -0.16463863065244935
12662342666.666666 -0.9877682985855054 -0.15592879243211136 8.142446702254372e-17 -1.1419240700177793e-17 8.142446702254372e-17 -1.1419240700177793e-17 -0.9877681993913334 -0.15592942080006386
12662960000.0 -0.9891056408928357 -0.1472074425897446 8.13036084681976e-17 -1.2142064622567486e-17 8.13036084681976e-17 -1.2142064622567486e-17 -0.9891055472513087 -0.14720807177776998
12663577333.333334 -0.9903659809028378 -0.13847463258734968 8.117633858368867e-17 -1.2863642142848294e-17 8.117633858368867e-17 -1.2863642142848294e-17 -0.9903658928207035 -0.13847526254638776
12664194666.666666 -0.9915492204975664 -0.12973104227789847 8.104266997685807e-17 -1.3583916441338461e-17 8.104266997685807e-17 -1.3583916441338461e-17 -0.9915491379811402 -0.12973167295883392
12664812000.0 -0.9926552675613777 -0.12097735235361352 8.090261575867651e-17 -1.430283082399649e-17 8.090261575867651e-17 -1.430283082399649e-17 -0.992655190616541 -0.12097798370727966
12665429333.333334 -0.9936840359880925 -0.1122142442930324 8.075618954200821e-17 -1.5020328726867838e-17 8.075618954200821e-17 -1.5020328726867838e-17 -0.9936839646202912 -0.11221487627021479
12666046666.666666 -0.9946354456877037 -0.10344240030792586 8.060340544033798e-17 -1.5736353720505882e-17 8.060340544033798e-17 -1.5736353720505882e-17 -0.9946353799019498 -0.10344303285936642
12666664000.0 -0.9955094225926339 -0.09466250328996126 8.044427806644812e-17 -1.6450849514437703e-17 8.044427806644812e-17 -1.6450849514437703e-17 -0.9955093623935055 -0.09466313636636212
12667281333.333334 -0.9963058986634555 -0.08587523675802014 8.02788225310722e-17 -1.716375996153707e-17 8.02788225310722e-17 -1.716375996153707e-17 -0.9963058440550934 -0.08587587031004716
12667898666.666666 -0.9970248118942296 -0.07708128480453313 8.010705444149561e-17 -1.7875029062452852e-17 8.010705444149561e-17 -1.7875029062452852e-17 -0.9970247628803403 -0.0770819187828201
12668516000.0 -0.9976661063173238 -0.0682813320423078 7.992898990012477e-17 -1.8584600969987423e-17 7.992898990012477e-17 -1.8584600969987423e-17 -0.9976660629011778 -0.06828196639746009
12669133333.333334 -0.9982297320077427 -0.0594760635515714 7.974464550301796e-17 -1.9292419993463717e-17 7.974464550301796e-17 -1.9292419993463717e-17 -0.998229694192174 -0.05947669823416988
12669750666.666666 -0.9987156450870519 -0.05066616482618372 7.955403833837142e-17 -1.999843060310075e-17 7.955403833837142e-17 -1.999843060310075e-17 -0.9987156128744585 -0.050666799786788556
12670368000.0 -0.9991238077267732 -0.041852321720469175 7.935718598497498e-17 -2.070257743434295e-17 7.935718598497498e-17 -2.070257743434295e-17 -0.9991237811191168 -0.041852956909623734
