! Parameters = {f0=12700.012000; bw=77.238000; Q=6100.000000; N=10; m_0_1=1.350646; m_1_1=1.494939; m_1_2=1.185458; m_2_2=1.494290; m_2_3=0.822421; m_2_8=0.004596; m_2_9=0.041300; m_3_3=1.492353; m_3_4=0.710950; m_3_7=0.005196; m_3_8=-0.091892; m_3_9=0.004596; m_4_4=1.489428; m_4_5=0.547285; m_4_6=0.008713; m_4_7=-0.112441; m_4_8=0.005196; m_5_5=1.489810; m_5_6=0.954640; m_5_7=0.008713; m_6_6=1.489809; m_6_7=0.547627; m_7_7=1.489442; m_7_8=0.711068; m_8_8=1.492351; m_8_9=0.822734; m_9_9=1.494285; m_9_10=1.186536; m_10_10=1.494929; m_10_11=1.351441}
!
! Created with skrf (http://scikit-rf.org).
# Hz S RI R 50.0 
!freq ReS11 ImS11 ReS21 ImS21 ReS12 ImS12 ReS22 ImS22
12607400000.0 -0.6740734470702578 0.7386643269812216 6.960318683654146e-17 -1.434661158293444e-16 6.960318683654146e-17 -1.434661158293444e-16 -0.6740739725888791 0.7386638474150791
12608017333.333334 -0.6644835915471402 0.7473028546475743 6.7719653114795e-17 -1.4433025606634963e-16 6.7719653114795e-17 -1.4433025606634963e-16 -0.6644841231855726 0.7473023819272226
12608634666.666666 -0.6547830400441157 0.7558168895112003 6.582542020144976e-17 -1.4516968312915612e-16 6.582542020144976e-17 -1.4516968312915612e-16 -0.6547835777131992 0.7558164237147161
12609252000.0 -0.6449734085711767 0.7642050132234659 6.392081215192055e-17 -1.4598426494559828e-16 6.392081215192055e-17 -1.4598426494559828e-16 -0.644973952180755 0.7642045544277638
12609869333.333334 -0.6350563313098473 0.7724658284112499 6.200615464648965e-17 -1.467738736902081e-16 6.200615464648965e-17 -1.467738736902081e-16 -0.6350568807687835 0.7724653766920712
12610486666.666666 -0.625033460341118 0.7805979589095835 6.008177493477907e-17 -1.4753838580409292e-16 6.008177493477907e-17 -1.4753838580409292e-16 -0.6250340155573104 0.7805975143414842
12611104000.0 -0.6149064653699684 0.7886000499911286 5.814800177977155e-17 -1.4827768201417428e-16 5.814800177977155e-17 -1.4827768201417428e-16 -0.6149070262503652 0.7885996126474656
12611721333.333334 -0.6046770334473386 0.7964707685917455 5.620516540180677e-17 -1.4899164735160837e-16 5.620516540180677e-17 -1.4899164735160837e-16 -0.6046775998979523 0.7964703385446643
12612338666.666666 -0.594346868689266 0.804208803532432 5.425359742222801e-17 -1.4968017116952467e-16 5.425359742222801e-17 -1.4968017116952467e-16 -0.5943474406151914 0.8042083808528558
12612956000.0 -0.5839176919924997 0.8118128657381287 5.2293630806822024e-17 -1.5034314716002251e-16 5.2293630806822024e-17 -1.5034314716002251e-16 -0.5839182692979291 0.8118124504957481
12613573333.333334 -0.5733912407484554 0.8192816884519922 5.03255998091312e-17 -1.5098047337040265e-16 5.03255998091312e-17 -1.5098047337040265e-16 -0.5733918233366941 0.8192812807152509
12614190666.666666 -0.5627692685532808 0.8266140274467921 4.8349839913493566e-17 -1.5159205221868334e-16 4.8349839913493566e-17 -1.5159205221868334e-16 -0.5627698563267635 0.8266136272828766
12614808000.0 -0.5520535449159056 0.8338086612320493 4.636668777789707e-17 -1.5217779050837263e-16 4.636668777789707e-17 -1.5217779050837263e-16 -0.5520541377762128 0.8338082687068786
12615425333.333334 -0.5412458549634053 0.8408643912574331 4.437648117673565e-17 -1.527375994424686e-16 4.437648117673565e-17 -1.527375994424686e-16 -0.5412464528112794 0.8408640064356467
12616042666.666666 -0.5303479991433319 0.847780042112614 4.237955894332192e-17 -1.5327139463673822e-16 4.237955894332192e-17 -1.5327139463673822e-16 -0.5303486018786951 0.847779665057563
12616660000.0 -0.519361792923969 0.8545544617229505 4.037626091224299e-17 -1.5377909613224306e-16 4.037626091224299e-17 -1.5377909613224306e-16 -0.5193624004459384 0.8545540924966848
12617277333.333334 -0.508289066491797 0.8611865215414712 3.8366927861648413e-17 -1.5426062840709235e-16 3.8366927861648413e-17 -1.5426062840709235e-16 -0.5082896786987028 0.8611861602047317
12617894666.666666 -0.4971316644467981 0.8676751167367641 3.6351901455323014e-17 -1.547159203874643e-16 3.6351901455323014e-17 -1.547159203874643e-16 -0.49713228123619974 0.8676747633489708
12618512000.0 -0.48589144549487423 0.874019166377204 3.433152418462379e-17 -1.551449054578726e-16 3.433152418462379e-17 -1.551449054578726e-16 -0.4858920667635777 0.8740188209964471
12619129333.333334 -0.474570282138349 0.8802176136109349 3.230613931043186e-17 -1.5554752147064633e-16 3.230613931043186e-17 -1.5554752147064633e-16 -0.47457090778242444 0.880217276293965
12619746666.666666 -0.4631700603642316 0.8862694258418237 3.027609080478589e-17 -1.5592371075469992e-16 3.027609080478589e-17 -1.5592371075469992e-16 -0.4631706902790302 0.8862690966440426
12620364000.0 -0.4516926793294786 0.8921735949017756 2.824172329258543e-17 -1.5627342012350512e-16 2.824172329258543e-17 -1.5627342012350512e-16 -0.4516933134096509 0.8921732738772282
12620981333.333334 -0.44014005104531917 0.8979291372183132 2.6203381993207877e-17 -1.565966008823078e-16 2.6203381993207877e-17 -1.565966008823078e-16 -0.44014068918483196 0.8979288244196767
12621598666.666666 -0.42851410005817914 0.9035350939787179 2.4161412661878636e-17 -1.5689320883461188e-16 2.4161412661878636e-17 -1.5689320883461188e-16 -0.42851474215033275 0.903534789457293
12622216000.0 -0.41681676312932314 0.9089905312896245 2.21161615311872e-17 -1.57163204287864e-16 2.21161615311872e-17 -1.57163204287864e-16 -0.41681740906677095 0.9089902350953308
12622833333.333334 -0.40504998891211114 0.9142945403326547 2.0067975252403312e-17 -1.5740655205840105e-16 2.0067975252403312e-17 -1.5740655205840105e-16 -0.40505063858687557 0.9142942525140173
12623450666.666666 -0.3932157376275241 0.9194462375157358 1.8017200836798688e-17 -1.5762322147562477e-16 1.8017200836798688e-17 -1.5762322147562477e-16 -0.39321639093101624 0.9194459581198815
12624068000.0 -0.38131598073756656 0.9244447646203364 1.596418559693102e-17 -1.5781318638541378e-16 1.596418559693102e-17 -1.5781318638541378e-16 -0.3813166375606034 0.9244444936929834
12624685333.333334 -0.3693527006164701 0.9292892889445789 1.390927708785522e-17 -1.5797642515277628e-16 1.390927708785522e-17 -1.5797642515277628e-16 -0.36935336084929316 0.9292890265300312
12625302666.666666 -0.35732789022118777 0.93397900344166 1.185282304841545e-17 -1.581129206637294e-16 1.185282304841545e-17 -1.581129206637294e-16 -0.357328553753481 0.933978749582798
12625920000.0 -0.34524355275854357 0.9385131268546318 9.795171342394371e-18 -1.5822266032642643e-16 9.795171342394371e-18 -1.5822266032642643e-16 -0.3452442194794528 0.9385128815929085
12626537333.333334 -0.33310170135226197 0.9428909038462662 7.736669899790145e-18 -1.5830563607151058e-16 7.736669899790145e-18 -1.5830563607151058e-16 -0.3331023711504117 0.9428906672216957
12627154666.666666 -0.3209043587072303 0.9471116051250252 5.67766665806025e-18 -1.5836184435170907e-16 5.67766665806025e-18 -1.5836184435170907e-16 -0.32090503147074384 0.9471113771761807
12627772000.0 -0.3086535567724296 0.951174527566591 3.618509503297053e-18 -1.5839128614066712e-16 3.618509503297053e-18 -1.5839128614066712e-16 -0.3086542323889477 0.9511743083305977
12628389333.333334 -0.2963513364028649 0.9550789943308549 1.5595462116150177e-18 -1.583939669310129e-16 1.5595462116150177e-18 -1.583939669310129e-16 -0.2963520147595628 0.9550787838433794
12629006666.666666 -0.2839997470189838 0.9588243549748596 -4.988756096006407e-19 -1.5836989673166485e-16 -4.988756096006407e-19 -1.5836989673166485e-16 -0.2840004280025924 0.9588241532701113
12629624000.0 -0.271600846265807 0.9624099855609867 -2.556408580240781e-18 -1.58319090064376e-16 -2.556408580240781e-18 -1.58319090064376e-16 -0.27160152976263074 0.9624097926717081
12630241333.333334 -0.25915669966982136 0.9658352887610012 -4.612705606110947e-18 -1.5824156595951787e-16 -4.612705606110947e-18 -1.5824156595951787e-16 -0.2591573855657565 0.965835104718462
12630858666.666666 -0.24666938029515717 0.9690996939554792 -6.6674199373098424e-18 -1.5813734795110742e-16 -6.6674199373098424e-18 -1.5813734795110742e-16 -0.246670068475712 0.9690995187894732
12631476000.0 -0.23414096839785392 0.9722026573289729 -8.720205226760717e-18 -1.5800646407106984e-16 -8.720205226760717e-18 -1.5800646407106984e-16 -0.23414165874816692 0.9722024910678114
12632093333.333334 -0.22157355107969565 0.9751436619605004 -1.0770715588427088e-17 -1.5784894684275152e-16 -1.0770715588427088e-17 -1.5784894684275152e-16 -0.22157424348455548 0.9751435046310098
12632710666.666666 -0.20896922194041373 0.9779222179096964 -1.281860565556275e-17 -1.57664833273673e-16 -1.281860565556275e-17 -1.57664833273673e-16 -0.20896991628427775 0.9779220695372117
12633328000.0 -0.19633008072858074 0.980537862298499 -1.486353063884224e-17 -1.5745416484752582e-16 -1.486353063884224e-17 -1.5745416484752582e-16 -0.1963307768955948 0.9805377229068614
12633945333.333334 -0.1836582329923141 0.9829901593881509 -1.690514638429049e-17 -1.572169875154245e-16 -1.690514638429049e-17 -1.572169875154245e-16 -0.1836589308663317 0.9829900289997031
12634562666.666666 -0.17095578972818043 0.9852787006518591 -1.894310943116329e-17 -1.5695335168640104e-16 -1.894310943116329e-17 -1.5695335168640104e-16 -0.17095648919278203 0.9852785792874418
12635180000.0 -0.15822486702980512 0.9874031048427999 -2.0977077069687904e-17 -1.5666331221714927e-16 -2.0977077069687904e-17 -1.5666331221714927e-16 -0.15822556796831758 0.9874029925217489
12635797333.333334 -0.14546758573496182 0.9893630180577013 -2.300670739857409e-17 -1.563469284010319e-16 -2.300670739857409e-17 -1.563469284010319e-16 -0.1454682880304777 0.9893629147978428
12636414666.666666 -0.13268607107271077 0.9911581137957199 -2.5031659382455454e-17 -1.5600426395633305e-16 -2.5031659382455454e-17 -1.5600426395633305e-16 -0.13268677460810832 0.9911580196133705
12637032000.0 -0.11988245230896603 0.9927880930128999 -2.7051592909117456e-17 -1.5563538701377263e-16 -2.7051592909117456e-17 -1.5563538701377263e-16 -0.11988315696692824 0.9927880079228617
12637649333.333334 -0.10705886239200606 0.994252684171952 -2.906616884654746e-17 -1.5524037010328254e-16 -2.906616884654746e-17 -1.5524037010328254e-16 -0.10705956805504038 0.9942526081875115
12638266666.666666 -0.09421743759709124 0.9955516432874996 -3.1075049099841096e-17 -1.5481929014003652e-16 -3.1075049099841096e-17 -1.5481929014003652e-16 -0.09421814414754923 0.9955515764204249
12638884000.0 -0.0813603171705258 0.9966847539667256 -3.3077896667822954e-17 -1.5437222840976106e-16 -3.3077896667822954e-17 -1.5437222840976106e-16 -0.08136102449062273 0.9966846962272659
12639501333.333334 -0.06848964297350912 0.9976518274454083 -3.507437569954911e-17 -1.5389927055329962e-16 -3.507437569954911e-17 -1.5389927055329962e-16 -0.0684903509453434 0.9976517788422897
12640118666.666666 -0.05560755912504035 0.9984527026193863 -3.706415155053148e-17 -1.534005065504583e-16 -3.706415155053148e-17 -1.534005065504583e-16 -0.05560826763061346 0.9984526631598131
12640736000.0 -0.04271621164461716 0.9990872460713998 -3.904689083884143e-17 -1.5287603070310123e-16 -3.904689083884143e-17 -1.5287603070310123e-16 -0.04271692056585317 0.9990872157610525
12641353333.333334 -0.0298177480954694 0.9995553520932778 -4.102226150076062e-17 -1.5232594161757646e-16 -4.102226150076062e-17 -1.5232594161757646e-16 -0.029818457314234638 0.999555330936312
12641970666.666666 -0.016914317225889347 0.9998569427035966 -4.298993284644862e-17 -1.5175034218635708e-16 -4.298993284644862e-17 -1.5175034218635708e-16 -0.016915026624012158 0.999856930702643
12642588000.0 -0.004008068611783822 0.9999919676606431 -4.4949575615174495e-17 -1.5114933956901272e-16 -4.4949575615174495e-17 -1.5114933956901272e-16 -0.004008778071074192 0.999991964816807
12643205333.333334 0.008898847701536176 0.9999604044707902 -4.690086203038067e-17 -1.5052304517244196e-16 -4.690086203038067e-17 -1.5052304517244196e-16 0.00889813829926691 0.9999604107836514
12643822666.666666 0.021804281557530357 0.9997622583922448 -4.8843465854422704e-17 -1.4987157463040954e-16 -4.8843465854422704e-17 -1.4987157463040954e-16 0.021803572330449807 0.9997622738598568
12644440000.0 0.03470608304667943 0.9993975624341688 -5.07770624430289e-17 -1.491950477823808e-16 -5.07770624430289e-17 -1.491950477823808e-16 0.03470537411291451 0.9993975870530623
12645057333.333334 0.04760210286446695 0.998866377351186 -5.2701328799520176e-17 -1.4849358865163601e-16 -5.2701328799520176e-17 -1.4849358865163601e-16 0.04760139434208417 0.9988664111163665
12645674666.666666 0.0604901926694879 0.9981687916332639 -5.461594362864605e-17 -1.4776732542271659e-16 -5.461594362864605e-17 -1.4776732542271659e-16 0.0604894846764737 0.9981688345382134
12646292000.0 0.07336820544173686 0.9973049214909455 -5.652058739024727e-17 -1.4701639041812897e-16 -5.652058739024727e-17 -1.4701639041812897e-16 0.07336749809597808 0.9973049735276258
12646909333.333334 0.08623399583954126 0.996274910836034 -5.841494235243301e-17 -1.4624092007442088e-16 -5.841494235243301e-17 -1.4624092007442088e-16 0.08623328925880529 0.9962749719948849
12647526666.666666 0.09908542055757698 0.9950789312575807 -6.02986926445499e-17 -1.4544105491752924e-16 -6.02986926445499e-17 -1.4544105491752924e-16 0.09908471485949238 0.9950790015275246
12648144000.0 0.11192033868363672 0.9937171819933183 -6.21715243097985e-17 -1.446169395374521e-16 -6.21715243097985e-17 -1.446169395374521e-16 0.11191963398567345 0.9937172613617592
12648761333.333334 0.12473661205539655 0.9921898898964567 -6.403312535748196e-17 -1.437687225622551e-16 -6.403312535748196e-17 -1.437687225622551e-16 0.12473590847484654 0.9921899783492862
12649378666.666666 0.1375321056163856 0.9904973093979232 -6.588318581485314e-17 -1.4289655663142888e-16 -6.588318581485314e-17 -1.4289655663142888e-16 0.13753140327034324 0.9904974069195196
12649996000.0 0.15030468777200287 0.9886397224639333 -6.772139777876452e-17 -1.420005983685067e-16 -6.772139777876452e-17 -1.420005983685067e-16 0.15030398677734538 0.9886398290371664
12650613333.333334 0.1630522307444482 0.9866174385490359 -6.954745546676033e-17 -1.4108100835310335e-16 -6.954745546676033e-17 -1.4108100835310335e-16 0.16305153121781643 0.98661755415527
12651230666.666666 0.17577261092702037 0.9844307945445935 -7.136105526786593e-17 -1.40137951092268e-16 -7.136105526786593e-17 -1.40137951092268e-16 0.17577191298479927 0.9844309191636893
12651848000.0 0.18846370923822403 0.9820801547226029 -7.316189579310057e-17 -1.3917159499112476e-16 -7.316189579310057e-17 -1.3917159499112476e-16 0.188463012996523 0.9820802883329213
12652465333.333334 0.2011234114746176 0.9795659106750371 -7.494967792536537e-17 -1.3818211232298632e-16 -7.494967792536537e-17 -1.3818211232298632e-16 0.20112271704925158 0.9795660532534435
12653082666.666666 0.2137496086627943 0.9768884812486546 -7.672410486911888e-17 -1.371696791987274e-16 -7.672410486911888e-17 -1.371696791987274e-16 0.21374891616926478 0.9768886327705252
12653700000.0 0.22634019741132927 0.9740483124751067 -7.848488219960086e-17 -1.3613447553554245e-16 -7.848488219960086e-17 -1.3613447553554245e-16 0.22633950696480395 0.9740484729143266
12654317333.333334 0.2388930802604009 0.9710458774967838 -8.023171791152823e-17 -1.3507668502513385e-16 -8.023171791152823e-17 -1.3507668502513385e-16 0.2388923919756959 0.971046046825758
12654934666.666666 0.2514061660318198 0.9678816764878769 -8.196432246754979e-17 -1.3399649510117055e-16 -8.196432246754979e-17 -1.3399649510117055e-16 0.25140548002337926 0.9678818546775302
12655552000.0 0.26387737017717144 0.9645562365710882 -8.368240884611748e-17 -1.3289409690621e-16 -8.368240884611748e-17 -1.3289409690621e-16 0.2638766865590501 0.9645564235908745
12656169333.333334 0.2763046151249188 0.9610701117298739 -8.538569258891692e-17 -1.317696852580115e-16 -8.538569258891692e-17 -1.317696852580115e-16 0.27630393401076114 0.961070307547777
12656786666.666666 0.2886858306268308 0.957423882716061 -8.707389184798896e-17 -1.3062345861514983e-16 -8.707389184798896e-17 -1.3062345861514983e-16 0.28868515212985374 0.9574240872986041
12657404000.0 0.3010189541026461 0.9536181569531652 -8.874672743221187e-17 -1.2945561904214328e-16 -8.874672743221187e-17 -1.2945561904214328e-16 0.30101827833561917 0.9536183702654125
12658021333.333334 0.3133019309837846 0.9496535684351604 -9.040392285343695e-17 -1.282663721739093e-16 -9.040392285343695e-17 -1.282663721739093e-16 0.31330125805901204 0.9496537904407282
12658638666.666666 0.3255327150553487 0.9455307776209594 -9.204520437209811e-17 -1.270559271796661e-16 -9.204520437209811e-17 -1.270559271796661e-16 0.3255320450846497 0.9455310082820169
12659256000.0 0.337709268797593 0.941250471324184 -9.367030104238231e-17 -1.2582449672621945e-16 -9.367030104238231e-17 -1.2582449672621945e-16 0.33770860189228435 0.9412507106014638
12659873333.333334 0.3498295637246533 0.9368133625989873 -9.527894475683945e-17 -1.2457229694072693e-16 -9.527894475683945e-17 -1.2457229694072693e-16 0.34982889999553035 0.9368136104517908
12660490666.666666 0.36189158072279737 0.9322201906211632 -9.687087029056121e-17 -1.2329954737284586e-16 -9.687087029056121e-17 -1.2329954737284586e-16 0.36189092028011516 0.9322204470073662
12661108000.0 0.37389331038710305 0.9274717205648786 -9.844581534486022e-17 -1.220064709563097e-16 -9.844581534486022e-17 -1.220064709563097e-16 0.37389265334055855 0.9274719854409398
12661725333.333334 0.38583275335551476 0.9225687434754682 -1.0000352059033609e-16 -1.2069329397003351e-16 -1.0000352059033609e-16 -1.2069329397003351e-16 0.3858320998142288 0.922569016796437
12662342666.666666 0.3977079206425 0.9175120761374321 -1.0154372970959564e-16 -1.1936024599852972e-16 -1.0154372970959564e-16 -1.1936024599852972e-16 0.39770727071499856 0.917512357856955
12662960000.0 0.4095168339701277 0.9123025609384676 -1.030661894392752e-16 -1.180075598919208e-16 -1.030661894392752e-16 -1.180075598919208e-16 0.409516187764324 0.9123028510087957
12663577333.333334 0.4212575260977324 0.9069410657290915 -1.045706496116353e-16 -1.166354717253337e-16 -1.045706496116353e-16 -1.166354717253337e-16 0.42125688372091025 0.9069413641010922
12664194666.666666 0.4329280411494327 0.901428483678167 -1.0605686319560811e-16 -1.1524422075776845e-16 -1.0605686319560811e-16 -1.1524422075776845e-16 0.43292740270822594 0.9014287903013259
12664812000.0 0.44452643494026406 0.8957657331239582 -1.075245863372395e-16 -1.1383404939049957e-16 -1.075245863372395e-16 -1.1383404939049957e-16 0.4445258005406422 0.895766047946395
12665429333.333334 0.4560507752999092 0.8899537574212238 -1.0897357839964617e-16 -1.1240520312490424e-16 -1.0897357839964617e-16 -1.1240520312490424e-16 0.4560501450471575 0.8899540803896958
12666046666.666666 0.46749914239437185 0.8839935247841633 -1.1040360200237421e-16 -1.1095793051981905e-16 -1.1040360200237421e-16 -1.1095793051981905e-16 0.46749851639307444 0.8839938558440755
12666664000.0 0.47886962904635905 0.8778860281248387 -1.1181442306023073e-16 -1.0949248314836033e-16 -1.1181442306023073e-16 -1.0949248314836033e-16 0.4788690074003816 0.8778863672202543
12667281333.333334 0.4901603410522891 0.8716322848881324 -1.1320581082148103e-16 -1.0800911555431464e-16 -1.1320581082148103e-16 -1.0800911555431464e-16 0.490159723864762 0.8716326319617814
12667898666.666666 0.5013693974984011 0.865233336881961 -1.1457753790552579e-16 -1.0650808520798948e-16 -1.1457753790552579e-16 -1.0650808520798948e-16 0.5013687848717018 0.86523369187525
12668516000.0 0.512494931073892 0.8586902501038249 -1.159293803399919e-16 -1.0498965246158474e-16 -1.159293803399919e-16 -1.0498965246158474e-16 0.5124943231096284 0.8586906129568473
12669133333.333334 0.5235350883818456 0.8520041145633133 -1.1726111759718113e-16 -1.0345408050415557e-16 -1.1726111759718113e-16 -1.0345408050415557e-16 0.5235344851808389 0.8520044852148583
12669750666.666666 0.5344880302482833 0.8451760441003472 -1.1857253262998173e-16 -1.0190163531604703e-16 -1.1857253262998173e-16 -1.0190163531604703e-16 0.5344874319105516 0.8451764224879119
