! Parameters = {f0=12700.012000; bw=77.238000; Q=6100.000000; N=10; m_0_1=1.162858; m_1_1=-1.321878; m_1_2=0.997670; m_2_2=-1.322527; m_2_3=0.634633; m_2_8=-0.004793; m_2_9=0.031911; m_3_3=-1.324464; m_3_4=0.523162; m_3_7=-0.004193; m_3_8=-0.101281; m_3_9=-0.004793; m_4_4=-1.327389; m_4_5=0.359497; m_4_6=-0.000676; m_4_7=-0.121830; m_4_8=-0.004193; m_5_5=-1.327007; m_5_6=0.766852; m_5_7=-0.000676; m_6_6=-1.327008; m_6_7=0.359839; m_7_7=-1.327375; m_7_8=0.523280; m_8_8=-1.324466; m_8_9=0.634946; m_9_9=-1.322532; m_9_10=0.998748; m_10_10=-1.321888; m_10_11=1.163653}
!
! Created with skrf (http://scikit-rf.org).
# Hz S RI R 50.0 
!freq ReS11 ImS11 ReS21 ImS21 ReS12 ImS12 ReS22 ImS22
12607400000.0 -0.8875032966060031 0.4608013655723352 4.667964059771006e-17 -4.498447330256405e-17 4.667964059771006e-17 -4.498447330256405e-17 -0.8875035790049095 0.4608008216717155
12608017333.333334 -0.8840898739950342 0.4673169103502433 4.6334397497776826e-17 -4.532183812691664e-17 4.6334397497776826e-17 -4.532183812691664e-17 -0.8840901603729235 0.4673163685680504
12608634666.666666 -0.8806286187830832 0.4738071715160626 4.5986721124338656e-17 -4.565655841646139e-17 4.5986721124338656e-17 -4.565655841646139e-17 -0.8806289091240732 0.4738066318814005
12609252000.0 -0.877119718237188 0.4802717979221441 4.563663169717705e-17 -4.598861665867498e-17 4.563663169717705e-17 -4.598861665867498e-17 -0.8771200125251819 0.4802712604639967
12609869333.333334 -0.8735633622021642 0.4867104398078006 4.528414956182003e-17 -4.631799549536662e-17 4.528414956182003e-17 -4.631799549536662e-17 -0.8735636604208551 0.48670990455503255
12610486666.666666 -0.869959743090364 0.4931227488181828 4.4929295188380805e-17 -4.664467772356485e-17 4.4929295188380805e-17 -4.664467772356485e-17 -0.8699600452232323 0.49312221579953547
12611104000.0 -0.866309055871192 0.4995083780232474 4.4572089170356553e-17 -4.696864629642698e-17 4.4572089170356553e-17 -4.696864629642698e-17 -0.8663093619015092 0.4995078472673391
12611721333.333334 -0.8626114980607158 0.5058669819362581 4.421255222345471e-17 -4.728988432410822e-17 4.421255222345471e-17 -4.728988432410822e-17 -0.8626118079715438 0.505866453471582
12612338666.666666 -0.8588672697107936 0.5121982165327977 4.385070518439369e-17 -4.7608375074639216e-17 4.385070518439369e-17 -4.7608375074639216e-17 -0.858867583484985 0.5121976903877193
12612956000.0 -0.8550765733983479 0.5185017392692066 4.348656900969083e-17 -4.7924101974800665e-17 4.348656900969083e-17 -4.7924101974800665e-17 -0.855076891018549 0.518501215471964
12613573333.333334 -0.8512396142144225 0.5247772091010937 4.312016477447805e-17 -4.823704861095783e-17 4.312016477447805e-17 -4.823704861095783e-17 -0.8512399356630739 0.5247766876797956
12614190666.666666 -0.8473565997530447 0.5310242865018622 4.2751513671263913e-17 -4.854719872992935e-17 4.2751513671263913e-17 -4.854719872992935e-17 -0.8473569250123797 0.5310237674844844
12614808000.0 -0.8434277401000175 0.5372426334810269 4.238063700873037e-17 -4.885453623980957e-17 4.238063700873037e-17 -4.885453623980957e-17 -0.8434280691520679 0.5372421168954149
12615425333.333334 -0.8394532478215011 0.543431913602603 4.20075562105018e-17 -4.915904521080144e-17 4.20075562105018e-17 -4.915904521080144e-17 -0.8394535806480918 0.5434313994764653
12616042666.666666 -0.8354333379525928 0.5495917920031574 4.1632292813909477e-17 -4.946070987603871e-17 4.1632292813909477e-17 -4.946070987603871e-17 -0.8354336745353489 0.5495912803640688
12616660000.0 -0.8313682279856569 0.5557219354100043 4.1254868468762814e-17 -4.975951463238825e-17 4.1254868468762814e-17 -4.975951463238825e-17 -0.8313685683060016 0.5557214262854017
12617277333.333334 -0.8272581378584898 0.5618220121593276 4.087530493610068e-17 -5.0055444041254565e-17 4.087530493610068e-17 -5.0055444041254565e-17 -0.8272584818976451 0.5618215055765091
12617894666.666666 -0.8231032899425946 0.5678916922138669 4.0493624086945795e-17 -5.034848282936811e-17 4.0493624086945795e-17 -5.034848282936811e-17 -0.8231036376815835 0.5678911881999901
12618512000.0 -0.8189039090309274 0.5739306471811018 4.010984790104461e-17 -5.0638615889570825e-17 4.010984790104461e-17 -5.0638615889570825e-17 -0.8189042604505751 0.5739301457631834
12619129333.333334 -0.8146602223259127 0.579938550330763 3.97239984656164e-17 -5.092582828158095e-17 3.97239984656164e-17 -5.092582828158095e-17 -0.814660577406846 0.5799380515356757
12619746666.666666 -0.8103724594270841 0.5859150766126014 3.933609797408364e-17 -5.1210105232758424e-17 3.933609797408364e-17 -5.1210105232758424e-17 -0.8103728181497354 0.5859145804670742
12620364000.0 -0.8060408523186153 0.5918599026740459 3.8946168724796975e-17 -5.149143213886052e-17 3.8946168724796975e-17 -5.149143213886052e-17 -0.8060412146632208 0.5918594092046617
12620981333.333334 -0.8016656353568667 0.597772706877558 3.85542331197684e-17 -5.176979456477838e-17 3.85542331197684e-17 -5.176979456477838e-17 -0.8016660013034683 0.5977722161107519
12621598666.666666 -0.797247045257655 0.6036531693181024 3.816031366338536e-17 -5.2045178245273026e-17 3.816031366338536e-17 -5.2045178245273026e-17 -0.7972474147861024 0.6036526812801614
12622216000.0 -0.7927853210833985 0.6095009718405258 3.776443296112039e-17 -5.231756908570258e-17 3.776443296112039e-17 -5.231756908570258e-17 -0.7927856941733491 0.6095004865575859
12622833333.333334 -0.7882807042302618 0.6153157980566525 3.7366613718248253e-17 -5.258695316272893e-17 3.7366613718248253e-17 -5.258695316272893e-17 -0.7882810808611825 0.6153153155546985
12623450666.666666 -0.7837334384151208 0.6210973333623843 3.696687873854398e-17 -5.285331672502674e-17 3.696687873854398e-17 -5.285331672502674e-17 -0.7837338185662892 0.6210968536672483
12624068000.0 -0.7791437696622321 0.6268452649548992 3.6565250922984275e-17 -5.311664619397496e-17 3.6565250922984275e-17 -5.311664619397496e-17 -0.7791441533127381 0.6268447880922593
12624685333.333334 -0.7745119462900119 0.6325592818494638 3.61617532684352e-17 -5.337692816434546e-17 3.61617532684352e-17 -5.337692816434546e-17 -0.7745123334187564 0.6325588078448408
12625302666.666666 -0.7698382188977233 0.638239074896102 3.575640886635208e-17 -5.363414940497062e-17 3.575640886635208e-17 -5.363414940497062e-17 -0.7698386094834221 0.6382386037748609
12625920000.0 -0.7651228403515989 0.6438843367967214 3.534924090145129e-17 -5.388829685941572e-17 3.534924090145129e-17 -5.388829685941572e-17 -0.7651232343727825 0.643883868584068
12626537333.333334 -0.7603660657715348 0.6494947621212749 3.4940272650399093e-17 -5.4139357646627575e-17 3.4940272650399093e-17 -5.4139357646627575e-17 -0.7603664632065495 0.6494942968422551
12627154666.666666 -0.7555681525170358 0.6550700473245934 3.452952748048841e-17 -5.4387319061578546e-17 3.452952748048841e-17 -5.4387319061578546e-17 -0.7555685533440476 0.6550695850040936
12627772000.0 -0.7507293601733105 0.6606098907627879 3.411702884829522e-17 -5.463216857590975e-17 3.411702884829522e-17 -5.463216857590975e-17 -0.7507297643703021 0.6606094314255307
12628389333.333334 -0.745849950537429 0.6661139927093316 3.3702800298362e-17 -5.487389383854543e-17 3.3702800298362e-17 -5.487389383854543e-17 -0.7458503580822023 0.666113536379875
12629006666.666666 -0.7409301876038189 0.6715820553716582 3.3286865461845123e-17 -5.511248267631559e-17 3.3286865461845123e-17 -5.511248267631559e-17 -0.7409305984739994 0.6715816020743972
12629624000.0 -0.7359703375503098 0.6770137829069178 3.2869248055185235e-17 -5.534792309455356e-17 3.2869248055185235e-17 -5.534792309455356e-17 -0.7359707517233426 0.6770133326660788
12630241333.333334 -0.730970668723554 0.6824088814381685 3.244997187874621e-17 -5.558020327769853e-17 3.244997187874621e-17 -5.558020327769853e-17 -0.7309710861767094 0.6824084342778116
12630858666.666666 -0.7259314516245708 0.6877670590702174 3.202906081548493e-17 -5.580931158986785e-17 3.202906081548493e-17 -5.580931158986785e-17 -0.7259318723349434 0.6877666150142331
12631476000.0 -0.7208529588940313 0.6930880259054926 3.160653882956624e-17 -5.603523657544835e-17 3.160653882956624e-17 -5.603523657544835e-17 -0.7208533828385413 0.6930875849776011
12632093333.333334 -0.7157354652976042 0.6983714940596265 3.118242996503762e-17 -5.625796695964147e-17 3.118242996503762e-17 -5.625796695964147e-17 -0.7157358924530002 0.6983710562833775
12632710666.666666 -0.710579247711112 0.7036171776770109 3.075675834444409e-17 -5.647749164902933e-17 3.075675834444409e-17 -5.647749164902933e-17 -0.7105796780539704 0.7036167430757803
12633328000.0 -0.705384585105393 0.7088247929464275 3.032954816746487e-17 -5.669379973211624e-17 3.032954816746487e-17 -5.669379973211624e-17 -0.7053850186121198 0.7088243615434169
12633945333.333334 -0.7001517585313227 0.7139940581162764 2.990082370955275e-17 -5.690688047985676e-17 2.990082370955275e-17 -5.690688047985676e-17 -0.7001521951781557 0.7139936299345128
12634562666.666666 -0.6948810511046335 0.7191246935098049 2.9470609320547276e-17 -5.711672334618519e-17 2.9470609320547276e-17 -5.711672334618519e-17 -0.6948814908676434 0.7191242685721392
12635180000.0 -0.6895727479905545 0.7242164215402784 2.903892942330865e-17 -5.732331796852233e-17 2.903892942330865e-17 -5.732331796852233e-17 -0.6895731908456443 0.7242159998693825
12635797333.333334 -0.6842271363883008 0.7292689667260756 2.8605808512330034e-17 -5.752665416828066e-17 2.8605808512330034e-17 -5.752665416828066e-17 -0.6842275823112091 0.7292685483444425
12636414666.666666 -0.6788445055157395 0.7342820557053972 2.8171271152355015e-17 -5.772672195135557e-17 2.8171271152355015e-17 -5.772672195135557e-17 -0.6788449544820416 0.734281640635341
12637032000.0 -0.6734251465935589 0.7392554172512338 2.773534197699122e-17 -5.792351150860557e-17 2.773534197699122e-17 -5.792351150860557e-17 -0.6734255985786682 0.7392550055148868
12637649333.333334 -0.6679693528295317 0.7441887822860193 2.729804568731283e-17 -5.811701321632654e-17 2.729804568731283e-17 -5.811701321632654e-17 -0.6679698078087002 0.7441883739053309
12638266666.666666 -0.6624774194027758 0.749081883896073 2.6859407050477868e-17 -5.830721763670674e-17 2.6859407050477868e-17 -5.830721763670674e-17 -0.6624778773510961 0.7490814788928094
12638884000.0 -0.6569496434476172 0.7539344573461948 2.641945089831753e-17 -5.849411551828274e-17 2.641945089831753e-17 -5.849411551828274e-17 -0.6569501043400231 0.7539340557419365
12639501333.333334 -0.6513863240376377 0.7587462400938711 2.5978202125947494e-17 -5.867769779637372e-17 2.5978202125947494e-17 -5.867769779637372e-17 -0.6513867878489072 0.7587458419100138
12640118666.666666 -0.6457877621695426 0.7635169718034485 2.5535685690361272e-17 -5.885795559351213e-17 2.5535685690361272e-17 -5.885795559351213e-17 -0.6457882288742975 0.7635165770611997
12640736000.0 -0.6401542607465688 0.7682463943604723 2.5091926609008758e-17 -5.903488021986817e-17 2.5091926609008758e-17 -5.903488021986817e-17 -0.6401547303192778 0.7682460030808527
12641353333.333334 -0.6344861245625334 0.7729342518852879 2.4646949958422693e-17 -5.920846317364327e-17 2.4646949958422693e-17 -5.920846317364327e-17 -0.6344865969775116 0.7729338640891275
12641970666.666666 -0.6287836602850361 0.7775802907471385 2.4200780872766412e-17 -5.937869614148398e-17 2.4200780872766412e-17 -5.937869614148398e-17 -0.6287841355164475 0.7775799064550769
12642588000.0 -0.6230471764389127 0.7821842595778518 2.3753444542446414e-17 -5.954557099885752e-17 2.3753444542446414e-17 -5.954557099885752e-17 -0.6230476544607715 0.7821838788103371
12643205333.333334 -0.6172769833896719 0.7867459092853291 2.3304966212688738e-17 -5.970907981043092e-17 2.3304966212688738e-17 -5.970907981043092e-17 -0.6172774641758445 0.786745532062618
12643822666.666666 -0.6114733933265533 0.7912649930671543 2.2855371182107658e-17 -5.9869214830441e-17 2.2855371182107658e-17 -5.9869214830441e-17 -0.6114738768507582 0.7912646194093078
12644440000.0 -0.605636720245675 0.7957412664239016 2.240468480130422e-17 -6.002596850304138e-17 2.240468480130422e-17 -6.002596850304138e-17 -0.6056372064814862 0.7957408963507875
12645057333.333334 -0.5997672799331863 0.8001744871722675 2.1952932471426805e-17 -6.017933346265259e-17 2.1952932471426805e-17 -6.017933346265259e-17 -0.5997677688540322 0.800174120703556
12645674666.666666 -0.5938653899479963 0.8045644154583065 2.1500139642756735e-17 -6.032930253429132e-17 2.1500139642756735e-17 -6.032930253429132e-17 -0.5938658815271644 0.8045640526134736
12646292000.0 -0.5879313696045986 0.8089108137704143 2.1046331813262475e-17 -6.047586873389908e-17 2.1046331813262475e-17 -6.047586873389908e-17 -0.5879318638152338 0.8089104545687357
12646909333.333334 -0.5819655399560169 0.8132134469520008 2.0591534527186322e-17 -6.061902526864877e-17 2.0591534527186322e-17 -6.061902526864877e-17 -0.5819660367711247 0.8132130914125536
12647526666.666666 -0.5759682237761418 0.8174720822144377 2.013577337360481e-17 -6.07587655372483e-17 2.013577337360481e-17 -6.07587655372483e-17 -0.5759687231685903 0.8174717303561002
12648144000.0 -0.5699397455424271 0.8216864891495337 1.9679073984990654e-17 -6.089508313023238e-17 1.9679073984990654e-17 -6.089508313023238e-17 -0.5699402474849462 0.8216861409909813
12648761333.333334 -0.563880431418355 0.8258564397419822 1.9221462035778212e-17 -6.102797183024231e-17 1.9221462035778212e-17 -6.102797183024231e-17 -0.5638809358835408 0.8258560953016907
12649378666.666666 -0.5577906092357245 0.8299817083817521 1.8762963240937317e-17 -6.115742561229094e-17 1.8762963240937317e-17 -6.115742561229094e-17 -0.5577911161960379 0.8299813676779921
12649996000.0 -0.5516706084769575 0.8340620718762578 1.8303603354510965e-17 -6.128343864402868e-17 1.8303603354510965e-17 -6.128343864402868e-17 -0.5516711179047282 0.8340617349270976
12650613333.333334 -0.5455207602571557 0.8380973094625145 1.7843408168192957e-17 -6.140600528598504e-17 1.7843408168192957e-17 -6.140600528598504e-17 -0.5455212721245827 0.8380969762858174
12651230666.666666 -0.5393413973064483 0.8420872028189123 1.7382403509878056e-17 -6.152512009180815e-17 1.7382403509878056e-17 -6.152512009180815e-17 -0.5393419115855997 0.8420868734323338
12651848000.0 -0.5331328539516778 0.8460315360772264 1.692061524221215e-17 -6.164077780849184e-17 1.692061524221215e-17 -6.164077780849184e-17 -0.5331333706144956 0.8460312104982174
12652465333.333334 -0.5268954660984565 0.8499300958342062 1.6458069261157162e-17 -6.175297337658855e-17 1.6458069261157162e-17 -6.175297337658855e-17 -0.526895985116756 0.8499297740800092
12653082666.666666 -0.5206295712131367 0.8537826711630294 1.5994791494538692e-17 -6.186170193041533e-17 1.5994791494538692e-17 -6.186170193041533e-17 -0.5206300925586087 0.8537823532506791
12653700000.0 -0.5143355083042401 0.8575890536249119 1.5530807900592475e-17 -6.196695879824877e-17 1.5530807900592475e-17 -6.196695879824877e-17 -0.5143360319484517 0.8575887395712315
12654317333.333334 -0.5080136179043799 0.8613490372802158 1.5066144466525647e-17 -6.206873950250574e-17 1.5066144466525647e-17 -6.206873950250574e-17 -0.5080141438187775 0.8613487271018204
12654934666.666666 -0.501664242051743 0.8650624186996582 1.4600827207060975e-17 -6.21670397599164e-17 1.4600827207060975e-17 -6.21670397599164e-17 -0.5016647702076521 0.8650621124129502
12655552000.0 -0.49528772427150747 0.8687289969753534 1.4134882162980247e-17 -6.226185548168701e-17 1.4134882162980247e-17 -6.226185548168701e-17 -0.4952882546401358 0.8687286945965238
12656169333.333334 -0.488884409557406 0.8723485737316015 1.3668335399682662e-17 -6.235318277364807e-17 1.3668335399682662e-17 -6.235318277364807e-17 -0.48888494210984407 0.8723482752766277
12656786666.666666 -0.48245464435298624 0.8759209531356621 1.3201213005726452e-17 -6.244101793639505e-17 1.3201213005726452e-17 -6.244101793639505e-17 -0.482455179060209 0.8759206586203079
12657404000.0 -0.47599877653279205 0.8794459419083919 1.2733541091369855e-17 -6.252535746541853e-17 1.2733541091369855e-17 -6.252535746541853e-17 -0.47599931336566115 0.8794456513482066
12658021333.333334 -0.46951715538366634 0.8829233493346313 1.226534578712557e-17 -6.260619805122006e-17 1.226534578712557e-17 -6.260619805122006e-17 -0.46951769431293117 0.882923062744949
12658638666.666666 -0.46301013158590454 0.8863529872734994 1.1796653242309463e-17 -6.268353657941919e-17 1.1796653242309463e-17 -6.268353657941919e-17 -0.4630106725822041 0.8863527046694376
12659256000.0 -0.4564780571939547 0.8897346701687445 1.1327489623561899e-17 -6.275737013085351e-17 1.1327489623561899e-17 -6.275737013085351e-17 -0.4564786002278187 0.8897343915652037
12659873333.333334 -0.449921285617747 0.8930682150585846 1.0857881113420587e-17 -6.282769598165946e-17 1.0857881113420587e-17 -6.282769598165946e-17 -0.4499218306595982 0.8930679404702475
12660490666.666666 -0.44334017160349787 0.8963534415856467 1.0387853908850115e-17 -6.289451160334923e-17 1.0387853908850115e-17 -6.289451160334923e-17 -0.4433407186236527 0.8963531710269768
12661108000.0 -0.4367350712141874 0.8995901720068928 9.91743421978028e-18 -6.295781466287536e-17 9.91743421978028e-18 -6.295781466287536e-17 -0.4367356201828585 0.8995899054921345
12661725333.333334 -0.43010634181080337 0.9027782312029806 9.446648267669277e-18 -6.301760302268081e-17 9.446648267669277e-18 -6.301760302268081e-17 -0.43010689269810026 0.9027779687461573
12662342666.666666 -0.4234543420326486 0.9059174466879141 8.975522284022083e-18 -6.307387474074472e-17 8.975522284022083e-18 -6.307387474074472e-17 -0.4234548948085815 0.9059171883028307
12662960000.0 -0.4167794317779911 0.9090076486183535 8.50408250895538e-18 -6.312662807061046e-17 8.50408250895538e-18 -6.312662807061046e-17 -0.41677998641246955 0.9090073943185912
12663577333.333334 -0.41008197218474346 0.9120486698027278 8.03235518972501e-18 -6.317586146140853e-17 8.03235518972501e-18 -6.317586146140853e-17 -0.41008252864757977 0.9120484196016458
12664194666.666666 -0.4033623256107184 0.9150403457103766 7.560366579282201e-18 -6.322157355786412e-17 7.560366579282201e-18 -6.322157355786412e-17 -0.40336288387162944 0.9150400996211124
12664812000.0 -0.39662085561420607 0.9179825144803729 7.088142934812195e-18 -6.326376320029695e-17 7.088142934812195e-18 -6.326376320029695e-17 -0.3966214156428138 0.9179822725158387
12665429333.333334 -0.3898579269341991 0.9208750169303219 6.6157105162713436e-18 -6.330242942460983e-17 6.6157105162713436e-18 -6.330242942460983e-17 -0.3898584887000329 0.9208747791032065
12666046666.666666 -0.3830739054707123 0.9237176965649565 6.1430955849516266e-18 -6.333757146226365e-17 6.1430955849516266e-18 -6.333757146226365e-17 -0.3830744689432105 0.9237174628877224
12666664000.0 -0.37626915826485285 0.9265103995846521 5.670324402000637e-18 -6.336918874024613e-17 5.670324402000637e-18 -6.336918874024613e-17 -0.3762697234133648 0.9265101700695376
12667281333.333334 -0.3694440534792535 0.9292529748936352 5.1974232269872044e-18 -6.339728088102556e-17 5.1974232269872044e-18 -6.339728088102556e-17 -0.3694446202730406 0.9292527495526514
12667898666.666666 -0.3625989603778106 0.9319452741082944 4.7244183164424314e-18 -6.3421847702496e-17 4.7244183164424314e-18 -6.3421847702496e-17 -0.3625995287860478 0.9319450529532249
12668516000.0 -0.3557342493058883 0.9345871515651336 4.251335922392432e-18 -6.344288921791202e-17 4.251335922392432e-18 -6.344288921791202e-17 -0.3557348192976671 0.9345869346075355
12669133333.333334 -0.3488502916703102 0.9371784643286425 3.778202290936995e-18 -6.346040563580985e-17 3.778202290936995e-18 -6.346040563580985e-17 -0.34885086321463893 0.9371782515798447
12669750666.666666 -0.34194745991918446 0.9397190721990645 3.3050436607660007e-18 -6.347439735992177e-17 3.3050436607660007e-18 -6.347439735992177e-17 -0.3419480329849907 0.9397188636701664
12670368000.0 -0.33502612752177974 0.9422088377199677 2.8318862617291203e-18 -6.348486498907626e-17 2.8318862617291203e-18 -6.348486498907626e-17 -0.33502670207791174 0.9422086334218401
