! Parameters = {f0=12700.012000; bw=77.238000; Q=6100.000000; N=10; m_0_1=1.234329; m_1_1=-0.249806; m_1_2=1.069141; m_2_2=-0.250455; m_2_3=0.706104; m_2_8=-0.001220; m_2_9=0.035484; m_3_3=-0.252392; m_3_4=0.594633; m_3_7=-0.000620; m_3_8=-0.097708; m_3_9=-0.001220; m_4_4=-0.255317; m_4_5=0.430968; m_4_6=0.002897; m_4_7=-0.118257; m_4_8=-0.000620; m_5_5=-0.254935; m_5_6=0.838323; m_5_7=0.002897; m_6_6=-0.254936; m_6_7=0.431310; m_7_7=-0.255303; m_7_8=0.594751; m_8_8=-0.252394; m_8_9=0.706417; m_9_9=-0.250460; m_9_10=1.070219; m_10_10=-0.249816; m_10_11=1.235124}
!
! Created with skrf (http://scikit-rf.org).
# Hz S RI R 50.0 
!freq ReS11 ImS11 ReS21 ImS21 ReS12 ImS12 ReS22 ImS22
12607400000.0 -0.94769982890166 -0.3191630215103213 9.313259756042757e-17 3.432288856239406e-18 9.313259756042757e-17 3.432288856239406e-18 -0.9476996213237078 -0.3191636378767704
12608017333.333334 -0.9506792750364625 -0.31017562124702747 9.31429011262676e-17 2.541568760752532e-18 9.31429011262676e-17 2.541568760752532e-18 -0.9506790733136271 -0.3101762395209797
12608634666.666666 -0.9535734923335903 -0.30116041359805895 9.314469217851859e-17 1.650965346011573e-18 9.314469217851859e-17 1.650965346011573e-18 -0.9535732964833821 -0.30116103372390157
12609252000.0 -0.9563822213251885 -0.2921182067809735 9.313797388770695e-17 7.605599046629845e-19 9.313797388770695e-17 7.605599046629845e-19 -0.9563820313645898 -0.2921188287029336
12609869333.333334 -0.9591052102074862 -0.2830498114337617 9.312275020010816e-17 -1.2956632055854112e-19 9.312275020010816e-17 -1.2956632055854112e-19 -0.959105026152949 -0.2830504350959102
12610486666.666666 -0.9617422148632943 -0.2739560405424168 9.30990258370826e-17 -1.0193321442299215e-18 9.30990258370826e-17 -1.0193321442299215e-18 -0.9617420367307412 -0.2739566658886749
12611104000.0 -0.9642929988840333 -0.2648377093675888 9.306680629434057e-17 -1.9086564456472642e-18 9.306680629434057e-17 -1.9086564456472642e-18 -0.9642928266888522 -0.26483833634173143
12611721333.333334 -0.966757333590778 -0.25569563537198503 9.302609784113821e-17 -2.7974581761717342e-18 9.302609784113821e-17 -2.7974581761717342e-18 -0.9667571673478249 -0.2556962639176471
12612338666.666666 -0.9691349980548487 -0.24653063814678464 9.29769075194014e-17 -3.685656366626805e-18 9.29769075194014e-17 -3.685656366626805e-18 -0.9691348377784443 -0.24653126820746585
12612956000.0 -0.9714257791176159 -0.23734353933816207 9.291924314278043e-17 -4.573170134658903e-18 9.291924314278043e-17 -4.573170134658903e-18 -0.9714256248215436 -0.23734417085723142
12613573333.333334 -0.9736294714095429 -0.22813516257387223 9.285311329563548e-17 -5.459918692063484e-18 9.285311329563548e-17 -5.459918692063484e-18 -0.9736293231070492 -0.22813579549457372
12614190666.666666 -0.9757458773686709 -0.21890633338913754 9.277852733194975e-17 -6.345821352149817e-18 9.277852733194975e-17 -6.345821352149817e-18 -0.9757457350724639 -0.21890696765459516
12614808000.0 -0.9777748072582996 -0.2096578791527481 9.269549537417514e-17 -7.230797537054027e-18 9.269549537417514e-17 -7.230797537054027e-18 -0.9777746709805483 -0.20965851470597097
12615425333.333334 -0.9797160791839815 -0.2003906289929714 9.260402831200716e-17 -8.114766785055187e-18 9.260402831200716e-17 -8.114766785055187e-18 -0.9797159489363139 -0.20039126577685856
12616042666.666666 -0.9815695191098667 -0.1911054137230539 9.250413780109024e-17 -8.997648757875266e-18 9.250413780109024e-17 -8.997648757875266e-18 -0.9815693949033667 -0.19110605168039949
12616660000.0 -0.9833349608742733 -0.1818030657668485 9.239583626165396e-17 -9.879363247965005e-18 9.239583626165396e-17 -9.879363247965005e-18 -0.9833348427194865 -0.18180370484034764
12617277333.333334 -0.9850122462046057 -0.17248441908413298 9.227913687707917e-17 -1.0759830185780208e-17 9.227913687707917e-17 -1.0759830185780208e-17 -0.9850121341115312 -0.1724850592163859
12617894666.666666 -0.9866012247315116 -0.16315030909598421 9.215405359239883e-17 -1.1638969647013811e-17 9.215405359239883e-17 -1.1638969647013811e-17 -0.9866011187096048 -0.1631509502295019
12618512000.0 -0.9881017540024185 -0.15380157260957433 9.202060111272107e-17 -1.2516701859879905e-17 9.202060111272107e-17 -1.2516701859879905e-17 -0.9881016540605898 -0.15380221468678373
12619129333.333334 -0.9895136994942381 -0.14443904774354296 9.18787949015954e-17 -1.3392947212289424e-17 9.18787949015954e-17 -1.3392947212289424e-17 -0.9895136056408519 -0.14443969070679202
12619746666.666666 -0.990836934625472 -0.13506357385257903 9.172865117930063e-17 -1.42676262590843e-17 9.172865117930063e-17 -1.42676262590843e-17 -0.9908368468683474 -0.13506421764414206
12620364000.0 -0.992071340767565 -0.1256759914521442 9.157018692106715e-17 -1.5140659729224692e-17 9.157018692106715e-17 -1.5140659729224692e-17 -0.9920712591139715 -0.1256766360142267
12620981333.333334 -0.993216807255484 -0.11627714214348564 9.14034198552362e-17 -1.6011968532934236e-17 9.14034198552362e-17 -1.6011968532934236e-17 -0.9932167317121445 -0.11627778741822971
12621598666.666666 -0.9942732313977051 -0.1068678685377358 9.12283684613423e-17 -1.6881473768875308e-17 9.12283684613423e-17 -1.6881473768875308e-17 -0.9942731619707945 -0.10686851446722545
12622216000.0 -0.9952405184853848 -0.09744901418062561 9.104505196813425e-17 -1.7749096731265267e-17 9.104505196813425e-17 -1.7749096731265267e-17 -0.9952404551805286 -0.09744966070689173
12622833333.333334 -0.9961185818008598 -0.0880214234767753 9.085349035152573e-17 -1.8614758916990266e-17 9.085349035152573e-17 -1.8614758916990266e-17 -0.9961185246231334 -0.08802207054180089
12623450666.666666 -0.9969073426254104 -0.07858594161410634 9.065370433248162e-17 -1.947838203268232e-17 9.065370433248162e-17 -1.947838203268232e-17 -0.9969072915793412 -0.07858658915983197
12624068000.0 -0.9976067302463348 -0.06914341448792888 9.04457153748322e-17 -2.0339888001797648e-17 9.04457153748322e-17 -2.0339888001797648e-17 -0.9976066853358987 -0.06914406245625754
12624685333.333334 -0.9982166819632841 -0.05969468862507779 9.02295456830214e-17 -2.119919897166456e-17 9.02295456830214e-17 -2.119919897166456e-17 -0.9982166431919071 -0.05969533695788034
12625302666.666666 -0.9987371430938661 -0.050240611108305036 9.000521819979886e-17 -2.2056237320467354e-17 9.000521819979886e-17 -2.2056237320467354e-17 -0.9987371104644235 -0.05024125974742533
12625920000.0 -0.9991680669785757 -0.04078202949988437 8.977275660382337e-17 -2.2910925664295906e-17 8.977275660382337e-17 -2.2910925664295906e-17 -0.9991680404933923 -0.04078267838714452
12626537333.333334 -0.9995094149849514 -0.03131979176613785 8.953218530722508e-17 -2.3763186864071108e-17 8.953218530722508e-17 -2.3763186864071108e-17 -0.9995093946457996 -0.031320440843343345
12627154666.666666 -0.9997611565110537 -0.02185474620107461 8.928352945308546e-17 -2.4612944032509136e-17 8.928352945308546e-17 -2.4612944032509136e-17 -0.9997611423191566 -0.021855395410019688
12627772000.0 -0.9999232689882119 -0.012387741350284082 8.902681491285165e-17 -2.546012054105727e-17 8.902681491285165e-17 -2.546012054105727e-17 -0.9999232609442406 -0.012388390632756822
12628389333.333334 -0.9999957378830334 -0.00291962593523273 8.87620682836998e-17 -2.6304640026752708e-17 8.87620682836998e-17 -2.6304640026752708e-17 -0.9999957359871076 -0.002920275233020312
12629006666.666666 -0.9999785566987174 0.006548751223250369 8.848931688581226e-17 -2.714642639912798e-17 8.848931688581226e-17 -2.714642639912798e-17 -0.9999785609504065 0.006548101968356438
12629624000.0 -0.9998717269756333 0.01601654128075811 8.820858875960897e-17 -2.798540384702299e-17 8.820858875960897e-17 -2.798540384702299e-17 -0.9998717373739551 0.016015892126956796
12630241333.333334 -0.9996752582911834 0.025482895445575197 8.791991266290116e-17 -2.8821496845411714e-17 8.791991266290116e-17 -2.8821496845411714e-17 -0.9996752748346044 0.025482246451050704
12630858666.666666 -0.9993891682589453 0.03494696505460218 8.762331806799092e-17 -2.96546301621703e-17 8.762331806799092e-17 -2.96546301621703e-17 -0.9993891909453823 0.034946316277518756
12631476000.0 -0.9990134825270865 0.04440790164977944 8.731883515869137e-17 -3.048472886485769e-17 8.731883515869137e-17 -3.048472886485769e-17 -0.9990135113539047 0.04440725314827615
12632093333.333334 -0.998548234776078 0.0538648570536689 8.700649482730348e-17 -3.131171832740948e-17 8.700649482730348e-17 -3.131171832740948e-17 -0.9985482697400937 0.05386420888585445
12632710666.666666 -0.9979934667156665 0.06331698344583457 8.668632867151761e-17 -3.213552423683589e-17 8.668632867151761e-17 -3.213552423683589e-17 -0.9979935078131446 0.063316335669782
12633328000.0 -0.997349228081127 0.072763433438878 8.635836899124261e-17 -3.2956072599910474e-17 8.635836899124261e-17 -3.2956072599910474e-17 -0.9973492753077846 0.07276278611261966
12633945333.333334 -0.9966155766288203 0.08220336015418019 8.602264878539479e-17 -3.377328974976813e-17 8.602264878539479e-17 -3.377328974976813e-17 -0.9966156299798244 0.08220271333570237
12634562666.666666 -0.9957925781310053 0.09163591729796645 8.567920174860664e-17 -3.4587102352517415e-17 8.567920174860664e-17 -3.4587102352517415e-17 -0.9957926376009746 0.09163527104520423
12635180000.0 -0.9948803063699441 0.10106025923714859 8.532806226787963e-17 -3.539743741380259e-17 8.532806226787963e-17 -3.539743741380259e-17 -0.9948803719529498 0.10105961360798077
12635797333.333334 -0.9938788431312863 0.11047554107516477 8.496926541917332e-17 -3.620422228533717e-17 8.496926541917332e-17 -3.620422228533717e-17 -0.9938789148208508 0.11047489612740845
12636414666.666666 -0.9927882781967419 0.1198809187276396 8.460284696393837e-17 -3.700738467139116e-17 8.460284696393837e-17 -3.700738467139116e-17 -0.9927883559858427 0.11988027451904533
12637032000.0 -0.9916087093360321 0.12927554899811403 8.422884334557738e-17 -3.780685263526763e-17 8.422884334557738e-17 -3.780685263526763e-17 -0.9916087932170988 0.12927490558636023
12637649333.333334 -0.9903402422981123 0.13865858965369401 8.384729168585575e-17 -3.860255460572002e-17 8.384729168585575e-17 -3.860255460572002e-17 -0.990340332263031 0.13865794709638227
12638266666.666666 -0.9889829908017044 0.14802919950047266 8.345822978124646e-17 -3.9394419383345535e-17 8.345822978124646e-17 -3.9394419383345535e-17 -0.9889830868418159 0.14802855785512228
12638884000.0 -0.9875370765250983 0.1573865384589721 8.306169609921619e-17 -4.018237614693973e-17 8.306169609921619e-17 -4.018237614693973e-17 -0.9875371786311987 0.1573858977830149
12639501333.333334 -0.986002629095237 0.16672976763948452 8.265772977444886e-17 -4.096635445981879e-17 8.265772977444886e-17 -4.096635445981879e-17 -0.9860027372575804 0.16672912799025985
12640118666.666666 -0.984379786076124 0.1760580494171111 8.224637060502406e-17 -4.1746284276076125e-17 8.224637060502406e-17 -4.1746284276076125e-17 -0.984379900284424 0.176057410851861
12640736000.0 -0.9826686929564181 0.18537054750730422 8.182765904849853e-17 -4.25220959468756e-17 8.182765904849853e-17 -4.25220959468756e-17 -0.9826688131998452 0.18536991008316758
12641353333.333334 -0.9808695031365022 0.19466642704016787 8.140163621798867e-17 -4.3293720226589626e-17 8.140163621798867e-17 -4.3293720226589626e-17 -0.9808696294036867 0.19466579081417565
12641970666.666666 -0.978982377914622 0.20394485463592002 8.096834387813469e-17 -4.406108827901424e-17 8.096834387813469e-17 -4.406108827901424e-17 -0.9789825101936563 0.2039442196649904
12642588000.0 -0.9770074864724996 0.21320499847921448 8.052782444104506e-17 -4.482413168346996e-17 8.052782444104506e-17 -4.482413168346996e-17 -0.9770076247509385 0.2132043648201476
12643205333.333334 -0.9749450058601308 0.2224460283939091 8.008012096217115e-17 -4.558278244088832e-17 8.008012096217115e-17 -4.558278244088832e-17 -0.974945150124992 0.2224453961033818
12643822666.666666 -0.9727951209799041 0.23166711591749 7.962527713611968e-17 -4.6336972979863714e-17 7.962527713611968e-17 -4.6336972979863714e-17 -0.9727952712176708 0.23166648505205117
12644440000.0 -0.9705580245700542 0.2408674343752338 7.91633372924208e-17 -4.708663616264382e-17 7.91633372924208e-17 -4.708663616264382e-17 -0.970558180766675 0.24086680499129887
12645057333.333334 -0.9682339171873766 0.2500461589543468 7.869434639123202e-17 -4.7831705291091603e-17 7.869434639123202e-17 -4.7831705291091603e-17 -0.9682340793282663 0.25004553110819266
12645674666.666666 -0.9658230071892471 0.25920246677790976 7.821835001898759e-17 -4.857211411260272e-17 7.821835001898759e-17 -4.857211411260272e-17 -0.9658231752592906 0.25920184052567047
12646292000.0 -0.9633255107148938 0.2683355369788427 7.77353943839822e-17 -4.930779682599511e-17 7.77353943839822e-17 -4.930779682599511e-17 -0.9633256846984452 0.26833491237650353
12646909333.333334 -0.96074165166611 0.27744455077313696 7.724552631192661e-17 -5.00386880873133e-17 7.724552631192661e-17 -5.00386880873133e-17 -0.960741831546996 0.2774439278765303
12647526666.666666 -0.9580716616871088 0.2865286915335637 7.674879324142354e-17 -5.076472301562861e-17 7.674879324142354e-17 -5.076472301562861e-17 -0.9580718474486266 0.2865280703983629
12648144000.0 -0.9553157801437834 0.2955871448627459 7.624524321939013e-17 -5.1485837198792085e-17 7.624524321939013e-17 -5.1485837198792085e-17 -0.9553159717687061 0.29558652554446124
12648761333.333334 -0.9524742541022362 0.30461909866622405 7.573492489644579e-17 -5.2201966699114377e-17 7.573492489644579e-17 -5.2201966699114377e-17 -0.9524744515728143 0.30461848122019813
12649378666.666666 -0.9495473383066673 0.31362374322515457 7.521788752223374e-17 -5.291304805901971e-17 7.521788752223374e-17 -5.291304805901971e-17 -0.9495475416046271 0.31362312770655604
12649996000.0 -0.9465352951564783 0.32260027126906143 7.469418094068378e-17 -5.361901830666237e-17 7.469418094068378e-17 -5.361901830666237e-17 -0.9465355042630266 0.3225996577328811
12650613333.333334 -0.9434383946827778 0.33154787804812813 7.416385558523402e-17 -5.431981496147916e-17 7.416385558523402e-17 -5.431981496147916e-17 -0.9434386095786019 0.3315472665491736
12651230666.666666 -0.9402569145242095 0.34046576140523704 7.362696247400324e-17 -5.501537603969338e-17 7.362696247400324e-17 -5.501537603969338e-17 -0.9402571351894786 0.3404651519981275
12651848000.0 -0.9369911399019665 0.3493531218481498 7.308355320488932e-17 -5.570564005980037e-17 7.308355320488932e-17 -5.570564005980037e-17 -0.9369913663163368 0.34935251458731253
12652465333.333334 -0.9336413635942973 0.35820916262096913 7.253367995064642e-17 -5.63905460479652e-17 7.253367995064642e-17 -5.63905460479652e-17 -0.9336415957369102 0.35820855756063297
12653082666.666666 -0.9302078859103015 0.36703308977546206 7.197739545389834e-17 -5.70700335433914e-17 7.197739545389834e-17 -5.70700335433914e-17 -0.9302081237597879 0.36703248696965385
12653700000.0 -0.9266910146628424 0.3758241122426627 7.141475302208426e-17 -5.774404260366022e-17 7.141475302208426e-17 -5.774404260366022e-17 -0.9266912581973232 0.37582351174520157
12654317333.333334 -0.923091065141138 0.3845814419033147 7.084580652239522e-17 -5.841251380997247e-17 7.084580652239522e-17 -5.841251380997247e-17 -0.9230913143382266 0.3845808437678077
12654934666.666666 -0.919408360082381 0.39330429365881836 7.027061037661976e-17 -5.907538827239069e-17 7.027061037661976e-17 -5.907538827239069e-17 -0.9194086149191845 0.3933036979386553
12655552000.0 -0.9156432296427977 0.40199188550161147 6.968921955596529e-17 -5.973260763500048e-17 6.968921955596529e-17 -5.973260763500048e-17 -0.9156434900959218 0.40199129224996105
12656169333.333334 -0.9117960113681592 0.41064343858504543 6.910168957583147e-17 -6.038411408102426e-17 6.910168957583147e-17 -6.038411408102426e-17 -0.9117962774137072 0.4106428478548494
12656786666.666666 -0.9078670501634009 0.41925817729346737 6.850807649051874e-17 -6.102985033790045e-17 6.850807649051874e-17 -6.102985033790045e-17 -0.9078673217769765 0.419257589137436
12657404000.0 -0.9038566982617594 0.42783532931162443 6.790843688790787e-17 -6.166975968229177e-17 6.790843688790787e-17 -6.166975968229177e-17 -0.9038569754184709 0.4278347437822329
12658021333.333334 -0.8997653151931613 0.43637412569398104 6.730282788408218e-17 -6.230378594505316e-17 6.730282788408218e-17 -6.230378594505316e-17 -0.8997655978676217 0.4363735428434633
12658638666.666666 -0.8955932677520996 0.44487380093342305 6.669130711791648e-17 -6.293187351613414e-17 6.669130711791648e-17 -6.293187351613414e-17 -0.8955935559184304 0.44487322081376834
12659256000.0 -0.8913409299645542 0.4533335930302964 6.607393274559279e-17 -6.355396734945577e-17 6.607393274559279e-17 -6.355396734945577e-17 -0.8913412235963869 0.45333301569324386
12659873333.333334 -0.887008683054619 0.4617527435603872 6.545076343510584e-17 -6.417001296769932e-17 6.545076343510584e-17 -6.417001296769932e-17 -0.8870089821250973 0.4617521690574212
12660490666.666666 -0.8825969154103179 0.4701304977429424 6.482185836070774e-17 -6.477995646705777e-17 6.482185836070774e-17 -6.477995646705777e-17 -0.8825972198921008 0.4701299261252886
12661108000.0 -0.8781060225486509 0.47846610450858734 6.418727719728949e-17 -6.538374452195114e-17 6.418727719728949e-17 -6.538374452195114e-17 -0.8781063324139153 0.4784655358272077
12661725333.333334 -0.8735364070803243 0.4867588165663085 6.35470801147645e-17 -6.598132438964388e-17 6.35470801147645e-17 -6.598132438964388e-17 -0.8735367223007667 0.4867582508718965
12662342666.666666 -0.8688884786735062 0.4950078904707227 6.290132777235941e-17 -6.657264391485404e-17 6.290132777235941e-17 -6.657264391485404e-17 -0.8688887992203462 0.49500732781369955
12662960000.0 -0.8641626540171699 0.5032125866886038 6.225008131290308e-17 -6.715765153426934e-17 6.225008131290308e-17 -6.715765153426934e-17 -0.8641629798611528 0.5032120271191135
12663577333.333334 -0.8593593567837082 0.5113721696652316 6.159340235704261e-17 -6.773629628103617e-17 6.159340235704261e-17 -6.773629628103617e-17 -0.8593596878951066 0.5113716132331361
12664194666.666666 -0.8544790175910079 0.5194859078902347 6.093135299743921e-17 -6.830852778917253e-17 6.093135299743921e-17 -6.830852778917253e-17 -0.8544793539396252 0.51948535464511
12664812000.0 -0.849522073963759 0.52755307396332 6.026399579291373e-17 -6.887429629793363e-17 6.026399579291373e-17 -6.887429629793363e-17 -0.8495224155189328 0.527552523954452
12665429333.333334 -0.8444889702942742 0.5355729446594099 5.959139376255179e-17 -6.943355265612017e-17 5.959139376255179e-17 -6.943355265612017e-17 -0.8444893170248774 0.5355723979357889
12666046666.666666 -0.8393801578027079 0.5435448009933833 5.891361037978126e-17 -6.998624832631956e-17 5.891361037978126e-17 -6.998624832631956e-17 -0.8393805096771528 0.5435442576037006
12666664000.0 -0.8341960944964371 0.5514679282847972 5.823070956637822e-17 -7.053233538911558e-17 5.823070956637822e-17 -7.053233538911558e-17 -0.8341964514826787 0.5514673882774409
12667281333.333334 -0.8289372451292175 0.5593416162216236 5.754275568648514e-17 -7.107176654719932e-17 5.754275568648514e-17 -7.107176654719932e-17 -0.8289376071947547 0.5593410796446735
12667898666.666666 -0.8236040811593618 0.5671651589241683 5.684981354054217e-17 -7.160449512946071e-17 5.684981354054217e-17 -7.160449512946071e-17 -0.8236044482712422 0.5671646258253923
12668516000.0 -0.8181970807074723 0.5749378550083507 5.615194835920112e-17 -7.213047509500491e-17 5.615194835920112e-17 -7.213047509500491e-17 -0.8181974528322938 0.5749373254352
12669133333.333334 -0.8127167285137054 0.5826590076483971 5.5449225797221565e-17 -7.26496610370956e-17 5.5449225797221565e-17 -7.26496610370956e-17 -0.8127171056176189 0.5826584816480015
12669750666.666666 -0.8071635158942172 0.5903279246394508 5.474171192729081e-17 -7.316200818706871e-17 5.474171192729081e-17 -7.316200818706871e-17 -0.8071638979429322 0.5903274022586165
12670368000.0 -0.8015379406970845 0.5979439184596751 5.4029473233835487e-17 -7.366747241816592e-17 5.4029473233835487e-17 -7.366747241816592e-17 -0.8015383276558712 0.5979433997448792
