! Parameters = {f0=12700.012000; bw=77.238000; Q=6100.000000; N=10; m_0_1=1.229925; m_1_1=-0.315872; m_1_2=1.064737; m_2_2=-0.316521; m_2_3=0.701700; m_2_8=-0.001440; m_2_9=0.035264; m_3_3=-0.318458; m_3_4=0.590229; m_3_7=-0.000840; m_3_8=-0.097928; m_3_9=-0.001440; m_4_4=-0.321383; m_4_5=0.426564; m_4_6=0.002677; m_4_7=-0.118477; m_4_8=-0.000840; m_5_5=-0.321001; m_5_6=0.833919; m_5_7=0.002677; m_6_6=-0.321002; m_6_7=0.426906; m_7_7=-0.321369; m_7_8=0.590347; m_8_8=-0.318460; m_8_9=0.702013; m_9_9=-0.316526; m_9_10=1.065815; m_10_10=-0.315882; m_10_11=1.230720}
!
! Created with skrf (http://scikit-rf.org).
# Hz S RI R 50.0 
!freq ReS11 ImS11 ReS21 ImS21 ReS12 ImS12 ReS22 ImS22
12607400000.0 0.987874773443963 -0.15525280027385135 -8.23671869714812e-17 3.916925458089979e-17 -8.23671869714812e-17 3.916925458089979e-17 0.9878748740582348 -0.15525216006310613
12608017333.333334 0.9863819371229072 -0.16447089139873844 -8.19782289479393e-17 3.993614770040299e-17 -8.19782289479393e-17 3.993614770040299e-17 0.9863820437059163 -0.164470252186753
12608634666.666666 0.9848030865571087 -0.17367464036935806 -8.158213725412494e-17 4.0699191044979166e-17 -8.158213725412494e-17 4.0699191044979166e-17 0.9848031990989768 -0.17367400221177243
12609252000.0 0.983138359425189 -0.18286324460257453 -8.11789498801085e-17 4.145831831985873e-17 -8.11789498801085e-17 4.145831831985873e-17 0.98313847791552 -0.18286260755493122
12609869333.333334 0.9813879008943529 -0.19203590283592872 -8.076870543145562e-17 4.221346360413316e-17 -8.076870543145562e-17 4.221346360413316e-17 0.9813880253222307 -0.1920352669536677
12610486666.666666 0.9795518636077529 -0.20119181519736984 -8.035144312555902e-17 4.2964561356461695e-17 -8.035144312555902e-17 4.2964561356461695e-17 0.9795519939617476 -0.20119118053582463
12611104000.0 0.9776304076711235 -0.21033018327531325 -7.992720278790309e-17 4.3711546420766746e-17 -7.992720278790309e-17 4.3711546420766746e-17 0.9776305439392885 -0.21032954988970526
12611721333.333334 0.9756237006388955 -0.21945021018787292 -7.949602484830602e-17 4.4454354031838424e-17 -7.949602484830602e-17 4.4454354031838424e-17 0.9756238428087685 -0.21944957813330668
12612338666.666666 0.9735319174995274 -0.22855110065262912 -7.905795033707941e-17 4.519291982095648e-17 -7.905795033707941e-17 4.519291982095648e-17 0.9735320655581342 -0.22855046998408796
12612956000.0 0.9713552406602449 -0.23763206105597823 -7.861302088114883e-17 4.592717982145225e-17 -7.861302088114883e-17 4.592717982145225e-17 0.971355394594099 -0.23763143182831925
12613573333.333334 0.969093859931193 -0.2466922995220882 -7.816127870013472e-17 4.665707047421262e-17 -7.816127870013472e-17 4.665707047421262e-17 0.9690940197262965 -0.24669167179003737
12614190666.666666 0.9667479725088189 -0.255731025982228 -7.77027666023571e-17 4.738252863318807e-17 -7.77027666023571e-17 4.738252863318807e-17 0.966748138150664 -0.2557303998003756
12614808000.0 0.9643177829587075 -0.2647474522435248 -7.723752798080961e-17 4.81034915708284e-17 -7.723752798080961e-17 4.81034915708284e-17 0.9643179544322789 -0.26474682766632057
12615425333.333334 0.9618035031977399 -0.2737407920577235 -7.676560680907503e-17 4.881989698349262e-17 -7.676560680907503e-17 4.881989698349262e-17 0.9618036804875144 -0.273740169139472
12616042666.666666 0.9592053524756093 -0.28271026118974885 -7.628704763719228e-17 4.953168299681675e-17 -7.628704763719228e-17 4.953168299681675e-17 0.9592055355655587 -0.28270963998460463
12616660000.0 0.9565235573557073 -0.29165507748609276 -7.580189558747391e-17 5.02387881710415e-17 -7.580189558747391e-17 5.02387881710415e-17 0.9565237462292979 -0.29165445804805545
12617277333.333334 0.9537583516953511 -0.30057446094304463 -7.531019635027253e-17 5.094115150630116e-17 -7.531019635027253e-17 5.094115150630116e-17 0.9537585463355487 -0.300573843325955
12617894666.666666 0.9509099766254424 -0.3094676337745763 -7.481199617970829e-17 5.1638712447859206e-17 -7.481199617970829e-17 5.1638712447859206e-17 0.9509101770147106 -0.3094670180321109
12618512000.0 0.94797868052934 -0.3183338204804625 -7.430734188932281e-17 5.233141089133526e-17 -7.430734188932281e-17 5.233141089133526e-17 0.9479788866496418 -0.3183332066661288
12619129333.333334 0.9449647190213223 -0.32717224791352695 -7.379628084772385e-17 5.301918718783828e-17 -7.379628084772385e-17 5.301918718783828e-17 0.9449649308541243 -0.3271716360806594
12619746666.666666 0.9418683549242095 -0.33598214534733273 -7.327886097414531e-17 5.3701982149107e-17 -7.327886097414531e-17 5.3701982149107e-17 0.9418685724504834 -0.33598153554908855
12620364000.0 0.9386898582464513 -0.344762744543393 -7.275513073397731e-17 5.437973705258473e-17 -7.275513073397731e-17 5.437973705258473e-17 0.9386900814466693 -0.3447621368327448
12620981333.333334 0.9354295061586502 -0.3535132798179157 -7.222513913425532e-17 5.505239364644251e-17 -7.222513913425532e-17 5.505239364644251e-17 0.9354297350127957 -0.3535126742476506
12621598666.666666 0.932087582969311 -0.3622329881088456 -7.168893571908917e-17 5.571989415457697e-17 -7.168893571908917e-17 5.571989415457697e-17 0.9320878174568762 -0.36223238473155855
12622216000.0 0.9286643801000922 -0.37092110904226905 -7.114657056505414e-17 5.638218128155389e-17 -7.114657056505414e-17 5.638218128155389e-17 0.9286646202000788 -0.37092050791035847
12622833333.333334 0.9251601960603709 -0.3795768849987725 -7.059809427653299e-17 5.703919821751112e-17 -7.059809427653299e-17 5.703919821751112e-17 0.9251604417512936 -0.37957628616443595
12623450666.666666 0.9215753364212679 -0.3881995611793772 -7.004355798102157e-17 5.76908886430064e-17 -7.004355798102157e-17 5.76908886430064e-17 0.9215755876811571 -0.388198964694607
12624068000.0 0.9179101137889067 -0.39678838567159674 -6.948301332437467e-17 5.83371967338379e-17 -6.948301332437467e-17 5.83371967338379e-17 0.9179103705953072 -0.39678779158817457
12624685333.333334 0.9141648477771994 -0.40534260951487006 -6.891651246601408e-17 5.897806716581023e-17 -6.891651246601408e-17 5.897806716581023e-17 0.9141651101071767 -0.405342017884364
12625302666.666666 0.9103398649800535 -0.41386148676572004 -6.834410807411226e-17 5.961344511943383e-17 -6.834410807411226e-17 5.961344511943383e-17 0.9103401328101929 -0.41386089763947903
12625920000.0 0.9064354989427267 -0.422344274563163 -6.776585332068932e-17 6.024327628462512e-17 -6.776585332068932e-17 6.024327628462512e-17 0.9064357722491355 -0.4223436879923121
12626537333.333334 0.9024520901329047 -0.4307902331931244 -6.718180187671762e-17 6.086750686530456e-17 -6.718180187671762e-17 6.086750686530456e-17 0.902452368891216 -0.4307896492285614
12627154666.666666 0.8983899859109427 -0.43919862615309974 -6.659200790714906e-17 6.148608358398499e-17 -6.659200790714906e-17 6.148608358398499e-17 0.8983902700963172 -0.4391980448454903
12627772000.0 0.8942495404995018 -0.44756872021653227 -6.599652606590032e-17 6.20989536863123e-17 -6.599652606590032e-17 6.20989536863123e-17 0.8942498300866274 -0.44756814161630465
12628389333.333334 0.8900311149528297 -0.4558997854963921 -6.539541149083215e-17 6.270606494552017e-17 -6.539541149083215e-17 6.270606494552017e-17 0.8900314099159282 -0.4558992096537346
12629006666.666666 0.8857350771250936 -0.4641910955092083 -6.478871979863593e-17 6.330736566689055e-17 -6.478871979863593e-17 6.330736566689055e-17 0.885735377437918 -0.4641905224740629
12629624000.0 0.8813618016384354 -0.4724419272381375 -6.417650707972634e-17 6.390280469211661e-17 -6.417650707972634e-17 6.390280469211661e-17 0.8813621072742767 -0.4724413570601971
12630241333.333334 0.8769116698502315 -0.48065156119616576 -6.355882989306328e-17 6.44923314036479e-17 -6.355882989306328e-17 6.44923314036479e-17 0.8769119807819196 -0.4806509939248696
12630858666.666666 0.8723850698199203 -0.48881928148869974 -6.293574526095617e-17 6.50758957289641e-17 -6.293574526095617e-17 6.50758957289641e-17 0.8723853860198227 -0.4888187171732272
12631476000.0 0.8677823962750028 -0.4969443758762641 -6.230731066379761e-17 6.565344814482876e-17 -6.230731066379761e-17 6.565344814482876e-17 0.8677827177150342 -0.4969438145655338
12632093333.333334 0.863104050576811 -0.505026135836291 -6.167358403480311e-17 6.622493968145018e-17 -6.167358403480311e-17 6.622493968145018e-17 0.863104377228431 -0.5050255775789544
12632710666.666666 0.8583504406854234 -0.5130638566250532 -6.103462375467931e-17 6.679032192662371e-17 -6.103462375467931e-17 6.679032192662371e-17 0.8583507725196393 -0.5130633014694906
12633328000.0 0.8535219811240152 -0.5210568373392396 -6.039048864624622e-17 6.734954702982886e-17 -6.039048864624622e-17 6.734954702982886e-17 0.8535223181113845 -0.5210562853335555
12633945333.333334 0.8486190929428405 -0.5290043809768548 -5.974123796906844e-17 6.790256770623402e-17 -5.974123796906844e-17 6.790256770623402e-17 0.8486194350534753 -0.5290038321688749
12634562666.666666 0.8436422036824467 -0.5369057944981226 -5.908693141400389e-17 6.844933724069082e-17 -5.908693141400389e-17 6.844933724069082e-17 0.8436425508860151 -0.5369052489353893
12635180000.0 0.8385917473364045 -0.5447603888858948 -5.842762909773726e-17 6.89898094916571e-17 -5.842762909773726e-17 6.89898094916571e-17 0.8385920996021337 -0.5447598466156625
12635797333.333334 0.8334681643134474 -0.5525674792057581 -5.776339155727188e-17 6.952393889507257e-17 -5.776339155727188e-17 6.952393889507257e-17 0.8334685216101264 -0.5525669402749901
12636414666.666666 0.8282719013991329 -0.5603263846656695 -5.709427974439684e-17 7.005168046817385e-17 -5.709427974439684e-17 7.005168046817385e-17 0.828272263695114 -0.5603258491210324
12637032000.0 0.8230034117167825 -0.5680364286754604 -5.642035502009883e-17 7.057298981327215e-17 -5.642035502009883e-17 7.057298981327215e-17 0.8230037789799862 -0.5680358965633217
12637649333.333334 0.8176631546880351 -0.5756969389057448 -5.57416791489603e-17 7.108782312146151e-17 -5.57416791489603e-17 7.108782312146151e-17 0.8176635268859522 -0.5756964102721681
12638266666.666666 0.8122515959927696 -0.5833072473465708 -5.5058314293513827e-17 7.159613717628173e-17 -5.5058314293513827e-17 7.159613717628173e-17 0.8122519730924627 -0.5833067222373115
12638884000.0 0.8067692075284939 -0.5908666903656712 -5.4370323008565197e-17 7.209788935732494e-17 -5.4370323008565197e-17 7.209788935732494e-17 0.8067695894966014 -0.590866168826173
12639501333.333334 0.8012164673691775 -0.5983746087663565 -5.367776823548197e-17 7.259303764378992e-17 -5.367776823548197e-17 7.259303764378992e-17 0.8012168541719187 -0.5983740908417485
12640118666.666666 0.7955938597236704 -0.6058303478448638 -5.2980713296464724e-17 7.308154061797139e-17 -5.2980713296464724e-17 7.308154061797139e-17 0.7955942513268434 -0.6058298335799538
12640736000.0 0.7899018748931973 -0.6132332574478065 -5.2279221888740053e-17 7.356335746872621e-17 -5.2279221888740053e-17 7.356335746872621e-17 0.7899022712621867 -0.6132327468870798
12641353333.333334 0.7841410092290209 -0.6205826920283303 -5.157335807880729e-17 7.403844799482655e-17 -5.157335807880729e-17 7.403844799482655e-17 0.7841414103287989 -0.6205821852159448
12641970666.666666 0.778311765088794 -0.6278780107028769 -5.086318629655935e-17 7.450677260832255e-17 -5.086318629655935e-17 7.450677260832255e-17 0.7783121708839239 -0.6278775076826595
12642588000.0 0.7724146507929286 -0.6351185773068481 -5.014877132943933e-17 7.496829233780468e-17 -5.014877132943933e-17 7.496829233780468e-17 0.7724150612475673 -0.6351180781222902
12643205333.333334 0.7664501805802497 -0.6423037604500995 -4.9430178316544316e-17 7.542296883162564e-17 -4.9430178316544316e-17 7.542296883162564e-17 0.7664505956581518 -0.6423032651443543
12643822666.666666 0.7604188745630832 -0.6494329335720901 -4.870747274269583e-17 7.58707643610688e-17 -4.870747274269583e-17 7.58707643610688e-17 0.7604192942276032 -0.6494324421879683
12644440000.0 0.7543212586819882 -0.6565054749964064 -4.7980720432490667e-17 7.631164182345476e-17 -4.7980720432490667e-17 7.631164182345476e-17 0.7543216828960847 -0.6565049875763728
12645057333.333334 0.7481578646598803 -0.6635207679849997 -4.724998754433243e-17 7.674556474518524e-17 -4.724998754433243e-17 7.674556474518524e-17 0.7481582933861189 -0.663520284571169
12645674666.666666 0.7419292299556638 -0.6704782007919654 -4.651534056441638e-17 7.717249728474271e-17 -4.651534056441638e-17 7.717249728474271e-17 0.7419296631562202 -0.6704777214260988
12646292000.0 0.7356358977172309 -0.6773771667170368 -4.577684630068276e-17 7.759240423563449e-17 -4.577684630068276e-17 7.759240423563449e-17 0.7356363353538933 -0.677376691440538
12646909333.333334 0.729278416734343 -0.6842170641582132 -4.5034571876786035e-17 7.800525102925505e-17 -4.5034571876786035e-17 7.800525102925505e-17 0.7292788587685185 -0.6842165930121269
12647526666.666666 0.7228573413905915 -0.6909972966644371 -4.4288584725987664e-17 7.841100373772045e-17 -4.4288584725987664e-17 7.841100373772045e-17 0.7228577877833062 -0.6909968296894425
12648144000.0 0.7163732316150655 -0.6977172729875792 -4.353895258504761e-17 7.880962907662963e-17 -4.353895258504761e-17 7.880962907662963e-17 0.7163736823269684 -0.6977168102239872
12648761333.333334 0.7098266528336038 -0.7043764071339121 -4.278574348809865e-17 7.920109440776494e-17 -4.278574348809865e-17 7.920109440776494e-17 0.7098271078249734 -0.7043759486216641
12649378666.666666 0.7032181759194948 -0.7109741184152163 -4.202902576048756e-17 7.958536774173889e-17 -4.202902576048756e-17 7.958536774173889e-17 0.7032186351502392 -0.7109736641938788
12649996000.0 0.6965483771435919 -0.717509831499516 -4.126886801258132e-17 7.99624177405879e-17 -4.126886801258132e-17 7.99624177405879e-17 0.6965488405732535 -0.7175093816082767
12650613333.333334 0.6898178381241216 -0.7239829764611869 -4.0505339133568626e-17 8.033221372029786e-17 -4.0505339133568626e-17 8.033221372029786e-17 0.6898183057118802 -0.7239825309388522
12651230666.666666 0.6830271457760475 -0.7303929888305771 -3.973850828524163e-17 8.069472565326981e-17 -3.973850828524163e-17 8.069472565326981e-17 0.6830276174807247 -0.7303925477155693
12651848000.0 0.6761768922596844 -0.7367393096434255 -3.8968444895723396e-17 8.104992417074177e-17 -3.8968444895723396e-17 8.104992417074177e-17 0.6761773680397482 -0.7367388729737795
12652465333.333334 0.669267674929249 -0.7430213854894309 -3.819521865321817e-17 8.139778056513016e-17 -3.819521865321817e-17 8.139778056513016e-17 0.6692681547428141 -0.7430209533027886
12653082666.666666 0.6623000962807666 -0.7492386685605075 -3.741889949972022e-17 8.173826679232176e-17 -3.741889949972022e-17 8.173826679232176e-17 0.6623005800856012 -0.7492382408941177
12653700000.0 0.6552747638993265 -0.7553906166987506 -3.663955762467917e-17 8.207135547391603e-17 -3.663955762467917e-17 8.207135547391603e-17 0.6552752516528536 -0.7553901935894624
12654317333.333334 0.6481922904063891 -0.7614766934434407 -3.5857263458701886e-17 8.239701989938246e-17 -3.5857263458701886e-17 8.239701989938246e-17 0.6481927820656932 -0.7614762749277043
12654934666.666666 0.6410532934061809 -0.7674963680780024 -3.5072087667179343e-17 8.271523402818282e-17 -3.5072087667179343e-17 8.271523402818282e-17 0.6410537889280098 -0.7674959541918633
12655552000.0 0.6338583954317455 -0.7734491156763506 -3.428410114391835e-17 8.30259724918221e-17 -3.428410114391835e-17 8.30259724918221e-17 0.6338588947725131 -0.7734487064554464
12656169333.333334 0.6266082238909841 -0.7793344171483911 -3.34933750047794e-17 8.33292105958302e-17 -3.34933750047794e-17 8.33292105958302e-17 0.6266087270067769 -0.77933401262795
12656786666.666666 0.6193034110116405 -0.7851517592855427 -3.2699980581240244e-17 8.362492432170552e-17 -3.2699980581240244e-17 8.362492432170552e-17 0.6193039178582203 -0.7851513595003794
12657404000.0 0.6119445937863015 -0.7909006348053806 -3.190398941400217e-17 8.391309032877396e-17 -3.190398941400217e-17 8.391309032877396e-17 0.6119451043191083 -0.7909002397898934
12658021333.333334 0.6045324139168039 -0.7965805423959077 -3.1105473246539914e-17 8.419368595600337e-17 -3.1105473246539914e-17 8.419368595600337e-17 0.6045329280909607 -0.7965801521840754
12658638666.666666 0.5970675177583898 -0.8021909867591819 -3.0304504018664605e-17 8.446668922374563e-17 -3.0304504018664605e-17 8.446668922374563e-17 0.5970680355287075 -0.8021906013845623
12659256000.0 0.5895505562631201 -0.8077314786546838 -2.9501153860033475e-17 8.473207883543197e-17 -2.9501153860033475e-17 8.473207883543197e-17 0.5895510775840986 -0.8077310981504078
12659873333.333334 0.581982184923309 -0.813201534941817 -2.869549508369082e-17 8.498983417918986e-17 -2.869549508369082e-17 8.498983417918986e-17 0.5819827097491448 -0.8132011593405895
12660490666.666666 0.5743630637143701 -0.818600678622049 -2.788760017957374e-17 8.523993532940743e-17 -2.788760017957374e-17 8.523993532940743e-17 0.5743635919989575 -0.8186003079561425
12661108000.0 0.5666938570370312 -0.8239284388806651 -2.707754180798022e-17 8.54823630482428e-17 -2.707754180798022e-17 8.54823630482428e-17 0.5666943887339676 -0.8239280731819192
12661725333.333334 0.5589752336597228 -0.829184351127597 -2.6265392793083073e-17 8.571709878705422e-17 -2.6265392793083073e-17 8.571709878705422e-17 0.5589757687223136 -0.8291839904274166
12662342666.666666 0.5512078666600061 -0.8343679570381173 -2.5451226116370944e-17 8.594412468778675e-17 -2.5451226116370944e-17 8.594412468778675e-17 0.5512084050412664 -0.8343676013674661
12662960000.0 0.5433924333659922 -0.8394788045927195 -2.4635114910116948e-17 8.616342358428544e-17 -2.4635114910116948e-17 8.616342358428544e-17 0.5433929750186534 -0.8394784539821216
12663577333.333334 0.5355296152972588 -0.8445164481165574 -2.3817132450821767e-17 8.637497900355082e-17 -2.3817132450821767e-17 8.637497900355082e-17 0.5355301601737708 -0.8445161025960911
12664194666.666666 0.5276200981054172 -0.8494804483183038 -2.2997352152649e-17 8.65787751669319e-17 -2.2997352152649e-17 8.65787751669319e-17 0.5276206461579535 -0.8494801079176011
12664812000.0 0.5196645715143237 -0.854370372328459 -2.2175847560850838e-17 8.677479699125666e-17 -2.2175847560850838e-17 8.677479699125666e-17 0.5196651226947864 -0.8543700370767038
12665429333.333334 0.5116637292599107 -0.859185793737115 -2.13526923451821e-17 8.696303008990119e-17 -2.13526923451821e-17 8.696303008990119e-17 0.5116642835199331 -0.8591854636630378
12666046666.666666 0.5036182690298121 -0.8639262926310616 -2.0527960293320842e-17 8.714346077379315e-17 -2.0527960293320842e-17 8.714346077379315e-17 0.5036188263207639 -0.8639259677629397
12666664000.0 0.49552889240225634 -0.8685914556305676 -1.9701725304241097e-17 8.731607605236151e-17 -1.9701725304241097e-17 8.731607605236151e-17 0.49552945267524756 -0.8685911359962206
12667281333.333334 0.4873963047852295 -0.8731808759252233 -1.887406138164066e-17 8.748086363441069e-17 -1.887406138164066e-17 8.748086363441069e-17 0.4873968679911149 -0.8731805615520122
12667898666.666666 0.47922121535471734 -0.8776941533095591 -1.8045042627304827e-17 8.763781192894426e-17 -1.8045042627304827e-17 8.763781192894426e-17 0.4792217814441012 -0.8776938442243843
12668516000.0 0.4710043369928629 -0.8821308942179443 -1.7214743234476424e-17 8.778691004592351e-17 -1.7214743234476424e-17 8.778691004592351e-17 0.4710049059161027 -0.8821305904472416
12669133333.333334 0.46274638622602676 -0.8864907117587807 -1.638323748126771e-17 8.792814779695381e-17 -1.638323748126771e-17 8.792814779695381e-17 0.46274695793323717 -0.88649041332852
12669750666.666666 0.4544480831620537 -0.8907732257483783 -1.5550599723994978e-17 8.806151569592309e-17 -1.5550599723994978e-17 8.806151569592309e-17 0.45444865760311254 -0.890772932684062
12670368000.0 0.44611015142757965 -0.8949780627440532 -1.471690439055621e-17 8.818700495956809e-17 -1.471690439055621e-17 8.818700495956809e-17 0.4461107285521303 -0.8949777750707127
12670985333.333334 0.43773331810500465 -0.8991048560766534 -1.3882225973799983e-17 8.830460750797937e-17 -1.3882225973799983e-17 8.830460750797937e-17 0.4377338978624619 -0.8991045738188478
