! Parameters = {f0=12700.012000; bw=77.238000; Q=6100.000000; N=10; m_0_1=1.160455; m_1_1=-1.357914; m_1_2=0.995267; m_2_2=-1.358563; m_2_3=0.632230; m_2_8=-0.004914; m_2_9=0.031790; m_3_3=-1.360500; m_3_4=0.520759; m_3_7=-0.004314; m_3_8=-0.101402; m_3_9=-0.004914; m_4_4=-1.363425; m_4_5=0.357094; m_4_6=-0.000797; m_4_7=-0.121951; m_4_8=-0.004314; m_5_5=-1.363043; m_5_6=0.764449; m_5_7=-0.000797; m_6_6=-1.363044; m_6_7=0.357436; m_7_7=-1.363411; m_7_8=0.520877; m_8_8=-1.360502; m_8_9=0.632543; m_9_9=-1.358568; m_9_10=0.996345; m_10_10=-1.357924; m_10_11=1.161250}
!
! Created with skrf (http://scikit-rf.org).
# Hz S RI R 50.0 
!freq ReS11 ImS11 ReS21 ImS21 ReS12 ImS12 ReS22 ImS22
12607400000.0 -0.5632503749331312 -0.8262862791657264 4.959132118288932e-17 4.047079654791028e-17 4.959132118288932e-17 4.047079654791028e-17 -0.5632498695917267 -0.8262866236390104
12608017333.333334 -0.5692544783337989 -0.8221613825136569 4.9878597765155825e-17 4.0096196754625756e-17 4.9878597765155825e-17 4.0096196754625756e-17 -0.5692539755397286 -0.8221617306418891
12608634666.666666 -0.5752283747959795 -0.8179928586665226 5.01630493111753e-17 3.9719563185076916e-17 5.01630493111753e-17 3.9719563185076916e-17 -0.5752278745756729 -0.817993210430873
12609252000.0 -0.5811717473207013 -0.813780928823019 5.0444661464077885e-17 3.9340917110937613e-17 5.0444661464077885e-17 3.9340917110937613e-17 -0.5811712497004489 -0.8137812842044666
12609869333.333334 -0.5870842805286711 -0.8095258164851721 5.072342002692281e-17 3.896027990491362e-17 5.072342002692281e-17 3.896027990491362e-17 -0.5870837855346227 -0.8095261754645056
12610486666.666666 -0.5929656606770316 -0.8052277474464622 5.099931096340267e-17 3.857767303954789e-17 5.099931096340267e-17 3.857767303954789e-17 -0.592965168335195 -0.805228110004281
12611104000.0 -0.59881557567617 -0.8008869497797236 5.1272320398550304e-17 3.8193118086004464e-17 5.1272320398550304e-17 3.8193118086004464e-17 -0.5988150860124096 -0.8008873158964391
12611721333.333334 -0.6046337151059812 -0.7965036538252606 5.154243461942109e-17 3.780663671287006e-17 5.154243461942109e-17 3.780663671287006e-17 -0.6046332281460176 -0.7965040234810987
12612338666.666666 -0.610419770232593 -0.7920780921784419 5.180964007578074e-17 3.7418250684929806e-17 5.180964007578074e-17 3.7418250684929806e-17 -0.6104192860019996 -0.7920784653534407
12612956000.0 -0.6161734340246537 -0.7876104996774217 5.207392338077859e-17 3.7027981861945635e-17 5.207392338077859e-17 3.7027981861945635e-17 -0.6161729525488572 -0.7876108763514352
12613573333.333334 -0.6218944011695604 -0.7831011133907325 5.2335271311601604e-17 3.663585219744509e-17 5.2335271311601604e-17 3.663585219744509e-17 -0.6218939224738397 -0.7831014935434323
12614190666.666666 -0.6275823680897951 -0.7785501726046028 5.259367081013864e-17 3.624188373747688e-17 5.259367081013864e-17 3.624188373747688e-17 -0.6275818921992774 -0.7785505562154758
12614808000.0 -0.6332370329589405 -0.7739579188103252 5.284910898362138e-17 3.584609861938317e-17 5.284910898362138e-17 3.584609861938317e-17 -0.633236559898603 -0.7739583058586785
12615425333.333334 -0.638858095717744 -0.7693245956914097 5.3101573105256904e-17 3.5448519070565693e-17 5.3101573105256904e-17 3.5448519070565693e-17 -0.6388576255124105 -0.7693249861563686
12616042666.666666 -0.6444452580899501 -0.7646504491107223 5.3351050614860015e-17 3.504916740723386e-17 5.3351050614860015e-17 3.504916740723386e-17 -0.6444447907642917 -0.7646508429712352
12616660000.0 -0.6499982235982623 -0.7599357270973353 5.3597529119466524e-17 3.464806603316385e-17 5.3597529119466524e-17 3.464806603316385e-17 -0.6499977591767937 -0.7599361243321703
12617277333.333334 -0.6555166975800054 -0.7551806798334124 5.3840996393942743e-17 3.4245237438444077e-17 5.3840996393942743e-17 3.4245237438444077e-17 -0.6555162360870854 -0.7551810804211616
12617894666.666666 -0.661000387202702 -0.7503855596409963 5.408144038158017e-17 3.3840704198225807e-17 5.408144038158017e-17 3.3840704198225807e-17 -0.6609999286625308 -0.7503859635600747
12618512000.0 -0.666449001479756 -0.7455506209684816 5.431884919469126e-17 3.343448897145275e-17 5.431884919469126e-17 3.343448897145275e-17 -0.666448545916376 -0.745551028197132
12619129333.333334 -0.671862251285728 -0.7406761203772703 5.4553211115181466e-17 3.302661449960965e-17 5.4553211115181466e-17 3.302661449960965e-17 -0.6718617987230209 -0.7406765308935602
12619746666.666666 -0.6772398493718036 -0.7357623165280415 5.478451459512507e-17 3.2617103605445256e-17 5.478451459512507e-17 3.2617103605445256e-17 -0.6772393998334886 -0.7357627303098662
12620364000.0 -0.6825815103810526 -0.7308094701670022 5.5012748257326576e-17 3.220597919169901e-17 5.5012748257326576e-17 3.220597919169901e-17 -0.6825810638906873 -0.7308098871920864
12620981333.333334 -0.6878869508633878 -0.7258178441122293 5.523790089586402e-17 3.179326423983974e-17 5.523790089586402e-17 3.179326423983974e-17 -0.6878865074443654 -0.7258182643581282
12621598666.666666 -0.6931558892908325 -0.7207877032395091 5.545996147663971e-17 3.137898180877071e-17 5.545996147663971e-17 3.137898180877071e-17 -0.6931554489663814 -0.7207881266836089
12622216000.0 -0.6983880460722768 -0.715719314468459 5.56789191379086e-17 3.0963155033552856e-17 5.56789191379086e-17 3.0963155033552856e-17 -0.6983876088654575 -0.7157197410879773
12622833333.333334 -0.7035831435684707 -0.7106129467482011 5.589476319079927e-17 3.0545807124121326e-17 5.589476319079927e-17 3.0545807124121326e-17 -0.7035827095021778 -0.7106133765201909
12623450666.666666 -0.7087409061066026 -0.7054688710432554 5.610748311982884e-17 3.012696136399232e-17 5.610748311982884e-17 3.012696136399232e-17 -0.7087404752035605 -0.7054693039446035
12624068000.0 -0.7138610599950426 -0.7002873603190382 5.631706858340707e-17 2.9706641108967664e-17 5.631706858340707e-17 2.9706641108967664e-17 -0.7138606322778072 -0.700287796326469
12624685333.333334 -0.7189433335379088 -0.695068689527338 5.652350941433158e-17 2.9284869785834485e-17 5.652350941433158e-17 2.9284869785834485e-17 -0.7189429090288629 -0.6950691286174118
12625302666.666666 -0.7239874570492042 -0.6898131355920084 5.672679562026502e-17 2.886167089107947e-17 5.672679562026502e-17 2.886167089107947e-17 -0.7239870357705595 -0.6898135777411251
12625920000.0 -0.7289931628675441 -0.6845209773938463 5.692691738421778e-17 2.8437067989567075e-17 5.692691738421778e-17 2.8437067989567075e-17 -0.7289927448413378 -0.6845214225782453
12626537333.333334 -0.7339601853700035 -0.6791924957561613 5.712386506500687e-17 2.8011084713245905e-17 5.712386506500687e-17 2.8011084713245905e-17 -0.7339597706180986 -0.6791929439519236
12627154666.666666 -0.7388882609863514 -0.6738279734297309 5.731762919771223e-17 2.7583744759835273e-17 5.731762919771223e-17 2.7583744759835273e-17 -0.7388878495304352 -0.6738284246127805
12627772000.0 -0.7437771282131518 -0.668427695077672 5.750820049412726e-17 2.715507189150065e-17 5.750820049412726e-17 2.715507189150065e-17 -0.7437767200747343 -0.6684281492237761
12628389333.333334 -0.7486265276273892 -0.6629919472606057 5.769556984318393e-17 2.6725089933560617e-17 5.769556984318393e-17 2.6725089933560617e-17 -0.7486261228278025 -0.662992404345377
12629006666.666666 -0.7534362019004474 -0.6575210184212222 5.78797283113893e-17 2.629382277314306e-17 5.78797283113893e-17 2.629382277314306e-17 -0.7534358004608438 -0.6575214784201193
12629624000.0 -0.7582058958116658 -0.652015198869078 5.806066714323415e-17 2.5861294357879907e-17 5.806066714323415e-17 2.5861294357879907e-17 -0.7582054977530178 -0.6520156617574079
12630241333.333334 -0.762935356261922 -0.6464747807651491 5.823837776160045e-17 2.5427528694579177e-17 5.823837776160045e-17 2.5427528694579177e-17 -0.7629349616050213 -0.6464752465180682
12630858666.666666 -0.7676243322869892 -0.640900058106416 5.841285176815776e-17 2.4992549847897788e-17 5.841285176815776e-17 2.4992549847897788e-17 -0.7676239410524437 -0.6409005266989305
12631476000.0 -0.7722725750709801 -0.6352913267101087 5.858408094375415e-17 2.455638193899983e-17 5.858408094375415e-17 2.455638193899983e-17 -0.7722721872792153 -0.6352917981170771
12632093333.333334 -0.7768798379594241 -0.6296488841981637 5.875205724878443e-17 2.4119049144244158e-17 5.875205724878443e-17 2.4119049144244158e-17 -0.7768794536306796 -0.6296493583942968
12632710666.666666 -0.78144587647239 -0.6239730299813856 5.891677282356085e-17 2.3680575693839458e-17 5.891677282356085e-17 2.3680575693839458e-17 -0.7814454956267204 -0.6239735069412494
12633328000.0 -0.7859704483175701 -0.6182640652434298 5.907821998867365e-17 2.3240985870496753e-17 5.907821998867365e-17 2.3240985870496753e-17 -0.7859700709748427 -0.6182645449414458
12633945333.333334 -0.790453313402989 -0.6125222929249925 5.923639124532915e-17 2.2800304008111593e-17 5.923639124532915e-17 2.2800304008111593e-17 -0.7904529395828843 -0.6125227753354401
12634562666.666666 -0.7948942338497662 -0.6067480177077182 5.939127927569378e-17 2.235855449040363e-17 5.939127927569378e-17 2.235855449040363e-17 -0.7948938635717764 -0.6067485028047352
12635180000.0 -0.7992929740048283 -0.6009415459979197 5.954287694321756e-17 2.1915761749580865e-17 5.954287694321756e-17 2.1915761749580865e-17 -0.7992926072882532 -0.6009420337555028
12635797333.333334 -0.8036493004533551 -0.5951031859103828 5.96911772929521e-17 2.1471950264990076e-17 5.96911772929521e-17 2.1471950264990076e-17 -0.8036489373173046 -0.5951036763023902
12636414666.666666 -0.8079629820311172 -0.5892332472520864 5.983617355185524e-17 2.1027144561775366e-17 5.983617355185524e-17 2.1027144561775366e-17 -0.8079626224945112 -0.589233740252241
12637032000.0 -0.8122337898368476 -0.5833320415056287 5.997785912909121e-17 2.0581369209517677e-17 5.997785912909121e-17 2.0581369209517677e-17 -0.8122334339184119 -0.5833325370875159
12637649333.333334 -0.816461497244334 -0.5773998818127642 6.011622761631581e-17 2.0134648820887853e-17 6.011622761631581e-17 2.0134648820887853e-17 -0.8164611449625996 -0.5774003799498352
12638266666.666666 -0.820645879914393 -0.5714370829578563 6.025127278795139e-17 1.9687008050297768e-17 6.025127278795139e-17 1.9687008050297768e-17 -0.8206455312876981 -0.5714375836234301
12638884000.0 -0.8247867158068803 -0.565443961351038 6.038298860145735e-17 1.923847159253454e-17 6.038298860145735e-17 1.923847159253454e-17 -0.8247863708533654 -0.5654444645183008
12639501333.333334 -0.8288837851924147 -0.5594208350114867 6.051136919758451e-17 1.8789064181408143e-17 6.051136919758451e-17 1.8789064181408143e-17 -0.8288834439300253 -0.5594213406534956
12640118666.666666 -0.8329368706639811 -0.5533680235506462 6.063640890062048e-17 1.8338810588399647e-17 6.063640890062048e-17 1.8338810588399647e-17 -0.832936533110464 -0.5533685316403293
12640736000.0 -0.8369457571486543 -0.5472858481549836 6.075810221863112e-17 1.7887735621281526e-17 6.075810221863112e-17 1.7887735621281526e-17 -0.8369454233215586 -0.5472863586651419
12641353333.333334 -0.8409102319187284 -0.5411746315693702 6.087644384368138e-17 1.7435864122778558e-17 6.087644384368138e-17 1.7435864122778558e-17 -0.8409099018354037 -0.541175144472679
12641970666.666666 -0.8448300846032735 -0.5350346980795544 6.099142865205431e-17 1.6983220969192222e-17 6.099142865205431e-17 1.6983220969192222e-17 -0.844829758280868 -0.5350352133485642
12642588000.0 -0.8487051071991534 -0.5288663734951652 6.110305170445878e-17 1.652983106903466e-17 6.110305170445878e-17 1.652983106903466e-17 -0.8487047846546153 -0.5288668911023038
12643205333.333334 -0.8525350940820999 -0.5226699851323774 6.121130824622317e-17 1.6075719361669728e-17 6.121130824622317e-17 1.6075719361669728e-17 -0.8525347753321748 -0.5226705050499517
12643822666.666666 -0.8563198420176191 -0.5164458617965416 6.131619370748451e-17 1.562091081593573e-17 6.131619370748451e-17 1.562091081593573e-17 -0.8563195270788506 -0.516446383996739
12644440000.0 -0.8600591501717965 -0.5101943337647152 6.141770370336019e-17 1.516543042879494e-17 6.141770370336019e-17 1.516543042879494e-17 -0.8600588390605218 -0.5101948582196032
12645057333.333334 -0.8637528201219014 -0.5039157327682046 6.15158340341186e-17 1.470930322394542e-17 6.15158340341186e-17 1.470930322394542e-17 -0.8637525128542552 -0.5039162594497347
12645674666.666666 -0.8674006558669403 -0.4976103919749427 6.161058068533112e-17 1.4252554250466932e-17 6.161058068533112e-17 1.4252554250466932e-17 -0.8674003524588519 -0.4976109208549514
12646292000.0 -0.8710024638381514 -0.4912786459716352 6.170193982802103e-17 1.3795208581436179e-17 6.170193982802103e-17 1.3795208581436179e-17 -0.8710021643053432 -0.49127917702184476
12646909333.333334 -0.8745580529091073 -0.4849208307463022 6.178990781879614e-17 1.3337291312569462e-17 6.178990781879614e-17 1.3337291312569462e-17 -0.8745577572670948 -0.48492136393832247
12647526666.666666 -0.8780672344059435 -0.4785372836703014 6.187448119997638e-17 1.2878827560839909e-17 6.187448119997638e-17 1.2878827560839909e-17 -0.8780669426700332 -0.47853781897563086
12648144000.0 -0.8815298221174369 -0.4721283434803018 6.19556566997093e-17 1.2419842463102929e-17 6.19556566997093e-17 1.2419842463102929e-17 -0.8815295343027271 -0.47212888087032995
12648761333.333334 -0.8849456323047754 -0.465694350260506 6.203343123207251e-17 1.196036117473701e-17 6.203343123207251e-17 1.196036117473701e-17 -0.884945348426156 -0.465694889706515
12649378666.666666 -0.8883144837113266 -0.459235645424582 6.210780189717101e-17 1.1500408868259373e-17 6.210780189717101e-17 1.1500408868259373e-17 -0.8883142037834758 -0.4592361868977473
12649996000.0 -0.8916361975723329 -0.45275257169739497 6.217876598122217e-17 1.104001073195e-17 6.217876598122217e-17 1.104001073195e-17 -0.8916359216097185 -0.45275311516878713
12650613333.333334 -0.8949105976243056 -0.44624547309699614 6.224632095662974e-17 1.0579191968480627e-17 6.224632095662974e-17 1.0579191968480627e-17 -0.8949103256411831 -0.4462460185375826
12651230666.666666 -0.8981375101144049 -0.4397146949163184 6.231046448204756e-17 1.0117977793547137e-17 6.231046448204756e-17 1.0117977793547137e-17 -0.8981372421248182 -0.4397152422969654
12651848000.0 -0.9013167638097371 -0.4331605837047015 6.237119440243689e-17 9.656393434475099e-18 6.237119440243689e-17 9.656393434475099e-18 -0.9013164998275156 -0.43316113299617465
12652465333.333334 -0.9044481900063351 -0.42658348724970424 6.242850874910697e-17 9.194464128869597e-18 6.242850874910697e-17 9.194464128869597e-18 -0.9044479300450958 -0.42658403842267095
12653082666.666666 -0.9075316225381311 -0.41998375455862713 6.248240573975245e-17 8.732215123220714e-18 6.248240573975245e-17 8.732215123220714e-18 -0.9075313666112751 -0.41998430758365773
12653700000.0 -0.910566897785841 -0.41336173583983654 6.253288377847571e-17 8.269671671535561e-18 6.253288377847571e-17 8.269671671535561e-18 -0.9105666459065549 -0.4133622906874062
12654317333.333334 -0.9135538546855546 -0.40671778248438867 6.2579941455801e-17 7.806859033968871e-18 6.2579941455801e-17 7.806859033968871e-18 -0.9135536068668076 -0.40671833912487815
12654934666.666666 -0.9164923347373503 -0.40005224704722714 6.262357754867856e-17 7.343802475439355e-18 6.262357754867856e-17 7.343802475439355e-18 -0.9164920909918959 -0.40005280545092536
12655552000.0 -0.9193821820137176 -0.39336548322844894 6.266379102047882e-17 6.880527264253598e-18 6.266379102047882e-17 6.880527264253598e-18 -0.9193819423540915 -0.393366043365554
12656169333.333334 -0.9222232431677392 -0.3866578458547438 6.270058102097441e-17 6.417058670746278e-18 6.270058102097441e-17 6.417058670746278e-18 -0.9222230076062613 -0.38665840769536564
12656786666.666666 -0.9250153674413014 -0.37992969086041156 6.273394688631475e-17 5.9534219658958955e-18 6.273394688631475e-17 5.9534219658958955e-18 -0.9250151359900697 -0.37993025437457134
12657404000.0 -0.927758406673098 -0.3731813752684452 6.276388813898931e-17 5.4896424199498656e-18 6.276388813898931e-17 5.4896424199498656e-18 -0.9277581793439929 -0.37318194042607894
12658021333.333334 -0.9304522153064734 -0.36641325717164036 6.279040448778065e-17 5.025745301055585e-18 6.279040448778065e-17 5.025745301055585e-18 -0.930451992111154 -0.36641382394259914
12658638666.666666 -0.9330966503971025 -0.3596256957136974 6.281349582770711e-17 4.561755873895718e-18 6.281349582770711e-17 4.561755873895718e-18 -0.9330964313470101 -0.3596262640677508
12659256000.0 -0.9356915716206953 -0.3528190510698756 6.283316223995692e-17 4.097699398297381e-18 6.283316223995692e-17 4.097699398297381e-18 -0.9356913567270477 -0.352819620976711
12659873333.333334 -0.9382368412803017 -0.3459936844282216 6.284940399180973e-17 3.6336011278868165e-18 6.284940399180973e-17 3.6336011278868165e-18 -0.9382366305540968 -0.34599425585744786
12660490666.666666 -0.9407323243136876 -0.3391499579702479 6.28622215365508e-17 3.1694863087002864e-18 6.28622215365508e-17 3.1694863087002864e-18 -0.9407321177656999 -0.33915053089139546
12661108000.0 -0.9431778883005548 -0.33228823485155123 6.287161551337286e-17 2.705380177822646e-18 6.287161551337286e-17 2.705380177822646e-18 -0.9431776859413362 -0.3322888092340745
12661725333.333334 -0.9455734034694444 -0.3254088791828907 6.287758674726934e-17 2.241307962025246e-18 6.287758674726934e-17 2.241307962025246e-18 -0.9455732053093241 -0.3254094549961697
12662342666.666666 -0.9479187427047361 -0.3185122560105447 6.28801362489169e-17 1.7772948763887586e-18 6.28801362489169e-17 1.7772948763887586e-18 -0.9479185487538192 -0.3185128332238863
12662960000.0 -0.9502137815533095 -0.31159873129718174 6.28792652145481e-17 1.3133661229450994e-18 6.28792652145481e-17 1.3133661229450994e-18 -0.9502135918214769 -0.3115993098798217
12663577333.333334 -0.9524583982312147 -0.30466867190225355 6.287497502581415e-17 8.495468893098436e-19 6.287497502581415e-17 8.495468893098436e-19 -0.9524582127281221 -0.3046692518233578
12664194666.666666 -0.954652473630095 -0.2977224455626345 6.286726724963729e-17 3.8586234732668027e-19 6.286726724963729e-17 3.8586234732668027e-19 -0.954652292365173 -0.2977230267913011
12664812000.0 -0.9567958913235168 -0.2907604208730814 6.285614363805349e-17 -7.766234830461073e-20 6.285614363805349e-17 -7.766234830461073e-20 -0.9567957143059711 -0.29076100337834215
12665429333.333334 -0.9588885375731585 -0.2837829672666481 6.284160612804519e-17 -5.410020613826346e-19 6.284160612804519e-17 -5.410020613826346e-19 -0.9588883648119673 -0.2837835510174699
12666046666.666666 -0.9609303013348107 -0.2767904549951896 6.282365684136403e-17 -1.0041316755555485e-18 6.282365684136403e-17 -1.0041316755555485e-18 -0.9609301328387261 -0.2767910399604763
12666664000.0 -0.9629210742643257 -0.26978325510952467 6.280229808434291e-17 -1.4670260956974005e-18 6.280229808434291e-17 -1.4670260956974005e-18 -0.9629209100418724 -0.2697838412581189
12667281333.333334 -0.9648607507233047 -0.26276173943996517 6.277753234769949e-17 -1.9296602492399333e-18 6.277753234769949e-17 -1.9296602492399333e-18 -0.9648605907827793 -0.2627623267406493
12667898666.666666 -0.9667492277847544 -0.25572628057639285 6.274936230632867e-17 -2.3920090875365646e-18 6.274936230632867e-17 -2.3920090875365646e-18 -0.966749072134227 -0.255726868997892
12668516000.0 -0.9685864052385299 -0.2486772518485715 6.271779081908492e-17 -2.8540475872245162e-18 6.271779081908492e-17 -2.8540475872245162e-18 -0.9685862538858404 -0.24867784135955354
12669133333.333334 -0.9703721855966262 -0.2416150273064179 6.268282092855651e-17 -3.315750751551181e-18 6.268282092855651e-17 -3.315750751551181e-18 -0.9703720385493881 -0.24161561787549674
12669750666.666666 -0.9721064740983995 -0.23453998169998944 6.264445586082732e-17 -3.777093611741285e-18 6.264445586082732e-17 -3.777093611741285e-18 -0.9721063313639953 -0.2345405732957253
12670368000.0 -0.9737891787155699 -0.22745249045967988 6.260269902523036e-17 -4.238051228335273e-18 6.260269902523036e-17 -4.238051228335273e-18 -0.9737890403011518 -0.22745308305058162
