! Parameters = {f0=12700.012000; bw=77.238000; Q=6100.000000; N=10; m_0_1=1.336632; m_1_1=1.284729; m_1_2=1.171444; m_2_2=1.284080; m_2_3=0.808407; m_2_8=0.003895; m_2_9=0.040599; m_3_3=1.282143; m_3_4=0.696936; m_3_7=0.004495; m_3_8=-0.092593; m_3_9=0.003895; m_4_4=1.279218; m_4_5=0.533271; m_4_6=0.008012; m_4_7=-0.113142; m_4_8=0.004495; m_5_5=1.279600; m_5_6=0.940626; m_5_7=0.008012; m_6_6=1.279599; m_6_7=0.533613; m_7_7=1.279232; m_7_8=0.697054; m_8_8=1.282141; m_8_9=0.808720; m_9_9=1.284075; m_9_10=1.172522; m_10_10=1.284719; m_10_11=1.337427}
!
! Created with skrf (http://scikit-rf.org).
# Hz S RI R 50.0 
!freq ReS11 ImS11 ReS21 ImS21 ReS12 ImS12 ReS22 ImS22
12607400000.0 -0.21694781939919616 -0.97618320189283 7.276130191697881e-17 1.3109467830510256e-16 7.276130191697881e-17 1.3109467830510256e-16 -0.21694713207876742 -0.9761833546432773
12608017333.333334 -0.22912578911488543 -0.9733968218369554 7.439029144518193e-17 1.301433982150136e-16 7.439029144518193e-17 1.301433982150136e-16 -0.22912510378986511 -0.9733969831538868
12608634666.666666 -0.24126799988532188 -0.9704585267960405 7.600686803331655e-17 1.2917189041298337e-16 7.600686803331655e-17 1.2917189041298337e-16 -0.24126731666246598 -0.9704586966534424
12609252000.0 -0.2533725567137657 -0.9673687753406836 7.761078068749193e-17 1.2818031657900449e-16 7.761078068749193e-17 1.2818031657900449e-16 -0.25337187569949177 -0.9673689537112126
12609869333.333334 -0.2654375704802319 -0.9641280496787537 7.920178051616207e-17 1.2716884150521296e-16 7.920178051616207e-17 1.2716884150521296e-16 -0.2654368917806021 -0.964128236533739
12610486666.666666 -0.2774611582357144 -0.9607368555802887 8.077962076865585e-17 1.2613763306861284e-16 8.077962076865585e-17 1.2613763306861284e-16 -0.27746048195641965 -0.9607370508897405
12611104000.0 -0.2894414434968209 -0.9571957222983614 8.234405687346185e-17 1.2508686220325515e-16 8.234405687346185e-17 1.2508686220325515e-16 -0.2894407697431638 -0.9571959260309718
12611721333.333334 -0.3013765565380259 -0.9535052024866391 8.389484647598053e-17 1.240167028720535e-16 8.389484647598053e-17 1.240167028720535e-16 -0.30137588541490484 -0.9535054146097895
12612338666.666666 -0.313264634683694 -0.9496658721130794 8.543174947604779e-17 1.2292733203804505e-16 8.543174947604779e-17 1.2292733203804505e-16 -0.3132639662955865 -0.9496660925928452
12612956000.0 -0.3251038225989421 -0.9456783303699839 8.695452806508503e-17 1.2181892963518518e-16 8.695452806508503e-17 1.2181892963518518e-16 -0.3251031570498884 -0.9456785591711384
12613573333.333334 -0.33689227257887144 -0.941543199580587 8.846294676274047e-17 1.206916785387772e-16 8.846294676274047e-17 1.206916785387772e-16 -0.33689160997245876 -0.9415434366666092
12614190666.666666 -0.3486281448371498 -0.9372611251018642 8.995677245332112e-17 1.1954576453532522e-16 8.995677245332112e-17 1.1954576453532522e-16 -0.34862748527649634 -0.937261370434945
12614808000.0 -0.3603096077930873 -0.9328327752238319 9.143577442169149e-17 1.1838137629204245e-16 9.143577442169149e-17 1.1838137629204245e-16 -0.3603089513808253 -0.9328330287648771
12615425333.333334 -0.37193483835743224 -0.928258841065269 9.289972438888834e-17 1.1719870532583586e-16 9.289972438888834e-17 1.1719870532583586e-16 -0.37193418519569277 -0.9282591027739081
12616042666.666666 -0.38350202221710555 -0.9235400364657699 9.434839654726034e-17 1.159979459719066e-16 9.434839654726034e-17 1.159979459719066e-16 -0.38350137240750265 -0.9235403063003618
12616660000.0 -0.39500935411803934 -0.918677097874468 9.578156759523791e-17 1.147792953518927e-16 9.578156759523791e-17 1.147792953518927e-16 -0.39500870776165364 -0.9186773757921073
12617277333.333334 -0.4064550381471272 -0.9136707842350125 9.719901677169193e-17 1.1354295334158226e-16 9.719901677169193e-17 1.1354295334158226e-16 -0.40645439534449096 -0.9136710701915373
12617894666.666666 -0.4178372880124029 -0.9085218768671695 9.860052588984523e-17 1.1228912253823124e-16 9.860052588984523e-17 1.1228912253823124e-16 -0.4178366488634838 -0.9085221708171674
12618512000.0 -0.4291543273220808 -0.9032311793447669 9.998587937083396e-17 1.1101800822740256e-16 9.998587937083396e-17 1.1101800822740256e-16 -0.42915369192626596 -0.9032314812415807
12619129333.333334 -0.44040438986127123 -0.897799517370513 1.0135486427674768e-16 1.0972981834947679e-16 1.0135486427674768e-16 1.0972981834947679e-16 -0.44040375831735357 -0.8977998271662533
12619746666.666666 -0.45158571986809937 -0.89222773864693 1.0270727034333371e-16 1.0842476346567125e-16 1.0270727034333371e-16 1.0842476346567125e-16 -0.4515850922742602 -0.8922280562924774
12620364000.0 -0.46269657230766265 -0.8865167127440661 1.040428900122018e-16 1.0710305672371358e-16 1.040428900122018e-16 1.0710305672371358e-16 -0.4626959487614571 -0.8865170381890805
12620981333.333334 -0.473735213144119 -0.8806673309639115 1.0536151846259046e-16 1.0576491382312217e-16 1.0536151846259046e-16 1.0576491382312217e-16 -0.4737345937424618 -0.8806676641568424
12621598666.666666 -0.48469991961151965 -0.8746805062012017 1.0666295364274101e-16 1.0441055298004156e-16 1.0666295364274101e-16 1.0441055298004156e-16 -0.4846993044506684 -0.8746808470892927
12622216000.0 -0.49558898048257116 -0.8685571728009909 1.07946996300761e-16 1.0304019489175324e-16 1.07946996300761e-16 1.0304019489175324e-16 -0.4955883696581127 -0.8685575213302906
12622833333.333334 -0.5064006963359511 -0.8622982864126943 1.0921345001506846e-16 1.0165406270077158e-16 1.0921345001506846e-16 1.0165406270077158e-16 -0.5064000899427861 -0.8622986425280643
12623450666.666666 -0.5171333798209876 -0.8559048238412534 1.1046212122434238e-16 1.0025238195860493e-16 1.1046212122434238e-16 1.0025238195860493e-16 -0.517132777953316 -0.8559051874863773
12624068000.0 -0.527785355921688 -0.8493777828942912 1.1169281925706567e-16 9.883538058908634e-17 1.1169281925706567e-16 9.883538058908634e-17 -0.5277847586729946 -0.8493781540116825
12624685333.333334 -0.5383549622176138 -0.8427181822267019 1.1290535636054721e-16 9.740328885139964e-17 1.1290535636054721e-16 9.740328885139964e-17 -0.538354369680653 -0.8427185607577135
12625302666.666666 -0.5488405491435256 -0.835927061181559 1.140995477294674e-16 9.595633930275817e-17 1.140995477294674e-16 9.595633930275817e-17 -0.5488399614103076 -0.8359274470663927
12625920000.0 -0.5592404802469695 -0.8290054796278157 1.1527521153402776e-16 9.44947667606373e-17 1.1527521153402776e-16 9.44947667606373e-17 -0.5592398974087452 -0.8290058728055312
12626537333.333334 -0.5695531324434293 -0.8219545177950432 1.1643216894748704e-16 9.301880826481917e-17 1.1643216894748704e-16 9.301880826481917e-17 -0.5695525545906787 -0.8219549182035697
12627154666.666666 -0.5797768962695993 -0.814775276104887 1.1757024417332185e-16 9.152870303897181e-17 1.1757024417332185e-16 9.152870303897181e-17 -0.5797763234920136 -0.8147756836810295
12627772000.0 -0.589910176134983 -0.8074688749990292 1.186892644718675e-16 9.002469245192839e-17 1.186892644718675e-16 9.002469245192839e-17 -0.5899096085214531 -0.8074692896784811
12628389333.333334 -0.5999513905704009 -0.8000364547646857 1.197890601864156e-16 8.85070199787111e-17 1.197890601864156e-16 8.85070199787111e-17 -0.5999508282090035 -0.8000368764820376
12629006666.666666 -0.6098989724752221 -0.792479175356346 1.2086946476890823e-16 8.697593116110704e-17 1.2086946476890823e-16 8.697593116110704e-17 -0.6098984154532054 -0.7924796040450975
12629624000.0 -0.6197513693616131 -0.7847982162149777 1.2193031480503084e-16 8.543167356806938e-17 1.2193031480503084e-16 8.543167356806938e-17 -0.619750817765384 -0.7847986518075468
12630241333.333334 -0.6295070435970163 -0.776994776083822 1.2297145003885472e-16 8.387449675573845e-17 1.2297145003885472e-16 8.387449675573845e-17 -0.6295064975121265 -0.7769952185115561
12630858666.666666 -0.6391644726440333 -0.7690700728213785 1.2399271339696031e-16 8.230465222717782e-17 1.2399271339696031e-16 8.230465222717782e-17 -0.639163932155165 -0.7690705220145636
12631476000.0 -0.6487221492982572 -0.7610253432111541 1.249939510120794e-16 8.072239339176789e-17 1.249939510120794e-16 8.072239339176789e-17 -0.6487216144892122 -0.761025799099029
12632093333.333334 -0.6581785819230652 -0.7528618427690091 1.259750122461326e-16 7.912797552444843e-17 1.259750122461326e-16 7.912797552444843e-17 -0.6581780528767504 -0.752862305279774
12632710666.666666 -0.6675322946828056 -0.7445808455468843 1.2693574971283126e-16 7.752165572455486e-17 1.2693574971283126e-16 7.752165572455486e-17 -0.6675317714812202 -0.7445813146077128
12633328000.0 -0.6767818277730786 -0.736183643933996 1.2787601929975364e-16 7.590369287438059e-17 1.2787601929975364e-16 7.590369287438059e-17 -0.6767813104973018 -0.7361841194710466
12633945333.333334 -0.6859257376483515 -0.7276715484553252 1.2879568018981113e-16 7.42743475976108e-17 1.2879568018981113e-16 7.42743475976108e-17 -0.6859252263785304 -0.7276720303937534
12634562666.666666 -0.6949625972474193 -0.7190458875669387 1.2969459488229062e-16 7.263388221732381e-17 1.2969459488229062e-16 7.263388221732381e-17 -0.6949620920627554 -0.7190463758309085
12635180000.0 -0.7038909962160388 -0.7103080074487389 1.3057262921329346e-16 7.098256071385546e-17 1.3057262921329346e-16 7.098256071385546e-17 -0.7038904971947761 -0.7103085019614338
12635797333.333334 -0.712709541127239 -0.7014592717941687 1.314296523756686e-16 6.93206486823668e-17 1.314296523756686e-16 6.93206486823668e-17 -0.7127090483466527 -0.701459772477805
12636414666.666666 -0.7214168556983467 -0.6925010615978253 1.3226553693838706e-16 6.764841329021035e-17 1.3226553693838706e-16 6.764841329021035e-17 -0.72141636923473 -0.6925015683736644
12637032000.0 -0.7300115810063407 -0.6834347749393711 1.330801588653948e-16 6.596612323402685e-17 1.330801588653948e-16 6.596612323402685e-17 -0.7300111009349929 -0.68343528772773
12637649333.333334 -0.7384923756994912 -0.6742618267657796 1.338733975339194e-16 6.42740486966162e-17 1.338733975339194e-16 6.42740486966162e-17 -0.7384919020947088 -0.6742623454860465
12638266666.666666 -0.7468579162069067 -0.6649836486703126 1.3464513575221205e-16 6.25724613036285e-17 1.3464513575221205e-16 6.25724613036285e-17 -0.7468574491419677 -0.6649841732409565
12638884000.0 -0.7551068969450162 -0.6556016886691749 1.3539525977675407e-16 6.086163408001288e-17 1.3539525977675407e-16 6.086163408001288e-17 -0.7551064364921718 -0.6556022190077604
12639501333.333334 -0.7632380305215165 -0.6461174109753146 1.361236593289108e-16 5.914184140626234e-17 1.361236593289108e-16 5.914184140626234e-17 -0.7632375767519781 -0.6461179469985135
12640118666.666666 -0.7712500479358443 -0.6365322957704213 1.368302276110115e-16 5.741335897450746e-17 1.368302276110115e-16 5.741335897450746e-17 -0.7712496009197755 -0.6365328373940282
12640736000.0 -0.7791416987779293 -0.6268478389731026 1.375148613219275e-16 5.567646374428784e-17 1.375148613219275e-16 5.567646374428784e-17 -0.7791412585844305 -0.6268483861120445
12641353333.333334 -0.786911751422567 -0.6170655520063272 1.3817746067199372e-16 5.393143389837347e-17 1.3817746067199372e-16 5.393143389837347e-17 -0.7869113181196692 -0.61706610457468
12641970666.666666 -0.7945589932221873 -0.6071869615608926 1.3881792939748185e-16 5.217854879813752e-17 1.3881792939748185e-16 5.217854879813752e-17 -0.7945585668768385 -0.6071875194718929
12642588000.0 -0.8020822306958865 -0.5972136093574186 1.3943617477442602e-16 5.041808893896238e-17 1.3943617477442602e-16 5.041808893896238e-17 -0.8020818113739422 -0.5972141725234772
12643205333.333334 -0.8094802897156944 -0.5871470519057397 1.4003210763191889e-16 4.8650335905398193e-17 1.4003210763191889e-16 4.8650335905398193e-17 -0.8094798774819073 -0.5871476202384558
12643822666.666666 -0.8167520156899164 -0.5769888602618458 1.4060564236483381e-16 4.687557232618218e-17 1.4060564236483381e-16 4.687557232618218e-17 -0.8167516106079282 -0.5769894336720219
12644440000.0 -0.8238962737432924 -0.5667406197827386 1.4115669694598004e-16 4.5094081829102015e-17 1.4115669694598004e-16 4.5094081829102015e-17 -0.8238958758756217 -0.5667411981803933
12645057333.333334 -0.8309119488939176 -0.556403929879289 1.416851929376778e-16 4.3306148995751383e-17 1.416851929376778e-16 4.3306148995751383e-17 -0.8309115583019508 -0.5564045131736708
12645674666.666666 -0.8377979462275177 -0.5459804037662515 1.4219105550277316e-16 4.1512059316111707e-17 1.4219105550277316e-16 4.1512059316111707e-17 -0.8377975629715 -0.545980991865854
12646292000.0 -0.8445531910683198 -0.5354716682104884 1.4267421341508044e-16 3.971209914299981e-17 1.4267421341508044e-16 3.971209914299981e-17 -0.8445528152073457 -0.535472261023064
12646909333.333334 -0.8511766291464975 -0.5248793632775168 1.4313459906922682e-16 3.7906555646477885e-17 1.4313459906922682e-16 3.7906555646477885e-17 -0.8511762607385016 -0.5248799607100916
12647526666.666666 -0.8576672267629868 -0.5142051420751194 1.435721484899499e-16 3.609571676804659e-17 1.435721484899499e-16 3.609571676804659e-17 -0.8576668658647352 -0.5142057440340075
12648144000.0 -0.8640239709507455 -0.5034506704954419 1.4398680134080386e-16 3.427987117477407e-17 1.4398680134080386e-16 3.427987117477407e-17 -0.864023617617828 -0.5034512768862612
12648761333.333334 -0.8702458696328452 -0.4926176269550032 1.443785009322695e-16 3.245930821341044e-17 1.443785009322695e-16 3.245930821341044e-17 -0.870245523919663 -0.49261823768268737
12649378666.666666 -0.8763319517771003 -0.48170770213309344 1.4474719422932187e-16 3.063431786424882e-17 1.4474719422932187e-16 3.063431786424882e-17 -0.8763316137368614 -0.4817083171019094
12649996000.0 -0.8822812675479829 -0.47072259870727484 1.450928318583785e-16 2.8805190695067775e-17 1.450928318583785e-16 2.8805190695067775e-17 -0.882280937232694 -0.4707232178208379
12650613333.333334 -0.8880928884545818 -0.4596640310881455 1.4541536811369708e-16 2.6972217814859494e-17 1.4541536811369708e-16 2.6972217814859494e-17 -0.8880925659150372 -0.45966465424943254
12651230666.666666 -0.8937659074955117 -0.4485337251517778 1.4571476096316203e-16 2.5135690827630395e-17 1.4571476096316203e-16 2.5135690827630395e-17 -0.8937655927812882 -0.448534352263144
12651848000.0 -0.8992994393007033 -0.4373334179699137 1.459909720535184e-16 2.3295901785967595e-17 1.459909720535184e-16 2.3295901785967595e-17 -0.8992991324601513 -0.4373340489331068
12652465333.333334 -0.904692620269318 -0.4260648575393691 1.4624396671498695e-16 2.1453143144759906e-17 1.4624396671498695e-16 2.1453143144759906e-17 -0.9046923213495542 -0.4260654922555457
12653082666.666666 -0.9099446087046325 -0.41472980250902813 1.4647371396532206e-16 1.9607707714715757e-17 1.4647371396532206e-16 1.9607707714715757e-17 -0.9099443177515351 -0.4147304408787694
12653700000.0 -0.9150545849454997 -0.4033300219051723 1.466801865132809e-16 1.7759888615842465e-17 1.466801865132809e-16 1.7759888615842465e-17 -0.9150543020036946 -0.40333066382849714
12654317333.333334 -0.920021751493997 -0.39186729485595595 1.4686336076148686e-16 1.590997923105309e-17 1.4686336076148686e-16 1.590997923105309e-17 -0.9200214766068606 -0.39186794023234056
12654934666.666666 -0.9248453331402091 -0.38034341031307745 1.4702321680873483e-16 1.4058273159549973e-17 1.4702321680873483e-16 1.4058273159549973e-17 -0.9248450663498538 -0.3803440590414678
12655552000.0 -0.9295245770830582 -0.3687601667728876 1.47159738451693e-16 1.2205064170317059e-17 1.47159738451693e-16 1.2205064170317059e-17 -0.9295243184303298 -0.3687608187517168
12656169333.333334 -0.9340587530476925 -0.3571193719959707 1.472729131860225e-16 1.0350646155595407e-17 1.472729131860225e-16 1.0350646155595407e-17 -0.9340585025721614 -0.3571200271231741
12656786666.666666 -0.9384471533996296 -0.3454228427245923 1.4736273220691773e-16 8.49531308428204e-18 1.4736273220691773e-16 8.49531308428204e-18 -0.9384469111395881 -0.34542350089762447
12657404000.0 -0.9426890932551695 -0.33367240439921647 1.474291904090527e-16 6.639358955418391e-18 1.474291904090527e-16 6.639358955418391e-18 -0.9426888592476226 -0.33367306551506615
12658021333.333334 -0.9467839105881966 -0.32186989087382656 1.474722863859473e-16 4.783077751642029e-18 1.474722863859473e-16 4.783077751642029e-18 -0.9467836848688594 -0.3218705548290338
12658638666.666666 -0.9507309663334949 -0.31001714412977943 1.4749202242874625e-16 2.9267633927093635e-18 1.4749202242874625e-16 2.9267633927093635e-18 -0.9507307489367857 -0.3100178108204512
12659256000.0 -0.9545296444866292 -0.29811601398790194 1.4748840452441533e-16 1.0707096889625974e-18 1.4748840452441533e-16 1.0707096889625974e-18 -0.9545294354456616 -0.2981166833097278
12659873333.333334 -0.9581793521999817 -0.28616835782006106 1.4746144235335218e-16 -7.84789705092399e-19 1.4746144235335218e-16 -7.84789705092399e-19 -0.9581791515465635 -0.2861690296683306
12660490666.666666 -0.9616795198751835 -0.27417604025961867 1.4741114928641437e-16 -2.6394413371654807e-18 1.4741114928641437e-16 -2.6394413371654807e-18 -0.9616793276398113 -0.2741767145292375
12661108000.0 -0.9650296012522257 -0.26214093290971674 1.4733754238136392e-16 -4.492952003586949e-18 1.4733754238136392e-16 -4.492952003586949e-18 -0.9650294174640796 -0.262141609495223
12661725333.333334 -0.9682290734945329 -0.2500649140517815 1.472406423787313e-16 -6.345028795579441e-18 1.472406423787313e-16 -6.345028795579441e-18 -0.9682288981814703 -0.2500655928473618
12662342666.666666 -0.9712774372706381 -0.23794986835211224 1.4712047369709763e-16 -8.19537914546511e-18 1.4712047369709763e-16 -8.19537914546511e-18 -0.9712772704591925 -0.23795054925161888
12662960000.0 -0.9741742168320993 -0.2257976865678028 1.469770644277959e-16 -1.0043710872876218e-17 1.469770644277959e-16 -1.0043710872876218e-17 -0.9741740585474743 -0.22579836946476997
12663577333.333334 -0.9769189600877337 -0.2136102652517124 1.4681044632903462e-16 -1.1889732230802672e-17 1.4681044632903462e-16 -1.1889732230802672e-17 -0.9769188103537995 -0.2136109500393729
12664194666.666666 -0.9795112386742243 -0.20138950645625445 1.4662065481944247e-16 -1.373315195160328e-17 1.4662065481944247e-16 -1.373315195160328e-17 -0.9795110975135145 -0.20139019302755654
12664812000.0 -0.9819506480228967 -0.18913731743688178 1.464077289710393e-16 -1.5573679292873108e-17 1.464077289710393e-16 -1.5573679292873108e-17 -0.9819505154566057 -0.1891380056845059
12665429333.333334 -0.9842368074229123 -0.1768556103542063 1.4617171150162494e-16 -1.7411024083301648e-17 1.4617171150162494e-16 -1.7411024083301648e-17 -0.9842366834708911 -0.17685630017058174
12666046666.666666 -0.9863693600806611 -0.16454630197568496 1.4591264876660595e-16 -1.9244896768289425e-17 1.4591264876660595e-16 -1.9244896768289425e-17 -0.9863692447614134 -0.16454699325300648
12666664000.0 -0.9883479731754906 -0.15221131337619556 1.456305907502309e-16 -2.1075008455623834e-17 1.456305907502309e-16 -2.1075008455623834e-17 -0.9883478665061718 -0.1522120060064406
12667281333.333334 -0.9901723379115477 -0.13985256963883777 1.453255910562821e-16 -2.2901070960816637e-17 1.453255910562821e-16 -2.2901070960816637e-17 -0.990172239907962 -0.1398532635137832
12667898666.666666 -0.9918421695660916 -0.12747199955376218 1.4499770689817046e-16 -2.4722796852519032e-17 1.4499770689817046e-16 -2.4722796852519032e-17 -0.9918420802426889 -0.12747269456500104
12668516000.0 -0.9933572075338681 -0.11507153531748582 1.4464699908847987e-16 -2.6539899497675536e-17 1.4464699908847987e-16 -2.6539899497675536e-17 -0.993357126903741 -0.11507223135644437
12669133333.333334 -0.9947172153677486 -0.10265311223162292 1.4427353202794759e-16 -2.8352093106542664e-17 1.4427353202794759e-16 -2.8352093106542664e-17 -0.9947171434426354 -0.10265380918957792
12669750666.666666 -0.9959219808156994 -0.09021866840039829 1.438773736938659e-16 -3.015909277763037e-17 1.438773736938659e-16 -3.015909277763037e-17 -0.9959219176059745 -0.09021936616849326
12670368000.0 -0.9969713158538861 -0.07777014442817139 1.43458595627937e-16 -3.1960614542411586e-17 1.43458595627937e-16 -3.1960614542411586e-17 -0.9969712613685658 -0.07777084289743436
