! Parameters = {f0=12700.012000; bw=77.238000; Q=6100.000000; N=10; m_0_1=1.198493; m_1_1=-0.787343; m_1_2=1.033305; m_2_2=-0.787992; m_2_3=0.670268; m_2_8=-0.003012; m_2_9=0.033692; m_3_3=-0.789929; m_3_4=0.558797; m_3_7=-0.002412; m_3_8=-0.099500; m_3_9=-0.003012; m_4_4=-0.792854; m_4_5=0.395132; m_4_6=0.001105; m_4_7=-0.120049; m_4_8=-0.002412; m_5_5=-0.792472; m_5_6=0.802487; m_5_7=0.001105; m_6_6=-0.792473; m_6_7=0.395474; m_7_7=-0.792840; m_7_8=0.558915; m_8_8=-0.789931; m_8_9=0.670581; m_9_9=-0.787997; m_9_10=1.034383; m_10_10=-0.787353; m_10_11=1.199288}
!
! Created with skrf (http://scikit-rf.org).
# Hz S RI R 50.0 
!freq ReS11 ImS11 ReS21 ImS21 ReS12 ImS12 ReS22 ImS22
12607400000.0 0.9998630166506656 -0.01655137257373286 -7.437242571843073e-17 2.3378303658531003e-17 -7.437242571843073e-17 2.3378303658531003e-17 0.9998630271036768 -0.016550741098661607
12608017333.333334 0.9996884865446325 -0.02495856305851657 -7.415655309865752e-17 2.4004744963487925e-17 -7.415655309865752e-17 2.4004744963487925e-17 0.9996885023065303 -0.024957931724588087
12608634666.666666 0.9994432671535937 -0.033363988688292996 -7.393540905035692e-17 2.462920714979073e-17 -7.393540905035692e-17 2.462920714979073e-17 0.9994432882227443 -0.03336335754013374
12609252000.0 0.9991273758173951 -0.041767055104328404 -7.370901160639167e-17 2.525164590266634e-17 -7.370901160639167e-17 2.525164590266634e-17 0.9991274021917886 -0.0417664241865473
12609869333.333334 0.9987408348731813 -0.05016716811485495 -7.347737917178931e-17 2.5872017070759814e-17 -7.347737917178931e-17 2.5872017070759814e-17 0.9987408665504325 -0.05016653747204025
12610486666.666666 0.9982836716538326 -0.05856373373671755 -7.324053052226678e-17 2.649027666926312e-17 -7.324053052226678e-17 2.649027666926312e-17 0.998283708631184 -0.0585631034134338
12611104000.0 0.9977559184860124 -0.06695615823788649 -7.299848480272728e-17 2.7106380883030254e-17 -7.299848480272728e-17 2.7106380883030254e-17 0.9977559607603291 -0.06695552827867113
12611721333.333334 0.9971576126878985 -0.075343848178958 -7.275126152573989e-17 2.772028606965845e-17 -7.275126152573989e-17 2.772028606965845e-17 0.9971576602556732 -0.07534321862831851
12612338666.666666 0.9964887965665423 -0.08372621045531647 -7.249888056998172e-17 2.833194876258453e-17 -7.249888056998172e-17 2.833194876258453e-17 0.9964888494238926 -0.08372558135772694
12612956000.0 0.9957495174148534 -0.0921026523392712 -7.224136217866203e-17 2.894132567414663e-17 -7.224136217866203e-17 2.894132567414663e-17 0.9957495755575256 -0.09210202373916954
12613573333.333334 0.9949398275083023 -0.10047258152148819 -7.197872695792094e-17 2.9548373698634257e-17 -7.197872695792094e-17 2.9548373698634257e-17 0.9949398909316666 -0.10047195346327253
12614190666.666666 0.9940597841011737 -0.10883540615338215 -7.171099587519785e-17 3.015304991533177e-17 -7.171099587519785e-17 3.015304991533177e-17 0.9940598528002281 -0.10883477868140806
12614808000.0 0.9931094494225535 -0.1171905348885992 -7.143819025757555e-17 3.0755311591547627e-17 -7.143819025757555e-17 3.0755311591547627e-17 0.9931095233919253 -0.1171899080471766
12615425333.333334 0.9920888906719054 -0.12553737692508635 -7.116033179010161e-17 3.135511618562055e-17 -7.116033179010161e-17 3.135511618562055e-17 0.9920889699058483 -0.12553675075847612
12616042666.666666 0.9909981800143419 -0.13387534204664192 -7.087744251408619e-17 3.19524213499088e-17 -7.087744251408619e-17 3.19524213499088e-17 0.9909982645067379 -0.1338747165990529
12616660000.0 0.9898373945754938 -0.14220384066487587 -7.058954482536552e-17 3.254718493378458e-17 -7.058954482536552e-17 3.254718493378458e-17 0.9898374843198536 -0.14220321598046173
12617277333.333334 0.9886066164360838 -0.15052228386070357 -7.029666147255334e-17 3.313936498658468e-17 -7.029666147255334e-17 3.313936498658468e-17 0.9886067114255477 -0.1505216599835596
12617894666.666666 0.9873059326261129 -0.15883008342604493 -6.999881555525919e-17 3.3728919760563735e-17 -6.999881555525919e-17 3.3728919760563735e-17 0.9873060328534525 -0.1588294604002054
12618512000.0 0.9859354351186763 -0.16712665190564283 -6.969603052227609e-17 3.431580771384346e-17 -6.969603052227609e-17 3.431580771384346e-17 0.9859355405762911 -0.16712602977507707
12619129333.333334 0.9844952208235292 -0.17541140263812455 -6.938833016976839e-17 3.489998751329643e-17 -6.938833016976839e-17 3.489998751329643e-17 0.9844953315034506 -0.1754107814467345
12619746666.666666 0.9829853915801611 -0.1836837497979632 -6.907573863940176e-17 3.5481418037480964e-17 -6.907573863940176e-17 3.5481418037480964e-17 0.9829855074740523 -0.18368312958958005
12620364000.0 0.9814060541506303 -0.19194310843667753 -6.875828041647338e-17 3.606005837950995e-17 -6.875828041647338e-17 3.606005837950995e-17 0.9814061752497865 -0.19194248925505866
12620981333.333334 0.9797573202120187 -0.20018889452416608 -6.843598032801284e-17 3.663586784991535e-17 -6.843598032801284e-17 3.663586784991535e-17 0.9797574465073682 -0.20018827641299217
12621598666.666666 0.9780393063485288 -0.20842052499006183 -6.81088635408492e-17 3.7208805979513084e-17 -6.81088635408492e-17 3.7208805979513084e-17 0.9780394378306326 -0.20841990799293325
12622216000.0 0.9762521340432245 -0.21663741776501635 -6.777695555967021e-17 3.777883252222194e-17 -6.777695555967021e-17 3.777883252222194e-17 0.9762522707022789 -0.21663680192545087
12622833333.333334 0.9743959296694472 -0.22483899182183117 -6.744028222503992e-17 3.8345907457898093e-17 -6.744028222503992e-17 3.8345907457898093e-17 0.9743960714952831 -0.22483837718326025
12623450666.666666 0.9724708244819239 -0.23302466721634896 -6.709886971141538e-17 3.890999099511184e-17 -6.709886971141538e-17 3.890999099511184e-17 0.9724709714640078 -0.23302405382211494
12624068000.0 0.9704769546074118 -0.24119386512879504 -6.67527445251131e-17 3.947104357395476e-17 -6.67527445251131e-17 3.947104357395476e-17 0.9704771067348456 -0.24119325302214767
12624685333.333334 0.9684144610351123 -0.24934600790451136 -6.640193350227323e-17 4.002902586879037e-17 -6.640193350227323e-17 4.002902586879037e-17 0.968414618296637 -0.24934539712860576
12625302666.666666 0.9662834896067211 -0.25748051909474956 -6.604646380679814e-17 4.058389879099529e-17 -6.604646380679814e-17 4.058389879099529e-17 0.9662836519907142 -0.25747990969264206
12625920000.0 0.9640841910060627 -0.26559682349762437 -6.568636292824945e-17 4.1135623491709727e-17 -6.568636292824945e-17 4.1135623491709727e-17 0.9640843585005425 -0.26559621551227036
12626537333.333334 0.9618167207484896 -0.27369434719859503 -6.532165867975681e-17 4.168416136451567e-17 -6.532165867975681e-17 4.168416136451567e-17 0.9618168933411121 -0.2736937406728451
12627154666.666666 0.9594812391698597 -0.28177251761112965 -6.495237919586891e-17 4.222947404815243e-17 -6.495237919586891e-17 4.222947404815243e-17 0.9594814168479225 -0.281771912587727
12627772000.0 0.9570779114151766 -0.2898307635172748 -6.457855293039934e-17 4.27715234291853e-17 -6.457855293039934e-17 4.27715234291853e-17 0.9570780941656201 -0.2898301600388528
12628389333.333334 0.95460690742697 -0.297868515107858 -6.420020865425722e-17 4.331027164464657e-17 -6.420020865425722e-17 4.331027164464657e-17 0.9546070952363754 -0.2978679132169359
12629006666.666666 0.9520684019332171 -0.30588520402296765 -6.381737545323159e-17 4.3845681084691684e-17 -6.381737545323159e-17 4.3845681084691684e-17 0.9520685947878116 -0.3058846037619492
12629624000.0 0.9494625744350175 -0.3138802633920636 -6.343008272578697e-17 4.437771439518928e-17 -6.343008272578697e-17 4.437771439518928e-17 0.9494627723206706 -0.3138796648032322
12630241333.333334 0.9467896091939134 -0.3218531278740051 -6.303836018080424e-17 4.4906334480338494e-17 -6.303836018080424e-17 4.4906334480338494e-17 0.9467898120961403 -0.32185253099952194
12630858666.666666 0.9440496952188432 -0.3298032336970813 -6.264223783532678e-17 4.5431504505229065e-17 -6.264223783532678e-17 4.5431504505229065e-17 0.9440499031228083 -0.32980263857898307
12631476000.0 0.9412430262527547 -0.3377300186989589 -6.224174601226309e-17 4.595318789841161e-17 -6.224174601226309e-17 4.595318789841161e-17 0.9412432391432675 -0.3377294253791531
12632093333.333334 0.9383698007589522 -0.3456329223662694 -6.183691533808696e-17 4.647134835442347e-17 -6.183691533808696e-17 4.647134835442347e-17 0.9383700186204723 -0.3456323308865326
12632710666.666666 0.9354302219070413 -0.35351138587432623 -6.142777674051118e-17 4.6985949836301294e-17 -6.142777674051118e-17 4.6985949836301294e-17 0.9354304447236781 -0.3535107962763008
12633328000.0 0.9324244975585403 -0.3613648521266923 -6.10143614461203e-17 4.7496956578099485e-17 -6.10143614461203e-17 4.7496956578099485e-17 0.9324247253140558 -0.3613642644518839
12633945333.333334 0.9293528402522024 -0.3691927657945205 -6.059670097802307e-17 4.8004333087335676e-17 -6.059670097802307e-17 4.8004333087335676e-17 0.9293530729300088 -0.36919218008429405
12634562666.666666 0.9262154671890162 -0.3769945733557409 -6.017482715344535e-17 4.850804414746611e-17 -6.017482715344535e-17 4.850804414746611e-17 0.9262157047721795 -0.3769939896513185
12635180000.0 0.9230126002167747 -0.38476972313438723 -5.974877208132447e-17 4.9008054820312504e-17 -5.974877208132447e-17 4.9008054820312504e-17 0.9230128426880174 -0.38476914147684554
12635797333.333334 0.9197444658144636 -0.39251766533942156 -5.93185681598805e-17 4.950433044847095e-17 -5.93185681598805e-17 4.950433044847095e-17 0.9197447131561642 -0.39251708576968874
12636414666.666666 0.9164112950762157 -0.40023785210369106 -5.888424807416122e-17 4.999683665770873e-17 -5.888424807416122e-17 4.999683665770873e-17 0.9164115472704082 -0.4002372746625428
12637032000.0 0.913013323694933 -0.40792973752274464 -5.844584479357379e-17 5.048553935933079e-17 -5.844584479357379e-17 5.048553935933079e-17 0.9130135807233114 -0.4079291622508025
12637649333.333334 0.9095507919457001 -0.41559277769325276 -5.800339156938996e-17 5.097040475253328e-17 -5.800339156938996e-17 5.097040475253328e-17 0.909551053789618 -0.4155922046309812
12638266666.666666 0.9060239446687048 -0.42322643075167654 -5.755692193223927e-17 5.1451399326727115e-17 -5.755692193223927e-17 5.1451399326727115e-17 0.9060242113091773 -0.4232258599393795
12638884000.0 0.9024330312520159 -0.4308301569123748 -5.710646968958424e-17 5.19284898638379e-17 -5.710646968958424e-17 5.19284898638379e-17 0.902433302669721 -0.43082958839019364
12639501333.333334 0.8987783056138431 -0.43840341850600667 -5.66520689231606e-17 5.2401643440601997e-17 -5.66520689231606e-17 5.2401643440601997e-17 0.8987785817891223 -0.4384028523139163
12640118666.666666 0.8950600261847522 -0.44594568001719065 -5.619375398643166e-17 5.28708274308049e-17 -5.619375398643166e-17 5.28708274308049e-17 0.8950603070976131 -0.4459451161949978
12640736000.0 0.8912784558890925 -0.453456408122985 -5.57315595019678e-17 5.333600950755616e-17 -5.57315595019678e-17 5.333600950755616e-17 0.8912787415192095 -0.4534558467103248
12641353333.333334 0.8874338621268077 -0.4609350717297844 -5.526552035888409e-17 5.379715764546285e-17 -5.526552035888409e-17 5.379715764546285e-17 0.8874341524535244 -0.4609345127661181
12641970666.666666 0.8835265167541746 -0.46838114201158715 -5.479567171019044e-17 5.4254240122851183e-17 -5.479567171019044e-17 5.4254240122851183e-17 0.8835268117565034 -0.46838058553619843
12642588000.0 0.8795566960647422 -0.47579409244705745 -5.432204897015649e-17 5.4707225523932576e-17 -5.432204897015649e-17 5.4707225523932576e-17 0.8795569957213668 -0.4757935384990502
12643205333.333334 0.8755246807698233 -0.4831733988567075 -5.3844687811664285e-17 5.515608274094027e-17 -5.3844687811664285e-17 5.515608274094027e-17 0.8755249850591019 -0.48317284747500366
12643822666.666666 0.8714307559784991 -0.49051853944023843 -5.336362416351431e-17 5.560078097627269e-17 -5.336362416351431e-17 5.560078097627269e-17 0.8714310648784637 -0.4905179906635745
12644440000.0 0.8672752111776337 -0.4978289948131133 -5.287889420775289e-17 5.604128974457475e-17 -5.287889420775289e-17 5.604128974457475e-17 0.8672755246659916 -0.4978284486800373
12645057333.333334 0.8630583402112797 -0.5051042480435061 -5.2390534376949585e-17 5.647757887482849e-17 -5.2390534376949585e-17 5.647757887482849e-17 0.863058658265417 -0.5051037045923756
12645674666.666666 0.8587804412600142 -0.512343784688658 -5.189858135147474e-17 5.690961851240279e-17 -5.189858135147474e-17 5.690961851240279e-17 0.8587807638569971 -0.5123432439576384
12646292000.0 0.8544418168196566 -0.5195470928316006 -5.1403072056749105e-17 5.733737912109045e-17 -5.1403072056749105e-17 5.733737912109045e-17 0.8544421439362304 -0.5195465548586596
12646909333.333334 0.8500427736801022 -0.5267136631169571 -5.090404366049471e-17 5.776083148510513e-17 -5.090404366049471e-17 5.776083148510513e-17 0.8500431052926956 -0.5267131279398639
12647526666.666666 0.8455836229035321 -0.533842988787134 -5.040153356994646e-17 5.81799467110747e-17 -5.040153356994646e-17 5.81799467110747e-17 0.8455839589882597 -0.5338424564434577
12648144000.0 0.8410646798023306 -0.5409345657183011 -4.989557942906548e-17 5.85946962299949e-17 -4.989557942906548e-17 5.85946962299949e-17 0.8410650203349906 -0.5409340362454053
12648761333.333334 0.836486263916961 -0.5479878924557446 -4.938621911572498e-17 5.900505179916845e-17 -4.938621911572498e-17 5.900505179916845e-17 0.8364866088730413 -0.547987365890787
12649378666.666666 0.8318486989932565 -0.5550024702495218 -4.887349073889905e-17 5.941098550410503e-17 -4.887349073889905e-17 5.941098550410503e-17 0.8318490483479345 -0.5550019466294509
12649996000.0 0.8271523129595714 -0.5619778030896555 -4.835743263579982e-17 5.981246976042526e-17 -4.835743263579982e-17 5.981246976042526e-17 0.8271526666877155 -0.5619772824512078
12650613333.333334 0.8223974379035138 -0.5689133977413255 -4.783808336904063e-17 6.020947731570784e-17 -4.783808336904063e-17 6.020947731570784e-17 0.8223977959796861 -0.5689128801210237
12651230666.666666 0.8175844100486566 -0.5758087637794651 -4.7315481723759875e-17 6.060198125133053e-17 -4.7315481723759875e-17 6.060198125133053e-17 0.8175847724471127 -0.5758082492136136
12651848000.0 0.8127135697304665 -0.5826634136238568 -4.6789666704722774e-17 6.098995498429186e-17 -4.6789666704722774e-17 6.098995498429186e-17 0.8127139364251619 -0.5826629021485424
12652465333.333334 0.8077852613725243 -0.5894768625732197 -4.6260677533441675e-17 6.137337226898254e-17 -4.6260677533441675e-17 6.137337226898254e-17 0.8077856323371103 -0.5894763542243054
12653082666.666666 0.8027998334620479 -0.5962486288396415 -4.572855364524892e-17 6.17522071989575e-17 -4.572855364524892e-17 6.17522071989575e-17 0.8028002086698777 -0.5962481236527662
12653700000.0 0.7977576385251357 -0.6029782335828071 -4.519333468636335e-17 6.212643420867495e-17 -4.519333468636335e-17 6.212643420867495e-17 0.7977580179492657 -0.6029777315933837
12654317333.333334 0.792659033102127 -0.6096652009434724 -4.4655060510959885e-17 6.249602807520025e-17 -4.4655060510959885e-17 6.249602807520025e-17 0.7926594167153173 -0.6096647021866831
12654934666.666666 0.7875043777221005 -0.6163090580774975 -4.411377117819909e-17 6.286096391990055e-17 -4.411377117819909e-17 6.286096391990055e-17 0.7875047654968169 -0.6163085625882923
12655552000.0 0.782294036877515 -0.6229093351890992 -4.3569506949261814e-17 6.322121721010246e-17 -4.3569506949261814e-17 6.322121721010246e-17 0.7822944287859338 -0.622908843002195
12656169333.333334 0.7770283789984574 -0.6294655655640523 -4.302230828436835e-17 6.357676376072505e-17 -4.302230828436835e-17 6.357676376072505e-17 0.7770287750124648 -0.6294650767139288
12656786666.666666 0.7717077764265564 -0.6359772856027359 -4.2472215839777216e-17 6.392757973589197e-17 -4.2472215839777216e-17 6.392757973589197e-17 0.7717081765177494 -0.6359768001236322
12657404000.0 0.7663326053886124 -0.6424440348529556 -4.1919270464770906e-17 6.427364165051778e-17 -4.1919270464770906e-17 6.427364165051778e-17 0.7663330095283036 -0.6424435527788703
12658021333.333334 0.7609032459700148 -0.6488653560424835 -4.1363513198634296e-17 6.461492637186459e-17 -4.1363513198634296e-17 6.461492637186459e-17 0.760903654129234 -0.6488648774071707
12658638666.666666 0.7554200820880146 -0.6552407951112186 -4.0804985267633716e-17 6.495141112106507e-17 -4.0804985267633716e-17 6.495141112106507e-17 0.755420494237509 -0.6552403199481861
12659256000.0 0.7498835014642589 -0.6615699012436601 -4.024372808193707e-17 6.528307347464736e-17 -4.024372808193707e-17 6.528307347464736e-17 0.7498839175744982 -0.6615694295861678
12659873333.333334 0.7442938955976944 -0.667852226900422 -3.967978323258536e-17 6.560989136599569e-17 -3.967978323258536e-17 6.560989136599569e-17 0.7442943156388688 -0.6678517587814766
12660490666.666666 0.7386516597367315 -0.6740873278500464 -3.911319248840751e-17 6.593184308681153e-17 -3.911319248840751e-17 6.593184308681153e-17 0.7386520836787579 -0.6740868633024032
12661108000.0 0.7329571928512597 -0.6802747632004628 -3.854399779292335e-17 6.624890728854793e-17 -3.854399779292335e-17 6.624890728854793e-17 0.7329576206637818 -0.6802743022566206
12661725333.333334 0.7272108976045684 -0.6864140954300123 -3.797224126128058e-17 6.656106298379133e-17 -3.797224126128058e-17 6.656106298379133e-17 0.7272113292569589 -0.6864136381222122
12662342666.666666 0.7214131803247206 -0.692504890418556 -3.73979651771146e-17 6.686828954765523e-17 -3.73979651771146e-17 6.686828954765523e-17 0.7214136157860835 -0.6925044367787783
12662960000.0 0.7155644509759761 -0.6985467174780045 -3.6821211989455573e-17 6.71705667191126e-17 -3.6821211989455573e-17 6.71705667191126e-17 0.7155648902151494 -0.6985462675379668
12663577333.333334 0.7096651231296446 -0.7045391493829353 -3.624202430958546e-17 6.74678746023251e-17 -3.624202430958546e-17 6.74678746023251e-17 0.7096655661152029 -0.7045387031740925
12664194666.666666 0.7037156139350025 -0.7104817624006446 -3.5660444907905275e-17 6.776019366793329e-17 -3.5660444907905275e-17 6.776019366793329e-17 0.7037160606352579 -0.710481319954183
12664812000.0 0.6977163440896337 -0.7163741363212668 -3.5076516710791996e-17 6.804750475431983e-17 -3.5076516710791996e-17 6.804750475431983e-17 0.6977167944726379 -0.7163736976681032
12665429333.333334 0.6916677378098209 -0.7222158544873476 -3.449028279742451e-17 6.83297890688572e-17 -3.449028279742451e-17 6.83297890688572e-17 0.6916681918433697 -0.7222154196581287
12666046666.666666 0.6855702228004927 -0.728006503823371 -3.390178639664027e-17 6.860702818910705e-17 -3.390178639664027e-17 6.860702818910705e-17 0.6855706804521263 -0.7280060728484699
12666664000.0 0.679424230224914 -0.7337456748650216 -3.3311070883722105e-17 6.887920406402296e-17 -3.3311070883722105e-17 6.887920406402296e-17 0.6794246914619212 -0.7337452477745368
12667281333.333334 0.6732301946743469 -0.7394329617880075 -3.2718179777244033e-17 6.914629901509191e-17 -3.2718179777244033e-17 6.914629901509191e-17 0.6732306594637641 -0.7394325386117582
12667898666.666666 0.6669885541371686 -0.7450679624368861 -3.2123156735861e-17 6.940829573747156e-17 -3.2123156735861e-17 6.940829573747156e-17 0.6669890224457852 -0.7450675432044124
12668516000.0 0.660699749967968 -0.7506502783534471 -3.1526045555089773e-17 6.966517730109985e-17 -3.1526045555089773e-17 6.966517730109985e-17 0.6607002217623283 -0.7506498630940082
12669133333.333334 0.6543642268563783 -0.75617951480485 -3.092689016412841e-17 6.991692715175517e-17 -3.092689016412841e-17 6.991692715175517e-17 0.6543647021027826 -0.7561791035474202
12669750666.666666 0.6479824327955884 -0.7616552808115716 -3.0325734622598344e-17 7.016352911212078e-17 -3.0325734622598344e-17 7.016352911212078e-17 0.6479829114600975 -0.761654873584841
12670368000.0 0.641554819050582 -0.7670771891751311 -2.972262311733747e-17 7.040496738279455e-17 -2.972262311733747e-17 7.040496738279455e-17 0.641555301099016 -0.7670767860074995
