! Parameters = {f0=12700.012000; bw=77.238000; Q=6100.000000; N=10; m_0_1=1.320415; m_1_1=1.041486; m_1_2=1.155227; m_2_2=1.040837; m_2_3=0.792190; m_2_8=0.003084; m_2_9=0.039788; m_3_3=1.038900; m_3_4=0.680719; m_3_7=0.003684; m_3_8=-0.093404; m_3_9=0.003084; m_4_4=1.035975; m_4_5=0.517054; m_4_6=0.007201; m_4_7=-0.113953; m_4_8=0.003684; m_5_5=1.036357; m_5_6=0.924409; m_5_7=0.007201; m_6_6=1.036356; m_6_7=0.517396; m_7_7=1.035989; m_7_8=0.680837; m_8_8=1.038898; m_8_9=0.792503; m_9_9=1.040832; m_9_10=1.156305; m_10_10=1.041476; m_10_11=1.321210}
!
! Created with skrf (http://scikit-rf.org).
# Hz S RI R 50.0 
!freq ReS11 ImS11 ReS21 ImS21 ReS12 ImS12 ReS22 ImS22
12607400000.0 -0.15274816327606924 0.9882651459075112 -1.8725583036014384e-17 -1.3821609866727272e-16 -1.8725583036014384e-17 -1.3821609866727272e-16 -0.15274885069148694 0.9882650396590172
12608017333.333334 -0.1408650421831662 0.9900288076063968 -2.0392874896773002e-17 -1.3795234783924443e-16 -2.0392874896773002e-17 -1.3795234783924443e-16 -0.1408657307916382 0.9900287096283352
12608634666.666666 -0.12896159158119522 0.9916495892686362 -2.2056527212297483e-17 -1.37668496083623e-16 -2.2056527212297483e-17 -1.37668496083623e-16 -0.1289622812832304 0.9916494995743373
12609252000.0 -0.11703952936505503 0.9931272569846299 -2.3716297784692136e-17 -1.373645928382547e-16 -2.3716297784692136e-17 -1.373645928382547e-16 -0.11704022006101415 0.9931271755862279
12609869333.333334 -0.1051005761157097 0.9944615974988447 -2.5371945079265457e-17 -1.3704069045755597e-16 -2.5371945079265457e-17 -1.3704069045755597e-16 -0.10510126770581969 0.9944615244072736
12610486666.666666 -0.09314645485184787 0.9956524182405931 -2.702322825961182e-17 -1.3669684420371065e-16 -2.702322825961182e-17 -1.3669684420371065e-16 -0.09314714723621641 0.9956523534655878
12611104000.0 -0.08117889078102015 0.996699547351845 -2.8669907222639264e-17 -1.3633311223743233e-16 -2.8669907222639264e-17 -1.3633311223743233e-16 -0.08117958385965005 0.9966994909019382
12611721333.333334 -0.06919961105102647 0.9976028337119917 -3.031174263337925e-17 -1.359495556083258e-16 -3.031174263337925e-17 -1.359495556083258e-16 -0.06920030472383029 0.9976027855945161
12612338666.666666 -0.057210344500373184 0.9983621469596883 -3.194849595976362e-17 -1.3554623824481115e-16 -3.194849595976362e-17 -1.3554623824481115e-16 -0.05721103866718746 0.9983621071807718
12612956000.0 -0.045212821408768 0.9989773775116574 -3.3579929507230975e-17 -1.3512322694363563e-16 -3.3579929507230975e-17 -1.3512322694363563e-16 -0.04521351596936775 0.9989773460762246
12613573333.333334 -0.033208773247663206 0.9994484365784935 -3.520580645316319e-17 -1.3468059135898187e-16 -3.520580645316319e-17 -1.3468059135898187e-16 -0.033209468101776475 0.9994484134902645
12614190666.666666 -0.021199932430087557 0.9997752561774917 -3.682589088125324e-17 -1.342184039911415e-16 -3.682589088125324e-17 -1.342184039911415e-16 -0.021200627477409813 0.9997752414389812
12614808000.0 -0.0091880320607679 0.9999577891424511 -3.843994781566952e-17 -1.3373674017479225e-16 -3.843994781566952e-17 -1.3373674017479225e-16 -0.009188727200976575 0.9999577827549697
12615425333.333334 0.0028251943140192404 0.9999960091304854 -4.0047743255092184e-17 -1.3323567806685852e-16 -4.0047743255092184e-17 -1.3323567806685852e-16 0.002824499181250327 0.9999960110941366
12616042666.666666 0.014838012956631473 0.9998899106258187 -4.164904420658948e-17 -1.3271529863396425e-16 -4.164904420658948e-17 -1.3271529863396425e-16 0.0148373179316176 0.999889920939503
12616660000.0 0.02684869018827194 0.99963950894059 -4.3243618719333565e-17 -1.3217568563948053e-16 -4.3243618719333565e-17 -1.3217568563948053e-16 0.026847995371302998 0.9996395276020007
12617277333.333334 0.03885549263924899 0.9992448402126336 -4.483123591815393e-17 -1.3161692563016602e-16 -4.483123591815393e-17 -1.3161692563016602e-16 0.03885479813057507 0.9992448672182618
12617894666.666666 0.05085668749887884 0.9987059614002761 -4.6411666036898145e-17 -1.310391079224143e-16 -4.6411666036898145e-17 -1.310391079224143e-16 0.050855993398695766 0.9987059967454092
12618512000.0 0.0628505427660462 0.9980229502741019 -4.7984680451676567e-17 -1.3044232458807923e-16 -4.7984680451676567e-17 -1.3044232458807923e-16 0.06284984917448093 0.9980229939528218
12619129333.333334 0.07483532749865364 0.9971959054057428 -4.955005171383426e-17 -1.2982667043993677e-16 -4.955005171383426e-17 -1.2982667043993677e-16 0.07483463451575001 0.9971959574109308
12619746666.666666 0.08680931206374211 0.9962249461536439 -5.110755358282661e-17 -1.2919224301671785e-16 -5.110755358282661e-17 -1.2919224301671785e-16 0.08680861978944633 0.9962250064769808
12620364000.0 0.09877076838710938 0.9951102126458304 -5.2656961058871754e-17 -1.2853914256776007e-16 -5.2656961058871754e-17 -1.2853914256776007e-16 0.09877007692125574 0.9951102812777983
12620981333.333334 0.11071797020244972 0.9938518657597113 -5.419805041535812e-17 -1.2786747203729093e-16 -5.419805041535812e-17 -1.2786747203729093e-16 0.11071727964474597 0.9938519426895928
12621598666.666666 0.12264919330076987 0.9924500870988326 -5.573059923115811e-17 -1.271773370482778e-16 -5.573059923115811e-17 -1.271773370482778e-16 0.12264850375078286 0.9924501723147133
12622216000.0 0.13456271577908374 0.9909050789666829 -5.725438642264723e-17 -1.2646884588593053e-16 -5.725438642264723e-17 -1.2646884588593053e-16 0.13456202733622524 0.990905172455455
12622833333.333334 0.14645681828900034 0.9892170643374855 -5.876919227555836e-17 -1.257421094808022e-16 -5.876919227555836e-17 -1.257421094808022e-16 0.14645613105251273 0.9892171660848488
12623450666.666666 0.15832978428463385 0.9873862868240534 -6.027479847659848e-17 -1.2499724139152149e-16 -6.027479847659848e-17 -1.2499724139152149e-16 0.15832909835357561 0.9873863968145168
12624068000.0 0.17017990027061497 0.98541301064259 -6.177098814487928e-17 -1.242343577871304e-16 -6.177098814487928e-17 -1.242343577871304e-16 0.17017921574384662 0.9854131288594747
12624685333.333334 0.18200545604943666 0.9832975205745447 -6.325754586311203e-17 -1.2345357742905474e-16 -6.325754586311203e-17 -1.2345357742905474e-16 0.1820047730256061 0.9832976469999851
12625302666.666666 0.19380474496773561 0.9810401219256027 -6.473425770853725e-17 -1.2265502165272115e-16 -6.473425770853725e-17 -1.2265502165272115e-16 0.19380406354526467 0.9810402565405526
12625920000.0 0.20557606416329502 0.978641140481504 -6.620091128371082e-17 -1.2183881434875957e-16 -6.620091128371082e-17 -1.2183881434875957e-16 0.20557538444036455 0.9786412832657362
12626537333.333334 0.21731771481026896 0.9761009224611215 -6.765729574695422e-17 -1.2100508194389264e-16 -6.765729574695422e-17 -1.2100508194389264e-16 0.21731703688480491 0.9761010733932313
12627154666.666666 0.22902800236455118 0.9734198344664615 -6.910320184263431e-17 -1.2015395338142396e-16 -6.910320184263431e-17 -1.2015395338142396e-16 0.22902732633421055 0.973419993523871
12627772000.0 0.24070523680849548 0.9705982634297134 -7.053842193119837e-17 -1.1928556010136411e-16 -7.053842193119837e-17 -1.1928556010136411e-16 0.24070456277065247 0.9705984305886749
12628389333.333334 0.2523477328944311 0.9676366165575025 -7.196275001889361e-17 -1.1840003602024042e-16 -7.196275001889361e-17 -1.1840003602024042e-16 0.2523470609461624 0.9676367917931
12629006666.666666 0.26395381038828897 0.9645353212720178 -7.337598178733144e-17 -1.174975175104918e-16 -7.337598178733144e-17 -1.174975175104918e-16 0.26395314062636066 0.9645355045581733
12629624000.0 0.2755217943117892 0.9612948251494032 -7.477791462270824e-17 -1.165781433795671e-16 -7.477791462270824e-17 -1.165781433795671e-16 0.27552112683264257 0.961295016458881
12630241333.333334 0.2870500151843649 0.9579155958551183 -7.61683476448215e-17 -1.1564205484863864e-16 -7.61683476448215e-17 -1.1564205484863864e-16 0.2870493500841018 0.9579157951595245
12630858666.666666 0.29853680926379894 0.9543981210765242 -7.754708173578156e-17 -1.1468939553099705e-16 -7.754708173578156e-17 -1.1468939553099705e-16 0.298536146638169 0.9543983283463163
12631476000.0 0.3099805187869335 0.9507429084523291 -7.891391956850936e-17 -1.1372031141006678e-16 -7.891391956850936e-17 -1.1372031141006678e-16 0.3099798587313196 0.9507431236568167
12632093333.333334 0.3213794922081821 0.9469504854995439 -8.026866563488624e-17 -1.127349508171341e-16 -8.026866563488624e-17 -1.127349508171341e-16 0.321378834817587 0.9469507086068946
12632710666.666666 0.33273208443834174 0.9430213995372141 -8.161112627367233e-17 -1.1173346440870976e-16 -8.161112627367233e-17 -1.1173346440870976e-16 0.3327314298073747 0.9430216305144598
12633328000.0 0.3440366570820095 0.9389562176074265 -8.294110969817163e-17 -1.107160051435384e-16 -8.294110969817163e-17 -1.107160051435384e-16 0.3440360053048718 0.9389564564204648
12633945333.333334 0.3552915786738183 0.9347555263935466 -8.425842602353572e-17 -1.0968272825933556e-16 -8.425842602353572e-17 -1.0968272825933556e-16 0.35529092984429 0.9347557730071472
12634562666.666666 0.3664952249140225 0.9304199321355008 -8.556288729383871e-17 -1.0863379124915606e-16 -8.556288729383871e-17 -1.0863379124915606e-16 0.36649457912544997 0.9304201865133136
12635180000.0 0.3776459789028903 0.9259500605422996 -8.685430750883745e-17 -1.0756935383745856e-16 -8.685430750883745e-17 -1.0756935383745856e-16 0.3776453362481712 0.9259503226468553
12635797333.333334 0.3887422313740776 0.9213465567017189 -8.813250265044033e-17 -1.0648957795584644e-16 -8.813250265044033e-17 -1.0648957795584644e-16 0.38874159194564867 0.9213468264944383
12636414666.666666 0.3997823809267716 0.9166100849872488 -8.939729070886154e-17 -1.0539462771850931e-16 -8.939729070886154e-17 -1.0539462771850931e-16 0.3997817448165951 0.916610362428447
12637032000.0 0.41076483425696175 0.9117413289621463 -9.06484917085006e-17 -1.0428466939732844e-16 -9.06484917085006e-17 -1.0428466939732844e-16 0.4107642015565116 0.9117416140110374
12637649333.333334 0.4216880063872769 0.9067409912808254 -9.188592773348364e-17 -1.0315987139670106e-16 -9.188592773348364e-17 -1.0315987139670106e-16 0.4216873771875264 0.9067412838955303
12638266666.666666 0.43255032089578127 0.9016097935874289 -9.310942295290939e-17 -1.0202040422805101e-16 -9.310942295290939e-17 -1.0202040422805101e-16 0.43254969528718956 0.901610093724981
12638884000.0 0.4433502101433792 0.8963484764117309 -9.431880364577591e-17 -1.0086644048404203e-16 -9.431880364577591e-17 -1.0086644048404203e-16 0.4433495882158783 0.8963487840280818
12639501333.333334 0.45408611550023437 0.8909577990621769 -9.55138982255919e-17 -9.969815481249433e-17 -9.55138982255919e-17 -9.969815481249433e-17 0.4540854973432163 0.8909581141122032
12640118666.666666 0.46475648757042987 0.8854385395164404 -9.6694537264647e-17 -9.851572389003025e-17 -9.6694537264647e-17 -9.851572389003025e-17 0.4647558732727342 0.8854388619539514
12640736000.0 0.4753597864161325 0.8797914943088619 -9.786055351801678e-17 -9.73193263953713e-17 -9.786055351801678e-17 -9.73193263953713e-17 0.4753591760660324 0.8797918240866034
12641353333.333334 0.4858944817789759 0.8740174784159355 -9.901178194712861e-17 -9.610914298246449e-17 -9.901178194712861e-17 -9.610914298246449e-17 0.4858938754641673 0.874017815485601
12641970666.666666 0.49635905330169033 0.8681173251382908 -1.0014805974311996e-16 -9.488535625320478e-17 -1.0014805974311996e-16 -9.488535625320478e-17 0.49635845110927723 0.8681176694505242
12642588000.0 0.5067519907471365 0.8620918859806208 -1.0126922634977467e-16 -9.364815072996842e-17 -1.0126922634977467e-16 -9.364815072996842e-17 0.5067513927636206 0.8620922374850274
12643205333.333334 0.5170717942163185 0.8559420305287779 -1.0237512348615221e-16 -9.239771282784693e-17 -1.0237512348615221e-16 -9.239771282784693e-17 0.5170712005275844 0.8559423891739281
12643822666.666666 0.5273169743649404 0.8496686463242096 -1.0346559516888164e-16 -9.113423082660435e-17 -1.0346559516888164e-16 -9.113423082660435e-17 0.5273163850562456 0.8496690120576504
12644440000.0 0.5374860526182272 0.8432726387359467 -1.0454048773408738e-16 -8.985789484239961e-17 -1.0454048773408738e-16 -8.985789484239961e-17 0.537485467774188 0.8432730115042054
12645057333.333334 0.5475775613843599 0.83675493082991 -1.0559964985898551e-16 -8.856889679923074e-17 -1.0559964985898551e-16 -8.856889679923074e-17 0.5475769810889408 0.8367553105785056
12645674666.666666 0.5575900442661598 0.8301164632357766 -1.0664293258311315e-16 -8.726743040014294e-17 -1.0664293258311315e-16 -8.726743040014294e-17 0.5575894686026597 0.8301168499092241
12646292000.0 0.5675220562716972 0.8233581940109393 -1.0767018932924641e-16 -8.595369109813661e-17 -1.0767018932924641e-16 -8.595369109813661e-17 0.56752148532274 0.8233585875527629
12646909333.333334 0.5773721640221978 0.8164810985026754 -1.0868127592388701e-16 -8.462787606692125e-17 -1.0868127592388701e-16 -8.462787606692125e-17 0.5773715978697179 0.8164814988554111
12647526666.666666 0.587138945959398 0.8094861692070451 -1.0967605061745772e-16 -8.329018417134381e-17 -1.0967605061745772e-16 -8.329018417134381e-17 0.5871383846846303 0.8094865763122531
12648144000.0 0.5968209925505634 0.8023744156257548 -1.1065437410410569e-16 -8.194081593761728e-17 -1.1065437410410569e-16 -8.194081593761728e-17 0.5968204362340295 0.8023748294240247
12648761333.333334 0.6064169064918373 0.7951468641205097 -1.1161610954113358e-16 -8.057997352332765e-17 -1.1161610954113358e-16 -8.057997352332765e-17 0.6064163552133373 0.795147284551473
12649378666.666666 0.6159253029099063 0.7878045577649009 -1.1256112256807216e-16 -7.920786068720129e-17 -1.1256112256807216e-16 -7.920786068720129e-17 0.6159247567485043 0.7878049847672367
12649996000.0 0.6253448095619724 0.7803485561937771 -1.1348928132539314e-16 -7.782468275863352e-17 -1.1348928132539314e-16 -7.782468275863352e-17 0.6253442685959861 0.780348989705222
12650613333.333334 0.6346740670337251 0.7727799354503718 -1.1440045647283054e-16 -7.643064660702482e-17 -1.1440045647283054e-16 -7.643064660702482e-17 0.6346735313407171 0.7727803754077316
12651230666.666666 0.6439117289354478 0.765099787831086 -1.1529452120732447e-16 -7.502596061090713e-17 -1.1529452120732447e-16 -7.502596061090713e-17 0.6439111985922095 0.7651002341702394
12651848000.0 0.6530564620965424 0.757309221727663 -1.1617135128061616e-16 -7.361083462681522e-17 -1.1617135128061616e-16 -7.361083462681522e-17 0.6530559371790863 0.7573096743835749
12652465333.333334 0.6621069467577554 0.7494093614673719 -1.1703082501642162e-16 -7.218547995801619e-17 -1.1703082501642162e-16 -7.218547995801619e-17 0.6621064273413044 0.7494098203741024
12653082666.666666 0.6710618767615429 0.7414013471508442 -1.178728233272424e-16 -7.075010932301066e-17 -1.178728233272424e-16 -7.075010932301066e-17 0.6710613629205185 0.7414018122415581
12653700000.0 0.6799199597410183 0.7332863344871374 -1.1869722973080954e-16 -6.930493682380442e-17 -1.1869722973080954e-16 -6.930493682380442e-17 0.6799194515490302 0.7332868056941134
12654317333.333334 0.6886799173058724 0.7250654946274762 -1.1950393036609203e-16 -6.785017791407107e-17 -1.1950393036609203e-16 -6.785017791407107e-17 0.6886794148357076 0.7250659718821166
12654934666.666666 0.6973404852273135 0.7167400139958315 -1.202928140089638e-16 -6.638604936704862e-17 -1.202928140089638e-16 -6.638604936704862e-17 0.6973399885509263 0.7167404972286727
12655552000.0 0.7059004136204118 0.7083110941177915 -1.2106377208745703e-16 -6.491276924328827e-17 -1.2106377208745703e-16 -6.491276924328827e-17 0.7058999228089128 0.7083115832585135
12656169333.333334 0.7143584671243172 0.699779951447315 -1.2181669869660637e-16 -6.343055685825935e-17 -1.2181669869660637e-16 -6.343055685825935e-17 0.7143579822479649 0.6997804464247531
12656786666.666666 0.7227134250807539 0.6911478171909802 -1.2255149061293123e-16 -6.193963274971717e-17 -1.2255149061293123e-16 -6.193963274971717e-17 0.7227129462089427 0.6911483179331339
12657404000.0 0.7309640817100779 0.6824159371303937 -1.2326804730849431e-16 -6.044021864495306e-17 -1.2326804730849431e-16 -6.044021864495306e-17 0.7309636089113294 0.6824164435644379
12658021333.333334 0.7391092462853366 0.673585571442361 -1.2396627096456412e-16 -5.893253742787648e-17 -1.2396627096456412e-16 -5.893253742787648e-17 0.7391087796272895 0.6735860834946563
12658638666.666666 0.7471477433040172 0.6646579945171244 -1.24646066484881e-16 -5.741681310593014e-17 -1.24646066484881e-16 -5.741681310593014e-17 0.747147282853416 0.6646585121132268
12659256000.0 0.7550784126578829 0.6556344947742314 -1.2530734150852667e-16 -5.589327077683538e-17 -1.2530734150852667e-16 -5.589327077683538e-17 0.7550779584805721 0.655635017838906
12659873333.333334 0.7629001098002495 0.6465163744767636 -1.2595000642236653e-16 -5.436213659524111e-17 -1.2595000642236653e-16 -5.436213659524111e-17 0.7628996619611592 0.6465169029339912
12660490666.666666 0.77061170591107 0.6373049495434991 -1.2657397437309747e-16 -5.2823637739202397e-17 -1.2657397437309747e-16 -5.2823637739202397e-17 0.7706112644742114 0.6373054833164921
12661108000.0 0.7782120880602348 0.6280015493585506 -1.2717916127890192e-16 -5.1278002376486317e-17 -1.2717916127890192e-16 -5.1278002376486317e-17 0.7782116530886887 0.628002088369761
12661725333.333334 0.7857001593676756 0.6186075165801167 -1.2776548584065628e-16 -4.9725459630832757e-17 -1.2776548584065628e-16 -4.9725459630832757e-17 0.7856997309235834 0.618608060751248
12662342666.666666 0.793074839162066 0.6091242069462303 -1.283328695527638e-16 -4.816623954799779e-17 -1.283328695527638e-16 -4.816623954799779e-17 0.7930744173066203 0.6091247561982484
12662960000.0 0.8003350631366006 0.599552989079318 -1.2888123671355134e-16 -4.660057306173349e-17 -1.2888123671355134e-16 -4.660057306173349e-17 0.800334647930038 0.5995535433324642
12663577333.333334 0.8074797835026322 0.5898952442886393 -1.2941051443526054e-16 -4.502869195962917e-17 -1.2941051443526054e-16 -4.502869195962917e-17 0.8074793750042242 0.5898958034624409
12664194666.666666 0.8145079691408876 0.5801523663709365 -1.2992063265362125e-16 -4.345082884884468e-17 -1.2992063265362125e-16 -4.345082884884468e-17 0.8145075674089317 0.5801529303842183
12664812000.0 0.8214186057502781 0.570325761409284 -1.3041152413700839e-16 -4.186721712173695e-17 -1.3041152413700839e-16 -4.186721712173695e-17 0.8214182108420892 0.5703263301801804
12665429333.333334 0.8282106959942978 0.5604168475701394 -1.308831244951813e-16 -4.027809092138137e-17 -1.308831244951813e-16 -4.027809092138137e-17 0.8282103079662003 0.5604174210161058
12666046666.666666 0.8348832596448764 0.550427054898792 -1.3133537218759745e-16 -3.868368510701906e-17 -1.3133537218759745e-16 -3.868368510701906e-17 0.8348828785521973 0.5504276329366177
12666664000.0 0.8414353337240243 0.5403578251127227 -1.317682085313232e-16 -3.708423521935313e-17 -1.317682085313232e-16 -3.708423521935313e-17 0.841434959621084 0.5403584076585427
12667281333.333334 0.8478659726425837 0.5302106113938659 -1.3218157770849608e-16 -3.547997744585198e-17 -1.3218157770849608e-16 -3.547997744585198e-17 0.847865605582689 0.5302111983631724
12667898666.666666 0.8541742483368552 0.5199868781786525 -1.3257542677339026e-16 -3.3871148585881783e-17 -1.3257542677339026e-16 -3.3871148585881783e-17 0.85417388837229 0.5199874694863076
12668516000.0 0.8603592504025421 0.5096881009466349 -1.3294970565904788e-16 -3.2257986015800236e-17 -1.3294970565904788e-16 -3.2257986015800236e-17 0.8603588975845633 0.5096886965068832
12669133333.333334 0.8664200862259539 0.49931576600786576 -1.333043671834795e-16 -3.064072765401382e-17 -1.333043671834795e-16 -3.064072765401382e-17 0.8664197406047807 0.4993163657343465
12669750666.666666 0.872355881113058 0.48887137028800476 -1.3363936705545492e-16 -2.901961192589701e-17 -1.3363936705545492e-16 -2.901961192589701e-17 0.872355542737866 0.4888719740937641
