! Parameters = {f0=12700.012000; bw=77.238000; Q=6100.000000; N=10; m_0_1=1.348443; m_1_1=1.461906; m_1_2=1.183255; m_2_2=1.461257; m_2_3=0.820218; m_2_8=0.004486; m_2_9=0.041190; m_3_3=1.459320; m_3_4=0.708747; m_3_7=0.005086; m_3_8=-0.092002; m_3_9=0.004486; m_4_4=1.456395; m_4_5=0.545082; m_4_6=0.008603; m_4_7=-0.112551; m_4_8=0.005086; m_5_5=1.456777; m_5_6=0.952437; m_5_7=0.008603; m_6_6=1.456776; m_6_7=0.545424; m_7_7=1.456409; m_7_8=0.708865; m_8_8=1.459318; m_8_9=0.820531; m_9_9=1.461252; m_9_10=1.184333; m_10_10=1.461896; m_10_11=1.349238}
!
! Created with skrf (http://scikit-rf.org).
# Hz S RI R 50.0 
!freq ReS11 ImS11 ReS21 ImS21 ReS12 ImS12 ReS22 ImS22
12607400000.0 -0.8778965501506711 -0.4788503390761572 1.544174323414993e-16 3.312858605183809e-17 1.544174323414993e-16 3.312858605183809e-17 -0.8778962100283744 -0.47885096263620225
12608017333.333334 -0.8839733609341156 -0.4675372682029152 1.548025697860498e-16 3.112306274011654e-17 1.548025697860498e-16 3.112306274011654e-17 -0.8839730288636217 -0.4675378960485184
12608634666.666666 -0.8899043928389408 -0.45614709426429306 1.551616742412206e-16 2.911312104323066e-17 1.551616742412206e-16 2.911312104323066e-17 -0.8899040688742217 -0.45614772629149997
12609252000.0 -0.8956886677597561 -0.44468169565044446 1.554946958664803e-16 2.709909870457699e-17 1.554946958664803e-16 2.709909870457699e-17 -0.8956883519534423 -0.4446823317546215
12609869333.333334 -0.9013252317933892 -0.4331429631569629 1.5580158920072448e-16 2.5081334017436157e-17 1.5580158920072448e-16 2.5081334017436157e-17 -0.90132492419676 -0.433143603232814
12610486666.666666 -0.9068131553960453 -0.42153279967336893 1.5608231316816207e-16 2.3060165768207513e-17 1.5608231316816207e-16 2.3060165768207513e-17 -0.9068128560590213 -0.42153344361495354
12611104000.0 -0.9121515335368706 -0.4098531198687351 1.5633683108347272e-16 2.1035933179520964e-17 1.5633683108347272e-16 2.1035933179520964e-17 -0.9121512425080059 -0.40985376756948577
12611721333.333334 -0.9173394858468424 -0.3981058498767036 1.5656511065619826e-16 1.9008975853520397e-17 1.5656511065619826e-16 1.9008975853520397e-17 -0.9173392031733151 -0.3981065012294427
12612338666.666666 -0.9223761567643071 -0.3862929269770653 1.5676712399444096e-16 1.6979633714804014e-17 1.5676712399444096e-16 1.6979633714804014e-17 -0.9223758824919143 -0.38629358187402435
12612956000.0 -0.9272607156758182 -0.3744162992768482 1.5694284760779224e-16 1.494824695355488e-17 1.5694284760779224e-16 1.494824695355488e-17 -0.9272604498489672 -0.3744169576096847
12613573333.333334 -0.9319923570532329 -0.36247792538878915 1.5709226240953609e-16 1.2915155968596497e-17 1.5709226240953609e-16 1.2915155968596497e-17 -0.9319920997149324 -0.36247858704860386
12614190666.666666 -0.9365703005865275 -0.3504797741083834 1.5721535371811986e-16 1.0880701310364176e-17 1.5721535371811986e-16 1.0880701310364176e-17 -0.9365700517783835 -0.35048043898573994
12614808000.0 -0.9409937913124828 -0.3384238240892058 1.573121112578813e-16 8.845223623953746e-18 1.573121112578813e-16 8.845223623953746e-18 -0.9409935510746903 -0.3384244920741476
12615425333.333334 -0.9452620997391876 -0.3263120635166036 1.5738252915904047e-16 6.80906359217679e-18 1.5738252915904047e-16 6.80906359217679e-18 -0.9452618681105253 -0.3263127344986726
12616042666.666666 -0.9493745219663412 -0.31414648977981896 1.5742660595695994e-16 4.7725618785424795e-18 1.5742660595695994e-16 4.7725618785424795e-18 -0.9493742989841633 -0.3141471636480735
12616660000.0 -0.9533303798013362 -0.30192910914259313 1.5744434459066262e-16 2.7360590703990442e-18 1.5744434459066262e-16 2.7360590703990442e-18 -0.9533301655015676 -0.3019297857856265
12617277333.333334 -0.9571290208711017 -0.289661936412307 1.5743575240061948e-16 6.998956219671083e-19 1.5743575240061948e-16 6.998956219671083e-19 -0.9571288152882315 -0.28966261571826557
12617894666.666666 -0.9607698187296845 -0.2773469946077117 1.5740084112579915e-16 -1.3355882024392779e-18 1.5740084112579915e-16 -1.3355882024392779e-18 -0.9607696218967621 -0.2773476764643142
12618512000.0 -0.9642521729615644 -0.26498631462530825 1.5733962689998478e-16 -3.370052385280808e-18 1.5733962689998478e-16 -3.370052385280808e-18 -0.9642519849101923 -0.26498699891986327
12619129333.333334 -0.9675755092806654 -0.2525819349044237 1.5725213024735962e-16 -5.403157212454475e-18 1.5725213024735962e-16 -5.403157212454475e-18 -0.9675753300409954 -0.25258262152384925
12619746666.666666 -0.9707392796250518 -0.24013590109110214 1.571383760773569e-16 -7.434563330016396e-18 1.571383760773569e-16 -7.434563330016396e-18 -0.9707391092257802 -0.2401365899219439
12620364000.0 -0.973742962247381 -0.22765026570047478 1.5699839367878147e-16 -9.463931800732812e-18 1.5699839367878147e-16 -9.463931800732812e-18 -0.9737428007157417 -0.22765095662892434
12620981333.333334 -0.9765860618008039 -0.2151270877788235 1.568322167132037e-16 -1.1490924160539457e-17 1.568322167132037e-16 -1.1490924160539457e-17 -0.9765859091625678 -0.21512778069073835
12621598666.666666 -0.9792681094207962 -0.20256843256346677 1.566398832076179e-16 -1.3515202474988868e-17 1.566398832076179e-16 -1.3515202474988868e-17 -0.9792679657002643 -0.20256912734438806
12622216000.0 -0.981788662802401 -0.18997637114250573 1.5642143554638545e-16 -1.5536429395453497e-17 1.5642143554638545e-16 -1.5536429395453497e-17 -0.9817885280224007 -0.1899770676776777
12622833333.333334 -0.9841473062732327 -0.1773529801129398 1.5617692046243908e-16 -1.7554268215351292e-17 1.5617692046243908e-16 -1.7554268215351292e-17 -0.9841471804551166 -0.17735367828732881
12623450666.666666 -0.9863436508619272 -0.16470034123876745 1.5590638902777842e-16 -1.9568382926108723e-17 1.5590638902777842e-16 -1.9568382926108723e-17 -0.9863435340255662 -0.16470104093708055
12624068000.0 -0.9883773343623802 -0.15202054110717308 1.5560989664323468e-16 -2.1578438273065187e-17 1.5560989664323468e-16 -2.1578438273065187e-17 -0.9883772265261633 -0.15202124221387742
12624685333.333334 -0.9902480213934733 -0.13931567078441975 1.5528750302750994e-16 -2.3584099811273667e-17 1.5528750302750994e-16 -2.3584099811273667e-17 -0.9902479225743036 -0.13931637318376158
12625302666.666666 -0.9919554034542994 -0.1265878254715673 1.5493927220552342e-16 -2.5585033960967482e-17 1.5493927220552342e-16 -2.5585033960967482e-17 -0.9919553136675909 -0.126588529047591
12625920000.0 -0.993499198975159 -0.1138391041581018 1.545652724960107e-16 -2.7580908063081552e-17 1.545652724960107e-16 -2.7580908063081552e-17 -0.9934991182348353 -0.11383980879466903
12626537333.333334 -0.9948791533638821 -0.1010716092766298 1.541655764984374e-16 -2.957139043442168e-17 1.541655764984374e-16 -2.957139043442168e-17 -0.9948790816823725 -0.10107231485743862
12627154666.666666 -0.996095039047886 -0.08828744635559542 1.537402610791877e-16 -3.155615042274624e-17 1.537402610791877e-16 -3.155615042274624e-17 -0.9960949764361265 -0.08828815276419973
12627772000.0 -0.9971466555116988 -0.07548872367205038 1.532894073570422e-16 -3.3534858461653454e-17 1.532894073570422e-16 -3.3534858461653454e-17 -0.9971466019791274 -0.07548943079187878
12628389333.333334 -0.9980338293299766 -0.06267755190453739 1.528131006879711e-16 -3.550718612517885e-17 1.528131006879711e-16 -3.550718612517885e-17 -0.998033784884533 -0.06267825961891262
12629006666.666666 -0.9987564141961683 -0.049856043784218304 1.5231143064919759e-16 -3.74728061823026e-17 1.5231143064919759e-16 -3.74728061823026e-17 -0.9987563788442944 -0.049856751976376575
12629624000.0 -0.9993142909465992 -0.037026313747080535 1.5178449102258395e-16 -3.943139265114015e-17 1.5178449102258395e-16 -3.943139265114015e-17 -0.9993142646932363 -0.037027022300190636
12630241333.333334 -0.9997073675801419 -0.02419047758489815 1.5123237977730672e-16 -4.1382620852963634e-17 1.5123237977730672e-16 -4.1382620852963634e-17 -0.9997073504287287 -0.024191186382080714
12630858666.666666 -0.9999355792733761 -0.01135065209665073 1.5065519905186686e-16 -4.332616746588113e-17 1.5065519905186686e-16 -4.332616746588113e-17 -0.9999355712258529 -0.011351361020997637
12631476000.0 -0.9999988883912984 0.001491045261132863 1.500530551353484e-16 -4.5261710578491486e-17 1.500530551353484e-16 -4.5261710578491486e-17 -0.9999988894481011 0.0014903363265393254
12632093333.333334 -0.9998972844935056 0.014332496723059732 1.4942605844807218e-16 -4.718892974299071e-17 1.4942605844807218e-16 -4.718892974299071e-17 -0.9998972946535714 0.014331787895127516
12632710666.666666 -0.999630784335935 0.027171584564120263 1.4877432352150697e-16 -4.91075060282275e-17 1.4877432352150697e-16 -4.91075060282275e-17 -0.9996308035966995 0.027170875959728332
12633328000.0 -0.9991994318680893 0.04000619144944053 1.4809796897751634e-16 -5.101712207242401e-17 1.4809796897751634e-16 -5.101712207242401e-17 -0.9991994602254862 0.040005483185419535
12633945333.333334 -0.998603298225795 0.052834200782890375 1.4739711750693992e-16 -5.2917462135588786e-17 1.4739711750693992e-16 -5.2917462135588786e-17 -0.9986033356742591 0.05283349297600344
12634562666.666666 -0.997842481719467 0.06565349705642216 1.4667189584750545e-16 -5.480821215162966e-17 1.4667189584750545e-16 -5.480821215162966e-17 -0.9978425282519351 0.06565278982334564
12635180000.0 -0.9969171078179001 0.07846196619888925 1.4592243476104453e-16 -5.668905978025081e-17 1.4592243476104453e-16 -5.668905978025081e-17 -0.9969171634258109 0.07846125965619344
12635797333.333334 -0.9958273291275747 0.09125749592468424 1.451488690100859e-16 -5.855969445842355e-17 1.451488690100859e-16 -5.855969445842355e-17 -0.995827393800872 0.09125679018881423
12636414666.666666 -0.99457332536749 0.10403797608208253 1.4435133733375984e-16 -6.041980745162394e-17 1.4435133733375984e-16 -6.041980745162394e-17 -0.9945733990946231 0.10403727126933894
12637032000.0 -0.993155303339526 0.1168012990012343 1.4352998242304863e-16 -6.226909190473576e-17 1.4352998242304863e-16 -6.226909190473576e-17 -0.993155386107453 0.11680059522775432
12637649333.333334 -0.9915734968943425 0.1295453598417475 1.426849508954002e-16 -6.410724289258671e-17 1.426849508954002e-16 -6.410724289258671e-17 -0.991573588688531 0.12954465722348538
12638266666.666666 -0.9898281668928067 0.1422680569398028 1.418163932686997e-16 -6.593395747013456e-17 1.418163932686997e-16 -6.593395747013456e-17 -0.9898282676972386 0.14226735559251122
12638884000.0 -0.9879196011629833 0.15496729215474703 1.4092446393456398e-16 -6.774893472238423e-17 1.4092446393456398e-16 -6.774893472238423e-17 -0.987919710960154 0.15496659219395745
12639501333.333334 -0.9858481144526567 0.1676409712151027 1.4000932113104819e-16 -6.955187581383178e-17 1.4000932113104819e-16 -6.955187581383178e-17 -0.9858482332235831 0.16764027275610704
12640118666.666666 -0.9836140483774467 0.1802870040638868 1.3907112691469107e-16 -7.134248403761615e-17 1.3907112691469107e-16 -7.134248403761615e-17 -0.9836141761016656 0.18028630722171768
12640736000.0 -0.9812177713644116 0.1929033052035669 1.3811004713190666e-16 -7.312046486433278e-17 1.3811004713190666e-16 -7.312046486433278e-17 -0.9812179080199863 0.19290261009297932
12641353333.333334 -0.9786596785913949 0.2054877940394286 1.371262513898356e-16 -7.488552599031609e-17 1.371262513898356e-16 -7.488552599031609e-17 -0.9786598241549185 0.20548710077488086
12641970666.666666 -0.9759401919217547 0.21803839522325252 1.361199130264994e-16 -7.663737738568013e-17 1.361199130264994e-16 -7.663737738568013e-17 -0.9759403463683534 0.21803770391888727
12642588000.0 -0.973059759834842 0.23055303899528665 1.3509120908036326e-16 -7.837573134192084e-17 1.3509120908036326e-16 -7.837573134192084e-17 -0.9730599231381794 0.23055234976491212
12643205333.333334 -0.9700188573520443 0.24302966152557773 1.340403202593364e-16 -8.010030251903482e-17 1.340403202593364e-16 -8.010030251903482e-17 -0.970019029484326 0.24302897448264915
12643822666.666666 -0.9668179859583943 0.2554662052545454 1.329674309090821e-16 -8.181080799237723e-17 1.329674309090821e-16 -8.181080799237723e-17 -0.9668181668903727 0.25546552051214605
12644440000.0 -0.963457673519932 0.2678606192320231 1.318727289808451e-16 -8.350696729890684e-17 1.318727289808451e-16 -8.350696729890684e-17 -0.9634578632209119 0.267859936902846
12645057333.333334 -0.9599384741966629 0.28021085945549007 1.3075640599859413e-16 -8.518850248316208e-17 1.3075640599859413e-16 -8.518850248316208e-17 -0.9599386726345059 0.2802101796518193
12645674666.666666 -0.9562609683511092 0.2925148892073732 1.2961865702562985e-16 -8.685513814271597e-17 1.2961865702562985e-16 -8.685513814271597e-17 -0.9562611754922379 0.29251421204106515
12646292000.0 -0.952425762452572 0.30477067939098 1.2845968063058048e-16 -8.850660147323875e-17 1.2845968063058048e-16 -8.850660147323875e-17 -0.9524259782619791 0.3047700049734456
12646909333.333334 -0.9484334889772741 0.31697620886463623 1.2727967885288048e-16 -9.014262231302842e-17 1.2727967885288048e-16 -9.014262231302842e-17 -0.948433713418525 0.3169755373068221
12647526666.666666 -0.9442848063039045 0.32912946477548755 1.2607885716761206e-16 -9.176293318718448e-17 1.2607885716761206e-16 -9.176293318718448e-17 -0.9442850393391463 0.3291287961878582
12648144000.0 -0.9399803986050561 0.34122844289139004 1.2485742444984098e-16 -9.336726935123463e-17 1.2485742444984098e-16 -9.336726935123463e-17 -0.9399806401950201 0.34122777738390864
12648761333.333334 -0.9355209757344636 0.3532711479312168 1.2361559293836846e-16 -9.49553688343324e-17 1.2361559293836846e-16 -9.49553688343324e-17 -0.9355212258384757 0.35327048561332863
12649378666.666666 -0.9309072731099529 0.3652555938939117 1.2235357819896188e-16 -9.652697248193881e-17 1.2235357819896188e-16 -9.652697248193881e-17 -0.9309075316859395 0.36525493487452515
12649996000.0 -0.9261400515920784 0.37717980438621795 1.210715990870155e-16 -9.80818239980515e-17 1.210715990870155e-16 -9.80818239980515e-17 -0.9261403185965715 0.37717914877368675
12650613333.333334 -0.9212200973586175 0.3890418129486622 1.1976987770967136e-16 -9.96196699869464e-17 1.1976987770967136e-16 -9.96196699869464e-17 -0.9212203727467648 0.38904116085076784
12651230666.666666 -0.9161482217751402 0.4008396633793246 1.1844863938746704e-16 -1.011402599943502e-16 1.1844863938746704e-16 -1.011402599943502e-16 -0.9161485055007114 0.40083901490325874
12651848000.0 -0.9109252612608977 0.4125714100571776 1.17108112615382e-16 -1.0264334654819989e-16 1.17108112615382e-16 -1.0264334654819989e-16 -0.9109255532762905 0.41257076530952363
12652465333.333334 -0.9055520771511014 0.42423511826241805 1.1574852902342614e-16 -1.0412868519882092e-16 1.1574852902342614e-16 -1.0412868519882092e-16 -0.9055523774073527 0.42423447734913444
12653082666.666666 -0.9000295555548918 0.4358288644955342 1.1437012333672014e-16 -1.0559603455858475e-16 1.1437012333672014e-16 -1.0559603455858475e-16 -0.9000298640016833 0.4358282275219368
12653700000.0 -0.8943586072089587 0.44735073679502807 1.1297313333501441e-16 -1.0704515634110495e-16 1.1297313333501441e-16 -1.0704515634110495e-16 -0.8943589237946272 0.4473501038657727
12654317333.333334 -0.8885401673277195 0.45879883505195496 1.1155779981180413e-16 -1.0847581539980212e-16 1.1155779981180413e-16 -1.0847581539980212e-16 -0.8885404919992652 0.45879820627102086
12654934666.666666 -0.8825751954487148 0.4701712713240419 1.1012436653286455e-16 -1.0988777976602536e-16 1.1012436653286455e-16 -1.0988777976602536e-16 -0.8825755281518085 0.4701706467947133
12655552000.0 -0.8764646752746451 0.48146617014647436 1.0867308019436726e-16 -1.1128082068656402e-16 1.0867308019436726e-16 -1.1128082068656402e-16 -0.8764650159536389 0.48146554997132474
12656169333.333334 -0.8702096145110196 0.4926816688414395 1.0720419038052437e-16 -1.1265471266060831e-16 1.0720419038052437e-16 -1.1265471266060831e-16 -0.8702099631089557 0.4926810531223141
12656786666.666666 -0.8638110446999961 0.5038159178252547 1.0571794952070206e-16 -1.140092334762134e-16 1.0571794952070206e-16 -1.140092334762134e-16 -0.8638114011586173 0.5038153066632546
12657404000.0 -0.8572700210502686 0.5148670809133903 1.0421461284617163e-16 -1.153441642461072e-16 1.0421461284617163e-16 -1.153441642461072e-16 -0.8572703853100253 0.5148664744088542
12658021333.333334 -0.8505876222630151 0.5258333356233259 1.0269443834630616e-16 -1.1665928944302686e-16 1.0269443834630616e-16 -1.1665928944302686e-16 -0.8505879942630791 0.525832733875816
12658638666.666666 -0.84376495035416 0.5367128734748627 1.0115768672443737e-16 -1.1795439693438286e-16 1.0115768672443737e-16 -1.1795439693438286e-16 -0.8437653300324319 0.5367122765831462
12659256000.0 -0.836803130472336 0.547503900288849 9.960462135317737e-17 -1.1922927801643173e-16 9.960462135317737e-17 -1.1922927801643173e-16 -0.8368035177654557 0.5475033083508829
12659873333.333334 -0.8297033107136287 0.5582046364825777 9.803550822937795e-17 -1.2048372744780313e-16 9.803550822937795e-17 -1.2048372744780313e-16 -0.8297037055569872 0.5582040495954925
12660490666.666666 -0.8224666619321271 0.5688133173634614 9.645061592867e-17 -1.2171754348243705e-16 9.645061592867e-17 -1.2171754348243705e-16 -0.8224670642598773 0.568812735623546
12661108000.0 -0.8150943775467022 0.5793281934202378 9.485021555952023e-17 -1.2293052790197856e-16 9.485021555952023e-17 -1.2293052790197856e-16 -0.8150947872917675 0.5793276169229215
12661725333.333334 -0.8075876733445158 0.589747530611018 9.323458071697986e-17 -1.2412248604749384e-16 9.323458071697986e-17 -1.2412248604749384e-16 -0.8075880904386045 0.5897469594508574
12662342666.666666 -0.7999477872802025 0.6000696106497231 9.16039874359661e-17 -1.2529322685063344e-16 9.16039874359661e-17 -1.2529322685063344e-16 -0.7999482116538169 0.6000690449203848
12662960000.0 -0.7921759792718733 0.6102927312892154 8.995871414416092e-17 -1.264425628641779e-16 8.995871414416092e-17 -1.264425628641779e-16 -0.7921764108543228 0.6102921710834623
12663577333.333334 -0.7842735309933082 0.6204152066020721 8.829904161455598e-17 -1.2757031029194395e-16 8.829904161455598e-17 -1.2757031029194395e-16 -0.7842739697127193 0.620414652011746
12664194666.666666 -0.7762417456625879 0.6304353672586117 8.662525291763265e-17 -1.2867628901806584e-16 8.662525291763265e-17 -1.2867628901806584e-16 -0.7762421914459186 0.6304348183746207
12664812000.0 -0.7680819478272176 0.640351560802151 8.493763337310373e-17 -1.297603226357e-16 8.493763337310373e-17 -1.297603226357e-16 -0.7680824006002667 0.640351017714452
12665429333.333334 -0.7597954831455038 0.650162151921729 8.32364705014e-17 -1.3082223847502835e-16 8.32364705014e-17 -1.3082223847502835e-16 -0.7597959428329261 0.6501616147193154
12666046666.666666 -0.7513837181650437 0.6598655227213173 8.152205397474264e-17 -1.3186186763067202e-16 8.152205397474264e-17 -1.3186186763067202e-16 -0.7513841846903603 0.6598649914922031
12666664000.0 -0.7428480400968089 0.669460072987279 7.979467556783655e-17 -1.3287904498848638e-16 7.979467556783655e-17 -1.3287904498848638e-16 -0.742848513382421 0.6694595478184846
12667281333.333334 -0.7341898565869343 0.6789442204516213 7.805462910837405e-17 -1.3387360925162426e-16 7.805462910837405e-17 -1.3387360925162426e-16 -0.7341903365541361 0.6789437014291592
12667898666.666666 -0.7254105954842062 0.6883164010533616 7.6302210427081e-17 -1.3484540296603632e-16 7.6302210427081e-17 -1.3484540296603632e-16 -0.7254110820531974 0.6883158882622221
12668516000.0 -0.7165117046045831 0.6975750691964541 7.453771730743694e-17 -1.357942725453184e-16 7.453771730743694e-17 -1.357942725453184e-16 -0.7165121976944827 0.6975745627205922
12669133333.333334 -0.707494651492825 0.7067186980042693 7.276144943527421e-17 -1.3672006829480206e-16 7.276144943527421e-17 -1.3672006829480206e-16 -0.7074951510216845 0.70671819792659
12669750666.666666 -0.6983609231799252 0.7157457795719696 7.097370834781685e-17 -1.3762264443512976e-16 7.097370834781685e-17 -1.3762264443512976e-16 -0.6983614290647425 0.7157452859743149
