! Parameters = {f0=12700.012000; bw=77.238000; Q=6100.000000; N=10; m_0_1=1.308804; m_1_1=0.867311; m_1_2=1.143616; m_2_2=0.866662; m_2_3=0.780579; m_2_8=0.002504; m_2_9=0.039208; m_3_3=0.864725; m_3_4=0.669108; m_3_7=0.003104; m_3_8=-0.093984; m_3_9=0.002504; m_4_4=0.861800; m_4_5=0.505443; m_4_6=0.006621; m_4_7=-0.114533; m_4_8=0.003104; m_5_5=0.862182; m_5_6=0.912798; m_5_7=0.006621; m_6_6=0.862181; m_6_7=0.505785; m_7_7=0.861814; m_7_8=0.669226; m_8_8=0.864723; m_8_9=0.780892; m_9_9=0.866657; m_9_10=1.144694; m_10_10=0.867301; m_10_11=1.309599}
!
! Created with skrf (http://scikit-rf.org).
# Hz S RI R 50.0 
!freq ReS11 ImS11 ReS21 ImS21 ReS12 ImS12 ReS22 ImS22
12607400000.0 -0.7740196554930288 0.633161569356721 7.442154456874022e-17 -1.0944825354655398e-16 7.442154456874022e-17 -1.0944825354655398e-16 -0.774020092046877 0.6331610356833058
12608017333.333334 -0.7665780642892774 0.6421511281235265 7.311513199837823e-17 -1.1029417217209971e-16 7.311513199837823e-17 -1.1029417217209971e-16 -0.7665785070195984 0.6421505996068342
12608634666.666666 -0.7590320732450295 0.6510532326816022 7.179912143390096e-17 -1.1112450930003294e-16 7.179912143390096e-17 -1.1112450930003294e-16 -0.7590325220909261 0.651052709393103
12609252000.0 -0.7513827100447189 0.6598666706582977 7.047369857189774e-17 -1.1193915623792461e-16 7.047369857189774e-17 -1.1193915623792461e-16 -0.7513831649444673 0.6598661526687424
12609869333.333334 -0.7436310164509372 0.6685902417564579 6.913905033731603e-17 -1.1273800650476803e-16 6.913905033731603e-17 -1.1273800650476803e-16 -0.7436314773419951 0.6685897291358687
12610486666.666666 -0.7357780481626897 0.6772227579177443 6.779536485715214e-17 -1.1352095584482641e-16 6.779536485715214e-17 -1.1352095584482641e-16 -0.7357785149817053 0.6772222507354063
12611104000.0 -0.7278248746713337 0.6857630434847521 6.644283143393373e-17 -1.1428790224119755e-16 6.644283143393373e-17 -1.1428790224119755e-16 -0.7278253473541543 0.6857625418092023
12611721333.333334 -0.7197725791153289 0.6942099353606815 6.508164051916409e-17 -1.1503874592899753e-16 6.508164051916409e-17 -1.1503874592899753e-16 -0.7197730575970082 0.6942094392596996
12612338666.666666 -0.7116222581323753 0.702562283168113 6.371198368649119e-17 -1.1577338940830158e-16 6.371198368649119e-17 -1.1577338940830158e-16 -0.711622742347186 0.702561792708715
12612956000.0 -0.7033750217102014 0.7108189494055338 6.233405360481638e-17 -1.164917374567172e-16 6.233405360481638e-17 -1.164917374567172e-16 -0.7033755115916399 0.7108184646539589
12613573333.333334 -0.695031993035513 0.7189788096021301 6.094804401124035e-17 -1.1719369714165275e-16 6.094804401124035e-17 -1.1719369714165275e-16 -0.6950324885163114 0.7189783306238348
12614190666.666666 -0.6865943083407676 0.7270407524711913 5.955414968385835e-17 -1.1787917783227031e-16 5.955414968385835e-17 -1.1787917783227031e-16 -0.6865948093529021 0.7270402793308388
12614808000.0 -0.6780631167496748 0.7350036800612155 5.81525664144386e-17 -1.1854809121110758e-16 5.81525664144386e-17 -1.1854809121110758e-16 -0.6780636232243751 0.7350032128226687
12615425333.333334 -0.6694395801205124 0.7428665079056164 5.674349098095153e-17 -1.1920035128538532e-16 5.674349098095153e-17 -1.1920035128538532e-16 -0.6694400919882704 0.7428660466319269
12616042666.666666 -0.6607248728880377 0.7506281651702786 5.532712112001042e-17 -1.198358743979715e-16 5.532712112001042e-17 -1.198358743979715e-16 -0.6607253900786186 0.7506277099236812
12616660000.0 -0.6519201819034826 0.7582875947994553 5.390365549913965e-17 -1.204545792380422e-16 5.390365549913965e-17 -1.204545792380422e-16 -0.6519207043459327 0.7582871456413564
12617277333.333334 -0.6430267062728285 0.7658437536597997 5.247329368897252e-17 -1.2105638685139186e-16 5.247329368897252e-17 -1.2105638685139186e-16 -0.6430272338954858 0.7658433106507704
12617894666.666666 -0.634045657193737 0.773295612682224 5.103623613532209e-17 -1.2164122065042116e-16 5.103623613532209e-17 -1.2164122065042116e-16 -0.6340461899242422 0.7732951758819939
12618512000.0 -0.6249782577902971 0.7806421570023093 4.959268413108624e-17 -1.2220900642381608e-16 4.959268413108624e-17 -1.2220900642381608e-16 -0.624978795555602 0.7806417264697557
12619129333.333334 -0.6158257429466866 0.787882386098315 4.8142839788164585e-17 -1.2275967234584655e-16 4.8142839788164585e-17 -1.2275967234584655e-16 -0.6158262856730643 0.7878819618914562
12619746666.666666 -0.6065893591389291 0.7950153139274975 4.668690600915867e-17 -1.232931489853785e-16 4.668690600915867e-17 -1.232931489853785e-16 -0.6065899067519837 0.7950148961034834
12620364000.0 -0.5972703642649557 0.8020399690605329 4.522508645900845e-17 -1.2380936931453662e-16 4.522508645900845e-17 -1.2380936931453662e-16 -0.5972709166896341 0.80203955767564
12620981333.333334 -0.5878700274736557 0.8089553948135434 4.375758553660152e-17 -1.2430826871700748e-16 4.375758553660152e-17 -1.2430826871700748e-16 -0.5878705846342568 0.8089549899231661
12621598666.666666 -0.5783896289917143 0.8157606493786275 4.228460834617222e-17 -1.247897849960499e-16 4.228460834617222e-17 -1.247897849960499e-16 -0.5783901908118988 0.8157602510372688
12622216000.0 -0.5688304599494178 0.8224548059520026 4.0806360668723916e-17 -1.2525385838212833e-16 4.0806360668723916e-17 -1.2525385838212833e-16 -0.5688310263522199 0.8224544142132698
12622833333.333334 -0.5591938222046774 0.8290369528603274 3.932304893328736e-17 -1.2570043154023598e-16 3.932304893328736e-17 -1.2570043154023598e-16 -0.5591943931125142 0.829036567776922
12623450666.666666 -0.549481028165961 0.8355061936846971 3.783488018817573e-17 -1.2612944957685475e-16 3.783488018817573e-17 -1.2612944957685475e-16 -0.5494816035006447 0.835505815308411
12624068000.0 -0.5396934006133749 0.8418616473828608 3.634206207209724e-17 -1.265408600465961e-16 3.634206207209724e-17 -1.265408600465961e-16 -0.5396939802961216 0.8418612757645657
12624685333.333334 -0.5298322725184125 0.8481024484092636 3.484480278521172e-17 -1.269346129584955e-16 3.484480278521172e-17 -1.269346129584955e-16 -0.5298328564698543 0.8481020835989068
12625302666.666666 -0.5198989868628284 0.8542277468326682 3.334331106019663e-17 -1.2731066078194518e-16 3.334331106019663e-17 -1.2731066078194518e-16 -0.5198995750030239 0.8542273888792651
12625920000.0 -0.5098948964551847 0.8602367084522542 3.1837796133106486e-17 -1.276689584523233e-16 3.1837796133106486e-17 -1.276689584523233e-16 -0.5098954887036296 0.8602363574038816
12626537333.333334 -0.49982136374711866 0.8661285149109127 3.0328467714333166e-17 -1.2800946337623842e-16 3.0328467714333166e-17 -1.2800946337623842e-16 -0.49982196002275725 0.8661281708147021
12627154666.666666 -0.48967976064757657 0.8719023638068347 2.881553595940352e-17 -1.2833213543645883e-16 2.881553595940352e-17 -1.2833213543645883e-16 -0.4896803608688125 0.8719020267089659
12627772000.0 -0.4794714683357488 0.8775574688029123 2.729921143972637e-17 -1.2863693699649542e-16 2.729921143972637e-17 -1.2863693699649542e-16 -0.4794720724204567 0.8775571387486086
12628389333.333334 -0.469197877073464 0.8830930597335528 2.5779705113399686e-17 -1.2892383290481813e-16 2.5779705113399686e-17 -1.2892383290481813e-16 -0.46919848493900024 0.883092736767073
12629006666.666666 -0.45886038601540263 0.8885083827098136 2.4257228295836542e-17 -1.2919279049875603e-16 2.4257228295836542e-17 -1.2919279049875603e-16 -0.45886099757861726 0.8885080668744484
12629624000.0 -0.4484604030187461 0.8938027002219653 2.2731992630448687e-17 -1.294437796080333e-16 2.2731992630448687e-17 -1.294437796080333e-16 -0.4484610181959931 0.8938023915600285
12630241333.333334 -0.437999344451441 0.8989752912399317 2.1204210059266517e-17 -1.296767725579638e-16 2.1204210059266517e-17 -1.296767725579638e-16 -0.4379999631585904 0.8989749897927566
12630858666.666666 -0.4274786349993836 0.9040254513114541 1.967409279354077e-17 -1.2989174417229978e-16 1.967409279354077e-17 -1.2989174417229978e-16 -0.42747925715183255 0.904025157119386
12631476000.0 -0.4168997074720318 0.9089524926581961 1.8141853284255498e-17 -1.3008867177574212e-16 1.8141853284255498e-17 -1.3008867177574212e-16 -0.416900332984718 0.9089522057605917
12632093333.333334 -0.4062640026077613 0.9137557442691864 1.6607704192741284e-17 -1.3026753519608639e-16 1.6607704192741284e-17 -1.3026753519608639e-16 -0.40626463139517205 0.9137554647044026
12632710666.666666 -0.39557296887742077 0.9184345519923106 1.507185836116764e-17 -1.30428316766038e-16 1.507185836116764e-17 -1.30428316766038e-16 -0.3955736008536061 0.9184342797977032
12633328000.0 -0.384828062286857 0.9229882786234919 1.3534528783029035e-17 -1.3057100132467723e-16 1.3534528783029035e-17 -1.3057100132467723e-16 -0.3848286973654407 0.922988013835408
12633945333.333334 -0.37403074617903737 0.9274163039932852 1.1995928573688328e-17 -1.3069557621857015e-16 1.1995928573688328e-17 -1.3069557621857015e-16 -0.3740313842732299 0.9274160466470617
12634562666.666666 -0.36318249103442063 0.9317180250514885 1.045627094086308e-17 -1.3080203130253945e-16 1.045627094086308e-17 -1.3080203130253945e-16 -0.3631831320570297 0.9317177751814437
12635180000.0 -0.35228477427090105 0.9358928559491806 8.915769155117938e-18 -1.3089035894008651e-16 8.915769155117938e-18 -1.3089035894008651e-16 -0.3522854181343443 0.9358926135886121
12635797333.333334 -0.3413390800424957 0.9399402281185527 7.374636520348725e-18 -1.309605540034674e-16 7.374636520348725e-18 -1.309605540034674e-16 -0.3413397266588123 0.939939993299732
12636414666.666666 -0.3303468990372436 0.943859590350329 5.8330863443255625e-18 -1.31012613873419e-16 5.8330863443255625e-18 -1.31012613873419e-16 -0.330347548318107 0.9438593631044984
12637032000.0 -0.31930972827419113 0.9476504088688378 4.2913319091762394e-18 -1.310465384385428e-16 4.2913319091762394e-18 -1.310465384385428e-16 -0.3193103801309199 0.9476501892262043
12637649333.333334 -0.3082290708995396 0.9513121674046964 2.7495864419218866e-18 -1.3106233009434005e-16 2.7495864419218866e-18 -1.3106233009434005e-16 -0.3082297252431103 0.9513119553944279
12638266666.666666 -0.2971064359818245 0.9548443672651535 1.2080630850504065e-18 -1.310599937419003e-16 1.2080630850504065e-18 -1.310599937419003e-16 -0.2971070927228844 0.9548441629153781
12638884000.0 -0.2859433383065872 0.9582465274019509 -3.330251329390688e-19 -1.3103953678624626e-16 -3.330251329390688e-19 -1.3103953678624626e-16 -0.28594399735546494 0.9582463307397485
12639501333.333334 -0.27474129816983084 0.9615181844769087 -1.8734653269123136e-18 -1.3100096913433117e-16 -1.8734653269123136e-18 -1.3100096913433117e-16 -0.2747419594365497 0.96151799552831
12640118666.666666 -0.26350184117135467 0.9646588929249144 -3.4130447844560465e-18 -1.3094430319269341e-16 -3.4130447844560465e-18 -1.3094430319269341e-16 -0.263502504565645 0.9646587117148973
12640736000.0 -0.2522264980063 0.967668225014799 -4.951550995280484e-18 -1.3086955386476272e-16 -4.951550995280484e-18 -1.3086955386476272e-16 -0.2522271634376115 0.9676680515672871
12641353333.333334 -0.24091680425767195 0.9705457709073201 -6.488771680400184e-18 -1.3077673854782925e-16 -6.488771680400184e-18 -1.3077673854782925e-16 -0.24091747163518512 0.970545605245175
12641970666.666666 -0.2295743001862488 0.9732911387112327 -8.024494821472399e-18 -1.306658771296614e-16 -8.024494821472399e-18 -1.306658771296614e-16 -0.22957496941888833 0.9732909808562547
12642588000.0 -0.21820053052141902 0.9759039545365032 -9.558508689972599e-18 -1.3053699198478498e-16 -9.558508689972599e-18 -1.3053699198478498e-16 -0.2182012015178658 0.9759038045094267
12643205333.333334 -0.2067970442505306 0.9783838625452989 -1.1090601876322459e-17 -1.3039010797042223e-16 -1.1090601876322459e-17 -1.3039010797042223e-16 -0.20679771691923415 0.9783837203657909
12643822666.666666 -0.19536539440804493 0.9807305250004216 -1.262056331902893e-17 -1.302252524220816e-16 -1.262056331902893e-17 -1.302252524220816e-16 -0.1953660686572361 0.9807303906870782
12644440000.0 -0.1839071378639471 0.9829436223113222 -1.4148182333671408e-17 -1.3004245514881734e-16 -1.4148182333671408e-17 -1.3004245514881734e-16 -0.18390781360165068 0.9829434958816676
12645057333.333334 -0.17242383511188408 0.9850228530775939 -1.5673248641906798e-17 -1.2984174842813998e-16 -1.5673248641906798e-17 -1.2984174842813998e-16 -0.1724245122459306 0.9850227345480748
12645674666.666666 -0.16091705005652987 0.9869679341300395 -1.719555240034808e-17 -1.2962316700059464e-16 -1.719555240034808e-17 -1.2962316700059464e-16 -0.1609177284945691 0.9869678235160262
12646292000.0 -0.14938834980045884 0.988778600569262 -1.8714884229434023e-17 -1.2938674806399215e-16 -1.8714884229434023e-17 -1.2938674806399215e-16 -0.14938902944997193 0.9887784978850466
12646909333.333334 -0.13783930443097456 0.9904546058016991 -2.023103524215013e-17 -1.2913253126731476e-16 -2.023103524215013e-17 -1.2913253126731476e-16 -0.1378399851992866 0.9904545110604899
12647526666.666666 -0.12627148680619654 0.9919957215732162 -2.1743797072717848e-17 -1.2886055870427657e-16 -2.1743797072717848e-17 -1.2886055870427657e-16 -0.12627216860048945 0.9919956347871414
12648144000.0 -0.11468647234065661 0.9934017380002262 -2.325296190521544e-17 -1.2857087490654762e-16 -2.325296190521544e-17 -1.2857087490654762e-16 -0.11468715506798155 0.9934016591803267
12648761333.333334 -0.10308583879105343 0.9946724635982229 -2.47583225020455e-17 -1.2826352683665369e-16 -2.47583225020455e-17 -1.2826352683665369e-16 -0.10308652235834376 0.994672392754457
12649378666.666666 -0.09147116604129527 0.9958077253078824 -2.625967223236303e-17 -1.2793856388053553e-16 -2.625967223236303e-17 -1.2793856388053553e-16 -0.09147185035537879 0.9958076624491181
12649996000.0 -0.07984403588710955 0.9968073685186479 -2.7756805100426427e-17 -1.2759603783977109e-16 -2.7756805100426427e-17 -1.2759603783977109e-16 -0.0798447208547216 0.9968073136526663
12650613333.333334 -0.06820603182087356 0.9976712570897601 -2.924951577378784e-17 -1.272360029234793e-16 -2.924951577378784e-17 -1.272360029234793e-16 -0.06820671734866961 0.997671210223254
12651230666.666666 -0.05655873881598855 0.998399273368806 -3.0737599611410195e-17 -1.2685851573989e-16 -3.0737599611410195e-17 -1.2685851573989e-16 -0.05655942481055671 0.9983992345073751
12651848000.0 -0.044903743110653635 0.9989913182077541 -3.222085269172793e-17 -1.2646363528757162e-16 -3.222085269172793e-17 -1.2646363528757162e-16 -0.044904429478527824 0.9989912873559117
12652465333.333334 -0.03324263199226306 0.9994473109764417 -3.369907184049648e-17 -1.260514229463576e-16 -3.369907184049648e-17 -1.260514229463576e-16 -0.03324331863993533 0.9994472881376071
12653082666.666666 -0.02157699358114914 0.9997671895735595 -3.517205465859272e-17 -1.2562194246793148e-16 -3.517205465859272e-17 -1.2562194246793148e-16 -0.021577680415082564 0.9997671747500607
12653700000.0 -0.009908416613927655 0.9999509104351166 -3.663959954973271e-17 -1.2517525996607665e-16 -3.663959954973271e-17 -1.2517525996607665e-16 -0.009909103540569123 0.9999509036281912
12654317333.333334 0.0017615097723029053 0.9999984485403647 -3.8101505747946584e-17 -1.2471144390663888e-16 -3.8101505747946584e-17 -1.2471144390663888e-16 0.0017608228465100404 0.9999984497501568
12654934666.666666 0.01343119625675456 0.9999097974152101 -3.955757334506679e-17 -1.2423056509712645e-16 -3.955757334506679e-17 -1.2423056509712645e-16 0.01343050942535769 0.9999098066407736
12655552000.0 0.025099053551483737 0.9996849691330933 -4.100760331799455e-17 -1.2373269667601864e-16 -4.100760331799455e-17 -1.2373269667601864e-16 0.02509836690800828 0.9996849863723897
12656169333.333334 0.03676349261738086 0.9993239943133484 -4.245139755585857e-17 -1.2321791410174944e-16 -4.245139755585857e-17 -1.2321791410174944e-16 0.03676280625531751 0.9993240195632483
12656786666.666666 0.04842292488109218 0.9988269221170271 -4.3888758887050806e-17 -1.2268629514136918e-16 -4.3888758887050806e-17 -1.2268629514136918e-16 0.048422238893884216 0.9988269553733106
12657404000.0 0.060075762451025715 0.9981938202402088 -4.5319491106104525e-17 -1.2213791985889815e-16 -4.5319491106104525e-17 -1.2213791985889815e-16 0.060075076932056194 0.9981938614975656
12658021333.333334 0.07172041833377575 0.9974247749047762 -4.6743399000452664e-17 -1.2157287060335854e-16 -4.6743399000452664e-17 -1.2157287060335854e-16 0.07171973337635487 0.9974248241568072
12658638666.666666 0.083355306650056 0.9965198908466858 -4.8160288376979707e-17 -1.2099123199651716e-16 -4.8160288376979707e-17 -1.2099123199651716e-16 0.08335462234740848 0.9965199480859047
12659256000.0 0.09497884285107651 0.9954792913016743 -4.956996608852586e-17 -1.2039309092027897e-16 -4.956996608852586e-17 -1.2039309092027897e-16 0.09497815929632888 0.9954793565195089
12659873333.333334 0.10658944393388922 0.9943031179885122 -5.0972240060119203e-17 -1.197785365038193e-16 -5.0972240060119203e-17 -1.197785365038193e-16 0.10658876122005684 0.9943031911753014
12660490666.666666 0.11818552865720272 0.9929915310896826 -5.236691931511507e-17 -1.1914766011038491e-16 -5.236691931511507e-17 -1.1914766011038491e-16 0.11818484687717738 0.9929916122346819
12661108000.0 0.129765517756815 0.9915447092295538 -5.375381400120689e-17 -1.185005553237759e-16 -5.375381400120689e-17 -1.185005553237759e-16 0.1297648370033524 0.991544798320937
12661725333.333334 0.14132783416038253 0.989962849450094 -5.5132735416156664e-17 -1.1783731793457704e-16 -5.5132735416156664e-17 -1.1783731793457704e-16 0.14132715452608963 0.9899629464749545
12662342666.666666 0.15287090320259575 0.988246167183985 -5.650349603349116e-17 -1.1715804592602833e-16 -5.650349603349116e-17 -1.1715804592602833e-16 0.15287022477991782 0.9882462721283355
12662960000.0 0.16439315283929323 0.986394896225326 -5.786590952792166e-17 -1.164628394596466e-16 -5.786590952792166e-17 -1.164628394596466e-16 0.16439247572050164 0.9863950090741026
12663577333.333334 0.17589301386181103 0.9844092886977567 -5.921979080064134e-17 -1.1575180086052633e-16 -5.921979080064134e-17 -1.1575180086052633e-16 0.17589233813899066 0.9844094094348212
12664194666.666666 0.1873689201104955 0.9822896150201531 -6.056495600443969e-17 -1.1502503460234838e-16 -6.056495600443969e-17 -1.1502503460234838e-16 0.1873682458755322 0.9822897436282947
12664812000.0 0.19881930868808262 0.9800361638697865 -6.190122256860152e-17 -1.142826472921147e-16 -6.190122256860152e-17 -1.142826472921147e-16 0.19881863603265032 0.9800363003307229
12665429333.333334 0.2102426201726583 0.9776492421429827 -6.322840922367182e-17 -1.1352474765456642e-16 -6.322840922367182e-17 -1.1352474765456642e-16 0.2102419491882075 0.9776493864373659
12666046666.666666 0.22163729882973052 0.9751291749133933 -6.454633602596355e-17 -1.1275144651635306e-16 -6.454633602596355e-17 -1.1275144651635306e-16 0.22163662960747446 0.9751293270208078
12666664000.0 0.23300179282449132 0.9724763053876362 -6.585482438195592e-17 -1.1196285678986973e-16 -6.585482438195592e-17 -1.1196285678986973e-16 0.23300112545539514 0.9724764652866074
12667281333.333334 0.2443345544328564 0.969690994858626 -6.715369707241678e-17 -1.1115909345685875e-16 -6.715369707241678e-17 -1.1115909345685875e-16 0.24433388900762362 0.9696911625266186
12667898666.666666 0.25563404025233183 0.9667736226563504 -6.844277827637017e-17 -1.1034027355170565e-16 -6.844277827637017e-17 -1.1034027355170565e-16 0.2556333768613924 0.9667737980697739
12668516000.0 0.2668987114124287 0.9637245860961516 -6.972189359487715e-17 -1.0950651614444805e-16 -6.972189359487715e-17 -1.0950651614444805e-16 0.266898050145927 0.9637247692303631
12669133333.333334 0.278127033783802 0.9605443004247324 -7.099087007453525e-17 -1.0865794232355642e-16 -7.099087007453525e-17 -1.0865794232355642e-16 0.2781263747315839 0.9605444912540392
12669750666.666666 0.28931747818753883 0.9572331987635074 -7.22495362308601e-17 -1.0779467517838642e-16 -7.22495362308601e-17 -1.0779467517838642e-16 0.28931682143914045 0.9572333972611727
