! Parameters = {f0=12700.012000; bw=77.238000; Q=6100.000000; N=10; m_0_1=1.255951; m_1_1=0.074519; m_1_2=1.090763; m_2_2=0.073870; m_2_3=0.727726; m_2_8=-0.000139; m_2_9=0.036565; m_3_3=0.071933; m_3_4=0.616255; m_3_7=0.000461; m_3_8=-0.096627; m_3_9=-0.000139; m_4_4=0.069008; m_4_5=0.452590; m_4_6=0.003978; m_4_7=-0.117176; m_4_8=0.000461; m_5_5=0.069390; m_5_6=0.859945; m_5_7=0.003978; m_6_6=0.069389; m_6_7=0.452932; m_7_7=0.069022; m_7_8=0.616373; m_8_8=0.071931; m_8_9=0.728039; m_9_9=0.073865; m_9_10=1.091841; m_10_10=0.074509; m_10_11=1.256746}
!
! Created with skrf (http://scikit-rf.org).
# Hz S RI R 50.0 
!freq ReS11 ImS11 ReS21 ImS21 ReS12 ImS12 ReS22 ImS22
12607400000.0 -0.9853807080092255 0.17036684032717683 9.274644924133325e-17 -4.586001083539676e-17 9.274644924133325e-17 -4.586001083539676e-17 -0.9853808207467186 0.1703661882661871
12608017333.333334 -0.9836083992297202 0.18031782209358677 9.225596269889659e-17 -4.6794116084899594e-17 9.225596269889659e-17 -4.6794116084899594e-17 -0.9836085185462853 0.18031717123726326
12608634666.666666 -0.9817356019511863 0.19025038202686706 9.175607618895824e-17 -4.772299022614743e-17 9.175607618895824e-17 -4.772299022614743e-17 -0.9817357278339894 0.19024973244158194
12609252000.0 -0.979762507504505 0.20016350538575486 9.124684535769031e-17 -4.864653874859324e-17 9.124684535769031e-17 -4.864653874859324e-17 -0.9797626399400431 0.20016285713774407
12609869333.333334 -0.977689317467221 0.210056179414717 9.072832680066113e-17 -4.956466773221918e-17 9.072832680066113e-17 -4.956466773221918e-17 -0.9776894564413232 0.2100555325700734
12610486666.666666 -0.9755162436429824 0.21992739344727819 9.020057805658996e-17 -5.047728385705245e-17 9.020057805658996e-17 -5.047728385705245e-17 -0.9755163891408112 0.21992674807194482
12611104000.0 -0.973243508039832 0.22977613900957858 8.96636576009821e-17 -5.1384294412655424e-17 8.96636576009821e-17 -5.1384294412655424e-17 -0.9732436600458856 0.229775495169342
12611721333.333334 -0.9708713428476083 0.2396014099230421 8.911762483970635e-17 -5.2285607307485476e-17 8.911762483970635e-17 -5.2285607307485476e-17 -0.9708715013457202 0.23960076768352545
12612338666.666666 -0.9683999904141944 0.24940220240731015 8.856254010244302e-17 -5.318113107824777e-17 8.856254010244302e-17 -5.318113107824777e-17 -0.9684001553875371 0.24940156183396667
12612956000.0 -0.9658297032206793 0.259177515183093 8.799846463605214e-17 -5.407077489915316e-17 8.799846463605214e-17 -5.407077489915316e-17 -0.9658298746517661 0.2591768763411995
12613573333.333334 -0.9631607438557288 0.26892634957383116 8.742546059786485e-17 -5.495444859108481e-17 8.742546059786485e-17 -5.495444859108481e-17 -0.9631609217264147 0.2689257125284811
12614190666.666666 -0.9603933849886077 0.2786477096083009 8.684359104885154e-17 -5.583206263074044e-17 8.684359104885154e-17 -5.583206263074044e-17 -0.9603935692800905 0.2786470744243974
12614808000.0 -0.9575279093413924 0.28834060212208973 8.625291994672335e-17 -5.670352815966612e-17 8.625291994672335e-17 -5.670352815966612e-17 -0.9575281000342176 0.2883399688643402
12615425333.333334 -0.9545646096600781 0.2980040368591181 8.565351213893313e-17 -5.756875699323209e-17 8.565351213893313e-17 -5.756875699323209e-17 -0.9545648067341379 0.29800340559202626
12616042666.666666 -0.9515037886846642 0.30763702657280484 8.504543335558879e-17 -5.842766162953276e-17 8.504543335558879e-17 -5.842766162953276e-17 -0.9515039921192021 0.30763639736066517
12616660000.0 -0.948345759118233 0.31723858712692965 8.442875020227734e-17 -5.928015525821218e-17 8.442875020227734e-17 -5.928015525821218e-17 -0.948345968891843 0.31723796003381977
12617277333.333334 -0.9450908435949851 0.3268077375961998 8.380353015279908e-17 -6.012615176921645e-17 8.380353015279908e-17 -6.012615176921645e-17 -0.9450910596856177 0.32680711268597534
12617894666.666666 -0.9417393746473335 0.3363435003663329 8.316984154182536e-17 -6.096556576145628e-17 8.316984154182536e-17 -6.096556576145628e-17 -0.9417395970322945 0.33634287770261967
12618512000.0 -0.9382916946718204 0.3458449012342261 8.252775355744088e-17 -6.179831255142943e-17 8.252775355744088e-17 -6.179831255142943e-17 -0.9382919233277757 0.3458442808804144
12619129333.333334 -0.9347481558942741 0.3553109695071093 8.18773362336451e-17 -6.262430818170711e-17 8.18773362336451e-17 -6.262430818170711e-17 -0.9347483907972512 0.35531035152634755
12619746666.666666 -0.9311091203337287 0.36474073810198265 8.121866044272583e-17 -6.344346942939776e-17 8.121866044272583e-17 -6.344346942939776e-17 -0.9311093614591189 0.3647401225571702
12620364000.0 -0.9273749597654328 0.37413324364441397 8.055179788756614e-17 -6.425571381450714e-17 8.055179788756614e-17 -6.425571381450714e-17 -0.9273752070879949 0.3741326305981956
12620981333.333334 -0.9235460556829663 0.3834875265667239 7.987682109388524e-17 -6.506095960819844e-17 7.987682109388524e-17 -6.506095960819844e-17 -0.9235463091768281 0.38348691608148294
12621598666.666666 -0.919622799259158 0.39280263120628145 7.919380340236138e-17 -6.585912584101378e-17 7.919380340236138e-17 -6.585912584101378e-17 -0.9196230588978194 0.39280202334413333
12622216000.0 -0.9156055913061769 0.4020776059030061 7.85028189607011e-17 -6.665013231097957e-17 7.85028189607011e-17 -6.665013231097957e-17 -0.9156058570625126 0.40207700072579244
12622833333.333334 -0.91149484223456 0.4113115030966443 7.78039427156145e-17 -6.743389959164486e-17 7.78039427156145e-17 -6.743389959164486e-17 -0.911495114080823 0.4113109006659261
12623450666.666666 -0.9072909720113318 0.42050337942347177 7.709725040472276e-17 -6.821034904002305e-17 7.709725040472276e-17 -6.821034904002305e-17 -0.9072912499191538 0.4205027798005233
12624068000.0 -0.9029944101170384 0.4296522958127994 7.638281854836835e-17 -6.897940280446825e-17 7.638281854836835e-17 -6.897940280446825e-17 -0.9029946940574367 0.42965169905860273
12624685333.333334 -0.8986055955018603 0.438757317582938 7.566072444135529e-17 -6.974098383245757e-17 7.566072444135529e-17 -6.974098383245757e-17 -0.8986058854452377 0.4387567237581756
12625302666.666666 -0.894124976540887 0.44781751453643026 7.493104614463422e-17 -7.049501587826449e-17 7.493104614463422e-17 -7.049501587826449e-17 -0.8941252724570369 0.44781692370147996
12625920000.0 -0.889553010988127 0.4568319610554681 7.419386247686062e-17 -7.124142351059775e-17 7.419386247686062e-17 -7.124142351059775e-17 -0.8895533128462352 0.45683137327039613
12626537333.333334 -0.8848901659299019 0.46579973619612297 7.34492530059367e-17 -7.198013212009197e-17 7.34492530059367e-17 -7.198013212009197e-17 -0.88489047369855 0.4657991515206781
12627154666.666666 -0.8801369177371218 0.47471992378246175 7.269729804043776e-17 -7.271106792675189e-17 7.269729804043776e-17 -7.271106792675189e-17 -0.8801372313842903 0.474719342276069
12627772000.0 -0.875293752016387 0.48359161250057076 7.19380786209648e-17 -7.343415798730694e-17 7.19380786209648e-17 -7.343415798730694e-17 -0.8752940715094607 0.4835910342223264
12628389333.333334 -0.8703611635607557 0.4924138959909583 7.117167651146599e-17 -7.414933020243531e-17 7.117167651146599e-17 -7.414933020243531e-17 -0.8703614888665233 0.4924133209996222
12629006666.666666 -0.8653396562988394 0.5011858729417995 7.039817419042605e-17 -7.485651332395667e-17 7.039817419042605e-17 -7.485651332395667e-17 -0.8653399873834999 0.5011853012957901
12629624000.0 -0.8602297432435397 0.5099066471806187 6.961765484203916e-17 -7.555563696188078e-17 6.961765484203916e-17 -7.555563696188078e-17 -0.860230080072706 0.5099060789380077
12630241333.333334 -0.8550319464395426 0.5185753277660204 6.883020234727626e-17 -7.624663159139855e-17 6.883020234727626e-17 -7.624663159139855e-17 -0.8550322889782418 0.5185747629845251
12630858666.666666 -0.8497467969100658 0.5271910290785606 6.803590127490915e-17 -7.692942855975668e-17 6.803590127490915e-17 -7.692942855975668e-17 -0.8497471451227476 0.5271904678155399
12631476000.0 -0.8443748346024521 0.5357528709114953 6.723483687242954e-17 -7.760396009307197e-17 6.723483687242954e-17 -7.760396009307197e-17 -0.8443751884529895 0.5357523132239433
12632093333.333334 -0.8389166083331961 0.5442599785603882 6.642709505695377e-17 -7.827015930300547e-17 6.642709505695377e-17 -7.827015930300547e-17 -0.838916967784889 0.5442594245049276
12632710666.666666 -0.8333726757317876 0.5527114829126196 6.561276240602e-17 -7.892796019337868e-17 6.561276240602e-17 -7.892796019337868e-17 -0.8333730407473682 0.5527109325454969
12633328000.0 -0.827743603183666 0.5611065205362967 6.479192614832178e-17 -7.957729766669184e-17 6.479192614832178e-17 -7.957729766669184e-17 -0.8277439737253003 0.5611059739133751
12633945333.333334 -0.8220299657724903 0.5694442337682473 6.39646741544094e-17 -8.021810753052028e-17 6.39646741544094e-17 -8.021810753052028e-17 -0.8220303418017846 0.5694436909450034
12634562666.666666 -0.8162323472213163 0.5777237708017642 6.313109492729699e-17 -8.085032650384103e-17 6.313109492729699e-17 -8.085032650384103e-17 -0.81623272869932 0.5777232318332802
12635180000.0 -0.8103513398329715 0.5859442857736017 6.229127759302056e-17 -8.147389222325015e-17 6.229127759302056e-17 -8.147389222325015e-17 -0.8103517267201816 0.5859437507145615
12635797333.333334 -0.8043875444295311 0.5941049388504166 6.144531189113052e-17 -8.208874324908622e-17 6.144531189113052e-17 -8.208874324908622e-17 -0.8043879366858951 0.5941044077550987
12636414666.666666 -0.7983415702910005 0.6022048963144749 6.059328816513634e-17 -8.269481907144737e-17 6.059328816513634e-17 -8.269481907144737e-17 -0.7983419678759214 0.6022043692367474
12637032000.0 -0.7922140350929696 0.6102433306489662 5.97352973528682e-17 -8.329206011612568e-17 5.97352973528682e-17 -8.329206011612568e-17 -0.7922144379653107 0.6102428076422819
12637649333.333334 -0.7860055648435762 0.6182194206224516 5.887143097680446e-17 -8.388040775042569e-17 5.887143097680446e-17 -8.388040775042569e-17 -0.7860059729616636 0.6182189017398422
12638266666.666666 -0.7797167938195332 0.626132351372787 5.800178113432992e-17 -8.445980428889033e-17 5.800178113432992e-17 -8.445980428889033e-17 -0.7797172071411625 0.6261318366668579
12638884000.0 -0.7733483645013323 0.6339813144903743 5.71264404879417e-17 -8.503019299892632e-17 5.71264404879417e-17 -8.503019299892632e-17 -0.7733487829837707 0.6339808040132985
12639501333.333334 -0.7669009275075833 0.6417655081007686 5.624550225539594e-17 -8.559151810632745e-17 5.624550225539594e-17 -8.559151810632745e-17 -0.7669013511075752 0.6417650019042823
12640118666.666666 -0.7603751415286569 0.6494841369464717 5.535906019981982e-17 -8.614372480068761e-17 5.535906019981982e-17 -8.614372480068761e-17 -0.7603755702024285 0.6494836350818696
12640736000.0 -0.7537716732590989 0.6571364124685273 5.446720861971504e-17 -8.6686759240744e-17 5.446720861971504e-17 -8.6686759240744e-17 -0.7537721069623622 0.6571359149866555
12641353333.333334 -0.7470911973299572 0.6647215528865597 5.3570042339009297e-17 -8.722056855955679e-17 5.3570042339009297e-17 -8.722056855955679e-17 -0.7470916360179145 0.6647210598378118
12641970666.666666 -0.7403343962394545 0.6722387832791191 5.266765669694528e-17 -8.774510086965429e-17 5.266765669694528e-17 -8.774510086965429e-17 -0.7403348398668038 0.6722382947134316
12642588000.0 -0.7335019602835233 0.6796873356625507 5.1760147537996965e-17 -8.826030526802671e-17 5.1760147537996965e-17 -8.826030526802671e-17 -0.7335024088044617 0.6796868516293963
12643205333.333334 -0.7265945874851707 0.6870664490695817 5.084761120171035e-17 -8.876613184103328e-17 5.084761120171035e-17 -8.876613184103328e-17 -0.7265950408533999 0.6870659696179653
12643822666.666666 -0.7196129835230654 0.6943753696271648 4.9930144512488555e-17 -8.926253166920776e-17 4.9930144512488555e-17 -8.926253166920776e-17 -0.7196134416917972 0.6943748948056193
12644440000.0 -0.7125578616597189 0.7016133506332095 4.900784476935385e-17 -8.974945683194674e-17 4.900784476935385e-17 -8.974945683194674e-17 -0.7125583245816789 0.7016128804897895
12645057333.333334 -0.7054299426684 0.7087796526330917 4.808080973564888e-17 -9.022686041210076e-17 4.808080973564888e-17 -9.022686041210076e-17 -0.7054304102958333 0.7087791872153703
12645674666.666666 -0.6982299547596009 0.7158735434951025 4.714913762869639e-17 -9.069469650045783e-17 4.714913762869639e-17 -9.069469650045783e-17 -0.6982304270442756 0.7158730828501635
12646292000.0 -0.6909586335064735 0.7228942984853968 4.6212927109397415e-17 -9.115292020012954e-17 4.6212927109397415e-17 -9.115292020012954e-17 -0.690959110399688 0.7228938426598339
12646909333.333334 -0.6836167217699499 0.7298412003417832 4.52722772718395e-17 -9.160148763080426e-17 4.52722772718395e-17 -9.160148763080426e-17 -0.6836172032225349 0.7298407493816911
12647526666.666666 -0.6762049696226422 0.7367135393471939 4.432728763280428e-17 -9.204035593292304e-17 4.432728763280428e-17 -9.204035593292304e-17 -0.6762054555849683 0.736713093298167
12648144000.0 -0.6687241342722342 0.7435106134021753 4.3378058121263684e-17 -9.246948327173349e-17 4.3378058121263684e-17 -9.246948327173349e-17 -0.6687246246942165 0.7435101723093022
12648761333.333334 -0.6611749799842046 0.7502317280965357 4.2424689067845076e-17 -9.288882884123123e-17 4.2424689067845076e-17 -9.288882884123123e-17 -0.6611754748153071 0.7502312920043938
12649378666.666666 -0.6535582780037504 0.7568761967802934 4.146728119424929e-17 -9.329835286800003e-17 4.146728119424929e-17 -9.329835286800003e-17 -0.6535587771929913 0.7568757657329441
12649996000.0 -0.6458748064768842 0.7634433406339165 4.0505935602617596e-17 -9.369801661494642e-17 4.0505935602617596e-17 -9.369801661494642e-17 -0.645875309972843 0.763442914674904
12650613333.333334 -0.6381253503710057 0.769932488737623 3.9540753764885464e-17 -9.40877823849176e-17 3.9540753764885464e-17 -9.40877823849176e-17 -0.6381258581218244 0.769932067909964
12651230666.666666 -0.6303107013947867 0.7763429781398424 3.8571837512104355e-17 -9.446761352420816e-17 3.8571837512104355e-17 -9.446761352420816e-17 -0.6303112133481803 0.7763425624860286
12651848000.0 -0.6224316579170762 0.7826741539251358 3.759928902369291e-17 -9.483747442597252e-17 3.759928902369291e-17 -9.483747442597252e-17 -0.6224321740203342 0.7826737434871243
12652465333.333334 -0.6144890248855297 0.7889253692809348 3.662321081670731e-17 -9.519733053350689e-17 3.662321081670731e-17 -9.519733053350689e-17 -0.6144895450855227 0.7889249641001458
12653082666.666666 -0.6064836137443749 0.795095985563625 3.564370573505637e-17 -9.554714834343019e-17 3.564370573505637e-17 -9.554714834343019e-17 -0.6064841379875606 0.7950955856809382
12653700000.0 -0.5984162423512892 0.8011853723639683 3.466087693865991e-17 -9.588689540876484e-17 3.466087693865991e-17 -9.588689540876484e-17 -0.5984167705837177 0.8011849778197184
12654317333.333334 -0.5902877348941595 0.8071929075712632 3.367482789264363e-17 -9.621654034188217e-17 3.367482789264363e-17 -9.621654034188217e-17 -0.5902882670614783 0.8071925184052352
12654934666.666666 -0.5820989218066549 0.8131179774370745 3.268566235644112e-17 -9.653605281736048e-17 3.268566235644112e-17 -9.653605281736048e-17 -0.5820994578541141 0.8131175936884991
12655552000.0 -0.5738506396833831 0.8189599766379315 3.169348437289679e-17 -9.684540357472131e-17 3.169348437289679e-17 -9.684540357472131e-17 -0.573851179555843 0.8189595983454839
12656169333.333334 -0.5655437311946324 0.8247183083370235 3.069839825736857e-17 -9.714456442104701e-17 3.069839825736857e-17 -9.714456442104701e-17 -0.565544274836568 0.8247179355388179
12656786666.666666 -0.5571790450000499 0.8303923842453402 2.970050858675392e-17 -9.743350823350206e-17 2.970050858675392e-17 -9.743350823350206e-17 -0.5571795923555556 0.8303920169789241
12657404000.0 -0.5487574356620307 0.8359816246817035 2.869992018853461e-17 -9.771220896173022e-17 2.869992018853461e-17 -9.771220896173022e-17 -0.5487579866748276 0.835981262984057
12658021333.333334 -0.5402797635584617 0.8414854586319608 2.7696738129777395e-17 -9.798064163014503e-17 2.7696738129777395e-17 -9.798064163014503e-17 -0.5402803181719024 0.8414851025394905
12658638666.666666 -0.5317468947948001 0.8469033238073381 2.669106770615044e-17 -9.823878234009866e-17 2.669106770615044e-17 -9.823878234009866e-17 -0.5317474529518751 0.8469029733558752
12659256000.0 -0.5231597011154442 0.8522346667019759 2.5683014430836482e-17 -9.848660827195997e-17 2.5683014430836482e-17 -9.848660827195997e-17 -0.5231602627587878 0.852234321926772
12659873333.333334 -0.5145190598148658 0.8574789426493545 2.4672684023533833e-17 -9.872409768705139e-17 2.4672684023533833e-17 -9.872409768705139e-17 -0.5145196248867615 0.8574786035850774
12660490666.666666 -0.5058258536479844 0.8626356158779426 2.3660182399390147e-17 -9.895122992948698e-17 2.3660182399390147e-17 -9.895122992948698e-17 -0.5058264220903711 0.8626352825586733
12661108000.0 -0.4970809707397366 0.8677041595660754 2.2645615657863664e-17 -9.91679854279096e-17 2.2645615657863664e-17 -9.91679854279096e-17 -0.4970815424942151 0.8677038320253061
12661725333.333334 -0.488285304494688 0.8726840558955787 2.1629090071704887e-17 -9.937434569708337e-17 2.1629090071704887e-17 -9.937434569708337e-17 -0.48828587950252567 0.872683734166206
12662342666.666666 -0.4794397535054878 0.8775747961048257 2.0610712075783653e-17 -9.957029333940527e-17 2.0610712075783653e-17 -9.957029333940527e-17 -0.47944033170762523 0.8775744802191497
12662960000.0 -0.47054522146118827 0.8823758805406396 1.9590588255993888e-17 -9.975581204628211e-17 1.9590588255993888e-17 -9.975581204628211e-17 -0.4705458027982465 0.882375570530362
12663577333.333334 -0.46160261705489947 0.8870868187093619 1.8568825338113236e-17 -9.993088659940214e-17 1.8568825338113236e-17 -9.993088659940214e-17 -0.4616032014671844 0.8870865146055793
12664194666.666666 -0.45261285389095113 0.8917071293269543 1.7545530176658078e-17 -1.000955028718911e-16 1.7545530176658078e-17 -1.000955028718911e-16 -0.4526134413184603 0.8917068311601569
12664812000.0 -0.4435768503915577 0.8962363403681726 1.6520809743729562e-17 -1.0024964782935474e-16 1.6520809743729562e-17 -1.0024964782935474e-16 -0.44357744077398686 0.8962360481682428
12665429333.333334 -0.43449552970296346 0.900673989114802 1.549477111784887e-17 -1.0039330953080763e-16 1.549477111784887e-17 -1.0039330953080763e-16 -0.43449612297971213 0.9006737029110082
12666046666.666666 -0.4253698196012589 0.9050196222028678 1.446752147280293e-17 -1.0052647712948555e-16 1.446752147280293e-17 -1.0052647712948555e-16 -0.4253704157114371 0.9050193420238639
12666664000.0 -0.41620065239731485 0.9092727956690878 1.3439168066438917e-17 -1.0064914087355067e-16 1.3439168066438917e-17 -1.0064914087355067e-16 -0.41620125127974866 0.9092725215429089
12667281333.333334 -0.4069889648418932 0.9134330749960575 1.2409818229525762e-17 -1.0076129210667231e-16 1.2409818229525762e-17 -1.0076129210667231e-16 -0.40698956643513173 0.9134328069501181
12667898666.666666 -0.3977356980296896 0.9175000351567647 1.1379579354543877e-17 -1.0086292326850348e-16 1.1379579354543877e-17 -1.0086292326850348e-16 -0.3977363022720111 0.9174997732178551
12668516000.0 -0.38844179730318595 0.9214732606580073 1.034855888450133e-17 -1.0095402789503856e-16 1.034855888450133e-17 -1.0095402789503856e-16 -0.38844240413260384 0.9214730048522913
12669133333.333334 -0.37910821215630675 0.9253523455827395 9.316864301775078e-18 -1.0103460061885545e-16 9.316864301775078e-18 -1.0103460061885545e-16 -0.3791088215105765 0.9253520959357523
12669750666.666666 -0.3697358961371549 0.929136893631657 8.284603116897872e-18 -1.0110463716924866e-16 8.284603116897872e-18 -1.0110463716924866e-16 -0.36973650795377977 0.9291366501683016
12670368000.0 -0.3603258067506976 0.9328265181636337 7.251882857386762e-18 -1.0116413437224401e-16 7.251882857386762e-18 -1.0116413437224401e-16 -0.360326420966936 0.9328262809081803
12670985333.333334 -0.35087890536102595 0.9364208422351978 6.218811056571463e-18 -1.0121309015050128e-16 6.218811056571463e-18 -1.0121309015050128e-16 -0.3508795219138965 0.936420611211278
