! Parameters = {f0=12700.012000; bw=77.238000; Q=6100.000000; N=10; m_0_1=1.337232; m_1_1=1.293738; m_1_2=1.172044; m_2_2=1.293089; m_2_3=0.809007; m_2_8=0.003925; m_2_9=0.040629; m_3_3=1.291152; m_3_4=0.697536; m_3_7=0.004525; m_3_8=-0.092563; m_3_9=0.003925; m_4_4=1.288227; m_4_5=0.533871; m_4_6=0.008042; m_4_7=-0.113112; m_4_8=0.004525; m_5_5=1.288609; m_5_6=0.941226; m_5_7=0.008042; m_6_6=1.288608; m_6_7=0.534213; m_7_7=1.288241; m_7_8=0.697654; m_8_8=1.291150; m_8_9=0.809320; m_9_9=1.293084; m_9_10=1.173122; m_10_10=1.293728; m_10_11=1.338027}
!
! Created with skrf (http://scikit-rf.org).
# Hz S RI R 50.0 
!freq ReS11 ImS11 ReS21 ImS21 ReS12 ImS12 ReS22 ImS22
12607400000.0 -0.5493044696513221 -0.8356222828652212 1.1485868440418977e-16 9.699093161480989e-17 1.1485868440418977e-16 9.699093161480989e-17 -0.5493038810348694 -0.8356226697976994
12608017333.333334 -0.5597152708683912 -0.8286849917529145 1.1604881727718113e-16 9.551743904116276e-17 1.1604881727718113e-16 9.551743904116276e-17 -0.559714687167172 -0.8286853859995114
12608634666.666666 -0.5700384706039328 -0.8216180024995395 1.1722006311190057e-16 9.402936141498137e-17 1.1722006311190057e-16 9.402936141498137e-17 -0.5700378919088173 -0.8216184039978389
12609252000.0 -0.5802724531658168 -0.8144224211652882 1.1837224340799673e-16 9.252694062908103e-17 1.1837224340799673e-16 9.252694062908103e-17 -0.5802718795668822 -0.814422829851744
12609869333.333334 -0.590415616825503 -0.8070993739362984 1.1950518276065865e-16 9.10104207577728e-17 1.1950518276065865e-16 9.10104207577728e-17 -0.5904150484120209 -0.8070997897462465
12610486666.666666 -0.6004663740684083 -0.7996500069486291 1.2061870888721199e-16 8.948004801731525e-17 1.2061870888721199e-16 8.948004801731525e-17 -0.6004658109288292 -0.7996504298162966
12611104000.0 -0.6104231518427339 -0.792075486108607 1.2171265265328938e-16 8.793607072593076e-17 1.2171265265328938e-16 8.793607072593076e-17 -0.6104225940646754 -0.7920759159671235
12611721333.333334 -0.6202843918053481 -0.7843769969105885 1.2278684809836536e-16 8.637873926367668e-17 1.2278684809836536e-16 8.637873926367668e-17 -0.6202838394755784 -0.7843774336919943
12612338666.666666 -0.6300485505658199 -0.7765557442513147 1.2384113246090346e-16 8.480830603183243e-17 1.2384113246090346e-16 8.480830603183243e-17 -0.6300480037702477 -0.7765561878865753
12612956000.0 -0.6397140999281091 -0.7686129522412265 1.24875346202905e-16 8.322502541209204e-17 1.24875346202905e-16 8.322502541209204e-17 -0.6397135587517677 -0.7686134026602407
12613573333.333334 -0.6492795271294778 -0.7605498640130874 1.258893330339682e-16 8.162915372541777e-17 1.258893330339682e-16 8.162915372541777e-17 -0.6492789916565133 -0.7605503211446996
12614190666.666666 -0.6587433350773914 -0.7523677415273202 1.2688293993481627e-16 8.002094919060828e-17 1.2688293993481627e-16 8.002094919060828e-17 -0.6587428053910486 -0.7523682052993304
12614808000.0 -0.6681040425839542 -0.7440678653743781 1.278560171802979e-16 7.840067188258205e-17 1.278560171802979e-16 7.840067188258205e-17 -0.6681035187665643 -0.7440683357135547
12615425333.333334 -0.6773601845974322 -0.7356515345745814 1.2880841836185648e-16 7.676858369038331e-17 1.2880841836185648e-16 7.676858369038331e-17 -0.677359666730401 -0.7356520114066736
12616042666.666666 -0.6865103124318919 -0.727120066374509 1.2974000040946337e-16 7.512494827491554e-17 1.2974000040946337e-16 7.512494827491554e-17 -0.6865098005956844 -0.7271205496242549
12616660000.0 -0.6955529939935957 -0.7184747960411345 1.3065062361301376e-16 7.347003102641118e-17 1.3065062361301376e-16 7.347003102641118e-17 -0.6955524882677254 -0.7184752856322758
12617277333.333334 -0.7044868140055134 -0.7097170766524961 1.3154015164318473e-16 7.180409902163579e-17 1.3154015164318473e-16 7.180409902163579e-17 -0.7044863144685308 -0.7097175725077902
12617894666.666666 -0.7133103742283011 -0.700848278886441 1.3240845157172472e-16 7.01274209808865e-17 1.3240845157172472e-16 7.01274209808865e-17 -0.713309880957779 -0.7008487809276717
12618512000.0 -0.7220222936799024 -0.6918697908053345 1.3325539389125902e-16 6.8440267224626e-17 1.3325539389125902e-16 6.8440267224626e-17 -0.7220218067524271 -0.6918702989533262
12619129333.333334 -0.7306212088508122 -0.6827830176397065 1.3408085253444674e-16 6.674290963006853e-17 1.3408085253444674e-16 6.674290963006853e-17 -0.7306207283419681 -0.6827835318143345
12619746666.666666 -0.7391057739181904 -0.6735893815675819 1.3488470489268124e-16 6.503562158734631e-17 1.3488470489268124e-16 6.503562158734631e-17 -0.7391052999025519 -0.6735899016877877
12620364000.0 -0.747474660956185 -0.6642903214922229 1.356668318341729e-16 6.331867795557476e-17 1.356668318341729e-16 6.331867795557476e-17 -0.7474741935073014 -0.6642908474760241
12620981333.333334 -0.7557265601437269 -0.6548872928169669 1.3642711772149726e-16 6.159235501865628e-17 1.3642711772149726e-16 6.159235501865628e-17 -0.7557260993341123 -0.6548878245814712
12621598666.666666 -0.7638601799696102 -0.645381767217358 1.371654504285762e-16 5.985693044088253e-17 1.371654504285762e-16 5.985693044088253e-17 -0.7638597258707344 -0.645382304678778
12622216000.0 -0.7718742474347386 -0.6357752324106849 1.3788172135709654e-16 5.811268322233526e-17 1.3788172135709654e-16 5.811268322233526e-17 -0.7718738001170132 -0.635775775484349
12622833333.333334 -0.7797675082511408 -0.6260691919233943 1.3857582545236574e-16 5.635989365408493e-17 1.3857582545236574e-16 5.635989365408493e-17 -0.7797670677839093 -0.6260697405237609
12623450666.666666 -0.7875387270384261 -0.6162651648555995 1.3924766121858292e-16 5.4598843273241165e-17 1.3924766121858292e-16 5.4598843273241165e-17 -0.7875382934899527 -0.6162657188962705
12624068000.0 -0.7951866875170672 -0.6063646856434163 1.3989713073357129e-16 5.2829814817744556e-17 1.3989713073357129e-16 5.2829814817744556e-17 -0.7951862609545273 -0.6063652450371504
12624685333.333334 -0.8027101926988951 -0.5963693038186226 1.4052413966290515e-16 5.105309218106393e-17 1.4052413966290515e-16 5.105309218106393e-17 -0.8027097731883632 -0.5963698684773494
12625302666.666666 -0.8101080650742006 -0.5862805837664585 1.4112859727348e-16 4.926896036668938e-17 1.4112859727348e-16 4.926896036668938e-17 -0.8101076526806433 -0.586281153601293
12625920000.0 -0.817379146796304 -0.5761001044804213 1.4171041644650033e-16 4.747770544247409e-17 1.4171041644650033e-16 4.747770544247409e-17 -0.817378741583565 -0.5761006794016755
12626537333.333334 -0.8245222998625262 -0.5658294593154501 1.4226951368989366e-16 4.5679614494817493e-17 1.4226951368989366e-16 4.5679614494817493e-17 -0.8245219018933221 -0.5658300392326508
12627154666.666666 -0.8315364062924113 -0.5554702557384205 1.4280580915012754e-16 4.3874975582753315e-17 1.4280580915012754e-16 4.3874975582753315e-17 -0.8315360156283165 -0.5554708405603201
12627772000.0 -0.8384203683027877 -0.5450241150764094 1.4331922662348538e-16 4.206407769177115e-17 1.4331922662348538e-16 4.206407769177115e-17 -0.8384199850042279 -0.5450247047110016
12628389333.333334 -0.845173108479364 -0.5344926722632727 1.4380969356669505e-16 4.0247210687720905e-17 1.4380969356669505e-16 4.0247210687720905e-17 -0.8451727326056073 -0.5344932666178079
12629006666.666666 -0.8517935699456081 -0.5238775755833811 1.4427714110704383e-16 3.842466527035073e-17 1.4427714110704383e-16 3.842466527035073e-17 -0.8517932015547542 -0.5238781745643796
12629624000.0 -0.8582807165279117 -0.5131804864140285 1.4472150405184691e-16 3.6596732926943345e-17 1.4472150405184691e-16 3.6596732926943345e-17 -0.8582803556768835 -0.5131810899272954
12630241333.333334 -0.8646335329180339 -0.5024030789649724 1.4514272089736698e-16 3.4763705885706476e-17 1.4514272089736698e-16 3.4763705885706476e-17 -0.8646331796625685 -0.5024036869156131
12630858666.666666 -0.870851024831626 -0.49154704001703764 1.4554073383712085e-16 3.292587706915412e-17 1.4554073383712085e-16 3.292587706915412e-17 -0.8708506792262672 -0.49154765230947245
12631476000.0 -0.8769322191643963 -0.4806140686571841 1.4591548876961864e-16 3.108354004730527e-17 1.4591548876961864e-16 3.108354004730527e-17 -0.876931881262484 -0.4806146851951627
12632093333.333334 -0.8828761641438116 -0.4696058760136148 1.4626693530549508e-16 2.9236988990872614e-17 1.4626693530549508e-16 2.9236988990872614e-17 -0.882875833997476 -0.46960649670023225
12632710666.666666 -0.8886819294784598 -0.45852418498727704 1.4659502677404712e-16 2.73865186243825e-17 1.4659502677404712e-16 2.73865186243825e-17 -0.8886816071386123 -0.4585248097249888
12633328000.0 -0.8943486065035856 -0.4473707299823045 1.4689972022920263e-16 2.5532424179109015e-17 1.4689972022920263e-16 2.5532424179109015e-17 -0.8943482920199107 -0.44737135867294126
12633945333.333334 -0.8998753083231497 -0.4361472566348666 1.4718097645486329e-16 2.3675001346112484e-17 1.4718097645486329e-16 2.3675001346112484e-17 -0.8998750017440976 -0.4361478891796502
12634562666.666666 -0.9052611699488484 -0.4248555215395551 1.4743875996967815e-16 2.1814546229098556e-17 1.4743875996967815e-16 2.1814546229098556e-17 -0.9052608713216267 -0.42485615783911335
12635180000.0 -0.9105053484352853 -0.4134972919748622 1.4767303903121191e-16 1.995135529728002e-17 1.4767303903121191e-16 1.995135529728002e-17 -0.9105050578058543 -0.41349793192924594
12635797333.333334 -0.9156070230121036 -0.40207434562617533 1.4788378563952217e-16 1.80857253381825e-17 1.4788378563952217e-16 1.80857253381825e-17 -0.9156067404251663 -0.4020749891348726
12636414666.666666 -0.9205653952122754 -0.3905884703079096 1.4807097554013642e-16 1.621795341046009e-17 1.4807097554013642e-16 1.621795341046009e-17 -0.9205651207112706 -0.3905891172698614
12637032000.0 -0.9253796889971617 -0.37904146368348746 1.4823458822644279e-16 1.4348336796602235e-17 1.4823458822644279e-16 1.4348336796602235e-17 -0.9253794226242611 -0.37904211399710547
12637649333.333334 -0.9300491508779346 -0.3674351329840933 1.4837460694147587e-16 1.2477172955707725e-17 1.4837460694147587e-16 1.2477172955707725e-17 -0.9300488926740312 -0.3674357865472736
12638266666.666666 -0.9345730500335815 -0.35577129472560687 1.484910186791119e-16 1.0604759476207086e-17 1.484910186791119e-16 1.0604759476207086e-17 -0.9345728000382878 -0.35577195143574747
12638884000.0 -0.9389506784251455 -0.3440517744246715 1.4858381418466716e-16 8.731394028591302e-18 1.4858381418466716e-16 8.731394028591302e-18 -0.938950436676785 -0.344052434178688
12639501333.333334 -0.9431813509067023 -0.33227840631255573 1.486529879549012e-16 6.85737431813752e-18 1.486529879549012e-16 6.85737431813752e-18 -0.9431811174423049 -0.33227906900689763
12640118666.666666 -0.9472644053324394 -0.3204530330485042 1.486985382374234e-16 4.982998037702697e-18 1.486985382374234e-16 4.982998037702697e-18 -0.9472641801877322 -0.3204536985791698
12640736000.0 -0.951199202660432 -0.3085775054309099 1.4872046702950917e-16 3.1085628203812122e-18 1.4872046702950917e-16 3.1085628203812122e-18 -0.9511989858698396 -0.30857817369346524
12641353333.333334 -0.9549851270525401 -0.2966536821080242 1.4871878007631482e-16 1.2343661924440994e-18 1.4871878007631482e-16 1.2343661924440994e-18 -0.9549849186491749 -0.296654352997617
12641970666.666666 -0.9586215859708614 -0.2846834292868404 1.486934868685043e-16 -6.392944739400357e-19 1.486934868685043e-16 -6.392944739400357e-19 -0.9586213859865198 -0.28468410269821787
12642588000.0 -0.9621080102704378 -0.27266862044112206 1.4864460063927976e-16 -2.5121220077847617e-18 1.4864460063927976e-16 -2.5121220077847617e-18 -0.962107818735596 -0.272669296268647
12643205333.333334 -0.965443854288379 -0.26061113601801966 1.4857213836082065e-16 -4.383819486370232e-18 1.4857213836082065e-16 -4.383819486370232e-18 -0.9654436712321891 -0.2606118141556873
12643822666.666666 -0.9686285959292346 -0.2485128631438699 1.484761207401298e-16 -6.254090282261346e-18 1.484761207401298e-16 -6.254090282261346e-18 -0.9686284213795161 -0.2485135434853236
12644440000.0 -0.9716617367466738 -0.2363756953289488 1.483565722142899e-16 -8.12263811026073e-18 1.483565722142899e-16 -8.12263811026073e-18 -0.9716615707299135 -0.2363763777674978
12645057333.333334 -0.9745428020215443 -0.22420153217095307 1.4821352094512846e-16 -9.989167074297475e-18 1.4821352094512846e-16 -9.989167074297475e-18 -0.9745426445628925 -0.22420221659958905
12645674666.666666 -0.9772713408361483 -0.21199227905780368 1.480469988132984e-16 -1.1853381714185339e-17 1.480469988132984e-16 -1.1853381714185339e-17 -0.9772711919594127 -0.21199296536921733
12646292000.0 -0.9798469261448608 -0.19974984686920938 1.478570414117595e-16 -1.3714987052428193e-17 1.478570414117595e-16 -1.3714987052428193e-17 -0.979846785872503 -0.19975053495580686
12646909333.333334 -0.9822691548408923 -0.187476151677926 1.476436880386915e-16 -1.5573688640720268e-17 1.476436880386915e-16 -1.5573688640720268e-17 -0.9822690231940248 -0.18747684143184623
12647526666.666666 -0.9845376478194198 -0.17517311444970485 1.474069816898035e-16 -1.7429192606554556e-17 1.474069816898035e-16 -1.7429192606554556e-17 -0.9845375248178048 -0.17517380576283656
12648144000.0 -0.9866520500369413 -0.16284266074252882 1.4714696905007213e-16 -1.9281205699587117e-17 1.4714696905007213e-16 -1.9281205699587117e-17 -0.9866519356989848 -0.16284335350652715
12648761333.333334 -0.9886120305668179 -0.1504867204053528 1.468637004848924e-16 -2.1129435337935043e-17 1.468637004848924e-16 -2.1129435337935043e-17 -0.9886119249095687 -0.15048741451165637
12649378666.666666 -0.9904172826510512 -0.1381072272761739 1.4655723003064982e-16 -2.29735896543419e-17 1.4655723003064982e-16 -2.29735896543419e-17 -0.9904171856901984 -0.138107922616022
12649996000.0 -0.9920675237483182 -0.12570611887925387 1.4622761538471245e-16 -2.4813377542211665e-17 1.4622761538471245e-16 -2.4813377542211665e-17 -0.9920674354981871 -0.12570681534370315
12650613333.333334 -0.9935624955782146 -0.11328533612164883 1.4587491789484593e-16 -2.6648508701512495e-17 1.4587491789484593e-16 -2.6648508701512495e-17 -0.9935624160517673 -0.11328603360159072
12651230666.666666 -0.9949019641616039 -0.10084682299005757 1.4549920254806154e-16 -2.847869368448469e-17 1.4549920254806154e-16 -2.847869368448469e-17 -0.9949018933704347 -0.10084752137623512
12651848000.0 -0.9960857198573251 -0.0883925262458327 1.451005379588683e-16 -3.030364394131991e-17 1.451005379588683e-16 -3.030364394131991e-17 -0.9960856578116606 -0.08839322542885783
12652465333.333334 -0.9971135773949538 -0.07592439512068637 1.4467899635698389e-16 -3.2123071865522835e-17 1.4467899635698389e-16 -3.2123071865522835e-17 -0.9971135241036523 -0.07592509499105711
12653082666.666666 -0.9979853759037975 -0.06344438101172852 1.4423465357446218e-16 -3.39366908391884e-17 1.4423465357446218e-16 -3.39366908391884e-17 -0.997985331374344 -0.0634450814598458
12653700000.0 -0.9987009789380994 -0.05095443717565512 1.437675890322447e-16 -3.5744215278136955e-17 1.437675890322447e-16 -3.5744215278136955e-17 -0.9987009431766085 -0.050955138091840275
12654317333.333334 -0.9992602744983681 -0.03845651842343951 1.432778857261664e-16 -3.7545360676794294e-17 1.432778857261664e-16 -3.7545360676794294e-17 -0.9992602475095812 -0.03845721969795128
12654934666.666666 -0.99966317504892 -0.025952580814213342 1.4276563021238808e-16 -3.9339843652923546e-17 1.4276563021238808e-16 -3.9339843652923546e-17 -0.9996631568362054 -0.025953282337265113
12655552000.0 -0.9999096175315834 -0.013444581348951674 1.422309125922734e-16 -4.112738199215358e-17 1.422309125922734e-16 -4.112738199215358e-17 -0.9999096080969355 -0.013445283010728643
12656169333.333334 -0.9999995633755552 -0.0009344776645220564 1.4167382649670936e-16 -4.290769469230488e-17 1.4167382649670936e-16 -4.290769469230488e-17 -0.999999562719594 -0.0009351793551984086
12656786666.666666 -0.9999329985034457 0.011575772272877115 1.4109446906987114e-16 -4.468050200750526e-17 1.4109446906987114e-16 -4.468050200750526e-17 -0.9999330066254188 0.011575070663121006
12657404000.0 -0.9997099333334816 0.024084210474330014 1.4049294095243736e-16 -4.644552549208943e-17 1.4049294095243736e-16 -4.644552549208943e-17 -0.9997099502312602 0.024083509055290376
12658021333.333334 -0.9993304027778714 0.036588879234308674 1.3986934626425428e-16 -4.820248804428316e-17 1.3986934626425428e-16 -4.820248804428316e-17 -0.9993304284479565 0.03658817811574122
12658638666.666666 -0.9987944662373495 0.04908782143724568 1.3922379258647082e-16 -4.9951113949609326e-17 1.3922379258647082e-16 -4.9951113949609326e-17 -0.9987945006748672 0.049087120728848355
12659256000.0 -0.9981022075918661 0.061579080863957275 1.3855639094308685e-16 -5.169112892418379e-17 1.3855639094308685e-16 -5.169112892418379e-17 -0.9981022507905725 0.06157838067535318
12659873333.333334 -0.9972537351874621 0.07406070249775583 1.3786725578203315e-16 -5.342226015756965e-17 1.3786725578203315e-16 -5.342226015756965e-17 -0.9972537871397421 0.07406000293847599
12660490666.666666 -0.9962491818193443 0.08653073282997761 1.3715650495564485e-16 -5.5144236355578736e-17 1.3715650495564485e-16 -5.5144236355578736e-17 -0.9962492425162137 0.08653003400944392
12661108000.0 -0.9950887047110253 0.09898722016674814 1.3642425970064605e-16 -5.685678778268882e-17 1.3642425970064605e-16 -5.685678778268882e-17 -0.9950887741421324 0.09898652219425619
12661725333.333334 -0.9937724854898168 0.1114282149331969 1.3567064461759142e-16 -5.855964630424553e-17 1.3567064461759142e-16 -5.855964630424553e-17 -0.9937725636434432 0.11142751791789883
12662342666.666666 -0.9923007301583079 0.12385176997966263 1.3489578764978184e-16 -6.025254542838466e-17 1.3489578764978184e-16 -6.025254542838466e-17 -0.9923008170213728 0.12385107403055033
12662960000.0 -0.9906736690621982 0.13625594088570814 1.340998200616596e-16 -6.193522034767829e-17 1.340998200616596e-16 -6.193522034767829e-17 -0.9906737646202577 0.1362552461115958
12663577333.333334 -0.9888915568541823 0.14863878626495058 1.3328287641668502e-16 -6.360740798049733e-17 1.3328287641668502e-16 -6.360740798049733e-17 -0.9888916610914351 0.14863809277445822
12664194666.666666 -0.9869546724541605 0.16099836806845944 1.3244509455469735e-16 -6.526884701208376e-17 1.3244509455469735e-16 -6.526884701208376e-17 -0.9869547853534458 0.1609976759699952
12664812000.0 -0.9848633190055128 0.1733327518885313 1.3158661556876194e-16 -6.691927793533439e-17 1.3158661556876194e-16 -6.691927793533439e-17 -0.984863440548318 0.17333206129027523
12665429333.333334 -0.9826178238277187 0.1856400072610527 1.3070758378152865e-16 -6.85584430912443e-17 1.3070758378152865e-16 -6.85584430912443e-17 -0.9826179539941792 0.18563931827093935
12666046666.666666 -0.9802185383651025 0.19791820796780754 1.2980814672104938e-16 -7.018608670911632e-17 1.2980814672104938e-16 -7.018608670911632e-17 -0.9802186771340059 0.1979175206935092
12666664000.0 -0.9776658381317924 0.21016543233811738 1.2888845509613389e-16 -7.180195494637991e-17 1.2888845509613389e-16 -7.180195494637991e-17 -0.9776659854805821 0.21016474688702735
12667281333.333334 -0.9749601226530135 0.222379763549269 1.279486627711926e-16 -7.34057959281269e-17 1.279486627711926e-16 -7.34057959281269e-17 -0.9749602785577937 0.22237908002848497
12667898666.666666 -0.97210181540253 0.23455928992668632 1.2698892674059128e-16 -7.499735978631129e-17 1.2698892674059128e-16 -7.499735978631129e-17 -0.9721019798380685 0.23455860844299364
12668516000.0 -0.9690913637363265 0.24670210524329342 1.2600940710251962e-16 -7.657639869861562e-17 1.2600940710251962e-16 -7.657639869861562e-17 -0.9690915366760563 0.24670142590314778
12669133333.333334 -0.9659292388226643 0.2588063090175269 1.2501026703237783e-16 -7.814266692697816e-17 1.2501026703237783e-16 -7.814266692697816e-17 -0.9659294202386904 0.25880563192703804
12669750666.666666 -0.9626159355683052 0.27087000681094864 1.2399167275568477e-16 -7.96959208557735e-17 1.2399167275568477e-16 -7.96959208557735e-17 -0.9626161254314105 0.2708693320758644
