! Parameters = {f0=12700.012000; bw=77.238000; Q=6100.000000; N=10; m_0_1=1.287583; m_1_1=0.548993; m_1_2=1.122395; m_2_2=0.548344; m_2_3=0.759358; m_2_8=0.001443; m_2_9=0.038147; m_3_3=0.546407; m_3_4=0.647887; m_3_7=0.002043; m_3_8=-0.095045; m_3_9=0.001443; m_4_4=0.543482; m_4_5=0.484222; m_4_6=0.005560; m_4_7=-0.115594; m_4_8=0.002043; m_5_5=0.543864; m_5_6=0.891577; m_5_7=0.005560; m_6_6=0.543863; m_6_7=0.484564; m_7_7=0.543496; m_7_8=0.648005; m_8_8=0.546405; m_8_9=0.759671; m_9_9=0.548339; m_9_10=1.123473; m_10_10=0.548983; m_10_11=1.288378}
!
! Created with skrf (http://scikit-rf.org).
# Hz S RI R 50.0 
!freq ReS11 ImS11 ReS21 ImS21 ReS12 ImS12 ReS22 ImS22
12607400000.0 -0.9083476643654677 0.41821587803623417 9.031492415575927e-17 -7.913076060679011e-17 9.031492415575927e-17 -7.913076060679011e-17 -0.908347948058885 0.4182152618652644
12608017333.333334 -0.90367412903353 0.4282208174707413 8.941099706633203e-17 -8.011547955252302e-17 8.941099706633203e-17 -8.011547955252302e-17 -0.9036744194995027 0.4282202045000391
12608634666.666666 -0.8988903990056711 0.43817353933714936 8.849634487503447e-17 -8.108988563529609e-17 8.849634487503447e-17 -8.108988563529609e-17 -0.8988906962081183 0.4381729296411438
12609252000.0 -0.8939970576136003 0.44807282999312076 8.757108510056e-17 -8.20538621720082e-17 8.757108510056e-17 -8.20538621720082e-17 -0.893997361515623 0.4480722236458344
12609869333.333334 -0.8889947015550546 0.4579174823118888 8.663533652958525e-17 -8.300729381718823e-17 8.663533652958525e-17 -8.300729381718823e-17 -0.8889950121189409 0.45791687938692854
12610486666.666666 -0.8838839408212027 0.46770629582912426 8.568921920155759e-17 -8.395006657676295e-17 8.568921920155759e-17 -8.395006657676295e-17 -0.8838842580084316 0.4677056963996726
12611104000.0 -0.8786653986220159 0.4774380768898026 8.473285439331723e-17 -8.48820678216654e-17 8.473285439331723e-17 -8.48820678216654e-17 -0.8786657223932635 0.477437481028609
12611721333.333334 -0.8733397113105629 0.4871116387932047 8.376636460363344e-17 -8.580318630120917e-17 8.376636460363344e-17 -8.580318630120917e-17 -0.8733400416257056 0.4871110465725758
12612338666.666666 -0.8679075283051877 0.49672580193805094 8.27898735375128e-17 -8.67133121563684e-17 8.27898735375128e-17 -8.67133121563684e-17 -0.8679078651233068 0.49672521342984216
12612956000.0 -0.8623695120103515 0.5062793939662641 8.180350609042495e-17 -8.761233693282023e-17 8.180350609042495e-17 -8.761233693282023e-17 -0.8623698552897419 0.5062788092418724
12613573333.333334 -0.8567263377360345 0.5157712499056349 8.08073883323704e-17 -8.850015359382516e-17 8.08073883323704e-17 -8.850015359382516e-17 -0.856726687434206 0.5157706690359882
12614190666.666666 -0.8509786936151442 0.525200212312297 7.98016474918013e-17 -8.937665653293392e-17 7.98016474918013e-17 -8.937665653293392e-17 -0.8509790496888276 0.5251996353678458
12614808000.0 -0.8451272805197901 0.5345651314115466 7.878641193940523e-17 -9.024174158651161e-17 7.878641193940523e-17 -9.024174158651161e-17 -0.8451276429249441 0.5345645584622564
12615425333.333334 -0.8391728119756872 0.5438648652382666 7.776181117176371e-17 -9.109530604606968e-17 7.776181117176371e-17 -9.109530604606968e-17 -0.8391731806675023 0.543864296353609
12616042666.666666 -0.833116014075269 0.5530982797759866 7.672797579488062e-17 -9.193724867041049e-17 7.672797579488062e-17 -9.193724867041049e-17 -0.8331163890081738 0.5530977150249307
12616660000.0 -0.826957625389041 0.562264249095333 7.568503750755378e-17 -9.276746969760771e-17 7.568503750755378e-17 -9.276746969760771e-17 -0.8269580065167073 0.562263688546337
12617277333.333334 -0.8206983968755446 0.5713616554912752 7.463312908465408e-17 -9.358587085676807e-17 7.463312908465408e-17 -9.358587085676807e-17 -0.8206987841508939 0.5713610992122786
12617894666.666666 -0.8143390917899191 0.5803893896192354 7.357238436025418e-17 -9.43923553796233e-17 7.357238436025418e-17 -9.43923553796233e-17 -0.8143394851651276 0.5803888376776504
12618512000.0 -0.8078804855905347 0.5893463506307817 7.250293821061688e-17 -9.518682801194417e-17 7.250293821061688e-17 -9.518682801194417e-17 -0.8078808850170395 0.5893458030934846
12619129333.333334 -0.8013233658447942 0.5982314463073544 7.142492653712796e-17 -9.596919502471025e-17 7.142492653712796e-17 -9.596919502471025e-17 -0.8013237712732987 0.5982309032406778
12619746666.666666 -0.7946685321327974 0.6070435931938695 7.033848624901713e-17 -9.673936422515709e-17 7.033848624901713e-17 -9.673936422515709e-17 -0.7946689435132788 0.6070430546635949
12620364000.0 -0.7879167959499727 0.61578171673065 6.924375524602827e-17 -9.749724496757659e-17 6.924375524602827e-17 -9.749724496757659e-17 -0.7879172132316877 0.6157811828019997
12620981333.333334 -0.7810689806081441 0.6244447513844389 6.814087240095573e-17 -9.824274816393742e-17 6.814087240095573e-17 -9.824274816393742e-17 -0.7810694037396334 0.6244442221220664
12621598666.666666 -0.7741259211350956 0.6330316407783728 6.702997754205772e-17 -9.897578629431291e-17 6.702997754205772e-17 -9.897578629431291e-17 -0.7741263500641928 0.6330311162463576
12622216000.0 -0.7670884641726994 0.6415413378208673 6.591121143535874e-17 -9.969627341711151e-17 6.591121143535874e-17 -9.969627341711151e-17 -0.7670888988465364 0.6415408180827056
12622833333.333334 -0.7599574678737796 0.6499728048331654 6.478471576685086e-17 -1.0040412517910122e-16 6.478471576685086e-17 -1.0040412517910122e-16 -0.7599579082387926 0.6499722899517623
12623450666.666666 -0.7527338017973981 0.6583250136759613 6.365063312460548e-17 -1.0109925882522309e-16 6.365063312460548e-17 -1.0109925882522309e-16 -0.7527342477993348 0.6583245037136236
12624068000.0 -0.7454183468028746 0.666596945874708 6.250910698072602e-17 -1.0178159320823769e-16 6.250910698072602e-17 -1.0178159320823769e-16 -0.7454187983868005 0.6665964408931372
12624685333.333334 -0.7380119949422241 0.6747875927439813 6.136028167325235e-17 -1.024510487981335e-16 6.136028167325235e-17 -1.024510487981335e-16 -0.7380124520525294 0.6747870928042651
12625302666.666666 -0.7305156493516244 0.6828959555102038 6.020430238795434e-17 -1.0310754769134001e-16 6.020430238795434e-17 -1.0310754769134001e-16 -0.7305161119320308 0.6828954606728085
12625920000.0 -0.722930224141058 0.6909210454336869 5.904131513998289e-17 -1.0375101361976015e-16 5.904131513998289e-17 -1.0375101361976015e-16 -0.7229306921346267 0.6909205557584523
12626537333.333334 -0.7152566442829809 0.6988618839290561 5.787146675550818e-17 -1.0438137195955017e-16 5.787146675550818e-17 -1.0438137195955017e-16 -0.715257117632117 0.6988613994751853
12627154666.666666 -0.7074958454995693 0.7067175026845369 5.669490485319411e-17 -1.0499854973973288e-16 5.669490485319411e-17 -1.0499854973973288e-16 -0.7074963241460327 0.706717023510592
12627772000.0 -0.6996487741483425 0.7144869437803186 5.551177782558092e-17 -1.0560247565060121e-16 5.551177782558092e-17 -1.0560247565060121e-16 -0.6996492580332511 0.7144864699442112
12628389333.333334 -0.691716387107199 0.722169259804918 5.432223482045156e-17 -1.0619308005187567e-16 5.432223482045156e-17 -1.0619308005187567e-16 -0.6917168761710378 0.7221687913639026
12629006666.666666 -0.6836996516572921 0.7297635139711475 5.3126425722027614e-17 -1.0677029498069517e-16 5.3126425722027614e-17 -1.0677029498069517e-16 -0.6837001458399213 0.7297630509818164
12629624000.0 -0.675599545365363 0.7372687802300698 5.192450113213271e-17 -1.0733405415937131e-16 5.192450113213271e-17 -1.0733405415937131e-16 -0.6756000446060241 0.7372683227483444
12630241333.333334 -0.6674170559644534 0.7446841433839995 5.0716612351250016e-17 -1.0788429300294248e-16 5.0716612351250016e-17 -1.0788429300294248e-16 -0.6674175602017777 0.744683691465125
12630858666.666666 -0.6591531812335484 0.7520086991980299 4.9502911359537635e-17 -1.0842094862649853e-16 4.9502911359537635e-17 -1.0842094862649853e-16 -0.6591536904055626 0.7520082528965665
12631476000.0 -0.6508089288756266 0.7592415545105387 4.8283550797683927e-17 -1.0894395985233004e-16 4.8283550797683927e-17 -1.0894395985233004e-16 -0.6508094429197633 0.7592411138803575
12632093333.333334 -0.6423853163951011 0.7663818273418186 4.705868394780895e-17 -1.0945326721680872e-16 4.705868394780895e-17 -1.0945326721680872e-16 -0.6423858352482043 0.7663813924360937
12632710666.666666 -0.6338833709736827 0.7734286470016876 4.5828464714185823e-17 -1.0994881297710184e-16 4.5828464714185823e-17 -1.0994881297710184e-16 -0.6338838945720155 0.7734282178728888
12633328000.0 -0.6253041293448602 0.7803811541958751 4.459304760394493e-17 -1.1043054111764663e-16 4.459304760394493e-17 -1.1043054111764663e-16 -0.6253046576241147 0.7803807308957645
12633945333.333334 -0.6166486376678552 0.7872385011305012 4.3352587707708254e-17 -1.1089839735641079e-16 4.3352587707708254e-17 -1.1089839735641079e-16 -0.6166491705631579 0.7872380837101238
12634562666.666666 -0.6079179513997633 0.7939998516156874 4.210724068014637e-17 -1.1135232915094028e-16 4.210724068014637e-17 -1.1135232915094028e-16 -0.6079184888456856 0.7939994401253675
12635180000.0 -0.5991131351670544 0.8006643811673664 4.0857162720491984e-17 -1.1179228570418203e-16 4.0857162720491984e-17 -1.1179228570418203e-16 -0.5991136770976174 0.8006639756566987
12635797333.333334 -0.5902352626355456 0.8072312771079726 3.960251055295605e-17 -1.122182179701034e-16 3.960251055295605e-17 -1.122182179701034e-16 -0.590235808984231 0.8072308776258185
12636414666.666666 -0.581285416379752 0.8136997386653375 3.8343441407149555e-17 -1.1263007865906786e-16 3.8343441407149555e-17 -1.1263007865906786e-16 -0.5812859670795093 0.8136993452598194
12637032000.0 -0.5722646877505562 0.8200689770705744 3.708011299836795e-17 -1.1302782224302216e-16 3.708011299836795e-17 -1.1302782224302216e-16 -0.5722652427338114 0.8200685897890687
12637649333.333334 -0.5631741767424052 0.8263382156540592 3.581268350790592e-17 -1.1341140496043315e-16 3.581268350790592e-17 -1.1341140496043315e-16 -0.5631747359410676 0.8263378345431901
12638266666.666666 -0.554014991858989 0.8325066899402694 3.4541311563258176e-17 -1.137807848210262e-16 3.4541311563258176e-17 -1.137807848210262e-16 -0.5540155552044612 0.8325063150459052
12638884000.0 -0.5447882499781398 0.8385736477409573 3.326615621830809e-17 -1.14135921610291e-16 3.326615621830809e-17 -1.14135921610291e-16 -0.5447888174013256 0.8385732791082036
12639501333.333334 -0.5354950762156863 0.8445383492468395 3.1987376933467974e-17 -1.1447677689376604e-16 3.1987376933467974e-17 -1.1447677689376604e-16 -0.535495647646998 0.8445379869200329
12640118666.666666 -0.5261366037882564 0.850400067117812 3.07051335557706e-17 -1.1480331402110458e-16 3.07051335557706e-17 -1.1480331402110458e-16 -0.5261371791576258 0.8503997111405176
12640736000.0 -0.5167139738747806 0.8561580865718388 2.94195862988777e-17 -1.15115498129927e-16 2.94195862988777e-17 -1.15115498129927e-16 -0.5167145531116654 0.8561577369868426
12641353333.333334 -0.5072283354779604 0.8618117054717213 2.813089572317878e-17 -1.1541329614941936e-16 2.813089572317878e-17 -1.1541329614941936e-16 -0.5072289185113539 0.8618113623210256
12641970666.666666 -0.49768084528360507 0.8673602344110635 2.6839222715694182e-17 -1.1569667680374776e-16 2.6839222715694182e-17 -1.1569667680374776e-16 -0.4976814320420444 0.8673598977358818
12642588000.0 -0.4880726675197513 0.8728029967982317 2.554472847004716e-17 -1.15965610615225e-16 2.554472847004716e-17 -1.15965610615225e-16 -0.4880732579313263 0.8728026666389839
12643205333.333334 -0.47840497381484404 0.8781393289387721 2.4247574466382854e-17 -1.1622006990725802e-16 2.4247574466382854e-17 -1.1622006990725802e-16 -0.47840556780720644 0.8781390053350802
12643822666.666666 -0.46867894305459823 0.8833685801165023 2.2947922451253037e-17 -1.1646002880707314e-16 2.2947922451253037e-17 -1.1646002880707314e-16 -0.4686795405549695 0.8833682631071836
12644440000.0 -0.458895761238437 0.8884901126727378 2.1645934417472388e-17 -1.1668546324821722e-16 2.1645934417472388e-17 -1.1668546324821722e-16 -0.4588963621736194 0.8884898022958048
12645057333.333334 -0.4490566213349029 0.8935033020840503 2.034177258398211e-17 -1.1689635097282919e-16 2.034177258398211e-17 -1.1689635097282919e-16 -0.4490572256312856 0.8935029983766997
12645674666.666666 -0.4391627231361322 0.8984075370384403 1.9035599375646805e-17 -1.1709267153369453e-16 1.9035599375646805e-17 -1.1709267153369453e-16 -0.43916333071970254 0.8984072400370542
12646292000.0 -0.4292152731113244 0.9032022195100005 1.772757740304361e-17 -1.172744062960724e-16 1.772757740304361e-17 -1.172744062960724e-16 -0.4292158839076758 0.9032019292501384
12646909333.333334 -0.41921548426000443 0.9078867648316445 1.6417869442303007e-17 -1.1744153843928801e-16 1.6417869442303007e-17 -1.1744153843928801e-16 -0.41921609819434597 0.9078864813480418
12647526666.666666 -0.40916457596393224 0.9124606017664959 1.5106638414826944e-17 -1.1759405295811605e-16 1.5106638414826944e-17 -1.1759405295811605e-16 -0.4091651929610977 0.9124603250930573
12648144000.0 -0.39906377383828 0.9169231725775995 1.379404736708354e-17 -1.1773193666392588e-16 1.379404736708354e-17 -1.1773193666392588e-16 -0.3990643938227371 0.9169229027473965
12648761333.333334 -0.3889143095823601 0.9212739330958498 1.24802594503509e-17 -1.1785517818560755e-16 1.24802594503509e-17 -1.1785517818560755e-16 -0.38891493247821946 0.9212736701411163
12649378666.666666 -0.3787174208294844 0.9255123527863278 1.1165437900495964e-17 -1.1796376797026795e-16 1.1165437900495964e-17 -1.1796376797026795e-16 -0.37871804656050906 0.9255120967384555
12649996000.0 -0.3684743509958632 0.9296379148130725 9.849746017683769e-18 -1.1805769828370815e-16 9.849746017683769e-18 -1.1805769828370815e-16 -0.3684749794854783 0.9296376657026091
12650613333.333334 -0.35818634912898206 0.9336501161021032 8.533347146146954e-18 -1.1813696321066907e-16 8.533347146146954e-18 -1.1813696321066907e-16 -0.3581869803002837 0.9336498739587471
12651230666.666666 -0.3478546697555816 0.9375484674026489 7.216404653961234e-18 -1.1820155865485326e-16 7.216404653961234e-18 -1.1820155865485326e-16 -0.34785530353134597 0.9375482322552449
12651848000.0 -0.3374805727282299 0.9413324933469825 5.899081912745025e-18 -1.1825148233872513e-16 5.899081912745025e-18 -1.1825148233872513e-16 -0.33748120903092377 0.9413322652235212
12652465333.333334 -0.3270653230720125 0.9450017325082636 4.5815422774809176e-18 -1.1828673380308045e-16 4.5815422774809176e-18 -1.1828673380308045e-16 -0.3270659618238021 0.9450015114358764
12653082666.666666 -0.3166101908303576 0.9485557374567846 3.2639490662663856e-18 -1.1830731440639492e-16 3.2639490662663856e-18 -1.1830731440639492e-16 -0.3166108319531176 0.9485555234617392
12653700000.0 -0.3061164509097075 0.9519940748146836 1.946465540076931e-18 -1.1831322732394669e-16 1.946465540076931e-18 -1.1831322732394669e-16 -0.3061170943250316 0.951993867922383
12654317333.333334 -0.2955853829246485 0.9553163253085905 6.292548826249437e-19 -1.1830447754671316e-16 6.292548826249437e-19 -1.1830447754671316e-16 -0.2955860285538582 0.9553161255435696
12654934666.666666 -0.2850182710414159 0.9585220838209113 -6.875198198783656e-19 -1.1828107188004538e-16 -6.875198198783656e-19 -1.1828107188004538e-16 -0.2850189188055706 0.9585218912068327
12655552000.0 -0.2744164038213807 0.9616109594391906 -2.0036955988569847e-18 -1.1824301894211615e-16 -2.0036955988569847e-18 -1.1824301894211615e-16 -0.2744170536412872 0.9616107739988433
12656169333.333334 -0.26378107406422163 0.9645825755036967 -3.3191096235052546e-18 -1.1819032916214656e-16 -3.3191096235052546e-18 -1.1819032916214656e-16 -0.26378172586044374 0.9645823972589929
12656786666.666666 -0.25311357864995404 0.9674365696534489 -4.633599220908167e-18 -1.181230147784066e-16 -4.633599220908167e-18 -1.181230147784066e-16 -0.2531142323428223 0.9674363986254203
12657404000.0 -0.2424152183808683 0.9701725938703769 -5.9470018961342774e-18 -1.1804108983599406e-16 -5.9470018961342774e-18 -1.1804108983599406e-16 -0.2424158738904898 0.9701724300791742
12658021333.333334 -0.23168729782290817 0.972790314521757 -7.259155352288615e-18 -1.179445701843895e-16 -7.259155352288615e-18 -1.179445701843895e-16 -0.2316879550691763 0.9727901579866459
12658638666.666666 -0.22093112514681323 0.975289412400844 -8.569897510509873e-18 -1.1783347347479162e-16 -8.569897510509873e-18 -1.1783347347479162e-16 -0.22093178404941724 0.9752892631402035
12659256000.0 -0.2101480119681291 0.9776695827659078 -9.879066530016498e-18 -1.1770781915722414e-16 -9.879066530016498e-18 -1.1770781915722414e-16 -0.2101486724465644 0.9776694407972288
12659873333.333334 -0.1993392731877381 0.9799305353772813 -1.1186500828001592e-17 -1.1756762847742907e-16 -1.1186500828001592e-17 -1.1756762847742907e-16 -0.19933993516131593 0.9799304007171645
12660490666.666666 -0.18850622683129886 0.9820719945328077 -1.2492039099568576e-17 -1.1741292447353382e-16 -1.2492039099568576e-17 -1.1741292447353382e-16 -0.18850689021915573 0.9820718671969597
12661108000.0 -0.17765019388846845 0.9840936991014674 -1.3795520337624428e-17 -1.172437319724957e-16 -1.3795520337624428e-17 -1.172437319724957e-16 -0.17765085860957644 0.9840935791047012
12661725333.333334 -0.16677249815198741 0.9859954025551871 -1.5096783852648348e-17 -1.1706007758633576e-16 -1.5096783852648348e-17 -1.1706007758633576e-16 -0.1667731641251637 0.9859952899114179
12662342666.666666 -0.15587446605617192 0.9877768729989197 -1.6395669292530018e-17 -1.1686198970813946e-16 -1.6395669292530018e-17 -1.1686198970813946e-16 -0.15587513320008917 0.987776767721166
12662960000.0 -0.1449574265151112 0.9894378931989296 -1.76920166622551e-17 -1.1664949850785138e-16 -1.76920166622551e-17 -1.1664949850785138e-16 -0.14495809474830731 0.9894377952993105
12663577333.333334 -0.13402271076067496 0.9909782606092736 -1.898566634361199e-17 -1.1642263592784071e-16 -1.898566634361199e-17 -1.1642263592784071e-16 -0.13402338000156283 0.9909781700990072
12664194666.666666 -0.12307165218026592 0.9923977873964853 -2.027645911478785e-17 -1.1618143567825875e-16 -2.027645911478785e-17 -1.1618143567825875e-16 -0.12307232234714358 0.9923977042858878
12664812000.0 -0.11210558615402938 0.9936963004625118 -2.156423616995755e-17 -1.159259332321703e-16 -2.156423616995755e-17 -1.159259332321703e-16 -0.11210625716508985 0.9936962247609955
12665429333.333334 -0.10112584989221216 0.9948736414657886 -2.2848839138783676e-17 -1.1565616582047378e-16 -2.2848839138783676e-17 -1.1565616582047378e-16 -0.1011265216655536 0.9948735731818624
12666046666.666666 -0.0901337822720186 0.9959296668405659 -2.4130110105835384e-17 -1.153721724266102e-16 -2.4130110105835384e-17 -1.153721724266102e-16 -0.09013445472565418 0.995929605981833
12666664000.0 -0.07913072367426144 0.996864247814419 -2.540789163002863e-17 -1.1507399378103915e-16 -2.540789163002863e-17 -1.1507399378103915e-16 -0.07913139672612933 0.9968641943875762
12667281333.333334 -0.06811801582008477 0.9976772704239356 -2.6682026763869058e-17 -1.1476167235552896e-16 -2.6682026763869058e-17 -1.1476167235552896e-16 -0.06811868938805819 0.9976772244347735
12667898666.666666 -0.05709700160729678 0.998368635528619 -2.7952359072753864e-17 -1.1443525235720502e-16 -2.7952359072753864e-17 -1.1443525235720502e-16 -0.057097675609194105 0.9983685969820201
12668516000.0 -0.04606902494638923 0.9989382588229914 -2.9218732654137033e-17 -1.1409477972239982e-16 -2.9218732654137033e-17 -1.1409477972239982e-16 -0.04606969929998387 0.9989382277229305
12669133333.333334 -0.03503543059714197 0.9993860708468437 -3.048099215659241e-17 -1.137403021102998e-16 -3.048099215659241e-17 -1.137403021102998e-16 -0.03503610522017248 0.999386047196388
12669750666.666666 -0.02399756400415982 0.9997120169937378 -3.1738982798895006e-17 -1.1337186889635684e-16 -3.1738982798895006e-17 -1.1337186889635684e-16 -0.023998238814339906 0.9997120007950441
12670368000.0 -0.012956771133006355 0.999916057517643 -3.2992550388930124e-17 -1.1298953116551366e-16 -3.2992550388930124e-17 -1.1298953116551366e-16 -0.012957446048034975 0.999916048771962
