! Parameters = {f0=12700.012000; bw=77.238000; Q=6100.000000; N=10; m_0_1=1.335430; m_1_1=1.266711; m_1_2=1.170242; m_2_2=1.266062; m_2_3=0.807205; m_2_8=0.003835; m_2_9=0.040539; m_3_3=1.264125; m_3_4=0.695734; m_3_7=0.004435; m_3_8=-0.092653; m_3_9=0.003835; m_4_4=1.261200; m_4_5=0.532069; m_4_6=0.007952; m_4_7=-0.113202; m_4_8=0.004435; m_5_5=1.261582; m_5_6=0.939424; m_5_7=0.007952; m_6_6=1.261581; m_6_7=0.532411; m_7_7=1.261214; m_7_8=0.695852; m_8_8=1.264123; m_8_9=0.807518; m_9_9=1.266057; m_9_10=1.171320; m_10_10=1.266701; m_10_11=1.336225}
!
! Created with skrf (http://scikit-rf.org).
# Hz S RI R 50.0 
!freq ReS11 ImS11 ReS21 ImS21 ReS12 ImS12 ReS22 ImS22
12607400000.0 0.4855595543299708 -0.8742035913897208 -3.239998729529902e-17 1.455764141948011e-16 -3.239998729529902e-17 1.455764141948011e-16 0.48556016929629564 -0.8742032498182314
12608017333.333334 0.4746319947872637 -0.8801843383769492 -3.0565108019345994e-17 1.4594285393735569e-16 -3.0565108019345994e-17 1.4594285393735569e-16 0.47463261393049166 -0.8801840045088944
12608634666.666666 0.4636307814307017 -0.8860284975720367 -2.87261363522917e-17 1.4628617934422383e-16 -2.87261363522917e-17 1.4628617934422383e-16 0.4636314046543492 -0.8860281714584697
12609252000.0 0.45255762143841133 -0.8917351620732543 -2.688336330854399e-17 1.4660634543441142e-16 -2.688336330854399e-17 1.4660634543441142e-16 0.45255824864537075 -0.891734843764019
12609869333.333334 0.4414142331533087 -0.8973034463153929 -2.5037080386731556e-17 1.4690331088884032e-16 -2.5037080386731556e-17 1.4690331088884032e-16 0.44141486424586485 -0.8973031358591195
12610486666.666666 0.43020234581642536 -0.9027324862072096 -2.3187579523667154e-17 1.471770380554135e-16 -2.3187579523667154e-17 1.471770380554135e-16 0.43020298069626883 -0.9027321836513031
12611104000.0 0.4189236992983541 -0.9080214392656081 -2.1335153048209308e-17 1.4742749295350696e-16 -2.1335153048209308e-17 1.4742749295350696e-16 0.4189243378665983 -0.9080211446562448
12611721333.333334 0.40758004382969265 -0.9131694847461723 -1.948009363516461e-17 1.4765464527787248e-16 -1.948009363516461e-17 1.4765464527787248e-16 0.4075806859868874 -0.9131691981282893
12612338666.666666 0.3961731397290293 -0.9181758237707242 -1.7622694259078038e-17 1.478584684019707e-16 -1.7622694259078038e-17 1.478584684019707e-16 0.39617378537517756 -0.9181755451880143
12612956000.0 0.3847047571298498 -0.9230396794512505 -1.576324814799407e-17 1.4803893938072257e-16 -1.576324814799407e-17 1.4803893938072257e-16 0.38470540616442345 -0.9230394089461569
12613573333.333334 0.3731766757061626 -0.9277602970103344 -1.3902048737271877e-17 1.4819603895267372e-16 -1.3902048737271877e-17 1.4819603895267372e-16 0.3731773280281166 -0.9277600346240401
12614190666.666666 0.36159068439590586 -0.932336943898452 -1.2039389623310053e-17 1.4832975154158496e-16 -1.2039389623310053e-17 1.4832975154158496e-16 0.3615913399036962 -0.9323366896708796
12614808000.0 0.3499485811235514 -0.9367689099075704 -1.0175564517264333e-17 1.4844006525744369e-16 -1.0175564517264333e-17 1.4844006525744369e-16 0.34994923971514885 -0.9367686638773705
12615425333.333334 0.3382521725211521 -0.9410555072813326 -8.310867198840972e-18 1.4852697189688697e-16 -8.310867198840972e-18 1.4852697189688697e-16 0.3382528340940589 -0.9410552694858797
12616042666.666666 0.326503273647828 -0.9451960708218461 -6.445591470021778e-18 1.4859046694305195e-16 -6.445591470021778e-18 1.4859046694305195e-16 0.3265039380990943 -0.9451958412972351
12616660000.0 0.3147037077082117 -0.9491899579928715 -4.580031108803574e-18 1.4863054956484498e-16 -4.580031108803574e-18 1.4863054956484498e-16 0.31470437493445047 -0.9491897367739083
12617277333.333334 0.30285530576943964 -0.9530365490195564 -2.714479823035563e-18 1.4864722261562745e-16 -2.714479823035563e-18 1.4864722261562745e-16 0.3028559756668436 -0.9530363361397552
12617894666.666666 0.29095990647724884 -0.9567352469845333 -8.492312042098236e-19 1.486404926313268e-16 -8.492312042098236e-19 1.486404926313268e-16 0.2909605789416071 -0.9567350424761134
12618512000.0 0.2790193557701685 -0.9602854779207092 1.015421318711858e-18 1.4861036982796632e-16 1.015421318711858e-18 1.4861036982796632e-16 0.2790200306968811 -0.9602852818145852
12619129333.333334 0.26703550659366065 -0.9636866909001454 2.87918452535146e-18 1.4855686809861898e-16 2.87918452535146e-18 1.4855686809861898e-16 0.2670361838777559 -0.9636865032259251
12619746666.666666 0.2550102186121172 -0.9669383581196921 4.741765449993422e-18 1.484800050097819e-16 4.741765449993422e-18 1.484800050097819e-16 0.25501089814826833 -0.9669381789056731
12620364000.0 0.24294535792038352 -0.9700399749828575 6.602871427605191e-18 1.483798017971748e-16 6.602871427605191e-18 1.483798017971748e-16 0.2429460396029242 -0.9700398042560214
12620981333.333334 0.23084279675436808 -0.9729910601780611 8.462210139716541e-18 1.48256283360965e-16 8.462210139716541e-18 1.48256283360965e-16 0.23084348047730957 -0.9729908979640702
12621598666.666666 0.2187044132003435 -0.9757911557533699 1.0319489660302376e-17 1.4810947826041564e-16 1.0319489660302376e-17 1.4810947826041564e-16 0.2187050988573908 -0.9757910020765636
12622216000.0 0.20653209090347563 -0.9784398271875709 1.2174418501585775e-17 1.4793941870795894e-16 1.2174418501585775e-17 1.4793941870795894e-16 0.20653277838804376 -0.97843968207096
12622833333.333334 0.1943277187755433 -0.9809366634575849 1.402670565967833e-17 1.4774614056270155e-16 1.402670565967833e-17 1.4774614056270155e-16 0.19432840798077428 -0.9809365269228502
12623450666.666666 0.18209319070201216 -0.9832812771022166 1.5876060660210874e-17 1.4752968332335531e-16 1.5876060660210874e-17 1.4752968332335531e-16 0.18209388152079156 -0.983281149169706
12624068000.0 0.16983040524783324 -0.985473304282344 1.7722193603812405e-17 1.472900901205995e-16 1.7722193603812405e-17 1.472900901205995e-16 0.16983109757280668 -0.9854731849710683
12624685333.333334 0.15754126536287652 -0.9875124048373615 1.9564815211531156e-17 1.470274077088707e-16 1.9564815211531156e-17 1.470274077088707e-16 0.15754195908646626 -0.9875122941649908
12625302666.666666 0.1452276780869939 -0.9893982623379052 2.1403636870048263e-17 1.4674168645759672e-16 2.1403636870048263e-17 1.4674168645759672e-16 0.14522837310141581 -0.9893981603207685
12625920000.0 0.13289155425349441 -0.9911305841350554 2.3238370676894244e-17 1.464329803418483e-16 2.3238370676894244e-17 1.464329803418483e-16 0.13289225045077468 -0.9911304907881371
12626537333.333334 0.12053480819309645 -0.9927091014056726 2.5068729485419345e-17 1.4610134693244434e-16 2.5068729485419345e-17 1.4610134693244434e-16 0.12053550546508826 -0.9927090167426107
12627154666.666666 0.10815935743677678 -0.9941335691941344 2.6894426949669123e-17 1.4574684738549009e-16 2.6894426949669123e-17 1.4574684738549009e-16 0.10816005567517699 -0.9941334932272164
12627772000.0 0.09576712241786715 -0.9954037664503816 2.8715177569199237e-17 1.4536954643133895e-16 2.8715177569199237e-17 1.4536954643133895e-16 0.09576782151423334 -0.995403699190546
12628389333.333334 0.08336002617454831 -0.9965194960641686 3.053069673357429e-17 1.4496951236302836e-16 3.053069673357429e-17 1.4496951236302836e-16 0.0833607260203155 -0.9965194375210005
12629006666.666666 0.07093999405095043 -0.9974805848956951 3.234070076687422e-17 1.4454681702412536e-16 3.234070076687422e-17 1.4454681702412536e-16 0.07094069453744795 -0.9974805350774267
12629624000.0 0.05850895339880101 -0.9982868838024384 3.414490697189649e-17 1.4410153579605017e-16 3.414490697189649e-17 1.4410153579605017e-16 0.058509654417269526 -0.9982868427159484
12630241333.333334 0.046068833277997226 -0.9989382676623264 3.5943033674318516e-17 1.4363374758481753e-16 3.5943033674318516e-17 1.4363374758481753e-16 0.04606953471960538 -0.998938235313137
12630858666.666666 0.03362156415750739 -0.999434635393135 3.7734800266550495e-17 1.4314353480725956e-16 3.7734800266550495e-17 1.4314353480725956e-16 0.03362226591336879 -0.9994346117854116
12631476000.0 0.02116907761554378 -0.9997759099681853 3.9519927251542317e-17 1.4263098337666685e-16 3.9519927251542317e-17 1.4263098337666685e-16 0.02116977957673394 -0.9997758951047369
12632093333.333334 0.008713306040102665 -0.9999620384282879 4.129813628623594e-17 1.4209618268792898e-16 4.129813628623594e-17 1.4209618268792898e-16 0.008714008097675884 -0.9999620323105668
12632710666.666666 -0.003743817670990578 -0.9999929918899688 4.3069150224981684e-17 1.4153922560208854e-16 4.3069150224981684e-17 1.4153922560208854e-16 -0.003743115625984317 -0.9999929945180693
12633328000.0 -0.01620036041037138 -0.9998687655499501 4.483269316266749e-17 1.4096020843037677e-16 4.483269316266749e-17 1.4096020843037677e-16 -0.016199658486869484 -0.9998687769226089
12633945333.333334 -0.02865438916060565 -0.9995893786858876 4.6588490477596727e-17 1.4035923091772722e-16 4.6588490477596727e-17 1.4035923091772722e-16 -0.028653687467516047 -0.999589398800487
12634562666.666666 -0.04110397129444147 -0.9991548746533905 4.8336268874259416e-17 1.3973639622571954e-16 4.8336268874259416e-17 1.3973639622571954e-16 -0.041103269940625686 -0.9991549035059547
12635180000.0 -0.05354717487471567 -0.9985653208792818 5.007575642575e-17 1.3909181091503403e-16 5.007575642575e-17 1.3909181091503403e-16 -0.05354647396897196 -0.9985653584644801
12635797333.333334 -0.06598206895392662 -0.9978208088511513 5.1806682616089e-17 1.3842558492733304e-16 5.1806682616089e-17 1.3842558492733304e-16 -0.06598136860497306 -0.997820855162298
12636414666.666666 -0.07840672387427758 -0.9969214541031347 5.3528778382139285e-17 1.377378315666752e-16 5.3528778382139285e-17 1.377378315666752e-16 -0.0784060241907353 -0.9969215091321921
12637032000.0 -0.090819211566669 -0.9958673961980151 5.5241776155483074e-17 1.3702866748033473e-16 5.5241776155483074e-17 1.3702866748033473e-16 -0.09081851265704516 -0.9958674599355919
12637649333.333334 -0.10321760585029481 -0.9946587987055356 5.694540990385021e-17 1.3629821263917364e-16 5.694540990385021e-17 1.3629821263917364e-16 -0.1032169078229659 -0.9946588711408905
12638266666.666666 -0.11559998273132205 -0.9932958491770335 5.863941517240694e-17 1.3554659031745634e-16 5.863941517240694e-17 1.3554659031745634e-16 -0.11559928569451716 -0.9932959302980772
12638884000.0 -0.12796442070151473 -0.9917787591163322 6.032352912477165e-17 1.3477392707215256e-16 6.032352912477165e-17 1.3477392707215256e-16 -0.12796372476329862 -0.9917788489096285
12639501333.333334 -0.14030900103647156 -0.990107763946912 6.19974905836907e-17 1.3398035272176272e-16 6.19974905836907e-17 1.3398035272176272e-16 -0.14030830630472793 -0.9901078623976803
12640118666.666666 -0.15263180809309349 -0.9882831229754152 6.366104007149966e-17 1.331660003246126e-16 6.366104007149966e-17 1.331660003246126e-16 -0.15263111467550836 -0.9882832300675334
12640736000.0 -0.16493092960747413 -0.9863051193513193 6.531391985034535e-17 1.3233100615662262e-16 6.531391985034535e-17 1.3233100615662262e-16 -0.16493023761151923 -0.9863052350673261
12641353333.333334 -0.17720445699085965 -0.9841740600231144 6.695587396193791e-17 1.3147550968866846e-16 6.695587396193791e-17 1.3147550968866846e-16 -0.1772037665237752 -0.9841741843442108
12641970666.666666 -0.1894504856264426 -0.9818902756905743 6.858664826723365e-17 1.3059965356333784e-16 6.858664826723365e-17 1.3059965356333784e-16 -0.1894497967952215 -0.981890408596629
12642588000.0 -0.20166711516469732 -0.979454120753471 7.020599048565771e-17 1.29703583571274e-16 7.020599048565771e-17 1.29703583571274e-16 -0.2016664280760681 -0.9794542622230226
12643205333.333334 -0.21385244981805596 -0.9768659732566295 7.181365023410194e-17 1.2878744862699335e-16 7.181365023410194e-17 1.2878744862699335e-16 -0.2138517645784663 -0.9768661232668894
12643822666.666666 -0.22600459865565467 -0.9741262348311449 7.340937906556341e-17 1.2785140074424147e-16 7.340937906556341e-17 1.2785140074424147e-16 -0.2260039153712549 -0.9741263933580017
12644440000.0 -0.23812167589626845 -0.9712353306321592 7.499293050746484e-17 1.2689559501087524e-16 7.499293050746484e-17 1.2689559501087524e-16 -0.23812099467289521 -0.971235497650182
12645057333.333334 -0.25020180120106095 -0.9681937092728659 7.65640600996851e-17 1.2592018956324795e-16 7.65640600996851e-17 1.2592018956324795e-16 -0.25020112214422086 -0.96819388475531
12645674666.666666 -0.2622430999653785 -0.9650018427549011 7.812252543222238e-17 1.2492534556014722e-16 7.812252543222238e-17 1.2492534556014722e-16 -0.2622424231802313 -0.9650020266737089
12646292000.0 -0.27424370361003503 -0.9616602263949869 7.966808618256932e-17 1.2391122715623515e-16 7.966808618256932e-17 1.2391122715623515e-16 -0.27424302920137816 -0.9616604187207962
12646909333.333334 -0.2862017498705681 -0.9581693787482625 8.120050415263272e-17 1.2287800147510104e-16 8.120050415263272e-17 1.2287800147510104e-16 -0.2862010779428199 -0.9581695794504094
12647526666.666666 -0.2981153830868287 -0.95452984152765 8.271954330547372e-17 1.2182583858174825e-16 8.271954330547372e-17 1.2182583858174825e-16 -0.29811471374401216 -0.9545300505741724
12648144000.0 -0.3099827544906707 -0.9507421795198648 8.422496980155208e-17 1.2075491145471904e-16 8.422496980155208e-17 1.2075491145471904e-16 -0.3099820878363978 -0.9507423968775107
12648761333.333334 -0.3218020224929535 -0.9468069804977416 8.571655203465441e-17 1.1966539595774715e-16 8.571655203465441e-17 1.1966539595774715e-16 -0.32180135863040876 -0.9468072061319714
12649378666.666666 -0.33357135296910506 -0.9427248551290921 8.71940606674837e-17 1.1855747081094658e-16 8.71940606674837e-17 1.1855747081094658e-16 -0.3335706920010296 -0.9427250890040854
12649996000.0 -0.34528891954406654 -0.9384964368818333 8.865726866684365e-17 1.1743131756158684e-16 8.865726866684365e-17 1.1743131756158684e-16 -0.34528826157274284 -0.9384966789604954
12650613333.333334 -0.35695290387554945 -0.9341223819257407 9.010595133849413e-17 1.1628712055440012e-16 9.010595133849413e-17 1.1628712055440012e-16 -0.3569522490027844 -0.9341226321697063
12651230666.666666 -0.36856149593599363 -0.9296033690307003 9.15398863615183e-17 1.1512506690154022e-16 9.15398863615183e-17 1.1512506690154022e-16 -0.3685608442631041 -0.9296036274003424
12651848000.0 -0.38011289429398254 -0.9249400994611804 9.295885382246226e-17 1.1394534645199667e-16 9.295885382246226e-17 1.1394534645199667e-16 -0.38011224592177795 -0.9249403659156129
12652465333.333334 -0.39160530639331004 -0.9201332968675834 9.436263624895012e-17 1.127481517606913e-16 9.436263624895012e-17 1.127481517606913e-16 -0.3916046614220789 -0.9201335713646719
12653082666.666666 -0.40303694883120855 -0.9151837071739403 9.575101864293591e-17 1.115336780571373e-16 9.575101864293591e-17 1.115336780571373e-16 -0.40303630736070106 -0.9151839896703049
12653700000.0 -0.4144060476353593 -0.9100920984620436 9.71237885136166e-17 1.1030212321363497e-16 9.71237885136166e-17 1.1030212321363497e-16 -0.4144054097647735 -0.9100923889130687
12654317333.333334 -0.425710838539022 -0.9048592608523216 9.848073590981117e-17 1.0905368771317337e-16 9.848073590981117e-17 1.0905368771317337e-16 -0.42571020436698676 -0.9048595592121603
12654934666.666666 -0.436949567254608 -0.8994860063813206 9.982165345208495e-17 1.0778857461679613e-16 9.982165345208495e-17 1.0778857461679613e-16 -0.4369489368791695 -0.8994863126029048
12655552000.0 -0.4481204897464804 -0.8939731688754315 1.0114633636433703e-16 1.0650698953067883e-16 1.0114633636433703e-16 1.0650698953067883e-16 -0.44811986326508557 -0.8939734829104763
12656169333.333334 -0.45922187250087504 -0.8883216038218347 1.0245458250496806e-16 1.0520914057282137e-16 1.0245458250496806e-16 1.0520914057282137e-16 -0.45922125001035735 -0.8883219256208482
12656786666.666666 -0.4702519927954724 -0.8825321882354742 1.0374619239773597e-16 1.038952383392481e-16 1.0374619239773597e-16 1.038952383392481e-16 -0.4702513743920363 -0.8825325177477641
12657404000.0 -0.48120913896647516 -0.876605820523085 1.0502096926202936e-16 1.0256549586997543e-16 1.0502096926202936e-16 1.0256549586997543e-16 -0.4812085247456818 -0.876606157696768
12658021333.333334 -0.49209161067432666 -0.8705434203437257 1.0627871904283647e-16 1.0122012861448042e-16 1.0627871904283647e-16 1.0122012861448042e-16 -0.4920910007310794 -0.8705437651257352
12658638666.666666 -0.5028977191673246 -0.8643459284662068 1.0751925044014486e-16 9.9859354396934e-17 1.0751925044014486e-16 9.9859354396934e-17 -0.502897113595853 -0.864346280802299
12659256000.0 -0.5136257875442242 -0.8580143066227865 1.0874237493804078e-16 9.848339338092424e-17 1.0874237493804078e-16 9.848339338092424e-17 -0.5136251864380701 -0.8580146664575518
12659873333.333334 -0.5242741510137733 -0.8515495373603309 1.0994790683324935e-16 9.709246803393964e-17 1.0994790683324935e-16 9.709246803393964e-17 -0.5242735544657772 -0.8515499046372013
12660490666.666666 -0.5348411571535951 -0.8449526238875228 1.1113566326322313e-16 9.568680309150518e-17 1.1113566326322313e-16 9.568680309150518e-17 -0.5348405652558809 -0.8449529985487807
12661108000.0 -0.5453251661664175 -0.8382245899192982 1.1230546423387771e-16 9.426662552085729e-17 1.1230546423387771e-16 9.426662552085729e-17 -0.5453245790103785 -0.838224971906087
12661725333.333334 -0.5557245511343927 -0.8313664795180791 1.1345713264672744e-16 9.283216448443818e-17 1.1345713264672744e-16 9.283216448443818e-17 -0.5557239688106774 -0.8313668687704097
12662342666.666666 -0.5660376982718538 -0.8243793569315699 1.1459049432566911e-16 9.138365130292606e-17 1.1459049432566911e-16 9.138365130292606e-17 -0.5660371208703524 -0.8243797533883329
12662960000.0 -0.5762630071755502 -0.8172643064277301 1.1570537804321046e-16 8.992131941804321e-17 1.1570537804321046e-16 8.992131941804321e-17 -0.5762624347853805 -0.8172647100267036
12663577333.333334 -0.5863988910730483 -0.8100224321264851 1.168016155462769e-16 8.844540435497994e-17 1.168016155462769e-16 8.844540435497994e-17 -0.586398323782541 -0.8100228428043449
12664194666.666666 -0.596443777068968 -0.8026548578283884 1.178790415815401e-16 8.695614368450536e-17 1.178790415815401e-16 8.695614368450536e-17 -0.5964432149656546 -0.8026552755207187
12664812000.0 -0.6063961063891106 -0.7951627268401951 1.189374939202184e-16 8.545377698482993e-17 1.189374939202184e-16 8.545377698482993e-17 -0.6063955495597084 -0.7951631514814965
12665429333.333334 -0.6162543346221694 -0.7875472017975771 1.199768133824433e-16 8.393854580310169e-17 1.199768133824433e-16 8.393854580310169e-17 -0.6162537831525707 -0.7875476333212812
12666046666.666666 -0.6260169319596687 -0.7798094644845053 1.2099684386110664e-16 8.241069361664763e-17 1.2099684386110664e-16 8.241069361664763e-17 -0.6260163859349234 -0.7798099028229787
12666664000.0 -0.6356823834332165 -0.7719507156499515 1.2199743234524248e-16 8.087046579388463e-17 1.2199743234524248e-16 8.087046579388463e-17 -0.6356818429375228 -0.7719511607345122
12667281333.333334 -0.6452491891494732 -0.7639721748216711 1.2297842894286773e-16 7.931810955501823e-17 1.2297842894286773e-16 7.931810955501823e-17 -0.6452486542661631 -0.7639726265825969
12667898666.666666 -0.6547158645231261 -0.7558750801167753 1.239396869033639e-16 7.775387393240248e-17 1.239396869033639e-16 7.775387393240248e-17 -0.6547153353346525 -0.7558755384833142
12668516000.0 -0.6640809405073078 -0.7476606880495564 1.2488106263935593e-16 7.617800973063005e-17 1.2488106263935593e-16 7.617800973063005e-17 -0.6640804170952309 -0.747661152949938
12669133333.333334 -0.6733429638211765 -0.7393302733368367 1.258024157480447e-16 7.459076948642259e-17 1.258024157480447e-16 7.459076948642259e-17 -0.6733424462661532 -0.7393307446982839
12669750666.666666 -0.682500497175868 -0.7308851286997832 1.267036090320698e-16 7.299240742820037e-17 1.267036090320698e-16 7.299240742820037e-17 -0.6824999855576392 -0.730885606448525
12670368000.0 -0.691552119497365 -0.722326564663455 1.2758450851986422e-16 7.13831794353945e-17 1.2758450851986422e-16 7.13831794353945e-17 -0.6915516138947412 -0.7223270487247344
