! Parameters = {f0=12700.012000; bw=77.238000; Q=6100.000000; N=10; m_0_1=1.332227; m_1_1=1.218663; m_1_2=1.167039; m_2_2=1.218014; m_2_3=0.804002; m_2_8=0.003675; m_2_9=0.040379; m_3_3=1.216077; m_3_4=0.692531; m_3_7=0.004275; m_3_8=-0.092813; m_3_9=0.003675; m_4_4=1.213152; m_4_5=0.528866; m_4_6=0.007792; m_4_7=-0.113362; m_4_8=0.004275; m_5_5=1.213534; m_5_6=0.936221; m_5_7=0.007792; m_6_6=1.213533; m_6_7=0.529208; m_7_7=1.213166; m_7_8=0.692649; m_8_8=1.216075; m_8_9=0.804315; m_9_9=1.218009; m_9_10=1.168117; m_10_10=1.218653; m_10_11=1.333022}
!
! Created with skrf (http://scikit-rf.org).
# Hz S RI R 50.0 
!freq ReS11 ImS11 ReS21 ImS21 ReS12 ImS12 ReS22 ImS22
12607400000.0 0.6437713430049495 0.7652179153191654 -1.227166303051853e-16 -8.099257197563838e-17 -1.227166303051853e-16 -8.099257197563838e-17 0.6437708059918337 0.765218367103424
12608017333.333334 0.6531819510306012 0.7572009897297173 -1.2369132598033084e-16 -7.944280172501941e-17 -1.2369132598033084e-16 -7.944280172501941e-17 0.6531814196695969 0.7572014480956939
12608634666.666666 0.662492732838953 0.7490683406308007 -1.246464641885553e-16 -7.788132229725502e-17 -1.246464641885553e-16 -7.788132229725502e-17 0.6624922072107114 0.7490688055078024
12609252000.0 0.6717022654573607 0.7408212109404366 -1.2558190453131726e-16 -7.630838032289908e-17 -1.2558190453131726e-16 -7.630838032289908e-17 0.6717017456416484 0.7408216822567815
12609869333.333334 0.680809141387179 0.7324608610727656 -1.2649750971805856e-16 -7.472422411251323e-17 -1.2649750971805856e-16 -7.472422411251323e-17 0.6808086274628672 0.7324613387557957
12610486666.666666 0.6898119688187067 0.723988568745575 -1.2739314558623632e-16 -7.312910361757465e-17 -1.2739314558623632e-16 -7.312910361757465e-17 0.6898114608637574 0.7239890527216654
12611104000.0 0.6987093718442687 0.7154056287846731 -1.2826868112092614e-16 -7.152327039103252e-17 -1.2826868112092614e-16 -7.152327039103252e-17 0.6987088699357257 0.7154061189792453
12611721333.333334 0.7074999906680466 0.7067133529264318 -1.291239884738598e-16 -6.99069775477598e-17 -1.291239884738598e-16 -6.99069775477598e-17 0.7074994948820215 0.7067138492639645
12612338666.666666 0.7161824818142442 0.6979130696169796 -1.299589429820121e-16 -6.828047972468994e-17 -1.299589429820121e-16 -6.828047972468994e-17 0.7161819922259052 0.6979135720210198
12612956000.0 0.7247555183323466 0.6890061238092278 -1.3077342318568463e-16 -6.664403304073736e-17 -1.3077342318568463e-16 -6.664403304073736e-17 0.7247550350159072 0.6890066322024021
12613573333.333334 0.7332177899996835 0.6799938767575676 -1.3156731084605234e-16 -6.499789505657069e-17 -1.3156731084605234e-16 -6.499789505657069e-17 0.7332173130283918 0.6799943910615958
12614190666.666666 0.7415680035220052 0.6708777058094808 -1.3234049096223935e-16 -6.334232473410738e-17 -1.3234049096223935e-16 -6.334232473410738e-17 0.7415675329681332 0.6708782259451874
12614808000.0 0.7498048827308865 0.6616590041953082 -1.3309285178787545e-16 -6.16775823958298e-17 -1.3309285178787545e-16 -6.16775823958298e-17 0.7498044186657173 0.6616595300826335
12615425333.333334 0.7579271687789154 0.6523391808151522 -1.3382428484713628e-16 -6.000392968391742e-17 -1.3382428484713628e-16 -6.000392968391742e-17 0.7579267112727336 0.652339712373165
12616042666.666666 0.7659336203320259 0.6429196600236164 -1.3453468495026874e-16 -5.832162951919431e-17 -1.3453468495026874e-16 -5.832162951919431e-17 0.7659331694541076 0.6429201971705282
12616660000.0 0.7738230137591582 0.6334018814121876 -1.3522395020861684e-16 -5.663094605986067e-17 -1.3522395020861684e-16 -5.663094605986067e-17 0.7738225695777603 0.6334024240653634
12617277333.333334 0.7815941433194148 0.6237872995890478 -1.3589198204911626e-16 -5.493214466007887e-17 -1.3589198204911626e-16 -5.493214466007887e-17 0.7815937059017624 0.6237878476650183
12617894666.666666 0.7892458213460961 0.6140773839570489 -1.3653868522826069e-16 -5.322549182841402e-17 -1.3653868522826069e-16 -5.322549182841402e-17 0.7892453907583751 0.6140779373715248
12618512000.0 0.7967768784285539 0.6042736184887244 -1.371639678455864e-16 -5.151125518601091e-17 -1.371639678455864e-16 -5.151125518601091e-17 0.7967764547358998 0.604274177156609
12619129333.333334 0.8041861635905242 0.5943775014999825 -1.3776774135657359e-16 -4.9789703424770523e-17 -1.3776774135657359e-16 -4.9789703424770523e-17 0.8041857468570129 0.5943780653353846
12619746666.666666 0.8114725444663295 0.5843905454207367 -1.3834992058508007e-16 -4.806110626522497e-17 -1.3834992058508007e-16 -4.806110626522497e-17 0.8114721347549675 0.5843911143369842
12620364000.0 0.8186349074738845 0.574314276563826 -1.389104237352187e-16 -4.632573441434744e-17 -1.389104237352187e-16 -4.632573441434744e-17 0.8186345048465972 0.574314850473478
12620981333.333334 0.8256721579846825 0.5641502348920232 -1.3944917240269495e-16 -4.4583859523261566e-17 -1.3944917240269495e-16 -4.4583859523261566e-17 0.8256717625023078 0.5641508137068839
12621598666.666666 0.8325832204913581 0.5538999737823117 -1.3996609158565206e-16 -4.283575414471056e-17 -1.3996609158565206e-16 -4.283575414471056e-17 0.8325828322136364 0.5539005574134458
12622216000.0 0.839367038771923 0.5435650597886698 -1.404611096949525e-16 -4.108169169049798e-17 -1.404611096949525e-16 -4.108169169049798e-17 0.8393666577574878 0.5435656481464137
12622833333.333334 0.8460225760511743 0.5331470724026731 -1.4093415856393635e-16 -3.9321946388784494e-17 -1.4093415856393635e-16 -3.9321946388784494e-17 0.8460222023575431 0.5331476653966503
12623450666.666666 0.8525488151591941 0.5226476038120336 -1.4138517345765059e-16 -3.755679324125891e-17 -1.4138517345765059e-16 -3.755679324125891e-17 0.85254844884276 0.5226482013511672
12624068000.0 0.8589447586867583 0.5120682586573333 -1.4181409308153422e-16 -3.5786507980234026e-17 -1.4181409308153422e-16 -3.5786507980234026e-17 0.858944399802781 0.5120688606498608
12624685333.333334 0.8652094291378869 0.5014106537865923 -1.4222085958958502e-16 -3.401136702557758e-17 -1.4222085958958502e-16 -3.401136702557758e-17 0.8652090777404866 0.5014112601400804
12625302666.666666 0.8713418690790354 0.49067641800850814 -1.4260541859195172e-16 -3.2231647441702884e-17 -1.4260541859195172e-16 -3.2231647441702884e-17 0.8713415252211804 0.49067702862986473
12625920000.0 0.8773411412856579 0.47986719184310284 -1.4296771916203684e-16 -3.044762689427019e-17 -1.4296771916203684e-16 -3.044762689427019e-17 0.8773408050191618 0.47986780663859446
12626537333.333334 0.8832063288852099 0.46898462727142487 -1.4330771384301405e-16 -2.865958360701445e-17 -1.4330771384301405e-16 -2.865958360701445e-17 0.8832060002607188 0.46898524614668796
12627154666.666666 0.8889365354973842 0.45803038748287667 -1.436253586538377e-16 -2.686779631835735e-17 -1.436253586538377e-16 -2.686779631835735e-17 0.8889362145643732 0.45803101034293414
12627772000.0 0.8945308853712254 0.44700614662080185 -1.4392061309470036e-16 -2.507254423799683e-17 -1.4392061309470036e-16 -2.507254423799683e-17 0.8945305721779886 0.4470067733700767
12628389333.333334 0.8999885235186939 0.4359135895271537 -1.4419344015193659e-16 -2.3274107003522735e-17 -1.4419344015193659e-16 -2.3274107003522735e-17 0.8999882181123375 0.43591422006948366
12629006666.666666 0.9053086158456196 0.4247544114844429 -1.444438063024104e-16 -2.1472764636827442e-17 -1.444438063024104e-16 -2.1472764636827442e-17 0.9053083182720553 0.42475504572309575
12629624000.0 0.9104903492789842 0.4135303179570271 -1.4467168151733644e-16 -1.966879750061731e-17 -1.4467168151733644e-16 -1.966879750061731e-17 0.9104900595829232 0.4135309557947155
12630241333.333334 0.9155329318912849 0.40224302433026016 -1.4487703926556953e-16 -1.7862486254818712e-17 -1.4487703926556953e-16 -1.7862486254818712e-17 0.9155326501162298 0.4022436656691561
12630858666.666666 0.9204355930214471 0.39089425564858676 -1.4505985651634965e-16 -1.6054111812967438e-17 -1.4505985651634965e-16 -1.6054111812967438e-17 0.9204353192096851 0.3908949003903364
12631476000.0 0.9251975833928127 0.3794857463514356 -1.4522011374150557e-16 -1.424395529854261e-17 -1.4522011374150557e-16 -1.424395529854261e-17 0.9251973175854104 0.37948639439717485
12632093333.333334 0.9298181752274111 0.36801924000868963 -1.4535779491710594e-16 -1.2432298001380218e-17 -1.4535779491710594e-16 -1.2432298001380218e-17 0.9298179174642077 0.36801989125905926
12632710666.666666 0.9342966623573494 0.3564964890538522 -1.4547288752457706e-16 -1.0619421333982987e-17 -1.4547288752457706e-16 -1.0619421333982987e-17 0.9342964126769511 0.3564971434090128
12633328000.0 0.9386323603326964 0.3449192545162971 -1.4556538255127405e-16 -8.805606787832283e-18 -1.4556538255127405e-16 -8.805606787832283e-18 0.9386321187724703 0.34491991187594495
12633945333.333334 0.9428246065260678 0.3332893057521836 -1.4563527449050408e-16 -6.991135889783493e-18 -1.4563527449050408e-16 -6.991135889783493e-18 0.9428243731221366 0.33328996601556504
12634562666.666666 0.9468727602339169 0.32160842017399016 -1.4568256134101137e-16 -5.176290158394365e-18 -1.4568256134101137e-16 -5.176290158394365e-18 0.9468725350211533 0.32160908323991816
12635180000.0 0.9507762027744168 0.3098783829789803 -1.4570724460591705e-16 -3.361351060321373e-18 -1.4570724460591705e-16 -3.361351060321373e-18 0.9507759857864383 0.3098790487458492
12635797333.333334 0.9545343375820847 0.2981009868761529 -1.4570932929111707e-16 -1.5465999666873203e-18 -1.4570932929111707e-16 -1.5465999666873203e-18 0.9545341288512494 0.2981016552419545
12636414666.666666 0.9581465902988527 0.2862780318125872 -1.45688823903138e-16 2.6768189043637643e-19 -1.45688823903138e-16 2.6768189043637643e-19 0.9581463898562513 0.2862787026749252
12637032000.0 0.9616124088619569 0.27441132469800184 -1.456457404464503e-16 2.0812134616123953e-18 -1.456457404464503e-16 2.0812134616123953e-18 0.9616122167374126 0.2744119979541094
12637649333.333334 0.964931263588248 0.2625026791287942 -1.455800944202418e-16 3.8937139234920436e-18 -1.455800944202418e-16 3.8937139234920436e-18 0.9649310798103092 0.2625033546755483
12638266666.666666 0.9681026472551328 0.25055391511092273 -1.4549190481465055e-16 5.7049027222385266e-18 -1.4549190481465055e-16 5.7049027222385266e-18 0.9681024718510702 0.25055459284486054
12638884000.0 0.9711260751781371 0.23856685878158967 -1.4538119410645774e-16 7.514499616924573e-18 -1.4538119410645774e-16 7.514499616924573e-18 0.9711259081739388 0.23856753859892413
12639501333.333334 0.9740010852849624 0.2265433421302053 -1.4524798825424188e-16 9.322224722831493e-18 -1.4524798825424188e-16 9.322224722831493e-18 0.9740009267053299 0.226544023926841
12640118666.666666 0.976727238186048 0.2144852027186534 -1.4509231669299905e-16 1.1127798554647326e-17 -1.4509231669299905e-16 1.1127798554647326e-17 0.9767270880543936 0.2144858863902029
12640736000.0 0.9793041172418716 0.20239428339981907 -1.4491421232821578e-16 1.2930942069718156e-17 -1.4491421232821578e-16 1.2930942069718156e-17 0.9793039755803132 0.2023949688416182
12641353333.333334 0.9817313286264212 0.19027243203683025 -1.4471371152942544e-16 1.4731376710987288e-17 -1.4471371152942544e-16 1.4731376710987288e-17 0.9817311954557812 0.19027311914395487
12641970666.666666 0.9840085013875622 0.1781215012198437 -1.4449085412320822e-16 1.6528824450089494e-17 -1.4449085412320822e-16 1.6528824450089494e-17 0.9840083767273635 0.17812218988712533
12642588000.0 0.9861352875036284 0.1659433479834131 -1.442456833856747e-16 1.83230078301778e-17 -1.442456833856747e-16 1.83230078301778e-17 0.9861351713720904 0.16594403810545502
12643205333.333334 0.9881113619366471 0.1537398335224531 -1.439782460344127e-16 2.0113650008690237e-17 -1.439782460344127e-16 2.0113650008690237e-17 0.988111254350685 0.15374052499364668
12643822666.666666 0.9899364226820204 0.14151282290779288 -1.4368859221989813e-16 2.1900474800053863e-17 -1.4368859221989813e-16 2.1900474800053863e-17 0.9899363236572409 0.1415135156223335
12644440000.0 0.9916101908146583 0.1292641848012187 -1.4337677551638713e-16 2.3683206718196623e-17 -1.4337677551638713e-16 2.3683206718196623e-17 0.9916101003653603 0.12926487865312228
12645057333.333334 0.9931324105316098 0.11699579116994309 -1.4304285291227831e-16 2.546157101895881e-17 -1.4304285291227831e-16 2.546157101895881e-17 0.9931323286707779 0.11699648605306187
12645674666.666666 0.9945028491911613 0.10470951700045408 -1.4268688479994446e-16 2.7235293742405768e-17 -1.4268688479994446e-16 2.7235293742405768e-17 0.9945027759304685 0.10471021280849324
12646292000.0 0.9957212973484226 0.09240724001170593 -1.4230893496503981e-16 2.900410175499383e-17 -1.4230893496503981e-16 2.900410175499383e-17 0.9957212326982241 0.09240793663823944
12646909333.333334 0.9967875687872838 0.08009084036856914 -1.4190907057530415e-16 3.076772279151126e-17 -1.4190907057530415e-16 3.076772279151126e-17 0.9967875127566188 0.08009153770705645
12647526666.666666 0.997701500548902 0.06776220039428668 -1.4148736216881976e-16 3.25258854969975e-17 -1.4148736216881976e-16 3.25258854969975e-17 0.9977014531454934 0.06776289833808889
12648144000.0 0.998462952956618 0.05542320428265542 -1.410438836417674e-16 3.427831946842417e-17 -1.410438836417674e-16 3.427831946842417e-17 0.9984629141868672 0.05542390272505141
12648761333.333334 0.9990718096372795 0.04307573781026149 -1.405787122356698e-16 3.602475529620026e-17 -1.405787122356698e-16 3.602475529620026e-17 0.9990717795062689 0.04307643664446442
12649378666.666666 0.9995279775390316 0.030721688048361586 -1.4009192852410978e-16 3.776492460556376e-17 -1.4009192852410978e-16 3.776492460556376e-17 0.9995279560505224 0.030722387167535153
12649996000.0 0.9998313869455502 0.018362943074139815 -1.3958361639894538e-16 3.949856009775624e-17 -1.3958361639894538e-16 3.949856009775624e-17 0.9998313741019842 0.018363642371414624
12650613333.333334 0.9999819914866868 0.006001391682464094 -1.390538630560083e-16 4.1225395591046715e-17 -1.390538630560083e-16 4.1225395591046715e-17 0.9999819872891827 0.006002091050953913
12651230666.666666 0.9999797681455576 -0.006361076902864859 -1.3850275898031578e-16 4.2945166061499124e-17 -1.3850275898031578e-16 4.2945166061499124e-17 0.9999797725939129 -0.006360377570046689
12651848000.0 0.9998247172620593 -0.018722573318043657 -1.3793039793074328e-16 4.465760768365886e-17 -1.3793039793074328e-16 4.465760768365886e-17 0.9998247303547513 -0.018721874127767928
12652465333.333334 0.9995168625328212 -0.031081208347677924 -1.373368769242317e-16 4.636245787092346e-17 -1.373368769242317e-16 4.636245787092346e-17 0.9995168842670054 -0.031080509406783207
12653082666.666666 0.9990562510075824 -0.04343509321368282 -1.3672229621948579e-16 4.805945531574143e-17 -1.3672229621948579e-16 4.805945531574143e-17 0.999056281379094 -0.04343439462895914
12653700000.0 0.9984429530819917 -0.05578233986414493 -1.360867593001496e-16 4.974834002967079e-17 -1.360867593001496e-16 4.974834002967079e-17 0.9984429920853466 -0.05578164174231749
12654317333.333334 0.9976770624868696 -0.0681210612613917 -1.3543037285753496e-16 5.1428853383089436e-17 -1.3543037285753496e-16 5.1428853383089436e-17 0.9976771101152652 -0.06812036370910456
12654934666.666666 0.9967586962738643 -0.08044937167084303 -1.3475324677282575e-16 5.3100738144772656e-17 -1.3475324677282575e-16 5.3100738144772656e-17 0.9967587525191806 -0.08044867479464274
12655552000.0 0.9956879947975599 -0.09276538694912352 -1.3405549409879586e-16 5.476373852123421e-17 -1.3405549409879586e-16 5.476373852123421e-17 0.9956880596503611 -0.09276469085544306
12656169333.333334 0.9944651216940548 -0.1050672248317062 -1.3333723104106989e-16 5.641760019576047e-17 -1.3333723104106989e-16 5.641760019576047e-17 0.9944651951435898 -0.10506652962684841
12656786666.666666 0.9930902638559232 -0.11735300522091976 -1.3259857693887376e-16 5.806207036727315e-17 -1.3259857693887376e-16 5.806207036727315e-17 0.9930903458901285 -0.11735231101104132
12657404000.0 0.9915636314036597 -0.12962085047320013 -1.318396542453168e-16 5.969689778891914e-17 -1.318396542453168e-16 5.969689778891914e-17 0.9915637220091617 -0.1296201573642954
12658021333.333334 0.989885457653564 -0.14186888568605177 -1.310605885072007e-16 6.132183280639643e-17 -1.310605885072007e-16 6.132183280639643e-17 0.9898855568156808 -0.14186819378393664
12658638666.666666 0.9880559990821165 -0.15409523898436522 -1.3026150834437186e-16 6.293662739599323e-17 -1.3026150834437186e-16 6.293662739599323e-17 0.9880561067848592 -0.15409454839466055
12659256000.0 0.9860755352867155 -0.16629804180694688 -1.2944254542856074e-16 6.454103520244772e-17 -1.2944254542856074e-16 6.454103520244772e-17 0.9860756515127915 -0.16629735263506287
12659873333.333334 0.983944368942994 -0.1784754291917549 -1.2860383446180819e-16 6.613481157643138e-17 -1.2860383446180819e-16 6.613481157643138e-17 0.9839444936738105 -0.17847474154287474
12660490666.666666 0.9816628257585809 -0.1906255400608392 -1.2774551315441453e-16 6.771771361178703e-17 -1.2774551315441453e-16 6.771771361178703e-17 0.9816629589742464 -0.190624854039903
12661108000.0 0.9792312544232351 -0.2027465175052461 -1.2686772220239191e-16 6.928950018255416e-17 -1.2686772220239191e-16 6.928950018255416e-17 0.9792313961025646 -0.2027458332169352
12661725333.333334 0.9766500265556732 -0.21483650906819723 -1.2597060526453974e-16 7.08499319795635e-17 -1.2597060526453974e-16 7.08499319795635e-17 0.9766501766761898 -0.21483582661691786
12662342666.666666 0.9739195366466761 -0.22689366702870353 -1.2505430893899001e-16 7.239877154687947e-17 -1.2505430893899001e-16 7.239877154687947e-17 0.9739196951846136 -0.2268929865185706
12662960000.0 0.971040201998837 -0.23891614868372915 -1.2411898273935854e-16 7.393578331784803e-17 -1.2411898273935854e-16 7.393578331784803e-17 0.9710403689291478 -0.2389154702185515
12663577333.333334 0.9680124626628076 -0.25090211662976 -1.2316477907044197e-16 7.546073365085933e-17 -1.2316477907044197e-16 7.546073365085933e-17 0.9680126379591628 -0.25090144031302347
12664194666.666666 0.9648367813699943 -0.26284973904380754 -1.2219185320345991e-16 7.697339086482672e-17 -1.2219185320345991e-16 7.697339086482672e-17 0.9648369650047884 -0.26284906497865956
12664812000.0 0.9615136434618925 -0.2747571899631471 -1.2120036325088214e-16 7.84735252743119e-17 -1.2120036325088214e-16 7.84735252743119e-17 0.9615138354062494 -0.2747565182523808
12665429333.333334 0.9580435568158473 -0.28662264956462746 -1.2019047014081207e-16 7.996090922435289e-17 -1.2019047014081207e-16 7.996090922435289e-17 0.9580437570396243 -0.28662198031066677
12666046666.666666 0.9544270517675376 -0.29844430444244185 -1.1916233759096998e-16 8.143531712492173e-17 -1.1916233759096998e-16 8.143531712492173e-17 0.9544272602393283 -0.2984436377473246
12666664000.0 0.950664681029775 -0.31022034788576064 -1.1811613208219216e-16 8.289652548514084e-17 -1.1811613208219216e-16 8.289652548514084e-17 0.9506648977169168 -0.3102196838511242
12667281333.333334 0.9467570196081753 -0.32194898015439094 -1.1705202283160553e-16 8.434431294702584e-17 -1.1705202283160553e-16 8.434431294702584e-17 0.9467572444767516 -0.32194831888145536
12667898666.666666 0.9427046647132215 -0.33362840875402144 -1.1597018176529719e-16 8.577846031901556e-17 -1.1597018176529719e-16 8.577846031901556e-17 0.9427048977280704 -0.3336277503435758
12668516000.0 0.9385082356689355 -0.34525684871033246 -1.148707834906208e-16 8.719875060908574e-17 -1.148707834906208e-16 8.719875060908574e-17 0.9385084767936533 -0.3452561932627181
12669133333.333334 0.9341683738183378 -0.3568325228414716 -1.1375400526812282e-16 8.860496905748089e-17 -1.1375400526812282e-16 8.860496905748089e-17 0.9341686230152854 -0.3568318704565676
12669750666.666666 0.929685742425367 -0.36835366202985004 -1.1262002698299788e-16 8.999690316917812e-17 -1.1262002698299788e-16 8.999690316917812e-17 0.9296859996556743 -0.3683530128070575
12670368000.0 0.9250610265734781 -0.3798185054925969 -1.1146903111620608e-16 9.137434274591281e-17 -1.1146903111620608e-16 9.137434274591281e-17 0.9250612917970518 -0.379817859530824
