! Parameters = {f0=12700.012000; bw=77.238000; Q=6100.000000; N=10; m_0_1=1.291987; m_1_1=0.615059; m_1_2=1.126799; m_2_2=0.614410; m_2_3=0.763762; m_2_8=0.001663; m_2_9=0.038367; m_3_3=0.612473; m_3_4=0.652291; m_3_7=0.002263; m_3_8=-0.094825; m_3_9=0.001663; m_4_4=0.609548; m_4_5=0.488626; m_4_6=0.005780; m_4_7=-0.115374; m_4_8=0.002263; m_5_5=0.609930; m_5_6=0.895981; m_5_7=0.005780; m_6_6=0.609929; m_6_7=0.488968; m_7_7=0.609562; m_7_8=0.652409; m_8_8=0.612471; m_8_9=0.764075; m_9_9=0.614405; m_9_10=1.127877; m_10_10=0.615049; m_10_11=1.292782}
!
! Created with skrf (http://scikit-rf.org).
# Hz S RI R 50.0 
!freq ReS11 ImS11 ReS21 ImS21 ReS12 ImS12 ReS22 ImS22
12607400000.0 0.9987874926155677 0.04922950938741367 -1.190712626937703e-16 2.8982238459700705e-17 -1.190712626937703e-16 2.8982238459700705e-17 0.9987874591070348 0.049230189216886204
12608017333.333334 0.9992751785721681 0.0380672758334438 -1.1871408085220512e-16 3.0315371082812056e-17 -1.1871408085220512e-16 3.0315371082812056e-17 0.9992751526625314 0.03806795596156494
12608634666.666666 0.9996381217150397 0.026900290218601814 -1.1834198274687358e-16 3.164413686013342e-17 -1.1834198274687358e-16 3.164413686013342e-17 0.9996381034067896 0.02690097056044383
12609252000.0 0.9998762767368815 0.015729946554533088 -1.1795502140394737e-16 3.2968369004018216e-17 -1.1795502140394737e-16 3.2968369004018216e-17 0.999876266031559 0.0157306270251499
12609869333.333334 0.9999896139081067 0.004557639272049341 -1.1755325171331649e-16 3.42879013669638e-17 -1.1755325171331649e-16 3.42879013669638e-17 0.9999896108063029 0.004558319786487102
12610486666.666666 0.9999781190805498 -0.006615236952886013 -1.171367304209131e-16 3.560256846237967e-17 -1.171367304209131e-16 3.560256846237967e-17 0.9999781235819089 -0.006614556479578289
12611104000.0 0.9998417936892379 -0.017787287373401905 -1.1670551612077213e-16 3.6912205485370463e-17 -1.1670551612077213e-16 3.6912205485370463e-17 0.9998418057924532 -0.017786607026161767
12611721333.333334 0.9995806547522089 -0.028957117345517907 -1.16259669246903e-16 3.821664833328846e-17 -1.16259669246903e-16 3.821664833328846e-17 0.9995806744550254 -0.028956437209258844
12612338666.666666 0.9991947348683865 -0.040123332502583244 -1.157992520648883e-16 3.951573362632127e-17 -1.157992520648883e-16 3.951573362632127e-17 0.9991947621676001 -0.04012265266218408
12612956000.0 0.9986840822135038 -0.05128453892928315 -1.1532432866328107e-16 4.0809298727897135e-17 -1.1532432866328107e-16 4.0809298727897135e-17 0.998684117104964 -0.051283859469577496
12613573333.333334 0.9980487605341088 -0.06243934333533375 -1.1483496494477375e-16 4.209718176499186e-17 -1.1483496494477375e-16 4.209718176499186e-17 0.9980488030127169 -0.062438664341099376
12614190666.666666 0.9972888491395878 -0.07358635322975161 -1.1433122861711833e-16 4.3379221648392864e-17 -1.1433122861711833e-16 4.3379221648392864e-17 0.9972888991992994 -0.07358567478569997
12614808000.0 0.9964044428922703 -0.08472417709462643 -1.1381318918385083e-16 4.4655258092774463e-17 -1.1381318918385083e-16 4.4655258092774463e-17 0.9964045005260944 -0.08472349928539191
12615425333.333334 0.9953956521955947 -0.09585142455865835 -1.13280917934766e-16 4.5925131636731493e-17 -1.13280917934766e-16 4.5925131636731493e-17 0.9953957173955951 -0.0958507474687878
12616042666.666666 0.9942626029803103 -0.10696670657094942 -1.1273448793619153e-16 4.718868366264608e-17 -1.1273448793619153e-16 4.718868366264608e-17 0.9942626757376086 -0.10696603028489171
12616660000.0 0.9930054366887741 -0.11806863557420515 -1.1217397402101938e-16 4.844575641649078e-17 -1.1217397402101938e-16 4.844575641649078e-17 0.9930055169935483 -0.1180679601763005
12617277333.333334 0.9916243102572853 -0.12915582567806128 -1.115994527785372e-16 4.9696193027466594e-17 -1.115994527785372e-16 4.9696193027466594e-17 0.9916243980987726 -0.12915515125253074
12617894666.666666 0.9901193960964971 -0.14022689283203202 -1.1101100254402809e-16 5.093983752755343e-17 -1.1101100254402809e-16 5.093983752755343e-17 0.990119491462996 -0.1402262194629673
12618512000.0 0.9884908820698788 -0.1512804549984272 -1.104087033881504e-16 5.217653487094115e-17 -1.104087033881504e-16 5.217653487094115e-17 0.9884909849487484 -0.1512797827697796
12619129333.333334 0.9867389714703054 -0.1623151323245664 -1.0979263710612479e-16 5.3406130953289435e-17 -1.0979263710612479e-16 5.3406130953289435e-17 0.9867390818479683 -0.1623144613201367
12619746666.666666 0.9848638829946335 -0.17332954731536848 -1.0916288720667252e-16 5.4628472630932665e-17 -1.0916288720667252e-16 5.4628472630932665e-17 0.9848640008565782 -0.1733288776187966
12620364000.0 0.9828658507164019 -0.1843223250052516 -1.0851953890076053e-16 5.584340773991128e-17 -1.0851953890076053e-16 5.584340773991128e-17 0.9828659760471837 -0.1843216567000059
12620981333.333334 0.9807451240566686 -0.19529209312946724 -1.0786267909015165e-16 5.705078511484458e-17 -1.0786267909015165e-16 5.705078511484458e-17 0.980745256839912 -0.1952914262988342
12621598666.666666 0.9785019677528156 -0.2062374822957403 -1.0719239635570727e-16 5.825045460774024e-17 -1.0719239635570727e-16 5.825045460774024e-17 0.9785021079712174 -0.2062368170228144
12622216000.0 0.97613666182551 -0.21715712615515884 -1.0650878094550378e-16 5.944226710662383e-17 -1.0650878094550378e-16 5.944226710662383e-17 0.9761368094608397 -0.21715646252283186
12622833333.333334 0.9736495015437676 -0.2280496615726278 -1.0581192476274852e-16 6.062607455402156e-17 -1.0581192476274852e-16 6.062607455402156e-17 0.9736496565768713 -0.22804899966357878
12623450666.666666 0.9710407973881058 -0.2389137287970073 -1.051019213534747e-16 6.180172996532887e-17 -1.051019213534747e-16 6.180172996532887e-17 0.9710409597989066 -0.23891306869369172
12624068000.0 0.9683108750117295 -0.24974797163107545 -1.043788658940457e-16 6.296908744701509e-17 -1.043788658940457e-16 6.296908744701509e-17 0.9683110447792332 -0.24974731341571565
12624685333.333334 0.9654600751999208 -0.26055103760066134 -1.0364285517843529e-16 6.412800221471805e-17 -1.0364285517843529e-16 6.412800221471805e-17 0.9654602523022165 -0.26055038135523584
12625302666.666666 0.9624887538275094 -0.2713215781234233 -1.0289398760535707e-16 6.527833061111121e-17 -1.0289398760535707e-16 6.527833061111121e-17 0.962488938241773 -0.2713209239296569
12625920000.0 0.9593972818144006 -0.28205824867739027 -1.0213236316512127e-16 6.641993012374229e-17 -1.0213236316512127e-16 6.641993012374229e-17 0.9593974735168965 -0.2820575966167434
12626537333.333334 0.9561860450793125 -0.2927597089686375 -1.0135808342637472e-16 6.755265940258972e-17 -1.0135808342637472e-16 6.755265940258972e-17 0.9561862440453982 -0.2927590591222964
12627154666.666666 0.9528554444916113 -0.3034246230985726 -1.0057125152259204e-16 6.867637827755387e-17 -1.0057125152259204e-16 6.867637827755387e-17 0.9528556506957416 -0.30342397554743955
12627772000.0 0.9494058958211995 -0.3140516597309467 -9.977197213837106e-17 6.979094777579004e-17 -9.977197213837106e-17 6.979094777579004e-17 0.9494061092369259 -0.31405101455562917
12628389333.333334 0.9458378296867013 -0.32463949225774963 -9.896035149559738e-17 7.089623013879845e-17 -9.896035149559738e-17 7.089623013879845e-17 0.945838050286678 -0.3246388495385504
12629006666.666666 0.9421516915016367 -0.33518679896503045 -9.813649733933114e-17 7.199208883947758e-17 -9.813649733933114e-17 7.199208883947758e-17 0.9421519192576254 -0.3351861587819385
12629624000.0 0.9383479414188496 -0.34569226319781143 -9.73005189235915e-17 7.307838859889717e-17 -9.73005189235915e-17 7.307838859889717e-17 0.9383481763017214 -0.34569162563049155
12630241333.333334 0.9344270542730746 -0.3561545735244245 -9.645252699688788e-17 7.415499540299836e-17 -9.645252699688788e-17 7.415499540299836e-17 0.9344272962528111 -0.3561539386522059
12630858666.666666 0.9303895195216869 -0.3665724239001391 -9.559263378762516e-17 7.522177651904941e-17 -9.559263378762516e-17 7.522177651904941e-17 0.9303897685673906 -0.3665717918020084
12631476000.0 0.9262358411834699 -0.37694451383057576 -9.472095298925787e-17 7.62786005120232e-17 -9.472095298925787e-17 7.62786005120232e-17 0.9262360972633618 -0.37694388458516453
12632093333.333334 0.92196653777588 -0.38726954853354345 -9.383759974534755e-17 7.732533726069763e-17 -9.383759974534755e-17 7.732533726069763e-17 0.9219668008573078 -0.3872689222191202
12632710666.666666 0.9175821422502388 -0.39754623910091424 -9.294269063438e-17 7.836185797366208e-17 -9.294269063438e-17 7.836185797366208e-17 0.9175824122996775 -0.3975456157953733
12633328000.0 0.9130832019251139 -0.40777330265970135 -9.203634365440744e-17 7.938803520514501e-17 -9.203634365440744e-17 7.938803520514501e-17 0.9130834789081733 -0.40777268244055415
12633945333.333334 0.9084702784181217 -0.4179494625319179 -9.111867820757127e-17 8.040374287060245e-17 -9.111867820757127e-17 8.040374287060245e-17 0.9084705622995493 -0.41794884547628314
12634562666.666666 0.9037439475757855 -0.4280734483940274 -9.018981508438739e-17 8.140885626220361e-17 -9.018981508438739e-17 8.140885626220361e-17 0.9037442383194717 -0.4280728345786214
12635180000.0 0.8989047994016401 -0.4381439964355487 -8.924987644791135e-17 8.240325206407852e-17 -8.924987644791135e-17 8.240325206407852e-17 0.8989050969706215 -0.43814338593667573
12635797333.333334 0.8939534379825306 -0.4481598495169243 -8.829898581769487e-17 8.338680836743001e-17 -8.829898581769487e-17 8.338680836743001e-17 0.8939537423389948 -0.44815924241046695
12636414666.666666 0.8888904814133209 -0.4581197573261951 -8.733726805362286e-17 8.435940468541012e-17 -8.733726805362286e-17 8.435940468541012e-17 0.888890792518614 -0.45811915368760575
12637032000.0 0.8837165617196321 -0.46802247653531504 -8.636484933954015e-17 8.53209219678614e-17 -8.636484933954015e-17 8.53209219678614e-17 0.8837168795342596 -0.4680218764396051
12637649333.333334 0.8784323247789468 -0.4778667709553296 -8.538185716673976e-17 8.627124261584444e-17 -8.538185716673976e-17 8.627124261584444e-17 0.8784326492625812 -0.47786617447706103
12638266666.666666 0.8730384302400651 -0.4876514116905435 -8.438842031730518e-17 8.721025049596454e-17 -8.438842031730518e-17 8.721025049596454e-17 0.8730387613515516 -0.4876508189038204
12638884000.0 0.867535551440654 -0.4973751772921308 -8.338466884726036e-17 8.813783095454048e-17 -8.338466884726036e-17 8.813783095454048e-17 0.8675358891380122 -0.4973745882705876
12639501333.333334 0.8619243753232662 -0.5070368539104575 -8.237073406960231e-17 8.905387083154425e-17 -8.237073406960231e-17 8.905387083154425e-17 0.8619247195636999 -0.5070362687272528
12640118666.666666 0.8562056023496416 -0.5166352354465438 -8.134674853715897e-17 8.995825847436781e-17 -8.134674853715897e-17 8.995825847436781e-17 0.8562059530895404 -0.5166346541743491
12640736000.0 0.8503799464129824 -0.5261691237030846 -8.031284602527745e-17 9.08508837514086e-17 -8.031284602527745e-17 9.08508837514086e-17 0.8503803036079302 -0.5261685464140767
12641353333.333334 0.8444481347492924 -0.5356373285332715 -7.926916151444248e-17 9.173163806538907e-17 -7.926916151444248e-17 9.173163806538907e-17 0.8444484983540709 -0.535636755299123
12641970666.666666 0.8384109078461653 -0.5450386679900672 -7.821583117263214e-17 9.260041436657888e-17 -7.821583117263214e-17 9.260041436657888e-17 0.8384112778147615 -0.5450380988819377
12642588000.0 0.8322690193506173 -0.5543719684733159 -7.715299233763596e-17 9.345710716572216e-17 -7.715299233763596e-17 9.345710716572216e-17 0.832269395636227 -0.5543714035618422
12643205333.333334 0.8260232359748676 -0.5636360648764644 -7.608078349916716e-17 9.430161254681939e-17 -7.608078349916716e-17 9.430161254681939e-17 0.8260236185299034 -0.5636355042317529
12643822666.666666 0.81967433740069 -0.5728298007319093 -7.499934428085345e-17 9.513382817968784e-17 -7.499934428085345e-17 9.513382817968784e-17 0.8196747261767862 -0.572829244423527
12644440000.0 0.8132231161820328 -0.5819520283554331 -7.390881542211294e-17 9.595365333229961e-17 -7.390881542211294e-17 9.595365333229961e-17 0.8132235111300525 -0.5819514764523993
12645057333.333334 0.8066703776461827 -0.5910016089893354 -7.280933875986921e-17 9.676098888293412e-17 -7.280933875986921e-17 9.676098888293412e-17 0.8066707787162233 -0.5910010615601127
12645674666.666666 0.8000169397931849 -0.599977412944659 -7.170105721013403e-17 9.755573733212134e-17 -7.170105721013403e-17 9.755573733212134e-17 0.8000173469345839 -0.5999768700571444
12646292000.0 0.793263633193558 -0.6088783197424379 -7.058411474946503e-17 9.833780281436932e-17 -7.058411474946503e-17 9.833780281436932e-17 0.7932640463549006 -0.6088777814639553
12646909333.333334 0.7864113008849337 -0.6177032182531389 -6.945865639632837e-17 9.910709110965969e-17 -6.945865639632837e-17 9.910709110965969e-17 0.786411720014058 -0.6177026846504299
12647526666.666666 0.7794607982665981 -0.6264510068356635 -6.832482819227414e-17 9.986350965477336e-17 -6.832482819227414e-17 9.986350965477336e-17 0.7794612233106034 -0.6264504779748802
12648144000.0 0.7724129929926887 -0.63512059347489 -6.718277718303153e-17 1.006069675543712e-16 -6.718277718303153e-17 1.006069675543712e-16 0.7724134238979399 -0.635120069421585
12648761333.333334 0.7652687648639844 -0.6437108959178566 -6.603265139949293e-17 1.0133737559185453e-16 -6.603265139949293e-17 1.0133737559185453e-16 0.7652692015761227 -0.6437103767369785
12649378666.666666 0.7580290057181224 -0.6522208418088258 -6.487459983855833e-17 1.020546462400239e-16 -6.487459983855833e-17 1.020546462400239e-16 0.7580294481820654 -0.6522203275647054
12649996000.0 0.7506946193181333 -0.660649368823298 -6.370877244384632e-17 1.0275869367152984e-16 -6.370877244384632e-17 1.0275869367152984e-16 0.7506950674780887 -0.6606488595796456
12650613333.333334 0.7432665212396216 -0.6689954248006251 -6.253532008634553e-17 1.0344943376907137e-16 -6.253532008634553e-17 1.0344943376907137e-16 0.7432669750390916 -0.6689949206205208
12651230666.666666 0.7357456387566816 -0.6772579678751234 -6.135439454491528e-17 1.0412678413539975e-16 -6.135439454491528e-17 1.0412678413539975e-16 0.7357460981384685 -0.6772574688210075
12651848000.0 0.7281329107257952 -0.6854359666065087 -6.016614848668383e-17 1.0479066410309513e-16 -6.016614848668383e-17 1.0479066410309513e-16 0.7281333756320117 -0.6854354727401772
12652465333.333334 0.7204292874689423 -0.6935284001083226 -5.897073544735168e-17 1.0544099474411666e-16 -5.897073544735168e-17 1.0544099474411666e-16 0.720429757841016 -0.693527911490917
12653082666.666666 0.7126357306549111 -0.701534258175436 -5.776830981141254e-17 1.0607769887911567e-16 -5.776830981141254e-17 1.0607769887911567e-16 0.7126362064335936 -0.7015337748674367
12653700000.0 0.7047532131789924 -0.709452541410421 -5.655902679219684e-17 1.067007010865669e-16 -5.655902679219684e-17 1.067007010865669e-16 0.7047536943043655 -0.7094520634716397
12654317333.333334 0.6967827190419263 -0.7172822613479014 -5.534304241193529e-17 1.0730992771160952e-16 -5.534304241193529e-17 1.0730992771160952e-16 0.6967832054534115 -0.717281788837475
12654934666.666666 0.6887252432268104 -0.7250224405782139 -5.412051348162514e-17 1.0790530687471625e-16 -5.412051348162514e-17 1.0790530687471625e-16 0.6887257348631745 -0.7250219735545942
12655552000.0 0.6805817915748259 -0.7326721128694733 -5.2891597580833995e-17 1.0848676848011659e-16 -5.2891597580833995e-17 1.0848676848011659e-16 0.6805822883741899 -0.7326716513904231
12656169333.333334 0.672353380660006 -0.7402303232878805 -5.1656453037473123e-17 1.0905424422396313e-16 -5.1656453037473123e-17 1.0905424422396313e-16 0.6723538825598517 -0.7402298674104633
12656786666.666666 0.6640410376619602 -0.747696128317277 -5.041523890737846e-17 1.0960766760231772e-16 -5.041523890737846e-17 1.0960766760231772e-16 0.6640415445991394 -0.7476956780978526
12657404000.0 0.6556458002379203 -0.7550685959766804 -4.916811495390379e-17 1.1014697391886146e-16 -4.916811495390379e-17 1.1014697391886146e-16 0.6556463121486624 -0.7550681514708969
12658021333.333334 0.6471687163929949 -0.7623468059368137 -4.7915241627360024e-17 1.106721002924045e-16 -4.7915241627360024e-17 1.106721002924045e-16 0.6471692332129143 -0.7623463671995998
12658638666.666666 0.6386108443496205 -0.7695298496347515 -4.665678004444822e-17 1.1118298566413238e-16 -4.665678004444822e-17 1.1118298566413238e-16 0.6386113660137256 -0.7695294167203114
12659256000.0 0.6299732524150734 -0.7766168303876707 -4.5392891967517804e-17 1.1167957080465898e-16 -4.5392891967517804e-17 1.1167957080465898e-16 0.6299737788577734 -0.7766164033494759
12659873333.333334 0.6212570188484545 -0.7836068635044934 -4.412373978385897e-17 1.121617983208007e-16 -4.412373978385897e-17 1.121617983208007e-16 0.6212575500035692 -0.7836064423952764
12660490666.666666 0.6124632317260246 -0.7904990763963814 -4.2849486484863665e-17 1.1262961266214004e-16 -4.2849486484863665e-17 1.1262961266214004e-16 0.6124637675267919 -0.7904986612681304
12661108000.0 0.6035929888050862 -0.7972926086858961 -4.157029564508616e-17 1.1308296012736516e-16 -4.157029564508616e-17 1.1308296012736516e-16 0.6035935291841705 -0.797292199589847
12661725333.333334 0.5946473973873929 -0.8039866123140479 -4.028633140134638e-17 1.1352178887033047e-16 -4.028633140134638e-17 1.1352178887033047e-16 0.5946479422768938 -0.8039862093006787
12662342666.666666 0.5856275741806084 -0.8105802516464089 -3.8997758431642155e-17 1.139460489059287e-16 -3.8997758431642155e-17 1.139460489059287e-16 0.5856281235120689 -0.8105798547654336
12662960000.0 0.5765346451589468 -0.81707270357739 -3.7704741934103935e-17 1.1435569211568645e-16 -3.7704741934103935e-17 1.1435569211568645e-16 0.5765351988633631 -0.8170723128777531
12663577333.333334 0.5673697454227538 -0.8234631576328943 -3.6407447605820637e-17 1.1475067225314646e-16 -3.6407447605820637e-17 1.1475067225314646e-16 0.5673703034305821 -0.8234627731627632
12664194666.666666 0.5581340190566214 -0.8297508160716215 -3.510604162166579e-17 1.1513094494899175e-16 -3.510604162166579e-17 1.1513094494899175e-16 0.5581345812977868 -0.8297504378783798
12664812000.0 0.5488286189867544 -0.8359348939845208 -3.3800690613019096e-17 1.1549646771594628e-16 -3.3800690613019096e-17 1.1549646771594628e-16 0.5488291853906615 -0.8359345221147659
12665429333.333334 0.5394547068368349 -0.8420146193929192 -3.2491561646484395e-17 1.158471999534218e-16 -3.2491561646484395e-17 1.158471999534218e-16 0.539455277332376 -0.8420142538924551
12666046666.666666 0.5300134527833259 -0.8479892333446906 -3.117882220254761e-17 1.1618310295192725e-16 -3.117882220254761e-17 1.1618310295192725e-16 0.5300140272988881 -0.8479888742585201
12666664000.0 0.520506035408934 -0.8538579900092832 -2.9862640154137695e-17 1.165041398972513e-16 -2.9862640154137695e-17 1.165041398972513e-16 0.5205066138724104 -0.8538576373816048
12667281333.333334 0.5109336415559902 -0.859620156770509 -2.854318374526182e-17 1.168102758743719e-16 -2.854318374526182e-17 1.168102758743719e-16 0.5109342238947884 -0.859619810644711
12667898666.666666 0.5012974661779811 -0.8652750143181961 -2.722062156947306e-17 1.17101477871158e-16 -2.722062156947306e-17 1.17101477871158e-16 0.5012980523190318 -0.8652746747368513
12668516000.0 0.49159871219030177 -0.870821856738021 -2.589512254838785e-17 1.1737771478180513e-16 -2.589512254838785e-17 1.1737771478180513e-16 0.49159930206006824 -0.8708215237428809
12669133333.333334 0.48183859032046056 -0.8762599915994169 -2.4566855910147505e-17 1.176389574100358e-16 -2.4566855910147505e-17 1.176389574100358e-16 0.48183918384494684 -0.8762596652314052
12669750666.666666 0.4720183189566205 -0.8815887400421953 -2.3235991167839025e-17 1.1788517847205764e-16 -2.3235991167839025e-17 1.1788517847205764e-16 0.4720189160613828 -0.8815884203414064
12670368000.0 0.46213912399552703 -0.8868074368612763 -2.1902698097881526e-17 1.1811635259927953e-16 -2.1902698097881526e-17 1.1811635259927953e-16 0.4621397246056815 -0.8868071238669677
