! Parameters = {f0=12700.012000; bw=77.238000; Q=6100.000000; N=10; m_0_1=1.269164; m_1_1=0.272717; m_1_2=1.103976; m_2_2=0.272068; m_2_3=0.740939; m_2_8=0.000522; m_2_9=0.037226; m_3_3=0.270131; m_3_4=0.629468; m_3_7=0.001122; m_3_8=-0.095966; m_3_9=0.000522; m_4_4=0.267206; m_4_5=0.465803; m_4_6=0.004639; m_4_7=-0.116515; m_4_8=0.001122; m_5_5=0.267588; m_5_6=0.873158; m_5_7=0.004639; m_6_6=0.267587; m_6_7=0.466145; m_7_7=0.267220; m_7_8=0.629586; m_8_8=0.270129; m_8_9=0.741252; m_9_9=0.272063; m_9_10=1.105054; m_10_10=0.272707; m_10_11=1.269959}
!
! Created with skrf (http://scikit-rf.org).
# Hz S RI R 50.0 
!freq ReS11 ImS11 ReS21 ImS21 ReS12 ImS12 ReS22 ImS22
12607400000.0 0.2953381004018611 0.955392802176594 -6.1092981571967e-17 -9.167604677107592e-17 -6.1092981571967e-17 -9.167604677107592e-17 0.2953374615567306 0.9553929996608986
12608017333.333334 0.3053515818650106 0.9522396817253311 -6.204795391245426e-17 -9.100630907213452e-17 -6.204795391245426e-17 -9.100630907213452e-17 0.30535094515945893 0.9522398858953811
12608634666.666666 0.31533140992345043 0.9489816130544964 -6.299559739458607e-17 -9.032663286801065e-17 -6.299559739458607e-17 -9.032663286801065e-17 0.315330775427437 0.9489818238871355
12609252000.0 0.32527648468054576 0.9456189552423804 -6.393580868654196e-17 -8.963709822195768e-17 -6.393580868654196e-17 -8.963709822195768e-17 0.3252758524637802 0.9456191727137222
12609869333.333334 0.3351857100700288 0.9421520788942067 -6.486848532976174e-17 -8.893778627050703e-17 -6.486848532976174e-17 -8.893778627050703e-17 0.3351850802019621 0.9421523029796336
12610486666.666666 0.34505799397644704 0.9385813661014022 -6.579352575004979e-17 -8.822877921398263e-17 -6.579352575004979e-17 -8.822877921398263e-17 0.34505736652626523 0.9385815967755718
12611104000.0 0.3548922483560123 0.9349072103993205 -6.671082926865263e-17 -8.751016030684096e-17 -6.671082926865263e-17 -8.751016030684096e-17 0.3548916233926275 0.9349074476361653
12611721333.333334 0.3646873893560589 0.9311300167240272 -6.762029611314578e-17 -8.678201384796392e-17 -6.762029611314578e-17 -8.678201384796392e-17 0.36468676694810276 0.9311302604967596
12612338666.666666 0.3744423374346864 0.9272502013676096 -6.852182742827342e-17 -8.604442517079205e-17 -6.852182742827342e-17 -8.604442517079205e-17 0.3744417176505027 0.9272504516487257
12612956000.0 0.3841560174799223 0.9232681919322195 -6.941532528668139e-17 -8.52974806333459e-17 -6.941532528668139e-17 -8.52974806333459e-17 0.3841554003875581 0.9232684486934984
12613573333.333334 0.3938273589277627 0.9191844272831252 -7.030069269948356e-17 -8.454126760818357e-17 -7.030069269948356e-17 -8.454126760818357e-17 0.3938267445949622 0.9191846904956361
12614190666.666666 0.4034552958806367 0.9149993575001527 -7.117783362680136e-17 -8.37758744721814e-17 -7.117783362680136e-17 -8.37758744721814e-17 0.40345468437483323 0.9149996271342562
12614808000.0 0.41303876722453864 0.910713443828221 -7.204665298813224e-17 -8.30013905962556e-17 -7.204665298813224e-17 -8.30013905962556e-17 0.41303815861284743 0.9107137198535731
12615425333.333334 0.4225767167461848 0.9063271586264191 -7.290705667262154e-17 -8.221790633496496e-17 -7.290705667262154e-17 -8.221790633496496e-17 0.4225761110953961 0.9063274410119754
12616042666.666666 0.4320680932493438 0.9018409853159819 -7.375895154924295e-17 -8.142551301598913e-17 -7.375895154924295e-17 -8.142551301598913e-17 0.432067490625914 0.9018412740299979
12616660000.0 0.44151185067061116 0.8972554183270425 -7.460224547682947e-17 -8.06243029295324e-17 -7.460224547682947e-17 -8.06243029295324e-17 0.4415112511406574 0.8972557133370815
12617277333.333334 0.45090694819490634 0.8925709630440484 -7.543684731402757e-17 -7.98143693175911e-17 -7.543684731402757e-17 -7.98143693175911e-17 0.45090635182419814 0.8925712643169825
12617894666.666666 0.4602523503698495 0.8877881357502214 -7.626266692909823e-17 -7.899580636315195e-17 -7.626266692909823e-17 -7.899580636315195e-17 0.4602517572238014 0.887788443252235
12618512000.0 0.46954702722036307 0.8829074635704146 -7.707961520963708e-17 -7.816870917925501e-17 -7.707961520963708e-17 -7.816870917925501e-17 0.4695464373640286 0.8829077772670102
12619129333.333334 0.4787899543616327 0.8779294844133041 -7.788760407214368e-17 -7.733317379798947e-17 -7.788760407214368e-17 -7.733317379798947e-17 0.47878936785969567 0.8779298042693034
12619746666.666666 0.4879801131124332 0.8728547469118795 -7.86865464714914e-17 -7.648929715937112e-17 -7.86865464714914e-17 -7.648929715937112e-17 0.48797953002920186 0.8728550728914298
12620364000.0 0.49711649060732344 0.8676838103630159 -7.947635641028768e-17 -7.563717710011078e-17 -7.947635641028768e-17 -7.563717710011078e-17 0.4971159110067233 0.8676841424295939
12620981333.333334 0.50619807990798 0.8624172446660019 -8.025694894807303e-17 -7.477691234233001e-17 -8.025694894807303e-17 -7.477691234233001e-17 0.5061975038535457 0.862417582782415
12621598666.666666 0.5152238801145922 0.857055630259488 -8.102824021043829e-17 -7.390860248213859e-17 -8.102824021043829e-17 -7.390860248213859e-17 0.5152233076694622 0.8570559743878827
12622216000.0 0.5241928964758557 0.8515995580577046 -8.17901473980083e-17 -7.303234797813037e-17 -8.17901473980083e-17 -7.303234797813037e-17 0.5241923277027639 0.8515999081595669
12622833333.333334 0.5331041404988472 0.846049629385186 -8.25425887952848e-17 -7.214825013980478e-17 -8.25425887952848e-17 -7.214825013980478e-17 0.5331035754601171 0.8460499854213482
12623450666.666666 0.5419566300576806 0.8404064559106789 -8.328548377938563e-17 -7.125641111587526e-17 -8.328548377938563e-17 -7.125641111587526e-17 0.541956068815218 0.8404068178413233
12624068000.0 0.5507493895020608 0.8346706595795327 -8.40187528286434e-17 -7.0356933882504e-17 -8.40187528286434e-17 -7.0356933882504e-17 0.550748832117347 0.8346710273641961
12624685333.333334 0.5594814497646431 0.8288428725452596 -8.474231753109955e-17 -6.944992223142253e-17 -8.474231753109955e-17 -6.944992223142253e-17 0.5594808962987289 0.8288432461428371
12625302666.666666 0.5681518484677675 0.8229237370999108 -8.545610059282915e-17 -6.853548075801609e-17 -8.545610059282915e-17 -6.853548075801609e-17 0.5681512989812644 0.8229241164686606
12625920000.0 0.576759630029804 0.8169139056030977 -8.616002584618642e-17 -6.761371484926218e-17 -8.616002584618642e-17 -6.761371484926218e-17 0.5767590845828807 0.8169142907006474
12626537333.333334 0.5853038457700969 0.8108140404103515 -8.685401825788396e-17 -6.668473067163158e-17 -8.685401825788396e-17 -6.668473067163158e-17 0.5853033044224695 0.8108144311936997
12627154666.666666 0.5937835540137062 0.8046248137999951 -8.753800393695166e-17 -6.57486351588946e-17 -8.753800393695166e-17 -6.57486351588946e-17 0.5937830168246343 0.804625210225519
12627772000.0 0.6021978201953769 0.7983469078989165 -8.821191014259181e-17 -6.480553599980829e-17 -8.821191014259181e-17 -6.480553599980829e-17 0.6021972872236556 0.7983473099223758
12628389333.333334 0.6105457169621712 0.7919810146076572 -8.887566529184774e-17 -6.385554162579972e-17 -8.887566529184774e-17 -6.385554162579972e-17 0.6105451882661248 0.7919814221841989
12629006666.666666 0.6188263242759463 0.7855278355239531 -8.952919896719193e-17 -6.289876119849714e-17 -8.952919896719193e-17 -6.289876119849714e-17 0.6188257999134235 0.7855282486081173
12629624000.0 0.6270387295146652 0.7789880818654793 -9.017244192395078e-17 -6.193530459722807e-17 -9.017244192395078e-17 -6.193530459722807e-17 0.6270382095430305 0.7789885004112034
12630241333.333334 0.6351820275729332 0.7723624743915014 -9.080532609760852e-17 -6.096528240642073e-17 -9.080532609760852e-17 -6.096528240642073e-17 0.6351815120490609 0.7723628983521239
12630858666.666666 0.6432553209617731 0.7656517433234198 -9.142778461095591e-17 -5.998880590296286e-17 -9.142778461095591e-17 -5.998880590296286e-17 0.6432548099420426 0.7656521726516883
12631476000.0 0.6512577199077149 0.7588566282641463 -9.203975178114861e-17 -5.900598704341759e-17 -9.203975178114861e-17 -5.900598704341759e-17 0.6512572134480046 0.7588570629122221
12632093333.333334 0.6591883424505117 0.751977878116885 -9.26411631265641e-17 -5.801693845127015e-17 -9.26411631265641e-17 -5.801693845127015e-17 0.6591878406061904 0.7519783180363462
12632710666.666666 0.6670463145406222 0.7450162510023512 -9.323195537357897e-17 -5.702177340401289e-17 -9.323195537357897e-17 -5.702177340401289e-17 0.6670458173665457 0.7450166961442013
12633328000.0 0.6748307701354794 0.737972514175278 -9.38120664631802e-17 -5.602060582020685e-17 -9.38120664631802e-17 -5.602060582020685e-17 0.674830277685983 0.7379729644899486
12633945333.333334 0.682540851294914 0.7308474439398689 -9.438143555744021e-17 -5.501355024647416e-17 -9.438143555744021e-17 -5.501355024647416e-17 0.6825403636238072 0.7308478993772269
12634562666.666666 0.6901757082756482 0.7236418255642999 -9.494000304585799e-17 -5.400072184441428e-17 -9.494000304585799e-17 -5.400072184441428e-17 0.6901752254362087 0.723642286073653
12635180000.0 0.6977344996250746 0.7163564531940589 -9.548771055155174e-17 -5.298223637747272e-17 -9.548771055155174e-17 -5.298223637747272e-17 0.6977340216700423 0.71635691872416
12635797333.333334 0.705216392273949 0.7089921297644572 -9.60245009373289e-17 -5.195821019771509e-17 -9.60245009373289e-17 -5.195821019771509e-17 0.7052159192555206 0.7089926002635111
12636414666.666666 0.7126205616280654 0.7015496669122774 -9.65503183115848e-17 -5.092876023259454e-17 -9.65503183115848e-17 -5.092876023259454e-17 0.7126200935978879 0.7015501423279464
12637032000.0 0.7199461916593962 0.6940298848860597 -9.706510803409699e-17 -4.9894003971592004e-17 -9.706510803409699e-17 -4.9894003971592004e-17 0.7199457286685629 0.6940303651654701
12637649333.333334 0.7271924749957916 0.6864336124559463 -9.75688167216469e-17 -4.885405945285301e-17 -9.75688167216469e-17 -4.885405945285301e-17 0.7271920170948347 0.6864340975456928
12638266666.666666 0.7343586130101358 0.6787616868221527 -9.806139225350687e-17 -4.7809045249754996e-17 -9.806139225350687e-17 -4.7809045249754996e-17 0.7343581602490218 0.6787621766683053
12638884000.0 0.7414438159082116 0.6710149535228667 -9.854278377679567e-17 -4.6759080457394816e-17 -9.854278377679567e-17 -4.6759080457394816e-17 0.7414433683363353 0.6710154480709764
12639501333.333334 0.7484473028159163 0.6631942663408695 -9.901294171167062e-17 -4.570428467906194e-17 -9.901294171167062e-17 -4.570428467906194e-17 0.748446860482097 0.663194765535975
12640118666.666666 0.7553683018650608 0.655300487209738 -9.947181775638661e-17 -4.464477801263804e-17 -9.947181775638661e-17 -4.464477801263804e-17 0.7553678648175337 0.65530099099637
12640736000.0 0.7622060502788854 0.647334486118333 -9.991936489222366e-17 -4.35806810369119e-17 -9.991936489222366e-17 -4.35806810369119e-17 0.7622056185653006 0.6473349944405228
12641353333.333334 0.7689597944555338 0.6392971410156058 -1.0035553738822044e-16 -4.251211479795979e-17 -1.0035553738822044e-16 -4.251211479795979e-17 0.7689593681229482 0.6392976538168903
12641970666.666666 0.7756287900516279 0.6311893377132348 -1.0078029080582858e-16 -4.143920079532227e-17 -1.0078029080582858e-16 -4.143920079532227e-17 0.7756283691465002 0.631189854936662
12642588000.0 0.7822123020640602 0.6230119697882763 -1.0119358200336465e-16 -4.036206096826662e-17 -1.0119358200336465e-16 -4.036206096826662e-17 0.7822118866322466 0.6230124913764129
12643205333.333334 0.7887096049109681 0.6147659384847293 -1.0159536914034639e-16 -3.928081768193116e-17 -1.0159536914034639e-16 -3.928081768193116e-17 0.7887091949977175 0.6147664643796666
12643822666.666666 0.7951199825118953 0.6064521526139617 -1.0198561168167261e-16 -3.8195593713447145e-17 -1.0198561168167261e-16 -3.8195593713447145e-17 0.795119578161845 0.6064526827573227
12644440000.0 0.8014427283664852 0.5980715284548398 -1.0236427040164604e-16 -3.7106512238046225e-17 -1.0236427040164604e-16 -3.7106512238046225e-17 0.8014423296236539 0.5980720627877844
12645057333.333334 0.807677145632502 0.5896249896525414 -1.0273130738786514e-16 -3.601369681508224e-17 -1.0273130738786514e-16 -3.601369681508224e-17 0.8076767525402851 0.5896255281157725
12645674666.666666 0.8138225472024931 0.5811134671169391 -1.0308668604495038e-16 -3.4917271374062035e-17 -1.0308668604495038e-16 -3.4917271374062035e-17 0.8138221598036617 0.5811140096507124
12646292000.0 0.8198782557797729 0.5725378989196632 -1.0343037109814458e-16 -3.3817360200572934e-17 -1.0343037109814458e-16 -3.3817360200572934e-17 0.8198778741164638 0.5725384454637895
12646909333.333334 0.8258436039527126 0.5638992301911924 -1.0376232859672859e-16 -3.271408792228145e-17 -1.0376232859672859e-16 -3.271408792228145e-17 0.8258432280664287 0.5638997806850484
12647526666.666666 0.831717934268586 0.5551984130163028 -1.0408252591732458e-16 -3.160757949478758e-17 -1.0408252591732458e-16 -3.160757949478758e-17 0.8317175642001877 0.5551989673988341
12648144000.0 0.837500599305953 0.5464364063292224 -1.0439093176702788e-16 -3.0497960187509384e-17 -1.0439093176702788e-16 -3.0497960187509384e-17 0.8375002350956564 0.5464369645389529
12648761333.333334 0.8431909617459075 0.5376141758081137 -1.0468751618638772e-16 -2.9385355569547145e-17 -1.0468751618638772e-16 -2.9385355569547145e-17 0.8431906034332796 0.5376147377831515
12649378666.666666 0.8487883944424274 0.5287326937684783 -1.0497225055224932e-16 -2.8269891495478096e-17 -1.0497225055224932e-16 -2.8269891495478096e-17 0.8487880420663814 0.5287332594465229
12649996000.0 0.854292280491448 0.5197929390560687 -1.0524510758043591e-16 -2.7151694091153965e-17 -1.0524510758043591e-16 -2.7151694091153965e-17 0.854291934090238 0.519793508374417
12650613333.333334 0.8597020132989251 0.5107958969388849 -1.0550606132828707e-16 -2.603088973945026e-17 -1.0550606132828707e-16 -2.603088973945026e-17 0.859701672910144 0.5107964698344392
12651230666.666666 0.8650169966475115 0.5017425589988784 -1.0575508719703207e-16 -2.49076050660429e-17 -1.0575508719703207e-16 -2.49076050660429e-17 0.8650166623080858 0.5017431354081526
12651848000.0 0.8702366447625199 0.49263392302225506 -1.0599216193403374e-16 -2.3781966925076448e-17 -1.0599216193403374e-16 -2.3781966925076448e-17 0.8702363165087048 0.4926345028813816
12652465333.333334 0.8753603823762984 0.4834709928897954 -1.0621726363485923e-16 -2.2654102384899194e-17 -1.0621726363485923e-16 -2.2654102384899194e-17 0.8753600602436772 0.48347157613453423
12653082666.666666 0.8803876447916051 0.474254778466297 -1.0643037174520674e-16 -2.1524138713753213e-17 -1.0643037174520674e-16 -2.1524138713753213e-17 0.88038732881508 0.4742553650320397
12653700000.0 0.885317877944066 0.46498629548884707 -1.0663146706269087e-16 -2.0392203365386657e-17 -1.0663146706269087e-16 -2.0392203365386657e-17 0.8853175681578599 0.4649868853106264
12654317333.333334 0.8901505384629493 0.45566656545542833 -1.0682053173845428e-16 -1.925842396476935e-17 -1.0682053173845428e-16 -1.925842396476935e-17 0.8901502349005993 0.4556671584679246
12654934666.666666 0.894885093731291 0.44629661551188654 -1.069975492786483e-16 -1.8122928293676302e-17 -1.069975492786483e-16 -1.8122928293676302e-17 0.8948847964256434 0.44629721164943426
12655552000.0 0.8995210219444834 0.43687747833892493 -1.0716250454574976e-16 -1.6985844276319968e-17 -1.0716250454574976e-16 -1.6985844276319968e-17 0.8995207309276934 0.436878077535521
12656169333.333334 0.9040578121677799 0.4274101920383192 -1.0731538375972281e-16 -1.5847299964999795e-17 -1.0731538375972281e-16 -1.5847299964999795e-17 0.9040575274713064 0.42741079422763
12656786666.666666 0.908494964392627 0.417895800018454 -1.0745617449903954e-16 -1.4707423525657472e-17 -1.0745617449903954e-16 -1.4707423525657472e-17 0.9084946860472288 0.4178964051338224
12657404000.0 0.912831989591799 0.4083353508792768 -1.0758486570153895e-16 -1.3566343223498476e-17 -1.0758486570153895e-16 -1.3566343223498476e-17 0.9128317176275318 0.4083359588537294
12658021333.333334 0.9170684097732765 0.39872989829675215 -1.0770144766513436e-16 -1.2424187408586513e-17 -1.0770144766513436e-16 -1.2424187408586513e-17 0.9170681442194902 0.3987305090630076
12658638666.666666 0.9212037580328392 0.3890805009069446 -1.0780591204837185e-16 -1.1281084501425205e-17 -1.0780591204837185e-16 -1.1281084501425205e-17 0.9212034989181743 0.3890811143974199
12659256000.0 0.9252375786057171 0.37938822218890084 -1.0789825187083369e-16 -1.0137162978537232e-17 -1.0789825187083369e-16 -1.0137162978537232e-17 0.9252373259581017 0.3793888383357195
12659873333.333334 0.9291694269166278 0.3696541303478842 -1.0797846151338917e-16 -8.992551358052125e-18 -1.0797846151338917e-16 -8.992551358052125e-18 0.9291691807632746 0.3696547490828838
12660490666.666666 0.9329988696288672 0.3598792981974385 -1.0804653671829179e-16 -7.847378185316566e-18 -1.0804653671829179e-16 -7.847378185316566e-18 0.9329986299962711 0.3598799194521783
12661108000.0 0.9367254846920856 0.35006480304109683 -1.0810247458912824e-16 -6.7017720184303644e-18 -1.0810247458912824e-16 -6.7017720184303644e-18 0.9367252516060197 0.35006542674686447
12661725333.333334 0.9403488613887415 0.34021172655380844 -1.081462735906093e-16 -5.5558614138911986e-18 -1.081462735906093e-16 -5.5558614138911986e-18 0.9403486348742542 0.3402123526416282
12662342666.666666 0.9438686003793972 0.3303211546626457 -1.0817793354821159e-16 -4.409774912168221e-18 -1.0817793354821159e-16 -4.409774912168221e-18 0.943868380460812 0.33032178306328663
12662960000.0 0.9472843137467534 0.3203941774270698 -1.0819745564766764e-16 -3.2636410233016216e-18 -1.0819745564766764e-16 -3.2636410233016216e-18 0.9472841004476632 0.3203948080710523
12663577333.333334 0.9505956250383776 0.31043188891884427 -1.0820484243430103e-16 -2.1175882125387996e-18 -1.0820484243430103e-16 -2.1175882125387996e-18 0.950595418381645 0.31043252173644875
12664194666.666666 0.953802169308172 0.30043538710153805 -1.0820009781221201e-16 -9.71744885938156e-19 -1.0820009781221201e-16 -9.71744885938156e-19 0.9538019693159234 0.3004360220228117
12664812000.0 0.9569035931566531 0.29040577370932646 -1.0818322704330995e-16 1.7376062398413612e-19 -1.0818322704330995e-16 1.7376062398413612e-19 0.9569033998502794 0.29040641066409173
12665429333.333334 0.9598995547698408 0.28034415412575675 -1.0815423674619444e-16 1.318800072596601e-18 -1.0815423674619444e-16 1.318800072596601e-18 0.9598993681699948 0.2803447930436191
12666046666.666666 0.96278972395696 0.2702516372618415 -1.0811313489488512e-16 2.4632453174917994e-18 -1.0811313489488512e-16 2.4632453174917994e-18 0.9627895440835517 0.2702522780721963
12666664000.0 0.9655737821868489 0.26012933543375916 -1.0805993081739912e-16 3.6069683328116764e-18 -1.0805993081739912e-16 3.6069683328116764e-18 0.9655736090590459 0.26012997806580057
12667281333.333334 0.9682514226230212 0.2499783642404291 -1.0799463519417933e-16 4.7498412235235764e-18 -1.0799463519417933e-16 4.7498412235235764e-18 0.9682512562592461 0.24997900862315714
12667898666.666666 0.970822350157502 0.23979984244050456 -1.0791726005636966e-16 5.891736239719018e-18 -1.0791726005636966e-16 5.891736239719018e-18 0.9708221905754293 0.2398004885027333
12668516000.0 0.973286281443395 0.22959489182887838 -1.0782781878394047e-16 7.03252579085991e-18 -1.0782781878394047e-16 7.03252579085991e-18 0.9732861286599518 0.22959553949924408
12669133333.333334 0.9756429449260318 0.21936463711337914 -1.0772632610366515e-16 8.172082460004513e-18 -1.0772632610366515e-16 8.172082460004513e-18 0.9756427989573933 0.21936528632034746
12669750666.666666 0.9778920808729509 0.20911020579062253 -1.0761279808694449e-16 9.310279018020629e-18 -1.0761279808694449e-16 9.310279018020629e-18 0.9778919417345386 0.20911085646249666
12670368000.0 0.9800334414025315 0.19883272802166213 -1.0748725214748062e-16 1.0446988437778262e-17 -1.0748725214748062e-16 1.0446988437778262e-17 0.9800333091090152 0.19883338008659124
