! Parameters = {f0=12700.012000; bw=77.238000; Q=6100.000000; N=10; m_0_1=1.278173; m_1_1=0.407852; m_1_2=1.112985; m_2_2=0.407203; m_2_3=0.749948; m_2_8=0.000972; m_2_9=0.037676; m_3_3=0.405266; m_3_4=0.638477; m_3_7=0.001572; m_3_8=-0.095516; m_3_9=0.000972; m_4_4=0.402341; m_4_5=0.474812; m_4_6=0.005089; m_4_7=-0.116065; m_4_8=0.001572; m_5_5=0.402723; m_5_6=0.882167; m_5_7=0.005089; m_6_6=0.402722; m_6_7=0.475154; m_7_7=0.402355; m_7_8=0.638595; m_8_8=0.405264; m_8_9=0.750261; m_9_9=0.407198; m_9_10=1.114063; m_10_10=0.407842; m_10_11=1.278968}
!
! Created with skrf (http://scikit-rf.org).
# Hz S RI R 50.0 
!freq ReS11 ImS11 ReS21 ImS21 ReS12 ImS12 ReS22 ImS22
12607400000.0 -0.5147376463696861 0.857347744739331 2.873392469577054e-17 -1.1128035772498433e-16 2.873392469577054e-17 -1.1128035772498433e-16 -0.5147382237097862 0.8573473981134576
12608017333.333334 -0.5054790243141152 0.8628388934084229 2.7519111933142295e-17 -1.115638028514252e-16 2.7519111933142295e-17 -1.115638028514252e-16 -0.5054796053235233 0.862838553033994
12608634666.666666 -0.49616182998190966 0.868230060795423 2.6301533209348458e-17 -1.1183399502115218e-16 2.6301533209348458e-17 -1.1183399502115218e-16 -0.4961624145929458 0.868229726711266
12609252000.0 -0.4867871430011538 0.8735206221999551 2.508133301221394e-17 -1.120909076014503e-16 2.508133301221394e-17 -1.120909076014503e-16 -0.4867877311457265 0.8735202944441631
12609869333.333334 -0.47735604966175416 0.878709964579409 2.3858656081692066e-17 -1.123345155338279e-16 2.3858656081692066e-17 -1.123345155338279e-16 -0.4773566412713702 0.8787096431893403
12610486666.666666 -0.4678696427898921 0.8837974866198026 2.263364739271475e-17 -1.1256479533635385e-16 2.263364739271475e-17 -1.1256479533635385e-16 -0.4678702377956626 0.8837971716320726
12611104000.0 -0.45832902162091593 0.8887825988057118 2.1406452138021184e-17 -1.127817251058049e-16 2.1406452138021184e-17 -1.127817251058049e-16 -0.4583296199535661 0.8887822902561916
12611721333.333334 -0.4487352916724946 0.8936647234883021 2.0177215710997075e-17 -1.1298528451962463e-16 2.0177215710997075e-17 -1.1298528451962463e-16 -0.4487358932623696 0.8936644214121116
12612338666.666666 -0.43908956461618925 0.8984432949524348 1.8946083688470832e-17 -1.131754548376974e-16 1.8946083688470832e-17 -1.131754548376974e-16 -0.439090169393265 0.8984429993839423
12612956000.0 -0.42939295814856104 0.9031177594822561 1.771320181347583e-17 -1.1335221890393985e-16 1.771320181347583e-17 -1.1335221890393985e-16 -0.4293935660424509 0.9031174704550726
12613573333.333334 -0.41964659586206665 0.9076875754251573 1.6478715978077035e-17 -1.135155611476925e-16 1.6478715978077035e-17 -1.135155611476925e-16 -0.4196472068020292 0.9076872929721315
12614190666.666666 -0.4098516071144016 0.9121522132547628 1.524277220609341e-17 -1.1366546758493876e-16 1.524277220609341e-17 -1.1366546758493876e-16 -0.40985222102935 0.9121519374079793
12614808000.0 -0.40000912689797097 0.9165111556321308 1.4005516635859937e-17 -1.1380192581932964e-16 1.4005516635859937e-17 -1.1380192581932964e-16 -0.40000974371647957 0.9165108864229041
12615425333.333334 -0.39012029570813733 0.9207638974658032 1.276709550299573e-17 -1.1392492504301837e-16 1.276709550299573e-17 -1.1392492504301837e-16 -0.39012091535845217 0.9207636349246772
12616042666.666666 -0.3801862594112506 0.9249099459702564 1.152765512312236e-17 -1.1403445603731525e-16 1.152765512312236e-17 -1.1403445603731525e-16 -0.3801868818212961 0.924909690126999
12616660000.0 -0.37020816911179205 0.9289488207230346 1.0287341874631156e-17 -1.141305111731475e-16 1.0287341874631156e-17 -1.141305111731475e-16 -0.37020879420917996 0.9289485716066345
12617277333.333334 -0.36018718101888375 0.9328800537204616 9.046302181394867e-18 -1.1421308441133865e-16 9.046302181394867e-18 -1.1421308441133865e-16 -0.3601878087309218 0.9328798113591258
12617894666.666666 -0.3501244563126322 0.9367031894317456 7.804682495552055e-18 -1.142821713026936e-16 7.804682495552055e-18 -1.142821713026936e-16 -0.3501250865663321 0.9367029538528955
12618512000.0 -0.34002116100907187 0.9404177848519587 6.562629280191028e-18 -1.1433776898790473e-16 6.562629280191028e-18 -1.1433776898790473e-16 -0.3400217937311578 0.9404175560822263
12619129333.333334 -0.3298784658256102 0.9440234095531544 5.320288992169187e-18 -1.1437987619726203e-16 5.320288992169187e-18 -1.1437987619726203e-16 -0.3298791009425281 0.944023187618382
12619746666.666666 -0.3196975460450287 0.9475196457343817 4.077808064829342e-18 -1.1440849325018315e-16 4.077808064829342e-18 -1.1440849325018315e-16 -0.3196981834829534 0.9475194306596151
12620364000.0 -0.3094795813792117 0.9509060882701137 2.8353328907580688e-18 -1.1442362205455377e-16 2.8353328907580688e-18 -1.1442362205455377e-16 -0.3094802210640571 0.9509058800796025
12620981333.333334 -0.29922575583288075 0.9541823447570507 1.5930098046173835e-18 -1.1442526610588025e-16 1.5930098046173835e-18 -1.1442526610588025e-16 -0.2992263976903072 0.9541821434742445
12621598666.666666 -0.2889372575659121 0.9573480355597503 3.5098506587938736e-19 -1.144134304862582e-16 3.5098506587938736e-19 -1.144134304862582e-16 -0.2889379015213353 0.9573478412072952
12622216000.0 -0.2786152787560095 0.9604027938545019 -8.90595158322669e-19 -1.1438812186315263e-16 -8.90595158322669e-19 -1.1438812186315263e-16 -0.2786159247346102 0.9604026064542408
12622833333.333334 -0.26826101546029185 0.9633462656719218 -2.131584810400525e-18 -1.1434934848799254e-16 -2.131584810400525e-18 -1.1434934848799254e-16 -0.2682616633870229 0.9633460852448872
12623450666.666666 -0.2578756674769966 0.9661781099378706 -3.371837959425911e-18 -1.142971201945807e-16 -3.371837959425911e-18 -1.142971201945807e-16 -0.257876317276593 0.9661779365042875
12624068000.0 -0.24746043820623875 0.9688979985130515 -4.611208818305203e-18 -1.1423144839731594e-16 -4.611208818305203e-18 -1.1423144839731594e-16 -0.24746108980322573 0.968897832092332
12624685333.333334 -0.23701653451045468 0.9715056162310525 -5.849551760865404e-18 -1.1415234608923087e-16 -5.849551760865404e-18 -1.1415234608923087e-16 -0.23701718782915615 0.9715054568417927
12625302666.666666 -0.2265451665750241 0.9740006609347429 -7.086721338930801e-18 -1.1405982783984572e-16 -7.086721338930801e-18 -1.1405982783984572e-16 -0.2265458215395724 0.9740005085947242
12625920000.0 -0.21604754776740845 0.9763828435114537 -8.322572299401156e-18 -1.1395390979283464e-16 -8.322572299401156e-18 -1.1395390979283464e-16 -0.2160482043017524 0.9763826982376377
12626537333.333334 -0.2055248944971301 0.9786518879263283 -9.556959601258073e-18 -1.1383460966351047e-16 -9.556959601258073e-18 -1.1383460966351047e-16 -0.20552555252504406 0.9786517497348568
12627154666.666666 -0.19497842607457394 0.980807531254376 -1.0789738432556071e-17 -1.1370194673612537e-16 -1.0789738432556071e-17 -1.1370194673612537e-16 -0.19497908551966697 0.9808074001605694
12627772000.0 -0.18440936456944912 0.9828495237109869 -1.2020764227412218e-17 -1.1355594186098306e-16 -1.2020764227412218e-17 -1.1355594186098306e-16 -0.1844100253551733 0.9828493997293409
12628389333.333334 -0.17381893466976617 0.9847776286807542 -1.3249892682895683e-17 -1.1339661745137597e-16 -1.3249892682895683e-17 -1.1339661745137597e-16 -0.1738195967194257 0.984777511824939
12629006666.666666 -0.16320836353928542 0.9865916227450193 -1.447697977594092e-17 -1.1322399748033147e-16 -1.447697977594092e-17 -1.1322399748033147e-16 -0.16320902677604562 0.986591513027878
12629624000.0 -0.1525788806758503 0.9882912957076605 -1.5701881780185922e-17 -1.1303810747718102e-16 -1.5701881780185922e-17 -1.1303810747718102e-16 -0.15257954502274654 0.9882911931412085
12630241333.333334 -0.14193171776852792 0.9898764506195189 -1.6924455282772148e-17 -1.1283897452394644e-16 -1.6924455282772148e-17 -1.1283897452394644e-16 -0.14193238314847426 0.9898763552149409
12630858666.666666 -0.13126810855528 0.9913469038011579 -1.814455720111396e-17 -1.12626627251544e-16 -1.814455720111396e-17 -1.12626627251544e-16 -0.1312687748910785 0.9913468155688081
12631476000.0 -0.12058928867946964 0.9927024848642221 -1.936204479962552e-17 -1.124010958358053e-16 -1.936204479962552e-17 -1.124010958358053e-16 -0.12058995589381925 0.9927024038136246
12632093333.333334 -0.10989649554724425 0.9939430367311076 -2.0576775706374975e-17 -1.121624119933236e-16 -2.0576775706374975e-17 -1.121624119933236e-16 -0.10989716356274946 0.9939429628709503
12632710666.666666 -0.09919096818389837 0.9950684156531967 -2.1788607929698935e-17 -1.11910608977119e-16 -2.1788607929698935e-17 -1.11910608977119e-16 -0.09919163692307847 0.9950683489913352
12633328000.0 -0.08847394709007525 0.9960784912275364 -2.2997399874813198e-17 -1.1164572157211356e-16 -2.2997399874813198e-17 -1.1164572157211356e-16 -0.0884746164753733 0.9960784317709911
12633945333.333334 -0.07774667409847642 0.9969731464119019 -2.4203010360275054e-17 -1.1136778609044832e-16 -2.4203010360275054e-17 -1.1136778609044832e-16 -0.07774734405226828 0.9969730941668586
12634562666.666666 -0.06701039222959712 0.9977522775383967 -2.540529863448575e-17 -1.1107684036660245e-16 -2.540529863448575e-17 -1.1107684036660245e-16 -0.06701106267420018 0.9977522325102036
12635180000.0 -0.05626634554794606 0.9984157943254406 -2.660412439206935e-17 -1.1077292375234913e-16 -2.660412439206935e-17 -1.1077292375234913e-16 -0.0562670164056286 0.9984157565186107
12635797333.333334 -0.045515779017634886 0.9989636198882521 -2.779934779023045e-17 -1.10456077111526e-16 -2.779934779023045e-17 -1.10456077111526e-16 -0.0455164502106248 0.9989635893064599
12636414666.666666 -0.034759938358429956 0.9993956907477337 -2.89908294650355e-17 -1.1012634281463422e-16 -2.89908294650355e-17 -1.1012634281463422e-16 -0.03476060980892395 0.999395667393817
12637032000.0 -0.024000069901149768 0.9997119568378494 -3.0178430547631287e-17 -1.0978376473326154e-16 -3.0178430547631287e-17 -1.0978376473326154e-16 -0.0240007415313223 0.9997119407138079
12637649333.333334 -0.01323742044327468 0.9999123815114149 -3.136201268041443e-17 -1.0942838823432691e-16 -3.136201268041443e-17 -1.0942838823432691e-16 -0.01323809217528699 0.9999123726184109
12638266666.666666 -0.0024732371046450995 0.9999969415443459 -3.2541438033099986e-17 -1.0906026017416059e-16 -3.2541438033099986e-17 -1.0906026017416059e-16 -0.002473908860654226 0.9999969398827038
12638884000.0 0.008291232817275625 0.9999656271383487 -3.371656931876864e-17 -1.0867942889239859e-16 -3.371656931876864e-17 -1.0867942889239859e-16 0.008290561115107823 0.9999656327075543
12639501333.333334 0.019054741991761024 0.9998184419220572 -3.488726980979978e-17 -1.0828594420571644e-16 -3.488726980979978e-17 -1.0828594420571644e-16 0.019054070421258822 0.999818454720758
12640118666.666666 0.029816043199270437 0.9995554029506127 -3.605340335374249e-17 -1.0787985740139086e-16 -3.605340335374249e-17 -1.0787985740139086e-16 0.029815371838235273 0.9995554229766203
12640736000.0 0.04057388947651016 0.9991765407036783 -3.721483438917937e-17 -1.07461221230666e-16 -3.721483438917937e-17 -1.07461221230666e-16 0.040573218402711615 0.9991765679539667
12641353333.333334 0.05132703426004445 0.9986818990819295 -3.837142796136229e-17 -1.0703008990200413e-16 -3.837142796136229e-17 -1.0703008990200413e-16 0.05132636355121121 0.9986819335526356
12641970666.666666 0.06207423153156449 0.9980715354019412 -3.952304973795323e-17 -1.0658651907410239e-16 -3.952304973795323e-17 -1.0658651907410239e-16 0.06207356126537532 0.9980715770883651
12642588000.0 0.07281423596175923 0.9973455203895633 -4.066956602454272e-17 -1.0613056584879235e-16 -4.066956602454272e-17 -1.0613056584879235e-16 0.07281356621583404 0.99734556928617
12643205333.333334 0.08354580305487325 0.9965039381717159 -4.181084378016946e-17 -1.0566228876374387e-16 -4.181084378016946e-17 -1.0566228876374387e-16 0.08354513390676421 0.9965039942721371
12643822666.666666 0.09426768929279908 0.9955468862666484 -4.2946750632716927e-17 -1.0518174778501587e-16 -4.2946750632716927e-17 -1.0518174778501587e-16 0.09426702081998141 0.9955469495636796
12644440000.0 0.10497865227925424 0.9944744755726285 -4.407715489424702e-17 -1.0468900429943495e-16 -4.407715489424702e-17 -1.0468900429943495e-16 0.10497798455911732 0.9944745460582326
12645057333.333334 0.11567745088357399 0.99328683035511 -4.5201925576219755e-17 -1.0418412110681984e-16 -4.5201925576219755e-17 -1.0418412110681984e-16 0.11567678399341257 0.9932869080204186
12645674666.666666 0.12636284538461254 0.9919840882323301 -4.632093240465209e-17 -1.0366716241203271e-16 -4.632093240465209e-17 -1.0366716241203271e-16 0.12636217940161754 0.9919841730676431
12646292000.0 0.137033597614677 0.990566400159324 -4.743404583520633e-17 -1.0313819381685669e-16 -4.743404583520633e-17 -1.0313819381685669e-16 0.13703293261592675 0.9905664921541117
12646909333.333334 0.14768847110246408 0.989033930410499 -4.85411370680995e-17 -1.0259728231175382e-16 -4.85411370680995e-17 -1.0259728231175382e-16 0.14768780716491525 0.9890340295534027
12647526666.666666 0.1583262312167026 0.987386856560557 -4.964207806302724e-17 -1.0204449626741231e-16 -4.964207806302724e-17 -1.0204449626741231e-16 0.15832556841718157 0.9873869628393919
12648144000.0 0.1689456453092721 0.9856253694639033 -5.073674155393091e-17 -1.0147990542616262e-16 -5.073674155393091e-17 -1.0147990542616262e-16 0.16894498372446576 0.9856254828656583
12648761333.333334 0.17954548285772623 0.9837496732325804 -5.182500106366232e-17 -1.009035808932391e-16 -5.182500106366232e-17 -1.009035808932391e-16 0.17954482256417328 0.9837497937434204
12649378666.666666 0.19012451560810417 0.9817599852125801 -5.290673091857336e-17 -1.0031559512787377e-16 -5.290673091857336e-17 -1.0031559512787377e-16 0.19012385668218637 0.9817601128178483
12649996000.0 0.20068151771717094 0.9796565359586775 -5.398180626302176e-17 -9.971602193422379e-17 -5.398180626302176e-17 -9.971602193422379e-17 0.2006808602351037 0.979656670642895
12650613333.333334 0.21121526589459969 0.9774395692076807 -5.505010307372392e-17 -9.910493645217203e-17 -5.505010307372392e-17 -9.910493645217203e-17 0.2112146099324241 0.977439710954551
12651230666.666666 0.2217245395443873 0.9751093418502622 -5.611149817404405e-17 -9.848241514795281e-17 -5.611149817404405e-17 -9.848241514795281e-17 0.22172388517796096 0.9751094906426728
12651848000.0 0.23220812090679097 0.9726661239010841 -5.716586924817195e-17 -9.78485358046274e-17 -5.716586924817195e-17 -9.78485358046274e-17 0.23220746821177893 0.9726662797211066
12652465333.333334 0.24266479519899067 0.9701101984676039 -5.821309485518576e-17 -9.720337751241346e-17 -5.821309485518576e-17 -9.720337751241346e-17 0.24266414425085697 0.9701103612964977
12653082666.666666 0.2530933507559369 0.9674418617172584 -5.925305444298718e-17 -9.654702065887659e-17 -5.925305444298718e-17 -9.654702065887659e-17 0.2530927016299359 0.9674420315354727
12653700000.0 0.2634925791711093 0.9646614228430503 -6.028562836219756e-17 -9.587954691892818e-17 -6.028562836219756e-17 -9.587954691892818e-17 0.26349193194227705 0.9646615996302271
12654317333.333334 0.2738612754359635 0.961769204027874 -6.131069787983603e-17 -9.520103924474273e-17 -6.131069787983603e-17 -9.520103924474273e-17 0.2738606301791086 0.9617693877628485
12654934666.666666 0.2841982380800548 0.9587655404070466 -6.232814519297696e-17 -9.451158185547036e-17 -6.232814519297696e-17 -9.451158185547036e-17 0.2841975948697501 0.9587657310678515
12655552000.0 0.2945022693100661 0.9556507800295279 -6.333785344226499e-17 -9.381126022682061e-17 -6.333785344226499e-17 -9.381126022682061e-17 0.2945016282206404 0.9556509775933963
12656169333.333334 0.30477217514843963 0.9524252838176401 -6.433970672526342e-17 -9.31001610805372e-17 -6.433970672526342e-17 -9.31001610805372e-17 0.3047715362539684 0.9524254882610073
12656786666.666666 0.31500676557208146 0.9490894255251383 -6.533359010977479e-17 -9.237837237366826e-17 -6.533359010977479e-17 -9.237837237366826e-17 0.31500612894637925 0.9490896368236456
12657404000.0 0.3252048546499312 0.9456435916940064 -6.63193896469606e-17 -9.164598328775253e-17 -6.63193896469606e-17 -9.164598328775253e-17 0.32520422036654123 0.9456438098225001
12658021333.333334 0.3353652606806484 0.9420881816095688 -6.729699238439975e-17 -9.090308421782228e-17 -6.729699238439975e-17 -9.090308421782228e-17 0.3353646288128365 0.9420884065421093
12658638666.666666 0.34548680632919604 0.9384236072543548 -6.826628637896573e-17 -9.014976676131187e-17 -6.826628637896573e-17 -9.014976676131187e-17 0.3454861769499406 0.9384238389642161
12659256000.0 0.3555683187637443 0.9346502932601832 -6.922716070965904e-17 -8.938612370676906e-17 -6.922716070965904e-17 -8.938612370676906e-17 0.35556769194572835 0.9346505317198566
12659873333.333334 0.36560862979114506 0.9307686768591136 -7.017950549022484e-17 -8.861224902249833e-17 -7.017950549022484e-17 -8.861224902249833e-17 0.3656080056067473 0.9307689220403093
12660490666.666666 0.37560657599237585 0.9267792078327534 -7.112321188170843e-17 -8.782823784502185e-17 -7.112321188170843e-17 -8.782823784502185e-17 0.3756059545136635 0.9267794597064082
12661108000.0 0.3855609988576968 0.9226823484600092 -7.205817210486806e-17 -8.703418646741531e-17 -7.205817210486806e-17 -8.703418646741531e-17 0.3855603801564161 0.9226826069962858
12661725333.333334 0.395470744920336 0.9184785734637354 -7.2984279452425e-17 -8.62301923275425e-17 -7.2984279452425e-17 -8.62301923275425e-17 0.3954701290679043 0.9184788386320271
12662342666.666666 0.40533466589064787 0.914168369955524 -7.390142830124346e-17 -8.541635399610733e-17 -7.390142830124346e-17 -8.541635399610733e-17 0.40533405295814623 0.9141686417244607
12662960000.0 0.4151516187888315 0.909752237379406 -7.480951412431453e-17 -8.459277116463105e-17 -7.480951412431453e-17 -8.459277116463105e-17 0.4151510088469951 0.9097525157168541
12663577333.333334 0.4249204660776065 0.9052306874538731 -7.570843350265785e-17 -8.375954463325897e-17 -7.570843350265785e-17 -8.375954463325897e-17 0.42491985919681696 0.9052309723269414
12664194666.666666 0.4346400757938428 0.9006042441126647 -7.65980841370465e-17 -8.291677629847627e-17 -7.65980841370465e-17 -8.291677629847627e-17 0.4346394720441207 0.9006045354877079
12664812000.0 0.4443093216798069 0.895873443444024 -7.747836485963478e-17 -8.20645691406667e-17 -7.747836485963478e-17 -8.20645691406667e-17 0.4443087211308025 0.8958737412866465
12665429333.333334 0.4539270833137653 0.8910388336285249 -7.834917564541143e-17 -8.120302721157951e-17 -7.834917564541143e-17 -8.120302721157951e-17 0.45392648603475183 0.8910391379035854
12666046666.666666 0.4634922462395098 0.8861009748757056 -7.921041762353889e-17 -8.033225562165481e-17 -7.921041762353889e-17 -8.033225562165481e-17 0.4634916522993754 0.8861012855473225
12666664000.0 0.47300370209597775 0.881060439358914 -8.00619930885506e-17 -7.945236052722768e-17 -8.00619930885506e-17 -7.945236052722768e-17 0.47300311156321573 0.8810607563904654
12667281333.333334 0.48246034874514887 0.8759178111492719 -8.090380551138731e-17 -7.856344911763538e-17 -8.090380551138731e-17 -7.856344911763538e-17 0.482459761687852 0.8759181345034043
12667898666.666666 0.491861090400088 0.8706736861478364 -8.173575955030826e-17 -7.766562960218956e-17 -8.173575955030826e-17 -7.766562960218956e-17 0.49186050688593846 0.8706740157864653
12668516000.0 0.5012048377519864 0.865328672016494 -8.25577610616717e-17 -7.675901119701954e-17 -8.25577610616717e-17 -7.675901119701954e-17 0.5012042578482511 0.8653290079008136
12669133333.333334 0.5104905080959945 0.859883388107781 -8.336971711051721e-17 -7.58437041118579e-17 -8.336971711051721e-17 -7.58437041118579e-17 0.5104899318695145 0.859883730198264
12669750666.666666 0.5197170254571212 0.8543384653928582 -8.417153598106545e-17 -7.491981953664682e-17 -8.417153598106545e-17 -7.491981953664682e-17 0.5197164529743057 0.8543388136492629
