! Parameters = {f0=12700.012000; bw=77.238000; Q=6100.000000; N=10; m_0_1=1.278574; m_1_1=0.413858; m_1_2=1.113386; m_2_2=0.413209; m_2_3=0.750349; m_2_8=0.000992; m_2_9=0.037696; m_3_3=0.411272; m_3_4=0.638878; m_3_7=0.001592; m_3_8=-0.095496; m_3_9=0.000992; m_4_4=0.408347; m_4_5=0.475213; m_4_6=0.005109; m_4_7=-0.116045; m_4_8=0.001592; m_5_5=0.408729; m_5_6=0.882568; m_5_7=0.005109; m_6_6=0.408728; m_6_7=0.475555; m_7_7=0.408361; m_7_8=0.638996; m_8_8=0.411270; m_8_9=0.750662; m_9_9=0.413204; m_9_10=1.114464; m_10_10=0.413848; m_10_11=1.279369}
!
! Created with skrf (http://scikit-rf.org).
# Hz S RI R 50.0 
!freq ReS11 ImS11 ReS21 ImS21 ReS12 ImS12 ReS22 ImS22
12607400000.0 -0.29437835012482594 0.9556889593259965 1.2430786886214978e-18 -1.1513890792003178e-16 1.2430786886214978e-18 -1.1513890792003178e-16 -0.29437899388910704 0.955688761028745
12608017333.333334 -0.28406256565046495 0.9588057461216513 -7.963366512442991e-21 -1.151230692815573e-16 -7.963366512442991e-21 -1.151230692815573e-16 -0.28406321148263436 0.9588055547826122
12608634666.666666 -0.2737137930583716 0.9618111870265498 -1.258514567833352e-18 -1.1509364602480064e-16 -1.258514567833352e-18 -1.1509364602480064e-16 -0.27371444088323005 0.9618110026672607
12609252000.0 -0.2633332341491962 0.9647049330195978 -2.5084274980733137e-18 -1.1505064694274966e-16 -2.5084274980733137e-18 -1.1505064694274966e-16 -0.26333388389132045 0.964704755660784
12609869333.333334 -0.2529220944148154 0.9674866480508372 -3.757554873028656e-18 -1.149940824271185e-16 -3.757554873028656e-18 -1.149940824271185e-16 -0.2529227459985674 0.9674864777124098
12610486666.666666 -0.24248158289858676 0.9701560090804041 -5.005749558857571e-18 -1.149239644664961e-16 -5.005749558857571e-18 -1.149239644664961e-16 -0.24248223624812143 0.9701558457814555
12611104000.0 -0.23201291205458355 0.9727127061161347 -6.252864589438127e-18 -1.1484030664430394e-16 -6.252864589438127e-18 -1.1484030664430394e-16 -0.23201356709385837 0.9727125498749386
12611721333.333334 -0.22151729760728978 0.9751564422494398 -7.498753183588695e-18 -1.1474312413657142e-16 -7.498753183588695e-18 -1.1474312413657142e-16 -0.22151795426007362 0.9751562930834492
12612338666.666666 -0.21099595840997717 0.9774869336898968 -8.743268762338163e-18 -1.1463243370952052e-16 -8.743268762338163e-18 -1.1463243370952052e-16 -0.21099661659985877 0.9774867916157404
12612956000.0 -0.20045011630324133 0.9797039097981788 -9.986264966162196e-18 -1.1450825371696305e-16 -9.986264966162196e-18 -1.1450825371696305e-16 -0.20045077595363858 0.9797037748316609
12613573333.333334 -0.189880995973444 0.9818071131174164 -1.1227595672125042e-17 -1.1437060409751728e-16 -1.1227595672125042e-17 -1.1437060409751728e-16 -0.18988165700761253 0.9818069852735135
12614190666.666666 -0.1792898248100448 0.9837962994031861 -1.2467115011068007e-17 -1.1421950637163057e-16 -1.2467115011068007e-17 -1.1421950637163057e-16 -0.1792904871510875 0.9837961786960485
12614808000.0 -0.16867783276328907 0.985671237651836 -1.3704677384693086e-17 -1.1405498363842464e-16 -1.3704677384693086e-17 -1.1405498363842464e-16 -0.16867849633416385 0.9856711240947799
12615425333.333334 -0.15804625220142737 0.9874317101272897 -1.494013748265977e-17 -1.1387706057234864e-16 -1.494013748265977e-17 -1.1387706057234864e-16 -0.15804691692495762 0.9874316037328038
12616042666.666666 -0.14739631776743572 0.9890775123863764 -1.6173350299605653e-17 -1.136857634196531e-16 -1.6173350299605653e-17 -1.136857634196531e-16 -0.1473969835663181 0.9890774131661142
12616660000.0 -0.13672926623571885 0.9906084533025462 -1.7404171152143707e-17 -1.1348111999467659e-16 -1.7404171152143707e-17 -1.1348111999467659e-16 -0.13672993303253297 0.9906083612673278
12617277333.333334 -0.12604633636854112 0.9920243550880642 -1.8632455695798838e-17 -1.1326315967595126e-16 -1.8632455695798838e-17 -1.1326315967595126e-16 -0.12604700408575806 0.9920242702478738
12617894666.666666 -0.11534876877214101 0.9933250533146601 -1.98580599419108e-17 -1.1303191340212423e-16 -1.98580599419108e-17 -1.1303191340212423e-16 -0.11534943733213263 0.9933249756786453
12618512000.0 -0.10463780575243402 0.99451039693265 -2.108084027451079e-17 -1.1278741366769124e-16 -2.108084027451079e-17 -1.1278741366769124e-16 -0.10463847507748202 0.9945103265091219
12619129333.333334 -0.09391469117122402 0.9955802482884216 -2.2300653467067437e-17 -1.125296945185637e-16 -2.2300653467067437e-17 -1.125296945185637e-16 -0.09391536118352878 0.9955801850848525
12619746666.666666 -0.08318067030130195 0.9965344831404723 -2.3517356699286012e-17 -1.1225879154743472e-16 -2.3517356699286012e-17 -1.1225879154743472e-16 -0.08318134092299162 0.9965344271634946
12620364000.0 -0.07243698968191684 0.997372990673822 -2.4730807573788955e-17 -1.1197474188897598e-16 -2.4730807573788955e-17 -1.1197474188897598e-16 -0.07243766083505654 0.9973729419292298
12620981333.333334 -0.06168489697435578 0.998095673512858 -2.594086413273071e-17 -1.1167758421485795e-16 -2.594086413273071e-17 -1.1167758421485795e-16 -0.061685568580956425 0.9980956320056037
12621598666.666666 -0.05092564081659976 0.9987024477326771 -2.7147384874395422e-17 -1.1136735872858068e-16 -2.7147384874395422e-17 -1.1136735872858068e-16 -0.05092631279862733 0.9987024134668734
12622216000.0 -0.040160470678574846 0.9991932428688142 -2.835022876971854e-17 -1.1104410716013042e-16 -2.835022876971854e-17 -1.1104410716013042e-16 -0.04016114295795933 0.9991932158477319
12622833333.333334 -0.029390636716937903 0.9995680019254293 -2.954925527873961e-17 -1.1070787276045825e-16 -2.954925527873961e-17 -1.1070787276045825e-16 -0.02939130921558234 0.9995679821514968
12623450666.666666 -0.01861738963012345 0.9998266813819194 -3.074432436697245e-17 -1.1035870029578832e-16 -3.074432436697245e-17 -1.1035870029578832e-16 -0.01861806226991313 0.9998266688567246
12624068000.0 -0.007841980512787988 0.9999692511979852 -3.1935296521765575e-17 -1.099966360417331e-16 -3.1935296521765575e-17 -1.099966360417331e-16 -0.007842653215599427 0.9999692459222741
12624685333.333334 0.0029343392894227113 0.9999956948171117 -3.3122032768553724e-17 -1.0962172777724353e-16 -3.3122032768553724e-17 -1.0962172777724353e-16 0.0029336666017126785 0.9999956967907867
12625302666.666666 0.013710318324822534 0.999906009168489 -3.4304394687005786e-17 -1.0923402477839653e-16 -3.4304394687005786e-17 -1.0923402477839653e-16 0.013709645730327681 0.9999060183906135
12625920000.0 0.024484705181612658 0.9997002046673749 -3.548224442720631e-17 -1.0883357781197398e-16 -3.548224442720631e-17 -1.0883357781197398e-16 0.024484032758428302 0.9997002211361691
12626537333.333334 0.03525624863272459 0.9993783052138816 -3.665544472564268e-17 -1.0842043912890758e-16 -3.665544472564268e-17 -1.0842043912890758e-16 0.0352555764589185 0.9993783289267238
12627154666.666666 0.04602369778121013 0.9989403481902037 -3.7823858921197145e-17 -1.0799466245752464e-16 -3.7823858921197145e-17 -1.0799466245752464e-16 0.046023025934813507 0.9989403791436327
12627772000.0 0.05678580220584866 0.998386384456268 -3.898735097104302e-17 -1.0755630299662827e-16 -3.898735097104302e-17 -1.0755630299662827e-16 0.05678513076484707 0.9983864226459814
12628389333.333334 0.06754131210587545 0.9977164783438417 -4.0145785466431264e-17 -1.0710541740841834e-16 -4.0145785466431264e-17 -1.0710541740841834e-16 0.06754064114819973 0.9977165237646971
12629006666.666666 0.07828897844646153 0.9969307076490487 -4.129902764845373e-17 -1.0664206381122028e-16 -4.129902764845373e-17 -1.0664206381122028e-16 0.07828830804997866 0.9969307602950634
12629624000.0 0.08902755310362127 0.9960291636233363 -4.244694342366297e-17 -1.0616630177206833e-16 -4.244694342366297e-17 -1.0616630177206833e-16 0.08902688334612575 0.9960292234876927
12630241333.333334 0.09975578900924295 0.9950119509628843 -4.358939937964079e-17 -1.0567819229910822e-16 -4.358939937964079e-17 -1.0567819229910822e-16 0.09975511996844717 0.9950120180379239
12630858666.666666 0.11047244029565456 0.9938791877964573 -4.4726262800474515e-17 -1.0517779783383531e-16 -4.4726262800474515e-17 -1.0517779783383531e-16 0.11047177204918028 0.9938792620736865
12631476000.0 0.12117626244078773 0.9926310056716463 -4.585740168216836e-17 -1.0466518224315537e-16 -4.585740168216836e-17 -1.0466518224315537e-16 0.12117559506615679 0.9926310871417356
12632093333.333334 0.131866012412251 0.991267549539636 -4.6982684747893846e-17 -1.041404108113125e-16 -4.6982684747893846e-17 -1.041404108113125e-16 0.13186534598687652 0.9912676381924223
12632710666.666666 0.14254044881176825 0.9897889777383668 -4.810198146323152e-17 -1.0360355023161595e-16 -4.810198146323152e-17 -1.0360355023161595e-16 0.14253978341294551 0.9897890735628535
12633328000.0 0.15319833201965213 0.9881954619741069 -4.9215162051286165e-17 -1.0305466859801785e-16 -4.9215162051286165e-17 -1.0305466859801785e-16 0.15319766772454957 0.9881955649584647
12633945333.333334 0.16383842433839368 0.9864871873015552 -5.0322097507683525e-17 -1.0249383539654062e-16 -5.0322097507683525e-17 -1.0249383539654062e-16 0.16383776122404428 0.9864872974331269
12634562666.666666 0.17445949013659384 0.9846643521023299 -5.142265961549353e-17 -1.0192112149653239e-16 -5.142265961549353e-17 -1.0192112149653239e-16 0.1744588282798856 0.9846644693676271
12635180000.0 0.185060295992316 0.9827271680619485 -5.25167209600664e-17 -1.0133659914175697e-16 -5.25167209600664e-17 -1.0133659914175697e-16 0.18505963546998366 0.9827272924466572
12635797333.333334 0.19563961083654766 0.9806758601452091 -5.360415494374771e-17 -1.0074034194133452e-16 -5.360415494374771e-17 -1.0074034194133452e-16 0.19563895172516332 0.9806759916341895
12636414666.666666 0.20619620609582803 0.978510666570124 -5.468483580047735e-17 -1.0013242486053338e-16 -5.468483580047735e-17 -1.0013242486053338e-16 0.2061955484717925 0.9785108051474126
12637032000.0 0.21672885583528592 0.9762318387801896 -5.575863861033897e-17 -9.951292421137588e-17 -5.575863861033897e-17 -9.951292421137588e-17 0.21672819977481997 0.9762319844290023
12637649333.333334 0.2272363369007829 0.9738396414152266 -5.682543931394657e-17 -9.888191764311969e-17 -5.682543931394657e-17 -9.888191764311969e-17 0.2272356824799181 0.9738397941179583
12638266666.666666 0.23771742906104187 0.9713343522806298 -5.788511472675561e-17 -9.823948413256829e-17 -5.788511472675561e-17 -9.823948413256829e-17 0.23771677635561222 0.97133451201886
12638884000.0 0.24817091514924208 0.9687162623151373 -5.893754255324533e-17 -9.758570397423971e-17 -5.893754255324533e-17 -9.758570397423971e-17 0.24817026423487482 0.968716429069629
12639501333.333334 0.2585955812045887 0.9659856755569848 -5.998260140102157e-17 -9.692065877036564e-17 -5.998260140102157e-17 -9.692065877036564e-17 0.25859493215669566 0.9659858493076883
12640118666.666666 0.26899021661287664 0.9631429091087049 -6.102017079476033e-17 -9.624443142076868e-17 -6.102017079476033e-17 -9.624443142076868e-17 0.2689895695066459 0.9631430898347612
12640736000.0 0.27935361424784916 0.9601882931001013 -6.20501311901142e-17 -9.555710611254187e-17 -6.20501311901142e-17 -9.555710611254187e-17 0.2793529691582354 0.9601884807798412
12641353333.333334 0.2896845706103373 0.957122170650188 -6.307236398737885e-17 -9.485876830966154e-17 -6.307236398737885e-17 -9.485876830966154e-17 0.28968392761205397 0.9571223652611383
12641970666.666666 0.2999818859689267 0.9539448978270959 -6.408675154519143e-17 -9.414950474235613e-17 -6.408675154519143e-17 -9.414950474235613e-17 0.2999812451364375 0.9539450993459816
12642588000.0 0.3102443644987634 0.9506568436068722 -6.509317719400249e-17 -9.342940339640055e-17 -6.509317719400249e-17 -9.342940339640055e-17 0.3102437259062726 0.9506570520096173
12643205333.333334 0.32047081442064157 0.9472583898305641 -6.609152524945799e-17 -9.269855350224784e-17 -6.609152524945799e-17 -9.269855350224784e-17 0.32047017814208667 0.9472586050922956
12643822666.666666 0.3306600481394048 0.9437499311598752 -6.708168102569115e-17 -9.195704552399511e-17 -6.708168102569115e-17 -9.195704552399511e-17 0.3306594142484469 0.943750153254926
12644440000.0 0.34081088238177903 0.9401318750313571 -6.806353084844434e-17 -9.120497114824238e-17 -6.806353084844434e-17 -9.120497114824238e-17 0.3408102509517953 0.9401321039332701
12645057333.333334 0.35092213833370745 0.9364046416091286 -6.903696206808197e-17 -9.04424232728003e-17 -6.903696206808197e-17 -9.04424232728003e-17 0.35092150943778144 0.9364048772906574
12645674666.666666 0.3609926417774324 0.9325686637360124 -7.000186307249855e-17 -8.966949599524416e-17 -7.000186307249855e-17 -8.966949599524416e-17 0.3609920154883471 0.9325689061691275
12646292000.0 0.37102122322783043 0.9286243868832793 -7.09581232998933e-17 -8.888628460133365e-17 -7.09581232998933e-17 -8.888628460133365e-17 0.37102059961805844 0.928624636039169
12646909333.333334 0.38100671806806413 0.9245722690989738 -7.190563325136545e-17 -8.809288555333739e-17 -7.190563325136545e-17 -8.809288555333739e-17 0.38100609720976 0.9245725249480484
12647526666.666666 0.3909479666849889 0.9204127809546627 -7.284428450346058e-17 -8.728939647815957e-17 -7.284428450346058e-17 -8.728939647815957e-17 0.3909473486499804 0.9204130434665587
12648144000.0 0.4008438146038427 0.9161464054907722 -7.37739697205313e-17 -8.647591615537495e-17 -7.37739697205313e-17 -8.647591615537495e-17 0.40084319946362346 0.916146674634356
12648761333.333334 0.4106931126221072 0.9117736381605839 -7.469458266697313e-17 -8.565254450512748e-17 -7.469458266697313e-17 -8.565254450512748e-17 0.41069250044782696 0.9117739139039532
12649378666.666666 0.42049471694312074 0.9072949867726302 -7.560601821932109e-17 -8.481938257590348e-17 -7.560601821932109e-17 -8.481938257590348e-17 0.4204941078055782 0.907295269083121
12649996000.0 0.4302474893089583 0.9027109714316988 -7.650817237824626e-17 -8.3976532532144e-17 -7.650817237824626e-17 -8.3976532532144e-17 0.43024688327859273 0.9027112602758867
12650613333.333334 0.4399502971324616 0.8980221244785014 -7.740094228037414e-17 -8.312409764176676e-17 -7.740094228037414e-17 -8.312409764176676e-17 0.4399496942793447 0.8980224198222078
12651230666.666666 0.44960201362882063 0.8932289904278361 -7.828422620996264e-17 -8.226218226356608e-17 -7.828422620996264e-17 -8.226218226356608e-17 0.44960141402264814 0.8932292922361301
12651848000.0 0.4592015179466028 0.8883321259052603 -7.915792361049342e-17 -8.139089183443675e-17 -7.915792361049342e-17 -8.139089183443675e-17 0.45920092165668597 0.8883324341424625
12652465333.333334 0.46874769529761073 0.8833320995825982 -8.002193509605479e-17 -8.051033285654158e-17 -8.002193509605479e-17 -8.051033285654158e-17 0.46874710239287015 0.8833324142122886
12653082666.666666 0.4782394370864994 0.8782294921118348 -8.087616246261482e-17 -7.962061288432641e-17 -8.087616246261482e-17 -7.962061288432641e-17 0.47823884763545516 0.8782298130968534
12653700000.0 0.4876756410396878 0.8730248960575823 -8.172050869917216e-17 -7.872184051139269e-17 -8.172050869917216e-17 -7.872184051139269e-17 0.4876750551104525 0.8730252233600352
12654317333.333334 0.497055211332943 0.8677189158284989 -8.255487799869789e-17 -7.781412535732039e-17 -8.255487799869789e-17 -7.781412535732039e-17 0.4970546289932135 0.867719249409762
12654934666.666666 0.5063770587190375 0.8623121676068823 -8.33791757690059e-17 -7.689757805429514e-17 -8.33791757690059e-17 -7.689757805429514e-17 0.506376480036087 0.8623125074276058
12655552000.0 0.5156401006541632 0.8568052792771451 -8.419330864343342e-17 -7.597231023366556e-17 -8.419330864343342e-17 -7.597231023366556e-17 0.5156395256948348 0.8568056252972597
12656169333.333334 0.5248432614233589 0.8511988903530792 -8.499718449135457e-17 -7.50384345124103e-17 -8.499718449135457e-17 -7.50384345124103e-17 0.5248426902540555 0.8511992425317986
12656786666.666666 0.5339854722658205 0.8454936519033543 -8.579071242860345e-17 -7.409606447942633e-17 -8.579071242860345e-17 -7.409606447942633e-17 0.5339849049524988 0.8454940101991812
12657404000.0 0.5430656714988205 0.8396902264760253 -8.657380282769245e-17 -7.314531468176818e-17 -8.657380282769245e-17 -7.314531468176818e-17 0.5430651081069829 0.8396905908467556
12658021333.333334 0.5520828046409774 0.8337892880216043 -8.734636732790626e-17 -7.218630061074802e-17 -8.734636732790626e-17 -7.218630061074802e-17 0.5520822452356656 0.8337896584243346
12658638666.666666 0.5610358245347409 0.8277915218147897 -8.810831884521616e-17 -7.121913868796243e-17 -8.810831884521616e-17 -7.121913868796243e-17 0.5610352691805262 0.8277918982059183
12659256000.0 0.5699236914681344 0.8216976243747799 -8.885957158208943e-17 -7.024394625115158e-17 -8.885957158208943e-17 -7.024394625115158e-17 0.5699231402291114 0.8216980067100144
12659873333.333334 0.5787453732953325 0.8155083033845014 -8.960004103708747e-17 -6.926084154002645e-17 -8.960004103708747e-17 -6.926084154002645e-17 0.5787448262351125 0.8155086916188644
12660490666.666666 0.5874998455564338 0.8092242776084941 -9.032964401432564e-17 -6.826994368197308e-17 -9.032964401432564e-17 -6.826994368197308e-17 0.5874993027381356 0.8092246716963262
12661108000.0 0.5961860915967999 0.8028462768091754 -9.104829863281192e-17 -6.727137267760833e-17 -9.104829863281192e-17 -6.727137267760833e-17 0.5961855530830443 0.8028466767041432
12661725333.333334 0.604803102684727 0.7963750416623755 -9.175592433556312e-17 -6.626524938632349e-17 -9.175592433556312e-17 -6.626524938632349e-17 0.604802568537629 0.7963754473174753
12662342666.666666 0.6133498781287751 0.7898113236711908 -9.245244189860946e-17 -6.525169551166757e-17 -9.245244189860946e-17 -6.525169551166757e-17 0.6133493484099364 0.789811735038755
12662960000.0 0.6218254253940001 0.7831558850786945 -9.313777343982438e-17 -6.423083358665441e-17 -9.313777343982438e-17 -6.423083358665441e-17 0.6218249001645018 0.7831563021103961
12663577333.333334 0.6302287602171689 0.7764094987794481 -9.381184242758621e-17 -6.320278695898903e-17 -9.381184242758621e-17 -6.320278695898903e-17 0.6302282395375647 0.7764099214263069
12664194666.666666 0.6385589067209965 0.769572948229801 -9.44745736892852e-17 -6.216767977618947e-17 -9.44745736892852e-17 -6.216767977618947e-17 0.6385583906513074 0.7695733764421915
12664812000.0 0.6468148975276103 0.7626470273568042 -9.512589341965677e-17 -6.112563697063664e-17 -9.512589341965677e-17 -6.112563697063664e-17 0.646814386127314 0.7626474610844568
12665429333.333334 0.6549957738708406 0.7556325404660401 -9.576572918896992e-17 -6.007678424450802e-17 -9.576572918896992e-17 -6.007678424450802e-17 0.6549952671988682 0.7556329796580513
12666046666.666666 0.6631005857073948 0.7485303021483721 -9.639400995102154e-17 -5.902124805466902e-17 -9.639400995102154e-17 -5.902124805466902e-17 0.6631000838221226 0.748530746753209
12666664000.0 0.6711283918275484 0.7413411371850287 -9.701066605100228e-17 -5.795915559742182e-17 -9.701066605100228e-17 -5.795915559742182e-17 0.6711278947867909 0.7413415871505342
12667281333.333334 0.6790782599640842 0.7340658804521388 -9.761562923314353e-17 -5.689063479325771e-17 -9.761562923314353e-17 -5.689063479325771e-17 0.6790777678250874 0.7340663357255387
12667898666.666666 0.6869492669007077 0.7267053768236501 -9.820883264825213e-17 -5.58158142714363e-17 -9.820883264825213e-17 -5.58158142714363e-17 0.6869487797201427 0.7267058373515582
12668516000.0 0.6947404985793809 0.719260481073092 -9.879021086104508e-17 -5.473482335453941e-17 -9.879021086104508e-17 -5.473482335453941e-17 0.6947400164133385 0.7192609468015185
12669133333.333334 0.7024510502062253 0.7117320577745485 -9.935969985730085e-17 -5.3647792042974837e-17 -9.935969985730085e-17 -5.3647792042974837e-17 0.7024505731102078 0.7117325286489042
12669750666.666666 0.7100800263567405 0.7041209812021181 -9.991723705088417e-17 -5.2554850999327547e-17 -9.991723705088417e-17 -5.2554850999327547e-17 0.7100795543856557 0.7041214571672213
