! Parameters = {f0=12700.012000; bw=77.238000; Q=6100.000000; N=10; m_0_1=1.223118; m_1_1=-0.417974; m_1_2=1.057930; m_2_2=-0.418623; m_2_3=0.694893; m_2_8=-0.001780; m_2_9=0.034924; m_3_3=-0.420560; m_3_4=0.583422; m_3_7=-0.001180; m_3_8=-0.098268; m_3_9=-0.001780; m_4_4=-0.423485; m_4_5=0.419757; m_4_6=0.002337; m_4_7=-0.118817; m_4_8=-0.001180; m_5_5=-0.423103; m_5_6=0.827112; m_5_7=0.002337; m_6_6=-0.423104; m_6_7=0.420099; m_7_7=-0.423471; m_7_8=0.583540; m_8_8=-0.420562; m_8_9=0.695206; m_9_9=-0.418628; m_9_10=1.059008; m_10_10=-0.417984; m_10_11=1.223913}
!
! Created with skrf (http://scikit-rf.org).
# Hz S RI R 50.0 
!freq ReS11 ImS11 ReS21 ImS21 ReS12 ImS12 ReS22 ImS22
12607400000.0 -0.6860379234492142 -0.7275657823106627 7.624162544920461e-17 4.433985734763096e-17 7.624162544920461e-17 4.433985734763096e-17 -0.6860374545372009 -0.727566224457921
12608017333.333334 -0.6926569594612838 -0.7212671741523288 7.663242885065576e-17 4.362605329994155e-17 7.663242885065576e-17 4.362605329994155e-17 -0.6926564946314475 -0.7212676205436587
12608634666.666666 -0.6992181696271003 -0.7149083516529682 7.701655587561043e-17 4.290881516519291e-17 7.701655587561043e-17 4.290881516519291e-17 -0.6992177089178454 -0.7149088022506893
12609252000.0 -0.705721006189927 -0.7084898456732549 7.739397644775686e-17 4.2188205329411875e-17 7.739397644775686e-17 4.2188205329411875e-17 -0.7057205496393104 -0.70849030043934
12609869333.333334 -0.7121649262663977 -0.7020121920563868 7.776466107318916e-17 4.146428644107973e-17 7.776466107318916e-17 4.146428644107973e-17 -0.7121644739121242 -0.7020126509524628
12610486666.666666 -0.7185493918915745 -0.6954759315836058 7.812858084269071e-17 4.073712140569587e-17 7.812858084269071e-17 4.073712140569587e-17 -0.718548943770996 -0.6954763945709603
12611104000.0 -0.7248738700642237 -0.6888816099286956 7.848570743396759e-17 4.000677338031902e-17 7.848570743396759e-17 4.000677338031902e-17 -0.7248734262143346 -0.6888820769682774
12611721333.333334 -0.7311378327909696 -0.6822297776127637 7.883601311382024e-17 3.927330576811186e-17 7.883601311382024e-17 3.927330576811186e-17 -0.7311373932484044 -0.6822302486651878
12612338666.666666 -0.7373407571305166 -0.6755209899581455 7.917947074027986e-17 3.853678221283552e-17 7.917947074027986e-17 3.853678221283552e-17 -0.7373403219315472 -0.6755214649836957
12612956000.0 -0.7434821252374406 -0.6687558070418942 7.951605376468185e-17 3.77972665933478e-17 7.951605376468185e-17 3.77972665933478e-17 -0.7434816944179717 -0.6687562860005264
12613573333.333334 -0.7495614244050913 -0.6619347936493797 7.98457362336897e-17 3.70548230180843e-17 7.98457362336897e-17 3.70548230180843e-17 -0.7495609980006593 -0.6619352765007255
12614190666.666666 -0.7555781471087432 -0.6550585192267604 8.016849279127618e-17 3.630951581949884e-17 8.016849279127618e-17 3.630951581949884e-17 -0.7555777251545116 -0.6550590059301297
12614808000.0 -0.7615317910477141 -0.6481275578337157 8.048429868063871e-17 3.556140954852151e-17 8.048429868063871e-17 3.556140954852151e-17 -0.7615313735784731 -0.6481280483481024
12615425333.333334 -0.7674218591874569 -0.6411424880953559 8.079312974607857e-17 3.4810568968963654e-17 8.079312974607857e-17 3.4810568968963654e-17 -0.7674214462376171 -0.6411429823794386
12616042666.666666 -0.773247859800989 -0.6341038931539739 8.109496243481249e-17 3.4057059051943524e-17 8.109496243481249e-17 3.4057059051943524e-17 -0.7732474514045815 -0.6341043911661204
12616660000.0 -0.7790093065098964 -0.6270123606204321 8.13897737987473e-17 3.330094497026229e-17 8.13897737987473e-17 3.330094497026229e-17 -0.7790089027005682 -0.6270128623187036
12617277333.333334 -0.7847057183250793 -0.6198684825249292 8.167754149619291e-17 3.254229209278536e-17 8.167754149619291e-17 3.254229209278536e-17 -0.7847053191360912 -0.619868987867083
12617894666.666666 -0.790336619686676 -0.6126728552678631 8.195824379351874e-17 3.178116597882375e-17 8.195824379351874e-17 3.178116597882375e-17 -0.7903362251509004 -0.6126733642113568
12618512000.0 -0.7959015405040831 -0.6054260795696393 8.223185956677935e-17 3.10176323724428e-17 8.223185956677935e-17 3.10176323724428e-17 -0.7959011506540012 -0.6054265920716343
12619129333.333334 -0.8014000161949034 -0.598128760420903 8.249836830325807e-17 3.025175719683696e-17 8.249836830325807e-17 3.025175719683696e-17 -0.8013996310626001 -0.5981292764382665
12619746666.666666 -0.8068315877238496 -0.590781507031871 8.275775010297865e-17 2.9483606548635416e-17 8.275775010297865e-17 2.9483606548635416e-17 -0.8068312073410155 -0.5907820265211831
12620364000.0 -0.8121958016411898 -0.5833849327813166 8.300998568016414e-17 2.871324669219502e-17 8.300998568016414e-17 2.871324669219502e-17 -0.8121954260391142 -0.58338545569887
12620981333.333334 -0.8174922101203136 -0.575939655165749 8.325505636462328e-17 2.794074405393789e-17 8.325505636462328e-17 2.794074405393789e-17 -0.8174918393298836 -0.575940181467555
12621598666.666666 -0.8227203709954035 -0.5684462957474714 8.349294410311149e-17 2.7166165216597067e-17 8.349294410311149e-17 2.7166165216597067e-17 -0.8227200050471027 -0.5684468253892637
12622216000.0 -0.8278798477982168 -0.5609054801028761 8.372363146061871e-17 2.6389576913510234e-17 8.372363146061871e-17 2.6389576913510234e-17 -0.8278794867221202 -0.560906013040113
12622833333.333334 -0.832970209794506 -0.5533178377702411 8.394710162161004e-17 2.56110460228864e-17 8.394710162161004e-17 2.56110460228864e-17 -0.8329698536202791 -0.5533183739581103
12623450666.666666 -0.8379910320200262 -0.5456840021971034 8.416333839121535e-17 2.4830639562055317e-17 8.416333839121535e-17 2.4830639562055317e-17 -0.8379906807769244 -0.545684541590527
12624068000.0 -0.8429418953159709 -0.5380046106874499 8.437232619636562e-17 2.4048424681707327e-17 8.437232619636562e-17 2.4048424681707327e-17 -0.8429415490328334 -0.5380051532410856
12624685333.333334 -0.8478223863640992 -0.5302803043482954 8.457405008687254e-17 2.3264468660133463e-17 8.457405008687254e-17 2.3264468660133463e-17 -0.8478220450693481 -0.5302808500165411
12625302666.666666 -0.8526320977209648 -0.5225117280365903 8.476849573645518e-17 2.2478838897459772e-17 8.476849573645518e-17 2.2478838897459772e-17 -0.8526317614426036 -0.5225122767735892
12625920000.0 -0.8573706278522683 -0.5146995303048592 8.495564944371879e-17 2.1691602909849132e-17 8.495564944371879e-17 2.1691602909849132e-17 -0.8573702966178794 -0.5147000820645032
12626537333.333334 -0.862037581166122 -0.5068443633474663 8.513549813307178e-17 2.0902828323729408e-17 8.513549813307178e-17 2.0902828323729408e-17 -0.8620372550028624 -0.5068449180833978
12627154666.666666 -0.8666325680461202 -0.4989468829460943 8.530802935559497e-17 2.0112582869990228e-17 8.530802935559497e-17 2.0112582869990228e-17 -0.8666322469807233 -0.4989474406117137
12627772000.0 -0.8711552048840565 -0.49100774841468103 8.547323128985698e-17 1.9320934378173153e-17 8.547323128985698e-17 1.9320934378173153e-17 -0.8711548889428254 -0.49100830896314746
12628389333.333334 -0.8756051141116316 -0.48302762254491594 8.563109274267057e-17 1.8527950770682538e-17 8.563109274267057e-17 1.8527950770682538e-17 -0.8756048033204408 -0.4830281859291533
12629006666.666666 -0.8799819242322867 -0.47500717155036576 8.578160314980473e-17 1.7733700056941906e-17 8.578160314980473e-17 1.7733700056941906e-17 -0.8799816186165778 -0.4750077377230656
12629624000.0 -0.8842852698520214 -0.4669470650112021 8.592475257663057e-17 1.693825032760872e-17 8.592475257663057e-17 1.693825032760872e-17 -0.8842849694368001 -0.46694763392482724
12630241333.333334 -0.888514791709937 -0.45884797581822734 8.606053171872697e-17 1.6141669748718657e-17 8.606053171872697e-17 1.6141669748718657e-17 -0.8885144965197743 -0.458848547425017
12630858666.666666 -0.8926701367082499 -0.4507105801166761 8.61889319024185e-17 1.5344026555891557e-17 8.61889319024185e-17 1.5344026555891557e-17 -0.8926698467672781 -0.45071115436864967
12631476000.0 -0.8967509579418044 -0.44253555724969135 8.630994508527516e-17 1.454538904845562e-17 8.630994508527516e-17 1.454538904845562e-17 -0.8967506732737129 -0.442536134098651
12632093333.333334 -0.9007569147269517 -0.43432358970175894 8.642356385654241e-17 1.3745825583651561e-17 8.642356385654241e-17 1.3745825583651561e-17 -0.9007566353549904 -0.4343241690992957
12632710666.666666 -0.9046876726300388 -0.42607536304165916 8.652978143752635e-17 1.294540457078777e-17 8.652978143752635e-17 1.294540457078777e-17 -0.9046873985770122 -0.4260759449391562
12633328000.0 -0.9085429034953487 -0.4177915658651796 8.662859168192754e-17 1.2144194465370975e-17 8.662859168192754e-17 1.2144194465370975e-17 -0.908542634783615 -0.41779215021381577
12633945333.333334 -0.9123222854724704 -0.40947288973767926 8.671998907611046e-17 1.1342263763306702e-17 8.671998907611046e-17 1.1342263763306702e-17 -0.9123220221239391 -0.4094734764884333
12634562666.666666 -0.9160255030431333 -0.40112002913643097 8.680396873932944e-17 1.0539680995027187e-17 8.680396873932944e-17 1.0539680995027187e-17 -0.916025245079265 -0.4011206182400862
12635180000.0 -0.9196522470476327 -0.3927336813924637 8.688052642389508e-17 9.736514719658005e-18 8.688052642389508e-17 9.736514719658005e-18 -0.9196519944894355 -0.39273427279961176
12635797333.333334 -0.9232022147105543 -0.3843145466325269 8.694965851528748e-17 8.932833519179653e-18 8.694965851528748e-17 8.932833519179653e-18 -0.9232019675785837 -0.384315140293572
12636414666.666666 -0.9266751096660901 -0.3758633277205642 8.701136203221707e-17 8.128705992579627e-18 8.701136203221707e-17 8.128705992579627e-18 -0.926674867980447 -0.37586392358572746
12637032000.0 -0.9300706419828114 -0.36738073019895656 8.706563462663138e-17 7.324200750002797e-18 8.706563462663138e-17 7.324200750002797e-18 -0.9300704057631389 -0.36738132821827946
12637649333.333334 -0.933388528187795 -0.35886746222980326 8.711247458366523e-17 6.5193864069278475e-18 8.711247458366523e-17 6.5193864069278475e-18 -0.9333882974532787 -0.3588680623531527
12638266666.666666 -0.9366284912903767 -0.3503242345355921 8.71518808215416e-17 5.71433157830853e-18 8.71518808215416e-17 5.71433157830853e-18 -0.9366282660597433 -0.3503248367126646
12638884000.0 -0.9397902608051945 -0.3417517603400778 8.718385289141417e-17 4.909104872756713e-18 8.718385289141417e-17 4.909104872756713e-18 -0.9397900410967073 -0.3417523645204026
12639501333.333334 -0.9428735727748425 -0.33315075530852367 8.720839097715962e-17 4.103774886688729e-18 8.720839097715962e-17 4.103774886688729e-18 -0.9428733586063044 -0.33315136144146834
12640118666.666666 -0.9458781697918305 -0.32452193748819874 8.722549589511394e-17 3.2984101985171232e-18 8.722549589511394e-17 3.2984101985171232e-18 -0.9458779611805781 -0.3245225455229722
12640736000.0 -0.9488038010201852 -0.3158660272480805 8.723516909375623e-17 2.4930793627916477e-18 8.723516909375623e-17 2.4930793627916477e-18 -0.9488035979830914 -0.3158666371337385
12641353333.333334 -0.9516502222162423 -0.3071837472191749 8.723741265333825e-17 1.6878509044215025e-18 8.723741265333825e-17 1.6878509044215025e-18 -0.9516500247697115 -0.30718435890462326
12641970666.666666 -0.9544171957491502 -0.2984758222338368 8.723222928546099e-17 8.827933128130163e-19 8.723222928546099e-17 8.827933128130163e-19 -0.9544170039091199 -0.2984764356678364
12642588000.0 -0.9571044906206857 -0.28974297926533993 8.721962233259693e-17 7.79750360895472e-20 8.721962233259693e-17 7.79750360895472e-20 -0.9571043044026221 -0.2897435943965101
12643205333.333334 -0.959711882484515 -0.28098594736723836 8.719959576755977e-17 -7.265355247349271e-19 8.719959576755977e-17 -7.265355247349271e-19 -0.9597117019034159 -0.28098656414406264
12643822666.666666 -0.9622391536649393 -0.2722054576124774 8.717215419291953e-17 -1.5306700215461876e-18 8.717215419291953e-17 -1.5306700215461876e-18 -0.9622389787353286 -0.2722060759833064
12644440000.0 -0.9646860931750744 -0.2634022430323039 8.713730284036551e-17 -2.3343601649282595e-18 8.713730284036551e-17 -2.3343601649282595e-18 -0.964685923911003 -0.26340286294536025
12645057333.333334 -0.9670524967344168 -0.25457703855526215 8.709504757001553e-17 -3.1375377299447342e-18 8.709504757001553e-17 -3.1375377299447342e-18 -0.9670523331494622 -0.254577659958645
12645674666.666666 -0.9693381667859595 -0.24573058094562106 8.704539486967247e-17 -3.940134561909896e-18 8.704539486967247e-17 -3.940134561909896e-18 -0.9693380088932226 -0.24573120378731
12646292000.0 -0.9715429125126719 -0.2368636087418913 8.698835185402526e-17 -4.742082582191162e-18 8.698835185402526e-17 -4.742082582191162e-18 -0.9715427603247782 -0.23686423296975112
12646909333.333334 -0.9736665498533911 -0.2279768621953356 8.692392626380135e-17 -5.5433137939311055e-18 8.692392626380135e-17 -5.5433137939311055e-18 -0.9736664033824879 -0.22797748775712037
12647526666.666666 -0.975708901518235 -0.21907108320797605 8.685212646486262e-17 -6.3437602878171404e-18 8.685212646486262e-17 -6.3437602878171404e-18 -0.9757087607759919 -0.2190717100513337
12648144000.0 -0.9776697970033769 -0.21014701527076762 8.677296144724836e-17 -7.143354247839002e-18 8.677296144724836e-17 -7.143354247839002e-18 -0.9776696620009837 -0.2101476433432441
12648761333.333334 -0.9795490726052977 -0.2012054034014452 8.668644082416921e-17 -7.942027956991644e-18 8.668644082416921e-17 -7.942027956991644e-18 -0.9795489433534642 -0.20120603265048903
12649378666.666666 -0.9813465714344053 -0.19224699408254886 8.659257483094478e-17 -8.739713803014379e-18 8.659257483094478e-17 -8.739713803014379e-18 -0.9813464479433595 -0.19224762445551533
12649996000.0 -0.9830621434282029 -0.18327253519877076 8.649137432388931e-17 -9.536344284106461e-18 8.649137432388931e-17 -9.536344284106461e-18 -0.9830620257076922 -0.18327316664292678
12650613333.333334 -0.9846956453637818 -0.17428277597468556 8.638285077914724e-17 -1.0331852014611425e-17 8.638285077914724e-17 -1.0331852014611425e-17 -0.9846955334230704 -0.17428340843721357
12651230666.666666 -0.9862469408697421 -0.1652784669123975 8.626701629147486e-17 -1.1126169730709014e-17 8.626701629147486e-17 -1.1126169730709014e-17 -0.9862468347176102 -0.16527910034040008
12651848000.0 -0.9877159004376641 -0.15626035972841051 8.614388357296716e-17 -1.1919230296106698e-17 8.614388357296716e-17 -1.1919230296106698e-17 -0.9877158000824084 -0.15626099406891486
12652465333.333334 -0.9891024014328345 -0.14722920729134698 8.601346595173963e-17 -1.271096670767159e-17 8.601346595173963e-17 -1.271096670767159e-17 -0.989102306882267 -0.14722984249130927
12653082666.666666 -0.9904063281045221 -0.13818576355889994 8.587577737055197e-17 -1.3501312101095486e-17 8.587577737055197e-17 -1.3501312101095486e-17 -0.9904062393659692 -0.13818639956520978
12653700000.0 -0.9916275715956673 -0.12913078351469218 8.57308323853807e-17 -1.4290199756533407e-17 8.57308323853807e-17 -1.4290199756533407e-17 -0.9916274886759701 -0.12913142027417712
12654317333.333334 -0.992766029951901 -0.12006502310572557 8.557864616394488e-17 -1.5077563104205923e-17 8.557864616394488e-17 -1.5077563104205923e-17 -0.9927659528574145 -0.12006566056515551
12654934666.666666 -0.9938216081301261 -0.11098923917879319 8.541923448417388e-17 -1.5863335730020523e-17 8.541923448417388e-17 -1.5863335730020523e-17 -0.9938215368667171 -0.11098987728488457
12655552000.0 -0.9947942180064157 -0.10190418941751923 8.525261373262819e-17 -1.664745138115317e-17 8.525261373262819e-17 -1.664745138115317e-17 -0.9947941525794642 -0.10190482811693985
12656169333.333334 -0.9956837783833706 -0.0928106322791333 8.507880090286936e-17 -1.7429843971616587e-17 8.507880090286936e-17 -1.7429843971616587e-17 -0.9956837187977693 -0.09281127151850667
12656786666.666666 -0.9964902149969065 -0.08370932693109498 8.489781359377613e-17 -1.8210447587821713e-17 8.489781359377613e-17 -1.8210447587821713e-17 -0.9964901612570596 -0.08370996665700467
12657404000.0 -0.9972134605224556 -0.07460103318765846 8.470967000781037e-17 -1.8989196494122348e-17 8.470967000781037e-17 -1.8989196494122348e-17 -0.9972134126322797 -0.07460167334665273
12658021333.333334 -0.9978534545805859 -0.06548651144646844 8.451438894923346e-17 -1.9766025138335277e-17 8.451438894923346e-17 -1.9766025138335277e-17 -0.9978534125435071 -0.0654871519850645
12658638666.666666 -0.998410143742024 -0.05636652262530594 8.431198982227651e-17 -2.0540868157225853e-17 8.431198982227651e-17 -2.0540868157225853e-17 -0.9984101075609809 -0.056367163489994564
12659256000.0 -0.9988834815321502 -0.047241828098081605 8.410249262924617e-17 -2.1313660382032895e-17 8.410249262924617e-17 -2.1313660382032895e-17 -0.9988834512095927 -0.047242469235331624
12659873333.333334 -0.9992734284348458 -0.03811318963175527 8.388591796859688e-17 -2.2084336843907813e-17 8.388591796859688e-17 -2.2084336843907813e-17 -0.9992734039727337 -0.03811383098801796
12660490666.666666 -0.9995799518958095 -0.02898136932254221 8.366228703294839e-17 -2.2852832779356344e-17 8.366228703294839e-17 -2.2852832779356344e-17 -0.9995799332956125 -0.028982010844255734
12661108000.0 -0.9998030263252733 -0.019847129532090984 8.343162160703958e-17 -2.3619083635707975e-17 8.343162160703958e-17 -2.3619083635707975e-17 -0.999803013587973 -0.019847771165684966
12661725333.333334 -0.99994263310013 -0.010711232824321543 8.319394406565928e-17 -2.4383025076472936e-17 8.319394406565928e-17 -2.4383025076472936e-17 -0.9999426262262181 -0.01071187451622149
12662342666.666666 -0.9999987605655002 -0.0015744419012518299 8.294927737150069e-17 -2.5144592986773477e-17 8.294927737150069e-17 -2.5144592986773477e-17 -0.9999987595549792 -0.001575083597883599
12662960000.0 -0.999971404035698 0.007562480460306373 8.269764507298386e-17 -2.5903723478692542e-17 8.269764507298386e-17 -2.5903723478692542e-17 -0.9999714088880798 0.0075618388125121
12663577333.333334 -0.999860565794622 0.0166987714726545 8.243907130202546e-17 -2.6660352896615283e-17 8.243907130202546e-17 -2.6660352896615283e-17 -0.99986057650893 0.016698129927257742
12664194666.666666 -0.9996662550955671 0.02583366840080258 8.217358077175443e-17 -2.741441782256774e-17 8.217358077175443e-17 -2.741441782256774e-17 -0.9996662716703352 0.025833027011349565
12664812000.0 -0.9993884881604513 0.03496640862606022 8.190119877418475e-17 -2.816585508151177e-17 8.190119877418475e-17 -2.816585508151177e-17 -0.999388510593725 0.034965767446078974
12665429333.333334 -0.9990272881784592 0.04409622970993046 8.162195117784002e-17 -2.8914601746619884e-17 8.162195117784002e-17 -2.8914601746619884e-17 -0.9990273164677946 0.0440955887929263
12666046666.666666 -0.9985826853041156 0.053222369457392026 8.133586442532661e-17 -2.96605951445362e-17 8.133586442532661e-17 -2.96605951445362e-17 -0.9985827194465796 0.05322172885684305
12666664000.0 -0.9980547166547477 0.06234406598104156 8.10429655308575e-17 -3.040377286061583e-17 8.10429655308575e-17 -3.040377286061583e-17 -0.9980547566469198 0.0623434257503943
12667281333.333334 -0.9974434263074092 0.07146055776421653 8.074328207773772e-17 -3.114407274411751e-17 8.074328207773772e-17 -3.114407274411751e-17 -0.9974434721453811 0.0714599179568814
12667898666.666666 -0.9967488652951929 0.08057108372476858 8.043684221578987e-17 -3.188143291340377e-17 8.043684221578987e-17 -3.188143291340377e-17 -0.9967489169745671 0.0805704443941154
12668516000.0 -0.9959710916029496 0.08967488327879979 8.012367465874072e-17 -3.2615791761093034e-17 8.012367465874072e-17 -3.2615791761093034e-17 -0.9959711491188434 0.0896742444781535
12669133333.333334 -0.9951101701624916 0.0987711964036782 7.980380868156257e-17 -3.334708795918705e-17 7.980380868156257e-17 -3.334708795918705e-17 -0.9951102335095349 0.09877055818631425
12669750666.666666 -0.9941661728471255 0.10785926370199701 7.947727411775656e-17 -3.407526046419456e-17 7.947727411775656e-17 -3.407526046419456e-17 -0.9941662420194614 0.10785862612113693
12670368000.0 -0.9931391784656813 0.11693832646463248 7.91441013566042e-17 -3.4800248522197467e-17 7.91441013566042e-17 -3.4800248522197467e-17 -0.9931392534569679 0.11693768957343952
