! Parameters = {f0=12700.012000; bw=77.238000; Q=6100.000000; N=10; m_0_1=1.181076; m_1_1=-1.048605; m_1_2=1.015888; m_2_2=-1.049254; m_2_3=0.652851; m_2_8=-0.003882; m_2_9=0.032822; m_3_3=-1.051191; m_3_4=0.541380; m_3_7=-0.003282; m_3_8=-0.100370; m_3_9=-0.003882; m_4_4=-1.054116; m_4_5=0.377715; m_4_6=0.000235; m_4_7=-0.120919; m_4_8=-0.003282; m_5_5=-1.053734; m_5_6=0.785070; m_5_7=0.000235; m_6_6=-1.053735; m_6_7=0.378057; m_7_7=-1.054102; m_7_8=0.541498; m_8_8=-1.051193; m_8_9=0.653164; m_9_9=-1.049259; m_9_10=1.016966; m_10_10=-1.048615; m_10_11=1.181871}
!
! Created with skrf (http://scikit-rf.org).
# Hz S RI R 50.0 
!freq ReS11 ImS11 ReS21 ImS21 ReS12 ImS12 ReS22 ImS22
12607400000.0 -0.4702921513769588 -0.8825107888026519 5.0025777503565946e-17 5.0809005497566695e-17 5.0025777503565946e-17 5.0809005497566695e-17 -0.47029160209048704 -0.8825110815185326
12608017333.333334 -0.4772440733014994 -0.878770786097513 5.041989994009696e-17 5.0398170891272344e-17 5.041989994009696e-17 5.0398170891272344e-17 -0.477243526369639 -0.8787710831258154
12608634666.666666 -0.4841662548821736 -0.8749760211761335 5.081065417262994e-17 4.998428476973165e-17 5.081065417262994e-17 4.998428476973165e-17 -0.48416571033877565 -0.874976322497927
12609252000.0 -0.49105826475050957 -0.8711267305163268 5.119801662095912e-17 4.956737470200749e-17 5.119801662095912e-17 4.956737470200749e-17 -0.4910577226292727 -0.8711270361124144
12609869333.333334 -0.4979196734183413 -0.8672231539937227 5.15819639301854e-17 4.914746843899394e-17 5.15819639301854e-17 4.914746843899394e-17 -0.4979191337528095 -0.8672234638446418
12610486666.666666 -0.5047500533042993 -0.8632655348669692 5.196247297210554e-17 4.872459391158793e-17 5.196247297210554e-17 4.872459391158793e-17 -0.5047495161278611 -0.8632658489529964
12611104000.0 -0.5115489787608286 -0.859254119762368 5.233952084661693e-17 4.8298779228817783e-17 5.233952084661693e-17 4.8298779228817783e-17 -0.5115484441067132 -0.8592544380635155
12611721333.333334 -0.5183160261003175 -0.8551891586587277 5.271308488305916e-17 4.7870052676013134e-17 5.271308488305916e-17 4.7870052676013134e-17 -0.5183154940015953 -0.8551894811547497
12612338666.666666 -0.5250507736218475 -0.8510709048715903 5.3083142641587195e-17 4.743844271291375e-17 5.3083142641587195e-17 4.743844271291375e-17 -0.5250502441114243 -0.8510712315419788
12612956000.0 -0.5317528016373205 -0.846899615037525 5.3449671914507044e-17 4.7003977971791593e-17 5.3449671914507044e-17 4.7003977971791593e-17 -0.5317522747479396 -0.8468999458615164
12613573333.333334 -0.5384216924974953 -0.8426755490982157 5.381265072759255e-17 4.656668725556755e-17 5.381265072759255e-17 4.656668725556755e-17 -0.5384211682617321 -0.842675884054788
12614190666.666666 -0.5450570306182307 -0.8383989702841267 5.4172057341398677e-17 4.612659953590423e-17 5.4172057341398677e-17 4.612659953590423e-17 -0.5450565090684929 -0.8383993093520028
12614808000.0 -0.5516584025062392 -0.8340701450981877 5.4527870252552707e-17 4.5683743951296344e-17 5.4527870252552707e-17 4.5683743951296344e-17 -0.5516578836747629 -0.8340704882558364
12615425333.333334 -0.558225396784972 -0.8296893432991096 5.488006819502983e-17 4.523814980515135e-17 5.488006819502983e-17 4.523814980515135e-17 -0.5582248807038219 -0.8296896905247473
12616042666.666666 -0.5647576042201149 -0.8252568378846696 5.52286301414198e-17 4.47898465638524e-17 5.52286301414198e-17 4.47898465638524e-17 -0.5647570909211806 -0.8252571891562608
12616660000.0 -0.5712546177451835 -0.8207729050746331 5.557353530416482e-17 4.4338863854827545e-17 5.557353530416482e-17 4.4338863854827545e-17 -0.5712541072601784 -0.8207732603698931
12617277333.333334 -0.5777160324868671 -0.8162378242935583 5.591476313679585e-17 4.3885231464591834e-17 5.591476313679585e-17 4.3885231464591834e-17 -0.5777155248473259 -0.8162381835899534
12617894666.666666 -0.584141445790236 -0.8116518781533995 5.625229333513805e-17 4.342897933679948e-17 5.625229333513805e-17 4.342897933679948e-17 -0.5841409410275133 -0.811652241428149
12618512000.0 -0.5905304572439499 -0.8070153524358127 5.65861058385273e-17 4.297013757025118e-17 5.65861058385273e-17 4.297013757025118e-17 -0.590529955389218 -0.8070157196658904
12619129333.333334 -0.5968826687049784 -0.8023285360745128 5.691618083096812e-17 4.250873641694893e-17 5.691618083096812e-17 4.250873641694893e-17 -0.5968821697892251 -0.8023289072366481
12619746666.666666 -0.6031976843236201 -0.797591721137118 5.724249874231682e-17 4.2044806280086815e-17 5.724249874231682e-17 4.2044806280086815e-17 -0.6031971883776471 -0.7975920962077974
12620364000.0 -0.6094751105681471 -0.7928052028069652 5.756504024942898e-17 4.1578377712058777e-17 5.756504024942898e-17 4.1578377712058777e-17 -0.6094746176225679 -0.7928055817624342
12620981333.333334 -0.615714556249214 -0.7879692793648 5.788378627728756e-17 4.1109481412462864e-17 5.788378627728756e-17 4.1109481412462864e-17 -0.6157140663344524 -0.7879696621810642
12621598666.666666 -0.6219156325443275 -0.7830842521701205 5.819871800012531e-17 4.06381482260819e-17 5.819871800012531e-17 4.06381482260819e-17 -0.6219151456906158 -0.7830846388229481
12622216000.0 -0.6280779530220546 -0.7781504256424161 5.850981684252479e-17 4.016440914086397e-17 5.850981684252479e-17 4.016440914086397e-17 -0.628077469259431 -0.778150816107338
12622833333.333334 -0.6342011336661018 -0.7731681072421956 5.88170644805035e-17 3.968829528589308e-17 5.88170644805035e-17 3.968829528589308e-17 -0.6342006530244086 -0.7731685014945069
12623450666.666666 -0.6402847928992469 -0.7681376074518262 5.91204428425824e-17 3.920983792935145e-17 5.91204428425824e-17 3.920983792935145e-17 -0.6402843154081296 -0.7681380054665894
12624068000.0 -0.6463285516070961 -0.7630592397562067 5.941993411083679e-17 3.8729068476475433e-17 5.941993411083679e-17 3.8729068476475433e-17 -0.6463280772960011 -0.7630596415082518
12624685333.333334 -0.6523320331618183 -0.7579333206231379 5.971552072193624e-17 3.824601846749524e-17 5.971552072193624e-17 3.824601846749524e-17 -0.6523315620599899 -0.7579337260870644
12625302666.666666 -0.6582948634453742 -0.7527601694838031 6.000718536815588e-17 3.776071957558531e-17 6.000718536815588e-17 3.776071957558531e-17 -0.658294395581855 -0.752760578633982
12625920000.0 -0.6642166708731362 -0.7475401087126059 6.029491099838817e-17 3.727320360477987e-17 6.029491099838817e-17 3.727320360477987e-17 -0.6642162062767643 -0.7475405215231817
12626537333.333334 -0.6700970864168273 -0.7422734636072661 6.057868081911799e-17 3.678350248791357e-17 6.057868081911799e-17 3.678350248791357e-17 -0.670096625116233 -0.7422738800521558
12627154666.666666 -0.6759357436275175 -0.7369605623685453 6.08584782953955e-17 3.6291648284530625e-17 6.08584782953955e-17 3.6291648284530625e-17 -0.6759352856511246 -0.7369609824214441
12627772000.0 -0.6817322786586739 -0.7316017360796105 6.113428715179815e-17 3.579767317877614e-17 6.113428715179815e-17 3.579767317877614e-17 -0.6817318240346952 -0.7316021597139901
12628389333.333334 -0.6874863302885165 -0.726197318685684 6.140609137334538e-17 3.530160947733259e-17 6.140609137334538e-17 3.530160947733259e-17 -0.6874858790449536 -0.726197745874796
12629006666.666666 -0.6931975399428224 -0.7207476469729657 6.167387520643573e-17 3.480348960728135e-17 6.167387520643573e-17 3.480348960728135e-17 -0.6931970921074635 -0.7207480776898428
12629624000.0 -0.6988655517171246 -0.7152530605477799 6.1937623159736e-17 3.430334611401149e-17 6.1937623159736e-17 3.430334611401149e-17 -0.698865107317543 -0.7152534947652378
12630241333.333334 -0.7044900123988912 -0.7097139018154129 6.219732000506989e-17 3.38012116590921e-17 6.219732000506989e-17 3.38012116590921e-17 -0.704489571462443 -0.7097143395060513
12630858666.666666 -0.710070571489496 -0.7041305159588156 6.245295077828352e-17 3.3297119018150537e-17 6.245295077828352e-17 3.3297119018150537e-17 -0.7100701340433195 -0.7041309570950213
12631476000.0 -0.7156068812262437 -0.698503250916913 6.270450078009901e-17 3.279110107873134e-17 6.270450078009901e-17 3.279110107873134e-17 -0.7156064472972562 -0.69850369547086
12632093333.333334 -0.7210985966038574 -0.6928324573631018 6.295195557693839e-17 3.228319083817618e-17 6.295195557693839e-17 3.228319083817618e-17 -0.7210981662187548 -0.6928329053067539
12632710666.666666 -0.7265453753959829 -0.687118488683399 6.319530100174714e-17 3.1773421401463423e-17 6.319530100174714e-17 3.1773421401463423e-17 -0.7265449485812374 -0.6871189399885115
12633328000.0 -0.7319468781766886 -0.6813617009542347 6.343452315479066e-17 3.126182597905928e-17 6.343452315479066e-17 3.126182597905928e-17 -0.7319464549585477 -0.6813621555923566
12633945333.333334 -0.7373027683414042 -0.6755624529204898 6.366960840443118e-17 3.074843788477099e-17 6.366960840443118e-17 3.074843788477099e-17 -0.7373023487458893 -0.6755629108629657
12634562666.666666 -0.7426127121280717 -0.6697211059729538 6.390054338789327e-17 3.0233290533579186e-17 6.390054338789327e-17 3.0233290533579186e-17 -0.742612296180975 -0.6697215671909243
12635180000.0 -0.747876378637809 -0.6638380241259498 6.412731501201255e-17 2.9716417439465005e-17 6.412731501201255e-17 2.9716417439465005e-17 -0.7478759663646924 -0.6638384885903539
12635797333.333334 -0.7530934398556235 -0.6579135739945429 6.434991045395959e-17 2.919785221324616e-17 6.434991045395959e-17 2.919785221324616e-17 -0.7530930312818191 -0.6579140416761214
12636414666.666666 -0.7582635706707638 -0.651948124771804 6.456831716195102e-17 2.867762856039859e-17 6.456831716195102e-17 2.867762856039859e-17 -0.7582631658213698 -0.6519485956410997
12637032000.0 -0.7633864488970703 -0.6459420482056955 6.478252285594644e-17 2.8155780278865793e-17 6.478252285594644e-17 2.8155780278865793e-17 -0.7633860477969504 -0.6459425222330549
12637649333.333334 -0.7684617552930524 -0.6398957185759018 6.499251552832384e-17 2.7632341256870118e-17 6.499251552832384e-17 2.7632341256870118e-17 -0.768461357966834 -0.6398961957314778
12638266666.666666 -0.7734891735816892 -0.6338095126706154 6.519828344453385e-17 2.7107345470728585e-17 6.519828344453385e-17 2.7107345470728585e-17 -0.7734887800537633 -0.6338099929243697
12638884000.0 -0.7784683904702167 -0.6276838097629712 6.539981514374374e-17 2.6580826982647418e-17 6.539981514374374e-17 2.6580826982647418e-17 -0.7784680007647337 -0.6276842930846739
12639501333.333334 -0.783399095669628 -0.6215189915874311 6.559709943945946e-17 2.6052819938521074e-17 6.559709943945946e-17 2.6052819938521074e-17 -0.7833987098104983 -0.6215194779466647
12640118666.666666 -0.7882809819139769 -0.6153154423160402 6.579012542012922e-17 2.552335856572871e-17 6.579012542012922e-17 2.552335856572871e-17 -0.7882805999248698 -0.6153159316822018
12640736000.0 -0.7931137449797012 -0.6090735485342644 6.597888244973808e-17 2.499247717090386e-17 6.597888244973808e-17 2.499247717090386e-17 -0.7931133668840415 -0.6090740408765656
12641353333.333334 -0.7978970837042303 -0.6027936992173462 6.616336016836308e-17 2.4460210137758194e-17 6.616336016836308e-17 2.4460210137758194e-17 -0.7978967095251976 -0.6027941945048163
12641970666.666666 -0.8026307000050842 -0.5964762857056393 6.634354849274162e-17 2.3926591924816494e-17 6.634354849274162e-17 2.3926591924816494e-17 -0.8026303297656138 -0.5964767839071281
12642588000.0 -0.807314298898346 -0.5901217016803572 6.651943761679445e-17 2.3391657063223158e-17 6.651943761679445e-17 2.3391657063223158e-17 -0.8073139326211225 -0.590122202764534
12643205333.333334 -0.811947588516955 -0.5837303431391496 6.669101801214547e-17 2.285544015450529e-17 6.669101801214547e-17 2.285544015450529e-17 -0.8119472262244167 -0.5837308470745095
12643822666.666666 -0.8165302801290354 -0.5773026083712484 6.68582804286218e-17 2.2317975868335994e-17 6.68582804286218e-17 2.2317975868335994e-17 -0.8165299218433686 -0.5773031151261104
12644440000.0 -0.8210620881557842 -0.5708388979327804 6.702121589473024e-17 2.1779298940311137e-17 6.702121589473024e-17 2.1779298940311137e-17 -0.8210617338989235 -0.5708394074752913
12645057333.333334 -0.8255427301892715 -0.5643396146218094 6.717981571812335e-17 2.123944416970218e-17 6.717981571812335e-17 2.123944416970218e-17 -0.8255423799828984 -0.5643401269199453
12645674666.666666 -0.8299719270101029 -0.5578051634531406 6.733407148603994e-17 2.0698446417226477e-17 6.733407148603994e-17 2.0698446417226477e-17 -0.829971580875645 -0.5578056784747095
12646292000.0 -0.834349402604835 -0.5512359516330577 6.748397506573746e-17 2.0156340602784022e-17 6.748397506573746e-17 2.0156340602784022e-17 -0.8343490605634638 -0.5512364693457009
12646909333.333334 -0.8386748841830334 -0.5446323885341599 6.762951860489509e-17 1.9613161703229825e-17 6.762951860489509e-17 1.9613161703229825e-17 -0.8386745462556626 -0.5446329089053533
12647526666.666666 -0.8429481021944132 -0.5379948856696367 6.777069453200636e-17 1.9068944750116395e-17 6.777069453200636e-17 1.9068944750116395e-17 -0.8429477684016987 -0.5379954086666947
12648144000.0 -0.8471687903456069 -0.5313238566676733 6.790749555675318e-17 1.8523724827435692e-17 6.790749555675318e-17 1.8523724827435692e-17 -0.8471684607079448 -0.5313243822577496
12648761333.333334 -0.8513366856167541 -0.5246197172456712 6.803991467035727e-17 1.797753706937595e-17 6.803991467035727e-17 1.797753706937595e-17 -0.8513363601542804 -0.5246202453957615
12649378666.666666 -0.855451528277808 -0.5178828851844901 6.816794514591879e-17 1.74304166580569e-17 6.816794514591879e-17 1.74304166580569e-17 -0.855451207010395 -0.5178834158614328
12649996000.0 -0.8595130619048493 -0.5111137803021928 6.829158053873373e-17 1.6882398821272343e-17 6.829158053873373e-17 1.6882398821272343e-17 -0.8595127448521082 -0.5111143134726737
12650613333.333334 -0.8635210333959988 -0.504312824428008 6.841081468659498e-17 1.6333518830227046e-17 6.841081468659498e-17 1.6333518830227046e-17 -0.8635207205772738 -0.5043133600585588
12651230666.666666 -0.8674751929871826 -0.497480441376039 6.852564171007165e-17 1.5783811997285226e-17 6.852564171007165e-17 1.5783811997285226e-17 -0.8674748844215538 -0.49748097943304304
12651848000.0 -0.8713752942677591 -0.4906170569187587 6.863605601277918e-17 1.5233313673678322e-17 6.863605601277918e-17 1.5233313673678322e-17 -0.871374989974039 -0.49061759736845045
12652465333.333334 -0.8752210941958007 -0.4837230987605974 6.874205228161881e-17 1.468205924726783e-17 6.874205228161881e-17 1.468205924726783e-17 -0.8752207941925337 -0.4837236415690657
12653082666.666666 -0.8790123531132261 -0.476798996511315 6.884362548700703e-17 1.4130084140269555e-17 6.884362548700703e-17 1.4130084140269555e-17 -0.8790120574186893 -0.47679954164450594
12653700000.0 -0.8827488347608639 -0.469845181659008 6.894077088308852e-17 1.3577423806968689e-17 6.894077088308852e-17 1.3577423806968689e-17 -0.882748543393061 -0.46984572908272465
12654317333.333334 -0.8864303062930293 -0.4628620875434649 6.903348400792356e-17 1.3024113731469043e-17 6.903348400792356e-17 1.3024113731469043e-17 -0.8864300192696957 -0.4628626372233723
12654934666.666666 -0.8900565382920999 -0.4558501493290672 6.912176068366317e-17 1.2470189425413818e-17 6.912176068366317e-17 1.2470189425413818e-17 -0.8900562556306957 -0.4558507012306919
12655552000.0 -0.8936273047828539 -0.4488098039775657 6.920559701670524e-17 1.1915686425705397e-17 6.920559701670524e-17 1.1915686425705397e-17 -0.8936270265005684 -0.44881035806630026
12656169333.333334 -0.8971423832464177 -0.4417414902211321 6.928498939782812e-17 1.1360640292254065e-17 6.928498939782812e-17 1.1360640292254065e-17 -0.8971421093601637 -0.44174204646223547
12656786666.666666 -0.9006015546343072 -0.43464564853466164 6.935993450231413e-17 1.0805086605676863e-17 6.935993450231413e-17 1.0805086605676863e-17 -0.9006012851607235 -0.43464620689326267
12657404000.0 -0.9040046033819417 -0.4275227211086047 6.943042929004651e-17 1.0249060965045226e-17 6.943042929004651e-17 1.0249060965045226e-17 -0.9040043383373894 -0.42752328154970326
12658021333.333334 -0.9073513174221496 -0.420373151821257 6.949647100559391e-17 9.692598985598898e-18 6.949647100559391e-17 9.692598985598898e-18 -0.907351056822712 -0.4203737143097265
12658638666.666666 -0.910641488198312 -0.4131973862112532 6.955805717827297e-17 9.135736296485335e-18 6.955805717827297e-17 9.135736296485335e-18 -0.910641232059795 -0.4131979507118433
12659256000.0 -0.913874910677469 -0.40599587144957083 6.961518562219799e-17 8.578508538457566e-18 6.961518562219799e-17 8.578508538457566e-18 -0.9138746590153977 -0.40599643792690887
12659873333.333334 -0.9170513833630319 -0.39876905631179116 6.966785443630525e-17 8.020951361629599e-18 6.966785443630525e-17 8.020951361629599e-18 -0.9170511361926529 -0.39876962473038535
12660490666.666666 -0.9201707083072781 -0.39151739115029166 6.971606200436435e-17 7.46310042319456e-18 6.971606200436435e-17 7.46310042319456e-18 -0.9201704656435542 -0.3915179614745319
12661108000.0 -0.9232326911238382 -0.3842413278658139 6.975980699497105e-17 6.904991385135213e-18 6.975980699497105e-17 6.904991385135213e-18 -0.9232324529814515 -0.3842419000599755
12661725333.333334 -0.9262371409996364 -0.3769413198797229 6.979908836151955e-17 6.346659911970894e-18 6.979908836151955e-17 6.346659911970894e-18 -0.9262369073929855 -0.3769418939079678
12662342666.666666 -0.9291838707069447 -0.3696178221053573 6.983390534215855e-17 5.788141668475292e-18 6.983390534215855e-17 5.788141668475292e-18 -0.9291836416501447 -0.3696183979317369
12662960000.0 -0.9320726966149302 -0.3622712909199696 6.986425745972874e-17 5.22947231740709e-18 6.986425745972874e-17 5.22947231740709e-18 -0.9320724721218098 -0.36227186850842635
12663577333.333334 -0.9349034387011496 -0.35490218413615365 6.98901445216818e-17 4.6706875172415805e-18 6.98901445216818e-17 4.6706875172415805e-18 -0.9349032187852543 -0.3549027634505245
12664194666.666666 -0.9376759205627564 -0.34751096097337136 6.99115666199826e-17 4.111822919893533e-18 6.99115666199826e-17 4.111822919893533e-18 -0.9376757052373417 -0.347511541977388
12664812000.0 -0.9403899694275198 -0.3400980820292243 6.992852413099102e-17 3.552914168461187e-18 6.992852413099102e-17 3.552914168461187e-18 -0.940389758705557 -0.3400986646865179
12665429333.333334 -0.9430454161645526 -0.3326640092508879 6.994101771532786e-17 2.9939968949518733e-18 6.994101771532786e-17 2.9939968949518733e-18 -0.9430452100587233 -0.3326645935249894
12666046666.666666 -0.9456420952948372 -0.32520920590634933 6.994904831772197e-17 2.4351067180211328e-18 6.994904831772197e-17 2.4351067180211328e-18 -0.9456418938175354 -0.3252097917606931
12666664000.0 -0.9481798450016263 -0.31773413655529836 6.9952617166839e-17 1.876279240699616e-18 6.9952617166839e-17 1.876279240699616e-18 -0.9481796481649545 -0.3177347239532232
12667281333.333334 -0.9506585071404277 -0.310239267020444 6.995172577509238e-17 1.3175500481517453e-18 6.995172577509238e-17 1.3175500481517453e-18 -0.9506583149561998 -0.3102398559251967
12667898666.666666 -0.953077927248902 -0.3027250643583802 6.994637593843677e-17 7.58954705398567e-19 6.994637593843677e-17 7.58954705398567e-19 -0.9530777397286407 -0.30272565473311713
12668516000.0 -0.9554379545565204 -0.2951919968303712 6.993656973614253e-17 2.0052875506267458e-19 6.993656973614253e-17 2.0052875506267458e-19 -0.9554377717114553 -0.2951925886381601
12669133333.333334 -0.9577384419938724 -0.28764053387344113 6.992230953055341e-17 -3.5769228487660967e-19 6.992230953055341e-17 -3.5769228487660967e-19 -0.9577382638349424 -0.287641127077265
12669750666.666666 -0.9599792462019137 -0.2800711460708785 6.990359796682547e-17 -9.156729233435096e-19 6.990359796682547e-17 -9.156729233435096e-19 -0.9599790727397624 -0.28007174063363605
12670368000.0 -0.9621602275408883 -0.2724843051229074 6.988043797264816e-17 -1.4733776984135272e-18 6.988043797264816e-17 -1.4733776984135272e-18 -0.9621600587858689 -0.2724849010074171
