! Parameters = {f0=12700.012000; bw=77.238000; Q=6100.000000; N=10; m_0_1=1.349244; m_1_1=1.473918; m_1_2=1.184056; m_2_2=1.473269; m_2_3=0.821019; m_2_8=0.004526; m_2_9=0.041230; m_3_3=1.471332; m_3_4=0.709548; m_3_7=0.005126; m_3_8=-0.091962; m_3_9=0.004526; m_4_4=1.468407; m_4_5=0.545883; m_4_6=0.008643; m_4_7=-0.112511; m_4_8=0.005126; m_5_5=1.468789; m_5_6=0.953238; m_5_7=0.008643; m_6_6=1.468788; m_6_7=0.546225; m_7_7=1.468421; m_7_8=0.709666; m_8_8=1.471330; m_8_9=0.821332; m_9_9=1.473264; m_9_10=1.185134; m_10_10=1.473908; m_10_11=1.350039}
!
! Created with skrf (http://scikit-rf.org).
# Hz S RI R 50.0 
!freq ReS11 ImS11 ReS21 ImS21 ReS12 ImS12 ReS22 ImS22
12607400000.0 -0.9998790786568634 -0.015550821975189586 1.5263920158090057e-16 -4.264827441555669e-17 1.5263920158090057e-16 -4.264827441555669e-17 -0.9998790676044984 -0.01555153259841743
12608017333.333334 -0.9999963931518955 -0.0026858300392266624 1.5204415638920692e-16 -4.461323862912286e-17 1.5204415638920692e-16 -4.461323862912286e-17 -0.9999963912428929 -0.0026865407110439757
12608634666.666666 -0.9999481864637677 0.01017960645715963 1.5142383002438522e-16 -4.6569947056357644e-17 1.5142383002438522e-16 -4.6569947056357644e-17 -0.999948193697547 0.010178895854383526
12609252000.0 -0.9997344665718463 0.023043358004132812 1.5077833646859933e-16 -4.851807461683662e-17 1.5077833646859933e-16 -4.851807461683662e-17 -0.9997344829463153 0.023042647588005637
12609869333.333334 -0.9993552688515398 0.035903295370584086 1.5010779388166154e-16 -5.045729779703026e-17 1.5010779388166154e-16 -5.045729779703026e-17 -0.9993552943630934 0.03590258525867116
12610486666.666666 -0.9988106560684437 0.04875728995673703 1.4941232457958698e-16 -5.2387294703925754e-17 1.4941232457958698e-16 -5.2387294703925754e-17 -0.9988106907119655 0.04875658026654181
12611104000.0 -0.9981007183679421 0.06160321414664761 1.486920550124304e-16 -5.4307745118441155e-17 1.486920550124304e-16 -5.4307745118441155e-17 -0.998100762136804 0.06160250499559226
12611721333.333334 -0.9972255732603008 0.07443894166003011 1.4794711574146498e-16 -5.621833054846148e-17 1.4794711574146498e-16 -5.621833054846148e-17 -0.997225626146365 0.07443823316543603
12612338666.666666 -0.99618536560121 0.08726234790437333 1.471776414156831e-16 -5.811873428155574e-17 1.471776414156831e-16 -5.811873428155574e-17 -0.9961854275948312 0.08726164018344186
12612956000.0 -0.994980267567796 0.10007131032677695 1.4638377074757433e-16 -6.000864143750152e-17 1.4638377074757433e-16 -6.000864143750152e-17 -0.9949803386578219 0.10007060349656985
12613573333.333334 -0.9936104786301442 0.11286370876493998 1.4556564648831127e-16 -6.188773902027162e-17 1.4556564648831127e-16 -6.188773902027162e-17 -0.9936105588039178 0.1128630029423601
12614190666.666666 -0.9920762255182676 0.12563742579832066 1.4472341540218596e-16 -6.375571596989358e-17 1.4472341540218596e-16 -6.375571596989358e-17 -0.9920763147616309 0.1256367211000928
12614808000.0 -0.9903777621845901 0.1383903470985028 1.4385722824043576e-16 -6.561226321383042e-17 1.4385722824043576e-16 -6.561226321383042e-17 -0.9903778604818848 0.13838964364115408
12615425333.333334 -0.9885153697618805 0.15112036177938815 1.429672397143918e-16 -6.745707371805838e-17 1.429672397143918e-16 -6.745707371805838e-17 -0.9885154770959508 0.151119659679229
12616042666.666666 -0.9864893565167634 0.1638253627462563 1.4205360846797552e-16 -6.928984253777381e-17 1.4205360846797552e-16 -6.928984253777381e-17 -0.9864894728689598 0.16382466211936111
12616660000.0 -0.984300057798676 0.17650324704470394 1.4111649704954812e-16 -7.11102668677304e-17 1.4111649704954812e-16 -7.11102668677304e-17 -0.9843001831488583 0.17650254800689183
12617277333.333334 -0.9819478359843161 0.18915191620895308 1.4015607188311014e-16 -7.291804609220522e-17 1.4015607188311014e-16 -7.291804609220522e-17 -0.9819479703108573 0.1891512188757691
12617894666.666666 -0.9794330804177867 0.20176927660852237 1.3917250323888464e-16 -7.471288183453869e-17 1.3917250323888464e-16 -7.471288183453869e-17 -0.9794332236975746 0.20176858109521764
12618512000.0 -0.9767562073459445 0.2143532397958284 1.3816596520321961e-16 -7.649447800636665e-17 1.3816596520321961e-16 -7.649447800636665e-17 -0.9767563595543892 0.214352546217342
12619129333.333334 -0.9739176598497489 0.22690172285064364 1.371366356479264e-16 -7.826254085633077e-17 1.371366356479264e-16 -7.826254085633077e-17 -0.9739178209607847 0.22690103132158315
12619746666.666666 -0.9709179077707162 0.23941264872586707 1.3608469619893484e-16 -8.001677901848844e-17 1.3608469619893484e-16 -8.001677901848844e-17 -0.9709180777568064 0.23941195936048942
12620364000.0 -0.9677574476332279 0.2518839465909303 1.3501033220435097e-16 -8.175690356026315e-17 1.3501033220435097e-16 -8.175690356026315e-17 -0.967757626465368 0.2518832595031231
12620981333.333334 -0.9644368025624279 0.2643135521742343 1.339137327019508e-16 -8.348262802989206e-17 1.339137327019508e-16 -8.348262802989206e-17 -0.9644369902101553 0.26431286747749766
12621598666.666666 -0.9609565221974613 0.27669940810555 1.3279509038597951e-16 -8.519366850358474e-17 1.3279509038597951e-16 -8.519366850358474e-17 -0.9609567186288551 0.2766987259129765
12622216000.0 -0.9573171826006439 0.2890394642559494 1.3165460157342007e-16 -8.688974363212417e-17 1.3165460157342007e-16 -8.688974363212417e-17 -0.9573173877823332 0.28903878468020655
12622833333.333334 -0.9535193861620457 0.3013316780774239 1.3049246616963413e-16 -8.857057468707115e-17 1.3049246616963413e-16 -8.857057468707115e-17 -0.9535196000592143 0.30133100123073486
12623450666.666666 -0.9495637614997936 0.3135740149409145 1.293088876334446e-16 -9.023588560646638e-17 1.293088876334446e-16 -9.023588560646638e-17 -0.9495639840761855 0.3135733409350394
12624068000.0 -0.945450963356039 0.32576444847303265 1.2810407294158585e-16 -9.188540304014166e-17 1.2810407294158585e-16 -9.188540304014166e-17 -0.9454511945739671 0.3257637774192514
12624685333.333334 -0.9411816724885144 0.3379009608916863 1.2687823255262656e-16 -9.351885639448361e-17 1.2687823255262656e-16 -9.351885639448361e-17 -0.9411819123088635 0.33790029290077855
12625302666.666666 -0.9367565955579767 0.3499815433396884 1.256315803703001e-16 -9.513597787675615e-17 1.256315803703001e-16 -9.513597787675615e-17 -0.936756843940213 0.34998087852191656
12625920000.0 -0.9321764650110952 0.36200419621769725 1.2436433370626801e-16 -9.673650253893362e-17 1.2436433370626801e-16 -9.673650253893362e-17 -0.9321767219132695 0.3620035346827872
12626537333.333334 -0.9274420389593419 0.37396692951481725 1.2307671324235087e-16 -9.832016832101294e-17 1.2307671324235087e-16 -9.832016832101294e-17 -0.9274423043381017 0.37396627137194144
12627154666.666666 -0.9225541010534607 0.3858677631381529 1.2176894299218577e-16 -9.988671609385231e-17 1.2176894299218577e-16 -9.988671609385231e-17 -0.9225543748640541 0.38586710849591155
12627772000.0 -0.9175134603536615 0.39770472724076433 1.2044125026230501e-16 -1.0143588970154216e-16 1.2044125026230501e-16 -1.0143588970154216e-16 -0.9175137425499438 0.3977040762071672
12628389333.333334 -0.9123209511959447 0.40947586254714363 1.1909386561279824e-16 -1.0296743600311667e-16 1.1909386561279824e-16 -1.0296743600311667e-16 -0.9123212417303893 0.40947521522959307
12629006666.666666 -0.9069774330537155 0.4211792206781992 1.1772702281727745e-16 -1.0448110491394215e-16 1.1772702281727745e-16 -1.0448110491394215e-16 -0.9069777318774191 0.4211785771834716
12629624000.0 -0.9014837903956705 0.4328128644733853 1.1634095882246886e-16 -1.0597664944639901e-16 1.1634095882246886e-16 -1.0597664944639901e-16 -0.9014840974583642 0.4328122249076145
12630241333.333334 -0.8958409325394321 0.44437486831129724 1.149359137071896e-16 -1.0745382575014391e-16 1.149359137071896e-16 -1.0745382575014391e-16 -0.8958412477894877 0.4443742327799561
12630858666.666666 -0.8900497935009879 0.45586331842850597 1.135121306408807e-16 -1.0891239315175663e-16 1.135121306408807e-16 -1.0891239315175663e-16 -0.8900501168854277 0.4558626870363897
12631476000.0 -0.8841113318399877 0.4672763132365307 1.1206985584156386e-16 -1.1035211419391641e-16 1.1206985584156386e-16 -1.1035211419391641e-16 -0.8841116633044915 0.46727568608773856
12632093333.333334 -0.8780265305013351 0.47861196363608466 1.1060933853339643e-16 -1.117727546739271e-16 1.1060933853339643e-16 -1.117727546739271e-16 -0.8780268699902515 0.4786113408340037
12632710666.666666 -0.871796396652263 0.4898683933302212 1.0913083090364606e-16 -1.1317408368177786e-16 1.0913083090364606e-16 -1.1317408368177786e-16 -0.8717967441086174 0.48986777497750866
12633328000.0 -0.8654219615156383 0.5010437391348445 1.0763458805925195e-16 -1.1455587363756497e-16 1.0763458805925195e-16 -1.1455587363756497e-16 -0.8654223168811448 0.5010431253334123
12633945333.333334 -0.8589042801994481 0.5121361512868144 1.0612086798288458e-16 -1.1591790032837437e-16 1.0612086798288458e-16 -1.1591790032837437e-16 -0.8589046434145144 0.5121355421378095
12634562666.666666 -0.8522444315219215 0.5231437937505123 1.0458993148854482e-16 -1.1725994294457744e-16 1.0458993148854482e-16 -1.1725994294457744e-16 -0.8522448025256648 0.5231431893543034
12635180000.0 -0.8454435178332019 0.5340648445213589 1.0304204217670575e-16 -1.1858178411554157e-16 1.0304204217670575e-16 -1.1858178411554157e-16 -0.8454438965634543 0.5340642449775168
12635797333.333334 -0.8385026648326088 0.5448974959278262 1.0147746638899844e-16 -1.1988320994475671e-16 1.0147746638899844e-16 -1.1988320994475671e-16 -0.8385030512259315 0.5448969013351105
12636414666.666666 -0.8314230213826809 0.5556399549300749 9.989647316248915e-17 -1.211640100443358e-16 9.989647316248915e-17 -1.211640100443358e-16 -0.8314234153743713 0.5556393653864143
12637032000.0 -0.8242057593185803 0.5662904434174078 9.829933418345414e-17 -1.2242397756897122e-16 9.829933418345414e-17 -1.2242397756897122e-16 -0.8242061608426852 0.5662898590198872
12637649333.333334 -0.8168520732544687 0.5768471985020621 9.66863237407968e-17 -1.23662909249226e-16 9.66863237407968e-17 -1.23662909249226e-16 -0.8168524822437948 0.5768466193469046
12638266666.666666 -0.809363180385653 0.5873084728111987 9.505771867900458e-17 -1.2488060542424642e-16 9.505771867900458e-17 -1.2488060542424642e-16 -0.8093635967717777 0.5873078989937502
12638884000.0 -0.8017403202870093 0.5976725347762658 9.341379835073888e-17 -1.2607687007382438e-16 9.341379835073888e-17 -1.2607687007382438e-16 -0.8017407440002919 0.5976719663909794
12639501333.333334 -0.7939847547080032 0.6079376689193342 9.175484456894327e-17 -1.2725151084989448e-16 9.175484456894327e-17 -1.2725151084989448e-16 -0.7939851856775992 0.6079371060597557
12640118666.666666 -0.7860977673637514 0.6181021761371881 9.008114155868115e-17 -1.2840433910731458e-16 9.008114155868115e-17 -1.2840433910731458e-16 -0.7860982055176199 0.6181016188959383
12640736000.0 -0.7780806637223903 0.6281643739827394 8.839297590839016e-17 -1.2953516993415096e-16 8.839297590839016e-17 -1.2953516993415096e-16 -0.7780811089873095 0.6281638224515008
12641353333.333334 -0.7699347707893834 0.6381225969430188 8.669063652106012e-17 -1.3064382218111835e-16 8.669063652106012e-17 -1.3064382218111835e-16 -0.7699352230909614 0.6381220512125196
12641970666.666666 -0.7616614368873755 0.6479751967154769 8.497441456471102e-17 -1.317301184906036e-16 8.497441456471102e-17 -1.317301184906036e-16 -0.7616618961500634 0.647974656875477
12642588000.0 -0.7532620314334091 0.6577205424803271 8.324460342273863e-17 -1.327938853248866e-16 8.324460342273863e-17 -1.327938853248866e-16 -0.7532624975805129 0.6577200086196022
12643205333.333334 -0.7447379447121526 0.6673570211706185 8.150149864381961e-17 -1.3383495299376992e-16 8.150149864381961e-17 -1.3383495299376992e-16 -0.7447384176658459 0.6673564933769458
12643822666.666666 -0.7360905876455099 0.6768830377395274 7.974539789148736e-17 -1.3485315568154147e-16 7.974539789148736e-17 -1.3485315568154147e-16 -0.7360910673268485 0.6768825160996722
12644440000.0 -0.7273213915595363 0.6862970154238632 7.797660089336561e-17 -1.3584833147328208e-16 7.797660089336561e-17 -1.3584833147328208e-16 -0.7273218778884695 0.686296500023563
12645057333.333334 -0.7184318079471816 0.6955973960054386 7.619540939011382e-17 -1.3682032238048574e-16 7.619540939011382e-17 -1.3682032238048574e-16 -0.7184323008425664 0.69559688692939
12645674666.666666 -0.709423308228309 0.7047826400686978 7.440212708397811e-17 -1.3776897436605617e-16 7.440212708397811e-17 -1.3776897436605617e-16 -0.7094238076079236 0.7047821374005432
12646292000.0 -0.7002973835057491 0.7138512272559349 7.259705958710173e-17 -1.3869413736858944e-16 7.259705958710173e-17 -1.3869413736858944e-16 -0.700297889286306 0.7138507310782464
12646909333.333334 -0.6910555443188825 0.722801656518533 7.07805143695374e-17 -1.3959566532598393e-16 7.07805143695374e-17 -1.3959566532598393e-16 -0.6910560564160436 0.7228011669128017
12647526666.666666 -0.6816993203934587 0.7316324463655899 6.895280070690402e-17 -1.4047341619840075e-16 6.895280070690402e-17 -1.4047341619840075e-16 -0.6816998387218488 0.7316319634122113
12648144000.0 -0.6722302603883096 0.7403421351092127 6.71142296278006e-17 -1.4132725199052062e-16 6.71142296278006e-17 -1.4132725199052062e-16 -0.6722307848615294 0.7403416588874722
12648761333.333334 -0.6626499316390465 0.7489292811064131 6.526511386097858e-17 -1.4215703877309774e-16 6.526511386097858e-17 -1.4215703877309774e-16 -0.6626504621696895 0.7489288116944756
12649378666.666666 -0.6529599198989362 0.7573924629974725 6.340576778221876e-17 -1.429626467038411e-16 6.340576778221876e-17 -1.429626467038411e-16 -0.6529604563986003 0.757392000472367
12649996000.0 -0.6431618290758674 0.7657302799416958 6.153650736091074e-17 -1.4374395004761779e-16 6.153650736091074e-17 -1.4374395004761779e-16 -0.6431623714551726 0.7657298243793046
12650613333.333334 -0.6332572809673408 0.7739413518488684 5.965765010645143e-17 -1.4450082719593105e-16 5.965765010645143e-17 -1.4450082719593105e-16 -0.6332578291359421 0.7739409033239139
12651230666.666666 -0.6232479149918552 0.7820243196078418 5.776951501440655e-17 -1.4523316068570037e-16 5.776951501440655e-17 -1.4523316068570037e-16 -0.6232484688584587 0.7820238781938751
12651848000.0 -0.6131353879174144 0.7899778453116035 5.587242251236961e-17 -1.4594083721736766e-16 5.587242251236961e-17 -1.4594083721736766e-16 -0.6131359473897918 0.7899774110809907
12652465333.333334 -0.6029213735875615 0.7978006124785131 5.3966694405675906e-17 -1.4662374767226885e-16 5.3966694405675906e-17 -1.4662374767226885e-16 -0.602921938572565 0.7978001855024242
12653082666.666666 -0.5926075626441883 0.8054913262703174 5.205265382291534e-17 -1.4728178712929466e-16 5.205265382291534e-17 -1.4728178712929466e-16 -0.5926081330477682 0.8054909066187157
12653700000.0 -0.5821956622475634 0.8130487137065789 5.0130625161119446e-17 -1.4791485488088721e-16 5.0130625161119446e-17 -1.4791485488088721e-16 -0.5821962379747808 0.8130483014482073
12654317333.333334 -0.5716873957940275 0.8204715238751707 4.820093403096583e-17 -1.4852285444824766e-16 4.820093403096583e-17 -1.4852285444824766e-16 -0.5716879767490722 0.8204711190775421
12654934666.666666 -0.561084502630603 0.8277585281394396 4.6263907201599636e-17 -1.4910569359590042e-16 4.6263907201599636e-17 -1.4910569359590042e-16 -0.5610850887168091 0.8277581308688261
12655552000.0 -0.5503887377669504 0.8349085203416634 4.4319872545365384e-17 -1.4966328434550846e-16 4.4319872545365384e-17 -1.4966328434550846e-16 -0.5503893288868124 0.8349081306630847
12656169333.333334 -0.5396018715851569 0.8419203170025042 4.236915898245277e-17 -1.501955429889489e-16 4.236915898245277e-17 -1.501955429889489e-16 -0.5396024676403457 0.8419199349797175
12656786666.666666 -0.5287256895465146 0.8487927575170312 4.041209642522605e-17 -1.5070239010071397e-16 4.041209642522605e-17 -1.5070239010071397e-16 -0.5287262904378927 0.8487923832125187
12657404000.0 -0.5177619918960784 0.855524704346758 3.8449015722536863e-17 -1.5118375054955205e-16 3.8449015722536863e-17 -1.5118375054955205e-16 -0.5177625975237192 0.8555243378217205
12658021333.333334 -0.5067125933644485 0.8621150432080844 3.648024860384173e-17 -1.5163955350940018e-16 3.648024860384173e-17 -1.5163955350940018e-16 -0.5067132036276503 0.8621146845224282
12658638666.666666 -0.4955793228679252 0.8685626832564078 3.4506127623245335e-17 -1.5206973246957792e-16 3.4506127623245335e-17 -1.5206973246957792e-16 -0.49557993766522873 0.8685623324687353
12659256000.0 -0.48436402320515043 0.8748665572670629 3.252698610334111e-17 -1.524742252442739e-16 3.252698610334111e-17 -1.524742252442739e-16 -0.4843646424343566 0.8748662144346646
12659873333.333334 -0.4730685507523747 0.8810256218117894 3.054315807902227e-17 -1.5285297398128395e-16 3.054315807902227e-17 -1.5285297398128395e-16 -0.47306917431056017 0.881025286990633
12660490666.666666 -0.4616947751565389 0.8870388574312604 2.8554978241204573e-17 -1.5320592517002023e-16 2.8554978241204573e-17 -1.5320592517002023e-16 -0.461695402940074 0.8870385306759815
12661108000.0 -0.4502445790249052 0.8929052688043051 2.656278188033003e-17 -1.5353302964881182e-16 2.656278188033003e-17 -1.5353302964881182e-16 -0.4502452109294717 0.8929049501682008
12661725333.333334 -0.43871985761455107 0.8986238849120758 2.4566904830010127e-17 -1.5383424261143405e-16 2.4566904830010127e-17 -1.5383424261143405e-16 -0.4387204935351581 0.898623574447093
12662342666.666666 -0.4271225185177022 0.9041937591992647 2.2567683410381807e-17 -1.5410952361294293e-16 2.2567683410381807e-17 -1.5410952361294293e-16 -0.4271231583487049 0.9041934569559933
12662960000.0 -0.4154544813465948 0.9096139697304759 2.0565454371543655e-17 -1.5435883657475276e-16 2.0565454371543655e-17 -1.5435883657475276e-16 -0.41545512498171083 0.9096136757581392
12663577333.333334 -0.40371767741553377 0.9148836193429251 1.8560554836889482e-17 -1.5458214978898639e-16 1.8560554836889482e-17 -1.5458214978898639e-16 -0.40371832474786223 0.9148833336893739
12664194666.666666 -0.39191404942106306 0.92000183579501 1.6553322246401435e-17 -1.5477943592209162e-16 1.6553322246401435e-17 -1.5477943592209162e-16 -0.391914700343101 0.9200015585067126
12664812000.0 -0.3800455511207163 0.9249677719105427 1.454409429995609e-17 -1.5495067201771757e-16 1.454409429995609e-17 -1.5495067201771757e-16 -0.3800462055243777 0.9249675030325799
12665429333.333334 -0.3681141470094227 0.9297806057190742 1.2533208900521058e-17 -1.5509583949886468e-16 1.2533208900521058e-17 -1.5509583949886468e-16 -0.36811480478605496 0.9297803452951281
12666046666.666666 -0.35612181199444254 0.9344395405918984 1.0521004097427641e-17 -1.5521492416929046e-16 1.0521004097427641e-17 -1.5521492416929046e-16 -0.3561224730348461 0.9344392886642491
12666664000.0 -0.3440705310682668 0.9389438053739981 8.507818029588181e-18 -1.5530791621418383e-16 8.507818029588181e-18 -1.5530791621418383e-16 -0.34407119526271235 0.9389435619835153
12667281333.333334 -0.33196229898037427 0.9432926545115613 6.493988868773594e-18 -1.5537481020010324e-16 6.493988868773594e-18 -1.5537481020010324e-16 -0.33196296621862115 0.9432924196976975
12667898666.666666 -0.3197991199069002 0.9474853681754535 4.4798547628279165e-18 -1.554156050741823e-16 4.4798547628279165e-18 -1.554156050741823e-16 -0.31979979007821485 0.9474851419762381
12668516000.0 -0.30758300711873876 0.9515212523804167 2.465753778944334e-18 -1.554303041625984e-16 2.465753778944334e-18 -1.554303041625984e-16 -0.30758368011191284 0.9515210348324494
12669133333.333334 -0.29531598264862513 0.9553996390998275 4.520238470651998e-19 -1.5541891516830677e-16 4.520238470651998e-19 -1.5541891516830677e-16 -0.29531665835199394 0.9553994302382719
12669750666.666666 -0.28300007695628454 0.9591198863763274 -1.5609972968407122e-18 -1.5538145016804464e-16 -1.5609972968407122e-18 -1.5538145016804464e-16 -0.2830007552577462 0.959119686234908
