! Parameters = {f0=12700.012000; bw=77.238000; Q=6100.000000; N=10; m_0_1=1.159855; m_1_1=-1.366923; m_1_2=0.994667; m_2_2=-1.367572; m_2_3=0.631630; m_2_8=-0.004944; m_2_9=0.031760; m_3_3=-1.369509; m_3_4=0.520159; m_3_7=-0.004344; m_3_8=-0.101432; m_3_9=-0.004944; m_4_4=-1.372434; m_4_5=0.356494; m_4_6=-0.000827; m_4_7=-0.121981; m_4_8=-0.004344; m_5_5=-1.372052; m_5_6=0.763849; m_5_7=-0.000827; m_6_6=-1.372053; m_6_7=0.356836; m_7_7=-1.372420; m_7_8=0.520277; m_8_8=-1.369511; m_8_9=0.631943; m_9_9=-1.367577; m_9_10=0.995745; m_10_10=-1.366933; m_10_11=1.160650}
!
! Created with skrf (http://scikit-rf.org).
# Hz S RI R 50.0 
!freq ReS11 ImS11 ReS21 ImS21 ReS12 ImS12 ReS22 ImS22
12607400000.0 -0.23329932842949538 -0.9724049688037383 3.1896341818984507e-17 5.5261451248803367e-17 3.1896341818984507e-17 5.5261451248803367e-17 -0.23329873403148443 -0.9724051114114728
12608017333.333334 -0.24035934675282417 -0.9706839776304169 3.229562092853616e-17 5.5014567692813965e-17 3.229562092853616e-17 5.5014567692813965e-17 -0.24035875343585417 -0.970684124546505
12608634666.666666 -0.2474066727378929 -0.9689117288404643 3.269299577092591e-17 5.47648034228537e-17 3.269299577092591e-17 5.47648034228537e-17 -0.24740608053318677 -0.9689118800567259
12609252000.0 -0.2544409342459202 -0.9670883160187159 3.308844559361694e-17 5.4512173080106986e-17 3.308844559361694e-17 5.4512173080106986e-17 -0.2544403431846392 -0.967088471526745
12609869333.333334 -0.2614617598281135 -0.9652138354517292 3.3481949756307546e-17 5.42566914550287e-17 3.3481949756307546e-17 5.42566914550287e-17 -0.26146116994135554 -0.9652139952428942
12610486666.666666 -0.26846877874495473 -0.963288386122788 3.387348773200791e-17 5.3998373486483633e-17 3.387348773200791e-17 5.3998373486483633e-17 -0.26846819006375255 -0.9632885501882318
12611104000.0 -0.27546162098629734 -0.9613120697065306 3.4263039108109734e-17 5.373723426087722e-17 3.4263039108109734e-17 5.373723426087722e-17 -0.2754610335416173 -0.9613122380371721
12611721333.333334 -0.28243991729033097 -0.9592849905637443 3.465058358743615e-17 5.347328901128858e-17 3.465058358743615e-17 5.347328901128858e-17 -0.2824393311130708 -0.9592851631502772
12612338666.666666 -0.2894032991634359 -0.9572072557357528 3.503610098929824e-17 5.320655311658623e-17 3.503610098929824e-17 5.320655311658623e-17 -0.28940271428442327 -0.9572074325686469
12612956000.0 -0.2963513988997226 -0.9550789749387376 3.541957125054493e-17 5.2937042100536504e-17 3.541957125054493e-17 5.2937042100536504e-17 -0.296350815349714 -0.9550791560082402
12613573333.333334 -0.30328384960001376 -0.9529002605580761 3.580097442659277e-17 5.2664771630913875e-17 3.580097442659277e-17 5.2664771630913875e-17 -0.3032832674096921 -0.9529004458542107
12614190666.666666 -0.3102002851917073 -0.9506712276422575 3.61802906924621e-17 5.238975751859415e-17 3.61802906924621e-17 5.238975751859415e-17 -0.310199704391681 -0.9506714171548265
12614808000.0 -0.31710034044778157 -0.9483919938969081 3.655750034380661e-17 5.211201571664081e-17 3.655750034380661e-17 5.211201571664081e-17 -0.3170997610685829 -0.9483921876154928
12615425333.333334 -0.32398365100619125 -0.9460626796785455 3.693258379792084e-17 5.183156231939392e-17 3.693258379792084e-17 5.183156231939392e-17 -0.32398307307827373 -0.9460628775925044
12616042666.666666 -0.3308498533891867 -0.9436834079881912 3.730552159476327e-17 5.1548413561536473e-17 3.730552159476327e-17 5.1548413561536473e-17 -0.33084927694292465 -0.9436836100866627
12616660000.0 -0.3376985850223193 -0.9412543044649394 3.7676294397948393e-17 5.1262585817170075e-17 3.7676294397948393e-17 5.1262585817170075e-17 -0.3376980100880059 -0.9412545107368429
12617277333.333334 -0.34452948425383023 -0.9387754973792418 3.804488299575694e-17 5.097409559886555e-17 3.804488299575694e-17 5.097409559886555e-17 -0.3445289108616759 -0.9387757078132773
12617894666.666666 -0.35134219037342584 -0.9362471176262475 3.841126830210839e-17 5.068295955672911e-17 3.841126830210839e-17 5.068295955672911e-17 -0.35134161855355656 -0.9362473322108961
12618512000.0 -0.3581363436316994 -0.9336692987187539 3.8775431357563583e-17 5.038919447743275e-17 3.8775431357563583e-17 5.038919447743275e-17 -0.35813577341415503 -0.9336695174422784
12619129333.333334 -0.3649115852588343 -0.9310421767802669 3.9137353330284696e-17 5.00928172832658e-17 3.9137353330284696e-17 5.00928172832658e-17 -0.3649110166735672 -0.9310423996307127
12619746666.666666 -0.37166755748362945 -0.9283658905377804 3.949701551700736e-17 4.9793845031163175e-17 3.949701551700736e-17 4.9793845031163175e-17 -0.37166699056050295 -0.9283661175029768
12620364000.0 -0.3784039035526026 -0.9256405813143703 3.9854399344013044e-17 4.949229491172188e-17 3.9854399344013044e-17 4.949229491172188e-17 -0.3784033383213896 -0.9256408123819304
12620981333.333334 -0.38512026774838076 -0.9228663930219082 4.020948636805841e-17 4.9188184248238284e-17 4.020948636805841e-17 4.9188184248238284e-17 -0.3851197042387618 -0.9228666281792299
12621598666.666666 -0.39181629540895896 -0.9200434721532739 4.0562258277346753e-17 4.888153049569948e-17 4.0562258277346753e-17 4.888153049569948e-17 -0.3918157336505201 -0.9200437113875388
12622216000.0 -0.39849163294611056 -0.9171719677747433 4.09126968924482e-17 4.8572351239802545e-17 4.09126968924482e-17 4.8572351239802545e-17 -0.3984910729683434 -0.9171722110729214
12622833333.333334 -0.4051459278641927 -0.9142520315180689 4.126078416724467e-17 4.8260664195941305e-17 4.126078416724467e-17 4.8260664195941305e-17 -0.4051453696964912 -0.9142522788669145
12623450666.666666 -0.41177882877873134 -0.9112838175724776 4.1606502189837026e-17 4.794648720821199e-17 4.1606502189837026e-17 4.794648720821199e-17 -0.4117782724503917 -0.9112840689585345
12624068000.0 -0.4183899854349279 -0.9082674826765599 4.194983318347843e-17 4.762983824838259e-17 4.194983318347843e-17 4.762983824838259e-17 -0.4183894309751458 -0.9082677380861583
12624685333.333334 -0.4249790487263828 -0.9052031861098767 4.2290759507474396e-17 4.731073541487845e-17 4.2290759507474396e-17 4.731073541487845e-17 -0.42497849616425304 -0.9052034455291376
12625302666.666666 -0.431545670713096 -0.9020910896847602 4.262926365807404e-17 4.6989196931762773e-17 4.262926365807404e-17 4.6989196931762773e-17 -0.43154512007760953 -0.9020913530995925
12625920000.0 -0.4380895046403007 -0.8989313577375472 4.296532826938674e-17 4.666524114768041e-17 4.296532826938674e-17 4.666524114768041e-17 -0.4380889559603446 -0.8989316251336513
12626537333.333334 -0.44461020495646686 -0.8957241571200487 4.3298936114239075e-17 4.6338886534842575e-17 4.3298936114239075e-17 4.6338886534842575e-17 -0.444609658260822 -0.8957244284829167
12627154666.666666 -0.45110742733165177 -0.8924696571906929 4.363007010507063e-17 4.601015168796288e-17 4.363007010507063e-17 4.601015168796288e-17 -0.45110688264899074 -0.8924699325056065
12627772000.0 -0.45758082867578126 -0.8891680298055242 4.3958713294800314e-17 4.5679055323206415e-17 4.3958713294800314e-17 4.5679055323206415e-17 -0.45758028603466927 -0.8891683090575618
12628389333.333334 -0.4640300671564925 -0.8858194493092794 4.428484887767998e-17 4.534561627713798e-17 4.428484887767998e-17 4.534561627713798e-17 -0.4640295265853819 -0.8858197324833083
12629006666.666666 -0.4704548022175087 -0.8824240925260027 4.460846019015799e-17 4.500985350564647e-17 4.460846019015799e-17 4.500985350564647e-17 -0.47045426374474103 -0.8824243796066873
12629624000.0 -0.47685469459644825 -0.8789821387498055 4.492953071171405e-17 4.467178608288346e-17 4.492953071171405e-17 4.467178608288346e-17 -0.4768541582502515 -0.8789824297216053
12630241333.333334 -0.4832294063427145 -0.8754937697354114 4.5248044065708226e-17 4.4331433200174504e-17 4.5248044065708226e-17 4.4331433200174504e-17 -0.48322887215120186 -0.8754940645825823
12630858666.666666 -0.48957860083539173 -0.8719591696885314 4.556398402019342e-17 4.398881416495232e-17 4.556398402019342e-17 4.398881416495232e-17 -0.48957806882655935 -0.8719594683951255
12631476000.0 -0.4959019428010951 -0.8683785252560963 4.5877334488760064e-17 4.3643948399642876e-17 4.5877334488760064e-17 4.3643948399642876e-17 -0.495901413002821 -0.8683788278059632
12632093333.333334 -0.5021990983315495 -0.8647520255164668 4.618807953132286e-17 4.329685544059781e-17 4.618807953132286e-17 4.329685544059781e-17 -0.5021985707715927 -0.8647523318932553
12632710666.666666 -0.5084697349011998 -0.8610798619694681 4.6496203354942714e-17 4.2947554936975483e-17 4.6496203354942714e-17 4.2947554936975483e-17 -0.508469209607198 -0.8610801721566261
12633328000.0 -0.5147135213849648 -0.8573622285261598 4.680169031461926e-17 4.259606664963835e-17 4.680169031461926e-17 4.259606664963835e-17 -0.514712998384434 -0.8573625425069367
12633945333.333334 -0.5209301280755765 -0.8535993214986856 4.71045249140774e-17 4.2242410450042177e-17 4.71045249140774e-17 4.2242410450042177e-17 -0.5209296073959087 -0.8535996392561312
12634562666.666666 -0.5271192267009419 -0.8497913395899341 4.740469180654491e-17 4.188660631912146e-17 4.740469180654491e-17 4.188660631912146e-17 -0.5271187083694034 -0.8497916611069007
12635180000.0 -0.5332804904416457 -0.8459384838829425 4.7702175795525775e-17 4.152867434616343e-17 4.7702175795525775e-17 4.152867434616343e-17 -0.5332799744853766 -0.8459388091420852
12635797333.333334 -0.5394135939480416 -0.8420409578303841 4.7996961835567847e-17 4.116863472767428e-17 4.7996961835567847e-17 4.116863472767428e-17 -0.5394130803940538 -0.842041286814163
12636414666.666666 -0.5455182133575274 -0.8380989672437645 4.8289035033004325e-17 4.0806507766260404e-17 4.8289035033004325e-17 4.0806507766260404e-17 -0.5455177022327032 -0.8380992999344438
12637032000.0 -0.5515940263116228 -0.8341127202825684 4.857838064671599e-17 4.044231386947011e-17 4.857838064671599e-17 4.044231386947011e-17 -0.5515935176427142 -0.834113056662219
12637649333.333334 -0.5576407119729692 -0.830082427443283 4.886498408885437e-17 4.007607354866563e-17 4.886498408885437e-17 4.007607354866563e-17 -0.5576402057865953 -0.8300827674937825
12638266666.666666 -0.5636579510423652 -0.8260083015482205 4.9148830925581053e-17 3.970780741786138e-17 4.9148830925581053e-17 3.970780741786138e-17 -0.5636574473650117 -0.8260086452512544
12638884000.0 -0.5696454257754625 -0.8218905577343899 4.9429906877778727e-17 3.933753619258049e-17 4.9429906877778727e-17 3.933753619258049e-17 -0.5696449246334794 -0.8218909050714521
12639501333.333334 -0.5756028199997552 -0.8177294134419911 4.970819782177271e-17 3.896528068868244e-17 4.970819782177271e-17 3.896528068868244e-17 -0.5756023214193574 -0.8177297643943875
12640118666.666666 -0.581529819130974 -0.8135250884031477 4.9983689790019484e-17 3.859106182121703e-17 4.9983689790019484e-17 3.859106182121703e-17 -0.5815293231382377 -0.813525442951993
12640736000.0 -0.5874261101901386 -0.8092778046299899 5.025636897182136e-17 3.8214900603227594e-17 5.025636897182136e-17 3.8214900603227594e-17 -0.5874256168110007 -0.8092781627562112
12641353333.333334 -0.593291381819597 -0.8049877864032757 5.0526221713988344e-17 3.783681814460843e-17 5.0526221713988344e-17 3.783681814460843e-17 -0.5932908910798542 -0.8049881480876138
12641970666.666666 -0.5991253242997928 -0.8006552602603202 5.0793234521534893e-17 3.7456835650898204e-17 5.0793234521534893e-17 3.7456835650898204e-17 -0.5991248362250999 -0.800655625483329
12642588000.0 -0.604927629565572 -0.796280454983062 5.105739405833487e-17 3.7074974422113407e-17 5.105739405833487e-17 3.7074974422113407e-17 -0.6049271441814399 -0.7962808237251107
12643205333.333334 -0.6106979912223133 -0.7918636015860847 5.131868714778385e-17 3.6691255851555737e-17 5.131868714778385e-17 3.6691255851555737e-17 -0.6106975085541094 -0.7918639738273591
12643822666.666666 -0.6164361045622685 -0.7874049333043 5.15771007734563e-17 3.6305701424608694e-17 5.15771007734563e-17 3.6305701424608694e-17 -0.6164356246352146 -0.7874053090248037
12644440000.0 -0.622141666580606 -0.7829046855806646 5.183262207973421e-17 3.591833271755759e-17 5.183262207973421e-17 3.591833271755759e-17 -0.622141189419775 -0.7829050647602176
12645057333.333334 -0.627814375991276 -0.7783630960538519 5.20852383724488e-17 3.5529171396374456e-17 5.20852383724488e-17 3.5529171396374456e-17 -0.627813901621594 -0.7783634786720949
12645674666.666666 -0.6334539332431015 -0.7737804045455647 5.233493711949647e-17 3.513823921552196e-17 5.233493711949647e-17 3.513823921552196e-17 -0.6334534616893438 -0.7737807905819585
12646292000.0 -0.6390600405355709 -0.7691568530478865 5.2581705951462915e-17 3.474555801672775e-17 5.2581705951462915e-17 3.474555801672775e-17 -0.6390595718223618 -0.7691572424817132
12646909333.333334 -0.6446324018344546 -0.7644926857105936 5.282553266221774e-17 3.435114972778619e-17 5.282553266221774e-17 3.435114972778619e-17 -0.6446319359862662 -0.7644930785209578
12647526666.666666 -0.6501707228875029 -0.7597881488282079 5.3066405209518134e-17 3.3955036361327e-17 5.3066405209518134e-17 3.3955036361327e-17 -0.6501702599286544 -0.7597885449940392
12648144000.0 -0.6556747112400294 -0.7550434908269573 5.330431171559294e-17 3.3557240013596653e-17 5.330431171559294e-17 3.3557240013596653e-17 -0.6556742511946839 -0.7550438903270088
12648761333.333334 -0.6611440762503287 -0.7502589622516698 5.3539240467718914e-17 3.315778286323421e-17 5.3539240467718914e-17 3.315778286323421e-17 -0.6611436191424938 -0.7502593650645215
12649378666.666666 -0.666578529104877 -0.7454348157526799 5.377117991879226e-17 3.275668717003554e-17 5.377117991879226e-17 3.275668717003554e-17 -0.6665780749584022 -0.7454352218567379
12649996000.0 -0.6719777828338599 -0.74057130607224 5.400011868788627e-17 3.235397527372111e-17 5.400011868788627e-17 3.235397527372111e-17 -0.6719773316724363 -0.7405717154457397
12650613333.333334 -0.6773415523260912 -0.7356686900312767 5.4226045560806356e-17 3.19496695926895e-17 5.4226045560806356e-17 3.19496695926895e-17 -0.6773411041732504 -0.7356691026522828
12651230666.666666 -0.6826695543441548 -0.7307272265157545 5.4448949490620367e-17 3.154379262279304e-17 5.4448949490620367e-17 3.154379262279304e-17 -0.6826691092232671 -0.7307276423621624
12651848000.0 -0.6879615075394229 -0.7257471764629463 5.466881959820665e-17 3.113636693606359e-17 5.466881959820665e-17 3.113636693606359e-17 -0.6879610654736958 -0.7257475955124831
12652465333.333334 -0.6932171324667867 -0.7207288028477695 5.48856451727614e-17 3.072741517948876e-17 5.48856451727614e-17 3.072741517948876e-17 -0.6932166934792648 -0.7207292250779957
12653082666.666666 -0.6984361515994789 -0.7156723706688453 5.5099415672319604e-17 3.031696007374612e-17 5.5099415672319604e-17 3.031696007374612e-17 -0.698435715713041 -0.7156727960571544
12653700000.0 -0.7036182893437835 -0.7105781469344383 5.5310120724260724e-17 2.990502441194082e-17 5.5310120724260724e-17 2.990502441194082e-17 -0.7036178565811446 -0.7105785754580626
12654317333.333334 -0.7087632720534751 -0.7054464006484874 5.551775012579501e-17 2.949163105836296e-17 5.551775012579501e-17 2.949163105836296e-17 -0.7087628424371799 -0.7054468322844911
12654934666.666666 -0.7138708280443201 -0.7002774027963274 5.572229384445905e-17 2.9076802947202756e-17 5.572229384445905e-17 2.9076802947202756e-17 -0.7138704015967476 -0.7002778375216164
12655552000.0 -0.7189406876084928 -0.6950714263303318 5.592374201858594e-17 2.866056308129453e-17 5.592374201858594e-17 2.866056308129453e-17 -0.7189402643518509 -0.6950718641216491
12656169333.333334 -0.7239725830286893 -0.6898287461556105 5.612208495777115e-17 2.824293453084794e-17 5.612208495777115e-17 2.824293453084794e-17 -0.7239721629850162 -0.6898291869895405
12656786666.666666 -0.7289662485923305 -0.6845496391154401 5.631731314333122e-17 2.782394043217128e-17 5.631731314333122e-17 2.782394043217128e-17 -0.7289658317834921 -0.6845500829684082
12657404000.0 -0.7339214206056484 -0.6792343839765775 5.650941722875352e-17 2.7403603986389964e-17 5.650941722875352e-17 2.7403603986389964e-17 -0.7339210070533386 -0.6792348308248535
12658021333.333334 -0.7388378374074951 -0.6738832614146681 5.66983880401296e-17 2.6981948458176482e-17 5.66983880401296e-17 2.6981948458176482e-17 -0.7388374271332321 -0.6738837112343635
12658638666.666666 -0.743715239383218 -0.6684965539993586 5.688421657658666e-17 2.6558997174463278e-17 5.688421657658666e-17 2.6558997174463278e-17 -0.7437148324083461 -0.6684970067664319
12659256000.0 -0.7485533689784257 -0.6630745461793142 5.706689401070819e-17 2.6134773523152094e-17 5.706689401070819e-17 2.6134773523152094e-17 -0.7485529653241129 -0.6630750018695708
12659873333.333334 -0.753351970712475 -0.6576175242673251 5.724641168893939e-17 2.5709300951835716e-17 5.724641168893939e-17 2.5709300951835716e-17 -0.7533515703997107 -0.6576179828564175
12660490666.666666 -0.7581107911920167 -0.6521257764251229 5.742276113198964e-17 2.5282602966502166e-17 5.742276113198964e-17 2.5282602966502166e-17 -0.7581103942416136 -0.6521262378885537
12661108000.0 -0.7628295791244545 -0.6465995926480793 5.759593403522464e-17 2.4854703130236083e-17 5.759593403522464e-17 2.4854703130236083e-17 -0.7628291855570447 -0.6466000569612016
12661725333.333334 -0.7675080853310068 -0.6410392647501296 5.776592226904313e-17 2.4425625061932415e-17 5.776592226904313e-17 2.4425625061932415e-17 -0.7675076951670419 -0.6410397318881481
12662342666.666666 -0.772146062760125 -0.6354450863480595 5.793271787925031e-17 2.3995392434992813e-17 5.793271787925031e-17 2.3995392434992813e-17 -0.7721456760198742 -0.6354455562860319
12662960000.0 -0.7767432665003176 -0.6298173528462606 5.809631308742148e-17 2.356402897601962e-17 5.809631308742148e-17 2.356402897601962e-17 -0.7767428832038692 -0.6298178255591007
12663577333.333334 -0.7812994537932496 -0.624156361420938 5.825670029124977e-17 2.3131558463522135e-17 5.825670029124977e-17 2.3131558463522135e-17 -0.7812990739605064 -0.6241568368834138
12664194666.666666 -0.7858143840464313 -0.6184624110045674 5.841387206489065e-17 2.269800472660598e-17 5.841387206489065e-17 2.269800472660598e-17 -0.7858140076971118 -0.6184628891913051
12664812000.0 -0.7902878188459801 -0.6127358022700464 5.856782115929638e-17 2.2263391643660053e-17 5.856782115929638e-17 2.2263391643660053e-17 -0.7902874459996176 -0.6127362831555307
12665429333.333334 -0.7947195219692792 -0.6069768376147272 5.87185405025353e-17 2.182774314105638e-17 5.87185405025353e-17 2.182774314105638e-17 -0.7947191526452192 -0.6069773211733025
12666046666.666666 -0.7991092593972413 -0.6011858211447169 5.886602320010674e-17 2.1391083191832826e-17 5.886602320010674e-17 2.1391083191832826e-17 -0.7991088936146421 -0.6011863073505893
12666664000.0 -0.8034567993269949 -0.5953630586583906 5.901026253524644e-17 2.0953435814373734e-17 5.901026253524644e-17 2.0953435814373734e-17 -0.803456437104826 -0.5953635474856291
12667281333.333334 -0.8077619121837504 -0.5895088576307438 5.915125196921694e-17 2.051482507110396e-17 5.915125196921694e-17 2.051482507110396e-17 -0.8077615535407903 -0.5895093490532809
12667898666.666666 -0.812024370633225 -0.583623527196744 5.928898514159338e-17 2.007527506716565e-17 5.928898514159338e-17 2.007527506716565e-17 -0.8120240155880621 -0.5836240211883782
12668516000.0 -0.8162439495935302 -0.5777073781351669 5.942345587053918e-17 1.9634809949093244e-17 5.942345587053918e-17 1.9634809949093244e-17 -0.8162435981645616 -0.5777078746695631
12669133333.333334 -0.820420426246959 -0.5717607228523246 5.955465815306786e-17 1.9193453903502238e-17 5.955465815306786e-17 1.9193453903502238e-17 -0.8204200784523887 -0.5717612219030166
12669750666.666666 -0.8245535800519658 -0.5657838753652679 5.968258616529899e-17 1.8751231155760658e-17 5.968258616529899e-17 1.8751231155760658e-17 -0.8245532359098046 -0.5657843769056591
12670368000.0 -0.8286431927546322 -0.5597771512854598 5.980723426270563e-17 1.8308165968657577e-17 5.980723426270563e-17 1.8308165968657577e-17 -0.8286428522826951 -0.5597776552888243
