! Parameters = {f0=12700.012000; bw=77.238000; Q=6100.000000; N=10; m_0_1=1.194289; m_1_1=-0.850406; m_1_2=1.029101; m_2_2=-0.851055; m_2_3=0.666064; m_2_8=-0.003222; m_2_9=0.033482; m_3_3=-0.852992; m_3_4=0.554593; m_3_7=-0.002622; m_3_8=-0.099710; m_3_9=-0.003222; m_4_4=-0.855917; m_4_5=0.390928; m_4_6=0.000895; m_4_7=-0.120259; m_4_8=-0.002622; m_5_5=-0.855535; m_5_6=0.798283; m_5_7=0.000895; m_6_6=-0.855536; m_6_7=0.391270; m_7_7=-0.855903; m_7_8=0.554711; m_8_8=-0.852994; m_8_9=0.666377; m_9_9=-0.851060; m_9_10=1.030179; m_10_10=-0.850416; m_10_11=1.195084}
!
! Created with skrf (http://scikit-rf.org).
# Hz S RI R 50.0 
!freq ReS11 ImS11 ReS21 ImS21 ReS12 ImS12 ReS22 ImS22
12607400000.0 -0.8149056762690863 0.5795935979496901 4.706139697629451e-17 -6.007071258116334e-17 4.706139697629451e-17 -6.007071258116334e-17 -0.8149060410381426 0.579593085085894
12608017333.333334 -0.8100759831828277 0.5863249111799865 4.654763629216253e-17 -6.045082452860894e-17 4.654763629216253e-17 -6.045082452860894e-17 -0.8100763521701897 0.5863244013807393
12608634666.666666 -0.8051906893070717 0.5930159811110036 4.603081250750455e-17 -6.082654823976818e-17 4.603081250750455e-17 -6.082654823976818e-17 -0.8051910624870017 0.5930154744109946
12609252000.0 -0.800250129951401 0.5996663484910669 4.551096305658131e-17 -6.119785909171029e-17 4.551096305658131e-17 -6.119785909171029e-17 -0.8002505072978753 0.5996658449247685
12609869333.333334 -0.7952546442185926 0.6062755568622279 4.4988125571060345e-17 -6.156473278044981e-17 4.4988125571060345e-17 -6.156473278044981e-17 -0.7952550257053047 0.6062750564638945
12610486666.666666 -0.7902045749814981 0.6128431525913907 4.446233787730874e-17 -6.192714532251944e-17 4.446233787730874e-17 -6.192714532251944e-17 -0.7902049605818603 0.6128426553950562
12611104000.0 -0.7851002688592189 0.6193686849018338 4.3933637993646873e-17 -6.228507305653901e-17 4.3933637993646873e-17 -6.228507305653901e-17 -0.7851006585463636 0.6193681909413091
12611721333.333334 -0.7799420761936237 0.625851705903742 4.340206412763405e-17 -6.263849264472973e-17 4.340206412763405e-17 -6.263849264472973e-17 -0.7799424699404053 0.6258512152126122
12612338666.666666 -0.7747303510251149 0.6322917706251965 4.286765467329763e-17 -6.298738107443648e-17 4.286765467329763e-17 -6.298738107443648e-17 -0.7747307488041116 0.6322912832368193
12612956000.0 -0.7694654510683238 0.6386884370427142 4.233044820837672e-17 -6.333171565960798e-17 4.233044820837672e-17 -6.333171565960798e-17 -0.7694658528518403 0.6386879529902172
12613573333.333334 -0.7641477376877023 0.64504126611141 4.1790483491552505e-17 -6.367147404225501e-17 4.1790483491552505e-17 -6.367147404225501e-17 -0.7641481434477705 0.6450407854276884
12614190666.666666 -0.7587775758726143 0.6513498217952655 4.124779945965081e-17 -6.400663419389601e-17 4.124779945965081e-17 -6.400663419389601e-17 -0.7587779855809961 0.6513493445129802
12614808000.0 -0.7533553342122633 0.657613671097076 4.070243522485082e-17 -6.433717441696618e-17 4.070243522485082e-17 -6.433717441696618e-17 -0.7533557478404534 0.657613197248652
12615425333.333334 -0.7478813848704515 0.6638323840881075 4.0154430071874504e-17 -6.466307334621033e-17 4.0154430071874504e-17 -6.466307334621033e-17 -0.7478818023896773 0.66383191370573
12616042666.666666 -0.7423561035600126 0.670005533937623 3.9603823455164063e-17 -6.498430995005035e-17 3.9603823455164063e-17 -6.498430995005035e-17 -0.7423565249412379 0.6700050670532373
12616660000.0 -0.7367798695170111 0.676132696942205 3.9050654996058444e-17 -6.53008635319241e-17 3.9050654996058444e-17 -6.53008635319241e-17 -0.7367802947309366 0.6761322335875117
12617277333.333334 -0.7311530654747649 0.6822134525547694 3.849496447993858e-17 -6.561271373161216e-17 3.849496447993858e-17 -6.561271373161216e-17 -0.7311534944918315 0.6822129927612245
12617894666.666666 -0.7254760776375602 0.6882473834134543 3.793679185339231e-17 -6.591984052652309e-17 3.793679185339231e-17 -6.591984052652309e-17 -0.7254765104279511 0.6882469272122662
12618512000.0 -0.7197492956540056 0.6942340753704094 3.737617722132945e-17 -6.622222423297703e-17 3.737617722132945e-17 -6.622222423297703e-17 -0.7197497321876485 0.6942336227925379
12619129333.333334 -0.7139731125905442 0.7001731175199559 3.681316084413612e-17 -6.651984550743755e-17 3.681316084413612e-17 -6.651984550743755e-17 -0.713973552837112 0.7001726685961083
12619746666.666666 -0.7081479249042575 0.7060641022270134 3.62477831347739e-17 -6.681268534774452e-17 3.62477831347739e-17 -6.681268534774452e-17 -0.7081483688331707 0.7060636569876426
12620364000.0 -0.702274132415731 0.7119066251549965 3.56800846558862e-17 -6.710072509431272e-17 3.56800846558862e-17 -6.710072509431272e-17 -0.7022745799961615 0.7119061836303002
12620981333.333334 -0.6963521382816752 0.7177002852935074 3.51101061169224e-17 -6.738394643129221e-17 3.51101061169224e-17 -6.738394643129221e-17 -0.6963525894825471 0.7176998475134261
12621598666.666666 -0.6903823489671332 0.7234446849859824 3.4537888371197215e-17 -6.766233138773351e-17 3.4537888371197215e-17 -6.766233138773351e-17 -0.6903828037571245 0.723444250980195
12622216000.0 -0.6843651742176609 0.7291394299569013 3.396347241298888e-17 -6.793586233870265e-17 3.396347241298888e-17 -6.793586233870265e-17 -0.6843656325652065 0.7291389997548261
12622833333.333334 -0.6783010270311636 0.734784129338891 3.338689937460576e-17 -6.820452200638378e-17 3.338689937460576e-17 -6.820452200638378e-17 -0.6783014889044584 0.7347837029696824
12623450666.666666 -0.6721903236296345 0.7403783956994773 3.280821052345789e-17 -6.846829346115022e-17 3.280821052345789e-17 -6.846829346115022e-17 -0.672190788996633 0.7403779731920227
12624068000.0 -0.6660334834304577 0.7459218450677884 3.2227447259102747e-17 -6.872716012261932e-17 3.2227447259102747e-17 -6.872716012261932e-17 -0.6660339522588794 0.745921426450709
12624685333.333334 -0.6598309290176869 0.7514140969608568 3.164465111029058e-17 -6.898110576067838e-17 3.164465111029058e-17 -6.898110576067838e-17 -0.6598314012750157 0.7514136822625026
12625302666.666666 -0.6535830861131244 0.7568547744096543 3.105986373202154e-17 -6.923011449647669e-17 3.105986373202154e-17 -6.923011449647669e-17 -0.6535835617666123 0.7568543636581039
12625920000.0 -0.647290383546865 0.7622435039851739 3.04731269025559e-17 -6.94741708034106e-17 3.04731269025559e-17 -6.94741708034106e-17 -0.6472908625635345 0.7622430972082331
12626537333.333334 -0.640953253228144 0.7675799158238201 2.988448252045407e-17 -6.971325950806684e-17 2.988448252045407e-17 -6.971325950806684e-17 -0.6409537355747894 0.767579513049018
12627154666.666666 -0.6345721301155399 0.7728636436529221 2.9293972601589874e-17 -6.994736579114939e-17 2.9293972601589874e-17 -6.994736579114939e-17 -0.6345726157587307 0.772863244907511
12627772000.0 -0.6281474521870767 0.7780943248159108 2.8701639276146334e-17 -7.017647518838471e-17 2.8701639276146334e-17 -7.017647518838471e-17 -0.6281479410931595 0.7780939301268641
12628389333.333334 -0.6216796604103398 0.783271600297067 2.8107524785647e-17 -7.040057359138552e-17 2.8107524785647e-17 -7.040057359138552e-17 -0.6216801525454403 0.7832712096910768
12629006666.666666 -0.6151691987119648 0.7883951147463587 2.7511671479920327e-17 -7.061964724851256e-17 2.7511671479920327e-17 -7.061964724851256e-17 -0.6151696940419902 0.7883947282498336
12629624000.0 -0.6086165139473891 0.7934645165036509 2.691412181411992e-17 -7.083368276568716e-17 2.691412181411992e-17 -7.083368276568716e-17 -0.608617012438031 0.793464134142716
12630241333.333334 -0.6020220558700492 0.7984794576229524 2.6314918345684385e-17 -7.104266710719907e-17 2.6314918345684385e-17 -7.104266710719907e-17 -0.6020225574867861 0.7984790794234463
12630858666.666666 -0.5953862771006239 0.8034395938962082 2.5714103731335422e-17 -7.12465875964725e-17 2.5714103731335422e-17 -7.12465875964725e-17 -0.5953867818087222 0.803439219883681
12631476000.0 -0.5887096330958075 0.8083445848770454 2.5111720724025575e-17 -7.144543191682224e-17 2.5111720724025575e-17 -7.144543191682224e-17 -0.5887101408603258 0.808344215076758
12632093333.333334 -0.5819925821172109 0.8131940939040233 2.4507812169931337e-17 -7.163918811216702e-17 2.4507812169931337e-17 -7.163918811216702e-17 -0.5819930929030005 0.8131937283409437
12632710666.666666 -0.5752355851998602 0.8179877881237702 2.3902421005402185e-17 -7.18278445877305e-17 2.3902421005402185e-17 -7.18278445877305e-17 -0.5752360989715689 0.8179874268225742
12633328000.0 -0.5684391061204159 0.8227253385139336 2.3295590253904447e-17 -7.201139011071638e-17 2.3295590253904447e-17 -7.201139011071638e-17 -0.5684396228424899 0.8227249814990013
12633945333.333334 -0.5616036113655478 0.8274064199056104 2.268736302299906e-17 -7.218981381094538e-17 2.268736302299906e-17 -7.218981381094538e-17 -0.5616041310022346 0.8274060672010263
12634562666.666666 -0.5547295700997781 0.8320307110057659 2.2077782501265642e-17 -7.236310518148243e-17 2.2077782501265642e-17 -7.236310518148243e-17 -0.5547300926151286 0.8320303626353162
12635180000.0 -0.5478174541333971 0.8365978944192051 2.146689195525471e-17 -7.253125407922761e-17 2.146689195525471e-17 -7.253125407922761e-17 -0.5478179794912682 0.8365975504063758
12635797333.333334 -0.5408677378899152 0.8411076566704704 2.0854734726421328e-17 -7.269425072548575e-17 2.0854734726421328e-17 -7.269425072548575e-17 -0.5408682660539721 0.8411073170384469
12636414666.666666 -0.5338808983736887 0.84555968822523 2.0241354228067168e-17 -7.285208570650718e-17 2.0241354228067168e-17 -7.285208570650718e-17 -0.5338814293074073 0.845559352996893
12637032000.0 -0.526857415137013 0.8499536835116306 1.96267939422579e-17 -7.300474997400798e-17 1.96267939422579e-17 -7.300474997400798e-17 -0.5268579488036835 0.8499533527095587
12637649333.333334 -0.5197977702473053 0.8542893409412148 1.9011097416757813e-17 -7.315223484565895e-17 1.9011097416757813e-17 -7.315223484565895e-17 -0.519798306610033 0.8542890145876787
12638266666.666666 -0.5127024482539656 0.8585663629296426 1.839430826194839e-17 -7.329453200555176e-17 1.839430826194839e-17 -7.329453200555176e-17 -0.512702987275675 0.8585660410466066
12638884000.0 -0.5055719361552199 0.8627844559170659 1.7776470147756507e-17 -7.343163350463689e-17 1.7776470147756507e-17 -7.343163350463689e-17 -0.5055724777986565 0.8627841385261855
12639501333.333334 -0.49840672336452063 0.8669433303883745 1.7157626800556383e-17 -7.356353176114035e-17 1.7157626800556383e-17 -7.356353176114035e-17 -0.49840726759225384 0.8669430175109942
12640118666.666666 -0.4912073016772033 0.8710427008929279 1.653782200010463e-17 -7.369021956094714e-17 1.653782200010463e-17 -7.369021956094714e-17 -0.49120784845162785 0.8710423925500796
12640736000.0 -0.483974165236308 0.8750822860643812 1.59170995764158e-17 -7.381169005797007e-17 1.59170995764158e-17 -7.381169005797007e-17 -0.4839747145196491 0.875081982276786
12641353333.333334 -0.47670781049926114 0.879061808639669 1.5295503406722123e-17 -7.392793677447573e-17 1.5295503406722123e-17 -7.392793677447573e-17 -0.4767083622535739 0.8790615094277303
12641970666.666666 -0.46940873620325163 0.8829809954783356 1.4673077412336264e-17 -7.403895360140331e-17 1.4673077412336264e-17 -7.403895360140331e-17 -0.46940929039042634 0.8829807008621431
12642588000.0 -0.46207744333134865 0.8868395775810911 1.40498655555754e-17 -7.414473479864468e-17 1.40498655555754e-17 -7.414473479864468e-17 -0.46207799991311255 0.8868392875804171
12643205333.333334 -0.45471443507794396 0.8906372901083763 1.3425911836671076e-17 -7.424527499530163e-17 1.3425911836671076e-17 -7.424527499530163e-17 -0.45471499401586235 0.8906370047426722
12643822666.666666 -0.44732021681420747 0.8943738723985263 1.2801260290650065e-17 -7.434056918992144e-17 1.2801260290650065e-17 -7.434056918992144e-17 -0.44732077806968934 0.8943735916869262
12644440000.0 -0.43989529605350736 0.8980490679856205 1.2175954984254186e-17 -7.443061275069981e-17 1.2175954984254186e-17 -7.443061275069981e-17 -0.4398958595878054 0.8980487919469358
12645057333.333334 -0.4324401824165227 0.9016626246171069 1.1550040012835929e-17 -7.451540141566191e-17 1.1550040012835929e-17 -7.451540141566191e-17 -0.43244074819073697 0.9016623532698258
12645674666.666666 -0.4249553875963678 0.9052142942710668 1.0923559497257391e-17 -7.45949312928166e-17 1.0923559497257391e-17 -7.45949312928166e-17 -0.424955955571449 0.9052140276333556
12646292000.0 -0.4174414253231392 0.9087038331734002 1.0296557580773842e-17 -7.466919886028638e-17 1.0296557580773842e-17 -7.466919886028638e-17 -0.41744199545989036 0.9087035712630988
12646909333.333334 -0.40989881132909 0.9121310018143473 9.669078425957311e-18 -7.473820096640649e-17 9.669078425957311e-18 -7.473820096640649e-17 -0.4098993835881695 0.912130744648969
12647526666.666666 -0.4023280633129494 0.9154955649650612 9.041166211581717e-18 -7.480193482980282e-17 9.041166211581717e-18 -7.480193482980282e-17 -0.40232863765487453 0.915495312561794
12648144000.0 -0.39472970090438964 0.9187972916937538 8.412865129510239e-18 -7.48603980394432e-17 8.412865129510239e-18 -7.48603980394432e-17 -0.3947302772895379 0.9187970440694557
12648761333.333334 -0.38710424562856643 0.92203595538145 7.78421938161063e-18 -7.491358855466001e-17 7.78421938161063e-18 -7.491358855466001e-17 -0.3871048240171795 0.9220357125526502
12649378666.666666 -0.3794522208701705 0.9252113337376174 7.155273176651907e-18 -7.496150470514873e-17 7.155273176651907e-18 -7.496150470514873e-17 -0.37945280122235586 0.9252110957205129
12649996000.0 -0.3717741518374748 0.9283232088154273 6.526070727193207e-18 -7.500414519094146e-17 6.526070727193207e-18 -7.500414519094146e-17 -0.37177473411320955 0.928322975625885
12650613333.333334 -0.3640705655263401 0.9313713670266957 5.896656246490646e-18 -7.504150908235257e-17 5.896656246490646e-18 -7.504150908235257e-17 -0.364071149685473 0.9313711386802486
12651230666.666666 -0.3563419906841488 0.9343555991564999 5.2670739454053926e-18 -7.507359581989926e-17 5.2670739454053926e-18 -7.507359581989926e-17 -0.35634257668640335 0.9343553756683477
12651848000.0 -0.3485889577732233 0.9372757003776543 4.637368029293819e-18 -7.510040521419651e-17 4.637368029293819e-18 -7.510040521419651e-17 -0.3485895455782003 0.9372754817626611
12652465333.333334 -0.34081199893476 0.9401314702646315 4.007582694918564e-18 -7.512193744582602e-17 4.007582694918564e-18 -7.512193744582602e-17 -0.3408125885019406 0.9401312565373259
12653082666.666666 -0.33301164795214816 0.9429227128073864 3.3777621273634647e-18 -7.513819306517848e-17 3.3777621273634647e-18 -7.513819306517848e-17 -0.3330122392408964 0.9429225039819595
12653700000.0 -0.32518844021416965 0.9456492364248595 2.7479504969184965e-18 -7.51491729922714e-17 2.7479504969184965e-18 -7.51491729922714e-17 -0.325189033183736 0.945649032515167
12654317333.333334 -0.3173429126786025 0.9483108539780112 2.1181919560203925e-18 -7.515487851653975e-17 2.1181919560203925e-18 -7.515487851653975e-17 -0.3173435072881254 0.948310654997568
12654934666.666666 -0.309475603835096 0.9509073827827539 1.4885306361422586e-18 -7.515531129660189e-17 1.4885306361422586e-18 -7.515531129660189e-17 -0.30947620004360527 0.9509071887447349
12655552000.0 -0.3015870536681834 0.9534386446224999 8.590106447179455e-19 -7.515047335999875e-17 8.590106447179455e-19 -7.515047335999875e-17 -0.3015876514346032 0.9534384555397398
12656169333.333334 -0.2936778036205705 0.955904465760278 2.296760620671636e-19 -7.514036710290832e-17 2.296760620671636e-19 -7.514036710290832e-17 -0.29367840290372255 0.9559042816452717
12656786666.666666 -0.28574839655554135 0.958304676950802 -3.994290616955375e-19 -7.51249952898335e-17 -3.994290616955375e-19 -7.51249952898335e-17 -0.2857489973141471 0.9583044978157018
12657404000.0 -0.27779937671994054 0.9606391134520067 -1.0282607097270991e-18 -7.510436105326473e-17 -1.0282607097270991e-18 -7.510436105326473e-17 -0.2777999789126237 0.9606389393086199
12658021333.333334 -0.2698312897067361 0.9629076150363769 -1.656774901531571e-18 -7.507846789331691e-17 -1.656774901531571e-18 -7.507846789331691e-17 -0.2698318932920267 0.9629074458961698
12658638666.666666 -0.26184468241771003 0.9651100260019125 -2.284927696017052e-18 -7.504731967734105e-17 -2.284927696017052e-18 -7.504731967734105e-17 -0.26184528735404605 0.965109861876005
12659256000.0 -0.2538401030256187 0.9672461951828957 -2.9126751945827926e-18 -7.501092063950891e-17 -2.9126751945827926e-18 -7.501092063950891e-17 -0.2538407092713496 0.9672460360820625
12659873333.333334 -0.24581810093692422 0.9693159759601656 -3.539973544150944e-18 -7.496927538037449e-17 -3.539973544150944e-18 -7.496927538037449e-17 -0.245818708450314 0.9693158218948376
12660490666.666666 -0.23777922675392205 0.9713192262712353 -4.166778940234465e-18 -7.492238886640828e-17 -4.166778940234465e-18 -7.492238886640828e-17 -0.23777983549315132 0.9713190772514945
12661108000.0 -0.22972403223678273 0.9732558086200764 -4.79304763000037e-18 -7.487026642950554e-17 -4.79304763000037e-18 -7.487026642950554e-17 -0.2297246421599522 0.9732556646556585
12661725333.333334 -0.2216530702660398 0.9751255900864685 -5.418735915287744e-18 -7.481291376647177e-17 -5.418735915287744e-18 -7.481291376647177e-17 -0.22165368133117314 0.9751254511867611
12662342666.666666 -0.21356689480433896 0.9769284423351986 -6.043800155671829e-18 -7.475033693847988e-17 -6.043800155671829e-18 -7.475033693847988e-17 -0.21356750696938545 0.9769283085092412
12662960000.0 -0.20546606085852567 0.9786642416248408 -6.6681967714888354e-18 -7.468254237050403e-17 -6.6681967714888354e-18 -7.468254237050403e-17 -0.20546667408136332 0.9786641128813239
12663577333.333334 -0.19735112444163533 0.980332868816233 -7.291882246868035e-18 -7.460953685072705e-17 -7.291882246868035e-18 -7.460953685072705e-17 -0.1973517386800735 0.9803327451634969
12664194666.666666 -0.1892226425345638 0.9819342093806905 -7.914813132758262e-18 -7.453132752992334e-17 -7.914813132758262e-18 -7.453132752992334e-17 -0.18922325774634613 0.9819340908267241
12664812000.0 -0.18108117304794852 0.9834681534078386 -8.5369460499379e-18 -7.444792192081689e-17 -8.5369460499379e-18 -7.444792192081689e-17 -0.18108178919075635 0.9834680399602826
12665429333.333334 -0.17292727478382092 0.9849345956131738 -9.158237692042154e-18 -7.435932789741245e-17 -9.158237692042154e-18 -7.435932789741245e-17 -0.17292789181527563 0.9849344872793167
12666046666.666666 -0.1647615073973632 0.9863334353452661 -9.778644828550115e-18 -7.426555369430474e-17 -9.778644828550115e-18 -7.426555369430474e-17 -0.16476212527502923 0.986333332132044
12666664000.0 -0.15658443135830005 0.987664576592703 -1.0398124307809802e-17 -7.416660790595795e-17 -1.0398124307809802e-17 -7.416660790595795e-17 -0.1565850500396882 0.9876644785067014
12667281333.333334 -0.14839660791265408 0.9889279279906418 -1.1016633060001561e-17 -7.406249948596691e-17 -1.1016633060001561e-17 -7.406249948596691e-17 -0.14839722735522376 0.9889278350380919
12667898666.666666 -0.14019859904405538 0.9901234028271071 -1.1634128100147305e-17 -7.395323774628649e-17 -1.1634128100147305e-17 -7.395323774628649e-17 -0.1401992192052182 0.9901233150138887
12668516000.0 -0.1319909674351408 0.9912509190489461 -1.2250566531081041e-17 -7.383883235644044e-17 -1.2250566531081041e-17 -7.383883235644044e-17 -0.13199158827226312 0.9912508363805859
12669133333.333334 -0.12377427642918659 0.9923103992674246 -1.2865905546414254e-17 -7.371929334270579e-17 -1.2865905546414254e-17 -7.371929334270579e-17 -0.1237748978995925 0.9923103217490942
12669750666.666666 -0.11554908999113285 0.9933017707635812 -1.3480102433512559e-17 -7.359463108726875e-17 -1.3480102433512559e-17 -7.359463108726875e-17 -0.11554971205210712 0.9933016984000991
12670368000.0 -0.10731597266910012 0.9942249654931874 -1.409311457644586e-17 -7.346485632735983e-17 -1.409311457644586e-17 -7.346485632735983e-17 -0.10731659527789111 0.9942248982890172
