! Parameters = {f0=12700.012000; bw=77.238000; Q=6100.000000; N=10; m_0_1=1.276171; m_1_1=0.377822; m_1_2=1.110983; m_2_2=0.377173; m_2_3=0.747946; m_2_8=0.000872; m_2_9=0.037576; m_3_3=0.375236; m_3_4=0.636475; m_3_7=0.001472; m_3_8=-0.095616; m_3_9=0.000872; m_4_4=0.372311; m_4_5=0.472810; m_4_6=0.004989; m_4_7=-0.116165; m_4_8=0.001472; m_5_5=0.372693; m_5_6=0.880165; m_5_7=0.004989; m_6_6=0.372692; m_6_7=0.473152; m_7_7=0.372325; m_7_8=0.636593; m_8_8=0.375234; m_8_9=0.748259; m_9_9=0.377168; m_9_10=1.112061; m_10_10=0.377812; m_10_11=1.276966}
!
! Created with skrf (http://scikit-rf.org).
# Hz S RI R 50.0 
!freq ReS11 ImS11 ReS21 ImS21 ReS12 ImS12 ReS22 ImS22
12607400000.0 -0.9839529920468861 -0.17842788302785992 1.1318701049627522e-16 -1.2343021836257339e-17 1.1318701049627522e-16 -1.2343021836257339e-17 -0.983952872080401 -0.17842854459012839
12608017333.333334 -0.9858067118696737 -0.167884266185146 1.1302505014776917e-16 -1.356137147434829e-17 1.1302505014776917e-16 -1.356137147434829e-17 -0.9858065989977318 -0.16788492896131677
12608634666.666666 -0.9875474541682315 -0.15732140911416403 1.1284998390909094e-16 -1.4777663870947277e-17 1.1284998390909094e-16 -1.4777663870947277e-17 -0.9875473484030737 -0.15732207302816517
12609252000.0 -0.9891750194463799 -0.14674052236200644 1.126618373075938e-16 -1.5991758136556975e-17 1.126618373075938e-16 -1.5991758136556975e-17 -0.9891749207994307 -0.14674118733764294
12609869333.333334 -0.9906892211784977 -0.13614281854201216 1.1246063738421498e-16 -1.7203513692883774e-17 1.1246063738421498e-16 -1.7203513692883774e-17 -0.9906891296603643 -0.13614348450297473
12610486666.666666 -0.9920898858308737 -0.12552951219496458 1.1224641268973446e-16 -1.8412790289084423e-17 1.1224641268973446e-16 -1.8412790289084423e-17 -0.9920898014513461 -0.12553017906483863
12611104000.0 -0.993376852881655 -0.1149018196494783 1.1201919328085408e-16 -1.9619448018003248e-17 1.1201919328085408e-16 -1.9619448018003248e-17 -0.9933767756497038 -0.11490248735175254
12611721333.333334 -0.9945499748391657 -0.10426095888316586 1.1177901071611427e-16 -2.0823347332286353e-17 1.1177901071611427e-16 -2.0823347332286353e-17 -0.9945499047629424 -0.10426162734124116
12612338666.666666 -0.9956091172588654 -0.09360814938265846 1.1152589805162663e-16 -2.202434906052115e-17 1.1152589805162663e-16 -2.202434906052115e-17 -0.9956090543456994 -0.09360881851985645
12612956000.0 -0.9965541587587443 -0.08294461200387482 1.1125988983663393e-16 -2.3222314423309365e-17 1.1125988983663393e-16 -2.3222314423309365e-17 -0.9965541030151456 -0.08294528174344701
12613573333.333334 -0.9973849910332169 -0.07227156883236147 1.1098102210891309e-16 -2.4417105049228478e-17 1.1098102210891309e-16 -2.4417105049228478e-17 -0.9973849424648716 -0.0722722390974977
12614190666.666666 -0.9981015188655573 -0.06159024304295338 1.1068933238998531e-16 -2.5608582990830763e-17 1.1068933238998531e-16 -2.5608582990830763e-17 -0.9981014774773281 -0.061590913756790745
12614808000.0 -0.9987036601387949 -0.05090185875973425 1.1038485968016966e-16 -2.679661074052365e-17 1.1038485968016966e-16 -2.679661074052365e-17 -0.9987036259347228 -0.050902529845366085
12615425333.333334 -0.9991913458451365 -0.04020764091571926 1.1006764445346192e-16 -2.798105124641477e-17 1.1006764445346192e-16 -2.798105124641477e-17 -0.9991913188284375 -0.040208312296203724
12616042666.666666 -0.9995645200938647 -0.02950881511250046 1.0973772865224396e-16 -2.916176792809455e-17 1.0973772865224396e-16 -2.916176792809455e-17 -0.9995645002669327 -0.02950948671086952
12616660000.0 -0.999823140117755 -0.01880660747967448 1.093951556818253e-16 -3.033862469235459e-17 1.093951556818253e-16 -3.033862469235459e-17 -0.9998231274821573 -0.01880727921894259
12617277333.333334 -0.9999671762779644 -0.008102244534464837 1.0903997040481097e-16 -3.151148594886178e-17 1.0903997040481097e-16 -3.151148594886178e-17 -0.9999671708344464 -0.008102916337637904
12617894666.666666 -0.9999966120674381 0.0026030469588133962 1.0867221913531679e-16 -3.2680216625718296e-17 1.0867221913531679e-16 -3.2680216625718296e-17 -0.9999966138159182 0.002602375168729281
12618512000.0 -0.9999114441127933 0.01330804012963014 1.0829194963299346e-16 -3.3844682185035315e-17 1.0829194963299346e-16 -3.3844682185035315e-17 -0.9999114530523692 0.013307368429619847
12619129333.333334 -0.9997116821747135 0.02401150814144681 1.078992110969131e-16 -3.5004748638346036e-17 1.078992110969131e-16 -3.5004748638346036e-17 -0.9997116983036577 0.024010836608477377
12619746666.666666 -0.9993973491468268 0.03471222433260113 1.0749405415926671e-16 -3.616028256202569e-17 1.0749405415926671e-16 -3.616028256202569e-17 -0.999397372462587 0.03471155304361291
12620364000.0 -0.9989684810530772 0.04540896235688755 1.0707653087890655e-16 -3.731115111260886e-17 1.0707653087890655e-16 -3.731115111260886e-17 -0.9989685115522776 0.04540829138878538
12620981333.333334 -0.9984251270436079 0.05610049632381753 1.0664669473473561e-16 -3.8457222042002804e-17 1.0664669473473561e-16 -3.8457222042002804e-17 -0.9984251647220505 0.056099825753461945
12621598666.666666 -0.9977673493891105 0.06678560093950914 1.0620460061890915e-16 -3.9598363712698734e-17 1.0620460061890915e-16 -3.9598363712698734e-17 -0.9977673942417761 0.06678493084370768
12622216000.0 -0.9969952234737068 0.07746305164679866 1.0575030482990077e-16 -4.0734445112829844e-17 1.0575030482990077e-16 -4.0734445112829844e-17 -0.9969952754947539 0.0774623821022969
12622833333.333334 -0.996108837786299 0.08813162476575026 1.0528386506538924e-16 -4.186533587120231e-17 1.0528386506538924e-16 -4.186533587120231e-17 -0.9961088969690639 0.08813095584922305
12623450666.666666 -0.995108293910434 0.09879009763375253 1.0480534041499754e-16 -4.2990906272212653e-17 1.0480534041499754e-16 -4.2990906272212653e-17 -0.9951083602474348 0.09878942942179535
12624068000.0 -0.9939937065126592 0.10943724874578313 1.0431479135286087e-16 -4.411102727071274e-17 1.0431479135286087e-16 -4.411102727071274e-17 -0.9939937799955938 0.10943658131490315
12624685333.333334 -0.9927652033293684 0.12007185789442568 1.0381227973004069e-16 -4.522557050677896e-17 1.0381227973004069e-16 -4.522557050677896e-17 -0.9927652839491168 0.12007119132103315
12625302666.666666 -0.9914229251521975 0.13069270630942856 1.0329786876679733e-16 -4.6334408320360504e-17 1.0329786876679733e-16 -4.6334408320360504e-17 -0.9914230128988222 0.13069204066982776
12625920000.0 -0.9899670258118384 0.14129857679780386 1.0277162304466702e-16 -4.743741376592862e-17 1.0277162304466702e-16 -4.743741376592862e-17 -0.9899671206745879 0.14129791216818505
12626537333.333334 -0.9883976721604609 0.15188825388292876 1.0223360849843484e-16 -4.853446062692263e-17 1.0223360849843484e-16 -4.853446062692263e-17 -0.9883977741277679 0.15188759033935864
12627154666.666666 -0.9867150440525716 0.16246052394398455 1.0168389240791353e-16 -4.962542343019319e-17 1.0168389240791353e-16 -4.962542343019319e-17 -0.9867151531120564 0.1624598615623981
12627772000.0 -0.9849193343243593 0.17301417535532382 1.0112254338957484e-16 -5.0710177460338454e-17 1.0112254338957484e-16 -5.0710177460338454e-17 -0.9849194504628307 0.17301351421151542
12628389333.333334 -0.983010748771683 0.18354799862476615 1.0054963138805738e-16 -5.1788598773888926e-17 1.0054963138805738e-16 -5.1788598773888926e-17 -0.983010871975139 0.18354733879438084
12629006666.666666 -0.9809895061263988 0.19406078653274364 9.99652276674738e-17 -5.286056421349431e-17 9.99652276674738e-17 -5.286056421349431e-17 -0.9809896363800299 0.1940601280912686
12629624000.0 -0.9788558380313493 0.20455133427031694 9.936940480262047e-17 -5.392595142191048e-17 9.936940480262047e-17 -5.392595142191048e-17 -0.9788559753195397 0.20455067729307283
12630241333.333334 -0.9766099890137896 0.2150184395774198 9.876223666999806e-17 -5.498463885596469e-17 9.876223666999806e-17 -5.498463885596469e-17 -0.9766101333201186 0.21501778413955216
12630858666.666666 -0.9742522164573995 0.22546090288044757 9.814379843871031e-17 -5.603650580037266e-17 9.814379843871031e-17 -5.603650580037266e-17 -0.974252367764644 0.22546024905691817
12631476000.0 -0.9717827905726982 0.2358775274301503 9.751416656118627e-17 -5.70814323815037e-17 9.751416656118627e-17 -5.70814323815037e-17 -0.9717829488628343 0.23587687529572857
12632093333.333334 -0.9692019943661854 0.24626711943828483 9.687341876379652e-17 -5.811929958097619e-17 9.687341876379652e-17 -5.811929958097619e-17 -0.9692021596203907 0.24626646906753935
12632710666.666666 -0.966510123607884 0.25662848821456896 9.622163403729523e-17 -5.914998924919811e-17 9.622163403729523e-17 -5.914998924919811e-17 -0.9665102958065396 0.25662783968185876
12633328000.0 -0.9637074867973409 0.2669604463035234 9.555889262711098e-17 -6.017338411881124e-17 9.555889262711098e-17 -6.017338411881124e-17 -0.9637076659200345 0.26695979968298966
12633945333.333334 -0.9607944051284049 0.2772618096200359 9.488527602353671e-17 -6.118936781796258e-17 9.488527602353671e-17 -6.118936781796258e-17 -0.9607945911539334 0.27726116498559394
12634562666.666666 -0.9577712124523504 0.2875313975853391 9.420086695173739e-17 -6.219782488353126e-17 9.420086695173739e-17 -6.219782488353126e-17 -0.9577714053587201 0.28753075501066855
12635180000.0 -0.9546382552396235 0.2977680332622521 9.350574936163707e-17 -6.319864077421491e-17 9.350574936163707e-17 -6.319864077421491e-17 -0.9546384550040565 0.29776739282079023
12635797333.333334 -0.9513958925401355 0.30797054349009234 9.280000841766103e-17 -6.419170188351122e-17 9.280000841766103e-17 -6.419170188351122e-17 -0.9513960991390674 0.3079699052550239
12636414666.666666 -0.9480444959421385 0.3181377590190134 9.208373048835083e-17 -6.517689555257287e-17 9.208373048835083e-17 -6.517689555257287e-17 -0.9480447093512268 0.3181371230632639
12637032000.0 -0.9445844495296071 0.32826851464414425 9.13570031358257e-17 -6.615411008297027e-17 9.13570031358257e-17 -6.615411008297027e-17 -0.9445846697237295 0.3282678810403705
12637649333.333334 -0.9410161498382114 0.3383616493391234 9.061991510511908e-17 -6.712323474932487e-17 9.061991510511908e-17 -6.712323474932487e-17 -0.9410163767914719 0.33836101815970593
12638266666.666666 -0.9373400058099228 0.3484160063890247 8.987255631339024e-17 -6.80841598118107e-17 8.987255631339024e-17 -6.80841598118107e-17 -0.937340239495652 0.34841537770605885
12638884000.0 -0.9335564387461088 0.3584304335230284 8.911501783898706e-17 -6.903677652855993e-17 8.911501783898706e-17 -6.903677652855993e-17 -0.9335566791368693 0.3584298074083163
12639501333.333334 -0.9296658822592492 0.3684037830464754 8.83473919103856e-17 -6.998097716793708e-17 8.83473919103856e-17 -6.998097716793708e-17 -0.929666129326838 0.36840315957151826
12640118666.666666 -0.9256687822233071 0.37833491197224073 8.756977189501377e-17 -7.091665502067312e-17 8.756977189501377e-17 -7.091665502067312e-17 -0.9256690359387575 0.3783342912082297
12640736000.0 -0.9215655967224565 0.38822268215214445 8.678225228789026e-17 -7.184370441194541e-17 8.678225228789026e-17 -7.184370441194541e-17 -0.9215658570560447 0.3882220641699538
12641353333.333334 -0.9173567959988459 0.39806596040675846 8.598492870025075e-17 -7.276202071319423e-17 8.598492870025075e-17 -7.276202071319423e-17 -0.917357062920091 0.39806534527693593
12641970666.666666 -0.9130428623984859 0.40786361865579746 8.517789784790518e-17 -7.367150035398487e-17 8.517789784790518e-17 -7.367150035398487e-17 -0.9130431358761565 0.40786300644855794
12642588000.0 -0.9086242903160386 0.4176145340472454 8.436125753958604e-17 -7.457204083360476e-17 8.436125753958604e-17 -7.457204083360476e-17 -0.9086245703181539 0.4176139248324613
12643205333.333334 -0.9041015861382115 0.42731758908590695 8.353510666511863e-17 -7.546354073259766e-17 8.353510666511863e-17 -7.546354073259766e-17 -0.904101872632047 0.4273169829331014
12643822666.666666 -0.899475268185635 0.4369716717616869 8.269954518347518e-17 -7.634589972415924e-17 8.269954518347518e-17 -7.634589972415924e-17 -0.8994755611377239 0.43697106874002456
12644440000.0 -0.894745866653525 0.44657567567687284 8.185467411072728e-17 -7.721901858538294e-17 8.185467411072728e-17 -7.721901858538294e-17 -0.8947461660296655 0.44657507585515377
12645057333.333334 -0.8899139235509164 0.4561285001729624 8.100059550786667e-17 -7.808279920838664e-17 8.100059550786667e-17 -7.808279920838664e-17 -0.8899142293161737 0.456127903619613
12645674666.666666 -0.8849799926385447 0.46562905045680253 8.013741246851329e-17 -7.893714461130046e-17 8.013741246851329e-17 -7.893714461130046e-17 -0.8849803047572544 0.46562845723986773
12646292000.0 -0.8799446393652901 0.47507623772623325 7.926522910648119e-17 -7.978195894914665e-17 7.926522910648119e-17 -7.978195894914665e-17 -0.8799449578010632 0.47507564791336876
12646909333.333334 -0.8748084408035443 0.4844689792945405 7.838415054329803e-17 -8.061714752451454e-17 7.838415054329803e-17 -8.061714752451454e-17 -0.8748087655192726 0.4844683929530063
12647526666.666666 -0.8695719855829619 0.4938061987147664 7.749428289553739e-17 -8.144261679817265e-17 7.749428289553739e-17 -8.144261679817265e-17 -0.8695723165408199 0.49380561591141714
12648144000.0 -0.8642358738229522 0.5030868259031441 7.659573326207648e-17 -8.225827439950516e-17 7.659573326207648e-17 -8.225827439950516e-17 -0.8642362109844037 0.503086246704423
12648761333.333334 -0.8588007170640442 0.5123097972614877 7.568860971124911e-17 -8.30640291368044e-17 7.568860971124911e-17 -8.30640291368044e-17 -0.8588010603898445 0.5123092217334179
12649378666.666666 -0.8532671381977461 0.5214740557991842 7.477302126788442e-17 -8.385979100742898e-17 7.477302126788442e-17 -8.385979100742898e-17 -0.8532674876479506 0.5214734840073628
12649996000.0 -0.8476357713951049 0.5305785512544283 7.384907790021491e-17 -8.464547120784024e-17 7.384907790021491e-17 -8.464547120784024e-17 -0.8476361269290685 0.5305779832640168
12650613333.333334 -0.8419072620340649 0.5396222402145104 7.291689050672255e-17 -8.542098214345686e-17 7.291689050672255e-17 -8.542098214345686e-17 -0.8419076236104502 0.5396216760902288
12651230666.666666 -0.8360822666255702 0.5486040862353028 7.197657090286108e-17 -8.618623743838476e-17 7.197657090286108e-17 -8.618623743838476e-17 -0.8360826342023513 0.5486035260414213
12651848000.0 -0.8301614527381873 0.557523059960254 7.102823180765378e-17 -8.69411519450189e-17 7.102823180765378e-17 -8.69411519450189e-17 -0.8301618262726549 0.5575225037605865
12652465333.333334 -0.8241454989216734 0.5663781392382381 7.007198683023574e-17 -8.768564175346175e-17 7.007198683023574e-17 -8.768564175346175e-17 -0.8241458783704395 0.5663775870961347
12653082666.666666 -0.8180350946293089 0.5751683092405565 6.91079504562784e-17 -8.841962420081082e-17 6.91079504562784e-17 -8.841962420081082e-17 -0.8180354799483125 0.575167761218896
12653700000.0 -0.8118309401386604 0.5838925625775709 6.813623803427913e-17 -8.914301788032599e-17 6.813623803427913e-17 -8.914301788032599e-17 -0.8118313312831714 0.5838920187387535
12654317333.333334 -0.805533746471566 0.5925498994138018 6.715696576184154e-17 -8.985574265038102e-17 6.715696576184154e-17 -8.985574265038102e-17 -0.8055341433961918 0.5925493598197428
12654934666.666666 -0.799144235312489 0.6011393275827496 6.617025067177664e-17 -9.055771964333048e-17 6.617025067177664e-17 -9.055771964333048e-17 -0.7991446379711789 0.6011387922948717
12655552000.0 -0.7926631389258064 0.6096598627005967 6.517621061814932e-17 -9.124887127419504e-17 6.517621061814932e-17 -9.124887127419504e-17 -0.7926635472718565 0.6096593317798229
12656169333.333334 -0.7860912000720415 0.6181105282788191 6.417496426225638e-17 -9.192912124918e-17 6.417496426225638e-17 -9.192912124918e-17 -0.7860916140581012 0.6181100017855659
12656786666.666666 -0.7794291719225699 0.626490355836322 6.316663105846609e-17 -9.259839457407507e-17 6.316663105846609e-17 -9.259839457407507e-17 -0.7794295915006465 0.6264898338304926
12657404000.0 -0.772677817973406 0.6347983850102957 6.215133124001294e-17 -9.325661756247017e-17 6.215133124001294e-17 -9.325661756247017e-17 -0.7726782430948719 0.6347978675512744
12658021333.333334 -0.7658379119575985 0.643033663666413 6.112918580467564e-17 -9.390371784383733e-17 6.112918580467564e-17 -9.390371784383733e-17 -0.7658383425731942 0.6430331508130558
12658638666.666666 -0.7589102377567523 0.6511952480077021 6.010031650041673e-17 -9.453962437142643e-17 6.010031650041673e-17 -9.453962437142643e-17 -0.7589106738165945 0.6511947398183325
12659256000.0 -0.7518955893109426 0.6592822026830196 5.906484581087389e-17 -9.516426743004714e-17 5.906484581087389e-17 -9.516426743004714e-17 -0.7518960307645279 0.65928169921542
12659873333.333334 -0.7447947705279025 0.6672936008940235 5.8022896940835e-17 -9.577757864365083e-17 5.8022896940835e-17 -9.577757864365083e-17 -0.7447952173241155 0.6672931022054304
12660490666.666666 -0.7376085951909007 0.6752285245013937 5.697459380160934e-17 -9.637949098277241e-17 5.697459380160934e-17 -9.637949098277241e-17 -0.7376090472780179 0.6752280306484899
12661108000.0 -0.7303378868652838 0.6830860641302641 5.592006099629339e-17 -9.696993877182692e-17 5.592006099629339e-17 -9.696993877182692e-17 -0.7303383441909808 0.6830855751691731
12661725333.333334 -0.7229834788043611 0.6908653192741457 5.48594238050311e-17 -9.754885769620598e-17 5.48594238050311e-17 -9.754885769620598e-17 -0.7229839413157181 0.6908648352604245
12662342666.666666 -0.7155462138537192 0.6985653983983401 5.379280817011862e-17 -9.811618480926118e-17 5.379280817011862e-17 -9.811618480926118e-17 -0.7155466814972274 0.6985649193869733
12662960000.0 -0.7080269443546447 0.7061854190420871 5.272034068110914e-17 -9.867185853908381e-17 5.272034068110914e-17 -9.867185853908381e-17 -0.708027417076213 0.7061849450874818
12663577333.333334 -0.7004265320465433 0.7137245079196005 5.164214855980397e-17 -9.921581869514709e-17 5.164214855980397e-17 -9.921581869514709e-17 -0.7004270097915032 0.7137240390755778
12664194666.666666 -0.6927458479681002 0.7211818010202298 5.0558359645192874e-17 -9.974800647477619e-17 5.0558359645192874e-17 -9.974800647477619e-17 -0.6927463306812125 0.7211813373400197
12664812000.0 -0.6849857723574747 0.7285564437074571 4.946910237832497e-17 -1.0026836446945458e-16 4.946910237832497e-17 -1.0026836446945458e-16 -0.6849862599829378 0.7285559852436944
12665429333.333334 -0.6771471945514042 0.735847590816867 4.837450578711612e-17 -1.0077683667096688e-16 4.837450578711612e-17 -1.0077683667096688e-16 -0.6771476870328571 0.7358471376215815
12666046666.666666 -0.6692310128833808 0.7430544067529021 4.727469947109626e-17 -1.0127336847737377e-16 4.727469947109626e-17 -1.0127336847737377e-16 -0.6692315101639139 0.743053958877517
12666664000.0 -0.6612381345804752 0.7501760655848443 4.616981358607904e-17 -1.0175790669882945e-16 4.616981358607904e-17 -1.0175790669882945e-16 -0.6612386366026322 0.7501756230801663
12667281333.333334 -0.6531694756596531 0.7572117511411965 4.5059978828815946e-17 -1.022303995632123e-16 4.5059978828815946e-17 -1.022303995632123e-16 -0.6531699823654409 0.757211314057412
12667898666.666666 -0.6450259608226105 0.7641606571033949 4.394532642153866e-17 -1.026907967216139e-16 4.394532642153866e-17 -1.026907967216139e-16 -0.645026472153505 0.7641602254900651
12668516000.0 -0.6368085233497082 0.7710219870982852 4.2825988096471676e-17 -1.0313904925364664e-16 4.2825988096471676e-17 -1.0313904925364664e-16 -0.6368090392466608 0.7710215610043395
12669133333.333334 -0.6285181049933405 0.777794954789117 4.170209608032178e-17 -1.0357510967257304e-16 4.170209608032178e-17 -1.0357510967257304e-16 -0.6285186253967852 0.777794534262847
12669750666.666666 -0.6201556558697021 0.7844787839659164 4.05737830786448e-17 -1.0399893193029343e-16 4.05737830786448e-17 -1.0399893193029343e-16 -0.6201561807195626 0.7844783690549719
12670368000.0 -0.6117221343500104 0.7910727086343528 3.94411822602336e-17 -1.0441047142213607e-16 3.94411822602336e-17 -1.0441047142213607e-16 -0.6117226635857062 0.7910722993857342
