! Parameters = {f0=12700.012000; bw=77.238000; Q=6100.000000; N=10; m_0_1=1.335030; m_1_1=1.260705; m_1_2=1.169842; m_2_2=1.260056; m_2_3=0.806805; m_2_8=0.003815; m_2_9=0.040519; m_3_3=1.258119; m_3_4=0.695334; m_3_7=0.004415; m_3_8=-0.092673; m_3_9=0.003815; m_4_4=1.255194; m_4_5=0.531669; m_4_6=0.007932; m_4_7=-0.113222; m_4_8=0.004415; m_5_5=1.255576; m_5_6=0.939024; m_5_7=0.007932; m_6_6=1.255575; m_6_7=0.532011; m_7_7=1.255208; m_7_8=0.695452; m_8_8=1.258117; m_8_9=0.807118; m_9_9=1.260051; m_9_10=1.170920; m_10_10=1.260695; m_10_11=1.335825}
!
! Created with skrf (http://scikit-rf.org).
# Hz S RI R 50.0 
!freq ReS11 ImS11 ReS21 ImS21 ReS12 ImS12 ReS22 ImS22
12607400000.0 0.6808333046242582 -0.732438401037396 -6.62111658889819e-17 1.333400849410715e-16 -6.62111658889819e-17 1.333400849410715e-16 0.6808338197106003 -0.7324379222419322
12608017333.333334 0.671665320892695 -0.7408547068824757 -6.45220758427553e-17 1.3413321808758633e-16 -6.45220758427553e-17 1.3413321808758633e-16 0.6716658418722923 -0.7408542345575072
12608634666.666666 0.6623933055211688 -0.7491562646074211 -6.282351077389104e-17 1.349049684309703e-16 -6.282351077389104e-17 1.349049684309703e-16 0.6623938323127561 -0.7491557988254681
12609252000.0 0.6530186946163689 -0.7573417884161282 -6.111574120346617e-17 1.35655223117043e-16 -6.111574120346617e-17 1.35655223117043e-16 0.6530192271377877 -0.7573413292486888
12609869333.333334 0.6435429401754983 -0.7654100104846291 -5.939903899231507e-17 1.3638387271193892e-16 -5.939903899231507e-17 1.3638387271193892e-16 0.6435434783437124 -0.7654095580021719
12610486666.666666 0.6339675098616647 -0.7733596811572253 -5.76736772978038e-17 1.37090811217958e-16 -5.76736772978038e-17 1.37090811217958e-16 0.6339680535927705 -0.7733592354291757
12611104000.0 0.6242938867761437 -0.7811895691403855 -5.593993053039004e-17 1.3777593608888064e-16 -5.593993053039004e-17 1.3777593608888064e-16 0.6242944359853838 -0.7811891302351155
12611721333.333334 0.6145235692291257 -0.7888984616930758 -5.419807431011687e-17 1.384391482446885e-16 -5.419807431011687e-17 1.384391482446885e-16 0.6145241238309037 -0.7888980296778949
12612338666.666666 0.6046580705073665 -0.7964851648148338 -5.244838542278485e-17 1.3908035208579623e-16 -5.244838542278485e-17 1.3908035208579623e-16 0.6046586304152589 -0.7964847397559779
12612956000.0 0.5946989186397287 -0.8039485034307499 -5.069114177603635e-17 1.3969945550669816e-16 -5.069114177603635e-17 1.3969945550669816e-16 0.594699483766498 -0.8039480853933701
12613573333.333334 0.5846476561608708 -0.8112873215731933 -4.8926622355312734e-17 1.4029636990905035e-16 -4.8926622355312734e-17 1.4029636990905035e-16 0.5846482264184802 -0.8112869106213474
12614190666.666666 0.5745058398719245 -0.818500482561165 -4.7155107179588426e-17 1.4087101021422302e-16 -4.7155107179588426e-17 1.4087101021422302e-16 0.5745064151715518 -0.8185000787578082
12614808000.0 0.5642750405996635 -0.8255868691761347 -4.537687725700767e-17 1.4142329487527874e-16 -4.537687725700767e-17 1.4142329487527874e-16 0.5642756208517138 -0.8255864725831078
12615425333.333334 0.5539568429529983 -0.8325453838352317 -4.359221454033524e-17 1.419531458884069e-16 -4.359221454033524e-17 1.419531458884069e-16 0.5539574280671173 -0.8325449945132515
12616042666.666666 0.5435528450777233 -0.8393749487611107 -4.180140188235623e-17 1.4246048880377052e-16 -4.180140188235623e-17 1.4246048880377052e-16 0.5435534349628147 -0.839374566769765
12616660000.0 0.5330646584088061 -0.8460745061490201 -4.0004722991072314e-17 1.4294525273581878e-16 -4.0004722991072314e-17 1.4294525273581878e-16 0.5330652529730421 -0.8460741315467529
12617277333.333334 0.5224939074209328 -0.8526430183305386 -3.820246238482072e-17 1.4340737037302042e-16 -3.820246238482072e-17 1.4340737037302042e-16 0.5224945065717703 -0.8526426511746452
12617894666.666666 0.5118422293769546 -0.8590794679342741 -3.639490534728427e-17 1.43846777987035e-16 -3.639490534728427e-17 1.43846777987035e-16 0.5118428330211491 -0.85907910828089
12618512000.0 0.5011112740739543 -0.8653828580436422 -3.458233788235742e-17 1.4426341544132607e-16 -3.458233788235742e-17 1.4426341544132607e-16 0.5011118821175756 -0.8653825059477377
12619129333.333334 0.49030270358823175 -0.8715522123509729 -3.276504666899908e-17 1.4465722619918824e-16 -3.276504666899908e-17 1.4465722619918824e-16 0.4903033159366759 -0.8715518678663394
12619746666.666666 0.4794181920174264 -0.8775865753089814 -3.094331901592329e-17 1.4502815733122326e-16 -3.094331901592329e-17 1.4502815733122326e-16 0.47941880857543295 -0.8775862384882284
12620364000.0 0.46845942522142126 -0.8834850122786577 -2.911744281620028e-17 1.4537615952224777e-16 -2.911744281620028e-17 1.4537615952224777e-16 0.4684600458930867 -0.8834846831732015
12620981333.333334 0.45742810056125166 -0.8892466096740155 -2.728770650190734e-17 1.457011870776052e-16 -2.728770650190734e-17 1.457011870776052e-16 0.45742872525004463 -0.8892462883340724
12621598666.666666 0.44632592663613213 -0.8948704751036337 -2.5454398998506345e-17 1.4600319792894856e-16 -2.5454398998506345e-17 1.4600319792894856e-16 0.44632655524490933 -0.8948701615782138
12622216000.0 0.4351546230188703 -0.9003557375088531 -2.3617809679368313e-17 1.4628215363941096e-16 -2.3617809679368313e-17 1.4628215363941096e-16 0.43515525544988987 -0.9003554318457496
12622833333.333334 0.4239159199893985 -0.9057015472987483 -2.1778228320112926e-17 1.465380194082285e-16 -2.1778228320112926e-17 1.465380194082285e-16 0.42391655614433726 -0.9057012495445341
12623450666.666666 0.41261155826706214 -0.9109070764815876 -1.993594505295268e-17 1.4677076407478257e-16 -1.993594505295268e-17 1.4677076407478257e-16 0.4126121980470287 -0.9109067866816041
12624068000.0 0.4012432887406701 -0.9159715187932308 -1.8091250320998727e-17 1.469803601220683e-16 -1.8091250320998727e-17 1.469803601220683e-16 0.4012439320462218 -0.915971236991584
12624685333.333334 0.3898128721974608 -0.9208940898219359 -1.6244434832485682e-17 1.4716678367959527e-16 -1.6244434832485682e-17 1.4716678367959527e-16 0.3898135189286189 -0.9208938160614895
12625302666.666666 0.37832207905056503 -0.9256740271297796 -1.4395789515106584e-17 1.473300145257007e-16 -1.4395789515106584e-17 1.473300145257007e-16 0.3783227291068297 -0.9256737614521465
12625920000.0 0.36677268906432114 -0.9303105903709428 -1.2545605470122018e-17 1.4747003608930992e-16 -1.2545605470122018e-17 1.4747003608930992e-16 0.3667733423446877 -0.9303103328164812
12626537333.333334 0.35516649107913956 -0.9348030614061644 -1.069417392666078e-17 1.4758683545110274e-16 -1.069417392666078e-17 1.4758683545110274e-16 0.3551671474821134 -0.934802812013969
12627154666.666666 0.3435052827342007 -0.939150744414071 -8.841786195934783e-18 1.4768040334411587e-16 -8.841786195934783e-18 1.4768040334411587e-16 0.34350594215781394 -0.9391505032219694
12627772000.0 0.3317908701887844 -0.9433529659990338 -6.988733625383253e-18 1.4775073415377439e-16 -6.988733625383253e-18 1.4775073415377439e-16 0.33179153253061144 -0.9433527330435808
12628389333.333334 0.3200250678430826 -0.947409075295269 -5.135307552997135e-18 1.4779782591734037e-16 -5.135307552997135e-18 1.4779782591734037e-16 0.3200257330002552 -0.9474088506117383
12629006666.666666 0.3082096980565831 -0.95131844406785 -3.2817992614948533e-18 1.4782168032279633e-16 -3.2817992614948533e-18 1.4782168032279633e-16 0.30821036592580786 -0.9513182276902324
12629624000.0 0.29634659086618864 -0.9550804668098877 -1.4284999326591045e-18 1.4782230270715168e-16 -1.4284999326591045e-18 1.4782230270715168e-16 0.2963472613437617 -0.9550802587708835
12630241333.333334 0.28443758370266087 -0.9586945608363476 4.2429939838509667e-19 1.4779970205417815e-16 4.2429939838509667e-19 1.4779970205417815e-16 0.28443825668448464 -0.9586943611673623
12630858666.666666 0.2724845211061378 -0.9621601663742712 2.2763078888010427e-18 1.4775389099157457e-16 2.2763078888010427e-18 1.4775389099157457e-16 0.27248519648773706 -0.9621599751054106
12631476000.0 0.2604892544400582 -0.9654767466495862 4.12723493368173e-18 1.476848857875572e-16 4.12723493368173e-18 1.476848857875572e-16 0.2604899321165964 -0.9654765638096537
12632093333.333334 0.248453641604929 -0.9686437879700961 5.976790211510098e-18 1.4759270634688482e-16 5.976790211510098e-18 1.4759270634688482e-16 0.24845432147122418 -0.9686436135865858
12632710666.666666 0.23637954675031783 -0.9716607998051175 7.824683729716548e-18 1.4747737620630976e-16 7.824683729716548e-18 1.4747737620630976e-16 0.23638022870085953 -0.9716606339042119
12633328000.0 0.22426883998592856 -0.9745273148615036 9.670625870082942e-18 1.4733892252946067e-16 9.670625870082942e-18 1.4733892252946067e-16 0.22426952391489355 -0.9745271574680681
12633945333.333334 0.21212339709224953 -0.9772428891559404 1.1514327434036722e-17 1.4717737610116296e-16 1.1514327434036722e-17 1.4717737610116296e-16 0.21212408289351856 -0.9772427402935204
12634562666.666666 0.19994509922996737 -0.9798071020837342 1.3355499687928407e-17 1.4699277132118742e-16 1.3355499687928407e-17 1.4699277132118742e-16 0.19994578679714145 -0.9798069617745516
12635180000.0 0.18773583264843371 -0.9822195564839898 1.519385440821826e-17 1.467851461974324e-16 1.519385440821826e-17 1.467851461974324e-16 0.18773652187485107 -0.9822194247489402
12635797333.333334 0.1754974883936791 -0.984479878701092 1.7029103926490116e-17 1.4655454233855033e-16 1.7029103926490116e-17 1.4655454233855033e-16 0.17549817917243116 -0.9844797555597404
12636414666.666666 0.16323196201554388 -0.9865877186425752 1.8860961174444e-17 1.4630100494600355e-16 1.8860961174444e-17 1.4630100494600355e-16 0.16323265423949235 -0.9865876041131549
12637032000.0 0.15094115327383265 -0.9885427498333955 2.0689139728734975e-17 1.4602458280556194e-16 2.0689139728734975e-17 1.4602458280556194e-16 0.1509418468356255 -0.9885426439328029
12637649333.333334 0.13862696584437467 -0.990344669466439 2.25133538557018e-17 1.4572532827824164e-16 2.25133538557018e-17 1.4572532827824164e-16 0.1386276606364633 -0.9903445722102316
12638266666.666666 0.12629130702391916 -0.9919931984494628 2.433331855596146e-17 1.4540329729068703e-16 2.433331855596146e-17 1.4540329729068703e-16 0.1262920029385754 -0.9919931098518622
12638884000.0 0.11393608743491881 -0.9934880814483031 2.6148749608912226e-17 1.45058549324989e-16 2.6148749608912226e-17 1.45058549324989e-16 0.11393678436425028 -0.9934880015221823
12639501333.333334 0.10156322072948669 -0.9948290869264231 2.795936361702265e-17 1.446911474079613e-16 2.795936361702265e-17 1.446911474079613e-16 0.10156391856545516 -0.9948290156833158
12640118666.666666 0.08917462329311286 -0.9960160071807771 2.976487804999933e-17 1.4430115809986335e-16 2.976487804999933e-17 1.4430115809986335e-16 0.08917532192754993 -0.9960159446308694
12640736000.0 0.07677221394741728 -0.9970486583740122 3.1565011288931973e-17 1.4388865148254225e-16 3.1565011288931973e-17 1.4388865148254225e-16 0.07677291327204148 -0.9970486045261431
12641353333.333334 0.0643579136538288 -0.9979268805628662 3.3359482669999693e-17 1.4345370114708695e-16 3.3359482669999693e-17 1.4345370114708695e-16 0.06435861356026229 -0.9979268354245245
12641970666.666666 0.05193364521509212 -0.9986505377230215 3.5148012528296726e-17 1.4299638418087365e-16 3.5148012528296726e-17 1.4299638418087365e-16 0.051934345594877605 -0.9986505013003487
12642588000.0 0.0395013329780755 -0.9992195177701246 3.693032224130439e-17 1.425167811541075e-16 3.693032224130439e-17 1.425167811541075e-16 0.03950203372269299 -0.9992194900679116
12643205333.333334 0.02706290253543288 -0.9996337325771694 3.8706134272280127e-17 1.4201497610579986e-16 3.8706134272280127e-17 1.4201497610579986e-16 0.02706360353631638 -0.999633713598854
12643822666.666666 0.014620280427469321 -0.9998931179881323 4.0475172213361585e-17 1.4149105652922953e-16 4.0475172213361585e-17 1.4149105652922953e-16 0.014620981576023805 -0.9998931077358021
12644440000.0 0.0021753938436617844 -0.9999976338279164 4.2237160828606414e-17 1.4094511335683547e-16 4.2237160828606414e-17 1.4094511335683547e-16 0.002176095031279958 -0.9999976323023078
12645057333.333334 -0.010269829675665379 -0.9999472639085719 4.39918260966696e-17 1.4037724094461775e-16 4.39918260966696e-17 1.4037724094461775e-16 -0.010269128557586263 -0.9999472711090689
12645674666.666666 -0.02271346253800336 -0.9997420160318069 4.573889525343482e-17 1.3978753705596348e-16 4.573889525343482e-17 1.3978753705596348e-16 -0.022712761598044667 -0.9997420319564424
12646292000.0 -0.0351535773973867 -0.9993819219877716 4.7478096834358244e-17 1.3917610284496055e-16 4.7478096834358244e-17 1.3917610284496055e-16 -0.035152876744091635 -0.9993819466332285
12646909333.333334 -0.04758824745251468 -0.9988670375501457 4.9209160716513534e-17 1.3854304283921623e-16 4.9209160716513534e-17 1.3854304283921623e-16 -0.04758754719437145 -0.9988670709117555
12647526666.666666 -0.060015546745527136 -0.9981974424674921 5.093181816059191e-17 1.3788846492209029e-16 5.093181816059191e-17 1.3788846492209029e-16 -0.060014846990952116 -0.9981974845392365
12648144000.0 -0.0724335504603649 -0.9973732404508917 5.264580185250959e-17 1.3721248031446038e-16 5.264580185250959e-17 1.3721248031446038e-16 -0.07243285131768598 -0.9973732912254052
12648761333.333334 -0.08484033522044337 -0.9963945591579118 5.4350845944831347e-17 1.3651520355595385e-16 5.4350845944831347e-17 1.3651520355595385e-16 -0.08483963679788302 -0.9963946186264808
12649378666.666666 -0.09723397938689747 -0.9952615501728153 5.604668609793217e-17 1.3579675248567182e-16 5.604668609793217e-17 1.3579675248567182e-16 -0.09723328179255608 -0.9952616183253807
12649996000.0 -0.10961256335627317 -0.993974388983073 5.773305952099066e-17 1.3505724822236686e-16 5.773305952099066e-17 1.3505724822236686e-16 -0.10961186669811236 -0.9939744658082327
12650613333.333334 -0.12197416985773393 -0.9925332749521917 5.940970501258384e-17 1.3429681514416967e-16 5.940970501258384e-17 1.3429681514416967e-16 -0.12197347424355975 -0.9925333604372005
12651230666.666666 -0.1343168842498503 -0.9909384312888561 6.107636300108763e-17 1.3351558086778718e-16 6.107636300108763e-17 1.3351558086778718e-16 -0.1343161897872966 -0.9909385254196293
12651848000.0 -0.14663879481748981 -0.9891901050123181 6.273277558486481e-17 1.3271367622716836e-16 6.273277558486481e-17 1.3271367622716836e-16 -0.14663810161400162 -0.9891902077734332
12652465333.333334 -0.15893799306774575 -0.9872885669141541 6.43786865720766e-17 1.3189123525171973e-16 6.43786865720766e-17 1.3189123525171973e-16 -0.1589373012305626 -0.9872886782888538
12653082666.666666 -0.17121257402536774 -0.9852341115163518 6.601384152020382e-17 1.3104839514403222e-16 6.601384152020382e-17 1.3104839514403222e-16 -0.17121188366150708 -0.9852342314865461
12653700000.0 -0.18346063652815325 -0.9830270570256406 6.763798777541961e-17 1.3018529625704868e-16 6.763798777541961e-17 1.3018529625704868e-16 -0.18345994774439386 -0.9830271855719099
12654317333.333334 -0.19568028352124198 -0.9806677452842287 6.925087451148691e-17 1.293020820708343e-16 6.925087451148691e-17 1.293020820708343e-16 -0.19567959642410776 -0.9806678823858282
12654934666.666666 -0.20786962235072118 -0.9781565417169045 7.085225276846556e-17 1.2839889916880926e-16 7.085225276846556e-17 1.2839889916880926e-16 -0.20786893704646411 -0.9781566873517653
12655552000.0 -0.22002676505738403 -0.9754938352743131 7.244187549111027e-17 1.274758972135015e-16 7.244187549111027e-17 1.274758972135015e-16 -0.22002608165196821 -0.975493989419047
12656169333.333334 -0.23214982866842437 -0.9726800383728599 7.401949756684599e-17 1.265332289218873e-16 7.401949756684599e-17 1.265332289218873e-16 -0.2321491472675093 -0.9726802010027625
12656786666.666666 -0.24423693548947323 -0.9697155868307561 7.558487586360435e-17 1.255710500401591e-16 7.558487586360435e-17 1.255710500401591e-16 -0.24423625619839798 -0.9697157579198128
12657404000.0 -0.2562862133954826 -0.9666009398005012 7.713776926715369e-17 1.2458951931813063e-16 7.713776926715369e-17 1.2458951931813063e-16 -0.25628553631924894 -0.9666011193213887
12658021333.333334 -0.2682957961205795 -0.9633365796977866 7.867793871821292e-17 1.235887984831135e-16 7.867793871821292e-17 1.235887984831135e-16 -0.26829512136383626 -0.9633367676218793
12658638666.666666 -0.28026382354696217 -0.9599230121268293 8.020514724917891e-17 1.2256905221336807e-16 8.020514724917891e-17 1.2256905221336807e-16 -0.2802631512139881 -0.9599232084242008
12659256000.0 -0.2921884419933333 -0.956360765801962 8.171916002055152e-17 1.215304481110708e-16 8.171916002055152e-17 1.215304481110708e-16 -0.2921877721880225 -0.9563609704413951
12659873333.333334 -0.30406780450184684 -0.9526503924657949 8.321974435694219e-17 1.2047315667488207e-16 8.321974435694219e-17 1.2047315667488207e-16 -0.304067137327691 -0.9526506054147812
12660490666.666666 -0.31590007112395835 -0.9487924668038239 8.470666978279778e-17 1.193973512720225e-16 8.470666978279778e-17 1.193973512720225e-16 -0.31589940668403205 -0.9487926880285721
12661108000.0 -0.3276834092060033 -0.9447875863552283 8.61797080577294e-17 1.183032081099322e-16 8.61797080577294e-17 1.183032081099322e-16 -0.3276827476029474 -0.9447878158206684
12661725333.333334 -0.33941599367234704 -0.9406363714205507 8.763863321148509e-17 1.171909062074923e-16 8.763863321148509e-17 1.171909062074923e-16 -0.33941533500835314 -0.9406366090903403
12662342666.666666 -0.3510960073084425 -0.9363394649654987 8.90832215785443e-17 1.1606062736581921e-16 8.90832215785443e-17 1.1606062736581921e-16 -0.35109535168523714 -0.9363397108020283
12662960000.0 -0.3627216410423438 -0.9318975325213362 9.051325183237108e-17 1.1491255613861002e-16 9.051325183237108e-17 1.1491255613861002e-16 -0.3627209885611725 -0.9318977864857347
12663577333.333334 -0.37429109422474593 -0.9273112620818583 9.192850501921935e-17 1.1374687980211562e-16 9.192850501921935e-17 1.1374687980211562e-16 -0.37429044498635744 -0.9273115241339991
12664194666.666666 -0.38580257490798553 -0.9225813639967886 9.332876459162008e-17 1.1256378832464995e-16 9.332876459162008e-17 1.1256378832464995e-16 -0.3858019290126172 -0.9225816340952976
12664812000.0 -0.39725430012337976 -0.9177085708618454 9.471381644143684e-17 1.1136347433571718e-16 9.471381644143684e-17 1.1136347433571718e-16 -0.39725365767074095 -0.9177088489641055
12665429333.333334 -0.40864449615775006 -0.9126936374051182 9.608344893257067e-17 1.1014613309469654e-16 9.608344893257067e-17 1.1014613309469654e-16 -0.4086438572470076 -0.9126939234672778
12666046666.666666 -0.4199713988277278 -0.9075373403703499 9.743745293316304e-17 1.0891196245921267e-16 9.743745293316304e-17 1.0891196245921267e-16 -0.4199707635574899 -0.9075376343473281
12666664000.0 -0.43123325375336613 -0.9022404783964705 9.877562184754967e-17 1.0766116285297439e-16 9.877562184754967e-17 1.0766116285297439e-16 -0.43123262222166786 -0.9022407802419654
12667281333.333334 -0.442428316629712 -0.8968038718939644 1.0009775164764823e-16 1.0639393723336021e-16 1.0009775164764823e-16 1.0639393723336021e-16 -0.4424276889339997 -0.8968041815604597
12667898666.666666 -0.4535548534967718 -0.8912283629179047 1.0140364090402305e-16 1.051104910585356e-16 1.0140364090402305e-16 1.051104910585356e-16 -0.4535542297338886 -0.8912286803566779
12668516000.0 -0.46461114100863826 -0.8855148150372515 1.0269309081652908e-16 1.038110322541894e-16 1.0269309081652908e-16 1.038110322541894e-16 -0.46461052127480823 -0.8855151401983805
12669133333.333334 -0.47559546669975106 -0.8796641132014271 1.0396590524444226e-16 1.0249577117998323e-16 1.0396590524444226e-16 1.0249577117998323e-16 -0.4755948510905648 -0.8796644460337986
12669750666.666666 -0.48650612925049097 -0.8736771636030737 1.0522189073630803e-16 1.0116492059548573e-16 1.0522189073630803e-16 1.0116492059548573e-16 -0.4865055178608915 -0.8736775040543919
12670368000.0 -0.4973414387507886 -0.8675548935376385 1.0646085655921403e-16 9.981869562588311e-17 1.0646085655921403e-16 9.981869562588311e-17 -0.49734083167505594 -0.8675552415544324
