! Parameters = {f0=12700.012000; bw=77.238000; Q=6100.000000; N=10; m_0_1=1.270365; m_1_1=0.290735; m_1_2=1.105177; m_2_2=0.290086; m_2_3=0.742140; m_2_8=0.000582; m_2_9=0.037286; m_3_3=0.288149; m_3_4=0.630669; m_3_7=0.001182; m_3_8=-0.095906; m_3_9=0.000582; m_4_4=0.285224; m_4_5=0.467004; m_4_6=0.004699; m_4_7=-0.116455; m_4_8=0.001182; m_5_5=0.285606; m_5_6=0.874359; m_5_7=0.004699; m_6_6=0.285605; m_6_7=0.467346; m_7_7=0.285238; m_7_8=0.630787; m_8_8=0.288147; m_8_9=0.742453; m_9_9=0.290081; m_9_10=1.106255; m_10_10=0.290725; m_10_11=1.271160}
!
! Created with skrf (http://scikit-rf.org).
# Hz S RI R 50.0 
!freq ReS11 ImS11 ReS21 ImS21 ReS12 ImS12 ReS22 ImS22
12607400000.0 0.8549732670393715 0.5186720665775699 -1.0714633809062139e-16 -2.8192309348865185e-17 -1.0714633809062139e-16 -2.8192309348865185e-17 0.8549729198902282 0.5186726388139253
12608017333.333334 0.8603892935472826 0.5096373843715069 -1.0741871857595467e-16 -2.7047287377828583e-17 -1.0741871857595467e-16 -2.7047287377828583e-17 0.8603889524617824 0.509637960204634
12608634666.666666 0.8657098522682406 0.5005461534019846 -1.0767887107730676e-16 -2.5899661748726352e-17 -1.0767887107730676e-16 -2.5899661748726352e-17 0.865709517283634 0.5005467327676411
12609252000.0 0.8709343528393976 0.49139938242130765 -1.0792677103242713e-16 -2.4749562959320243e-17 -1.0792677103242713e-16 -2.4749562959320243e-17 0.8709340239922546 0.4913999652548644
12609869333.333334 0.876062215556375 0.4821980863444807 -1.0816239527081619e-16 -2.3597121735234076e-17 -1.0816239527081619e-16 -2.3597121735234076e-17 0.8760618928825813 0.4821986725809309
12610486666.666666 0.8810928714375643 0.4729432861366487 -1.0838572201578654e-16 -2.2442469015154568e-17 -1.0838572201578654e-16 -2.2442469015154568e-17 0.8810925549723172 0.4729438757106142
12611104000.0 0.88602576228745 0.4636360086994612 -1.0859673088638169e-16 -2.1285735935936943e-17 -1.0859673088638169e-16 -2.1285735935936943e-17 0.8860254520652553 0.4636366015452004
12611721333.333334 0.8908603407582755 0.4542772867576283 -1.0879540289912186e-16 -2.012705381777111e-17 -1.0879540289912186e-16 -2.012705381777111e-17 0.8908600368129422 0.4542778828090427
12612338666.666666 0.8955960704109531 0.44486815874400654 -1.0898172046959966e-16 -1.896655414928978e-17 -1.0898172046959966e-16 -1.896655414928978e-17 0.8955957727755902 0.44486875793464825
12612956000.0 0.9002324257746193 0.43540966868429637 -1.0915566741391935e-16 -1.7804368572647845e-17 -1.0915566741391935e-16 -1.7804368572647845e-17 0.9002321344816326 0.43541027094737583
12613573333.333334 0.9047688924047385 0.42590286608160605 -1.0931722894996589e-16 -1.664062886866471e-17 -1.0931722894996589e-16 -1.664062886866471e-17 0.9047686074858275 0.42590347134999945
12614190666.666666 0.9092049669404132 0.41634880579954175 -1.0946639169853009e-16 -1.5475466941866978e-17 -1.0946639169853009e-16 -1.5475466941866978e-17 0.9092046884265674 0.41634941400579867
12614808000.0 0.913540157160087 0.4067485479454676 -1.0960314368426672e-16 -1.430901480556932e-17 -1.0960314368426672e-16 -1.430901480556932e-17 0.9135398850815807 0.4067491590218176
12615425333.333334 0.9177739820362084 0.3971031577527746 -1.0972747433649386e-16 -1.3141404566958506e-17 -1.0972747433649386e-16 -1.3141404566958506e-17 0.9177737164225996 0.3971037716311356
12616042666.666666 0.9219059717886401 0.38741370546260545 -1.0983937448983643e-16 -1.1972768412147696e-17 -1.0983937448983643e-16 -1.1972768412147696e-17 0.9219057126687675 0.3874143220745917
12616660000.0 0.9259356679367177 0.3776812662052588 -1.0993883638471074e-16 -1.0803238591227644e-17 -1.0993883638471074e-16 -1.0803238591227644e-17 0.9259354153386958 0.3776818854821875
12617277333.333334 0.9298626233501668 0.36790691988078905 -1.1002585366764804e-16 -9.632947403341583e-18 -1.1002585366764804e-16 -9.632947403341583e-18 0.9298623773013839 0.36790754175368845
12617894666.666666 0.933686402298694 0.35809175103923463 -1.1010042139146004e-16 -8.462027181750977e-18 -1.1010042139146004e-16 -8.462027181750977e-18 0.9336861628258093 0.35809237543885186
12618512000.0 0.9374065805003864 0.3482368487601451 -1.1016253601525014e-16 -7.290610278853284e-18 -1.1016253601525014e-16 -7.290610278853284e-18 0.9374063476293268 0.34823747561695384
12619129333.333334 0.9410227451686795 0.3383433065320306 -1.1021219540425768e-16 -6.1188290513129065e-18 -1.1021219540425768e-16 -6.1188290513129065e-18 0.9410225189246366 0.3383439357762382
12619746666.666666 0.944534495058286 0.32841222213068283 -1.102493988295522e-16 -4.9468158450754354e-18 -1.102493988295522e-16 -4.9468158450754354e-18 0.9445342754657151 0.3284128536922393
12620364000.0 0.9479414405096613 0.31844469749752774 -1.1027414696756365e-16 -3.774702980467177e-18 -1.1027414696756365e-16 -3.774702980467177e-18 0.9479412275922757 0.3184453313061325
12620981333.333334 0.9512432034921827 0.3084418386175165 -1.1028644189945648e-16 -2.6026227373003744e-18 -1.1028644189945648e-16 -2.6026227373003744e-18 0.9512429972729531 0.30844247460262636
12621598666.666666 0.954439417646214 0.2984047553960567 -1.1028628711034583e-16 -1.4307073399291979e-18 -1.1028628711034583e-16 -1.4307073399291979e-18 0.954439218147366 0.298405393486894
12622216000.0 0.9575297283236578 0.28833456153615517 -1.1027368748835463e-16 -2.5908894239623545e-19 -1.1027368748835463e-16 -2.5908894239623545e-19 0.9575295355666692 0.28833520166171567
12622833333.333334 0.9605137926273509 0.2782323744147078 -1.1024864932351361e-16 9.12100386476249e-19 -1.1024864932351361e-16 9.12100386476249e-19 0.9605136066329495 0.2782330165037685
12623450666.666666 0.9633912794491052 0.26809931495854455 -1.102111803065037e-16 2.0827286779137976e-18 -1.102111803065037e-16 2.0827286779137976e-18 0.9633911002372662 0.26809995893967137
12624068000.0 0.9661618695064348 0.2579365075200785 -1.1016128952724033e-16 3.252664078059702e-18 -1.1016128952724033e-16 3.252664078059702e-18 0.9661616970963788 0.2579371533216344
12624685333.333334 0.968825255378018 0.24774507975244084 -1.1009898747330039e-16 4.4217748628136016e-18 -1.1009898747330039e-16 4.4217748628136016e-18 0.9688250897882097 0.24774572730259406
12625302666.666666 0.9713811415377535 0.23752616248454886 -1.1002428602819464e-16 5.589929452587084e-18 -1.1002428602819464e-16 5.589929452587084e-18 0.9713809827858987 0.23752681171128048
12625920000.0 0.9738292443876158 0.2272808895953833 -1.0993719846947867e-16 6.756996427143566e-18 -1.0993719846947867e-16 6.756996427143566e-18 0.9738290924906607 0.2272815404264957
12626537333.333334 0.9761692922890522 0.21701039788847878 -1.0983773946671255e-16 7.922844540323759e-18 -1.0983773946671255e-16 7.922844540323759e-18 0.9761691472631783 0.21701105025160272
12627154666.666666 0.9784010255931761 0.20671582696553487 -1.0972592507926168e-16 9.087342734776949e-18 -1.0972592507926168e-16 9.087342734776949e-18 0.9784008874538039 0.20671648078813892
12627772000.0 0.9805241966695832 0.19639831909996888 -1.0960177275393885e-16 1.0250360156712066e-17 -1.0960177275393885e-16 1.0250360156712066e-17 0.9805240654313655 0.19639897430936634
12628389333.333334 0.9825385699337571 0.1860590191104748 -1.0946530132249977e-16 1.1411766170510905e-17 -1.0946530132249977e-16 1.1411766170510905e-17 0.9825384456105816 0.18605967563383252
12629006666.666666 0.984443921873317 0.17569907423349534 -1.093165309989718e-16 1.2571430373432462e-17 -1.093165309989718e-16 1.2571430373432462e-17 0.9844438044783007 0.17569973199784122
12629624000.0 0.9862400410727206 0.16531963399639937 -1.0915548337683659e-16 1.372922261020443e-17 -1.0915548337683659e-16 1.372922261020443e-17 0.9862399306182119 0.16532029292863099
12630241333.333334 0.9879267282367733 0.1549218500896807 -1.0898218142605502e-16 1.4885012987605882e-17 -1.0898218142605502e-16 1.4885012987605882e-17 0.9879266247343497 0.1549225101165732
12630858666.666666 0.9895037962127269 0.14450687623925212 -1.0879664948994003e-16 1.603867188900549e-17 -1.0879664948994003e-16 1.603867188900549e-17 0.9895036996731926 0.14450753728746626
12631476000.0 0.9909710700110665 0.13407586807828833 -1.0859891328186777e-16 1.7190069988915403e-17 -1.0859891328186777e-16 1.7190069988915403e-17 0.990970980444452 0.13407653007437864
12632093333.333334 0.9923283868248849 0.1236299830192796 -1.0838899988185057e-16 1.8339078267404615e-17 -1.0838899988185057e-16 1.8339078267404615e-17 0.992328304240446 0.12363064588970273
12632710666.666666 0.9935755960479847 0.11317038012535352 -1.0816693773294481e-16 1.9485568024558797e-17 -1.0816693773294481e-16 1.9485568024558797e-17 0.9935755204542029 0.11317104379647634
12633328000.0 0.9947125592915851 0.10269821998169472 -1.0793275663750501e-16 2.0629410894895037e-17 -1.0793275663750501e-16 2.0629410894895037e-17 0.9947124906961652 0.10269888437980249
12633945333.333334 0.9957391503996573 0.09221466456693712 -1.0768648775330063e-16 2.1770478861659644e-17 -1.0768648775330063e-16 2.1770478861659644e-17 0.9957390888095249 0.09221532961824142
12634562666.666666 0.9966552554629441 0.08172087712400572 -1.0742816358946456e-16 2.2908644271170007e-17 -1.0742816358946456e-16 2.2908644271170007e-17 0.9966552008842495 0.08172154275465314
12635180000.0 0.997460772831583 0.07121802203127149 -1.0715781800230312e-16 2.40437798470455e-17 -1.0715781800230312e-16 2.40437798470455e-17 0.9974607252696948 0.07121868816735125
12635797333.333334 0.9981556131263976 0.0607072646730976 -1.0687548619094884e-16 2.5175758704427074e-17 -1.0687548619094884e-16 2.5175758704427074e-17 0.9981555725859097 0.060707931240650444
12636414666.666666 0.9987396992488031 0.05018977131084244 -1.0658120469286632e-16 2.630445436413187e-17 -1.0658120469286632e-16 2.630445436413187e-17 0.9987396657335262 0.050190438235868176
12637032000.0 0.9992129663893726 0.039666708953168414 -1.0627501137920805e-16 2.7429740766759423e-17 -1.0627501137920805e-16 2.7429740766759423e-17 0.9992129399023393 0.03966737616163453
12637649333.333334 0.9995753620350201 0.029139245226722534 -1.0595694545002349e-16 2.8551492286742356e-17 -1.0595694545002349e-16 2.8551492286742356e-17 0.9995753425784826 0.029139912644572302
12638266666.666666 0.9998268459748332 0.018608548246435857 -1.0562704742931454e-16 2.96695837463573e-17 -1.0562704742931454e-16 2.96695837463573e-17 0.9998268335502645 0.018609215799596554
12638884000.0 0.9999673903045311 0.008075786486109753 -1.0528535915995424e-16 3.0783890429647096e-17 -1.0528535915995424e-16 3.0783890429647096e-17 0.9999673849126215 0.008076454100500835
12639501333.333334 0.9999969794295593 -0.00245787135149241 -1.0493192379844402e-16 3.189428809633328e-17 -1.0493192379844402e-16 3.189428809633328e-17 0.9999969810702211 -0.0024572037499510048
12640118666.666666 0.9999156100668258 -0.012991256463953606 -1.0456678580954631e-16 3.300065299560097e-17 -1.0456678580954631e-16 3.300065299560097e-17 0.9999156187391884 -0.01299058894933328
12640736000.0 0.9997232912450553 -0.023523200079460495 -1.0418999096073517e-16 3.4102861879935926e-17 -1.0418999096073517e-16 3.4102861879935926e-17 0.9997233069474709 -0.023522532725815785
12641353333.333334 0.9994200443038035 -0.034052533585750146 -1.0380158631655614e-16 3.520079201873665e-17 -1.0380158631655614e-16 3.520079201873665e-17 0.9994200670338428 -0.034051866467110475
12641970666.666666 0.9990059028910696 -0.044578088660488166 -1.0340162023278646e-16 3.629432121202842e-17 -1.0340162023278646e-16 3.629432121202842e-17 0.9990059326455253 -0.04457742185084971
12642588000.0 0.9984809129595825 -0.055098697400421615 -1.0299014235048915e-16 3.738332780400289e-17 -1.0299014235048915e-16 3.738332780400289e-17 0.9984809497344659 -0.05509803097373892
12643205333.333334 0.997845132761684 -0.06561319245122342 -1.025672035899071e-16 3.846769069654116e-17 -1.025672035899071e-16 3.846769069654116e-17 0.9978451765522303 -0.06561252648140146
12643822666.666666 0.9970986328428763 -0.07612040713693587 -1.0213285614422306e-16 3.9547289362644963e-17 -1.0213285614422306e-16 3.9547289362644963e-17 0.9970986836435406 -0.07611974169782161
12644440000.0 0.9962414960339899 -0.08661917558936628 -1.0168715347317306e-16 4.0622003859816006e-17 -1.0168715347317306e-16 4.0622003859816006e-17 0.9962415538384528 -0.08661851075474071
12645057333.333334 0.9952738174419965 -0.09710833287756462 -1.0123015029652931e-16 4.169171484333813e-17 -1.0123015029652931e-16 4.169171484333813e-17 0.9952738822431597 -0.09710766872113435
12645674666.666666 0.9941957044394598 -0.10758671513691227 -1.0076190258743319e-16 4.2756303579512703e-17 -1.0076190258743319e-16 4.2756303579512703e-17 0.99419577622945 -0.10758605173230146
12646292000.0 0.9930072766526001 -0.11805315969854621 -1.0028246756558016e-16 4.381565195883981e-17 -1.0028246756558016e-16 4.381565195883981e-17 0.9930073554227704 -0.11805249711928853
12646909333.333334 0.9917086659480491 -0.1285065052180848 -9.97919036903037e-17 4.4869642509041374e-17 -9.97919036903037e-17 4.4869642509041374e-17 0.9917087516889777 -0.12850584353761507
12647526666.666666 0.990300016418203 -0.13894559180460195 -9.929027065348115e-17 4.5918158408098317e-17 -9.929027065348115e-17 4.5918158408098317e-17 0.9903001091196968 -0.1389449310962482
12648144000.0 0.9887814843652327 -0.1493692611493841 -9.877762937231773e-17 4.6961083497177986e-17 -9.877762937231773e-17 4.6961083497177986e-17 0.9887815840163253 -0.14936860148635908
12648761333.333334 0.9871532382837344 -0.15977635665442544 -9.825404198201166e-17 4.799830229344498e-17 -9.825404198201166e-17 4.799830229344498e-17 0.9871533448726922 -0.15977569810981915
12649378666.666666 0.9854154588420684 -0.1701657235605953 -9.771957182826104e-17 4.902970000284487e-17 -9.771957182826104e-17 4.902970000284487e-17 0.9854155723563878 -0.17016506620736638
12649996000.0 0.983568338862275 -0.18053620907599327 -9.717428345964839e-17 5.005516253277607e-17 -9.717428345964839e-17 5.005516253277607e-17 0.9835684592886843 -0.18053555298696086
12650613333.333334 0.9816120832986736 -0.1908866625038606 -9.661824261989198e-17 5.1074576504684365e-17 -9.661824261989198e-17 5.1074576504684365e-17 0.9816122106231376 -0.19088600775169676
12651230666.666666 0.9795469092151782 -0.20121593536998159 -9.605151623996567e-17 5.208782926656872e-17 -9.605151623996567e-17 5.208782926656872e-17 0.9795470434228964 -0.2012152820272029
12651848000.0 0.9773730457611389 -0.2115228815504793 -9.547417243008007e-17 5.3094808905413617e-17 -9.547417243008007e-17 5.3094808905413617e-17 0.9773731868365496 -0.21152222968943893
12652465333.333334 0.9750907341459519 -0.22180635739882112 -9.488628047155052e-17 5.4095404259506846e-17 -9.488628047155052e-17 5.4095404259506846e-17 0.9750908820727303 -0.2218057070917003
12653082666.666666 0.972700227612325 -0.23206522187254877 -9.428791080852099e-17 5.508950493069145e-17 -9.428791080852099e-17 5.508950493069145e-17 0.9727003823733911 -0.23206457319135004
12653700000.0 0.9702017914081082 -0.2422983366602497 -9.367913503955916e-17 5.607700129652974e-17 -9.367913503955916e-17 5.607700129652974e-17 0.9702019529856224 -0.24229768967678741
12654317333.333334 0.9675957027569203 -0.2525045663075555 -9.306002590914799e-17 5.705778452233483e-17 -9.306002590914799e-17 5.705778452233483e-17 0.9675958711322911 -0.2525039210934494
12654934666.666666 0.964882250827374 -0.262682778343244 -9.243065729901383e-17 5.803174657317295e-17 -9.243065729901383e-17 5.803174657317295e-17 0.9648824259812562 -0.26268213496991
12655552000.0 0.9620617367009595 -0.2728318434049773 -9.179110421936023e-17 5.899878022571696e-17 -9.179110421936023e-17 5.899878022571696e-17 0.9620619186132585 -0.2728312019436205
12656169333.333334 0.9591344733386862 -0.2829506353644507 -9.114144279997014e-17 5.995877908002066e-17 -9.114144279997014e-17 5.995877908002066e-17 0.9591346619885578 -0.28294999588605657
12656786666.666666 0.9561007855463225 -0.29303803145245555 -9.048175028117751e-17 6.091163757120543e-17 -9.048175028117751e-17 6.091163757120543e-17 0.956100980912179 -0.2930373940277833
12657404000.0 0.9529610099383764 -0.30309291238340685 -8.981210500472592e-17 6.185725098103538e-17 -8.981210500472592e-17 6.185725098103538e-17 0.9529612119978853 -0.3030922770829803
12658021333.333334 0.9497154949006982 -0.3131141624796724 -8.91325864044944e-17 6.27955154494104e-17 -8.91325864044944e-17 6.27955154494104e-17 0.9497157036307884 -0.3131135293737733
12658638666.666666 0.9463646005519236 -0.32310066979507013 -8.844327499713386e-17 6.372632798571482e-17 -8.844327499713386e-17 6.372632798571482e-17 0.946364815928785 -0.32310003895372985
12659256000.0 0.9429086987033971 -0.3330513262385993 -8.774425237253106e-17 6.464958648013921e-17 -8.774425237253106e-17 6.464958648013921e-17 0.942908920702485 -0.3330506977315909
12659873333.333334 0.9393481728179721 -0.34296502769723075 -8.703560118421695e-17 6.556518971481307e-17 -8.703560118421695e-17 6.556518971481307e-17 0.9393484014140079 -0.34296440159406133
12660490666.666666 0.9356834179675251 -0.3528406741582302 -8.631740513962483e-17 6.64730373748806e-17 -8.631740513962483e-17 6.64730373748806e-17 0.9356836531345027 -0.3528400505281338
12661108000.0 0.9319148407889505 -0.36267716983169657 -8.558974899021328e-17 6.737303005949402e-17 -8.558974899021328e-17 6.737303005949402e-17 0.9319150825001372 -0.36267654874362615
12661725333.333334 0.9280428594392436 -0.37247342327158905 -8.485271852153871e-17 6.826506929261932e-17 -8.485271852153871e-17 6.826506929261932e-17 0.9280431076671818 -0.37247280479420825
12662342666.666666 0.9240679035489548 -0.38222834749723184 -8.410640054314978e-17 6.914905753381606e-17 -8.410640054314978e-17 6.914905753381606e-17 0.924068158265467 -0.38222773169890806
12662960000.0 0.9199904141745869 -0.39194086011373797 -8.335088287840111e-17 7.00248981888688e-17 -8.335088287840111e-17 7.00248981888688e-17 0.9199906753507795 -0.3919402470625354
12663577333.333334 0.9158108437496052 -0.4016098834322432 -8.258625435416458e-17 7.089249562029796e-17 -8.258625435416458e-17 7.089249562029796e-17 0.9158111113558703 -0.40160927319591416
12664194666.666666 0.9115296560343126 -0.4112343445893014 -8.181260479040391e-17 7.17517551577922e-17 -8.181260479040391e-17 7.17517551577922e-17 0.9115299300403309 -0.41123373723527906
12664812000.0 0.9071473260642985 -0.420813175666136 -8.10300249896711e-17 7.260258310849225e-17 -8.10300249896711e-17 7.260258310849225e-17 0.9071476064390444 -0.4208125712615274
12665429333.333334 0.9026643400978 -0.4303453138069796 -8.02386067264739e-17 7.344488676718606e-17 -8.02386067264739e-17 7.344488676718606e-17 0.9026646268095441 -0.430344712418558
12666046666.666666 0.8980811955617761 -0.43982970133695753 -7.943844273655088e-17 7.427857442637525e-17 -7.943844273655088e-17 7.427857442637525e-17 0.8980814885780883 -0.43982910303115463
12666664000.0 0.8933984009965342 -0.4492652858798023 -7.862962670602595e-17 7.510355538623992e-17 -7.862962670602595e-17 7.510355538623992e-17 0.8933987002842904 -0.4492646907227024
12667281333.333334 0.88861647599956 -0.458651020474116 -7.781225326049592e-17 7.59197399644515e-17 -7.781225326049592e-17 7.59197399644515e-17 0.8886167815249413 -0.4586504285314468
12667898666.666666 0.8837359511676957 -0.4679858636898697 -7.698641795396363e-17 7.672703950591939e-17 -7.698641795396363e-17 7.672703950591939e-17 0.8837362628961947 -0.46798527502699566
12668516000.0 0.878757368038224 -0.4772687797440337 -7.615221725771361e-17 7.752536639237362e-17 -7.615221725771361e-17 7.752536639237362e-17 0.8787576859346491 -0.4772681944259495
12669133333.333334 0.8736812790289796 -0.48649873861512954 -7.530974854907724e-17 7.831463405184122e-17 -7.530974854907724e-17 7.831463405184122e-17 0.873681603057458 -0.4864981567064522
12669750666.666666 0.868508247376881 -0.49567471615784753 -7.445911010008958e-17 7.909475696800838e-17 -7.445911010008958e-17 7.909475696800838e-17 0.8685085775008635 -0.49567413772280994
12670368000.0 0.8632388470754478 -0.5047956942166593 -7.360040106605973e-17 7.986565068945217e-17 -7.360040106605973e-17 7.986565068945217e-17 0.8632391832577105 -0.5047951193191013
