! Parameters = {f0=12700.012000; bw=77.238000; Q=6100.000000; N=10; m_0_1=1.225721; m_1_1=-0.378935; m_1_2=1.060533; m_2_2=-0.379584; m_2_3=0.697496; m_2_8=-0.001650; m_2_9=0.035054; m_3_3=-0.381521; m_3_4=0.586025; m_3_7=-0.001050; m_3_8=-0.098138; m_3_9=-0.001650; m_4_4=-0.384446; m_4_5=0.422360; m_4_6=0.002467; m_4_7=-0.118687; m_4_8=-0.001050; m_5_5=-0.384064; m_5_6=0.829715; m_5_7=0.002467; m_6_6=-0.384065; m_6_7=0.422702; m_7_7=-0.384432; m_7_8=0.586143; m_8_8=-0.381523; m_8_9=0.697809; m_9_9=-0.379589; m_9_10=1.061611; m_10_10=-0.378945; m_10_11=1.226516}
!
! Created with skrf (http://scikit-rf.org).
# Hz S RI R 50.0 
!freq ReS11 ImS11 ReS21 ImS21 ReS12 ImS12 ReS22 ImS22
12607400000.0 -0.7265139939896159 0.68715166923838 4.479511926405143e-17 -7.729666586161397e-17 4.479511926405143e-17 -7.729666586161397e-17 -0.7265144377938492 0.6871512000112663
12608017333.333334 -0.7201518736342112 0.6938164590876834 4.4065497623805967e-17 -7.769480768058216e-17 4.4065497623805967e-17 -7.769480768058216e-17 -0.7201523217210304 0.6938159939923882
12608634666.666666 -0.7137286152676445 0.7004223466937407 4.333234787717698e-17 -7.808606907961973e-17 4.333234787717698e-17 -7.808606907961973e-17 -0.7137290675985913 0.7004218857693423
12609252000.0 -0.7072447641988602 0.7069687712432106 4.259573484610233e-17 -7.847041889748942e-17 4.259573484610233e-17 -7.847041889748942e-17 -0.7072452207351196 0.706968314528429
12609869333.333334 -0.7007008708809181 0.7134551769708867 4.185572362674901e-17 -7.884782658308896e-17 4.185572362674901e-17 -7.884782658308896e-17 -0.7007013315833226 0.7134547245040813
12610486666.666666 -0.694097490864286 0.7198810132068614 4.1112379583780224e-17 -7.921826219785269e-17 4.1112379583780224e-17 -7.921826219785269e-17 -0.694097955693318 0.7198805650260276
12611104000.0 -0.6874351847494933 0.7262457344234574 4.0365768344564834e-17 -7.958169641811694e-17 4.0365768344564834e-17 -7.958169641811694e-17 -0.6874356536652876 0.7262452905662211
12611721333.333334 -0.6807145181397362 0.7325488002813347 3.9615955793443557e-17 -7.993810053739273e-17 3.9615955793443557e-17 -7.993810053739273e-17 -0.6807149911020863 0.7325483607849537
12612338666.666666 -0.6739360615927871 0.738789675675452 3.8863008065900475e-17 -8.028744646862194e-17 3.8863008065900475e-17 -8.028744646862194e-17 -0.673936538561146 0.7387892405768083
12612956000.0 -0.6671003905724875 0.744967830780546 3.8106991542737343e-17 -8.062970674636686e-17 3.8106991542737343e-17 -8.062970674636686e-17 -0.667100871505972 0.7449674001161453
12613573333.333334 -0.66020808540002 0.751082741095997 3.7347972844270517e-17 -8.096485452892621e-17 3.7347972844270517e-17 -8.096485452892621e-17 -0.660208570257415 0.7510823149019658
12614190666.666666 -0.6532597312045603 0.7571338874904375 3.6586018824445367e-17 -8.129286360042688e-17 3.6586018824445367e-17 -8.129286360042688e-17 -0.6532602199443213 0.7571334658025181
12614808000.0 -0.6462559178736199 0.7631207562457999 3.582119656496676e-17 -8.161370837284352e-17 3.582119656496676e-17 -8.161370837284352e-17 -0.6462564104538768 0.7631203390993495
12615425333.333334 -0.6391972400029906 0.7690428391009148 3.5053573369419475e-17 -8.192736388796116e-17 3.5053573369419475e-17 -8.192736388796116e-17 -0.6391977363815515 0.769042426530901
12616042666.666666 -0.6320842968461774 0.7748996332947314 3.428321675735325e-17 -8.223380581929046e-17 3.428321675735325e-17 -8.223380581929046e-17 -0.6320847969805323 0.7748992253357305
12616660000.0 -0.6249176922636562 0.7806906416088911 3.351019445835115e-17 -8.253301047392722e-17 3.351019445835115e-17 -8.253301047392722e-17 -0.6249181961109799 0.780690238295084
12617277333.333334 -0.6176980346715197 0.7864153724100115 3.2734574406100995e-17 -8.282495479434869e-17 3.2734574406100995e-17 -8.282495479434869e-17 -0.6176985421886764 0.7864149737751814
12617894666.666666 -0.6104259369898717 0.7920733396913899 3.195642473244455e-17 -8.31096163601579e-17 3.195642473244455e-17 -8.31096163601579e-17 -0.6104264481334182 0.7920729457689203
12618512000.0 -0.6031020165906782 0.7976640631143496 3.117581376137379e-17 -8.338697338978546e-17 3.117581376137379e-17 -8.338697338978546e-17 -0.6031025313168674 0.7976636739372194
12619129333.333334 -0.5957268952455808 0.8031870680488434 3.0392810003093714e-17 -8.365700474210617e-17 3.0392810003093714e-17 -8.365700474210617e-17 -0.5957274135103662 0.8031866836496264
12619746666.666666 -0.5883011990729314 0.80864188561389 2.960748214799058e-17 -8.391968991802902e-17 2.960748214799058e-17 -8.391968991802902e-17 -0.5883017208319705 0.8086415060247516
12620364000.0 -0.5808255584845438 0.814028052717444 2.881989906062486e-17 -8.4175009062017e-17 2.881989906062486e-17 -8.4175009062017e-17 -0.5808260836932017 0.8140276779701371
12620981333.333334 -0.5733006081325189 0.8193451120954591 2.8030129773718865e-17 -8.44229429635489e-17 2.8030129773718865e-17 -8.44229429635489e-17 -0.573301136745872 0.8193447422213233
12621598666.666666 -0.5657269868550662 0.8245926123509258 2.7238243482110416e-17 -8.466347305853119e-17 2.7238243482110416e-17 -8.466347305853119e-17 -0.5657275188279067 0.8245922473808837
12622216000.0 -0.5581053376223143 0.8297701079921587 2.644430953670952e-17 -8.489658143064956e-17 2.644430953670952e-17 -8.489658143064956e-17 -0.5581058729091534 0.8297697479567135
12622833333.333334 -0.5504363074818188 0.8348771594705514 2.5648397438426797e-17 -8.512225081266871e-17 2.5648397438426797e-17 -8.512225081266871e-17 -0.5504368460368906 0.8348768043997844
12623450666.666666 -0.5427205475036312 0.8399133332178949 2.4850576832127724e-17 -8.53404645876645e-17 2.4850576832127724e-17 -8.53404645876645e-17 -0.5427210892808975 0.8399129831414632
12624068000.0 -0.5349587127249559 0.844878201683233 2.405091750053315e-17 -8.555120679021265e-17 2.405091750053315e-17 -8.555120679021265e-17 -0.5349592576781087 0.844877856630367
12624685333.333334 -0.5271514620944179 0.8497713433692344 2.324948935811992e-17 -8.575446210751727e-17 2.324948935811992e-17 -8.575446210751727e-17 -0.5271520101768844 0.8497710033687347
12625302666.666666 -0.5192994584165055 0.8545923428677324 2.2446362445061244e-17 -8.595021588046931e-17 2.2446362445061244e-17 -8.595021588046931e-17 -0.5193000095814521 0.8545920079479676
12625920000.0 -0.5114033682948441 0.8593407908952795 2.1641606921075654e-17 -8.613845410467059e-17 2.1641606921075654e-17 -8.613845410467059e-17 -0.51140392249518 0.8593404610841852
12626537333.333334 -0.50346386207599 0.8640162843276533 2.0835293059338817e-17 -8.631916343138188e-17 2.0835293059338817e-17 -8.631916343138188e-17 -0.5034644192643714 0.8640159596527286
12627154666.666666 -0.49548161379228 0.8686184262342322 2.002749124036113e-17 -8.649233116842137e-17 2.002749124036113e-17 -8.649233116842137e-17 -0.49548217392111354 0.8686181067225365
12627772000.0 -0.48745730110460445 0.8731468259116855 1.921827194583612e-17 -8.665794528101027e-17 1.921827194583612e-17 -8.665794528101027e-17 -0.48745786412605246 0.8731465115898377
12628389333.333334 -0.4793916052451517 0.8776010989169925 1.840770575253195e-17 -8.681599439255131e-17 1.840770575253195e-17 -8.681599439255131e-17 -0.47939217111113536 0.8776007898111688
12629006666.666666 -0.4712852109591256 0.8819808671003287 1.7595863326127518e-17 -8.696646778535922e-17 1.7595863326127518e-17 -8.696646778535922e-17 -0.4712857796213298 0.8819805632362604
12629624000.0 -0.46313880644703803 0.8862857586369365 1.6782815415085494e-17 -8.710935540132656e-17 1.6782815415085494e-17 -8.710935540132656e-17 -0.46313937785691395 0.8862854600399053
12630241333.333334 -0.45495308330603096 0.890515408058823 1.5968632844478428e-17 -8.724464784253989e-17 1.5968632844478428e-17 -8.724464784253989e-17 -0.45495365741480215 0.8905151147536633
12630858666.666666 -0.44672873647136796 0.8946694562856895 1.5153386509862733e-17 -8.737233637182919e-17 1.5153386509862733e-17 -8.737233637182919e-17 -0.4467293132300337 0.8946691682967832
12631476000.0 -0.4384664641570547 0.8987475506556036 1.433714737108187e-17 -8.749241291327135e-17 1.433714737108187e-17 -8.749241291327135e-17 -0.43846704351639365 0.8987472680068789
12632093333.333334 -0.43016696779704544 0.902749344954696 1.3519986446141072e-17 -8.760487005262419e-17 1.3519986446141072e-17 -8.760487005262419e-17 -0.43016754970762056 0.9027490676696253
12632710666.666666 -0.4218309519854672 0.9066744994466709 1.2701974805017181e-17 -8.770970103771316e-17 1.2701974805017181e-17 -8.770970103771316e-17 -0.4218315363976296 0.9066742275482691
12633328000.0 -0.4134591244165959 0.9105226809017432 1.1883183563493738e-17 -8.78068997787556e-17 1.1883183563493738e-17 -8.78068997787556e-17 -0.4134597112804895 0.9105224144125665
12633945333.333334 -0.40505219582516133 0.9142935626247464 1.1063683877007087e-17 -8.789646084862675e-17 1.1063683877007087e-17 -8.789646084862675e-17 -0.40505278509072634 0.9142933015668886
12634562666.666666 -0.3966108799257772 0.9179868244829759 1.0243546934456525e-17 -8.797837948307298e-17 1.0243546934456525e-17 -8.797837948307298e-17 -0.3966114715427549 0.9179865688780672
12635180000.0 -0.3881358933524265 0.9216021529333307 9.422843952051278e-18 -8.805265158086174e-17 9.422843952051278e-18 -8.805265158086174e-17 -0.38813648727036404 0.9216019028025378
12635797333.333334 -0.37962795559749335 0.9251392410489917 8.6016461671303e-18 -8.811927370387934e-17 8.6016461671303e-18 -8.811927370387934e-17 -0.37962855176574667 0.925138996413013
12636414666.666666 -0.37108778895094036 0.9285977885453631 7.780024831994902e-18 -8.817824307716823e-17 7.780024831994902e-18 -8.817824307716823e-17 -0.3710883873186802 0.9285975494244304
12637032000.0 -0.3625161184387553 0.931977501805668 6.958051207740149e-18 -8.82295575889079e-17 6.958051207740149e-18 -8.82295575889079e-17 -0.3625167189549702 0.9319772682195416
12637649333.333334 -0.35391367176142435 0.9352780939058623 6.135796558090379e-18 -8.827321579033838e-17 6.135796558090379e-18 -8.827321579033838e-17 -0.3539142743749252 0.9352778658738304
12638266666.666666 -0.34528117923228435 0.9384992846389385 5.313332143224326e-18 -8.830921689562686e-17 5.313332143224326e-18 -8.830921689562686e-17 -0.34528178389170927 0.9384990621798167
12638884000.0 -0.33661937371541795 0.9416408005387598 4.490729213628107e-18 -8.83375607816758e-17 4.490729213628107e-18 -8.83375607816758e-17 -0.33661998036923635 0.9416405836708885
12639501333.333334 -0.32792899056346153 0.9447023749032628 3.668059003926314e-18 -8.835824798787512e-17 3.668059003926314e-18 -8.835824798787512e-17 -0.32792959915997894 0.9447021636445067
12640118666.666666 -0.3192107675552323 0.9476837478170844 2.8453927267344912e-18 -8.837127971579665e-17 2.8453927267344912e-18 -8.837127971579665e-17 -0.31921137804259375 0.9476835421848292
12640736000.0 -0.3104654448328227 0.9505846661737158 2.0228015664832255e-18 -8.837665782883156e-17 2.0228015664832255e-18 -8.837665782883156e-17 -0.31046605715901787 0.9505844661848675
12641353333.333334 -0.3016937648393313 0.953404883696799 1.2003566733224867e-18 -8.837438485177001e-17 1.2003566733224867e-18 -8.837438485177001e-17 -0.30169437895219947 0.9534046893677851
12641970666.666666 -0.29289647225518695 0.956144160961256 3.7812915693332337e-19 -8.836446397032523e-17 3.7812915693332337e-19 -8.836446397032523e-17 -0.29289708810242016 0.9561439723080197
12642588000.0 -0.28407431393535787 0.9588022654134652 -4.4380991959172025e-19 -8.834689903059928e-17 -4.4380991959172025e-19 -8.834689903059928e-17 -0.2840749314645066 0.9588020824514683
12643205333.333334 -0.27522803884581365 0.9613789713910552 -1.2653895458642848e-18 -8.832169453849246e-17 -1.2653895458642848e-18 -8.832169453849246e-17 -0.2752286580042905 0.9613787941352738
12643822666.666666 -0.26635839799988587 0.9638740601420765 -2.0865387703390597e-18 -8.828885565905586e-17 -2.0865387703390597e-18 -8.828885565905586e-17 -0.26635901873497014 0.9638738886070007
12644440000.0 -0.2574661443945357 0.966287319843559 -2.9071867064225545e-18 -8.824838821578691e-17 -2.9071867064225545e-18 -8.824838821578691e-17 -0.2574667666533781 0.9662871540431921
12645057333.333334 -0.2485520329465666 0.9686185456194643 -3.727262538566376e-18 -8.820029868986936e-17 -3.727262538566376e-18 -8.820029868986936e-17 -0.24855265667619336 0.9686183855673209
12645674666.666666 -0.23961682042845167 0.9708675395580986 -4.546695528372026e-18 -8.81445942193553e-17 -4.546695528372026e-18 -8.81445942193553e-17 -0.2396174455757698 0.9708673852672051
12646292000.0 -0.2306612654038118 0.9730341107289862 -5.3654150207041656e-18 -8.808128259828997e-17 -5.3654150207041656e-18 -8.808128259828997e-17 -0.230661891915613 0.973033962211878
12646909333.333334 -0.2216861281635399 0.975118075198945 -6.183350449721674e-18 -8.80103722757841e-17 -6.183350449721674e-18 -8.80103722757841e-17 -0.2216867559865051 0.9751179324676663
12647526666.666666 -0.21269217066086915 0.9771192560477986 -7.000431344978752e-18 -8.793187235502549e-17 -7.000431344978752e-18 -8.793187235502549e-17 -0.2126927997415735 0.9771191191139017
12648144000.0 -0.2036801564467694 0.9790374833833767 -7.816587337487835e-18 -8.784579259223552e-17 -7.816587337487835e-18 -8.784579259223552e-17 -0.2036807867316862 0.9790373522579199
12648761333.333334 -0.19465085060512333 0.9808725943559327 -8.631748165741386e-18 -8.775214339557243e-17 -8.631748165741386e-18 -8.775214339557243e-17 -0.19465148204062893 0.9808724690494802
12649378666.666666 -0.18560501968794227 0.9826244331719394 -9.445843681754539e-18 -8.765093582397598e-17 -9.445843681754539e-18 -8.765093582397598e-17 -0.18560565222032055 0.9826243136945605
12649996000.0 -0.17654343165006567 0.98429285110736 -1.0258803857108023e-17 -8.754218158595495e-17 -1.0258803857108023e-17 -8.754218158595495e-17 -0.17654406522551275 0.9842927374686283
12650613333.333334 -0.16746685578396445 0.9858777065202707 -1.1070558788935977e-17 -8.742589303832291e-17 -1.1070558788935977e-17 -8.742589303832291e-17 -0.16746749034859326 0.9858775987292645
12651230666.666666 -0.15837606265471127 0.9873788648628385 -1.1881038705920586e-17 -8.730208318487712e-17 -1.1881038705920586e-17 -8.730208318487712e-17 -0.15837669815455574 0.9873787629281364
12651848000.0 -0.14927182403417016 0.9887961986928085 -1.2690173974307666e-17 -8.717076567501667e-17 -1.2690173974307666e-17 -8.717076567501667e-17 -0.14927246041519032 0.988796102622493
12652465333.333334 -0.1401549128357849 0.9901295876842738 -1.3497895103838587e-17 -8.703195480231503e-17 -1.3497895103838587e-17 -8.703195480231503e-17 -0.14015555004387123 0.990129497485928
12653082666.666666 -0.13102610304884935 0.9913789186379085 -1.4304132753714635e-17 -8.688566550303136e-17 -1.4304132753714635e-17 -8.688566550303136e-17 -0.13102674102982734 0.9913788343186164
12653700000.0 -0.12188616967268627 0.9925440854905928 -1.5108817738555816e-17 -8.673191335456393e-17 -1.5108817738555816e-17 -8.673191335456393e-17 -0.12188680837232115 0.9925440070569392
12654317333.333334 -0.11273588865116294 0.9936249893243773 -1.5911881034299633e-17 -8.657071457385723e-17 -1.5911881034299633e-17 -8.657071457385723e-17 -0.11273652801516411 0.9936249167824457
12654934666.666666 -0.10357603680645017 0.9946215383749268 -1.6713253784118056e-17 -8.640208601574794e-17 -1.6713253784118056e-17 -8.640208601574794e-17 -0.10357667678047601 0.9946214717303006
12655552000.0 -0.09440739177324192 0.9955336480392868 -1.751286730431514e-17 -8.622604517125622e-17 -1.751286730431514e-17 -8.622604517125622e-17 -0.09440803230290441 0.9955335872970488
12656169333.333334 -0.08523073193287932 0.9963612408830556 -1.8310653090185517e-17 -8.604261016582818e-17 -1.8310653090185517e-17 -8.604261016582818e-17 -0.08523137296374844 0.9963611860477858
12656786666.666666 -0.07604683634704268 0.997104246646981 -1.9106542821879424e-17 -8.585179975751821e-17 -1.9106542821879424e-17 -8.585179975751821e-17 -0.07604747782465124 0.9971041977227584
12657404000.0 -0.0668564846916403 0.9977626022529175 -1.9900468370234878e-17 -8.565363333512085e-17 -1.9900468370234878e-17 -8.565363333512085e-17 -0.06685712656148854 0.9977625592433191
12658021333.333334 -0.057660457190730686 0.9983362518091746 -2.069236180260811e-17 -8.544813091624486e-17 -2.069236180260811e-17 -8.544813091624486e-17 -0.05766109939829082 0.9983362147172747
12658638666.666666 -0.04845953455031312 0.9988251466152644 -2.1482155388645877e-17 -8.523531314534291e-17 -2.1482155388645877e-17 -8.523531314534291e-17 -0.04846017704103395 0.9988251154436335
12659256000.0 -0.039254497891821546 0.9992292451660422 -2.2269781606096202e-17 -8.501520129167361e-17 -2.2269781606096202e-17 -8.501520129167361e-17 -0.03925514061113327 0.99922921991675
12659873333.333334 -0.030046128685952665 0.9995485131552265 -2.3055173146552838e-17 -8.478781724722167e-17 -2.3055173146552838e-17 -8.478781724722167e-17 -0.030046771579271356 0.9995484938298389
12660490666.666666 -0.020835208686492468 0.9997829234783049 -2.3838262921179143e-17 -8.455318352456572e-17 -2.3838262921179143e-17 -8.455318352456572e-17 -0.02083585169922476 0.999782910077885
12661108000.0 -0.011622519863579334 0.999932456234849 -2.4618984066456302e-17 -8.431132325467994e-17 -2.4618984066456302e-17 -8.431132325467994e-17 -0.011623162941127002 0.9999324487599551
12661725333.333334 -0.0024088443376301923 0.9999970987301883 -2.539726994985236e-17 -8.406226018470015e-17 -2.539726994985236e-17 -8.406226018470015e-17 -0.0024094874253948895 0.9999970971808786
12662342666.666666 0.00680503568720021 0.9999768454765002 -2.617305417550719e-17 -8.380601867562559e-17 -2.617305417550719e-17 -8.380601867562559e-17 0.006804392643812399 0.9999768498523279
12662960000.0 0.016018337989397023 0.9998716981932699 -2.6946270589878306e-17 -8.354262369997424e-17 -2.6946270589878306e-17 -8.354262369997424e-17 0.01601769504497092 0.999871708493286
12663577333.333334 0.025230280396464345 0.9996816658071476 -2.771685328737757e-17 -8.327210083938112e-17 -2.771685328737757e-17 -8.327210083938112e-17 0.025229637605571027 0.9996816820298988
12664194666.666666 0.0344400808514421 0.9994067644511837 -2.8484736615960666e-17 -8.299447628215284e-17 -2.8484736615960666e-17 -8.299447628215284e-17 0.03443943826863434 0.9994067865947167
12664812000.0 0.043646957479129174 0.9990470174634686 -2.9249855182716076e-17 -8.270977682076273e-17 -2.9249855182716076e-17 -8.270977682076273e-17 0.04364631515893672 0.9990470455253264
12665429333.333334 0.05285012865257514 0.9986024553851472 -3.001214385941771e-17 -8.241802984929865e-17 -3.001214385941771e-17 -8.241802984929865e-17 0.052849486649500094 0.9986024893623692
12666046666.666666 0.062048813059380245 0.9980731159578239 -3.0771537788052547e-17 -8.211926336086014e-17 -3.0771537788052547e-17 -8.211926336086014e-17 0.06204817142789259 0.9980731558469504
12666664000.0 0.0712422297681679 0.9974590441203568 -3.152797238633648e-17 -8.181350594489868e-17 -3.152797238633648e-17 -8.181350594489868e-17 0.07124158856270074 0.9974590899174259
12667281333.333334 0.0804295982945988 0.9967602920050572 -3.2281383353167344e-17 -8.150078678452282e-17 -3.2281383353167344e-17 -8.150078678452282e-17 0.08042895756954363 0.9967603437056034
12667898666.666666 0.08961013866785775 0.9959769189332477 -3.3031706674106936e-17 -8.118113565373052e-17 -3.3031706674106936e-17 -8.118113565373052e-17 0.08960949847756017 0.9959769765323077
12668516000.0 0.09878307149698336 0.9951089914102166 -3.3778878626792045e-17 -8.085458291460877e-17 -3.3778878626792045e-17 -8.085458291460877e-17 0.09878243189573815 0.9951090549023258
12669133333.333334 0.10794761803661047 0.9941565831196105 -3.452283578631851e-17 -8.052115951448461e-17 -3.452283578631851e-17 -8.052115951448461e-17 0.10794697907865719 0.9941566524988045
12669750666.666666 0.11710300025345056 0.9931197749171433 -3.52635150306408e-17 -8.018089698300718e-17 -3.52635150306408e-17 -8.018089698300718e-17 0.11710236199296883 0.9931198501769585
