! Parameters = {f0=12700.012000; bw=77.238000; Q=6100.000000; N=10; m_0_1=1.326421; m_1_1=1.131576; m_1_2=1.161233; m_2_2=1.130927; m_2_3=0.798196; m_2_8=0.003385; m_2_9=0.040089; m_3_3=1.128990; m_3_4=0.686725; m_3_7=0.003985; m_3_8=-0.093103; m_3_9=0.003385; m_4_4=1.126065; m_4_5=0.523060; m_4_6=0.007502; m_4_7=-0.113652; m_4_8=0.003985; m_5_5=1.126447; m_5_6=0.930415; m_5_7=0.007502; m_6_6=1.126446; m_6_7=0.523402; m_7_7=1.126079; m_7_8=0.686843; m_8_8=1.128988; m_8_9=0.798509; m_9_9=1.130922; m_9_10=1.162311; m_10_10=1.131566; m_10_11=1.327216}
!
! Created with skrf (http://scikit-rf.org).
# Hz S RI R 50.0 
!freq ReS11 ImS11 ReS21 ImS21 ReS12 ImS12 ReS22 ImS22
12607400000.0 -0.32735994546939 -0.9448997121928258 8.342833174807537e-17 1.1648714459162383e-16 8.342833174807537e-17 1.1648714459162383e-16 -0.3273592852390856 -0.9448999409289652
12608017333.333334 -0.3388545245920254 -0.940838780643804 8.483580718950381e-17 1.1543131527570328e-16 8.483580718950381e-17 1.1543131527570328e-16 -0.33885386723139704 -0.940839017399966
12608634666.666666 -0.35029874433376124 -0.9366380249157072 8.622993947921142e-17 1.14358493958835e-16 8.622993947921142e-17 1.14358493958835e-16 -0.35029808994021805 -0.9366382696559232
12609252000.0 -0.3616909038946145 -0.932298069310296 8.761052365310815e-17 1.1326884904030629e-16 8.761052365310815e-17 1.1326884904030629e-16 -0.36169025256511456 -0.9322983219974126
12609869333.333334 -0.3730293102115522 -0.9278195588167463 8.897735686970922e-17 1.1216255138958018e-16 8.897735686970922e-17 1.1216255138958018e-16 -0.37302866204258933 -0.9278198194124345
12610486666.666666 -0.3843122782101383 -0.9232031590157933 9.033023843986269e-17 1.110397743195869e-16 9.033023843986269e-17 1.110397743195869e-16 -0.38431163329772744 -0.923203427480553
12611104000.0 -0.39553813105514624 -0.9184495559807351 9.16689698561935e-17 1.099006935596124e-16 9.16689698561935e-17 1.099006935596124e-16 -0.39553748949480805 -0.9184498322738983
12611721333.333334 -0.40670520039942154 -0.9135594561756084 9.299335482211391e-17 1.0874548722791189e-16 9.299335482211391e-17 1.0874548722791189e-16 -0.4067045622861699 -0.9135597402553499
12612338666.666666 -0.41781182663209027 -0.908533586350094 9.430319928059565e-17 1.0757433580388565e-16 9.430319928059565e-17 1.0757433580388565e-16 -0.4178111920604172 -0.9085338781734342
12612956000.0 -0.42885635912522757 -0.9033726934314883 9.559831144252988e-17 1.0638742209996089e-16 9.559831144252988e-17 1.0638742209996089e-16 -0.4288557281890897 -0.9033729929543017
12613573333.333334 -0.4398371564788332 -0.8980775444138567 9.687850181472361e-17 1.0518493123314573e-16 9.687850181472361e-17 1.0518493123314573e-16 -0.43983652927163763 -0.8980778515908782
12614190666.666666 -0.4507525867651837 -0.8926489262438527 9.81435832275933e-17 1.0396705059619731e-16 9.81435832275933e-17 1.0396705059619731e-16 -0.4507519633797744 -0.8926492410286841
12614808000.0 -0.46160102777113204 -0.8870876457038748 9.939337086245206e-17 1.0273396982849946e-16 9.939337086245206e-17 1.0273396982849946e-16 -0.46160040829977567 -0.887087968048991
12615425333.333334 -0.4723808672392452 -0.8813945292921364 1.0062768227844981e-16 1.014858807865963e-16 1.0062768227844981e-16 1.014858807865963e-16 -0.4723802517736182 -0.8813948591488949
12616042666.666666 -0.4830905031074144 -0.8755704230998402 1.0184633743914468e-16 1.002229775144035e-16 1.0184633743914468e-16 1.002229775144035e-16 -0.4830898917385887 -0.8755707604184861
12616660000.0 -0.4937283437469712 -0.8696161926854168 1.0304915873868715e-16 9.89454562131159e-17 1.0304915873868715e-16 9.89454562131159e-17 -0.493727736565401 -0.8696165374150914
12617277333.333334 -0.5042928081991561 -0.8635327229459329 1.0423597102765914e-16 9.765351521076986e-17 1.0423597102765914e-16 9.765351521076986e-17 -0.5042922052946643 -0.8635330750346808
12617894666.666666 -0.5147823264100999 -0.8573209179855655 1.0540660163848757e-16 9.634735493154387e-17 1.0540660163848757e-16 9.634735493154387e-17 -0.5147817278718654 -0.8573212773803434
12618512000.0 -0.5251953394643321 -0.8509817009811393 1.0656088041053172e-16 9.502717786469236e-17 1.0656088041053172e-16 9.502717786469236e-17 -0.5251947453808758 -0.8509820676278227
12619129333.333334 -0.5355302998161411 -0.8445160140451107 1.0769863971471312e-16 9.369318853325978e-17 1.0769863971471312e-16 9.369318853325978e-17 -0.535529710275314 -0.8445163878885034
12619746666.666666 -0.5457856715198129 -0.8379248180854143 1.0881971447781783e-16 9.234559346242655e-17 1.0881971447781783e-16 9.234559346242655e-17 -0.545785086608782 -0.8379251990692561
12620364000.0 -0.5559599304579161 -0.8312090926626329 1.0992394220638019e-16 9.098460114759315e-17 1.0992394220638019e-16 9.098460114759315e-17 -0.5559593502631512 -0.8312094807296071
12620981333.333334 -0.5660515645675036 -0.824369835844623 1.1101116301013235e-16 8.961042202222385e-17 1.1101116301013235e-16 8.961042202222385e-17 -0.5660509891747655 -0.824370230936366
12621598666.666666 -0.5760590740652097 -0.8174080640579352 1.1208121962512752e-16 8.822326842532044e-17 1.1208121962512752e-16 8.822326842532044e-17 -0.5760585035595382 -0.8174084661150469
12622216000.0 -0.5859809716699311 -0.8103248119369002 1.1313395743639306e-16 8.682335456869899e-17 1.1313395743639306e-16 8.682335456869899e-17 -0.5859804061356302 -0.810325220898949
12622833333.333334 -0.5958157828239506 -0.8031211321697935 1.1416922450020702e-16 8.541089650396008e-17 1.1416922450020702e-16 8.541089650396008e-17 -0.5958152223445781 -0.8031215479753293
12623450666.666666 -0.6055620459119021 -0.7957980953425313 1.15186871565946e-16 8.398611208921733e-17 1.15186871565946e-16 8.398611208921733e-17 -0.6055614905702553 -0.7957985179290916
12624068000.0 -0.6152183124782389 -0.7883567897793713 1.1618675209754004e-16 8.254922095553687e-17 1.1618675209754004e-16 8.254922095553687e-17 -0.6152177623563451 -0.7883572190834935
12624685333.333334 -0.6247831474424312 -0.7807983213812245 1.1716872229450237e-16 8.110044447313236e-17 1.1716872229450237e-16 8.110044447313236e-17 -0.6247826026215328 -0.7807987573384526
12625302666.666666 -0.6342551293120379 -0.7731238134614523 1.1813264111250024e-16 7.96400057173682e-17 1.1813264111250024e-16 7.96400057173682e-17 -0.6342545898725825 -0.7731242560063489
12625920000.0 -0.6436328503943017 -0.7653344065786629 1.1907837028359535e-16 7.816812943438181e-17 1.1907837028359535e-16 7.816812943438181e-17 -0.6436323164159287 -0.765334855644818
12626537333.333334 -0.6529149170050651 -0.7574312583674363 1.200057743359362e-16 7.668504200664878e-17 1.200057743359362e-16 7.668504200664878e-17 -0.652914388566594 -0.7574317138874758
12627154666.666666 -0.6620999496759415 -0.7494155433662447 1.2091472061312248e-16 7.519097141816353e-17 1.2091472061312248e-16 7.519097141816353e-17 -0.6620994268553624 -0.7494160052718442
12627772000.0 -0.6711865833595868 -0.7412884528426787 1.2180507929310275e-16 7.368614721944195e-17 1.2180507929310275e-16 7.368614721944195e-17 -0.6711860662340464 -0.7412889210645704
12628389333.333334 -0.6801734676321795 -0.7330511946167363 1.226767234065961e-16 7.217080049237145e-17 1.226767234065961e-16 7.217080049237145e-17 -0.6801729562779705 -0.7330516690847203
12629006666.666666 -0.6890592668944578 -0.7247049928810211 1.2352952885516716e-16 7.064516381469479e-17 1.2352952885516716e-16 7.064516381469479e-17 -0.6890587613870076 -0.7247054735239763
12629624000.0 -0.6978426605699775 -0.7162510880190154 1.2436337442876733e-16 6.91094712244388e-17 1.2436337442876733e-16 6.91094712244388e-17 -0.6978421609838386 -0.716251574764911
12630241333.333334 -0.7065223433015195 -0.7076907364206045 1.2517814182288956e-16 6.756395818404278e-17 1.2517814182288956e-16 6.756395818404278e-17 -0.7065218497103558 -0.7076912291965086
12630858666.666666 -0.7150970251448642 -0.6990252102955758 1.2597371565526393e-16 6.60088615443149e-17 1.2597371565526393e-16 6.60088615443149e-17 -0.7150965376214418 -0.6990257090276679
12631476000.0 -0.7235654317609382 -0.6902557974841035 1.267499834821178e-16 6.444441950816333e-17 1.267499834821178e-16 6.444441950816333e-17 -0.7235649503771149 -0.6902563020976855
12632093333.333334 -0.7319263046046649 -0.6813838012659005 1.2750683581395667e-16 6.287087159420387e-17 1.2750683581395667e-16 6.287087159420387e-17 -0.7319258294313786 -0.6813843116854073
12632710666.666666 -0.7401784011123437 -0.6724105401661865 1.2824416613091447e-16 6.128845860013976e-17 1.2824416613091447e-16 6.128845860013976e-17 -0.7401779322196032 -0.6724110563151982
12633328000.0 -0.7483204948863119 -0.6633373477597296 1.2896187089767634e-16 5.969742256590839e-17 1.2896187089767634e-16 5.969742256590839e-17 -0.7483200323431852 -0.6633378695609817
12633945333.333334 -0.7563513758770547 -0.6541655724728225 1.2965984957787816e-16 5.809800673679739e-17 1.2965984957787816e-16 5.809800673679739e-17 -0.7563509197516588 -0.6541660998482174
12634562666.666666 -0.7642698505631484 -0.6448965773827545 1.3033800464811573e-16 5.649045552625101e-17 1.3033800464811573e-16 5.649045552625101e-17 -0.7642694009226417 -0.6448971102533758
12635180000.0 -0.7720747421285519 -0.6355317400153495 1.3099624161145673e-16 5.487501447859564e-17 1.3099624161145673e-16 5.487501447859564e-17 -0.7720742990391215 -0.6355322783014706
12635797333.333334 -0.779764890637625 -0.6260724521400869 1.316344690105045e-16 5.325193023157975e-17 1.316344690105045e-16 5.325193023157975e-17 -0.7797644541644771 -0.6260729957611837
12636414666.666666 -0.7873391532073681 -0.6165201195634362 1.322525984399899e-16 5.162145047878647e-17 1.322525984399899e-16 5.162145047878647e-17 -0.7873387234147208 -0.6165206684382009
12637032000.0 -0.7947964041774012 -0.606876161919779 1.3285054455891415e-16 4.998382393186009e-17 1.3285054455891415e-16 4.998382393186009e-17 -0.7947959811284735 -0.6068767159661307
12637649333.333334 -0.8021355352772008 -0.5971420124604923 1.334282251022032e-16 4.833930028265053e-17 1.334282251022032e-16 4.833930028265053e-17 -0.8021351190342031 -0.5971425715955894
12638266666.666666 -0.8093554557907572 -0.5873191178410128 1.3398556089191623e-16 4.6688130165168354e-17 1.3398556089191623e-16 4.6688130165168354e-17 -0.809355046414881 -0.5873196819812648
12638884000.0 -0.8164550927187718 -0.5774089379057021 1.3452247584796746e-16 4.503056511745385e-17 1.3452247584796746e-16 4.503056511745385e-17 -0.8164546902701845 -0.5774095069667845
12639501333.333334 -0.8234333909380759 -0.5674129454709601 1.3503889699838687e-16 4.3366857543302506e-17 1.3503889699838687e-16 4.3366857543302506e-17 -0.8234329954759085 -0.5674135193678247
12640118666.666666 -0.8302893133583558 -0.5573326261064558 1.3553475448909723e-16 4.169726067390527e-17 1.3553475448909723e-16 4.169726067390527e-17 -0.8302889249406953 -0.5573332047533438
12640736000.0 -0.8370218410765549 -0.5471694779139487 1.3600998159324466e-16 4.002202852929464e-17 1.3600998159324466e-16 4.002202852929464e-17 -0.8370214597604357 -0.5471700612244035
12641353333.333334 -0.843629973527854 -0.5369250113053046 1.3646451472000763e-16 3.83414158798371e-17 1.3646451472000763e-16 3.83414158798371e-17 -0.8436295993692494 -0.5369255991921856
12641970666.666666 -0.8501127286347988 -0.526600748777387 1.3689829342297675e-16 3.665567820747322e-17 1.3689829342297675e-16 3.665567820747322e-17 -0.8501123616886143 -0.5266013411528826
12642588000.0 -0.8564691429530343 -0.5161982246861214 1.3731126040803325e-16 3.496507166694687e-17 1.3731126040803325e-16 3.496507166694687e-17 -0.8564687832730965 -0.5161988214617602
12643205333.333334 -0.8626982718145167 -0.5057189850184142 1.3770336154075057e-16 3.326985304694412e-17 1.3770336154075057e-16 3.326985304694412e-17 -0.8626979194535679 -0.5057195861050802
12643822666.666666 -0.8687991894679686 -0.49516458716229905 1.3807454585332459e-16 3.157027973112078e-17 1.3807454585332459e-16 3.157027973112078e-17 -0.868798844477658 -0.49516519247024415
12644440000.0 -0.8747709892163853 -0.4845365996756037 1.3842476555101495e-16 2.986660965909453e-17 1.3842476555101495e-16 2.986660965909453e-17 -0.8747706516472624 -0.48453720911446163
12645057333.333334 -0.8806127835518152 -0.47383660205278766 1.3875397601811215e-16 2.8159101287341187e-17 1.3875397601811215e-16 2.8159101287341187e-17 -0.8806124534533224 -0.4738372155315875
12645674666.666666 -0.8863237042872083 -0.46306618449030623 1.390621358234171e-16 2.644801355005578e-17 1.390621358234171e-16 2.644801355005578e-17 -0.8863233817076707 -0.4630668019174842
12646292000.0 -0.89190290268561 -0.4522269476499506 1.3934920672525616e-16 2.4733605819866095e-17 1.3934920672525616e-16 2.4733605819866095e-17 -0.8919025876722331 -0.45222756893336646
12646909333.333334 -0.897349549586078 -0.4413205024213942 1.3961515367598024e-16 2.3016137868673387e-17 1.3961515367598024e-16 2.3016137868673387e-17 -0.897349242184936 -0.44132112746834246
12647526666.666666 -0.9026628355270494 -0.4303484696825079 1.3985994482601574e-16 2.1295869828258374e-17 1.3985994482601574e-16 2.1295869828258374e-17 -0.9026625357830823 -0.43034909839973373
12648144000.0 -0.9078419708666272 -0.4193124800584964 1.400835515274117e-16 1.9573062150955e-17 1.400835515274117e-16 1.9573062150955e-17 -0.9078416788236326 -0.4193131123522085
12648761333.333334 -0.9128861858998965 -0.40821417367963697 1.4028594833690687e-16 1.784797557027976e-17 1.4028594833690687e-16 1.784797557027976e-17 -0.9128859016005234 -0.4082148094555217
12649378666.666666 -0.9177947309732689 -0.3970551999376329 1.4046711301851427e-16 1.6120871061521908e-17 1.4046711301851427e-16 1.6120871061521908e-17 -0.9177944544590114 -0.3970558391008682
12649996000.0 -0.922566876596025 -0.38583721724020253 1.4062702654562256e-16 1.439200980229262e-17 1.4062702654562256e-16 1.439200980229262e-17 -0.9225666079072156 -0.38583785969547213
12650613333.333334 -0.9272019135486537 -0.3745618927647663 1.407656731026107e-16 1.2661653133087083e-17 1.407656731026107e-16 1.2661653133087083e-17 -0.927201652724458 -0.3745625384162742
12651230666.666666 -0.93169915298817 -0.3632309022108878 1.408830400859758e-16 1.0930062517861417e-17 1.408830400859758e-16 1.0930062517861417e-17 -0.9316989000665818 -0.36323155096237236
12651848000.0 -0.936057926550715 -0.35184592955068517 1.4097911810498444e-16 9.197499504510312e-18 1.4097911810498444e-16 9.197499504510312e-18 -0.9360576815685496 -0.35184658130543334
12652465333.333334 -0.9402775864506381 -0.34040866677916964 1.4105390098183034e-16 7.464225685463562e-18 1.4105390098183034e-16 7.464225685463562e-18 -0.9402773494435277 -0.3404093214400317
12653082666.666666 -0.9443575055768912 -0.3289208136624997 1.4110738575131242e-16 5.730502658235191e-18 1.4110738575131242e-16 5.730502658235191e-18 -0.9443572765792794 -0.32892147113190345
12653700000.0 -0.9482970775862685 -0.3173840774852311 1.4113957266002945e-16 3.996591985951093e-18 1.4113957266002945e-16 3.996591985951093e-18 -0.9482968566314047 -0.3173847376651966
12654317333.333334 -0.9520957169933979 -0.3058001727969356 1.4115046516508857e-16 2.2627551579895608e-18 1.4115046516508857e-16 2.2627551579895608e-18 -0.9520955041133341 -0.3058008355890896
12654934666.666666 -0.9557528592578493 -0.29417082115712206 1.4114006993233158e-16 5.292535505759894e-19 1.4114006993233158e-16 5.292535505759894e-19 -0.9557526544834323 -0.29417148646271224
12655552000.0 -0.9592679608680337 -0.2824977508793549 1.4110839683407876e-16 -1.2036516126139654e-18 1.4110839683407876e-16 -1.2036516126139654e-18 -0.9592677642289053 -0.28249841859926594
12656169333.333334 -0.9626404994218762 -0.27078269677475353 1.4105545894638995e-16 -2.9356992996765585e-18 1.4105545894638995e-16 -2.9356992996765585e-18 -0.9626403109464663 -0.27078336680952075
12656786666.666666 -0.9658699737045879 -0.25902739989373524 1.409812725458433e-16 -4.666628709834372e-18 1.409812725458433e-16 -4.666628709834372e-18 -0.9658697934201068 -0.2590280721435589
12657404000.0 -0.9689559037630687 -0.24723360726750904 1.4088585710583344e-16 -6.396179312616212e-18 1.4088585710583344e-16 -6.396179312616212e-18 -0.9689557316955113 -0.24723428163227096
12658021333.333334 -0.9718978309772793 -0.23540307164833116 1.4076923529238943e-16 -8.124090887033141e-18 1.4076923529238943e-16 -8.124090887033141e-18 -0.9718976671514153 -0.23540374802760833
12658638666.666666 -0.9746953181283267 -0.22353755124929214 1.4063143295951403e-16 -9.85010356066053e-18 1.4063143295951403e-16 -9.85010356066053e-18 -0.9746951625676978 -0.2235382295423717
12659256000.0 -0.9773479494635812 -0.21163880948243669 1.4047247914404072e-16 -1.157395784871236e-17 1.4047247914404072e-16 -1.157395784871236e-17 -0.9773478021904997 -0.21163948958833148
12659873333.333334 -0.979855330758313 -0.1997086146973277 1.4029240606001756e-16 -1.3295394692969817e-17 1.4029240606001756e-16 -1.3295394692969817e-17 -0.979855191793857 -0.19970929651479097
12660490666.666666 -0.982217089374358 -0.18774873991793709 1.400912490926148e-16 -1.5014155500646617e-17 1.400912490926148e-16 -1.5014155500646617e-17 -0.9822169587383686 -0.18774942334547748
12661108000.0 -0.9844328743155173 -0.17576096257900417 1.3986904679154775e-16 -1.6729982183248548e-17 1.3986904679154775e-16 -1.6729982183248548e-17 -0.9844327520265955 -0.175761647514901
12661725333.333334 -0.986502356279652 -0.1637470642622426 1.3962584086404009e-16 -1.8442617195206568e-17 1.3962584086404009e-16 -1.8442617195206568e-17 -0.9865022423551584 -0.16374775060456104
12662342666.666666 -0.9884252277076883 -0.15170883043123276 1.393616761673006e-16 -2.0151803572532307e-17 1.393616761673006e-16 -2.0151803572532307e-17 -0.9884251221637375 -0.15170951807783892
12662960000.0 -0.9902012028292805 -0.13964805016632456 1.3907660070053615e-16 -2.185728497130335e-17 1.3907660070053615e-16 -2.185728497130335e-17 -0.9902011056807388 -0.13964873901490038
12663577333.333334 -0.9918300177053089 -0.1275665158985534 1.3877066559649056e-16 -2.3558805706063714e-17 1.3877066559649056e-16 -2.3558805706063714e-17 -0.9918299289657964 -0.12756720584661263
12664194666.666666 -0.9933114302670962 -0.11546602314336862 1.3844392511251646e-16 -2.5256110788110465e-17 1.3844392511251646e-16 -2.5256110788110465e-17 -0.993311349948981 -0.11546671408827149
12664812000.0 -0.9946452203523803 -0.10334837023376171 1.3809643662118e-16 -2.6948945963640167e-17 1.3809643662118e-16 -2.6948945963640167e-17 -0.9946451484667768 -0.1033490620727301
12665429333.333334 -0.9958311897380412 -0.09121535805294752 1.37728260600395e-16 -2.863705775181352e-17 1.37728260600395e-16 -2.863705775181352e-17 -0.9958311262948105 -0.09121605068308065
12666046666.666666 -0.9968691621695356 -0.07906878976700668 1.3733946062310326e-16 -3.0320193482625557e-17 1.3733946062310326e-16 -3.0320193482625557e-17 -0.9968691071772829 -0.07906948308529617
12666664000.0 -0.9977589833871436 -0.06691047055628231 1.3693010334647513e-16 -3.199810133472096e-17 1.3693010334647513e-16 -3.199810133472096e-17 -0.9977589368532189 -0.06691116445962768
12667281333.333334 -0.9985005211488327 -0.05474220734789363 1.3650025850067331e-16 -3.3670530372965643e-17 1.3650025850067331e-16 -3.3670530372965643e-17 -0.998500483079326 -0.05474290173311729
12667898666.666666 -0.9990936652499531 -0.0425658085466016 1.3604999887713525e-16 -3.533723058596328e-17 1.3604999887713525e-16 -3.533723058596328e-17 -0.9990936356496969 -0.04256650331046453
12668516000.0 -0.9995383275396033 -0.030383083766191598 1.3557940031640652e-16 -3.6997952923382864e-17 1.3557940031640652e-16 -3.6997952923382864e-17 -0.9995383064121719 -0.030383778805408587
12669133333.333334 -0.9998344419337243 -0.018195843560762377 1.3508854169553556e-16 -3.8652449333073355e-17 1.3508854169553556e-16 -3.8652449333073355e-17 -0.9998344292814322 -0.01819653877201733
12669750666.666666 -0.9999819644249315 -0.006005899155335293 1.3457750491498374e-16 -4.03004727981247e-17 1.3457750491498374e-16 -4.03004727981247e-17 -0.9999819602488331 -0.0060065944352965936
