! Parameters = {f0=12700.012000; bw=77.238000; Q=6100.000000; N=10; m_0_1=1.175871; m_1_1=-1.126683; m_1_2=1.010683; m_2_2=-1.127332; m_2_3=0.647646; m_2_8=-0.004143; m_2_9=0.032561; m_3_3=-1.129269; m_3_4=0.536175; m_3_7=-0.003543; m_3_8=-0.100631; m_3_9=-0.004143; m_4_4=-1.132194; m_4_5=0.372510; m_4_6=-0.000026; m_4_7=-0.121180; m_4_8=-0.003543; m_5_5=-1.131812; m_5_6=0.779865; m_5_7=-0.000026; m_6_6=-1.131813; m_6_7=0.372852; m_7_7=-1.132180; m_7_8=0.536293; m_8_8=-1.129271; m_8_9=0.647959; m_9_9=-1.127337; m_9_10=1.011761; m_10_10=-1.126693; m_10_11=1.176666}
!
! Created with skrf (http://scikit-rf.org).
# Hz S RI R 50.0 
!freq ReS11 ImS11 ReS21 ImS21 ReS12 ImS12 ReS22 ImS22
12607400000.0 0.46758598913925903 0.8839475905055165 -4.8541053992182206e-17 -4.9604127602053614e-17 -4.8541053992182206e-17 -4.9604127602053614e-17 0.46758544137534713 0.8839478802585988
12608017333.333334 0.4744138827102345 0.8803019186004579 -4.8918325807207155e-17 -4.921294518582115e-17 -4.8918325807207155e-17 -4.921294518582115e-17 0.4744133372321826 0.8803022125702463
12608634666.666666 0.48121335364339224 0.8766035068804644 -4.929245072759765e-17 -4.8818898821749603e-17 -4.929245072759765e-17 -4.8818898821749603e-17 0.48121281048365505 0.8766038050489344
12609252000.0 0.48798399457530967 0.8728525769213104 -4.966340705622646e-17 -4.8422013782655995e-17 -4.966340705622646e-17 -4.8422013782655995e-17 0.48798345376619995 0.8728528792701887
12609869333.333334 0.4947253998698015 0.8690493534451962 -5.0031173298608004e-17 -4.802231550538159e-17 -5.0031173298608004e-17 -4.802231550538159e-17 0.4947248614434879 0.8690496599559603
12610486666.666666 0.5014371656421205 0.8651940643073346 -5.0395728164130147e-17 -4.761982958917538e-17 -5.0395728164130147e-17 -4.761982958917538e-17 0.5014366296306261 0.8651943749612147
12611104000.0 0.5081188897834295 0.8612869404821507 -5.075705056728781e-17 -4.7214581794052396e-17 -5.075705056728781e-17 -4.7214581794052396e-17 0.5081183562186284 0.8612872552601292
12611721333.333334 0.5147701719845678 0.8573282160496217 -5.1115119628883416e-17 -4.6806598039164457e-17 -5.1115119628883416e-17 -4.6806598039164457e-17 0.5147696408981861 0.857328534932438
12612338666.666666 0.5213906137601864 0.8533181281811756 -5.1469914677233146e-17 -4.6395904401141695e-17 -5.1469914677233146e-17 -4.6395904401141695e-17 0.5213900851837977 0.8533184511493239
12612956000.0 0.5279798184727638 0.8492569171253863 -5.18214152493527e-17 -4.5982527112431884e-17 -5.18214152493527e-17 -4.5982527112431884e-17 0.5279792924377884 0.8492572441591187
12613573333.333334 0.5345373913560554 0.8451448261937778 -5.216960109211758e-17 -4.5566492559646146e-17 -5.216960109211758e-17 -4.5566492559646146e-17 0.5345368678937582 0.845145157273104
12614190666.666666 0.5410629395390103 0.84098210174608 -5.2514452163434296e-17 -4.514782728186756e-17 -5.2514452163434296e-17 -4.514782728186756e-17 0.5410624186804988 0.8409824368507689
12614808000.0 0.5475560720691868 0.8367689931755435 -5.2855948633380036e-17 -4.472655796897169e-17 -5.2855948633380036e-17 -4.472655796897169e-17 0.5475555538454097 0.836769332285126
12615425333.333334 0.5540163999362231 0.8325057528939697 -5.319407088533047e-17 -4.4302711459937364e-17 -5.319407088533047e-17 -4.4302711459937364e-17 0.554015884377969 0.832506095987739
12616042666.666666 0.5604435360950505 0.8281926363166511 -5.352879951708559e-17 -4.3876314741135505e-17 -5.352879951708559e-17 -4.3876314741135505e-17 0.5604430232329439 0.8281929833736622
12616660000.0 0.5668370954892203 0.823829901846973 -5.386011534196861e-17 -4.344739494462411e-17 -5.386011534196861e-17 -4.344739494462411e-17 0.5668365853537224 0.8238302528460468
12617277333.333334 0.5731966950739042 0.8194178108609803 -5.418799938991974e-17 -4.3015979346426666e-17 -5.418799938991974e-17 -4.3015979346426666e-17 0.5731961876953092 0.8194181657807035
12617894666.666666 0.5795219538387499 0.814956627691785 -5.451243290856717e-17 -4.258209536481281e-17 -5.451243290856717e-17 -4.258209536481281e-17 0.579521449247184 0.814956986510511
12618512000.0 0.5858124928309613 0.810446619613546 -5.483339736430338e-17 -4.214577055854581e-17 -5.483339736430338e-17 -4.214577055854581e-17 0.5858119910563807 0.8104469823093968
12619129333.333334 0.592067935177703 0.8058880568256737 -5.515087444331835e-17 -4.170703262516179e-17 -5.515087444331835e-17 -4.170703262516179e-17 0.5920674362498928 0.805888423376542
12619746666.666666 0.5982879061088172 0.8012812124365426 -5.5464846052648185e-17 -4.126590939920152e-17 -5.5464846052648185e-17 -4.126590939920152e-17 0.5982874100573887 0.8012815828200918
12620364000.0 0.6044720329794144 0.7966263624470272 -5.577529432119192e-17 -4.082242885045804e-17 -5.577529432119192e-17 -4.082242885045804e-17 0.6044715398338033 0.7966267366406928
12620981333.333334 0.6106199452919008 0.7919237857341859 -5.608220160071639e-17 -4.037661908221564e-17 -5.608220160071639e-17 -4.037661908221564e-17 0.6106194550813663 0.791924163715178
12621598666.666666 0.6167312747184261 0.7871737640343667 -5.638555046685635e-17 -3.992850832946639e-17 -5.638555046685635e-17 -3.992850832946639e-17 0.6167307874720492 0.7871741457796713
12622216000.0 0.622805655122839 0.7823765819264153 -5.668532372008985e-17 -3.947812495713572e-17 -5.668532372008985e-17 -3.947812495713572e-17 0.6228051708695185 0.7823769674127932
12622833333.333334 0.6288427225826622 0.7775325268145854 -5.698150438670584e-17 -3.902549745829091e-17 -5.698150438670584e-17 -3.902549745829091e-17 0.6288422413511168 0.7775329160185778
12623450666.666666 0.6348421154108349 0.7726418889113796 -5.727407571975105e-17 -3.857065445235219e-17 -5.727407571975105e-17 -3.857065445235219e-17 0.634841637229599 0.7726422818093064
12624068000.0 0.6408034741774024 0.7677049612201424 -5.756302119997395e-17 -3.811362468328076e-17 -5.756302119997395e-17 -3.811362468328076e-17 0.6408029990748239 0.7677053577881039
12624685333.333334 0.6467264417312011 0.7627220395173785 -5.78483245367434e-17 -3.765443701777385e-17 -5.78483245367434e-17 -3.765443701777385e-17 0.6467259697354412 0.7627224397312581
12625302666.666666 0.6526106632209516 0.7576934223352869 -5.812996966895371e-17 -3.719312044345583e-17 -5.812996966895371e-17 -3.719312044345583e-17 0.6526101943599832 0.7576938261707521
12625920000.0 0.6584557861168665 0.7526194109435849 -5.840794076592964e-17 -3.67297040670367e-17 -5.840794076592964e-17 -3.67297040670367e-17 0.6584553204184718 0.7526198183760887
12626537333.333334 0.6642614602314671 0.7475003093317142 -5.868222222829226e-17 -3.626421711250436e-17 -5.868222222829226e-17 -3.626421711250436e-17 0.6642609977232358 0.7475007203364963
12627154666.666666 0.670027337740715 0.7423364241905009 -5.895279868883074e-17 -3.5796688919279e-17 -5.895279868883074e-17 -3.5796688919279e-17 0.6700268784500427 0.7423368387425892
12627772000.0 0.6757530732048924 0.7371280648937422 -5.921965501335812e-17 -3.532714894036041e-17 -5.921965501335812e-17 -3.532714894036041e-17 0.6757526171589802 0.7371284829679547
12628389333.333334 0.6814383235891291 0.7318755434798236 -5.948277630153466e-17 -3.48556267405017e-17 -5.948277630153466e-17 -3.48556267405017e-17 0.68143787081498 0.7318759650507697
12629006666.666666 0.6870827482841845 0.7265791746328141 -5.97421478876996e-17 -3.438215199433591e-17 -5.97421478876996e-17 -3.438215199433591e-17 0.6870822988086038 0.7265795996748968
12629624000.0 0.6926860091266459 0.7212392756638056 -5.999775534167299e-17 -3.3906754484524115e-17 -5.999775534167299e-17 -3.3906754484524115e-17 0.692685562976238 0.7212397041512214
12630241333.333334 0.69824777041931 0.7158561664917842 -6.024958446954919e-17 -3.3429464099885344e-17 -6.024958446954919e-17 -3.3429464099885344e-17 0.698247327620478 0.7158565983985268
12630858666.666666 0.703767698951196 0.7104301696245652 -6.049762131446933e-17 -3.2950310833533085e-17 -6.049762131446933e-17 -3.2950310833533085e-17 0.70376725953014 0.7104306049244259
12631476000.0 0.7092454640176503 0.7049616101393312 -6.07418521573936e-17 -3.246932478097834e-17 -6.07418521573936e-17 -3.246932478097834e-17 0.7092450280003644 0.7049620488058997
12632093333.333334 0.7146807374400141 0.6994508156632935 -6.098226351783653e-17 -3.1986536138268636e-17 -6.098226351783653e-17 -3.1986536138268636e-17 0.7146803048522872 0.6994512576699616
12632710666.666666 0.7200731935853326 0.6938981163540296 -6.121884215460519e-17 -3.1501975200088926e-17 -6.121884215460519e-17 -3.1501975200088926e-17 0.7200727644527436 0.6938985616739901
12633328000.0 0.7254225093859749 0.6883038448795743 -6.14515750665216e-17 -3.1015672357856786e-17 -6.14515750665216e-17 -3.1015672357856786e-17 0.7254220837338958 0.6883042934858259
12633945333.333334 0.7307283643588173 0.6826683363986776 -6.168044949311389e-17 -3.052765809784586e-17 -6.168044949311389e-17 -3.052765809784586e-17 0.7307279422124072 0.6826687882640234
12634562666.666666 0.7359904406245573 0.6769919285405985 -6.190545291531356e-17 -3.0037962999262284e-17 -6.190545291531356e-17 -3.0037962999262284e-17 0.7359900220087644 0.6769923836376502
12635180000.0 0.7412084229266659 0.6712749613849848 -6.212657305612343e-17 -2.954661773234399e-17 -6.212657305612343e-17 -2.954661773234399e-17 0.7412080078662238 0.6712754196861624
12635797333.333334 0.7463819986504067 0.6655177774413497 -6.234379788127659e-17 -2.905365305644303e-17 -6.234379788127659e-17 -2.905365305644303e-17 0.7463815871698317 0.6655182389188832
12636414666.666666 0.7515108578414099 0.659720721628719 -6.255711559987551e-17 -2.855909981811385e-17 -6.255711559987551e-17 -2.855909981811385e-17 0.7515104499650046 0.6597211862546523
12637032000.0 0.7565946932243808 0.6538841412548215 -6.276651466502404e-17 -2.8062988949179094e-17 -6.276651466502404e-17 -2.8062988949179094e-17 0.7565942889762274 0.653884609001012
12637649333.333334 0.7616332002214278 0.6480083859953645 -6.297198377443578e-17 -2.756535146480877e-17 -6.297198377443578e-17 -2.756535146480877e-17 0.7616327996253897 0.6480088568334854
12638266666.666666 0.7666260769703488 0.6420938078730404 -6.317351187103253e-17 -2.7066218461584415e-17 -6.317351187103253e-17 -2.7066218461584415e-17 0.7666256800500691 0.6420942817745835
12638884000.0 0.7715730243426474 0.6361407612365284 -6.337108814352275e-17 -2.6565621115569772e-17 -6.337108814352275e-17 -2.6565621115569772e-17 0.7715726311215445 0.6361412381728027
12639501333.333334 0.7764737459615733 0.6301496027391054 -6.356470202697261e-17 -2.606359068035744e-17 -6.356470202697261e-17 -2.606359068035744e-17 0.7764733564628428 0.6301500826812418
12640118666.666666 0.7813279482197034 0.6241206913175025 -6.375434320335007e-17 -2.5560158485142572e-17 -6.375434320335007e-17 -2.5560158485142572e-17 0.7813275624663171 0.6241211742364562
12640736000.0 0.7861353402968375 0.618054388170026 -6.394000160207181e-17 -2.5055355932743198e-17 -6.394000160207181e-17 -2.5055355932743198e-17 0.7861349583115376 0.6180548740365743
12641353333.333334 0.7908956341769886 0.6119510567354457 -6.41216674005072e-17 -2.4549214497691946e-17 -6.41216674005072e-17 -2.4549214497691946e-17 0.7908952559822922 0.6119515455201938
12641970666.666666 0.7956085446660339 0.6058110626707351 -6.429933102449714e-17 -2.404176572424173e-17 -6.429933102449714e-17 -2.404176572424173e-17 0.7956081702842271 0.6058115543441158
12642588000.0 0.8002737894085518 0.5996347738294759 -6.447298314883685e-17 -2.3533041224424712e-17 -6.447298314883685e-17 -2.3533041224424712e-17 0.8002734188616909 0.5996352683617518
12643205333.333334 0.8048910889048607 0.593422560239663 -6.46426146977508e-17 -2.30230726760858e-17 -6.46426146977508e-17 -2.30230726760858e-17 0.8048907222147702 0.5934230576009284
12643822666.666666 0.8094601665277653 0.5871747940815347 -6.480821684535154e-17 -2.2511891820916725e-17 -6.480821684535154e-17 -2.2511891820916725e-17 0.8094598037160354 0.5871752942417167
12644440000.0 0.8139807485390558 0.5808918496653638 -6.496978101608307e-17 -2.1999530462484988e-17 -6.496978101608307e-17 -2.1999530462484988e-17 0.8139803896270438 0.580892352594226
12645057333.333334 0.8184525641059328 0.5745741034090152 -6.512729888514646e-17 -2.148602046426722e-17 -6.512729888514646e-17 -2.148602046426722e-17 0.8184522091147596 0.5745746090761576
12645674666.666666 0.8228753453172454 0.5682219338153666 -6.528076237891272e-17 -2.0971393747672324e-17 -6.528076237891272e-17 -2.0971393747672324e-17 0.8228749942677944 0.568222442190228
12646292000.0 0.8272488271995908 0.5618357214495633 -6.54301636753228e-17 -2.0455682290050486e-17 -6.54301636753228e-17 -2.0455682290050486e-17 0.8272484801125084 0.5618362325014238
12646909333.333334 0.8315727477330792 0.5554158489163838 -6.557549520426131e-17 -1.9938918122736972e-17 -6.557549520426131e-17 -1.9938918122736972e-17 0.8315724046287711 0.5554163626143654
12647526666.666666 0.835846847867123 0.5489627008371734 -6.571674964792809e-17 -1.9421133329048542e-17 -6.571674964792809e-17 -1.9421133329048542e-17 0.8358465087657564 0.5489632171502438
12648144000.0 0.8400708715359619 0.542476663826804 -6.58539199411846e-17 -1.8902360042307282e-17 -6.58539199411846e-17 -1.8902360042307282e-17 0.8400705364574597 0.5424771827237759
12648761333.333334 0.844244565673935 0.5359581264706029 -6.598699927188973e-17 -1.8382630443849267e-17 -6.598699927188973e-17 -1.8382630443849267e-17 0.8442442346379786 0.5359586479201381
12649378666.666666 0.848367680230648 0.5294074793010758 -6.61159810812157e-17 -1.7861976761042005e-17 -6.61159810812157e-17 -1.7861976761042005e-17 0.8483673532566752 0.5294080032716864
12649996000.0 0.8524399681860434 0.5228251147743641 -6.624085906395413e-17 -1.7340431265281328e-17 -6.624085906395413e-17 -1.7340431265281328e-17 0.8524396452932456 0.5228256412344134
12650613333.333334 0.8564611855650943 0.5162114272469018 -6.636162716880168e-17 -1.6818026270003142e-17 -6.636162716880168e-17 -1.6818026270003142e-17 0.8564608667724166 0.5162119561646077
12651230666.666666 0.8604310914524511 0.5095668129517401 -6.64782795986297e-17 -1.629479412869535e-17 -6.64782795986297e-17 -1.629479412869535e-17 0.8604307767785923 0.5095673442951762
12651848000.0 0.8643494480069646 0.5028916699746637 -6.659081081074462e-17 -1.577076723288157e-17 -6.659081081074462e-17 -1.577076723288157e-17 0.8643491374703735 0.5028922037117615
12652465333.333334 0.8682160204758144 0.4961863982305344 -6.669921551712396e-17 -1.52459780101393e-17 -6.669921551712396e-17 -1.52459780101393e-17 0.8682157140946913 0.49618693432908506
12653082666.666666 0.8720305772085925 0.48945139943930915 -6.680348868464154e-17 -1.4720458922097802e-17 -6.680348868464154e-17 -1.4720458922097802e-17 0.8720302750008867 0.48945193786696567
12653700000.0 0.8757928896712663 0.48268707710182523 -6.690362553527847e-17 -1.419424246242499e-17 -6.690362553527847e-17 -1.419424246242499e-17 0.8757925916546745 0.4826876178261037
12654317333.333334 0.8795027324597543 0.4758938364758213 -6.699962154631336e-17 -1.3667361154839938e-17 -6.699962154631336e-17 -1.3667361154839938e-17 0.8795024386517216 0.4758943794641042
12654934666.666666 0.8831598833135191 0.4690720845515125 -6.709147245050162e-17 -1.3139847551097555e-17 -6.709147245050162e-17 -1.3139847551097555e-17 0.8831595937312361 0.4690726297710493
12655552000.0 0.8867641231288911 0.46222223002717905 -6.717917423623763e-17 -1.261173422898192e-17 -6.717917423623763e-17 -1.261173422898192e-17 0.8867638377892941 0.46222277744508905
12656169333.333334 0.8903152359720782 0.4553446832849081 -6.72627231476976e-17 -1.2083053790317868e-17 -6.72627231476976e-17 -1.2083053790317868e-17 0.8903149548918469 0.45534523286818185
12656786666.666666 0.893813009092233 0.4484398563657549 -6.734211568497303e-17 -1.1553838858945575e-17 -6.734211568497303e-17 -1.1553838858945575e-17 0.8938127322877909 0.4484404080812565
12657404000.0 0.8972572329341469 0.44150816294515766 -6.741734860418386e-17 -1.1024122078721374e-17 -6.741734860418386e-17 -1.1024122078721374e-17 0.8972569604216604 0.44150871675962744
12658021333.333334 0.9006477011507821 0.43455001830820694 -6.74884189175769e-17 -1.0493936111514316e-17 -6.74884189175769e-17 -1.0493936111514316e-17 0.9006474329461571 0.43455057418826154
12658638666.666666 0.9039842106156414 0.4275658393247367 -6.755532389360896e-17 -9.963313635196628e-18 -6.755532389360896e-17 -9.963313635196628e-18 0.9039839467345261 0.4275663972368731
12659256000.0 0.9072665614350187 0.42055604442419864 -6.761806105701595e-17 -9.432287341624377e-18 -6.761806105701595e-17 -9.432287341624377e-18 0.9072663018927997 0.42055660433479525
12659873333.333334 0.9104945569598696 0.4135210535707963 -6.767662818886219e-17 -8.900889934644959e-18 -6.767662818886219e-17 -8.900889934644959e-18 0.9104943017716723 0.41352161544611493
12660490666.666666 0.9136680037976109 0.4064612882383011 -6.773102332657665e-17 -8.369154128089309e-18 -6.773102332657665e-17 -8.369154128089309e-18 0.913667752978299 0.40646185204448937
12661108000.0 0.9167867118237751 0.39937717138464485 -6.778124476397511e-17 -7.837112643744933e-18 -6.778124476397511e-17 -7.837112643744933e-18 0.9167864653879483 0.39937773708773766
12661725333.333334 0.9198504941933099 0.39226912742678866 -6.782729105126183e-17 -7.30479820937556e-18 -6.782729105126183e-17 -7.30479820937556e-18 0.9198502521553038 0.3922696949927107
12662342666.666666 0.9228591673518498 0.3851375822151122 -6.786916099502074e-17 -6.772243556691055e-18 -6.786916099502074e-17 -6.772243556691055e-18 0.9228589297257352 0.38513815160967985
12662960000.0 0.9258125510466683 0.3779829630080052 -6.790685365818666e-17 -6.2394814193583546e-18 -6.790685365818666e-17 -6.2394814193583546e-18 0.9258123178462517 0.3779835341969292
12663577333.333334 0.9287104683374912 0.37080569844624495 -6.794036836000408e-17 -5.706544530982233e-18 -6.794036836000408e-17 -5.706544530982233e-18 0.9287102395763114 0.3708062713951314
12664194666.666666 0.9315527456070956 0.36360621852731545 -6.796970467596833e-17 -5.173465623108081e-18 -6.796970467596833e-17 -5.173465623108081e-18 0.9315525212984231 0.36360679320166783
12664812000.0 0.9343392125717167 0.356384954579617 -6.799486243775151e-17 -4.640277423215898e-18 -6.799486243775151e-17 -4.640277423215898e-18 0.9343389927285568 0.35638553094484005
12665429333.333334 0.9370697022912273 0.349142339236708 -6.80158417331131e-17 -4.107012652715358e-18 -6.80158417331131e-17 -4.107012652715358e-18 0.9370694869263152 0.34914291725810787
12666046666.666666 0.9397440511791472 0.34187880641135765 -6.803264290579442e-17 -3.5737040249516836e-18 -6.803264290579442e-17 -3.5737040249516836e-18 0.9397438403049475 0.34187938605414453
12666664000.0 0.9423620990125089 0.33459479126936215 -6.804526655539815e-17 -3.0403842431915002e-18 -6.804526655539815e-17 -3.0403842431915002e-18 0.9423618926412175 0.33459537249865284
12667281333.333334 0.9449236889413347 0.3272907302038219 -6.80537135372516e-17 -2.507085998639148e-18 -6.80537135372516e-17 -2.507085998639148e-18 0.9449234870848747 0.3272913129846408
12667898666.666666 0.9474286674981348 0.31996706080870063 -6.805798496225455e-17 -1.973841968427368e-18 -6.805798496225455e-17 -1.973841968427368e-18 0.9474284701681603 0.31996764510598386
12668516000.0 0.9498768846070698 0.31262422185271865 -6.805808219671172e-17 -1.4406848136193526e-18 -6.805808219671172e-17 -1.4406848136193526e-18 0.9498766918149607 0.3126248076313139
12669133333.333334 0.9522681935929086 0.30526265325314406 -6.805400686214944e-17 -9.076471772318851e-19 -6.805400686214944e-17 -9.076471772318851e-19 0.9522680053497722 0.305263240477814
12669750666.666666 0.954602451189874 0.29788279604927603 -6.80457608351166e-17 -3.7476168222359405e-19 -6.80457608351166e-17 -3.7476168222359405e-19 0.9546022675065445 0.2978833846847003
12670368000.0 0.9568795175501966 0.290485092376103 -6.803334624697055e-17 1.5793907048768254e-19 -6.803334624697055e-17 1.5793907048768254e-19 0.9568793384372339 0.2904856823868801
