! Parameters = {f0=12700.012000; bw=77.238000; Q=6100.000000; N=10; m_0_1=1.318013; m_1_1=1.005450; m_1_2=1.152825; m_2_2=1.004801; m_2_3=0.789788; m_2_8=0.002964; m_2_9=0.039668; m_3_3=1.002864; m_3_4=0.678317; m_3_7=0.003564; m_3_8=-0.093524; m_3_9=0.002964; m_4_4=0.999939; m_4_5=0.514652; m_4_6=0.007081; m_4_7=-0.114073; m_4_8=0.003564; m_5_5=1.000321; m_5_6=0.922007; m_5_7=0.007081; m_6_6=1.000320; m_6_7=0.514994; m_7_7=0.999953; m_7_8=0.678435; m_8_8=1.002862; m_8_9=0.790101; m_9_9=1.004796; m_9_10=1.153903; m_10_10=1.005440; m_10_11=1.318808}
!
! Created with skrf (http://scikit-rf.org).
# Hz S RI R 50.0 
!freq ReS11 ImS11 ReS21 ImS21 ReS12 ImS12 ReS22 ImS22
12607400000.0 -0.9994243686276171 -0.03392537977825857 1.3355056395476302e-16 -3.468167381649423e-17 1.3355056395476302e-16 -3.468167381649423e-17 -0.9994243450724105 -0.03392607369550807
12608017333.333334 -0.9997582395284547 -0.02198778057865102 1.3309758614749199e-16 -3.627877036677244e-17 1.3309758614749199e-16 -3.627877036677244e-17 -0.9997582242624728 -0.02198847469373323
12608634666.666666 -0.9999495271641685 -0.010047045534158404 1.326255205999398e-16 -3.786999040669812e-17 1.326255205999398e-16 -3.786999040669812e-17 -0.999949520188777 -0.010047739748065677
12609252000.0 -0.9999982042538473 0.0018951223945768518 1.3213444310611832e-16 -3.9455105947911674e-17 1.3213444310611832e-16 -3.9455105947911674e-17 -0.9999982055692289 0.0018944281808565835
12609869333.333334 -0.9999042638553723 0.013837020042502752 1.316244321815036e-16 -4.1033889974676986e-17 1.316244321815036e-16 -4.1033889974676986e-17 -0.9999042734605271 0.013836325927971805
12610486666.666666 -0.9996677193664107 0.025776944283002406 1.310955690506136e-16 -4.26061164763396e-17 1.310955690506136e-16 -4.26061164763396e-17 -0.9996677372591588 0.025776250366639296
12611104000.0 -0.9992886045225005 0.03771319227118799 1.3054793763417742e-16 -4.4171560479685795e-17 1.3054793763417742e-16 -4.4171560479685795e-17 -0.9992886306994779 0.03771249865193323
12611721333.333334 -0.9987669733922472 0.04964406168618834 1.2998162453596307e-16 -4.572999808101297e-17 1.2998162453596307e-16 -4.572999808101297e-17 -0.9987670078489096 0.049643368462930396
12612338666.666666 -0.9981029003696047 0.06156785097429939 1.293967190291796e-16 -4.728120647815488e-17 1.293967190291796e-16 -4.728120647815488e-17 -0.9981029431002291 0.06156715824586068
12612956000.0 -0.9972964801632621 0.07348285959174122 1.2879331304251164e-16 -4.8824964002298003e-17 1.2879331304251164e-16 -4.8824964002298003e-17 -0.9972965311609439 0.07348216745686378
12613573333.333334 -0.9963478277831532 0.08538738824675972 1.2817150114580044e-16 -5.036105014955158e-17 1.2817150114580044e-16 -5.036105014955158e-17 -0.9963478870398113 0.08538669680409137
12614190666.666666 -0.9952570785240401 0.09727973914234496 1.2753138053530232e-16 -5.1889245612461584e-17 1.2753138053530232e-16 -5.1889245612461584e-17 -0.9952571460304155 0.0972790484904252
12614808000.0 -0.9940243879462153 0.10915821621831029 1.2687305101861455e-16 -5.340933231122952e-17 1.2687305101861455e-16 -5.340933231122952e-17 -0.9940244636918723 0.10915752645555596
12615425333.333334 -0.9926499318533297 0.12102112539301031 1.261966149992066e-16 -5.492109342479971e-17 1.261966149992066e-16 -5.492109342479971e-17 -0.9926500158266613 0.12102043661770216
12616042666.666666 -0.9911339062673027 0.1328667748051739 1.2550217746058325e-16 -5.642431342174858e-17 1.2550217746058325e-16 -5.642431342174858e-17 -0.9911339984555276 0.13286608711544198
12616660000.0 -0.9894765274003823 0.14469347505499525 1.2478984595009575e-16 -5.791877809093934e-17 1.2478984595009575e-16 -5.791877809093934e-17 -0.9894766277895504 0.1446927885488054
12617277333.333334 -0.9876780316242978 0.15649953944521403 1.2405973056236362e-16 -5.940427457203099e-17 1.2405973056236362e-16 -5.940427457203099e-17 -0.9876781401992891 0.1564988542203535
12617894666.666666 -0.985738675436571 0.1682832842214706 1.2331194392237025e-16 -6.088059138570177e-17 1.2331194392237025e-16 -6.088059138570177e-17 -0.9857387921811023 0.16828260037553472
12618512000.0 -0.9836587354238774 0.18004302881286144 1.225466011681446e-16 -6.234751846377374e-17 1.225466011681446e-16 -6.234751846377374e-17 -0.9836588603204987 0.18004234644323883
12619129333.333334 -0.9814385082226872 0.1917770960710284 1.2176381993315578e-16 -6.380484717898136e-17 1.2176381993315578e-16 -6.380484717898136e-17 -0.9814386412527907 0.19177641527488812
12619746666.666666 -0.9790783104768813 0.2034838125098549 1.209637203282938e-16 -6.52523703746387e-17 1.209637203282938e-16 -6.52523703746387e-17 -0.979078451620699 0.20348313338413168
12620364000.0 -0.9765784787926196 0.2151615085439377 1.201464249235157e-16 -6.668988239404687e-17 1.201464249235157e-16 -6.668988239404687e-17 -0.9765786280292298 0.21516083118531895
12620981333.333334 -0.9739393696903755 0.22680851872653357 1.193120587291774e-16 -6.811717910961174e-17 1.193120587291774e-16 -6.811717910961174e-17 -0.9739395269977034 0.22680784323144498
12621598666.666666 -0.9711613595540103 0.23842318198744247 1.1846074917696746e-16 -6.953405795182473e-17 1.1846074917696746e-16 -6.953405795182473e-17 -0.9711615249088328 0.23842250845203464
12622216000.0 -0.9682448445771612 0.2500038418696002 1.1759262610052533e-16 -7.094031793795562e-17 1.1759262610052533e-16 -7.094031793795562e-17 -0.9682450179551098 0.2500031703897348
12622833333.333334 -0.9651902407067059 0.2615488467654568 1.167078217157244e-16 -7.23357597004975e-17 1.167078217157244e-16 -7.23357597004975e-17 -0.9651904220822719 0.2615481774366935
12623450666.666666 -0.9619979835834507 0.2730565501524992 1.1580647060061325e-16 -7.372018551537832e-17 1.1580647060061325e-16 -7.372018551537832e-17 -0.9619981729299845 0.2730558830700807
12624068000.0 -0.9586685284800116 0.2845253108280177 1.1488870967500305e-16 -7.509339932995224e-17 1.1488870967500305e-16 -7.509339932995224e-17 -0.9586687257697305 0.28452464608685746
12624685333.333334 -0.9552023502358123 0.29595349314341657 1.1395467817975284e-16 -7.645520679069187e-17 1.1395467817975284e-16 -7.645520679069187e-17 -0.955202555439805 0.2959528308380852
12625302666.666666 -0.9515999431895064 0.3073394672370248 1.1300451765572155e-16 -7.780541527063876e-17 1.1300451765572155e-16 -7.780541527063876e-17 -0.9516001562777343 0.30733880746173586
12625920000.0 -0.9478618211083135 0.31868160926705824 1.1203837192237005e-16 -7.914383389662342e-17 1.1203837192237005e-16 -7.914383389662342e-17 -0.9478620420496168 0.3186809521156553
12626537333.333334 -0.9439885171148856 0.3299783016427752 1.1105638705608702e-16 -8.047027357616186e-17 1.1105638705608702e-16 -8.047027357616186e-17 -0.9439887458769879 0.32997764720871864
12627154666.666666 -0.9399805836111876 0.3412279332554444 1.1005871136815101e-16 -8.17845470241474e-17 1.1005871136815101e-16 -8.17845470241474e-17 -0.9399808201607007 0.34122728163179805
12627772000.0 -0.9358385921997108 0.352428899708116 1.0904549538239632e-16 -8.308646878924036e-17 1.0904549538239632e-16 -8.308646878924036e-17 -0.9358388365021397 0.35242825098753383
12628389333.333334 -0.9315631336020619 0.36357960354414426 1.080168918125962e-16 -8.437585527995036e-17 1.080168918125962e-16 -8.437585527995036e-17 -0.9315633856218077 0.36357895781885674
12629006666.666666 -0.9271548175745338 0.3746784544754918 1.0697305553946762e-16 -8.565252479052743e-17 1.0697305553946762e-16 -8.565252479052743e-17 -0.9271550772749015 0.3746778118372936
12629624000.0 -0.9226142728213275 0.385723869609055 1.0591414358745797e-16 -8.691629752646005e-17 1.0591414358745797e-16 -8.691629752646005e-17 -0.92261454016453 0.38572323014929144
12630241333.333334 -0.9179421469047422 0.39671427367278334 1.0484031510115405e-16 -8.816699562978468e-17 1.0484031510115405e-16 -8.816699562978468e-17 -0.9179424218519067 0.3967136374823376
12630858666.666666 -0.9131391061529717 0.4076480992399726 1.037517313214614e-16 -8.940444320402018e-17 1.037517313214614e-16 -8.940444320402018e-17 -0.9131393886641447 0.40764746640925287
12631476000.0 -0.908205835564865 0.4185237869533053 1.0264855556140758e-16 -9.06284663389073e-17 1.0264855556140758e-16 -9.06284663389073e-17 -0.9082061255990186 0.4185231575722318
12632093333.333334 -0.903143038712457 0.42933978574672055 1.0153095318175397e-16 -9.183889313473616e-17 1.0153095318175397e-16 -9.183889313473616e-17 -0.9031433362274932 0.42933915990471255
12632710666.666666 -0.8979514376405155 0.44009455306688516 1.0039909156624714e-16 -9.303555372645862e-17 1.0039909156624714e-16 -9.303555372645862e-17 -0.8979517425932748 0.44009393085284865
12633328000.0 -0.8926317727635269 0.4507865550932653 9.925314009658828e-17 -9.421828030749265e-17 9.925314009658828e-17 -9.421828030749265e-17 -0.8926320851097929 0.4507859365955802
12633945333.333334 -0.8871848027601571 0.4614142669567466 9.809327012718751e-17 -9.538690715315182e-17 9.809327012718751e-17 -9.538690715315182e-17 -0.8871851224546632 0.46141365226325404
12634562666.666666 -0.8816113044650802 0.4719761729570584 9.691965495956571e-17 -9.654127064384679e-17 9.691965495956571e-17 -9.654127064384679e-17 -0.8816116314615161 0.4719755621550485
12635180000.0 -0.8759120727580951 0.4824707667791161 9.573246981654045e-17 -9.768120928791366e-17 9.573246981654045e-17 -9.768120928791366e-17 -0.8759124070091154 0.48247015995531617
12635797333.333334 -0.8700879204508429 0.49289655170769775 9.453189181610907e-17 -9.880656374416189e-17 9.453189181610907e-17 -9.880656374416189e-17 -0.8700882619080702 0.4928959489482582
12636414666.666666 -0.8641396781708836 0.5032520408409014 9.331809994509861e-17 -9.99171768440729e-17 9.331809994509861e-17 -9.99171768440729e-17 -0.8641400267849192 0.5032514422313858
12637032000.0 -0.8580681942431831 0.5135357573023064 9.209127503251008e-17 -1.0101289361371755e-16 9.209127503251008e-17 -1.0101289361371755e-16 -0.8580685499636114 0.5135351629276771
12637649333.333334 -0.8518743345691214 0.5237462344515974 9.085159972266623e-17 -1.0209356129529252e-16 9.085159972266623e-17 -1.0209356129529252e-16 -0.8518746973445183 0.5237456443962049
12638266666.666666 -0.8455589825030876 0.5338820160935882 8.959925844805028e-17 -1.0315902936837974e-16 8.959925844805028e-17 -1.0315902936837974e-16 -0.8455593522810285 0.533881430441159
12638884000.0 -0.8391230387263808 0.543941656686096 8.833443740194578e-17 -1.0420914957083047e-16 8.833443740194578e-17 -1.0420914957083047e-16 -0.839123415453448 0.5439410755197205
12639501333.333334 -0.8325674211188482 0.5539237215459564 8.705732451078245e-17 -1.052437759193572e-16 8.705732451078245e-17 -1.052437759193572e-16 -0.8325678047406367 0.5539231449480767
12640118666.666666 -0.8258930646280229 0.5638267870535627 8.576810940631017e-17 -1.0626276472973063e-16 8.576810940631017e-17 -1.0626276472973063e-16 -0.8258934550891512 0.5638262151059619
12640736000.0 -0.8191009211354895 0.5736494408563506 8.446698339742057e-17 -1.0726597463673188e-16 8.446698339742057e-17 -1.0726597463673188e-16 -0.8191013183796061 0.5736488736401406
12641353333.333334 -0.812191959321601 0.5833902820695163 8.315413944192105e-17 -1.082532666136133e-16 8.315413944192105e-17 -1.082532666136133e-16 -0.8121923632913919 0.583389719665126
12641970666.666666 -0.8051671645269478 0.5930479214763724 8.182977211786585e-17 -1.092245039913849e-16 8.182977211786585e-17 -1.092245039913849e-16 -0.8051675751641459 0.5930473639635372
12642588000.0 -0.7980275386119393 0.6026209817263096 8.049407759483735e-17 -1.1017955247761466e-16 8.049407759483735e-17 -1.1017955247761466e-16 -0.7980279558573317 0.6026204291840586
12643205333.333334 -0.7907740998140218 0.612108097531093 7.914725360491086e-17 -1.1111828017495486e-16 7.914725360491086e-17 -1.1111828017495486e-16 -0.7907745236074607 0.6121075500377401
12643822666.666666 -0.7834078826022586 0.6215079158598514 7.77894994134471e-17 -1.1204055759928067e-16 7.77894994134471e-17 -1.1204055759928067e-16 -0.7834083128826667 0.621507373492982
12644440000.0 -0.7759299375299982 0.6308190961317702 7.642101578965334e-17 -1.1294625769748963e-16 7.642101578965334e-17 -1.1294625769748963e-16 -0.7759303742353791 0.6308185589682307
12645057333.333334 -0.768341331084964 0.6400403104073957 7.504200497696625e-17 -1.138352558649219e-16 7.504200497696625e-17 -1.138352558649219e-16 -0.7683417741524123 0.6400397785232841
12645674666.666666 -0.7606431455371926 0.6491702435779818 7.365267066320538e-17 -1.1470742996244013e-16 7.365267066320538e-17 -1.1470742996244013e-16 -0.7606435949029002 0.6491697170486344
12646292000.0 -0.7528364787844757 0.6582075935532825 7.225321795050482e-17 -1.1556266033315878e-16 7.225321795050482e-17 -1.1556266033315878e-16 -0.7528369343837434 0.658207072453265
12646909333.333334 -0.744922444196133 0.6671510714468433 7.084385332514806e-17 -1.16400829818749e-16 7.084385332514806e-17 -1.16400829818749e-16 -0.7449229059633794 0.667150555849941
12647526666.666666 -0.7369021704539865 0.6759994017601006 6.942478462710887e-17 -1.1722182377544077e-16 6.942478462710887e-17 -1.1722182377544077e-16 -0.7369026383227573 0.6759988917393065
12648144000.0 -0.7287768013913514 0.6847513225643327 6.799622101944437e-17 -1.180255300896329e-16 6.799622101944437e-17 -1.180255300896329e-16 -0.7287772752943262 0.6847508181918356
12648761333.333334 -0.7205474958300886 0.6934055856804153 6.655837295755176e-17 -1.1881183919310422e-16 6.655837295755176e-17 -1.1881183919310422e-16 -0.7205479756990962 0.6934050870275941
12649378666.666666 -0.7122154274152911 0.7019609568569078 6.511145215818755e-17 -1.195806440778899e-16 6.511145215818755e-17 -1.195806440778899e-16 -0.7122159131813144 0.7019604639943172
12649996000.0 -0.7037817844477364 0.7104162159462379 6.365567156834871e-17 -1.2033184031076003e-16 6.365567156834871e-17 -1.2033184031076003e-16 -0.7037822760409245 0.7104157289436003
12650613333.333334 -0.6952477697145922 0.7187701570785315 6.21912453339819e-17 -1.2106532604732484e-16 6.21912453339819e-17 -1.2106532604732484e-16 -0.69524826706427 0.7187696760047267
12651230666.666666 -0.6866146003179027 0.7270215888335767 6.071838876853522e-17 -1.217810020457587e-16 6.071838876853522e-17 -1.217810020457587e-16 -0.6866151033525811 0.7270211137566333
12651848000.0 -0.6778835075007391 0.7351693344109955 5.923731832133865e-17 -1.2247877168014792e-16 5.923731832133865e-17 -1.2247877168014792e-16 -0.6778840161481255 0.7351688653980791
12652465333.333334 -0.6690557364719331 0.7432122317977621 5.774825154584692e-17 -1.2315854095344885e-16 5.774825154584692e-17 -1.2315854095344885e-16 -0.6690562506589406 0.7432117689151668
12653082666.666666 -0.6601325462283218 0.751149133934084 5.62514070677597e-17 -1.2382021851004914e-16 5.62514070677597e-17 -1.2382021851004914e-16 -0.6601330658810817 0.751148677247224
12653700000.0 -0.6511152093751282 0.7589789088770476 5.4747004552907276e-17 -1.2446371564798366e-16 5.4747004552907276e-17 -1.2446371564798366e-16 -0.6511157344189996 0.7589784584504476
12654317333.333334 -0.6420050119447019 0.7667004399618494 5.323526467513637e-17 -1.250889463307005e-16 5.323526467513637e-17 -1.250889463307005e-16 -0.6420055423042814 0.7666999958591338
12654934666.666666 -0.632803253212827 0.7743126259612931 5.171640908394199e-17 -1.2569582719848917e-16 5.171640908394199e-17 -1.2569582719848917e-16 -0.6328037888119612 0.7743121882451791
12655552000.0 -0.6235112455135502 0.78181438124273 5.019066037200599e-17 -1.2628427757950118e-16 5.019066037200599e-17 -1.2628427757950118e-16 -0.6235117862753456 0.781813949975017
12656169333.333334 -0.6141303140521531 0.7892046359227843 4.865824204267684e-17 -1.2685421950035247e-16 4.865824204267684e-17 -1.2685421950035247e-16 -0.6141308598989881 0.7892042111643476
12656786666.666666 -0.6046617967158678 0.7964823360201724 4.7119378477229466e-17 -1.2740557769637057e-16 4.7119378477229466e-17 -1.2740557769637057e-16 -0.6046623475694022 0.7964819178309515
12657404000.0 -0.5951070438833339 0.8036464436058006 4.557429490206478e-17 -1.2793827962142462e-16 4.557429490206478e-17 -1.2793827962142462e-16 -0.5951075996645225 0.8036460320447941
12658021333.333334 -0.5854674182317892 0.8106959369509716 4.402321735580735e-17 -1.284522554573565e-16 4.402321735580735e-17 -1.284522554573565e-16 -0.585467978860891 0.8106955320762259
12658638666.666666 -0.575744294543 0.8176298106728956 4.246637265629105e-17 -1.2894743812301633e-16 4.246637265629105e-17 -1.2894743812301633e-16 -0.5757448599395898 0.8176294125414973
12659256000.0 -0.5659390595068927 0.8244470758782909 4.090398836738968e-17 -1.294237632829156e-16 4.090398836738968e-17 -1.294237632829156e-16 -0.5659396295898745 0.8244466845463613
12659873333.333334 -0.556053111523928 0.831146760304322 3.933629276585938e-17 -1.2988116935544662e-16 3.933629276585938e-17 -1.2988116935544662e-16 -0.5560536862115442 0.831146375827005
12660490666.666666 -0.5460878605058013 0.8377279084571597 3.776351480800256e-17 -1.3031959752072785e-16 3.776351480800256e-17 -1.3031959752072785e-16 -0.5460884397156471 0.8377275308886187
12661108000.0 -0.5360447276740642 0.8441895817484659 3.6185884096264335e-17 -1.3073899172803952e-16 3.6185884096264335e-17 -1.3073899172803952e-16 -0.5360453113230966 0.8441892111418722
12661725333.333334 -0.5259251453576865 0.8505308586290721 3.460363084580133e-17 -1.311392987028434e-16 3.460363084580133e-17 -1.311392987028434e-16 -0.5259257333622385 0.8505304950365997
12662342666.666666 -0.5157305567886673 0.856750834720493 3.301698585088122e-17 -1.3152046795342155e-16 3.301698585088122e-17 -1.3152046795342155e-16 -0.515731149064458 0.85675047819331
12662960000.0 -0.5054624158962499 0.8628486229438725 3.142618045130877e-17 -1.3188245177708534e-16 3.142618045130877e-17 -1.3188245177708534e-16 -0.5054630123583982 0.8628482735321349
12663577333.333334 -0.4951221870994683 0.8688233536465565 2.9831446498707623e-17 -1.3222520526599833e-16 2.9831446498707623e-17 -1.3222520526599833e-16 -0.49512278766250406 0.8688230113994003
12664194666.666666 -0.48471134509844277 0.8746741747260347 2.8233016322800963e-17 -1.3254868631257762e-16 2.8233016322800963e-17 -1.3254868631257762e-16 -0.4847119496763192 0.8746738396915692
12664812000.0 -0.47423137466398685 0.8804002517515067 2.663112269759885e-17 -1.3285285561449766e-16 2.663112269759885e-17 -1.3285285561449766e-16 -0.47423198317009374 0.8803999239768092
12665429333.333334 -0.4636837704257545 0.8860007680829447 2.50259988075304e-17 -1.3313767667928576e-16 2.50259988075304e-17 -1.3313767667928576e-16 -0.4636843827729292 0.8860004476140514
12666046666.666666 -0.45307003665937756 0.891474924987395 2.3417878213590476e-17 -1.3340311582849815e-16 2.3417878213590476e-17 -1.3340311582849815e-16 -0.4530706527599186 0.8914746118692964
12666664000.0 -0.44239168707145377 0.8968219417531466 2.1806994819327534e-17 -1.3364914220150864e-16 2.1806994819327534e-17 -1.3364914220150864e-16 -0.44239230683713265 0.8968216360297804
12667281333.333334 -0.43165024458419354 0.9020410558007973 2.019358283694704e-17 -1.33875727758862e-16 2.019358283694704e-17 -1.33875727758862e-16 -0.43165086792626783 0.9020407575150423
12667898666.666666 -0.42084724111789756 0.907131522792184 1.8577876753254272e-17 -1.3408284728523955e-16 1.8577876753254272e-17 -1.3408284728523955e-16 -0.42084786794712326 0.9071312319858538
12668516000.0 -0.4099842173723964 0.9120926167365653 1.6960111295608527e-17 -1.342704783920072e-16 1.6960111295608527e-17 -1.342704783920072e-16 -0.40998484759904147 0.9120923334504037
12669133333.333334 -0.3990627226077085 0.9169236300939869 1.534052139792465e-17 -1.3443860151934672e-16 1.534052139792465e-17 -1.3443860151934672e-16 -0.3990633561415645 0.9169233543676607
12669750666.666666 -0.38808431442275143 0.9216238738763418 1.3719342166550913e-17 -1.345871999379887e-16 1.3719342166550913e-17 -1.345871999379887e-16 -0.38808495117314745 0.9216236057484356
12670368000.0 -0.37705055853322544 0.9261926777456159 1.209680884618881e-17 -1.347162597505297e-16 1.209680884618881e-17 -1.347162597505297e-16 -0.3770511984090407 0.9261924172536277
