! Parameters = {f0=12700.012000; bw=77.238000; Q=6100.000000; N=10; m_0_1=1.222918; m_1_1=-0.420977; m_1_2=1.057730; m_2_2=-0.421626; m_2_3=0.694693; m_2_8=-0.001790; m_2_9=0.034914; m_3_3=-0.423563; m_3_4=0.583222; m_3_7=-0.001190; m_3_8=-0.098278; m_3_9=-0.001790; m_4_4=-0.426488; m_4_5=0.419557; m_4_6=0.002327; m_4_7=-0.118827; m_4_8=-0.001190; m_5_5=-0.426106; m_5_6=0.826912; m_5_7=0.002327; m_6_6=-0.426107; m_6_7=0.419899; m_7_7=-0.426474; m_7_8=0.583340; m_8_8=-0.423565; m_8_9=0.695006; m_9_9=-0.421631; m_9_10=1.058808; m_10_10=-0.420987; m_10_11=1.223713}
!
! Created with skrf (http://scikit-rf.org).
# Hz S RI R 50.0 
!freq ReS11 ImS11 ReS21 ImS21 ReS12 ImS12 ReS22 ImS22
12607400000.0 -0.5932427123120797 -0.8050236544900049 7.026527684660798e-17 5.316210303013792e-17 7.026527684660798e-17 5.316210303013792e-17 -0.5932421935635801 -0.8050240367689081
12608017333.333334 -0.6005686119347383 -0.7995732251386478 7.073856843442399e-17 5.250173871750867e-17 7.073856843442399e-17 5.250173871750867e-17 -0.600568096723663 -0.7995736121193305
12608634666.666666 -0.6078444385556694 -0.7940561305832095 7.120566077233518e-17 5.1837169577785225e-17 7.120566077233518e-17 5.1837169577785225e-17 -0.6078439269246269 -0.7940565222329489
12609252000.0 -0.6150695855457451 -0.7884728308169034 7.166651658731604e-17 5.116845374392963e-17 7.166651658731604e-17 5.116845374392963e-17 -0.6150690775370399 -0.788473227102589
12609869333.333334 -0.6222434505012331 -0.7828237913529168 7.212109915091007e-17 5.049564967849842e-17 7.212109915091007e-17 5.049564967849842e-17 -0.6222429461568647 -0.7828241922410563
12610486666.666666 -0.6293654352940933 -0.7771094831855496 7.256937228211833e-17 4.9818816168573345e-17 7.256937228211833e-17 4.9818816168573345e-17 -0.6293649346557508 -0.7771098886422688
12611104000.0 -0.6364349461219121 -0.7713303827508904 7.301130035028579e-17 4.9138012320600626e-17 7.301130035028579e-17 4.9138012320600626e-17 -0.6364344492309714 -0.771330792741938
12611721333.333334 -0.6434513935572787 -0.7654869718871987 7.34468482778818e-17 4.845329755528984e-17 7.34468482778818e-17 4.845329755528984e-17 -0.6434509004547997 -0.7654873863779493
12612338666.666666 -0.6504141925969741 -0.7595797377946981 7.387598154328914e-17 4.776473160240532e-17 7.387598154328914e-17 4.776473160240532e-17 -0.6504137033236975 -0.7595801567501551
12612956000.0 -0.6573227627109206 -0.7536091729948085 7.429866618350759e-17 4.7072374495587057e-17 7.429866618350759e-17 4.7072374495587057e-17 -0.6573222773072627 -0.7536095963796048
12613573333.333334 -0.664176527890236 -0.7475757752893737 7.471486879681968e-17 4.6376286567133656e-17 7.471486879681968e-17 4.6376286567133656e-17 -0.6641760463962866 -0.7475762030677771
12614190666.666666 -0.67097491669554 -0.7414800477189183 7.512455654541138e-17 4.567652844275547e-17 7.512455654541138e-17 4.567652844275547e-17 -0.6709744391510603 -0.7414804798548349
12614808000.0 -0.6777173623045573 -0.7353224985207445 7.552769715794478e-17 4.497316103630257e-17 7.552769715794478e-17 4.497316103630257e-17 -0.6777168887489741 -0.7353229349777195
12615425333.333334 -0.6844033025592456 -0.7291036410866665 7.592425893206923e-17 4.426624554449188e-17 7.592425893206923e-17 4.426624554449188e-17 -0.6844028330316497 -0.7291040818278884
12616042666.666666 -0.691032180012838 -0.7228239939200565 7.631421073690195e-17 4.355584344158001e-17 7.631421073690195e-17 4.355584344158001e-17 -0.6910317145519806 -0.7228244389083609
12616660000.0 -0.6976034419761514 -0.7164840805927669 7.669752201543928e-17 4.2842016474049215e-17 7.669752201543928e-17 4.2842016474049215e-17 -0.6976029806204411 -0.7164845297906388
12617277333.333334 -0.7041165405638562 -0.7100844297013031 7.707416278693912e-17 4.212482665523544e-17 7.707416278693912e-17 4.212482665523544e-17 -0.7041160833513549 -0.7100848830708796
12617894666.666666 -0.7105709327398868 -0.7036255748230049 7.744410364922676e-17 4.140433625998364e-17 7.744410364922676e-17 4.140433625998364e-17 -0.7105704797083082 -0.7036260323260797
12618512000.0 -0.7169660803631076 -0.6971080544711833 7.780731578098872e-17 4.068060781921295e-17 7.780731578098872e-17 4.068060781921295e-17 -0.7169656315498129 -0.6971085160692094
12619129333.333334 -0.7233014502317352 -0.6905324120506618 7.81637709439688e-17 3.9953704114552635e-17 7.81637709439688e-17 3.9953704114552635e-17 -0.7233010056737295 -0.6905328777047535
12619746666.666666 -0.7295765141281564 -0.6838991958121063 7.851344148515923e-17 3.9223688172870145e-17 7.851344148515923e-17 3.9223688172870145e-17 -0.7295760738620867 -0.6838996654830444
12620364000.0 -0.7357907488628056 -0.6772089588064739 7.885630033891184e-17 3.8490623260838184e-17 7.885630033891184e-17 3.8490623260838184e-17 -0.7357903129249586 -0.6772094324547082
12620981333.333334 -0.7419436363177733 -0.670462258838927 7.919232102900706e-17 3.7754572879468405e-17 7.919232102900706e-17 3.7754572879468405e-17 -0.7419432047440704 -0.6704627364245797
12621598666.666666 -0.7480346634900582 -0.6636596584222607 7.952147767067427e-17 3.701560075861996e-17 7.952147767067427e-17 3.701560075861996e-17 -0.7480342363160531 -0.663660139905129
12622216000.0 -0.7540633225343034 -0.656801724730046 7.984374497256313e-17 3.62737708514891e-17 7.984374497256313e-17 3.62737708514891e-17 -0.7540628997951806 -0.6568022100696068
12622833333.333334 -0.7600291108052322 -0.6498890295492342 8.015909823865323e-17 3.552914732910171e-17 8.015909823865323e-17 3.552914732910171e-17 -0.7600286925358017 -0.6498895187046461
12623450666.666666 -0.765931530899349 -0.6429221492327177 8.046751337012422e-17 3.478179457476752e-17 8.046751337012422e-17 3.478179457476752e-17 -0.765931117134046 -0.642922642162826
12624068000.0 -0.7717700906966556 -0.6359016646509995 8.076896686716574e-17 3.403177717853368e-17 8.076896686716574e-17 3.403177717853368e-17 -0.7717696814695362 -0.6359021613143384
12624685333.333334 -0.7775443034015513 -0.6288281611439115 8.106343583074893e-17 3.3279159931596e-17 8.106343583074893e-17 3.3279159931596e-17 -0.7775438987462893 -0.628828661498708
12625302666.666666 -0.7832536875833828 -0.6217022284718551 8.135089796431928e-17 3.252400782075704e-17 8.135089796431928e-17 3.252400782075704e-17 -0.7832532875332675 -0.6217027324760324
12625920000.0 -0.7888977672167099 -0.6145244607664746 8.163133157547686e-17 3.1766386022775303e-17 8.163133157547686e-17 3.1766386022775303e-17 -0.788897371804645 -0.614524968377657
12626537333.333334 -0.7944760717208905 -0.6072954564812572 8.190471557756295e-17 3.1006359898804725e-17 8.190471557756295e-17 3.1006359898804725e-17 -0.7944756809793885 -0.6072959676567709
12627154666.666666 -0.7999881359992801 -0.600015818341679 8.217102949122704e-17 3.024399498873699e-17 8.217102949122704e-17 3.024399498873699e-17 -0.7999877499604603 -0.6000163330385573
12627772000.0 -0.8054335004782487 -0.5926861532946353 8.243025344592722e-17 2.9479357005568047e-17 8.243025344592722e-17 2.9479357005568047e-17 -0.8054331191738366 -0.5926866714696232
12628389333.333334 -0.8108117111451429 -0.585307072458315 8.26823681813754e-17 2.8712511829761686e-17 8.26823681813754e-17 2.8712511829761686e-17 -0.8108113346064654 -0.5853075940678707
12629006666.666666 -0.8161223195864421 -0.5778791910708353 8.292735504894074e-17 2.7943525503570565e-17 8.292735504894074e-17 2.7943525503570565e-17 -0.8161219478444262 -0.5778797160711358
12629624000.0 -0.8213648830250118 -0.5704031284391295 8.316519601299212e-17 2.7172464225369036e-17 8.316519601299212e-17 2.7172464225369036e-17 -0.8213645161101814 -0.5704036567860731
12630241333.333334 -0.8265389643570037 -0.5628795078873353 8.339587365219006e-17 2.639939434397042e-17 8.339587365219006e-17 2.639939434397042e-17 -0.8265386022994774 -0.5628800395365453
12630858666.666666 -0.8316441321883342 -0.5553089567047782 8.361937116072459e-17 2.5624382352938526e-17 8.361937116072459e-17 2.5624382352938526e-17 -0.8316437750178225 -0.5553094916116073
12631476000.0 -0.8366799608706983 -0.5476921060935994 8.383567234951241e-17 2.4847494884848504e-17 8.383567234951241e-17 2.4847494884848504e-17 -0.8366796086165021 -0.5476926442131334
12632093333.333334 -0.8416460305369802 -0.5400295911162475 8.40447616473166e-17 2.4068798705619113e-17 8.40447616473166e-17 2.4068798705619113e-17 -0.8416456832279859 -0.5400301324033073
12632710666.666666 -0.8465419271362284 -0.5323220506425762 8.424662410183839e-17 2.3288360708755006e-17 8.424662410183839e-17 2.3288360708755006e-17 -0.8465415848009088 -0.5323225950517245
12633328000.0 -0.8513672424683797 -0.5245701272962691 8.444124538074269e-17 2.25062479096207e-17 8.444124538074269e-17 2.25062479096207e-17 -0.8513669051347902 -0.5245706747818126
12633945333.333334 -0.856121574218032 -0.5167744674016664 8.462861177263322e-17 2.172252743970195e-17 8.462861177263322e-17 2.172252743970195e-17 -0.8561212419138072 -0.5167750179176591
12634562666.666666 -0.860804525988184 -0.5089357209295641 8.480871018797265e-17 2.0937266540864156e-17 8.480871018797265e-17 2.0937266540864156e-17 -0.8608041987405377 -0.5089362744298123
12635180000.0 -0.8654157073331523 -0.5010545414432405 8.498152815995579e-17 2.0150532559579608e-17 8.498152815995579e-17 2.0150532559579608e-17 -0.8654153851688742 -0.5010550978813069
12635797333.333334 -0.8699547337912567 -0.4931315860437452 8.514705384532106e-17 1.9362392941181813e-17 8.514705384532106e-17 1.9362392941181813e-17 -0.8699544167367091 -0.493132145372951
12636414666.666666 -0.8744212269167158 -0.4851675153153823 8.530527602511574e-17 1.8572915224087253e-17 8.530527602511574e-17 1.8572915224087253e-17 -0.8744209149978324 -0.4851680774888123
12637032000.0 -0.8788148143113305 -0.4771629932704124 8.545618410540353e-17 1.7782167034025836e-17 8.545618410540353e-17 1.7782167034025836e-17 -0.8788145075536145 -0.47716355824091916
12637649333.333334 -0.8831351296555137 -0.4691186872937124 8.559976811792254e-17 1.6990216078251694e-17 8.559976811792254e-17 1.6990216078251694e-17 -0.8831348280840369 -0.4691192550139206
12638266666.666666 -0.8873818127387566 -0.46103526808728446 8.57360187206842e-17 1.619713013977607e-17 8.57360187206842e-17 1.619713013977607e-17 -0.8873815163781544 -0.4610358385095931
12638884000.0 -0.8915545094897663 -0.45291340961413257 8.586492719852612e-17 1.5402977071559558e-17 8.586492719852612e-17 1.5402977071559558e-17 -0.8915542183642374 -0.4529139826907205
12639501333.333334 -0.8956528720058912 -0.4447537890422465 8.598648546360397e-17 1.4607824790737048e-17 8.598648546360397e-17 1.4607824790737048e-17 -0.8956525861391965 -0.44475436472507607
12640118666.666666 -0.8996765585821608 -0.43655708668809395 8.610068605583515e-17 1.3811741272817819e-17 8.610068605583515e-17 1.3811741272817819e-17 -0.8996762779976196 -0.43655766492891485
12640736000.0 -0.9036252337398714 -0.42832398595969273 8.620752214328948e-17 1.3014794545867914e-17 8.620752214328948e-17 1.3014794545867914e-17 -0.9036249584603605 -0.42832456671004593
12641353333.333334 -0.9074985682543585 -0.4200551733000401 8.630698752251896e-17 1.2217052684749357e-17 8.630698752251896e-17 1.2217052684749357e-17 -0.90749829830231 -0.4200557565112619
12641970666.666666 -0.9112962391826078 -0.4117513381295471 8.639907661884376e-17 1.141858380528646e-17 8.639907661884376e-17 1.141858380528646e-17 -0.9112959745800083 -0.41175192375277425
12642588000.0 -0.9150179298901546 -0.40341317278860883 8.648378448657899e-17 1.0619456058467661e-17 8.648378448657899e-17 1.0619456058467661e-17 -0.9150176706585427 -0.4034137607747812
12643205333.333334 -0.9186633300774163 -0.39504137248003557 8.656110680920787e-17 9.819737624659123e-18 8.656110680920787e-17 9.819737624659123e-18 -0.918663076237878 -0.39504196277990017
12643822666.666666 -0.9222321358056368 -0.38663663521090536 8.66310398995053e-17 9.01949670777113e-18 8.66310398995053e-17 9.01949670777113e-18 -0.9222318873788107 -0.3866372277750226
12644440000.0 -0.9257240495222137 -0.3781996617344218 8.669358069960206e-17 8.21880152948646e-18 8.669358069960206e-17 8.21880152948646e-18 -0.9257238065282821 -0.378200256513167
12645057333.333334 -0.9291387800854358 -0.36973115549164387 8.674872678100134e-17 7.417720323435304e-18 8.674872678100134e-17 7.417720323435304e-18 -0.9291385425441266 -0.3697317524352128
12645674666.666666 -0.9324760427888457 -0.361231822552626 8.679647634453734e-17 6.616321329413291e-18 8.679647634453734e-17 6.616321329413291e-18 -0.9324758107194321 -0.36123242161103936
12646292000.0 -0.9357355593849678 -0.35270237155757544 8.683682822028499e-17 5.814672787544525e-18 8.683682822028499e-17 5.814672787544525e-18 -0.935735332806263 -0.35270297268068196
12646909333.333334 -0.9389170581084533 -0.3441435136579005 8.686978186741028e-17 5.012842932535753e-18 8.686978186741028e-17 5.012842932535753e-18 -0.9389168370388108 -0.34414411679538154
12647526666.666666 -0.9420202736987595 -0.33555596245686414 8.689533737397313e-17 4.210899987836913e-18 8.689533737397313e-17 4.210899987836913e-18 -0.9420200581560728 -0.3355565675582384
12648144000.0 -0.9450449474223372 -0.32694043394990097 8.691349545667308e-17 3.4089121598716233e-18 8.691349545667308e-17 3.4089121598716233e-18 -0.9450447374240376 -0.3269410409645285
12648761333.333334 -0.947990827094084 -0.31829764646524017 8.692425746054343e-17 2.6069476322392475e-18 8.692425746054343e-17 2.6069476322392475e-18 -0.9479906226571385 -0.3182982553423263
12649378666.666666 -0.9508576670984504 -0.30962832060380113 8.692762535859101e-17 1.805074559950807e-18 8.692762535859101e-17 1.805074559950807e-18 -0.9508574682393591 -0.3096289312924005
12649996000.0 -0.9536452284098849 -0.3009331791791915 8.692360175138405e-17 1.0033610636176958e-18 8.692360175138405e-17 1.0033610636176958e-18 -0.9536450351446835 -0.30093379162821315
12650613333.333334 -0.9563532786128126 -0.2922129471573086 8.691218986658608e-17 2.0187522370488077e-19 8.691218986658608e-17 2.0187522370488077e-19 -0.9563530909570681 -0.29221356131551973
12651230666.666666 -0.9589815919209168 -0.2834683515961919 8.689339355843668e-17 -5.99314925247317e-19 8.689339355843668e-17 -5.99314925247317e-19 -0.9589814098897257 -0.2834689674122218
12651848000.0 -0.9615299491960694 -0.27470012158504975 8.686721730717931e-17 -1.4001414003903225e-18 8.686721730717931e-17 -1.4001414003903225e-18 -0.9615297728040604 -0.27470073900739533
12652465333.333334 -0.9639981379665582 -0.2659089881836363 8.683366621843664e-17 -2.2005362763203645e-18 8.683366621843664e-17 -2.2005362763203645e-18 -0.9639979672278872 -0.26590960716066503
12653082666.666666 -0.9663859524447442 -0.25709568436148816 8.679274602253297e-17 -3.0004316908071415e-18 8.679274602253297e-17 -3.0004316908071415e-18 -0.9663857873730933 -0.25709630484144275
12653700000.0 -0.9686931935443558 -0.24826094493632006 8.674446307376207e-17 -3.799759850579025e-18 8.674446307376207e-17 -3.799759850579025e-18 -0.9686930341529348 -0.24826156686732334
12654317333.333334 -0.9709196688969264 -0.2394055065133624 8.668882434960607e-17 -4.598453037001489e-18 8.668882434960607e-17 -4.598453037001489e-18 -0.9709195151984701 -0.2394061298434213
12654934666.666666 -0.9730651928679643 -0.23053010742345165 8.662583744989766e-17 -5.396443611845641e-18 8.662583744989766e-17 -5.396443611845641e-18 -0.9730650448747314 -0.23053073210046152
12655552000.0 -0.9751295865723704 -0.22163548766169086 8.655551059593155e-17 -6.19366402298349e-18 8.655551059593155e-17 -6.19366402298349e-18 -0.9751294442961418 -0.22163611363343946
12656169333.333334 -0.9771126778893476 -0.21272238882577932 8.647785262952495e-17 -6.990046810091082e-18 8.647785262952495e-17 -6.990046810091082e-18 -0.977112541341428 -0.21272301603995208
12656786666.666666 -0.9790143014767665 -0.20379155405412688 8.639287301202296e-17 -7.78552461034886e-18 8.639287301202296e-17 -7.78552461034886e-18 -0.9790141706679819 -0.20379218245831066
12657404000.0 -0.9808342987849694 -0.19484372796381036 8.630058182325288e-17 -8.580030164134031e-18 8.630058182325288e-17 -8.580030164134031e-18 -0.9808341737256646 -0.19484435750549756
12658021333.333334 -0.9825725180699495 -0.18587965658865635 8.620098976042758e-17 -9.373496320679843e-18 8.620098976042758e-17 -9.373496320679843e-18 -0.9825723987699907 -0.18588028721524996
12658638666.666666 -0.9842288144060257 -0.17690008731695742 8.609410813699539e-17 -1.0165856043745493e-17 8.609410813699539e-17 -1.0165856043745493e-17 -0.9842287008747974 -0.17690071897577522
12659256000.0 -0.985803049697938 -0.1679057688290737 8.597994888143742e-17 -1.0957042417271591e-17 8.597994888143742e-17 -1.0957042417271591e-17 -0.9858029419443431 -0.16790640146735242
12659873333.333334 -0.987295092692332 -0.15889745103517877 8.585852453601493e-17 -1.1746988651015929e-17 8.585852453601493e-17 -1.1746988651015929e-17 -0.9872949907247904 -0.15889808460007848
12660490666.666666 -0.9887048189887166 -0.14987588501265084 8.572984825546686e-17 -1.2535628086159272e-17 8.572984825546686e-17 -1.2535628086159272e-17 -0.9887047228151657 -0.14987651945125977
12661108000.0 -0.9900321110498523 -0.1408418229433675 8.559393380564676e-17 -1.3322894200961157e-17 8.559393380564676e-17 -1.3322894200961157e-17 -0.9900320206777438 -0.14084245820270583
12661725333.333334 -0.9912768582115171 -0.1317960180511591 8.54507955621234e-17 -1.410872061630447e-17 8.54507955621234e-17 -1.410872061630447e-17 -0.9912767736478211 -0.13179665407818428
12662342666.666666 -0.9924389566917557 -0.12273922453892513 8.530044850871377e-17 -1.4893041101325445e-17 8.530044850871377e-17 -1.4893041101325445e-17 -0.9924388779429556 -0.1227398612805354
12662960000.0 -0.9935183095995377 -0.11367219752566626 8.514290823597874e-17 -1.5675789578951174e-17 8.514290823597874e-17 -1.5675789578951174e-17 -0.9935182366716319 -0.11367283492870556
12663577333.333334 -0.9945148269428119 -0.1045956929837232 8.497819093965734e-17 -1.6456900131475195e-17 8.497819093965734e-17 -1.6456900131475195e-17 -0.9945147598413131 -0.10459633099498557
12664194666.666666 -0.9954284256360375 -0.09551046767552111 8.480631341905841e-17 -1.7236307006078684e-17 8.480631341905841e-17 -1.7236307006078684e-17 -0.9954283643659714 -0.09551110624175495
12664812000.0 -0.9962590295070847 -0.08641727909069959 8.46272930753964e-17 -1.801394462035968e-17 8.46272930753964e-17 -1.801394462035968e-17 -0.996258974072991 -0.08641791815861231
12665429333.333334 -0.9970065693036112 -0.07731688538270169 8.444114791007618e-17 -1.8789747567847956e-17 8.444114791007618e-17 -1.8789747567847956e-17 -0.997006519709543 -0.07731752489896411
12666046666.666666 -0.9976709826988074 -0.06821004530590205 8.42478965229361e-17 -1.9563650623464507e-17 8.42478965229361e-17 -1.9563650623464507e-17 -0.9976709389483308 -0.0682106852171528
12666664000.0 -0.998252214296627 -0.0590975181519485 8.404755811042385e-17 -2.0335588749037698e-17 8.404755811042385e-17 -2.0335588749037698e-17 -0.9982521763928186 -0.05909815840479835
12667281333.333334 -0.9987502156363746 -0.049980063686766524 8.384015246374549e-17 -2.110549709870333e-17 8.384015246374549e-17 -2.110549709870333e-17 -0.9987501835818255 -0.04998070422780316
12667898666.666666 -0.9991649451967629 -0.040858442087128806 8.362569996694206e-17 -2.1873311024381945e-17 8.362569996694206e-17 -2.1873311024381945e-17 -0.9991649189935756 -0.040859082862920976
12668516000.0 -0.9994963683993779 -0.031733413877047076 8.340422159493011e-17 -2.2638966081174726e-17 8.340422159493011e-17 -2.2638966081174726e-17 -0.9994963480491664 -0.03173405483414918
12669133333.333334 -0.9997444576115444 -0.02260573986484558 8.317573891149173e-17 -2.340239803275745e-17 8.317573891149173e-17 -2.340239803275745e-17 -0.9997444431154341 -0.022606380949802114
12669750666.666666 -0.9999091921486465 -0.013476181079216679 8.294027406721043e-17 -2.4163542856761085e-17 8.294027406721043e-17 -2.4163542856761085e-17 -0.9999091835072761 -0.013476822238566718
12670368000.0 -0.9999905582758436 -0.0043454987061102525 8.269784979735836e-17 -2.492233675013711e-17 8.269784979735836e-17 -2.492233675013711e-17 -0.9999905554893631 -0.00434613988639186
