! Parameters = {f0=12700.012000; bw=77.238000; Q=6100.000000; N=10; m_0_1=1.213508; m_1_1=-0.562118; m_1_2=1.048320; m_2_2=-0.562767; m_2_3=0.685283; m_2_8=-0.002261; m_2_9=0.034443; m_3_3=-0.564704; m_3_4=0.573812; m_3_7=-0.001661; m_3_8=-0.098749; m_3_9=-0.002261; m_4_4=-0.567629; m_4_5=0.410147; m_4_6=0.001856; m_4_7=-0.119298; m_4_8=-0.001661; m_5_5=-0.567247; m_5_6=0.817502; m_5_7=0.001856; m_6_6=-0.567248; m_6_7=0.410489; m_7_7=-0.567615; m_7_8=0.573930; m_8_8=-0.564706; m_8_9=0.685596; m_9_9=-0.562772; m_9_10=1.049398; m_10_10=-0.562128; m_10_11=1.214303}
!
! Created with skrf (http://scikit-rf.org).
# Hz S RI R 50.0 
!freq ReS11 ImS11 ReS21 ImS21 ReS12 ImS12 ReS22 ImS22
12607400000.0 -0.9437173761542069 -0.33075295001625854 8.398247325466996e-17 4.126203150914267e-18 8.398247325466996e-17 4.126203150914267e-18 -0.9437171646548783 -0.33075355347387525
12608017333.333334 -0.9466084827792346 -0.32238545303756333 8.399955506851043e-17 3.37444966877767e-18 8.399955506851043e-17 3.37444966877767e-18 -0.9466082766405745 -0.32238605831425154
12608634666.666666 -0.9494254003805586 -0.3139926895837789 8.400991318861989e-17 2.6227207888456374e-18 8.400991318861989e-17 2.6227207888456374e-18 -0.9494251996181974 -0.31399329663192554
12609252000.0 -0.9521679081865561 -0.3055753174251444 8.40135494205569e-17 1.8710765988867527e-18 8.40135494205569e-17 1.8710765988867527e-18 -0.9521677128157008 -0.30557592619700163
12609869333.333334 -0.9548357912573407 -0.29713399626062137 8.401046610642894e-17 1.1195771563619328e-18 8.401046610642894e-17 1.1195771563619328e-18 -0.9548356012927753 -0.29713460670831143
12610486666.666666 -0.9574288405016057 -0.2886693876662204 8.400066612449564e-17 3.6828248364206276e-19 8.400066612449564e-17 3.6828248364206276e-19 -0.9574286559576871 -0.2886699997417382
12611104000.0 -0.9599468526930813 -0.28018215504290467 8.398415288872801e-17 -3.827474367864273e-19 8.398415288872801e-17 -3.827474367864273e-19 -0.9599466735837429 -0.2801827686981231
12611721333.333334 -0.9623896304863849 -0.27167296356487086 8.396093034832665e-17 -1.1334526670727123e-18 8.396093034832665e-17 -1.1334526670727123e-18 -0.9623894568251293 -0.27167357875154274
12612338666.666666 -0.9647569824325135 -0.26314248012730584 8.393100298719614e-17 -1.883773318804592e-18 8.393100298719614e-17 -1.883773318804592e-18 -0.964756814232419 -0.2631430967970698
12612956000.0 -0.96704872299388 -0.2545913732940404 8.389437582337715e-17 -2.6336495577579373e-18 8.389437582337715e-17 -2.6336495577579373e-18 -0.9670485602675926 -0.2545919913984228
12613573333.333334 -0.9692646725587997 -0.24602031324531318 8.385105440843687e-17 -3.3830216086542767e-18 8.385105440843687e-17 -3.3830216086542767e-18 -0.9692645153185371 -0.2460209327357331
12614190666.666666 -0.9714046574555969 -0.23742997172516608 8.38010448268161e-17 -4.131829759921353e-18 8.38010448268161e-17 -4.131829759921353e-18 -0.9714045057131451 -0.2374305925529386
12614808000.0 -0.9734685099662335 -0.2288210219887138 8.374435369513453e-17 -4.880014368434789e-18 8.374435369513453e-17 -4.880014368434789e-18 -0.9734683637329459 -0.2288216441050538
12615425333.333334 -0.9754560683394132 -0.22019413874954397 8.36809881614534e-17 -5.627515864266744e-18 8.36809881614534e-17 -5.627515864266744e-18 -0.9754559276262105 -0.2201947621055702
12616042666.666666 -0.9773671768032776 -0.21154999812675454 8.361095590449679e-17 -6.374274755403029e-18 8.361095590449679e-17 -6.374274755403029e-18 -0.9773670416206476 -0.21155062267349367
12616660000.0 -0.979201685577636 -0.20288927759188152 8.353426513283002e-17 -7.120231632473602e-18 8.353426513283002e-17 -7.120231632473602e-18 -0.9792015559356312 -0.20288990328027132
12617277333.333334 -0.9809594508856706 -0.19421265591594086 8.345092458399565e-17 -7.865327173476953e-18 8.345092458399565e-17 -7.865327173476953e-18 -0.980959326793909 -0.19421328269683463
12617894666.666666 -0.9826403349652001 -0.18552081311625918 8.33609435236102e-17 -8.609502148460044e-18 8.33609435236102e-17 -8.609502148460044e-18 -0.9826402164328643 -0.18552144094042958
12618512000.0 -0.9842442060795312 -0.17681443040292844 8.326433174441402e-17 -9.35269742424838e-18 8.326433174441402e-17 -9.35269742424838e-18 -0.9842440931153655 -0.17681505922107082
12619129333.333334 -0.985770938527722 -0.16809419012569457 8.316109956528541e-17 -1.0094853969107271e-17 8.316109956528541e-17 -1.0094853969107271e-17 -0.985770831140035 -0.16809481988843147
12619746666.666666 -0.9872204126544593 -0.15936077572036886 8.305125783020891e-17 -1.0835912857426245e-17 8.305125783020891e-17 -1.0835912857426245e-17 -0.987220310851121 -0.15936140637825352
12620364000.0 -0.9885925148594504 -0.15061487165518014 8.293481790720135e-17 -1.157581527440505e-17 8.293481790720135e-17 -1.157581527440505e-17 -0.9885924186478929 -0.15061550315870056
12620981333.333334 -0.9898871376062962 -0.14185716337729873 8.281179168720284e-17 -1.2314502520672195e-17 8.281179168720284e-17 -1.2314502520672195e-17 -0.989887046993512 -0.14185779567688137
12621598666.666666 -0.9911041794309344 -0.13308833725903152 8.268219158291833e-17 -1.305191601696101e-17 8.268219158291833e-17 -1.305191601696101e-17 -0.9911040944234778 -0.1330889703050455
12622216000.0 -0.9922435449496048 -0.12430908054394448 8.25460305276219e-17 -1.3787997308738817e-17 8.25460305276219e-17 -1.3787997308738817e-17 -0.9922434655535892 -0.12430971428670513
12622833333.333334 -0.9933051448663025 -0.1155200812931411 8.240332197392075e-17 -1.4522688070819575e-17 8.240332197392075e-17 -1.4522688070819575e-17 -0.9933050710874007 -0.115520715682914
12623450666.666666 -0.9942888959797749 -0.10672202833136529 8.22540798924784e-17 -1.5255930111971724e-17 8.22540798924784e-17 -1.5255930111971724e-17 -0.9942888278232201 -0.10672266331837033
12624068000.0 -0.99519472119007 -0.09791561119279008 8.209831877069129e-17 -1.5987665379534232e-17 8.209831877069129e-17 -1.5987665379534232e-17 -0.9951946586606544 -0.09791624672720516
12624685333.333334 -0.9960225495045623 -0.08910152006711736 8.193605361133206e-17 -1.671783596398726e-17 8.193605361133206e-17 -1.671783596398726e-17 -0.9960224926066351 -0.08910215609908223
12625302666.666666 -0.9967723160434978 -0.08028044574565493 8.176729993115028e-17 -1.7446384103518946e-17 8.176729993115028e-17 -1.7446384103518946e-17 -0.9967722647809671 -0.08028108222527532
12625920000.0 -0.9974439620451163 -0.0714530795668092 8.159207375942676e-17 -1.817325218860166e-17 8.159207375942676e-17 -1.817325218860166e-17 -0.9974439164214483 -0.07145371644416058
12626537333.333334 -0.9980374348702298 -0.06262011336218533 8.141039163649865e-17 -1.889838276651051e-17 8.141039163649865e-17 -1.889838276651051e-17 -0.9980373948884483 -0.06262075058731699
12627154666.666666 -0.9985526880063477 -0.05378223940239478 8.12222706122329e-17 -1.9621718545873693e-17 8.12222706122329e-17 -1.9621718545873693e-17 -0.9985526536690358 -0.05378287692533364
12627772000.0 -0.998989681071352 -0.04494015034240251 8.102772824446412e-17 -2.034320240118728e-17 8.102772824446412e-17 -2.034320240118728e-17 -0.9989896523806477 -0.044940788113156944
12628389333.333334 -0.9993483798166186 -0.03609453916783664 8.08267825973997e-17 -2.1062777377289882e-17 8.08267825973997e-17 -2.1062777377289882e-17 -0.9993483567742188 -0.03609517713640055
12629006666.666666 -0.9996287561297359 -0.027246099140166277 8.061945223996732e-17 -2.1780386693888436e-17 8.061945223996732e-17 -2.1780386693888436e-17 -0.9996287387368941 -0.02724673725652291
12629624000.0 -0.9998307880366928 -0.018395523742595055 8.040575624414415e-17 -2.2495973749987994e-17 8.040575624414415e-17 -2.2495973749987994e-17 -0.9998307762942196 -0.018396161956721
12630241333.333334 -0.9999544597036027 -0.009543506625710525 8.018571418323064e-17 -2.32094821283651e-17 8.018571418323064e-17 -2.32094821283651e-17 -0.9999544536118653 -0.009544144887579582
12630858666.666666 -0.9999997614379444 -0.0006907415532055988 7.995934613009253e-17 -2.3920855599997238e-17 7.995934613009253e-17 -2.3920855599997238e-17 -0.9999997609968685 -0.0006913798127927378
12631476000.0 -0.9999666896893251 0.008162077652892006 7.972667265535835e-17 -2.463003812849133e-17 7.972667265535835e-17 -2.463003812849133e-17 -0.9999666948983926 0.008161439445606758
12632093333.333334 -0.9998552470497553 0.017014257166057072 7.948771482558493e-17 -2.5336973874474912e-17 7.948771482558493e-17 -2.5336973874474912e-17 -0.9998552579080053 0.017013619061084687
12632710666.666666 -0.9996654422534474 0.02586510320990027 7.924249420138069e-17 -2.604160719997878e-17 7.924249420138069e-17 -2.604160719997878e-17 -0.9996654587594775 0.02586446525723884
12633328000.0 -0.9993972901761279 0.034713922112769184 7.899103283548378e-17 -2.674388267282217e-17 7.899103283548378e-17 -2.674388267282217e-17 -0.9993973123280924 0.03471328436239996
12633945333.333334 -0.999050811833877 0.043560020361687546 7.873335327081205e-17 -2.744374507094824e-17 7.873335327081205e-17 -2.744374507094824e-17 -0.9990508396294877 0.043559382863571035
12634562666.666666 -0.9986260343814785 0.05240270465693558 7.846947853847064e-17 -2.81411393867523e-17 7.846947853847064e-17 -2.81411393867523e-17 -0.9986260678180051 0.05240206746100763
12635180000.0 -0.9981229911102868 0.06124128196644309 7.819943215571968e-17 -2.88360108313981e-17 7.819943215571968e-17 -2.88360108313981e-17 -0.9981230301845588 0.06124064512261105
12635797333.333334 -0.9975417214456265 0.07007505957996288 7.792323812390123e-17 -2.9528304839119065e-17 7.792323812390123e-17 -2.9528304839119065e-17 -0.9975417661540301 0.07007442313810157
12636414666.666666 -0.9968822709437039 0.07890334516333261 7.764092092634088e-17 -3.021796707146923e-17 7.764092092634088e-17 -3.021796707146923e-17 -0.9968823212821845 0.07890270917328046
12637032000.0 -0.9961446912880183 0.0877254468129905 7.735250552619528e-17 -3.090494342159639e-17 7.735250552619528e-17 -3.090494342159639e-17 -0.996144747252081 0.08772481132454572
12637649333.333334 -0.9953290402853342 0.09654067310991894 7.705801736427063e-17 -3.158918001847277e-17 7.705801736427063e-17 -3.158918001847277e-17 -0.9953291018700432 0.09654003817283549
12638266666.666666 -0.9944353818611398 0.10534833317394661 7.675748235680837e-17 -3.227062323109447e-17 7.675748235680837e-17 -3.227062323109447e-17 -0.9944354490611201 0.1053476988379305
12638884000.0 -0.9934637860546317 0.11414773671798034 7.645092689322147e-17 -3.294921967269069e-17 7.645092689322147e-17 -3.294921967269069e-17 -0.993463858864068 0.11414710303268552
12639501333.333334 -0.9924143290132336 0.12293819410196322 7.61383778338059e-17 -3.3624916204881077e-17 7.61383778338059e-17 -3.3624916204881077e-17 -0.9924144074258728 0.12293756111698796
12640118666.666666 -0.9912870929866462 0.131719016386869 7.581986250741395e-17 -3.4297659941818624e-17 7.581986250741395e-17 -3.4297659941818624e-17 -0.9912871769957944 0.13171838415175152
12640736000.0 -0.9900821663203407 0.14048951538909005 7.549540870906799e-17 -3.496739825435754e-17 7.549540870906799e-17 -3.496739825435754e-17 -0.9900822559188677 0.1404888839533052
12641353333.333334 -0.9887996434487144 0.14924900373380995 7.516504469758762e-17 -3.563407877409429e-17 7.516504469758762e-17 -3.563407877409429e-17 -0.9887997386290529 0.14924837314676515
12641970666.666666 -0.9874396248876373 0.15799679490926982 7.482879919312607e-17 -3.629764939750156e-17 7.482879919312607e-17 -3.629764939750156e-17 -0.9874397256417826 0.15799616522030102
12642588000.0 -0.9860022172265769 0.1667322033205156 7.448670137470219e-17 -3.6958058289973395e-17 7.448670137470219e-17 -3.6958058289973395e-17 -0.9860023235460884 0.16673157457888363
12643205333.333334 -0.9844875331202744 0.17545454434296284 7.413878087769456e-17 -3.761525388985138e-17 7.413878087769456e-17 -3.761525388985138e-17 -0.9844876449962763 0.17545391659784937
12643822666.666666 -0.9828956912798814 0.1841631343762487 7.378506779128792e-17 -3.8269184912452996e-17 7.378506779128792e-17 -3.8269184912452996e-17 -0.9828958087030635 0.18416250767675268
12644440000.0 -0.9812268164636655 0.19285729089775244 7.342559265589373e-17 -3.891980035405733e-17 7.342559265589373e-17 -3.891980035405733e-17 -0.9812269394242836 0.19285666529288595
12645057333.333334 -0.9794810394672591 0.20153633251594716 7.306038646053979e-17 -3.956704949585819e-17 7.306038646053979e-17 -3.956704949585819e-17 -0.9794811679551363 0.20153570805463178
12645674666.666666 -0.9776584971133941 0.21019957902388722 7.268948064021047e-17 -4.021088190792259e-17 7.268948064021047e-17 -4.021088190792259e-17 -0.9776586311179214 0.21019895575495018
12646292000.0 -0.9757593322411214 0.2188463514527966 7.231290707315989e-17 -4.085124745310724e-17 7.231290707315989e-17 -4.085124745310724e-17 -0.9757594717512579 0.21884572942496675
12646909333.333334 -0.9737836936947228 0.22747597212475273 7.193069807820357e-17 -4.1488096290930265e-17 7.193069807820357e-17 -4.1488096290930265e-17 -0.9737838386989982 0.22747535138665725
12647526666.666666 -0.9717317363119762 0.23608776470616175 7.154288641194845e-17 -4.212137888146446e-17 7.154288641194845e-17 -4.212137888146446e-17 -0.9717318867984891 0.23608714530632144
12648144000.0 -0.9696036209119967 0.2446810542608177 7.114950526601266e-17 -4.275104598916427e-17 7.114950526601266e-17 -4.275104598916427e-17 -0.9696037768684185 0.24468043624764418
12648761333.333334 -0.9673995142827037 0.25325516730252456 7.075058826420467e-17 -4.337704868667914e-17 7.075058826420467e-17 -4.337704868667914e-17 -0.9673996756962784 0.25325455072431596
12649378666.666666 -0.9651195891677296 0.2618094318479627 7.034616945966419e-17 -4.3999338358649065e-17 7.034616945966419e-17 -4.3999338358649065e-17 -0.9651197560252751 0.26180881675290013
12649996000.0 -0.9627640242528251 0.2703431774695749 6.993628333197573e-17 -4.461786670546324e-17 6.993628333197573e-17 -4.461786670546324e-17 -0.962764196540733 0.27034256390571826
12650613333.333334 -0.9603330041519156 0.2788557353478614 6.952096478424078e-17 -4.523258574700651e-17 6.952096478424078e-17 -4.523258574700651e-17 -0.9603331818561539 0.2788551233631462
12651230666.666666 -0.9578267193926489 0.28734643832377305 6.91002491401375e-17 -4.5843447826346664e-17 6.91002491401375e-17 -4.5843447826346664e-17 -0.957826902498761 0.28734582796600566
12651848000.0 -0.9552453664013499 0.2958146209513505 6.867417214091677e-17 -4.6450405613441865e-17 6.867417214091677e-17 -4.6450405613441865e-17 -0.9552455548944604 0.29581401226820625
12652465333.333334 -0.9525891474877568 0.3042596195494718 6.82427699423915e-17 -4.705341210878364e-17 6.82427699423915e-17 -4.705341210878364e-17 -0.9525893413525671 0.30425901258848936
12653082666.666666 -0.9498582708291361 0.3126807722539478 6.780607911189341e-17 -4.765242064701158e-17 6.780607911189341e-17 -4.765242064701158e-17 -0.9498584700499286 0.3126801670625264
12653700000.0 -0.9470529504538547 0.3210774190697463 6.736413662517274e-17 -4.82473849005369e-17 6.736413662517274e-17 -4.82473849005369e-17 -0.9470531550144946 0.32107681569514207
12654317333.333334 -0.944173406224784 0.32944890192217896 6.691697986329971e-17 -4.8838258883091695e-17 6.691697986329971e-17 -4.8838258883091695e-17 -0.9441736161087186 0.32944830041150086
12654934666.666666 -0.9412198638219522 0.3377945647088272 6.646464660951321e-17 -4.942499695327762e-17 6.646464660951321e-17 -4.942499695327762e-17 -0.9412200790122135 0.3377939651090335
12655552000.0 -0.9381925547248253 0.3461137533510427 6.600717504604081e-17 -5.000755381808432e-17 6.600717504604081e-17 -5.000755381808432e-17 -0.9381927752040311 0.34611315570893736
12656169333.333334 -0.9350917161943081 0.3544058158448083 6.554460375090033e-17 -5.058588453636126e-17 6.554460375090033e-17 -5.058588453636126e-17 -0.9350919419446632 0.35440522020703724
12656786666.666666 -0.9319175912540268 0.3626701023121859 6.50769716946586e-17 -5.115994452227735e-17 6.50769716946586e-17 -5.115994452227735e-17 -0.9319178222573262 0.362669508725234
12657404000.0 -0.9286704286713015 0.37090596505219686 6.460431823715967e-17 -5.172968954875043e-17 6.460431823715967e-17 -5.172968954875043e-17 -0.9286706649089275 0.3709053735623827
12658021333.333334 -0.9253504829376823 0.3791127585914751 6.41266831242353e-17 -5.229507575083222e-17 6.41266831242353e-17 -5.229507575083222e-17 -0.9253507243906116 0.3791121692449494
12658638666.666666 -0.9219580142490367 0.3872898397348067 6.364410648438119e-17 -5.2856059629068504e-17 6.364410648438119e-17 -5.2856059629068504e-17 -0.9219582608978376 0.3872892525775471
12659256000.0 -0.9184932884850123 0.39543656761587975 6.315662882538176e-17 -5.3412598052856066e-17 6.315662882538176e-17 -5.3412598052856066e-17 -0.9184935403098478 0.39543598269368785
12659873333.333334 -0.9149565771883584 0.4035523037471157 6.266429103094768e-17 -5.396464826371802e-17 6.266429103094768e-17 -5.396464826371802e-17 -0.9149568341689883 0.4035517211056137
12660490666.666666 -0.9113481575436185 0.4116364120697915 6.216713435729819e-17 -5.451216787858111e-17 6.216713435729819e-17 -5.451216787858111e-17 -0.9113484196594014 0.41163583175441887
12661108000.0 -0.9076683123552572 0.4196882590042279 6.166520042969872e-17 -5.505511489303874e-17 6.166520042969872e-17 -5.505511489303874e-17 -0.9076685795851489 0.41968768106023624
12661725333.333334 -0.9039173300257206 0.4277072134989233 6.115853123902348e-17 -5.559344768452283e-17 6.115853123902348e-17 -5.559344768452283e-17 -0.9039176023482801 0.42770663797137476
12662342666.666666 -0.9000955045326773 0.4356926470803772 6.064716913822773e-17 -5.612712501551406e-17 6.064716913822773e-17 -5.612712501551406e-17 -0.9000957819260667 0.43569207401414034
12662960000.0 -0.8962031354059967 0.44364393390229245 6.013115683884107e-17 -5.665610603666598e-17 6.013115683884107e-17 -5.665610603666598e-17 -0.8962034178479821 0.44364336334203824
12663577333.333334 -0.892240527704336 0.45156045079449636 5.961053740740841e-17 -5.718035028992481e-17 5.961053740740841e-17 -5.718035028992481e-17 -0.8922408151722899 0.45155988278469494
12664194666.666666 -0.8882079919911948 0.4594415773118584 5.908535426190528e-17 -5.769981771161474e-17 5.908535426190528e-17 -5.769981771161474e-17 -0.8882082844620995 0.45944101189677633
12664812000.0 -0.8841058443105397 0.4672866957829939 5.855565116814098e-17 -5.821446863547538e-17 5.855565116814098e-17 -5.821446863547538e-17 -0.8841061417609852 0.4672861330066888
12665429333.333334 -0.8799344061620904 0.47509519135854167 5.802147223611917e-17 -5.872426379568295e-17 5.802147223611917e-17 -5.872426379568295e-17 -0.8799347085682807 0.4750946312648614
12666046666.666666 -0.8756940044761607 0.4828664520593084 5.748286191638258e-17 -5.922916432982895e-17 5.748286191638258e-17 -5.922916432982895e-17 -0.8756943118139139 0.482865894691886
12666664000.0 -0.8713849715878433 0.4905998688245789 5.69398649963194e-17 -5.972913178187585e-17 5.69398649963194e-17 -5.972913178187585e-17 -0.8713852838325911 0.49059931422682845
12667281333.333334 -0.8670076452112297 0.4982948355593489 5.639252659647197e-17 -6.022412810505399e-17 5.639252659647197e-17 -6.022412810505399e-17 -0.8670079623380246 0.4982942837744648
12667898666.666666 -0.8625623684127752 0.5059507491821559 5.584089216677942e-17 -6.071411566476335e-17 5.584089216677942e-17 -6.071411566476335e-17 -0.8625626903962872 0.5059502002531067
12668516000.0 -0.8580494895843574 0.5135670096724131 5.5285007482828895e-17 -6.119905724140839e-17 5.5285007482828895e-17 -6.119905724140839e-17 -0.8580498163988802 0.5135664636419401
12669133333.333334 -0.8534693624161921 0.5211430201170685 5.472491864207318e-17 -6.167891603320943e-17 5.472491864207318e-17 -6.167891603320943e-17 -0.8534696940356422 0.5211424770276816
12669750666.666666 -0.8488223458689245 0.5286781867577065 5.4160672060015946e-17 -6.215365565898477e-17 5.4160672060015946e-17 -6.215365565898477e-17 -0.8488226822668448 0.5286776466516807
12670368000.0 -0.844108804145509 0.5361719190370565 5.3592314466380915e-17 -6.262324016089257e-17 5.3592314466380915e-17 -6.262324016089257e-17 -0.8441091452950699 0.5361713819564285
