! Parameters = {f0=12700.012000; bw=77.238000; Q=6100.000000; N=10; m_0_1=1.230926; m_1_1=-0.300857; m_1_2=1.065738; m_2_2=-0.301506; m_2_3=0.702701; m_2_8=-0.001390; m_2_9=0.035314; m_3_3=-0.303443; m_3_4=0.591230; m_3_7=-0.000790; m_3_8=-0.097878; m_3_9=-0.001390; m_4_4=-0.306368; m_4_5=0.427565; m_4_6=0.002727; m_4_7=-0.118427; m_4_8=-0.000790; m_5_5=-0.305986; m_5_6=0.834920; m_5_7=0.002727; m_6_6=-0.305987; m_6_7=0.427907; m_7_7=-0.306354; m_7_8=0.591348; m_8_8=-0.303445; m_8_9=0.703014; m_9_9=-0.301511; m_9_10=1.066816; m_10_10=-0.300867; m_10_11=1.231721}
!
! Created with skrf (http://scikit-rf.org).
# Hz S RI R 50.0 
!freq ReS11 ImS11 ReS21 ImS21 ReS12 ImS12 ReS22 ImS22
12607400000.0 0.7244053143391989 -0.6893743109203877 -4.57136658402709e-17 7.94417163785045e-17 -4.57136658402709e-17 7.94417163785045e-17 0.7244057614633329 -0.6893738410750461
12608017333.333334 0.7179156928226897 -0.6961300582497151 -4.495158679100917e-17 7.985480666764751e-17 -4.495158679100917e-17 7.985480666764751e-17 0.7179161443064558 -0.6961295926363039
12608634666.666666 0.7113630703941409 -0.7028247164686614 -4.418578592058748e-17 8.026059327247264e-17 -4.418578592058748e-17 8.026059327247264e-17 0.7113635261974943 -0.7028242551276247
12609252000.0 0.7047480220809901 -0.7094576980854923 -4.34163331622557e-17 8.065904276948679e-17 -4.34163331622557e-17 8.065904276948679e-17 0.7047484821635109 -0.709457241056895
12609869333.333334 0.6980711283888553 -0.7160284210209424 -4.2643298748342756e-17 8.10501224042083e-17 -4.2643298748342756e-17 8.10501224042083e-17 0.6980715927097516 -0.7160279683444669
12610486666.666666 0.6913329752507558 -0.7225363086591373 -4.1866753203869255e-17 8.143380009382908e-17 -4.1866753203869255e-17 8.143380009382908e-17 0.6913334437688677 -0.7225358603740798
12611104000.0 0.6845341539753487 -0.7289807898985327 -4.1086767340113144e-17 8.181004442982731e-17 -4.1086767340113144e-17 8.181004442982731e-17 0.6845346266491525 -0.7289803460438009
12611721333.333334 0.6776752611953833 -0.7353612992016936 -4.030341224818733e-17 8.21788246805015e-17 -4.030341224818733e-17 8.21788246805015e-17 0.677675737982995 -0.7353608598158029
12612338666.666666 0.670756898815205 -0.7416772766450666 -3.9516759292559675e-17 8.254011079345998e-17 -3.9516759292559675e-17 8.254011079345998e-17 0.6707573796743829 -0.7416768417661359
12612956000.0 0.6637796739578038 -0.7479281679682254 -3.87268801045744e-17 8.289387339803749e-17 -3.87268801045744e-17 8.289387339803749e-17 0.6637801588459531 -0.7479277376339742
12613573333.333334 0.656744198911811 -0.754113424622263 -3.793384657595259e-17 8.324008380765039e-17 -3.793384657595259e-17 8.324008380765039e-17 0.6567446877859882 -0.754112998870009
12614190666.666666 0.6496510910775154 -0.7602325038181599 -3.713773085224803e-17 8.357871402210019e-17 -3.713773085224803e-17 8.357871402210019e-17 0.649651583894431 -0.7602320826848146
12614808000.0 0.6425009729128726 -0.7662848685742438 -3.6338605326318366e-17 8.390973672979863e-17 -3.6338605326318366e-17 8.390973672979863e-17 0.642501469628896 -0.7662844520963105
12615425333.333334 0.6352944718787336 -0.7722699877634472 -3.5536542631741565e-17 8.423312530994696e-17 -3.5536542631741565e-17 8.423312530994696e-17 0.6352949724498954 -0.7722695759770163
12616042666.666666 0.6280322203838429 -0.7781873361598571 -3.473161563623912e-17 8.454885383464051e-17 -3.473161563623912e-17 8.454885383464051e-17 0.6280327247658403 -0.778186929100604
12616660000.0 0.6207148557294092 -0.7840363944847537 -3.392389743506684e-17 8.485689707091665e-17 -3.392389743506684e-17 8.485689707091665e-17 0.6207153638776093 -0.7840359921879357
12617277333.333334 0.6133430200530254 -0.7898166494523066 -3.311346134439982e-17 8.515723048273531e-17 -3.311346134439982e-17 8.515723048273531e-17 0.613343531922469 -0.7898162519527598
12617894666.666666 0.6059173602724928 -0.7955275938144745 -3.2300380894690887e-17 8.544983023290048e-17 -3.2300380894690887e-17 8.544983023290048e-17 0.6059178758178986 -0.7955272011466102
12618512000.0 0.5984385280288741 -0.8011687264056612 -3.148472982399493e-17 8.57346731849239e-17 -3.148472982399493e-17 8.57346731849239e-17 0.5984390472046426 -0.8011683386034634
12619129333.333334 0.5909071796294851 -0.8067395521865528 -3.066658207133864e-17 8.601173690480382e-17 -3.066658207133864e-17 8.601173690480382e-17 0.5909077023897037 -0.8067391692835765
12619746666.666666 0.5833239759901484 -0.8122395822876886 -2.9846011769994285e-17 8.628099966276948e-17 -2.9846011769994285e-17 8.628099966276948e-17 0.5833245022885926 -0.812239204317053
12620364000.0 0.5756895825772534 -0.8176683340522989 -2.902309324078484e-17 8.654244043494438e-17 -2.902309324078484e-17 8.654244043494438e-17 0.5756901123673945 -0.8176679610466898
12620981333.333334 0.5680046693494349 -0.8230253310786204 -2.819790098539765e-17 8.679603890493973e-17 -2.819790098539765e-17 8.679603890493973e-17 0.5680052025844415 -0.8230249630702836
12621598666.666666 0.5602699106986158 -0.8283101032618156 -2.7370509679615334e-17 8.70417754654065e-17 -2.7370509679615334e-17 8.70417754654065e-17 0.5602704473313589 -0.8283097402825552
12622216000.0 0.5524859853910109 -0.8335221868350944 -2.654099416659534e-17 8.727963121950282e-17 -2.654099416659534e-17 8.727963121950282e-17 0.5524865253740683 -0.8335218289162702
12622833333.333334 0.5446535765073766 -0.8386611244105439 -2.570942945010527e-17 8.750958798230827e-17 -2.570942945010527e-17 8.750958798230827e-17 0.5446541197930362 -0.8386607715830687
12623450666.666666 0.5367733713832294 -0.8437264650191535 -2.487589068777624e-17 8.773162828216493e-17 -2.487589068777624e-17 8.773162828216493e-17 0.5367739179234942 -0.8437261173134897
12624068000.0 0.5288460615484831 -0.8487177641504225 -2.4040453184297747e-17 8.794573536196784e-17 -2.4040453184297747e-17 8.794573536196784e-17 0.5288466112950757 -0.8487174215965817
12624685333.333334 0.5208723426665961 -0.8536345837914763 -2.3203192384634468e-17 8.815189318038133e-17 -2.3203192384634468e-17 8.815189318038133e-17 0.520872895570962 -0.8536342464190133
12625302666.666666 0.5128529144738329 -0.858476492465303 -2.2364183867260793e-17 8.835008641298444e-17 -2.2364183867260793e-17 8.835008641298444e-17 0.5128534704871451 -0.8584761603033164
12625920000.0 0.504788480717572 -0.8632430652688031 -2.152350333730083e-17 8.854030045337363e-17 -2.152350333730083e-17 8.854030045337363e-17 0.5047890397907363 -0.863242738345931
12626537333.333334 0.49667974909474044 -0.8679338839099547 -2.0681226619757683e-17 8.872252141417622e-17 -2.0681226619757683e-17 8.872252141417622e-17 0.49668031117839795 -0.8679335622543723
12627154666.666666 0.48852743118963854 -0.8725485367445684 -1.983742965266933e-17 8.889673612801532e-17 -1.983742965266933e-17 8.889673612801532e-17 0.48852799623417126 -0.8725482203839858
12627772000.0 0.4803322424114176 -0.877086618812449 -1.8992188480271994e-17 8.906293214840574e-17 -1.8992188480271994e-17 8.906293214840574e-17 0.48033281036695286 -0.8770863077741093
12628389333.333334 0.4720949019314999 -0.8815477318728252 -1.8145579246182306e-17 8.922109775058095e-17 -1.8145579246182306e-17 8.922109775058095e-17 0.4720954727479146 -0.8815474261835025
12629006666.666666 0.46381613262016785 -0.8859314844394606 -1.729767818652226e-17 8.93712219322643e-17 -1.729767818652226e-17 8.93712219322643e-17 0.4638167062470926 -0.8859311841254565
12629624000.0 0.45549666098347724 -0.8902374918148181 -1.6448561623104746e-17 8.951329441436305e-17 -1.6448561623104746e-17 8.951329441436305e-17 0.4554972373703009 -0.89023719690196
12630241333.333334 0.44713721709920273 -0.8944653761239812 -1.5598305956548014e-17 8.96473056416102e-17 -1.5598305956548014e-17 8.96473056416102e-17 0.44713779619507693 -0.8944650866376199
12630858666.666666 0.4387385345529963 -0.8986147663476959 -1.474698765943921e-17 8.977324678313141e-17 -1.474698765943921e-17 8.977324678313141e-17 0.43873911630683987 -0.8986144823127036
12631476000.0 0.43030135037380757 -0.9026852983550314 -1.3894683269450755e-17 8.98911097329543e-17 -1.3894683269450755e-17 8.98911097329543e-17 0.43030193473431144 -0.9026850197957997
12632093333.333334 0.4218264049693848 -0.906676614935247 -1.3041469382491988e-17 9.000088711044665e-17 -1.3041469382491988e-17 9.000088711044665e-17 0.421826991885016 -0.9066763418756849
12632710666.666666 0.4133144420612242 -0.9105883658291791 -1.2187422645835274e-17 9.010257226069381e-17 -1.2187422645835274e-17 9.010257226069381e-17 0.41331503148022974 -0.9105880982927084
12633328000.0 0.4047662086192497 -0.914420207759995 -1.1332619751227306e-17 9.019615925481145e-17 -1.1332619751227306e-17 9.019615925481145e-17 0.4047668004896638 -0.9144199457695548
12633945333.333334 0.3961824547963443 -0.9181718044632908 -1.0477137428050453e-17 9.02816428901878e-17 -1.0477137428050453e-17 9.02816428901878e-17 0.39618304906598995 -0.9181715480413288
12634562666.666666 0.3875639338624652 -0.9218428267166187 -9.621052436421904e-18 9.035901869066823e-17 -9.621052436421904e-18 9.035901869066823e-17 0.38756453047895967 -0.9218425758850906
12635180000.0 0.3789114021386442 -0.9254329523683289 -8.764441560331145e-18 9.042828290666976e-17 -8.764441560331145e-18 9.042828290666976e-17 0.3789120010494046 -0.9254327071486995
12635797333.333334 0.37022561893043615 -0.9289418663659262 -7.90738160077296e-18 9.048943251523212e-17 -7.90738160077296e-18 9.048943251523212e-17 0.3702262200826835 -0.9289416267791661
12636414666.666666 0.36150734646146737 -0.932369260783636 -7.049949368871284e-18 9.054246522000443e-17 -7.049949368871284e-18 9.054246522000443e-17 0.3615079498022307 -0.932369026850218
12637032000.0 0.3527573498064685 -0.9357148348494593 -6.192221679002208e-18 9.058737945116678e-17 -6.192221679002208e-18 9.058737945116678e-17 0.35275795528259063 -0.9357146065893601
12637649333.333334 0.34397639682408265 -0.9389782949715912 -5.334275341945184e-18 9.062417436528534e-17 -5.334275341945184e-18 9.062417436528534e-17 0.3439770043822232 -0.9389780724042852
12638266666.666666 0.3351652580895324 -0.9421593547641571 -4.47618715800117e-18 9.065284984510532e-17 -4.47618715800117e-18 9.065284984510532e-17 0.3351658676761743 -0.9421591379086188
12638884000.0 0.3263247068270802 -0.9452577350723218 -3.618033910142701e-18 9.067340649927688e-17 -3.618033910142701e-18 9.067340649927688e-17 0.3263253183885337 -0.9452575239470233
12639501333.333334 0.31745551884198586 -0.9482731639968517 -2.7598923571501707e-18 9.068584566201711e-17 -2.7598923571501707e-18 9.068584566201711e-17 0.31745613232439285 -0.9482729586197598
12640118666.666666 0.3085584724526672 -0.9512053769178933 -1.9018392267864804e-18 9.069016939270728e-17 -1.9018392267864804e-18 9.069016939270728e-17 0.3085590878020062 -0.9512051773064678
12640736000.0 0.2996343484220477 -0.9540541165183086 -1.0439512088945986e-18 9.068638047542582e-17 -1.0439512088945986e-18 9.068638047542582e-17 0.2996349655841387 -0.9540539226895023
12641353333.333334 0.29068392988952657 -0.9568191328060993 -1.8630494862755658e-19 9.067448241841588e-17 -1.8630494862755658e-19 9.067448241841588e-17 0.2906845488100361 -0.9568189447763567
12641970666.666666 0.28170800230176835 -0.9595001831365032 6.710229604309436e-19 9.065447945348917e-17 6.710229604309436e-19 9.065447945348917e-17 0.28170862292621346 -0.9595000009217568
12642588000.0 0.27270735334412627 -0.9620970322331722 1.5279559830819007e-18 9.062637653536478e-17 1.5279559830819007e-18 9.062637653536478e-17 0.27270797561788046 -0.9620968558488445
12643205333.333334 0.2636827728713305 -0.9646094522088827 2.3844176493210985e-18 9.059017934094436e-17 2.3844176493210985e-18 9.059017934094436e-17 0.26368339673962765 -0.9646092816698827
12643822666.666666 0.25463505283814547 -0.9670372225855374 3.2403315611638696e-18 9.054589426852177e-17 3.2403315611638696e-18 9.054589426852177e-17 0.25463567824608446 -0.9670370579062582
12644440000.0 0.24556498723008965 -0.9693801303134497 4.0956213994221554e-18 9.049352843693055e-17 4.0956213994221554e-18 9.049352843693055e-17 0.24556561412264014 -0.9693799715077704
12645057333.333334 0.23647337199356944 -0.971637969790099 4.950210930513052e-18 9.043308968462539e-17 4.950210930513052e-18 9.043308968462539e-17 0.23647400031557597 -0.9716378168713814
12645674666.666666 0.22736100496611206 -0.9738105428781485 5.804024013231338e-18 9.036458656870124e-17 5.804024013231338e-18 9.036458656870124e-17 0.22736163466229897 -0.9738103958592357
12646292000.0 0.21822868580624025 -0.9758976589228586 6.6569846055290355e-18 9.028802836384644e-17 6.6569846055290355e-18 9.028802836384644e-17 0.21822931682121705 -0.9758975178160766
12646909333.333334 0.20907721592349193 -0.9778991347687735 7.509016771255295e-18 9.020342506123548e-17 7.509016771255295e-18 9.020342506123548e-17 0.20907784820175773 -0.9778989995859274
12647526666.666666 0.19990739840789892 -0.9798147947758397 8.360044686920047e-18 9.011078736735436e-17 8.360044686920047e-18 9.011078736735436e-17 0.19990803189384707 -0.9798146655282124
12648144000.0 0.19072003795962117 -0.9816444708347906 9.209992648416775e-18 9.001012670276536e-17 9.209992648416775e-18 9.001012670276536e-17 0.1907206725975449 -0.9816443475331454
12648761333.333334 0.1815159408182755 -0.9833880023819137 1.0058785077747336e-17 8.990145520080689e-17 1.0058785077747336e-17 8.990145520080689e-17 0.18151657655237227 -0.9833878850364901
12649378666.666666 0.1722959146922673 -0.9850452364131257 1.0906346529717618e-17 8.978478570623214e-17 1.0906346529717618e-17 8.978478570623214e-17 0.17229655146664363 -0.9850451250336386
12649996000.0 0.1630607686878533 -0.9866160274974051 1.1752601698646684e-17 8.966013177378074e-17 1.1752601698646684e-17 8.966013177378074e-17 0.1630614064465303 -0.9866159220930472
12650613333.333334 0.15381131323805575 -0.9881002377895773 1.2597475425025223e-17 8.952750766669255e-17 1.2597475425025223e-17 8.952750766669255e-17 0.15381195192497327 -0.9881001383690139
12651230666.666666 0.1445483600317369 -0.9894977370423692 1.3440892702181251e-17 8.938692835515569e-17 1.3440892702181251e-17 8.938692835515569e-17 0.14454899959075884 -0.9894976436137406
12651848000.0 0.13527272194217402 -0.9908084026178776 1.428277868294223e-17 8.923840951468968e-17 1.428277868294223e-17 8.923840951468968e-17 0.13527336231709336 -0.9908083151887974
12652465333.333334 0.12598521295580875 -0.9920321194983125 1.512305868623203e-17 8.908196752447371e-17 1.512305868623203e-17 8.908196752447371e-17 0.1259858540903523 -0.9920320380758674
12653082666.666666 0.11668664810090071 -0.9931687802960846 1.596165820369636e-17 8.891761946560611e-17 1.596165820369636e-17 8.891761946560611e-17 0.11668728993873403 -0.9931687048868325
12653700000.0 0.10737784337580646 -0.9942182852632497 1.6798502906312308e-17 8.874538311929967e-17 1.6798502906312308e-17 8.874538311929967e-17 0.10737848586053911 -0.9942182158732218
12654317333.333334 0.09805961567759769 -0.9951805423002388 1.763351865091907e-17 8.856527696502793e-17 1.763351865091907e-17 8.856527696502793e-17 0.0980602587527879 -0.9951804789349372
12654934666.666666 0.08873278273017615 -0.9960554669639619 1.846663148681245e-17 8.83773201785928e-17 1.846663148681245e-17 8.83773201785928e-17 0.08873342633933567 -0.9960554096283581
12655552000.0 0.07939816301259851 -0.9968429824752039 1.9297767662269266e-17 8.818153263014063e-17 1.9297767662269266e-17 8.818153263014063e-17 0.07939880709919807 -0.996842931173743
12656169333.333334 0.07005657568733618 -0.9975430197253649 2.0126853631044074e-17 8.797793488211954e-17 2.0126853631044074e-17 8.797793488211954e-17 0.07005722019480981 -0.9975429744619584
12656786666.666666 0.0607088405281904 -0.9981555172825317 2.0953816058877403e-17 8.776654818716775e-17 2.0953816058877403e-17 8.776654818716775e-17 0.06070948539994085 -0.9981554780605624
12657404000.0 0.05135577784857994 -0.9986804213968566 2.1778581829970155e-17 8.75473944859444e-17 2.1778581829970155e-17 8.75473944859444e-17 0.051356423027983523 -0.9986803882191769
12658021333.333334 0.04199820842932722 -0.9991176860052887 2.2601078053430758e-17 8.732049640490041e-17 2.2601078053430758e-17 8.732049640490041e-17 0.04199885385973879 -0.9991176588742205
12658638666.666666 0.032636953446857506 -0.9994672727356029 2.342123206968251e-17 8.708587725399373e-17 2.342123206968251e-17 8.708587725399373e-17 0.03263759907161538 -0.9994672516529371
12659256000.0 0.023272834400937522 -0.9997291509097763 2.423897145690722e-17 8.684356102432902e-17 2.423897145690722e-17 8.684356102432902e-17 0.023273480163368526 -0.9997291358767736
12659873333.333334 0.013906673042669725 -0.9999032975466773 2.5054224037395666e-17 8.65935723857551e-17 2.5054224037395666e-17 8.65935723857551e-17 0.013907318886094118 -0.999903288564067
12660490666.666666 0.004539291302464519 -0.9999896973640814 2.5866917883896268e-17 8.633593668439816e-17 2.5866917883896268e-17 8.633593668439816e-17 0.0045399371702009635 -0.9999896944320605
12661108000.0 -0.0048284887822874455 -0.9999883427800126 2.6676981325985394e-17 8.607067994012039e-17 2.6676981325985394e-17 8.607067994012039e-17 -0.004827842946916868 -0.9999883458982485
12661725333.333334 -0.01419584513912601 -0.9998992339134094 2.7484342956328882e-17 8.579782884394507e-17 2.7484342956328882e-17 8.579782884394507e-17 -0.014195199392790857 -0.9998992430810387
12662342666.666666 -0.0235619557328901 -0.9997223785841136 2.8288931636993504e-17 8.551741075539924e-17 2.8288931636993504e-17 8.551741075539924e-17 -0.0235613101322466 -0.9997223937997427
12662960000.0 -0.03292599863762836 -0.9994577923121872 2.909067650567822e-17 8.522945369981483e-17 2.909067650567822e-17 8.522945369981483e-17 -0.032925353239314434 -0.9994578135738907
12663577333.333334 -0.04228715210892639 -0.9991054983165457 2.9889506981957243e-17 8.493398636555833e-17 2.9889506981957243e-17 8.493398636555833e-17 -0.04228650696955667 -0.9991055256218683
12664194666.666666 -0.05164459465590553 -0.9986655275129224 3.0685352773471215e-17 8.46310381012104e-17 3.0685352773471215e-17 8.46310381012104e-17 -0.0516439498320664 -0.9986655608588784
12664812000.0 -0.060997505113369835 -0.9981379185111545 3.1478143882090325e-17 8.43206389126882e-17 3.1478143882090325e-17 8.43206389126882e-17 -0.06099686066161452 -0.9981379578942297
12665429333.333334 -0.07034506271378257 -0.9975227176117997 3.2267810610072655e-17 8.400281946030056e-17 3.2267810610072655e-17 8.400281946030056e-17 -0.07034441869062605 -0.9975227630279488
12666046666.666666 -0.07968644715932131 -0.9968199788020713 3.305428356615523e-17 8.367761105576122e-17 3.305428356615523e-17 8.367761105576122e-17 -0.0796858036212355 -0.9968200302467208
12666664000.0 -0.08902083869408997 -0.996029763751082 3.383749367166722e-17 8.334504565912321e-17 3.383749367166722e-17 8.334504565912321e-17 -0.08902019569749883 -0.9960298212191314
12667281333.333334 -0.0983474181755756 -0.9951521418044752 3.461737216653991e-17 8.300515587568746e-17 3.461737216653991e-17 8.300515587568746e-17 -0.09834677577684983 -0.995152205290293
12667898666.666666 -0.10766536714698506 -0.9941871899782959 3.5393850615365904e-17 8.265797495282139e-17 3.5393850615365904e-17 8.265797495282139e-17 -0.1076647254024376 -0.9941872594757254
12668516000.0 -0.11697386790898416 -0.9931349929522411 3.6166860913381856e-17 8.230353677673926e-17 3.6166860913381856e-17 8.230353677673926e-17 -0.11697322687486493 -0.9931350684545972
12669133333.333334 -0.12627210359111568 -0.9919956430622617 3.693633529239895e-17 8.19418758692372e-17 3.693633529239895e-17 8.19418758692372e-17 -0.12627146332360692 -0.9919957245623342
12669750666.666666 -0.13555925822393675 -0.9907692402924163 3.770220632676596e-17 8.157302738434345e-17 3.770220632676596e-17 8.157302738434345e-17 -0.13555861877914782 -0.9907693277824688
12670368000.0 -0.14483451681042583 -0.9894558922661107 3.846440693924575e-17 8.119702710493661e-17 3.846440693924575e-17 8.119702710493661e-17 -0.14483387824438865 -0.9894559857378828
