! Parameters = {f0=12700.012000; bw=77.238000; Q=6100.000000; N=10; m_0_1=1.290786; m_1_1=0.597041; m_1_2=1.125598; m_2_2=0.596392; m_2_3=0.762561; m_2_8=0.001603; m_2_9=0.038307; m_3_3=0.594455; m_3_4=0.651090; m_3_7=0.002203; m_3_8=-0.094885; m_3_9=0.001603; m_4_4=0.591530; m_4_5=0.487425; m_4_6=0.005720; m_4_7=-0.115434; m_4_8=0.002203; m_5_5=0.591912; m_5_6=0.894780; m_5_7=0.005720; m_6_6=0.591911; m_6_7=0.487767; m_7_7=0.591544; m_7_8=0.651208; m_8_8=0.594453; m_8_9=0.762874; m_9_9=0.596387; m_9_10=1.126676; m_10_10=0.597031; m_10_11=1.291581}
!
! Created with skrf (http://scikit-rf.org).
# Hz S RI R 50.0 
!freq ReS11 ImS11 ReS21 ImS21 ReS12 ImS12 ReS22 ImS22
12607400000.0 0.7144634987751526 0.6996727155733493 -1.0770536800970612e-16 -5.702476647373326e-17 -1.0770536800970612e-16 -5.702476647373326e-17 0.7144630229806229 0.6996732014256423
12608017333.333334 0.7222115818807272 0.691672199092284 -1.0831751964749458e-16 -5.58011563901539e-17 -1.0831751964749458e-16 -5.58011563901539e-17 0.7222111115497679 0.6916726901894176
12608634666.666666 0.7298700810973829 0.6835858868633231 -1.0891578048031888e-16 -5.457099292847948e-17 -1.0891578048031888e-16 -5.457099292847948e-17 0.7298696162877979 0.6835863831438715
12609252000.0 0.7374380464568782 0.6754147819212143 -1.0950008056146376e-16 -5.333443366708855e-17 -1.0950008056146376e-16 -5.333443366708855e-17 0.7374375872257779 0.675415283323113
12609869333.333334 0.7449145392208436 0.6671598978185188 -1.1007035173052352e-16 -5.2091636928455724e-17 -1.1007035173052352e-16 -5.2091636928455724e-17 0.7449140856246433 0.6671604042790752
12610486666.666666 0.7522986319972723 0.6588222584998554 -1.1062652762127747e-16 -5.084276175894163e-17 -1.1062652762127747e-16 -5.084276175894163e-17 0.7522981840916823 0.6588227699557557
12611104000.0 0.7595894088556066 0.6504028981748221 -1.1116854366937206e-16 -4.958796790842069e-17 -1.1116854366937206e-16 -4.958796790842069e-17 0.7595889666956258 0.6504034145621389
12611721333.333334 0.766785965440219 0.6419028611898603 -1.1169633711972444e-16 -4.832741580993543e-17 -1.1169633711972444e-16 -4.832741580993543e-17 0.7667855290801281 0.6419033824440605
12612338666.666666 0.7738874090827221 0.633323201898564 -1.1220984703372925e-16 -4.706126655919703e-17 -1.1220984703372925e-16 -4.706126655919703e-17 0.7738869785760772 0.6333237279545175
12612956000.0 0.7808928589126379 0.6246649845309604 -1.1270901429623184e-16 -4.578968189401325e-17 -1.1270901429623184e-16 -4.578968189401325e-17 0.7808924343122641 0.6246655153229481
12613573333.333334 0.7878014459666096 0.6159292830615682 -1.1319378162224545e-16 -4.4512824173701196e-17 -1.1319378162224545e-16 -4.4512824173701196e-17 0.7878010273245938 0.6159298185232893
12614190666.666666 0.7946123132963137 0.6071171810760259 -1.136640935634601e-16 -4.3230856358369035e-17 -1.136640935634601e-16 -4.3230856358369035e-17 0.7946119006639992 0.6071177211406076
12614808000.0 0.8013246160746148 0.5982297716368604 -1.1411989651450968e-16 -4.194394198814933e-17 -1.1411989651450968e-16 -4.194394198814933e-17 0.8013242095025943 0.5982303162368653
12615425333.333334 0.8079375217004818 0.5892681571477464 -1.1456113871900075e-16 -4.065224516237706e-17 -1.1456113871900075e-16 -4.065224516237706e-17 0.8079371212385921 0.5892687062151819
12616042666.666666 0.814450209902213 0.5802334492168301 -1.149877702753053e-16 -3.935593051870889e-17 -1.149877702753053e-16 -3.935593051870889e-17 0.8144498155995267 0.5802340026831547
12616660000.0 0.8208618728391299 0.5711267685189112 -1.153997431421277e-16 -3.805516321215323e-17 -1.153997431421277e-16 -3.805516321215323e-17 0.8208614847439517 0.5711273263150455
12617277333.333334 0.8271717152019195 0.5619492446562514 -1.15797011143826e-16 -3.675010889406952e-17 -1.15797011143826e-16 -3.675010889406952e-17 0.82717133336178 0.5619498067125859
12617894666.666666 0.8333789543110723 0.5527020160187598 -1.1617952997549052e-16 -3.544093369113314e-17 -1.1617952997549052e-16 -3.544093369113314e-17 0.8333785787727203 0.5527025822651624
12618512000.0 0.8394828202142537 0.5433862296423608 -1.1654725720780993e-16 -3.412780418416606e-17 -1.1654725720780993e-16 -3.412780418416606e-17 0.8394824510236528 0.5433868000081875
12619129333.333334 0.8454825557815415 0.5340030410671183 -1.169001522916656e-16 -3.281088738703112e-17 -1.169001522916656e-16 -3.281088738703112e-17 0.8454821929838632 0.5340036154812206
12619746666.666666 0.8513774167994518 0.5245536141937348 -1.1723817656251044e-16 -3.149035072540034e-17 -1.1723817656251044e-16 -3.149035072540034e-17 0.8513770604390707 0.5245541925844694
12620364000.0 0.8571666720633437 0.5150391211390365 -1.1756129324450789e-16 -3.016636201548321e-17 -1.1756129324450789e-16 -3.016636201548321e-17 0.8571663221838303 0.5150397034342733
12620981333.333334 0.8628496034679319 0.505460742090868 -1.1786946745441417e-16 -2.8839089442773593e-17 -1.1786946745441417e-16 -2.8839089442773593e-17 0.8628492601120503 0.5054613282180005
12621598666.666666 0.8684255060964751 0.4958196651615373 -1.1816266620523926e-16 -2.7508701540695785e-17 -1.1816266620523926e-16 -2.7508701540695785e-17 0.8684251693061752 0.4958202550474904
12622216000.0 0.8738936883082367 0.4861170862403877 -1.184408584096606e-16 -2.617536716923443e-17 -1.184408584096606e-16 -2.617536716923443e-17 0.8738933581246502 0.4861176798116273
12622833333.333334 0.8792534718241916 0.4763542088456064 -1.187040148831949e-16 -2.4839255493538646e-17 -1.187040148831949e-16 -2.4839255493538646e-17 0.8792531482876265 0.4763548060281482
12623450666.666666 0.8845041918112055 0.46653224397486626 -1.189521083471259e-16 -2.3500535962516494e-17 -1.189521083471259e-16 -2.3500535962516494e-17 0.8845038749611418 0.46653284469428585
12624068000.0 0.8896451969645268 0.4566524099550615 -1.1918511343120249e-16 -2.215937828734109e-17 -1.1918511343120249e-16 -2.215937828734109e-17 0.8896448868396115 0.4566530141365029
12624685333.333334 0.8946758495885484 0.44671593229123513 -1.1940300667608626e-16 -2.081595241997601e-17 -1.1940300667608626e-16 -2.081595241997601e-17 0.8946755462265888 0.4467165398594194
12625302666.666666 0.8995955256758554 0.43672404351466654 -1.196057665355523e-16 -1.9470428531716325e-17 -1.196057665355523e-16 -1.9470428531716325e-17 0.8995952291138184 0.43672465439390323
12625920000.0 0.90440361498478 0.4266779830296827 -1.1979337337846624e-16 -1.8122976991594646e-17 -1.1979337337846624e-16 -1.8122976991594646e-17 0.9044033252587862 0.4266785971438783
12626537333.333334 0.9090995211148896 0.4165789969603569 -1.199658094905e-16 -1.6773768344900255e-17 -1.199658094905e-16 -1.6773768344900255e-17 0.9090992382602044 0.41657961423302237
12627154666.666666 0.9136826615811044 0.40642833799562716 -1.2012305907561475e-16 -1.5422973291616033e-17 -1.2012305907561475e-16 -1.5422973291616033e-17 0.9136823856321409 0.4064289583498908
12627772000.0 0.9181524678859898 0.39622726523383645 -1.2026510825730652e-16 -1.4070762664810433e-17 -1.2026510825730652e-16 -1.4070762664810433e-17 0.9181521988763007 0.39622788859245156
12628389333.333334 0.922508385590073 0.3859770440269919 -1.2039194507959453e-16 -1.2717307409140524e-17 -1.2039194507959453e-16 -1.2717307409140524e-17 0.9225081235523467 0.3859776703123465
12629006666.666666 0.9267498743808703 0.3756789458232383 -1.2050355950778487e-16 -1.1362778559199083e-17 -1.2050355950778487e-16 -1.1362778559199083e-17 0.9267496193469257 0.3756795749573644
12629624000.0 0.9308764081396893 0.3653342480096397 -1.2059994342897778e-16 -1.000734721798531e-17 -1.2059994342897778e-16 -1.000734721798531e-17 0.930876160140476 0.36533487991422464
12630241333.333334 0.934887475007038 0.3549442337533929 -1.2068109065234088e-16 -8.65118453529666e-18 -1.2068109065234088e-16 -8.65118453529666e-18 0.9348872340726285 0.35494486834978756
12630858666.666666 0.9387825774460178 0.34451019184289844 -1.2074699690913526e-16 -7.294461686184936e-18 -1.2074699690913526e-16 -7.294461686184936e-18 0.9387823436056059 0.3445108290521274
12631476000.0 0.9425612323041204 0.3340334165276851 -1.207976598525055e-16 -5.937349849324978e-18 -1.207976598525055e-16 -5.937349849324978e-18 0.942561005586017 0.33403405627045674
12632093333.333334 0.9462229708730968 0.32351520735802936 -1.2083307905702035e-16 -4.58002018550455e-18 -1.2083307905702035e-16 -4.58002018550455e-18 0.9462227513047277 0.32351584955474594
12632710666.666666 0.9497673389470863 0.31295686902381453 -1.208532560179772e-16 -3.2226438160598003e-18 -1.208532560179772e-16 -3.2226438160598003e-18 0.9497671265549862 0.312957513594581
12633328000.0 0.9531938968790583 0.30235971119236943 -1.2085819415046293e-16 -1.865391801296489e-18 -1.2085819415046293e-16 -1.865391801296489e-18 0.9531936916888705 0.30236035805700484
12633945333.333334 0.9565022196352408 0.2917250483463409 -1.2084789878817208e-16 -5.084351190064296e-19 -1.2084789878817208e-16 -5.084351190064296e-19 0.956502021671712 0.2917256974243869
12634562666.666666 0.9596918968478623 0.28105419962058986 -1.2082237718198658e-16 8.480553570453892e-19 -1.2082237718198658e-16 8.480553570453892e-19 0.9596917061348408 0.28105485083132203
12635180000.0 0.9627625328660933 0.2703484886384289 -1.2078163849831204e-16 2.2039088786224874e-18 -1.2078163849831204e-16 2.2039088786224874e-18 0.9627623494265256 0.27034914190086584
12635797333.333334 0.9657137468051089 0.2596092433474926 -1.2072569381717474e-16 3.558954844470306e-18 -1.2072569381717474e-16 3.558954844470306e-18 0.9657135706610365 0.2596098985804061
12636414666.666666 0.9685451725932767 0.2488377958552087 -1.206545561300787e-16 4.913022821725591e-18 -1.206545561300787e-16 4.913022821725591e-18 0.9685450037658365 0.24883845297713497
12637032000.0 0.9712564590176623 0.2380354822632349 -1.2056824033762118e-16 6.265942567361381e-18 -1.2056824033762118e-16 6.265942567361381e-18 0.9712562975270799 0.23803614119248326
12637649333.333334 0.9738472697675336 0.22720364250191732 -1.2046676324686982e-16 7.617544049534511e-18 -1.2046676324686982e-16 7.617544049534511e-18 0.9738471156331219 0.22720430315658074
12638266666.666666 0.9763172834760704 0.21634362016414094 -1.2035014356850152e-16 8.967657468915368e-18 -1.2035014356850152e-16 8.967657468915368e-18 0.9763171367162287 0.21634428246210644
12638884000.0 0.9786661937602623 0.2054567623385022 -1.202184019137005e-16 1.0316113280007414e-17 -1.202184019137005e-16 1.0316113280007414e-17 0.9786660543924743 0.2054574261974613
12639501333.333334 0.980893709258902 0.1945444194422702 -1.200715607908191e-16 1.166274221239897e-17 -1.200715607908191e-16 1.166274221239897e-17 0.9808935772997328 0.19454508477972887
12640118666.666666 0.9829995536686766 0.183607945054131 -1.1990964460180523e-16 1.30073752919483e-17 -1.1990964460180523e-16 1.30073752919483e-17 0.9829994291337688 0.1836086117874194
12640736000.0 0.9849834657785608 0.17264869574564537 -1.1973267963837912e-16 1.4349843862032025e-17 -1.1973267963837912e-16 1.4349843862032025e-17 0.9849833486826367 0.17264936379192908
12641353333.333334 0.9868451995020545 0.16166803091387297 -1.1954069407799687e-16 1.568997960455813e-17 -1.1954069407799687e-16 1.568997960455813e-17 0.9868450898589112 0.1616687001901625
12641970666.666666 0.9885845239078478 0.150667312611968 -1.1933371797955188e-16 1.7027614561132113e-17 -1.1933371797955188e-16 1.7027614561132113e-17 0.9885844217303571 0.15066798303512965
12642588000.0 0.9902012232484015 0.13964790538059274 -1.1911178327885938e-16 1.8362581154030265e-17 -1.1911178327885938e-16 1.8362581154030265e-17 0.9902011285485088 0.13964857686735865
12643205333.333334 0.9916950969867042 0.12861117607871483 -1.1887492378390157e-16 1.9694712207154197e-17 -1.1887492378390157e-16 1.9694712207154197e-17 0.9916950097754239 0.12861184854569307
12643822666.666666 0.9930659598211822 0.11755849371377898 -1.1862317516983173e-16 2.1023840966967097e-17 -1.1862317516983173e-16 2.1023840966967097e-17 0.9930658801086016 0.11755916707746462
12644440000.0 0.9943136417086572 0.1064912292721195 -1.1835657497375658e-16 2.2349801123304545e-17 -1.1835657497375658e-16 2.2349801123304545e-17 0.9943135695039307 0.1064919034489042
12645057333.333334 0.9954379878854313 0.09541075554895792 -1.1807516258927864e-16 2.3672426830161715e-17 -1.1807516258927864e-16 2.3672426830161715e-17 0.995437923196782 0.09541143045514085
12645674666.666666 0.99643885888651 0.084318446977923 -1.1777897926081184e-16 2.4991552726390632e-17 -1.1777897926081184e-16 2.4991552726390632e-17 0.9964388017212279 0.08431912252972093
12646292000.0 0.9973161305628935 0.07321567946059196 -1.1746806807765266e-16 2.630701395638828e-17 -1.1746806807765266e-16 2.630701395638828e-17 0.9973160809273348 0.07321635557414984
12646909333.333334 0.9980696940969633 0.062103830195992575 -1.1714247396784787e-16 2.761864619059628e-17 -1.1714247396784787e-16 2.761864619059628e-17 0.9980696519965496 0.0621045067873938
12647526666.666666 0.9986994560159951 0.05098427750957533 -1.1680224369180345e-16 2.892628564605283e-17 -1.1680224369180345e-16 2.892628564605283e-17 0.9986994214552127 0.05098495449485225
12648144000.0 0.9992053382037464 0.03985840068235807 -1.1644742583568325e-16 3.0229769106794723e-17 -1.1644742583568325e-16 3.0229769106794723e-17 0.9992053111861458 0.03985907797750234
12648761333.333334 0.9995872779101452 0.02872757977978156 -1.1607807080457638e-16 3.152893394418965e-17 -1.1607807080457638e-16 3.152893394418965e-17 0.9995872584383422 0.02872825730075468
12649378666.666666 0.9998452277590771 0.0175931954806102 -1.1569423081544225e-16 3.2823618137180467e-17 -1.1569423081544225e-16 3.2823618137180467e-17 0.9998452158347482 0.017593873143353752
12649996000.0 0.9999791557542556 0.006456628905614097 -1.1529595988981416e-16 3.4113660292497546e-17 -1.1529595988981416e-16 3.4113660292497546e-17 0.9999791513781453 0.0064573066260604
12650613333.333334 0.9999890452832015 -0.0046807385538600145 -1.1488331384629953e-16 3.539889966470823e-17 -1.1488331384629953e-16 3.539889966470823e-17 0.9999890484551155 -0.00468006085977766
12651230666.666666 0.9998748951192951 -0.01581752540689719 -1.1445635029284522e-16 3.6679176176223533e-17 -1.1445635029284522e-16 3.6679176176223533e-17 0.9998749058381032 -0.015816847823233997
12651848000.0 0.9996367194219293 -0.02695235023485891 -1.1401512861877463e-16 3.795433043722173e-17 -1.1401512861877463e-16 3.795433043722173e-17 0.9996367376855655 -0.026951672845648186
12652465333.333334 0.9992745477347535 -0.038083831862394626 -1.1355970998661926e-16 3.922420376543592e-17 -1.1355970998661926e-16 3.922420376543592e-17 0.9992745735402165 -0.03808315475163737
12653082666.666666 0.9987884249820175 -0.049210589528679106 -1.1309015732372657e-16 4.048863820585451e-17 -1.1309015732372657e-16 4.048863820585451e-17 0.9987884583253709 -0.049209912780333605
12653700000.0 0.9981784114629804 -0.06033124305913792 -1.1260653531362438e-16 4.174747655038972e-17 -1.1260653531362438e-16 4.174747655038972e-17 0.9981784523393527 -0.060330566757109266
12654317333.333334 0.9974445828444499 -0.07144441303616282 -1.1210891038721335e-16 4.3000562357319313e-17 -1.1210891038721335e-16 4.3000562357319313e-17 0.9974446312480354 -0.07144373726429255
12654934666.666666 0.9965870301513904 -0.08254872097041512 -1.1159735071369662e-16 4.424773997074923e-17 -1.1159735071369662e-16 4.424773997074923e-17 0.9965870860754522 -0.08254804581247095
12655552000.0 0.9956058597556193 -0.09364278947198501 -1.1107192619131698e-16 4.5488854539905126e-17 -1.1107192619131698e-16 4.5488854539905126e-17 0.9956059231924865 -0.09364211501165022
12656169333.333334 0.9945011933626331 -0.104725242420904 -1.1053270843789296e-16 4.6723752038287336e-17 -1.1053270843789296e-16 4.6723752038287336e-17 0.9945012643037062 -0.1047245687417674
12656786666.666666 0.9932731679965056 -0.11579470513803948 -1.0997977078110537e-16 4.7952279282802607e-17 -1.0997977078110537e-16 4.7952279282802607e-17 0.9932732464322512 -0.11579403232358446
12657404000.0 0.9919219359828716 -0.12684980455566663 -1.0941318824860485e-16 4.91742839527034e-17 -1.0941318824860485e-16 4.91742839527034e-17 0.9919220219028312 -0.12684913268926148
12658021333.333334 0.9904476649300623 -0.13788916938761672 -1.0883303755789155e-16 5.038961460845186e-17 -1.0883303755789155e-16 5.038961460845186e-17 0.9904477583228481 -0.13788849855250387
12658638666.666666 0.9888505377083019 -0.14891143029942883 -1.0823939710600518e-16 5.159812071042553e-17 -1.0823939710600518e-16 5.159812071042553e-17 0.9888506385616019 -0.1489107605787148
12659256000.0 0.9871307524270004 -0.15991522007840092 -1.0763234695897042e-16 5.279965263757906e-17 -1.0763234695897042e-16 5.279965263757906e-17 0.9871308607275775 -0.15991455155504586
12659873333.333334 0.9852885224102255 -0.1708991738028423 -1.0701196884107736e-16 5.3994061705896947e-17 -1.0701196884107736e-16 5.3994061705896947e-17 0.98528863814392 -0.17089850655964967
12660490666.666666 0.9833240761702207 -0.18186192901154932 -1.063783461239453e-16 5.518120018674922e-17 -1.063783461239453e-16 5.518120018674922e-17 0.9833241993219528 -0.18186126313115583
12661108000.0 0.9812376573790219 -0.19280212587300194 -1.0573156381535056e-16 5.636092132517958e-17 -1.0573156381535056e-16 5.636092132517958e-17 0.9812377879327933 -0.19280146143786714
12661725333.333334 0.9790295248383207 -0.20371840735356317 -1.0507170854791527e-16 5.753307935794642e-17 -1.0507170854791527e-16 5.753307935794642e-17 0.9790296627772165 -0.2037177444459594
12662342666.666666 0.9766999524472656 -0.2146094193863098 -1.0439886856753106e-16 5.869752953155205e-17 -1.0439886856753106e-16 5.869752953155205e-17 0.9767000977534565 -0.21460875808831192
12662960000.0 0.9742492291685614 -0.22547381103863032 -1.0371313372162692e-16 5.985412812005967e-17 -1.0371313372162692e-16 5.985412812005967e-17 0.9742493818233061 -0.22547315143210545
12663577333.333334 0.971677658992577 -0.23631023468001758 -1.0301459544722945e-16 6.100273244279223e-17 -1.0301459544722945e-16 6.100273244279223e-17 0.9716778189762247 -0.23630957684661516
12664194666.666666 0.9689855608996566 -0.24711734614914757 -1.0230334675881474e-16 6.214320088191627e-17 -1.0230334675881474e-16 6.214320088191627e-17 0.9689857281916491 -0.24711669017028914
12664812000.0 0.9661732688205735 -0.25789380492052755 -1.0157948223598308e-16 6.327539289985544e-17 -1.0157948223598308e-16 6.327539289985544e-17 0.9661734433994487 -0.2578931508773966
12665429333.333334 0.9632411315950619 -0.26863827427096965 -1.0084309801092865e-16 6.43991690565817e-17 -1.0084309801092865e-16 6.43991690565817e-17 0.9632413134384548 -0.26863762224450166
12666046666.666666 0.960189512928601 -0.27934942144517855 -1.000942917557413e-16 6.551439102672727e-17 -1.000942917557413e-16 6.551439102672727e-17 0.9601897020132488 -0.27934877151605114
12666664000.0 0.957018791347244 -0.2900259178212882 -9.93331626694685e-17 6.662092161662607e-17 -9.93331626694685e-17 6.662092161662607e-17 0.9570189876489882 -0.290025270069911
12667281333.333334 0.9537293601507248 -0.3006664390754463 -9.855981146506552e-17 6.771862478109299e-17 -9.855981146506552e-17 6.771862478109299e-17 0.9537295636445137 -0.3006657935819509
12667898666.666666 0.9503216273636191 -0.3112696653462755 -9.777434035608615e-17 6.880736564016192e-17 -9.777434035608615e-17 6.880736564016192e-17 0.950321838023512 -0.3112690221905058
12668516000.0 0.9467960156847542 -0.3218342813985088 -9.697685304322673e-17 6.988701049561361e-17 -9.697685304322673e-17 6.988701049561361e-17 0.9467962334839228 -0.32183364066001047
12669133333.333334 0.9431529624347953 -0.33235897678607834 -9.61674547007076e-17 7.095742684732452e-17 -9.61674547007076e-17 7.095742684732452e-17 0.9431531873455297 -0.33235833854409014
12669750666.666666 0.939392919501985 -0.34284244601471997 -9.534625196241759e-17 7.20184834095348e-17 -9.534625196241759e-17 7.20184834095348e-17 0.9393931514956949 -0.34284181034816286
12670368000.0 0.9355163532860591 -0.35328338870398696 -9.451335290792656e-17 7.307005012689422e-17 -9.451335290792656e-17 7.307005012689422e-17 0.9355165923332796 -0.353282755691455
