! Parameters = {f0=12700.012000; bw=77.238000; Q=6100.000000; N=10; m_0_1=1.169064; m_1_1=-1.228785; m_1_2=1.003876; m_2_2=-1.229434; m_2_3=0.640839; m_2_8=-0.004483; m_2_9=0.032221; m_3_3=-1.231371; m_3_4=0.529368; m_3_7=-0.003883; m_3_8=-0.100971; m_3_9=-0.004483; m_4_4=-1.234296; m_4_5=0.365703; m_4_6=-0.000366; m_4_7=-0.121520; m_4_8=-0.003883; m_5_5=-1.233914; m_5_6=0.773058; m_5_7=-0.000366; m_6_6=-1.233915; m_6_7=0.366045; m_7_7=-1.234282; m_7_8=0.529486; m_8_8=-1.231373; m_8_9=0.641152; m_9_9=-1.229439; m_9_10=1.004954; m_10_10=-1.228795; m_10_11=1.169859}
!
! Created with skrf (http://scikit-rf.org).
# Hz S RI R 50.0 
!freq ReS11 ImS11 ReS21 ImS21 ReS12 ImS12 ReS22 ImS22
12607400000.0 0.46540554960363284 -0.8850975507806988 -1.3049502592463489e-17 6.569556144374087e-17 -1.3049502592463489e-17 6.569556144374087e-17 0.4654060949152803 -0.885097264042523
12608017333.333334 0.45871962277283906 -0.888581064215862 -1.2545563669586244e-17 6.578029942986025e-17 -1.2545563669586244e-17 6.578029942986025e-17 0.45872017020388206 -0.88858078161075
12608634666.666666 0.4520076239337401 -0.8920140738271028 -1.2041092008288974e-17 6.586117587832864e-17 -1.2041092008288974e-17 6.586117587832864e-17 0.4520081734528582 -0.892013795370711
12609252000.0 0.4452699345727937 -0.8953963844942582 -1.1536117167324064e-17 6.593818759654506e-17 -1.1536117167324064e-17 6.593818759654506e-17 0.4452704861485513 -0.8953961102020059
12609869333.333334 0.43850693763651455 -0.8987278039787664 -1.1030668723134775e-17 6.601133161793326e-17 -1.1030668723134775e-17 6.601133161793326e-17 0.438507491237362 -0.8987275338658345
12610486666.666666 0.431719017509989 -0.9020081429344533 -1.05247762681231e-17 6.608060520202685e-17 -1.05247762681231e-17 6.608060520202685e-17 0.43171957310426456 -0.9020078770157838
12611104000.0 0.4249065599946698 -0.9052372149184691 -1.0018469408917298e-17 6.614600583454068e-17 -1.0018469408917298e-17 6.614600583454068e-17 0.42490711755060234 -0.9052369532087654
12611721333.333334 0.4180699522867315 -0.9084148364017515 -9.511777764656253e-18 6.620753122742686e-17 -9.511777764656253e-18 6.620753122742686e-17 0.4180705117724407 -0.9084145789154746
12612338666.666666 0.41120958295498544 -0.9115408267794907 -9.004730965256832e-18 6.626517931892011e-17 -9.004730965256832e-18 6.626517931892011e-17 0.4112101443384848 -0.9115405735308616
12612956000.0 0.40432584191858917 -0.9146150083814917 -8.497358649681262e-18 6.631894827356938e-17 -8.497358649681262e-18 6.631894827356938e-17 0.40432640516778706 -0.9146147593844877
12613573333.333334 0.3974191204253225 -0.917637206482068 -7.989690464221684e-18 6.636883648225502e-17 -7.989690464221684e-18 6.636883648225502e-17 0.3974196855080256 -0.9176369617504262
12614190666.666666 0.39048981102888763 -0.9206072493101901 -7.481756060767917e-18 6.641484256219395e-17 -7.481756060767917e-18 6.641484256219395e-17 0.39049037791279995 -0.9206070088574004
12614808000.0 0.3835383075669056 -0.9235249680591014 -6.973585095075617e-18 6.64569653569324e-17 -6.973585095075617e-18 6.64569653569324e-17 0.38353887621963295 -0.9235247318984113
12615425333.333334 0.37656500513843044 -0.926390196895965 -6.465207225053726e-18 6.649520393632264e-17 -6.465207225053726e-18 6.649520393632264e-17 0.37656557552748077 -0.9263899650403755
12616042666.666666 0.3695703000814129 -0.9292027729713168 -5.9566521090242e-18 6.652955759649052e-17 -5.9566521090242e-18 6.652955759649052e-17 0.3695708721741993 -0.9292025454335844
12616660000.0 0.36255458995035955 -0.9319625364282502 -5.44794940401068e-18 6.656002585978622e-17 -5.44794940401068e-18 6.656002585978622e-17 0.3625551637142007 -0.9319623132208834
12617277333.333334 0.3555182734934974 -0.9346693304115921 -4.9391287640071125e-18 6.658660847472395e-17 -4.9391287640071125e-18 6.658660847472395e-17 0.35551884889562074 -0.9346691115468528
12617894666.666666 0.3484617506304305 -0.9373230010766979 -4.430219838258661e-18 6.660930541590852e-17 -4.430219838258661e-18 6.660930541590852e-17 0.3484623276379735 -0.9373227865666004
12618512000.0 0.34138542242903686 -0.9399233975983354 -3.921252269532058e-18 6.662811688394768e-17 -3.921252269532058e-18 6.662811688394768e-17 0.3413860010090492 -0.9399231874546455
12619129333.333334 0.3342896910829668 -0.9424703721791498 -3.41225569240609e-18 6.664304330535222e-17 -3.41225569240609e-18 6.664304330535222e-17 0.3342902712024115 -0.9424701664133827
12619746666.666666 0.3271749598886765 -0.9449637800581006 -2.903259731547995e-18 6.665408533242257e-17 -2.903259731547995e-18 6.665408533242257e-17 0.32717554151443234 -0.9449635786815217
12620364000.0 0.3200416332224249 -0.9474034795187177 -2.3942939999797638e-18 6.666124384312311e-17 -2.3942939999797638e-18 6.666124384312311e-17 0.32004221632128904 -0.9474032825423437
12620981333.333334 0.312890116517453 -0.9497893318971027 -1.8853880973931634e-18 6.666451994094166e-17 -1.8853880973931634e-18 6.666451994094166e-17 0.31289070105614153 -0.9497891393316978
12621598666.666666 0.30572081624085923 -0.9521212015898367 -1.3765716083998897e-18 6.666391495473828e-17 -1.3765716083998897e-18 6.666391495473828e-17 0.30572140218600935 -0.9521210134459124
12622216000.0 0.29853413987041494 -0.9543989560617102 -8.678741008400986e-19 6.665943043857898e-17 -8.678741008400986e-19 6.665943043857898e-17 0.29853472718858803 -0.954398772349528
12622833333.333334 0.29133049587156934 -0.9566224658532103 -3.59325124060388e-19 6.66510681715575e-17 -3.59325124060388e-19 6.66510681715575e-17 0.29133108452925144 -0.9566222865827774
12623450666.666666 0.2841102936741235 -0.9587916045879078 1.490457927951151e-19 6.663883015760392e-17 1.490457927951151e-19 6.663883015760392e-17 0.2841108836377279 -0.9587914297689777
12624068000.0 0.2768739436490149 -0.9609062489796248 6.572091424899321e-19 6.662271862528001e-17 6.572091424899321e-19 6.662271862528001e-17 0.2768745348848844 -0.9609060786216987
12624685333.333334 0.2696218570848854 -0.9629662788394766 1.1651354414192938e-18 6.660273602756171e-17 1.1651354414192938e-18 6.660273602756171e-17 0.269622449559293 -0.9629661129517995
12625302666.666666 0.2623544461648936 -0.9649715770826431 1.6727952312810409e-18 6.65788850416091e-17 1.6727952312810409e-18 6.65788850416091e-17 0.26235503984404585 -0.9649714156742054
12625920000.0 0.2550721239430714 -0.9669220297350873 2.180159080821997e-18 6.655116856852206e-17 2.180159080821997e-18 6.655116856852206e-17 0.25507271879310944 -0.9669218728146252
12626537333.333334 0.2477753043210104 -0.9688175259399889 2.6871975874969483e-18 6.651958973308543e-17 2.6871975874969483e-18 6.651958973308543e-17 0.24777590030801225 -0.9688173735159816
12627154666.666666 0.24046440202439318 -0.9706579579640299 3.193881379193401e-18 6.648415188349875e-17 3.193881379193401e-18 6.648415188349875e-17 0.24046499911437552 -0.9706578100447006
12627772000.0 0.23313983257903642 -0.972443221203619 3.700181115923619e-18 6.644485859109421e-17 3.700181115923619e-18 6.644485859109421e-17 0.23314043073795615 -0.9724430777969326
12628389333.333334 0.225802012287851 -0.9741732141906845 4.206067491506608e-18 6.640171365004253e-17 4.206067491506608e-18 6.640171365004253e-17 0.22580261148160835 -0.974173075304351
12629006666.666666 0.21845135820668626 -0.9758478385985715 4.711511235273885e-18 6.635472107704396e-17 4.711511235273885e-18 6.635472107704396e-17 0.21845195840112588 -0.9758477042400439
12629624000.0 0.21108828812084623 -0.9774669992475762 5.216483113742354e-18 6.630388511100916e-17 5.216483113742354e-18 6.630388511100916e-17 0.21108888928175867 -0.9774668694240458
12630241333.333334 0.20371322052137117 -0.9790306041103426 5.720953932316386e-18 6.624921021272416e-17 5.720953932316386e-18 6.624921021272416e-17 0.2037138226144957 -0.9790304788287446
12630858666.666666 0.19632657458119743 -0.9805385643171126 6.2248945369474594e-18 6.619070106450648e-17 6.2248945369474594e-18 6.619070106450648e-17 0.19632717757222376 -0.9805384435841236
12631476000.0 0.18892877013122172 -0.9819907941607983 6.7282758158396644e-18 6.612836256984345e-17 6.7282758158396644e-18 6.612836256984345e-17 0.18892937398579188 -0.9819906779828347
12632093333.333334 0.1815202276367176 -0.9833872111017947 7.231068701105146e-18 6.606219985302304e-17 7.231068701105146e-18 6.606219985302304e-17 0.1815208323204279 -0.9833870994850143
12632710666.666666 0.1741013681731874 -0.9847277357727238 7.73324417044448e-18 6.599221825874864e-17 7.73324417044448e-18 6.599221825874864e-17 0.17410197365159039 -0.9847276287230251
12633328000.0 0.1666726134024848 -0.986012291982933 8.234773248821852e-18 6.591842335174124e-17 8.234773248821852e-18 6.591842335174124e-17 0.1666732196410912 -0.9860121895059529
12633945333.333334 0.1592343855488774 -0.9872408067228191 8.735627010118152e-18 6.584082091633183e-17 8.735627010118152e-18 6.584082091633183e-17 0.15923499251315812 -0.9872407088239348
12634562666.666666 0.15178710737510476 -0.9884132101679687 9.23577657880861e-18 6.575941695603711e-17 9.23577657880861e-18 6.575941695603711e-17 0.1517877150304929 -0.9884131168522972
12635180000.0 0.1443312021582946 -0.9895294356831394 9.735193131606932e-18 6.567421769312683e-17 9.735193131606932e-18 6.567421769312683e-17 0.14433181047018726 -0.989529346955536
12635797333.333334 0.13686709366579197 -0.99058941982606 1.0233847899137508e-17 6.558522956817398e-17 1.0233847899137508e-17 6.558522956817398e-17 0.1368677025995523 -0.9905893356911186
12636414666.666666 0.12939520613138378 -0.9915931023509934 1.0731712167564661e-17 6.549245923959849e-17 1.0731712167564661e-17 6.549245923959849e-17 0.12939581565234315 -0.9915930228130472
12637032000.0 0.12191596423079262 -0.9925404262122155 1.1228757280266474e-17 6.539591358319079e-17 1.1228757280266474e-17 6.539591358319079e-17 0.12191657430425225 -0.9925403512753356
12637649333.333334 0.11442979305784953 -0.9934313375672166 1.1724954639458099e-17 6.529559969163031e-17 1.1724954639458099e-17 6.529559969163031e-17 0.11443040364908265 -0.9934312672352118
12638266666.666666 0.1069371181002203 -0.9942657857797742 1.2220275707838942e-17 6.519152487398741e-17 1.2220275707838942e-17 6.519152487398741e-17 0.10693772917447417 -0.9942657200561918
12638884000.0 0.09943836521513764 -0.995043723422842 1.271469201023373e-17 6.508369665521231e-17 1.271469201023373e-17 6.508369665521231e-17 0.0994389767376355 -0.9950436623109677
12639501333.333334 0.09193396060536653 -0.995765106281227 1.3208175135212742e-17 6.497212277561564e-17 1.3208175135212742e-17 6.497212277561564e-17 0.09193457254130946 -0.9957650497840832
12640118666.666666 0.08442433079492363 -0.9964298933541085 1.3700696736722541e-17 6.48568111903337e-17 1.3700696736722541e-17 6.48568111903337e-17 0.08442494310949278 -0.996429841474456
12640736000.0 0.0769099026046092 -0.9970380468573906 1.419222853572312e-17 6.473777006877828e-17 1.419222853572312e-17 6.473777006877828e-17 0.07691051526296737 -0.9970379995977263
12641353333.333334 0.06939110312820043 -0.9975895322258064 1.46827423217766e-17 6.461500779408502e-17 1.46827423217766e-17 6.461500779408502e-17 0.06939171609549435 -0.9975894895883641
12641970666.666666 0.061868359707780894 -0.9980843181149178 1.5172209954684395e-17 6.448853296253662e-17 1.5172209954684395e-17 6.448853296253662e-17 0.061868972949143265 -0.9980842801016704
12642588000.0 0.05434209990965019 -0.9985223764028829 1.5660603366092305e-17 6.435835438298088e-17 1.5660603366092305e-17 6.435835438298088e-17 0.05434271339020143 -0.9985223430155387
12643205333.333334 0.04681275149990916 -0.9989036821920614 1.6147894561083322e-17 6.422448107623803e-17 1.6147894561083322e-17 6.422448107623803e-17 0.04681336518475954 -0.9989036534320662
12643822666.666666 0.03928074242020374 -0.9992282138104233 1.6634055619789452e-17 6.408692227449026e-17 1.6634055619789452e-17 6.408692227449026e-17 0.03928135627445529 -0.9992281896789592
12644440000.0 0.031746500763459154 -0.9994959528127798 1.7119058698981994e-17 6.394568742066322e-17 1.7119058698981994e-17 6.394568742066322e-17 0.031747114752207733 -0.9994959333107669
12645057333.333334 0.024210454749435072 -0.9997068839818387 1.7602876033649586e-17 6.38007861677976e-17 1.7602876033649586e-17 6.38007861677976e-17 0.02421106883777229 -0.9997068691099326
12645674666.666666 0.0166730327005859 -0.9998609953290586 1.8085479938596517e-17 6.365222837840217e-17 1.8085479938596517e-17 6.365222837840217e-17 0.01667364685360113 -0.9998609850876532
12646292000.0 0.009134663017290337 -0.9999582780953473 1.856684281001926e-17 6.350002412379845e-17 1.856684281001926e-17 6.350002412379845e-17 0.009135277200072657 -0.9999582724845716
12646909333.333334 0.0015957741540991895 -0.9999987267515397 1.9046937127070715e-17 6.33441836834567e-17 1.9046937127070715e-17 6.33441836834567e-17 0.001596388331739411 -0.9999987257712608
12647526666.666666 -0.005943205405127892 -0.9999823389987266 1.9525735453433237e-17 6.318471754431502e-17 1.9525735453433237e-17 6.318471754431502e-17 -0.00594259126753526 -0.9999823426485482
12648144000.0 -0.01348184717134861 -0.9999091157683783 2.0003210438884422e-17 6.302163640008764e-17 2.0003210438884422e-17 6.302163640008764e-17 -0.013481233108703366 -0.9999091240476404
12648761333.333334 -0.021019722674663403 -0.9997790612222945 2.0479334820851902e-17 6.285495115056297e-17 2.0479334820851902e-17 6.285495115056297e-17 -0.021019108721857686 -0.9997790741300747
12649378666.666666 -0.028556403488753424 -0.9995921827523663 2.0954081425951667e-17 6.268467290089342e-17 2.0954081425951667e-17 6.268467290089342e-17 -0.028555789680669713 -0.999592200287479
12649996000.0 -0.03609146125517394 -0.9993484909801573 2.1427423171556345e-17 6.251081296086184e-17 2.1427423171556345e-17 6.251081296086184e-17 -0.03609084762668314 -0.9993485131411555
12650613333.333334 -0.043624467707842854 -0.9990479997562978 2.1899333067314792e-17 6.23333828441507e-17 2.1899333067314792e-17 6.23333828441507e-17 -0.04362385429380217 -0.9990480265414691
12651230666.666666 -0.05115499469706917 -0.9986907261597023 2.2369784216692462e-17 6.215239426759063e-17 2.2369784216692462e-17 6.215239426759063e-17 -0.05115438153232034 -0.9986907575670747
12651848000.0 -0.058682614214257134 -0.9982766904965946 2.2838749818502093e-17 6.19678591503985e-17 2.2838749818502093e-17 6.19678591503985e-17 -0.05868200133362411 -0.9982767265239294
12652465333.333334 -0.0662068984160616 -0.9978059162993455 2.3306203168422928e-17 6.1779789613406e-17 2.3306203168422928e-17 6.1779789613406e-17 -0.06620628585434908 -0.9978059569441462
12653082666.666666 -0.07372741964850756 -0.9972784303251647 2.3772117660503362e-17 6.158819797828103e-17 2.3772117660503362e-17 6.158819797828103e-17 -0.07372680744049848 -0.99727847558467
12653700000.0 -0.08124375047180608 -0.9966942625545339 2.423646678869208e-17 6.13930967667239e-17 2.423646678869208e-17 6.13930967667239e-17 -0.08124313865226004 -0.9966943124257213
12654317333.333334 -0.08875546368405372 -0.9960534461895506 2.4699224148321103e-17 6.11944986996691e-17 2.4699224148321103e-17 6.11944986996691e-17 -0.08875485228770472 -0.9960535006691352
12654934666.666666 -0.09626213234588138 -0.9953560176520135 2.516036343760653e-17 6.099241669646543e-17 2.516036343760653e-17 6.099241669646543e-17 -0.09626152140743606 -0.9953560767364497
12655552000.0 -0.10376332980480488 -0.9946020165813414 2.5619858459151482e-17 6.078686387404179e-17 2.5619858459151482e-17 6.078686387404179e-17 -0.10376271935894044 -0.9946020802668217
12656169333.333334 -0.11125862971902155 -0.9937914858323638 2.6077683121399208e-17 6.057785354607996e-17 2.6077683121399208e-17 6.057785354607996e-17 -0.11125801980038388 -0.99379155411482
12656786666.666666 -0.11874760608215139 -0.9929244714728359 2.653381144013977e-17 6.036539922215028e-17 2.653381144013977e-17 6.036539922215028e-17 -0.11874699672535292 -0.9929245443479382
12657404000.0 -0.12622983324711015 -0.992001022780853 2.6988217539958223e-17 6.014951460685868e-17 2.6988217539958223e-17 6.014951460685868e-17 -0.12622922448672816 -0.9920011002440123
12658021333.333334 -0.13370488595044336 -0.9910211922420379 2.7440875655705247e-17 5.993021359897005e-17 2.7440875655705247e-17 5.993021359897005e-17 -0.13370427782101768 -0.9910212742884036
12658638666.666666 -0.14117233933643994 -0.9899850355465623 2.7891760133948784e-17 5.9707510290526e-17 2.7891760133948784e-17 5.9707510290526e-17 -0.14117173187247137 -0.9899851221710247
12659256000.0 -0.1486317689813644 -0.9888926115859709 2.834084543442692e-17 5.948141896594756e-17 2.834084543442692e-17 5.948141896594756e-17 -0.14863116221731235 -0.9888927027831597
12659873333.333334 -0.1560827509175508 -0.987743982449836 2.8788106131487045e-17 5.925195410113039e-17 2.8788106131487045e-17 5.925195410113039e-17 -0.15608214488783165 -0.987744078214122
12660490666.666666 -0.16352486165730332 -0.9865392134222591 2.9233516915506e-17 5.901913036253515e-17 2.9233516915506e-17 5.901913036253515e-17 -0.1635242563962885 -0.9865393137477555
12661108000.0 -0.17095767821733143 -0.9852783729781098 2.967705259434654e-17 5.878296260624525e-17 2.967705259434654e-17 5.878296260624525e-17 -0.17095707375934502 -0.9852784778586681
12661725333.333334 -0.17838077814248052 -0.9839615327791706 3.011868809473931e-17 5.854346587704776e-17 3.011868809473931e-17 5.854346587704776e-17 -0.1783801745217979 -0.9839616422083866
12662342666.666666 -0.18579373952985676 -0.9825887676700581 3.0558398463726145e-17 5.830065540746887e-17 3.0558398463726145e-17 5.830065540746887e-17 -0.18579313678070214 -0.9825888816412685
12662960000.0 -0.19319614105288915 -0.981160155673947 3.099615887004385e-17 5.805454661682536e-17 3.099615887004385e-17 5.805454661682536e-17 -0.19319553920943416 -0.981160274180232
12663577333.333334 -0.2005875619851091 -0.9796757779881676 3.143194460552708e-17 5.780515511025156e-17 3.143194460552708e-17 5.780515511025156e-17 -0.20058696108147034 -0.9796759010223495
12664194666.666666 -0.20796758222414688 -0.9781357189795769 3.186573108650198e-17 5.755249667771723e-17 3.186573108650198e-17 5.755249667771723e-17 -0.20796698229438437 -0.9781358465342218
12664812000.0 -0.2153357823156922 -0.9765400661797446 3.229749385515531e-17 5.729658729304335e-17 3.229749385515531e-17 5.729658729304335e-17 -0.21533518339380706 -0.9765401982471621
12665429333.333334 -0.22269174347716747 -0.9748889102800136 3.272720858092215e-17 5.703744311289365e-17 3.272720858092215e-17 5.703744311289365e-17 -0.22269114559710035 -0.9748890468522574
12666046666.666666 -0.23003504762161286 -0.9731823451263251 3.315485106182979e-17 5.677508047577601e-17 3.315485106182979e-17 5.677508047577601e-17 -0.23003445081724225 -0.9731824861951952
12666664000.0 -0.2373652773815337 -0.9714204677138722 3.358039722588544e-17 5.650951590100358e-17 3.358039722588544e-17 5.650951590100358e-17 -0.23736468168667318 -0.9714206132709127
12667281333.333334 -0.24468201613245405 -0.9696033781816197 3.4003823132389636e-17 5.624076608768488e-17 3.4003823132389636e-17 5.624076608768488e-17 -0.24468142158085082 -0.9696035282181193
12667898666.666666 -0.2519848480166805 -0.9677311798065945 3.442510497330601e-17 5.596884791366543e-17 3.442510497330601e-17 5.596884791366543e-17 -0.25198425464201357 -0.9677313343135893
12668516000.0 -0.25927335796701956 -0.9658039789979941 3.4844219074582306e-17 5.569377843448328e-17 3.4844219074582306e-17 5.569377843448328e-17 -0.2592727658028982 -0.9658041379662683
12669133333.333334 -0.26654713173020483 -0.9638218852911844 3.5261141897465486e-17 5.541557488231448e-17 3.5261141897465486e-17 5.541557488231448e-17 -0.26654654081016593 -0.963822048711268
12669750666.666666 -0.27380575589052336 -0.9617850113414492 3.567585003983783e-17 5.513425466488906e-17 3.567585003983783e-17 5.513425466488906e-17 -0.27380516624802975 -0.9617851792036206
12670368000.0 -0.2810488178934221 -0.9596934729175571 3.6088320237507e-17 5.4849835364421505e-17 3.6088320237507e-17 5.4849835364421505e-17 -0.28104822956186093 -0.9596936452118431
