! Parameters = {f0=12700.012000; bw=77.238000; Q=6100.000000; N=10; m_0_1=1.202097; m_1_1=-0.733289; m_1_2=1.036909; m_2_2=-0.733938; m_2_3=0.673872; m_2_8=-0.002831; m_2_9=0.033873; m_3_3=-0.735875; m_3_4=0.562401; m_3_7=-0.002231; m_3_8=-0.099319; m_3_9=-0.002831; m_4_4=-0.738800; m_4_5=0.398736; m_4_6=0.001286; m_4_7=-0.119868; m_4_8=-0.002231; m_5_5=-0.738418; m_5_6=0.806091; m_5_7=0.001286; m_6_6=-0.738419; m_6_7=0.399078; m_7_7=-0.738786; m_7_8=0.562519; m_8_8=-0.735877; m_8_9=0.674185; m_9_9=-0.733943; m_9_10=1.037987; m_10_10=-0.733299; m_10_11=1.202892}
!
! Created with skrf (http://scikit-rf.org).
# Hz S RI R 50.0 
!freq ReS11 ImS11 ReS21 ImS21 ReS12 ImS12 ReS22 ImS22
12607400000.0 -0.5833326127931701 -0.8122333795478585 6.272469202223214e-17 4.867707704430294e-17 6.272469202223214e-17 4.867707704430294e-17 -0.5833320982803691 -0.8122337490622167
12608017333.333334 -0.5902280002048254 -0.8072365872370099 6.312882746408013e-17 4.812615509645003e-17 6.312882746408013e-17 4.812615509645003e-17 -0.5902274888823029 -0.8072369611009728
12608634666.666666 -0.5970805876438003 -0.802181258730704 6.352813012144006e-17 4.7571885343266335e-17 6.352813012144006e-17 4.7571885343266335e-17 -0.59708007954832 -0.8021816369167362
12609252000.0 -0.6038898781995421 -0.7970677606126 6.392257232790199e-17 4.701431012744311e-17 6.392257232790199e-17 4.701431012744311e-17 -0.6038893733676304 -0.7970681430928556
12609869333.333334 -0.6106553781011647 -0.791896463684468 6.431212678761337e-17 4.645347201971052e-17 6.431212678761337e-17 4.645347201971052e-17 -0.6106548765691079 -0.791896850430793
12610486666.666666 -0.6173765967531414 -0.7866677429393881 6.469676657714178e-17 4.588941381561498e-17 6.469676657714178e-17 4.588941381561498e-17 -0.6173760985569829 -0.7866681339233216
12611104000.0 -0.6240530467711273 -0.7813819775343657 6.50764651473365e-17 4.5322178532242606e-17 6.50764651473365e-17 4.5322178532242606e-17 -0.6240525519466648 -0.7813823727271417
12611721333.333334 -0.6306842440169866 -0.7760395507630807 6.545119632512845e-17 4.4751809404975513e-17 6.545119632512845e-17 4.4751809404975513e-17 -0.6306837525997703 -0.7760399501356317
12612338666.666666 -0.6372697076341484 -0.7706408500279032 6.582093431533211e-17 4.417834988418889e-17 6.582093431533211e-17 4.417834988418889e-17 -0.6372692196594777 -0.770641253550861
12612956000.0 -0.6438089600823829 -0.7651862668118683 6.618565370240597e-17 4.360184363195171e-17 6.618565370240597e-17 4.360184363195171e-17 -0.6438084755853037 -0.7651866744555667
12613573333.333334 -0.6503015271723654 -0.759676196650344 6.654532945217337e-17 4.3022334518730493e-17 6.654532945217337e-17 4.3022334518730493e-17 -0.650301046187669 -0.7596766083848211
12614190666.666666 -0.6567469381001951 -0.7541110391022405 6.689993691353758e-17 4.243986662004263e-17 6.689993691353758e-17 4.243986662004263e-17 -0.6567464606624144 -0.7541114548972412
12614808000.0 -0.6631447254814451 -0.74849119772111 6.724945182014976e-17 4.185448421312469e-17 6.724945182014976e-17 4.185448421312469e-17 -0.6631442516248519 -0.7484916175460866
12615425333.333334 -0.6694944253850771 -0.7428170800258619 6.759385029205474e-17 4.126623177357522e-17 6.759385029205474e-17 4.126623177357522e-17 -0.6694939551436808 -0.7428175038499787
12616042666.666666 -0.6757955773670838 -0.737089097471216 6.793310883730689e-17 4.0675153971986636e-17 6.793310883730689e-17 4.0675153971986636e-17 -0.6757951107746284 -0.7370895252633496
12616660000.0 -0.6820477245038772 -0.7313076654178632 6.826720435355614e-17 4.008129567056348e-17 6.826720435355614e-17 4.008129567056348e-17 -0.6820472615938379 -0.7313080971466053
12617277333.333334 -0.6882504134254417 -0.7254732031023273 6.85961141296061e-17 3.948470191972638e-17 6.85961141296061e-17 3.948470191972638e-17 -0.6882499542310243 -0.7254736387359879
12617894666.666666 -0.6944031943481088 -0.7195861336066623 6.891981584693665e-17 3.8885417954712714e-17 6.891981584693665e-17 3.8885417954712714e-17 -0.6944027389022462 -0.7195865731132712
12618512000.0 -0.700505621107397 -0.713646883827557 6.923828758120839e-17 3.8283489192145706e-17 6.923828758120839e-17 3.8283489192145706e-17 -0.7005051694427469 -0.7136473271748659
12619129333.333334 -0.7065572511900997 -0.7076558844456339 6.95515078037272e-17 3.767896122660899e-17 6.95515078037272e-17 3.767896122660899e-17 -0.7065568033390432 -0.7076563316011201
12619746666.666666 -0.712557645766498 -0.7016135698941035 6.98594553828779e-17 3.7071879827211246e-17 6.98594553828779e-17 3.7071879827211246e-17 -0.7125572017611356 -0.7016140208249705
12620364000.0 -0.7185063697222998 -0.695520378327137 7.016210958554395e-17 3.64622909341097e-17 7.016210958554395e-17 3.64622909341097e-17 -0.7185059295944506 -0.6955208330003182
12620981333.333334 -0.7244029916899328 -0.6893767515883584 7.045945007847108e-17 3.585024065507197e-17 7.045945007847108e-17 3.585024065507197e-17 -0.7244025554711313 -0.6893772099705189
12621598666.666666 -0.7302470840800446 -0.6831831351785811 7.075145692962661e-17 3.5235775261977086e-17 7.075145692962661e-17 3.5235775261977086e-17 -0.7302466518015386 -0.68318359723612
12622216000.0 -0.7360382231124081 -0.6769399782236034 7.103811060951184e-17 3.4618941187337464e-17 7.103811060951184e-17 3.4618941187337464e-17 -0.7360377948051569 -0.6769404439226571
12622833333.333334 -0.7417759888466918 -0.6706477334416008 7.131939199245161e-17 3.399978502079668e-17 7.131939199245161e-17 3.399978502079668e-17 -0.7417755645413642 -0.670648202748045
12623450666.666666 -0.7474599652128345 -0.6643068571103794 7.159528235784775e-17 3.337835350562891e-17 7.159528235784775e-17 3.337835350562891e-17 -0.7474595449398064 -0.6643073299898323
12624068000.0 -0.7530897400413153 -0.657917809034189 7.186576339141043e-17 3.275469353521022e-17 7.186576339141043e-17 3.275469353521022e-17 -0.7530893238306651 -0.6579182854520109
12624685333.333334 -0.7586649050930508 -0.6514810525103496 7.21308171863545e-17 3.2128852149487863e-17 7.21308171863545e-17 3.2128852149487863e-17 -0.7586644929745628 -0.6514815324316507
12625302666.666666 -0.7641850560888426 -0.6449970542958597 7.239042624455698e-17 3.150087653146345e-17 7.239042624455698e-17 3.150087653146345e-17 -0.764184648091997 -0.6449975376854957
12625920000.0 -0.7696497927388837 -0.6384662845733011 7.264457347770418e-17 3.0870814003614625e-17 7.264457347770418e-17 3.0870814003614625e-17 -0.7696493888928639 -0.6384667713958838
12626537333.333334 -0.7750587187716511 -0.6318892169169286 7.289324220838421e-17 3.023871202436838e-17 7.289324220838421e-17 3.023871202436838e-17 -0.7750583191053332 -0.6318897071368211
12627154666.666666 -0.7804114419626699 -0.6252663282582779 7.313641617116517e-17 2.9604618184523867e-17 7.313641617116517e-17 2.9604618184523867e-17 -0.7804110465046258 -0.6252668218396025
12627772000.0 -0.7857075741630837 -0.618598098851431 7.337407951364237e-17 2.896858020366698e-17 7.337407951364237e-17 2.896858020366698e-17 -0.7857071829415765 -0.6185985957580686
12628389333.333334 -0.7909467313275494 -0.6118850122384983 7.36062167974391e-17 2.833064592661633e-17 7.36062167974391e-17 2.833064592661633e-17 -0.7909463443705328 -0.6118855124340931
12629006666.666666 -0.7961285335423542 -0.6051275552142233 7.383281299919567e-17 2.7690863319811165e-17 7.383281299919567e-17 2.7690863319811165e-17 -0.7961281508774696 -0.6051280586621839
12629624000.0 -0.8012526050527676 -0.5983262177909264 7.40538535115151e-17 2.704928046772546e-17 7.40538535115151e-17 2.704928046772546e-17 -0.8012522267073431 -0.5983267244544295
12630241333.333334 -0.8063185742903978 -0.5914814931628397 7.426932414388234e-17 2.6405945569259643e-17 7.426932414388234e-17 2.6405945569259643e-17 -0.8063182002914444 -0.5914820030048321
12630858666.666666 -0.81132607390003 -0.5845938776704781 7.447921112354786e-17 2.576090693414031e-17 7.447921112354786e-17 2.576090693414031e-17 -0.8113257042742421 -0.5845943906536802
12631476000.0 -0.8162747407664518 -0.5776638707643963 7.468350109639094e-17 2.511421297927906e-17 7.468350109639094e-17 2.511421297927906e-17 -0.8162743755402034 -0.5776643868513038
12632093333.333334 -0.8211642160405663 -0.57069197496927 7.488218112773505e-17 2.4465912225175947e-17 7.488218112773505e-17 2.4465912225175947e-17 -0.8211638552399105 -0.5706924941221581
12632710666.666666 -0.8259941451655306 -0.5636786958472948 7.507523870314508e-17 2.381605329227619e-17 7.507523870314508e-17 2.381605329227619e-17 -0.825993788816197 -0.5636792180282197
12633328000.0 -0.8307641779024836 -0.5566245419615026 7.526266172919225e-17 2.3164684897323e-17 7.526266172919225e-17 2.3164684897323e-17 -0.8307638260298765 -0.556625067132305
12633945333.333334 -0.8354739683558923 -0.5495300248389529 7.544443853417828e-17 2.2511855849734614e-17 7.544443853417828e-17 2.2511855849734614e-17 -0.8354736209850879 -0.5495305529612593
12634562666.666666 -0.8401231749986501 -0.5423956589336152 7.562055786883746e-17 2.1857615047946036e-17 7.562055786883746e-17 2.1857615047946036e-17 -0.8401228321543966 -0.5423961899688428
12635180000.0 -0.844711460696844 -0.5352219615890654 7.579100890700305e-17 2.120201147575837e-17 7.579100890700305e-17 2.120201147575837e-17 -0.8447111224035594 -0.5352224954984239
12635797333.333334 -0.8492384927342159 -0.5280094530009464 7.595578124624368e-17 2.0545094198679022e-17 7.595578124624368e-17 2.0545094198679022e-17 -0.8492381590159862 -0.5280099897454413
12636414666.666666 -0.8537039428362313 -0.5207586561793437 7.611486490846506e-17 1.9886912360268097e-17 7.611486490846506e-17 1.9886912360268097e-17 -0.8537036137168059 -0.520759195719777
12637032000.0 -0.8581074871939682 -0.513470096910712 7.626825034048559e-17 1.9227515178458752e-17 7.626825034048559e-17 1.9227515178458752e-17 -0.8581071626967636 -0.513470639207689
12637649333.333334 -0.8624488064875458 -0.5061443037198494 7.641592841457523e-17 1.856695194189524e-17 7.641592841457523e-17 1.856695194189524e-17 -0.8624484866356391 -0.5061448487337777
12638266666.666666 -0.8667275859092871 -0.49878180783154263 7.65578904289647e-17 1.7905272006256192e-17 7.65578904289647e-17 1.7905272006256192e-17 -0.8667272707254177 -0.49878235552263783
12638884000.0 -0.8709435151865671 -0.49138314313202525 7.669412810832377e-17 1.724252479057452e-17 7.669412810832377e-17 1.724252479057452e-17 -0.870943204693133 -0.49138369346031235
12639501333.333334 -0.8750962886042661 -0.48394884613033456 7.682463360420497e-17 1.6578759773562612e-17 7.682463360420497e-17 1.6578759773562612e-17 -0.8750959828233229 -0.4839493990556509
12640118666.666666 -0.8791856050269402 -0.47647945591940855 7.694939949545822e-17 1.5914026489928262e-17 7.694939949545822e-17 1.5914026489928262e-17 -0.8791853039802003 -0.47648001140140755
12640736000.0 -0.8832111679208232 -0.46897551413669514 7.706841878861744e-17 1.5248374526661302e-17 7.706841878861744e-17 1.5248374526661302e-17 -0.8832108716296532 -0.46897607213484854
12641353333.333334 -0.887172685375015 -0.461437564925449 7.71816849182417e-17 1.45818535193948e-17 7.71816849182417e-17 1.45818535193948e-17 -0.8871723938604341 -0.46143812539905
12641970666.666666 -0.8910698701229322 -0.4538661548947481 7.728919174724192e-17 1.3914513148667354e-17 7.728919174724192e-17 1.3914513148667354e-17 -0.8910695834056124 -0.45386671780291477
12642588000.0 -0.8949024395630082 -0.4462618330801084 7.739093356716411e-17 1.3246403136251779e-17 7.739093356716411e-17 1.3246403136251779e-17 -0.8949021576632714 -0.44626239838178633
12643205333.333334 -0.8986701157791979 -0.43862515090364596 7.748690509844425e-17 1.2577573241457816e-17 7.748690509844425e-17 1.2577573241457816e-17 -0.8986698387170134 -0.4386257185576104
12643822666.666666 -0.902372625561179 -0.43095666213398726 7.757710149063287e-17 1.1908073257427027e-17 7.757710149063287e-17 1.1908073257427027e-17 -0.9023723533561647 -0.43095723209884756
12644440000.0 -0.906009700424103 -0.42325692284624206 7.766151832258478e-17 1.123795300744644e-17 7.766151832258478e-17 1.123795300744644e-17 -0.9060094330955226 -0.4232574950804442
12645057333.333334 -0.9095810766280784 -0.41552649138165526 7.774015160261873e-17 1.0567262341248168e-17 7.774015160261873e-17 1.0567262341248168e-17 -0.9095808141948396 -0.41552706584348437
12645674666.666666 -0.913086495197305 -0.40776592830709224 7.781299776864503e-17 9.896051131310708e-18 7.781299776864503e-17 9.896051131310708e-18 -0.9130862376779594 -0.4077665049546762
12646292000.0 -0.916525701938891 -0.399975796374313 7.78800536882633e-17 9.22436926914454e-18 7.78800536882633e-17 9.22436926914454e-18 -0.9165254493516313 -0.399976375165625
12646909333.333334 -0.9198984474612023 -0.3921566604793451 7.794131665882284e-17 8.552266661622015e-18 7.794131665882284e-17 8.552266661622015e-18 -0.9198981998238626 -0.39215724137220753
12647526666.666666 -0.923204487192018 -0.38430908762136623 7.799678440745759e-17 7.879793227256636e-18 7.799678440745759e-17 7.879793227256636e-18 -0.9232042445220705 -0.38430967057345267
12648144000.0 -0.9264435813962606 -0.3764336468615862 7.804645509108558e-17 7.206998892507227e-18 7.804645509108558e-17 7.206998892507227e-18 -0.9264433437108175 -0.3764342318304254
12648761333.333334 -0.9296154951933414 -0.3685309092820885 7.809032729637721e-17 6.5339335880897286e-18 7.809032729637721e-17 6.5339335880897286e-18 -0.92961526250915 -0.368531496225067
12649378666.666666 -0.9327199985741873 -0.36060144794441723 7.812840003969191e-17 5.860647245278924e-18 7.812840003969191e-17 5.860647245278924e-18 -0.9327197709076331 -0.3606020368187831
12649996000.0 -0.9357568664179818 -0.35264583784789344 7.816067276698361e-17 5.187189792211641e-18 7.816067276698361e-17 5.187189792211641e-18 -0.9357566437850815 -0.35264642861075773
12650613333.333334 -0.9387258785084465 -0.3446646558879937 7.818714535367404e-17 4.513611150187118e-18 7.818714535367404e-17 4.513611150187118e-18 -0.9387256609248529 -0.3446652484963358
12651230666.666666 -0.9416268195497777 -0.3366584808146271 7.820781810449368e-17 3.839961229993823e-18 7.820781810449368e-17 3.839961229993823e-18 -0.9416266070307757 -0.33665907522529653
12651848000.0 -0.944459479182367 -0.32862789318987384 7.822269175329228e-17 3.166289928196206e-18 7.822269175329228e-17 3.166289928196206e-18 -0.944459271742871 -0.32862848935959316
12652465333.333334 -0.9472236519979227 -0.3205734753462314 7.823176746281664e-17 2.4926471234684516e-18 7.823176746281664e-17 2.4926471234684516e-18 -0.9472234496524794 -0.32057407323160053
12653082666.666666 -0.9499191375544309 -0.31249581134422955 7.823504682445717e-17 1.8190826729109602e-18 7.823504682445717e-17 1.8190826729109602e-18 -0.9499189403172152 -0.3124964109017278
12653700000.0 -0.9525457403907402 -0.304395486929914 7.823253185796284e-17 1.1456464083476108e-18 7.823253185796284e-17 1.1456464083476108e-18 -0.9525455482755548 -0.3043960881159037
12654317333.333334 -0.9551032700406171 -0.2962730894927222 7.822422501112471e-17 4.723881326797445e-19 7.822422501112471e-17 4.723881326797445e-19 -0.9551030830608935 -0.29627369226345224
12654934666.666666 -0.9575915410466511 -0.2881292080226203 7.821012915942767e-17 -2.0064238380969317e-19 7.821012915942767e-17 -2.0064238380969317e-19 -0.9575913592154459 -0.28812981233422846
12655552000.0 -0.9600103729736974 -0.2799644330673911 7.819024760567041e-17 -8.733954071258963e-19 7.819024760567041e-17 -8.733954071258963e-19 -0.9600101963036924 -0.27996503887590785
12656169333.333334 -0.9623595904218873 -0.27177935669005593 7.816458407955485e-17 -1.5458212432078318e-18 7.816458407955485e-17 -1.5458212432078318e-18 -0.96235941892539 -0.27177996395140785
12656786666.666666 -0.9646390230394306 -0.26357457242567034 7.813314273724322e-17 -2.217870241611723e-18 7.813314273724322e-17 -2.217870241611723e-18 -0.9646388567283722 -0.2635751810956827
12657404000.0 -0.9668485055349288 -0.2553506752384199 7.80959281608842e-17 -2.889492799156534e-18 7.80959281608842e-17 -2.889492799156534e-18 -0.966848344420862 -0.25535128527282
12658021333.333334 -0.9689878776893732 -0.247108261478422 7.805294535810753e-17 -3.5606393635800836e-18 7.805294535810753e-17 -3.5606393635800836e-18 -0.9689877217834729 -0.24710887283284264
12658638666.666666 -0.971056984367735 -0.23884792883859154 7.800419976148817e-17 -4.231260437174452e-18 7.800419976148817e-17 -4.231260437174452e-18 -0.9710568336807983 -0.2388485414685742
12659256000.0 -0.9730556755302595 -0.23057027631113547 7.794969722797689e-17 -4.901306580451374e-18 7.794969722797689e-17 -4.901306580451374e-18 -0.973055530072705 -0.23057089017213367
12659873333.333334 -0.974983806243325 -0.2222759041441996 7.78894440383034e-17 -5.570728415748745e-18 7.78894440383034e-17 -5.570728415748745e-18 -0.9749836660251887 -0.22227651919158156
12660490666.666666 -0.9768412366899242 -0.21396541379845216 7.78234468963455e-17 -6.2394766308732334e-18 7.78234468963455e-17 -6.2394766308732334e-18 -0.9768411017208626 -0.21396602998750464
12661108000.0 -0.9786278321798733 -0.20563940790316493 7.775171292846645e-17 -6.907501982736568e-18 7.775171292846645e-17 -6.907501982736568e-18 -0.978627702469162 -0.20564002518909644
12661725333.333334 -0.9803434631594953 -0.19729849021290277 7.767424968282578e-17 -7.574755300943344e-18 7.767424968282578e-17 -7.574755300943344e-18 -0.9803433387160254 -0.19729910855084612
12662342666.666666 -0.9819880052210761 -0.1889432655634364 7.75910651286539e-17 -8.241187491425066e-18 7.75910651286539e-17 -8.241187491425066e-18 -0.9819878860533584 -0.18894388490845304
12662960000.0 -0.983561339111861 -0.180574339828023 7.750216765549924e-17 -8.90674954003178e-18 7.750216765549924e-17 -8.90674954003178e-18 -0.9835612252280221 -0.18057496013510554
12663577333.333334 -0.9850633507427045 -0.17219231987344333 7.740756607244327e-17 -9.57139251612963e-18 7.740756607244327e-17 -9.57139251612963e-18 -0.9850632421504868 -0.17219294109751906
12664194666.666666 -0.9864939311963468 -0.1637978135159958 7.730726960728545e-17 -1.0235067576188704e-17 7.730726960728545e-17 -1.0235067576188704e-17 -0.986493827903108 -0.16379843561192972
12664812000.0 -0.9878529767353116 -0.15539142947739223 7.720128790569657e-17 -1.089772596736289e-17 7.720128790569657e-17 -1.089772596736289e-17 -0.9878528787480255 -0.15539205239999085
12665429333.333334 -0.9891403888094193 -0.14697377734070166 7.70896310303423e-17 -1.1559319031063983e-17 7.70896310303423e-17 -1.1559319031063983e-17 -0.9891402961346738 -0.14697440104471574
12666046666.666666 -0.9903560740629374 -0.13854546750611874 7.697230945997758e-17 -1.2219798206514178e-17 7.697230945997758e-17 -1.2219798206514178e-17 -0.9903559867069341 -0.13854609194624684
12666664000.0 -0.991499944341378 -0.13010711114650408 7.684933408850499e-17 -1.2879115034324982e-17 7.684933408850499e-17 -1.2879115034324982e-17 -0.9914998623099323 -0.13010773627739577
12667281333.333334 -0.9925719166978358 -0.12165932016343096 7.672071622401214e-17 -1.353722116001258e-17 7.672071622401214e-17 -1.353722116001258e-17 -0.9925718399963777 -0.12165994593969025
12667898666.666666 -0.9935719133990477 -0.11320270714253268 7.658646758776992e-17 -1.419406833755655e-17 7.658646758776992e-17 -1.419406833755655e-17 -0.9935718420326192 -0.11320333351872117
12668516000.0 -0.9944998619310236 -0.10473788530908093 7.644660031320338e-17 -1.484960843292713e-17 7.644660031320338e-17 -1.484960843292713e-17 -0.9944997959042788 -0.10473851223972103
12669133333.333334 -0.9953556950042753 -0.09626546848377207 7.630112694483786e-17 -1.5503793427583566e-17 7.630112694483786e-17 -1.5503793427583566e-17 -0.9953556343214816 -0.0962660959233505
12669750666.666666 -0.9961393505587289 -0.08778607103793418 7.615006043720529e-17 -1.615657542200573e-17 7.615006043720529e-17 -1.615657542200573e-17 -0.996139295223766 -0.08778669894090532
12670368000.0 -0.9968507717682132 -0.07930030784908933 7.59934141537297e-17 -1.6807906639174522e-17 7.59934141537297e-17 -1.6807906639174522e-17 -0.9968507217845729 -0.07930093616987831
