! Parameters = {f0=12700.012000; bw=77.238000; Q=6100.000000; N=10; m_0_1=1.265961; m_1_1=0.224669; m_1_2=1.100773; m_2_2=0.224020; m_2_3=0.737736; m_2_8=0.000362; m_2_9=0.037066; m_3_3=0.222083; m_3_4=0.626265; m_3_7=0.000962; m_3_8=-0.096126; m_3_9=0.000362; m_4_4=0.219158; m_4_5=0.462600; m_4_6=0.004479; m_4_7=-0.116675; m_4_8=0.000962; m_5_5=0.219540; m_5_6=0.869955; m_5_7=0.004479; m_6_6=0.219539; m_6_7=0.462942; m_7_7=0.219172; m_7_8=0.626383; m_8_8=0.222081; m_8_9=0.738049; m_9_9=0.224015; m_9_10=1.101851; m_10_10=0.224659; m_10_11=1.266756}
!
! Created with skrf (http://scikit-rf.org).
# Hz S RI R 50.0 
!freq ReS11 ImS11 ReS21 ImS21 ReS12 ImS12 ReS22 ImS22
12607400000.0 -0.9979162503228663 -0.06452253359389677 1.0581446405800363e-16 -2.4044855487935935e-17 1.0581446405800363e-16 -2.4044855487935935e-17 -0.9979162072867029 -0.0645231991949116
12608017333.333334 -0.9985334975362026 -0.05413736508127657 1.0553568882852055e-16 -2.514881541830373e-17 1.0553568882852055e-16 -2.514881541830373e-17 -0.9985334614286197 -0.0541380310613828
12608634666.666666 -0.9990426707538199 -0.04374633713693998 1.0524540402219193e-16 -2.6249574308211718e-17 1.0524540402219193e-16 -2.6249574308211718e-17 -0.9990426415780471 -0.04374700342402319
12609252000.0 -0.9994437148665944 -0.033350574410156056 1.0494364609934185e-16 -2.7347012246450286e-17 1.0494364609934185e-16 -2.7347012246450286e-17 -0.9994436926251099 -0.033351240932075615
12609869333.333334 -0.999736586468511 -0.022951202062508717 1.0463045276868814e-16 -2.8441009734248436e-17 1.0463045276868814e-16 -2.8441009734248436e-17 -0.9997365711630437 -0.022951868747105718
12610486666.666666 -0.9999212538613579 -0.012549345646487025 1.0430586298270302e-16 -2.953144769827069e-17 1.0430586298270302e-16 -2.953144769827069e-17 -0.999921245492885 -0.012550012421591978
12611104000.0 -0.9999976970581628 -0.0021461309831234936 1.0396991693283618e-16 -3.061820750356127e-17 1.0396991693283618e-16 -3.061820750356127e-17 -0.9999976956269101 -0.0021467977765641825
12611721333.333334 -0.9999659077853478 0.00825731595923132 1.0362265604461305e-16 -3.17011709664091e-17 1.0362265604461305e-16 -3.17011709664091e-17 -0.9999659132907922 0.008256649219622018
12612338666.666666 -0.9998258894836333 0.01865986918728699 1.0326412297259134e-16 -3.278022036718122e-17 1.0326412297259134e-16 -3.278022036718122e-17 -0.9998259019244997 0.018659202573663318
12612956000.0 -0.9995776573076591 0.029060402804455165 1.0289436159517881e-16 -3.385523846311804e-17 1.0289436159517881e-16 -3.385523846311804e-17 -0.9995776766819224 0.02905973638895068
12613573333.333334 -0.9992212381243472 0.03945779113267998 1.0251341700934205e-16 -3.4926108500997645e-17 1.0251341700934205e-16 -3.4926108500997645e-17 -0.9992212644292323 0.039457124987399735
12614190666.666666 -0.9987566705099976 0.04985090883433024 1.0212133552515002e-16 -3.599271422984383e-17 1.0212133552515002e-16 -3.599271422984383e-17 -0.998756703741978 0.049850243031342945
12614808000.0 -0.9981840047461011 0.060238631034082744 1.0171816466021567e-16 -3.705493991348321e-17 1.0171816466021567e-16 -3.705493991348321e-17 -0.9981840449009025 0.060237965645413026
12615425333.333334 -0.9975033028139111 0.07061983344050031 1.013039531339861e-16 -3.81126703431051e-17 1.013039531339861e-16 -3.81126703431051e-17 -0.9975033498865103 0.07061916853812095
12616042666.666666 -0.9967146383877289 0.08099339246780218 1.0087875086191903e-16 -3.916579084970883e-17 1.0087875086191903e-16 -3.916579084970883e-17 -0.9967146923723547 0.08099272812362625
12616660000.0 -0.9958180968269252 0.09135818535755774 1.0044260894951405e-16 -4.0214187316533364e-17 1.0044260894951405e-16 -4.0214187316533364e-17 -0.9958181577170577 0.09135752164343082
12617277333.333334 -0.9948137751667105 0.10171309030003545 9.999557968623062e-17 -4.1257746191377715e-17 9.999557968623062e-17 -4.1257746191377715e-17 -0.9948138429550845 0.10171242728772802
12617894666.666666 -0.99370178210763 0.1120569865557048 9.953771653926838e-17 -4.2296354498883753e-17 9.953771653926838e-17 -4.2296354498883753e-17 -0.9937018567862346 0.11205632431690433
12618512000.0 -0.9924822380037883 0.12238875457662145 9.906907414721837e-17 -4.332989985274979e-17 9.906907414721837e-17 -4.332989985274979e-17 -0.9924823195638668 0.12238809318292466
12619129333.333334 -0.9911552748498408 0.13270727612742952 9.858970831360064e-17 -4.435827046785001e-17 9.858970831360064e-17 -4.435827046785001e-17 -0.9911553632818921 0.1327066156503346
12619746666.666666 -0.9897210362667027 0.14301143440644787 9.809967600026483e-17 -4.538135517230493e-17 9.809967600026483e-17 -4.538135517230493e-17 -0.9897211315604839 0.14301077491734682
12620364000.0 -0.9881796774859722 0.15330011416676947 9.759903532065922e-17 -4.639904341949675e-17 9.759903532065922e-17 -4.639904341949675e-17 -0.9881797796304999 0.15329945573694068
12620981333.333334 -0.9865313653331997 0.16357220183649004 9.708784553300749e-17 -4.741122529994144e-17 9.708784553300749e-17 -4.741122529994144e-17 -0.9865314743167476 0.16357154453708983
12621598666.666666 -0.9847762782097544 0.17382658563973807 9.656616703331685e-17 -4.841779155318339e-17 9.656616703331685e-17 -4.841779155318339e-17 -0.9847763940198588 0.17382592954179374
12622216000.0 -0.9829146060735732 0.18406215571664075 9.603406134830398e-17 -4.941863357952792e-17 9.603406134830398e-17 -4.941863357952792e-17 -0.9829147286970331 0.18406150089104267
12622833333.333334 -0.9809465504185543 0.19427780424372754 9.549159112816945e-17 -5.041364345176027e-17 9.549159112816945e-17 -5.041364345176027e-17 -0.9809466798414311 0.1942771507612212
12623450666.666666 -0.9788723242528079 0.2044724255534968 9.493882013928097e-17 -5.140271392672553e-17 9.493882013928097e-17 -5.140271392672553e-17 -0.9788724604604303 0.20447177348467568
12624068000.0 -0.9766921520755375 0.2146449162544491 9.437581325670188e-17 -5.238573845689704e-17 9.437581325670188e-17 -5.238573845689704e-17 -0.9766922950525004 0.21464426566974668
12624685333.333334 -0.9744062698527745 0.2247941753503139 9.380263645662827e-17 -5.3362611201808935e-17 9.380263645662827e-17 -5.3362611201808935e-17 -0.9744064195829409 0.22479352631999597
12625302666.666666 -0.9720149249918525 0.23491910435915847 9.321935680870428e-17 -5.433322703941852e-17 9.321935680870428e-17 -5.433322703941852e-17 -0.972015081458358 0.23491845695331603
12625920000.0 -0.9695183763145888 0.24501860743247367 9.262604246819473e-17 -5.529748157742354e-17 9.262604246819473e-17 -5.529748157742354e-17 -0.9695185394998409 0.24501796172101498
12626537333.333334 -0.9669168940293077 0.25509159147361443 9.202276266808674e-17 -5.625527116442193e-17 9.202276266808674e-17 -5.625527116442193e-17 -0.9669170639149883 0.2550909475262576
12627154666.666666 -0.9642107597016053 0.26513696625608185 9.140958771103754e-17 -5.720649290104843e-17 9.140958771103754e-17 -5.720649290104843e-17 -0.9642109362686724 0.2651363241423469
12627772000.0 -0.9614002662238075 0.2751536445417676 9.07865889612053e-17 -5.815104465102618e-17 9.07865889612053e-17 -5.815104465102618e-17 -0.9614004494524986 0.27515300433096973
12628389333.333334 -0.9584857177833523 0.2851405421983281 9.015383883601624e-17 -5.908882505205286e-17 9.015383883601624e-17 -5.908882505205286e-17 -0.9584859076531863 0.2851399039595697
12629006666.666666 -0.9554674298298069 0.2950965783167415 8.951141079774746e-17 -6.001973352670794e-17 8.951141079774746e-17 -6.001973352670794e-17 -0.9554676263195847 0.29509594211890455
12629624000.0 -0.9523457290407432 0.30502067532821453 8.885937934505832e-17 -6.094367029317704e-17 8.885937934505832e-17 -6.094367029317704e-17 -0.952345932128553 0.3050200412399538
12630241333.333334 -0.9491209532864058 0.3149117591207581 8.81978200043813e-17 -6.186053637593071e-17 8.81978200043813e-17 -6.186053637593071e-17 -0.9491211629496216 0.3149111272104927
12630858666.666666 -0.9457934515931191 0.3247687591554941 8.752680932121634e-17 -6.277023361628994e-17 8.752680932121634e-17 -6.277023361628994e-17 -0.9457936678084082 0.3247681294914016
12631476000.0 -0.9423635841054911 0.33459060858260525 8.684642485128496e-17 -6.367266468294282e-17 8.684642485128496e-17 -6.367266468294282e-17 -0.942363806848812 0.33458998123261274
12632093333.333334 -0.9388317220474731 0.3443762443566666 8.615674515163697e-17 -6.456773308228105e-17 8.615674515163697e-17 -6.456773308228105e-17 -0.9388319512940806 0.3443756193884444
12632710666.666666 -0.9351982476822039 0.35412460735165 8.545784977159025e-17 -6.545534316872522e-17 8.545784977159025e-17 -6.545534316872522e-17 -0.9351984834066525 0.3541239848326043
12633328000.0 -0.9314635542705123 0.3638346424759032 8.474981924359428e-17 -6.633540015490995e-17 8.474981924359428e-17 -6.633540015490995e-17 -0.9314637964466568 0.36383402247316826
12633945333.333334 -0.9276280460285186 0.3735052987858921 8.403273507398871e-17 -6.720781012177372e-17 8.403273507398871e-17 -6.720781012177372e-17 -0.9276282946295177 0.373504681366323
12634562666.666666 -0.9236921380837507 0.38313552960029124 8.330667973364978e-17 -6.80724800285587e-17 8.330667973364978e-17 -6.80724800285587e-17 -0.9236923930820712 0.3831349148304573
12635180000.0 -0.9196562564303131 0.3927242926130328 8.25717366485468e-17 -6.892931772269578e-17 8.25717366485468e-17 -6.892931772269578e-17 -0.9196565177977332 0.39272368055921053
12635797333.333334 -0.9155208378826836 0.40227055000635514 8.182799019017315e-17 -6.977823194961645e-17 8.182799019017315e-17 -6.977823194961645e-17 -0.9155211055902925 0.40226994073451955
12636414666.666666 -0.9112863300285615 0.41177326856281177 8.107552566591459e-17 -7.061913236241727e-17 8.107552566591459e-17 -7.061913236241727e-17 -0.9112866040467674 0.4117726621386315
12637032000.0 -0.9069531911802744 0.421231419777468 8.031442930927901e-17 -7.145192953146761e-17 8.031442930927901e-17 -7.145192953146761e-17 -0.9069534714788046 0.42123081626629644
12637649333.333334 -0.9025218903253075 0.43064397996890474 7.95447882700494e-17 -7.227653495388693e-17 7.95447882700494e-17 -7.227653495388693e-17 -0.9025221768732121 0.43064337943577385
12638266666.666666 -0.8979929070754369 0.44000993039024733 7.876669060433835e-17 -7.309286106291869e-17 7.876669060433835e-17 -7.309286106291869e-17 -0.8979931998410929 0.44000933289986016
12638884000.0 -0.8933667316149062 0.4493282573392474 7.798022526455096e-17 -7.39008212371936e-17 7.798022526455096e-17 -7.39008212371936e-17 -0.8933670305660208 0.44932766295597143
12639501333.333334 -0.888643864647323 0.4585979522681012 7.718548208922975e-17 -7.470032980990927e-17 7.718548208922975e-17 -7.470032980990927e-17 -0.8886441697509372 0.45859736105596155
12640118666.666666 -0.8838248173415187 0.4678180118925065 7.638255179285291e-17 -7.549130207785311e-17 7.638255179285291e-17 -7.549130207785311e-17 -0.8838251285640111 0.4678174239151788
12640736000.0 -0.8789101112760369 0.4769874383006024 7.55715259554584e-17 -7.627365431039805e-17 7.55715259554584e-17 -7.627365431039805e-17 -0.8789104285831271 0.47698685362140597
12641353333.333334 -0.8739002783830274 0.48610523906032305 7.475249701229853e-17 -7.704730375826753e-17 7.475249701229853e-17 -7.704730375826753e-17 -0.87390060173978 0.4861046577422142
12641970666.666666 -0.8687958608903684 0.49517042732738853 7.392555824327103e-17 -7.781216866231916e-17 7.392555824327103e-17 -7.781216866231916e-17 -0.8687961902611971 0.4951698494329541
12642588000.0 -0.863597411263072 0.5041820219519393 7.309080376236475e-17 -7.856816826211639e-17 7.309080376236475e-17 -7.856816826211639e-17 -0.863597746611742 0.5041814475433883
12643205333.333334 -0.8583054921435715 0.5131390475845767 7.22483285069579e-17 -7.931522280444369e-17 7.22483285069579e-17 -7.931522280444369e-17 -0.8583058334332051 0.5131384767237359
12643822666.666666 -0.8529206762906577 0.522040534782227 7.139822822705879e-17 -8.005325355168059e-17 7.139822822705879e-17 -8.005325355168059e-17 -0.8529210234837374 0.5220399675305322
12644440000.0 -0.8474435465176701 0.5308855201127444 7.054059947444594e-17 -8.07821827900751e-17 7.054059947444594e-17 -8.07821827900751e-17 -0.8474438995760443 0.530884956531236
12645057333.333334 -0.841874695629293 0.5396730462594097 6.967553959174657e-17 -8.150193383788105e-17 6.967553959174657e-17 -8.150193383788105e-17 -0.8418750545141784 0.5396724864087242
12645674666.666666 -0.8362147263575102 0.5484021621243477 6.880314670139871e-17 -8.221243105340915e-17 6.880314670139871e-17 -8.221243105340915e-17 -0.836215091029497 0.5484016060647121
12646292000.0 -0.8304642512961423 0.5570719229318274 6.792351969455124e-17 -8.291359984294139e-17 6.792351969455124e-17 -8.291359984294139e-17 -0.8304646217151973 0.5570713707230522
12646909333.333334 -0.8246238928348649 0.5656813903300146 6.703675821989424e-17 -8.360536666852049e-17 6.703675821989424e-17 -8.360536666852049e-17 -0.8246242689603382 0.5656808420314885
12647526666.666666 -0.8186942830915709 0.574229632492964 6.614296267239379e-17 -8.428765905563356e-17 6.614296267239379e-17 -8.428765905563356e-17 -0.8186946648821976 0.5742290881636456
12648144000.0 -0.8126760638440896 0.5827157242212554 6.524223418193647e-17 -8.496040560078455e-17 6.524223418193647e-17 -8.496040560078455e-17 -0.8126764512579971 0.582715183919669
12648761333.333334 -0.8065698864606653 0.5911387470422274 6.433467460194316e-17 -8.562353597891026e-17 6.433467460194316e-17 -8.562353597891026e-17 -0.8065702794553756 0.5911382108264551
12649378666.666666 -0.8003764118295891 0.5994977893092002 6.342038649786056e-17 -8.627698095071348e-17 6.342038649786056e-17 -8.627698095071348e-17 -0.8003768103620243 0.5994972572368764
12649996000.0 -0.7940963102874503 0.6077919463004443 6.249947313560372e-17 -8.69206723698513e-17 6.249947313560372e-17 -8.69206723698513e-17 -0.7940967143139391 0.6077914184287502
12650613333.333334 -0.7877302615467572 0.616020320316874 6.157203846990783e-17 -8.755454319001662e-17 6.157203846990783e-17 -8.755454319001662e-17 -0.7877306710230352 0.6160197967025288
12651230666.666666 -0.7812789546223823 0.6241820207791827 6.063818713265034e-17 -8.817852747186486e-17 6.063818713265034e-17 -8.817852747186486e-17 -0.7812793695036016 0.6241815014784406
12651848000.0 -0.774743087756766 0.6322761643245272 5.969802442102822e-17 -8.879256038986878e-17 5.969802442102822e-17 -8.879256038986878e-17 -0.7747435079974986 0.6322756493931706
12652465333.333334 -0.7681233683446249 0.6403018749017791 5.875165628575458e-17 -8.939657823898768e-17 5.875165628575458e-17 -8.939657823898768e-17 -0.7681237938988646 0.6403013643951105
12653082666.666666 -0.7614205128562429 0.6482582838665173 5.779918931912541e-17 -8.9990518441254e-17 5.779918931912541e-17 -8.9990518441254e-17 -0.7614209436774154 0.6482577778393561
12653700000.0 -0.7546352467598934 0.65614453007509 5.684073074303438e-17 -9.057431955222165e-17 5.684073074303438e-17 -9.057431955222165e-17 -0.7546356828008581 0.6561440285817649
12654317333.333334 -0.7477683044434272 0.6639597599776863 5.587638839694495e-17 -9.114792126727573e-17 5.587638839694495e-17 -9.114792126727573e-17 -0.7477687456564838 0.663959263072031
12654934666.666666 -0.7408204291347544 0.6717031277107649 5.490627072577768e-17 -9.171126442782634e-17 5.490627072577768e-17 -9.171126442782634e-17 -0.7408208754716458 0.6717026354461098
12655552000.0 -0.733792372821246 0.6793737951887688 5.393048676772029e-17 -9.226429102738332e-17 5.393048676772029e-17 -9.226429102738332e-17 -0.7337928242331672 0.6793733076179382
12656169333.333334 -0.7266848961686724 0.6869709321944788 5.2949146142042625e-17 -9.280694421746336e-17 5.2949146142042625e-17 -9.280694421746336e-17 -0.7266853526062734 0.6869704493697835
12656786666.666666 -0.7194987684385286 0.6944937164692468 5.196235903676063e-17 -9.333916831342116e-17 5.196235903676063e-17 -9.333916831342116e-17 -0.7194992298519192 0.694493238442478
12657404000.0 -0.7122347674050241 0.7019413338017194 5.0970236196323975e-17 -9.386090880010281e-17 5.0970236196323975e-17 -9.386090880010281e-17 -0.7122352337437823 0.7019408606241454
12658021333.333334 -0.7048936792707088 0.709312978116169 4.997288890918661e-17 -9.437211233740293e-17 4.997288890918661e-17 -9.437211233740293e-17 -0.7048941504838828 0.7093125098385272
12658638666.666666 -0.6974762985816373 0.7166078515594735 4.89704289953837e-17 -9.487272676565724e-17 4.89704289953837e-17 -9.487272676565724e-17 -0.697476774617754 0.7166073882319668
12659256000.0 -0.6899834281410132 0.7238251645878317 4.7962968793971454e-17 -9.536270111094632e-17 4.7962968793971454e-17 -9.536270111094632e-17 -0.6899839089480813 0.7238247062601216
12659873333.333334 -0.6824158789226389 0.7309641360518776 4.695062115050927e-17 -9.584198559021872e-17 4.695062115050927e-17 -9.584198559021872e-17 -0.6824163644481578 0.7309636827730809
12660490666.666666 -0.6747744699829864 0.7380239932813881 4.593349940442365e-17 -9.631053161631558e-17 4.593349940442365e-17 -9.631053161631558e-17 -0.6747749601739474 0.7380235451000686
12661108000.0 -0.6670600283724991 0.7450039721689454 4.4911717376338273e-17 -9.67682918028525e-17 4.4911717376338273e-17 -9.67682918028525e-17 -0.6670605231753964 0.7450035291331126
12661725333.333334 -0.659273389046208 0.751903317252526 4.388538935537882e-17 -9.721521996895812e-17 4.388538935537882e-17 -9.721521996895812e-17 -0.6592738884070402 0.7519028794096263
12662342666.666666 -0.6514153947732988 0.7587212817973235 4.285463008640588e-17 -9.765127114388921e-17 4.285463008640588e-17 -9.765127114388921e-17 -0.6514158986375768 0.7587208491942371
12662960000.0 -0.6434868960458295 0.7654571278766237 4.1819554757202826e-17 -9.807640157151063e-17 4.1819554757202826e-17 -9.807640157151063e-17 -0.6434874043585824 0.7654567005596595
12663577333.333334 -0.6354887509868121 0.7721101264515629 4.078027898564792e-17 -9.849056871462824e-17 4.078027898564792e-17 -9.849056871462824e-17 -0.6354892636925924 0.7721097044664526
12664194666.666666 -0.6274218252572674 0.7786795574500881 3.973691880680197e-17 -9.889373125920342e-17 3.973691880680197e-17 -9.889373125920342e-17 -0.6274223423001587 0.7786791408419829
12664812000.0 -0.6192869919624698 0.7851647098449487 3.868959066000012e-17 -9.92858491184129e-17 3.868959066000012e-17 -9.92858491184129e-17 -0.6192875132860906 0.785164298658412
12665429333.333334 -0.6110851315575774 0.7915648817305403 3.763841137585647e-17 -9.966688343659165e-17 3.763841137585647e-17 -9.966688343659165e-17 -0.6110856571050892 0.7915644760095463
12666046666.666666 -0.602817131752275 0.7978793803989342 3.658349816329251e-17 -1.000367965930138e-16 3.658349816329251e-17 -1.000367965930138e-16 -0.6028176614663869 0.7978789801868592
12666664000.0 -0.5944838874146241 0.8041075224148966 3.5524968596438716e-17 -1.003955522055712e-16 3.5524968596438716e-17 -1.003955522055712e-16 -0.5944844212376008 0.8041071277545182
12667281333.333334 -0.5860863004743465 0.8102486336897589 3.4462940601617304e-17 -1.0074311513427105e-16 3.4462940601617304e-17 -1.0074311513427105e-16 -0.586086838348013 0.8102482446232487
12667898666.666666 -0.5776252798251611 0.8163020495544108 3.3397532444177495e-17 -1.0107945148463668e-16 3.3397532444177495e-17 -1.0107945148463668e-16 -0.57762582169091 0.8163016661233315
12668516000.0 -0.5691017412262258 0.8222671148313697 3.232886271537259e-17 -1.014045286109431e-16 3.232886271537259e-17 -1.014045286109431e-16 -0.5691022870250234 0.82226673707667
12669133333.333334 -0.5605166072034165 0.8281431839054141 3.125705031918691e-17 -1.0171831511932245e-16 3.125705031918691e-17 -1.0171831511932245e-16 -0.5605171568758096 0.8281428118674248
12669750666.666666 -0.5518708069490628 0.8339296207937549 3.018221445912404e-17 -1.0202078087073169e-16 3.018221445912404e-17 -1.0202078087073169e-16 -0.5518713604351837 0.8339292545121829
12670368000.0 -0.5431652762216562 0.8396257992146727 2.910447462496206e-17 -1.0231189698378357e-16 2.910447462496206e-17 -1.0231189698378357e-16 -0.543165833461231 0.8396254387285987
