! Parameters = {f0=12700.012000; bw=77.238000; Q=6100.000000; N=10; m_0_1=1.154049; m_1_1=-1.454010; m_1_2=0.988861; m_2_2=-1.454659; m_2_3=0.625824; m_2_8=-0.005234; m_2_9=0.031470; m_3_3=-1.456596; m_3_4=0.514353; m_3_7=-0.004634; m_3_8=-0.101722; m_3_9=-0.005234; m_4_4=-1.459521; m_4_5=0.350688; m_4_6=-0.001117; m_4_7=-0.122271; m_4_8=-0.004634; m_5_5=-1.459139; m_5_6=0.758043; m_5_7=-0.001117; m_6_6=-1.459140; m_6_7=0.351030; m_7_7=-1.459507; m_7_8=0.514471; m_8_8=-1.456598; m_8_9=0.626137; m_9_9=-1.454664; m_9_10=0.989939; m_10_10=-1.454020; m_10_11=1.154844}
!
! Created with skrf (http://scikit-rf.org).
# Hz S RI R 50.0 
!freq ReS11 ImS11 ReS21 ImS21 ReS12 ImS12 ReS22 ImS22
12607400000.0 -0.1300701652465976 0.9915047917748947 -9.708084296763567e-18 -6.110075789941611e-17 -9.708084296763567e-18 -6.110075789941611e-17 -0.13007076829556902 0.9915047126639666
12608017333.333334 -0.12303209292222766 0.9924026925150045 -1.0144779218903935e-17 -6.101748577800754e-17 -1.0144779218903935e-17 -6.101748577800754e-17 -0.12303269648775655 0.9924026176884085
12608634666.666666 -0.11598782707981165 0.9932506350207675 -1.0580779343180681e-17 -6.093109620544479e-17 -1.0580779343180681e-17 -6.093109620544479e-17 -0.11598843113146502 0.9932505644818508
12609252000.0 -0.10893772233251348 0.9940485766062224 -1.101606244133808e-17 -6.084159486133572e-17 -1.101606244133808e-17 -6.084159486133572e-17 -0.10893832683983697 0.9940485103581169
12609869333.333334 -0.10188213358740313 0.994796477102494 -1.1450606330815124e-17 -6.074898758359163e-17 -1.1450606330815124e-17 -6.074898758359163e-17 -0.10188273851992206 0.9947964151481122
12610486666.666666 -0.09482141602781563 0.9954942988597845 -1.1884388875875019e-17 -6.065328036806391e-17 -1.1884388875875019e-17 -6.065328036806391e-17 -0.09482202135503726 0.9954942412018257
12611104000.0 -0.08775592509499114 0.996142006749327 -1.2317387988733449e-17 -6.055447936817137e-17 -1.2317387988733449e-17 -6.055447936817137e-17 -0.08775653078640569 0.9961419533902728
12611721333.333334 -0.08068601647066209 0.9967395681651006 -1.2749581630666838e-17 -6.045259089452434e-17 -1.2749581630666838e-17 -6.045259089452434e-17 -0.08068662249574443 0.9967395191072155
12612338666.666666 -0.07361204605894994 0.9972869530254918 -1.3180947813141636e-17 -6.03476214145346e-17 -1.3180947813141636e-17 -6.03476214145346e-17 -0.07361265238716128 0.9972869082708251
12612956000.0 -0.06653436996827898 0.997784133774825 -1.3611464598923362e-17 -6.023957755202164e-17 -1.3611464598923362e-17 -6.023957755202164e-17 -0.06653497656906812 0.9977840933252083
12613573333.333334 -0.05945334449378933 0.9982310853847202 -1.4041110103182738e-17 -6.012846608681127e-17 -1.4041110103182738e-17 -6.012846608681127e-17 -0.059453951336594334 0.9982310492417675
12614190666.666666 -0.05236932609920259 0.9986277853553696 -1.446986249461391e-17 -6.001429395432224e-17 -1.446986249461391e-17 -6.001429395432224e-17 -0.052369933153452355 0.9986277535204781
12614808000.0 -0.045282671398820244 0.9989742137166707 -1.4897699996534202e-17 -5.989706824514901e-17 -1.4897699996534202e-17 -5.989706824514901e-17 -0.04528327863393609 0.9989741861910223
12615425333.333334 -0.03819373713977037 0.9992703530292252 -1.5324600887980602e-17 -5.97767962046366e-17 -1.5324600887980602e-17 -5.97767962046366e-17 -0.03819434452516744 0.999270329813783
12616042666.666666 -0.03110288018384982 0.9995161883852224 -1.5750543504819933e-17 -5.965348523244327e-17 -1.5750543504819933e-17 -5.965348523244327e-17 -0.031103487688938704 0.9995161694807333
12616660000.0 -0.024010457489644785 0.9997117074091871 -1.6175506240830192e-17 -5.952714288210201e-17 -1.6175506240830192e-17 -5.952714288210201e-17 -0.024011065083833043 0.999711692816181
12617277333.333334 -0.01691682609461809 0.9998569002586015 -1.6599467548805667e-17 -5.939777686056727e-17 -1.6599467548805667e-17 -5.939777686056727e-17 -0.016917433747311778 0.9998568899773902
12617894666.666666 -0.00982234309707886 0.9999517596244016 -1.7022405941631482e-17 -5.926539502776132e-17 -1.7022405941631482e-17 -5.926539502776132e-17 -0.009822950777684105 0.9999517536550819
12618512000.0 -0.00272736563812071 0.9999962807313488 -1.744429999338146e-17 -5.913000539610466e-17 -1.744429999338146e-17 -5.913000539610466e-17 -0.002727973316045209 0.999996279073798
12619129333.333334 0.004367749116158094 0.9999904613382634 -1.7865128340385802e-17 -5.89916161300477e-17 -1.7865128340385802e-17 -5.89916161300477e-17 0.004367141471503502 0.9999904639921433
12619746666.666666 0.011462643992833522 0.9999343017381429 -1.8284869682320062e-17 -5.885023554558638e-17 -1.8284869682320062e-17 -5.885023554558638e-17 0.011462036412033338 0.9999343087028985
12620364000.0 0.018556961830050886 0.9998278047581459 -1.8703502783273654e-17 -5.87058721097754e-17 -1.8703502783273654e-17 -5.87058721097754e-17 0.018556354343683384 0.9998278160330035
12620981333.333334 0.02565034549491931 0.9996709757594479 -1.9121006472814943e-17 -5.855853444023451e-17 -1.9121006472814943e-17 -5.855853444023451e-17 0.025649738133555044 0.9996709913434191
12621598666.666666 0.03274243790168898 0.999463822636972 -1.9537359647068765e-17 -5.840823130464086e-17 -1.9537359647068765e-17 -5.840823130464086e-17 0.03274183069588922 0.9994638425288509
12622216000.0 0.03983288202949984 0.9992063558189961 -1.995254126976557e-17 -5.825497162022305e-17 -1.995254126976557e-17 -5.825497162022305e-17 0.039832275009815045 0.9992063800173601
12622833333.333334 0.04692132094058144 0.9988985882666194 -2.036653037331288e-17 -5.809876445323783e-17 -2.036653037331288e-17 -5.809876445323783e-17 0.046920714137549675 0.9988986167698285
12623450666.666666 0.054007397798022654 0.9985405354731174 -2.077930605983653e-17 -5.793961901844909e-17 -2.077930605983653e-17 -5.793961901844909e-17 0.05400679124216811 0.998540568279316
12624068000.0 0.061090755883791974 0.9981322154631629 -2.1190847502242618e-17 -5.777754467859053e-17 -2.1190847502242618e-17 -5.777754467859053e-17 0.061090149605623395 0.998132252570278
12624685333.333334 0.06817103861689341 0.9976736487919029 -2.1601133945258714e-17 -5.761255094382627e-17 -2.1601133945258714e-17 -5.761255094382627e-17 0.06817043264690259 0.9976736901976457
12625302666.666666 0.07524788957094834 0.9971648585439485 -2.2010144706471415e-17 -5.744464747120515e-17 -2.2010144706471415e-17 -5.744464747120515e-17 0.07524728393960865 0.9971649042458154
12625920000.0 0.08232095249247862 0.996605870332192 -2.2417859177375613e-17 -5.727384406410056e-17 -2.2417859177375613e-17 -5.727384406410056e-17 0.08232034723024327 0.9966059203274613
12626537333.333334 0.08938987131861358 0.9959967122965295 -2.2824256824397027e-17 -5.71001506716521e-17 -2.2824256824397027e-17 -5.71001506716521e-17 0.08938926645591437 0.9959967665822653
12627154666.666666 0.0964542901951 0.9953374151024434 -2.3229317189926678e-17 -5.692357738819381e-17 -2.3229317189926678e-17 -5.692357738819381e-17 0.09645368576234552 0.995337473675493
12627772000.0 0.10351385349430041 0.9946280119394463 -2.3633019893350803e-17 -5.67441344526744e-17 -2.3633019893350803e-17 -5.67441344526744e-17 0.1035132495218747 0.9946280747964417
12628389333.333334 0.11056820583289796 0.9938685385194307 -2.403534463205911e-17 -5.65618322480786e-17 -2.403534463205911e-17 -5.65618322480786e-17 0.11056760235115885 0.993868605656789
12629006666.666666 0.11761699208998436 0.993059033074852 -2.4436271182480214e-17 -5.63766813008266e-17 -2.4436271182480214e-17 -5.63766813008266e-17 0.11761638912926213 0.9930591044887753
12629624000.0 0.12465985742485218 0.9921995363568105 -2.4835779401071377e-17 -5.618869228018519e-17 -2.4835779401071377e-17 -5.618869228018519e-17 0.12465925501544788 0.992199612043286
12630241333.333334 0.13169644729480157 0.9912900916330107 -2.5233849225345108e-17 -5.599787599765319e-17 -2.5233849225345108e-17 -5.599787599765319e-17 0.13169584546698543 0.9912901715878102
12630858666.666666 0.1387264074730159 0.9903307446855747 -2.56304606748577e-17 -5.580424340635471e-17 -2.56304606748577e-17 -5.580424340635471e-17 0.13872580625702613 0.9903308289042567
12631476000.0 0.14574938406659182 0.9893215438087175 -2.6025593852220204e-17 -5.560780560041306e-17 -2.6025593852220204e-17 -5.560780560041306e-17 0.1457487834926326 0.9893216322866248
12632093333.333334 0.1527650235340435 0.9882625398063501 -2.6419228944080894e-17 -5.5408573814328656e-17 -2.6419228944080894e-17 -5.5408573814328656e-17 0.15276442363228399 0.9882626325386132
12632710666.666666 0.15977297270315796 0.987153785989524 -2.6811346222119017e-17 -5.520655942234273e-17 -2.6811346222119017e-17 -5.520655942234273e-17 0.15977237350373039 0.9871538829710588
12633328000.0 0.1667728787891101 0.985995338173689 -2.7201926044031895e-17 -5.500177393779438e-17 -2.7201926044031895e-17 -5.500177393779438e-17 0.1667722803221084 0.9859954393991982
12633945333.333334 0.17376438941174518 0.9847872546759622 -2.7590948854509526e-17 -5.479422901247477e-17 -2.7590948854509526e-17 -5.479422901247477e-17 0.17376379170722364 0.9847873601399354
12634562666.666666 0.18074715261365465 0.9835295963121348 -2.797839518621222e-17 -5.4583936435970795e-17 -2.797839518621222e-17 -5.4583936435970795e-17 0.18074655570162607 0.9835297060088489
12635180000.0 0.18772081687778158 0.9822224263936323 -2.836424566073377e-17 -5.437090813500612e-17 -2.836424566073377e-17 -5.437090813500612e-17 0.18772022078821593 0.9822225403171514
12635797333.333334 0.19468503114505997 0.9808658107243327 -2.874848098957691e-17 -5.4155156172767126e-17 -2.874848098957691e-17 -5.4155156172767126e-17 0.1946844359078831 0.9808659288685094
12636414666.666666 0.20163944483214444 0.9794598175972509 -2.913108197510049e-17 -5.393669274823389e-17 -2.913108197510049e-17 -5.393669274823389e-17 0.2016388504772361 0.9794599399557254
12637032000.0 0.20858370784914104 0.9780045177910777 -2.951202951148624e-17 -5.3715530195491496e-17 -2.951202951148624e-17 -5.3715530195491496e-17 0.208583114406334 0.9780046443572794
12637649333.333334 0.21551747061703735 0.9764999845666608 -2.989130458567579e-17 -5.3491680983047634e-17 -2.989130458567579e-17 -5.3491680983047634e-17 0.21551687811611508 0.9765001153338065
12638266666.666666 0.22244038408552194 0.9749462936632668 -3.0268888278325754e-17 -5.326515771313154e-17 -3.0268888278325754e-17 -5.326515771313154e-17 0.22243979255621785 0.9749464286243634
12638884000.0 0.22935209975033383 0.9733435232948168 -3.064476176474193e-17 -5.303597312099397e-17 -3.064476176474193e-17 -5.303597312099397e-17 0.22935150922232964 0.9733436624426614
12639501333.333334 0.2362522696710291 0.9716917541459029 -3.1018906315810237e-17 -5.280414007420054e-17 -3.1018906315810237e-17 -5.280414007420054e-17 0.23625168017395318 0.9716918974730822
12640118666.666666 0.24314054648824654 0.9699910693677815 -3.139130329892671e-17 -5.256967157191558e-17 -3.139130329892671e-17 -5.256967157191558e-17 0.24313995805167216 0.9699912168666712
12640736000.0 0.250016583441553 0.9682415545740991 -3.1761934178932314e-17 -5.2332580744172806e-17 -3.1761934178932314e-17 -5.2332580744172806e-17 0.2500159960949976 0.9682417062368676
12641353333.333334 0.2568800343864033 0.9664432978367089 -3.213078051900582e-17 -5.2092880851163104e-17 -3.213078051900582e-17 -5.2092880851163104e-17 0.2568794481593266 0.9664434536553161
12641970666.666666 0.2637305538120621 0.9645963896811125 -3.2497823981600966e-17 -5.1850585282483775e-17 -3.2497823981600966e-17 -5.1850585282483775e-17 0.2637299687338641 0.9645965496473075
12642588000.0 0.27056779685863797 0.9627009230819908 -3.286304632934164e-17 -5.1605707556405075e-17 -3.286304632934164e-17 -5.1605707556405075e-17 0.27056721295865815 0.9627010871873155
12643205333.333334 0.27739141933466466 0.9607569934584685 -3.322642942591881e-17 -5.135826131912565e-17 -3.322642942591881e-17 -5.135826131912565e-17 0.27739083664218034 0.9607571616942581
12643822666.666666 0.28420107773431735 0.9587646986693389 -3.358795523700233e-17 -5.1108260344008416e-17 -3.358795523700233e-17 -5.1108260344008416e-17 0.28420049627854244 0.9587648710267211
12644440000.0 0.29099642925476055 0.9567241390081224 -3.394760583111218e-17 -5.0855718530832934e-17 -3.394760583111218e-17 -5.0855718530832934e-17 0.290995849064844 0.9567243154780197
12645057333.333334 0.29777713181332355 0.9546354171980455 -3.430536338051464e-17 -5.060064990502172e-17 -3.430536338051464e-17 -5.060064990502172e-17 0.2977765529183468 0.9546355977711714
12645674666.666666 0.3045428440647734 0.9524986383868451 -3.466121016209679e-17 -5.034306861687072e-17 -3.466121016209679e-17 -5.034306861687072e-17 0.30454226649375116 0.9524988230537106
12646292000.0 0.31129322541858306 0.9503139101414596 -3.501512855824508e-17 -5.0082988940766673e-17 -3.501512855824508e-17 -5.0082988940766673e-17 0.31129264920045974 0.9503140988923685
12646909333.333334 0.3180279360559116 0.9480813424426581 -3.53671010577031e-17 -4.9820425274409955e-17 -3.53671010577031e-17 -4.9820425274409955e-17 0.3180273612195608 0.9480815352677101
12647526666.666666 0.3247466369467667 0.9458010476794896 -3.57171102564426e-17 -4.9555392138016514e-17 -3.57171102564426e-17 -4.9555392138016514e-17 0.32474606352098984 0.9458012445685808
12648144000.0 0.3314489898672596 0.9434731406435627 -3.6065138858513475e-17 -4.928790417352521e-17 -3.6065138858513475e-17 -4.928790417352521e-17 0.33144841788078433 0.9434733415863852
12648761333.333334 0.3381346574163088 0.9410977385233745 -3.6411169676896583e-17 -4.901797614379367e-17 -3.6411169676896583e-17 -4.901797614379367e-17 0.33813408689778734 0.9410979435094177
12649378666.666666 0.3448033030328133 0.9386749608983483 -3.675518563434162e-17 -4.874562293179342e-17 -3.675518563434162e-17 -4.874562293179342e-17 0.34480273401082107 0.9386751699168984
12649996000.0 0.35145459101262205 0.9362049297328047 -3.7097169764214874e-17 -4.8470859539788514e-17 -3.7097169764214874e-17 -4.8470859539788514e-17 0.3514540235156563 0.9362051427729456
12650613333.333334 0.35808818652540564 0.9336877693698264 -3.7437105211321e-17 -4.819370108852233e-17 -3.7437105211321e-17 -4.819370108852233e-17 0.3580876205818845 0.9336879864204419
12651230666.666666 0.36470375563130053 0.9311236065250844 -3.777497523273313e-17 -4.791416281638874e-17 -3.777497523273313e-17 -4.791416281638874e-17 0.36470319126956097 0.9311238275748577
12651848000.0 0.3713009652981707 0.9285125702802854 -3.811076319861496e-17 -4.7632260078597944e-17 -3.811076319861496e-17 -4.7632260078597944e-17 0.37130040254646735 0.9285127953176987
12652465333.333334 0.3778794834179219 0.9258547920768458 -3.844445259303151e-17 -4.7348008346341233e-17 -3.844445259303151e-17 -4.7348008346341233e-17 0.3778789223044254 0.9258550210901818
12653082666.666666 0.384438978823406 0.9231504057092064 -3.877602701475241e-17 -4.706142320595132e-17 -3.877602701475241e-17 -4.706142320595132e-17 0.384438419376202 0.9231506386865487
12653700000.0 0.39097912130527546 0.9203995473180168 -3.9105470178062045e-17 -4.67725203580456e-17 -3.9105470178062045e-17 -4.67725203580456e-17 0.39097856355236293 0.9203997842472509
12654317333.333334 0.3974995816281606 0.9176023553834702 -3.943276591354386e-17 -4.6481315616681015e-17 -3.943276591354386e-17 -4.6481315616681015e-17 0.39749902559745065 0.9176025962522844
12654934666.666666 0.40400003154768926 0.9147589707181459 -3.975789816887807e-17 -4.618782490848649e-17 -3.975789816887807e-17 -4.618782490848649e-17 0.4039994772670031 0.9147592155140299
12655552000.0 0.41048014382680026 0.911869536460006 -4.0080851009619455e-17 -4.589206427180066e-17 -4.0080851009619455e-17 -4.589206427180066e-17 0.4104795913238685 0.911869785170254
12656169333.333334 0.41693959225216554 0.9089341980652139 -4.040160861996961e-17 -4.55940498558051e-17 -4.040160861996961e-17 -4.55940498558051e-17 0.4169390415546272 0.9089344506769255
12656786666.666666 0.4233780516507946 0.9059531033007351 -4.072015530355502e-17 -4.5293797919639925e-17 -4.072015530355502e-17 -4.5293797919639925e-17 0.4233775027861946 0.9059533598008129
12657404000.0 0.42979519790619575 0.902926402236987 -4.103647548417958e-17 -4.4991324831531735e-17 -4.103647548417958e-17 -4.4991324831531735e-17 0.4297946509019839 0.9029266626121396
12658021333.333334 0.4361907079748989 0.8998542472401916 -4.1350553706591346e-17 -4.468664706789776e-17 -4.1350553706591346e-17 -4.468664706789776e-17 0.43619016285842893 0.8998545114769344
12658638666.666666 0.4425642599025123 0.8967367929648019 -4.1662374637222e-17 -4.4379781212463165e-17 -4.1662374637222e-17 -4.4379781212463165e-17 0.44256371670104 0.8967370610494564
12659256000.0 0.44891553284010877 0.8935741963456288 -4.1971923064939033e-17 -4.407074395535588e-17 -4.1971923064939033e-17 -4.407074395535588e-17 0.44891499158079184 0.893574468264326
12659873333.333334 0.4552442070603023 0.8903666165899822 -4.2279183901778446e-17 -4.3759552092207725e-17 -4.2279183901778446e-17 -4.3759552092207725e-17 0.45524366777019676 0.890366892328659
12660490666.666666 0.4615499639732652 0.8871142151696891 -4.258414218367131e-17 -4.3446222523251106e-17 -4.258414218367131e-17 -4.3446222523251106e-17 0.46154942667932597 0.887114494714093
12661108000.0 0.4678324861429442 0.8838171558128788 -4.288678307117549e-17 -4.3130772252397794e-17 -4.288678307117549e-17 -4.3130772252397794e-17 0.46783195087202334 0.8838174391485674
12661725333.333334 0.47409145730284014 0.8804756044958459 -4.318709185018254e-17 -4.281321838633167e-17 -4.318709185018254e-17 -4.281321838633167e-17 0.4740909240816844 0.8804758916081857
12662342666.666666 0.48032656237212656 0.8770897294345836 -4.3485053932637387e-17 -4.249357813357646e-17 -4.3485053932637387e-17 -4.249357813357646e-17 0.4803260312273777 0.8770900203087544
12662960000.0 0.48653748747131437 0.8736597010764297 -4.3780654857231737e-17 -4.2171868803578655e-17 -4.3780654857231737e-17 -4.2171868803578655e-17 0.4865369584295067 0.8736599956974223
12663577333.333334 0.49272391993825004 0.8701856920913724 -4.407388029010865e-17 -4.184810780576653e-17 -4.407388029010865e-17 -4.184810780576653e-17 0.49272339302580953 0.8701859904439905
12664194666.666666 0.49888554834365745 0.8666678773634705 -4.436471602554856e-17 -4.1522312648617355e-17 -4.436471602554856e-17 -4.1522312648617355e-17 0.4988850235869005 0.8666681794323322
12664812000.0 0.5050220625069888 0.8631064339819525 -4.4653147986648313e-17 -4.1194500938719604e-17 -4.4653147986648313e-17 -4.1194500938719604e-17 0.5050215399321203 0.8631067397514892
12665429333.333334 0.5111331535119887 0.8595015412323267 -4.4939162226004984e-17 -4.086469037981779e-17 -4.4939162226004984e-17 -4.086469037981779e-17 0.5111326331451014 0.859501850686786
12666046666.666666 0.5172185137220507 0.8558533805874745 -4.522274492637544e-17 -4.053289877187201e-17 -4.522274492637544e-17 -4.053289877187201e-17 0.5172179955891236 0.8558536937109192
12666664000.0 0.5232778367961183 0.8521621356982664 -4.5503882401347086e-17 -4.019914401009191e-17 -4.5503882401347086e-17 -4.019914401009191e-17 0.5232773209230158 0.8521624524745777
12667281333.333334 0.529310817703692 0.8484279923845656 -4.578256109598372e-17 -3.986344408398734e-17 -4.578256109598372e-17 -3.986344408398734e-17 0.5293103041161616 0.8484283127974404
12667898666.666666 0.5353171527403572 0.8446511386257721 -4.605876758748125e-17 -3.9525817076394827e-17 -4.605876758748125e-17 -3.9525817076394827e-17 0.5353166414640291 0.8446514626587271
12668516000.0 0.5412965395432134 0.8408317645512668 -4.63324885858045e-17 -3.9186281162512046e-17 -4.63324885858045e-17 -3.9186281162512046e-17 0.5412960306035997 0.8408320921876388
12669133333.333334 0.5472486771058116 0.836970062431026 -4.660371093431818e-17 -3.884485460892932e-17 -4.660371093431818e-17 -3.884485460892932e-17 0.5472481705283028 0.8369703936539699
12669750666.666666 0.5531732657934698 0.8330662266658296 -4.687242161042044e-17 -3.850155577264206e-17 -4.687242161042044e-17 -3.850155577264206e-17 0.5531727616033361 0.8330665614583228
