! Parameters = {f0=12700.012000; bw=77.238000; Q=6100.000000; N=10; m_0_1=1.314409; m_1_1=0.951395; m_1_2=1.149221; m_2_2=0.950746; m_2_3=0.786184; m_2_8=0.002784; m_2_9=0.039488; m_3_3=0.948809; m_3_4=0.674713; m_3_7=0.003384; m_3_8=-0.093704; m_3_9=0.002784; m_4_4=0.945884; m_4_5=0.511048; m_4_6=0.006901; m_4_7=-0.114253; m_4_8=0.003384; m_5_5=0.946266; m_5_6=0.918403; m_5_7=0.006901; m_6_6=0.946265; m_6_7=0.511390; m_7_7=0.945898; m_7_8=0.674831; m_8_8=0.948807; m_8_9=0.786497; m_9_9=0.950741; m_9_10=1.150299; m_10_10=0.951385; m_10_11=1.315204}
!
! Created with skrf (http://scikit-rf.org).
# Hz S RI R 50.0 
!freq ReS11 ImS11 ReS21 ImS21 ReS12 ImS12 ReS22 ImS22
12607400000.0 0.5973600073649495 -0.8019732050391446 -4.683056123253949e-17 1.2742342212263927e-16 -4.683056123253949e-17 1.2742342212263927e-16 0.5973605626713853 -0.8019727914117394
12608017333.333334 0.5878263891408859 -0.808987105106996 -4.529893632629098e-17 1.2794772223676143e-16 -4.529893632629098e-17 1.2794772223676143e-16 0.5878269492765028 -0.8089866981008342
12608634666.666666 0.5782104254529656 -0.8158876784811208 -4.376146997427283e-17 1.284536238088162e-16 -4.376146997427283e-17 1.284536238088162e-16 0.578210990338828 -0.8158872781525662
12609252000.0 0.5685134633503491 -0.8226739584970486 -4.221838305103112e-17 1.2894106211743072e-16 -4.221838305103112e-17 1.2894106211743072e-16 0.5685140329068642 -0.8226735649015253
12609869333.333334 0.5587368612288092 -0.8293449945010763 -4.066989714360821e-17 1.2940997509121192e-16 -4.066989714360821e-17 1.2940997509121192e-16 0.5587374353757376 -0.8293446076930592
12610486666.666666 0.5488819886405575 -0.8358998519833573 -3.9116234519786916e-17 1.2986030331652586e-16 -3.9116234519786916e-17 1.2986030331652586e-16 0.5488825672970249 -0.8358994720163654
12611104000.0 0.5389502261021305 -0.8423376127089861 -3.7557618096191e-17 1.302919900449135e-16 -3.7557618096191e-17 1.302919900449135e-16 0.5389508091866383 -0.8423372396355745
12611721333.333334 0.5289429649013324 -0.8486573748464088 -3.5994271406398844e-17 1.3070498120009858e-16 -3.5994271406398844e-17 1.3070498120009858e-16 0.5289435523317702 -0.8486570087181622
12612338666.666666 0.5188616069021017 -0.8548582530939155 -3.442641856889276e-17 1.310992253846381e-16 -3.442641856889276e-17 1.310992253846381e-16 0.5188621985957574 -0.8548578939614397
12612956000.0 0.5087075643481239 -0.8609393788036468 -3.285428425497471e-17 1.3147467388617814e-16 -3.285428425497471e-17 1.3147467388617814e-16 0.5087081602216981 -0.8609390267165651
12613573333.333334 0.4984822596652248 -0.8668999001031562 -3.1278093656649964e-17 1.3183128068331906e-16 -3.1278093656649964e-17 1.3183128068331906e-16 0.4984828596348388 -0.8668995551100971
12614190666.666666 0.48818712526186014 -0.872738982014882 -2.9698072454377995e-17 1.3216900245111162e-16 -2.9698072454377995e-17 1.3216900245111162e-16 0.48818772924307097 -0.8727386441634776
12614808000.0 0.47782360332858226 -0.8784558065730458 -2.811444678482289e-17 1.3248779856615556e-16 -2.811444678482289e-17 1.3248779856615556e-16 0.47782421123639324 -0.8784554759099231
12615425333.333334 0.4673931456359872 -0.8840495729382528 -2.6527443208529086e-17 1.3278763111131704e-16 -2.6527443208529086e-17 1.3278763111131704e-16 0.4673937573848597 -0.8840492495090271
12616042666.666666 0.45689721333134276 -0.8895194975096749 -2.4937288677553146e-17 1.3306846488005877e-16 -2.4937288677553146e-17 1.3306846488005877e-16 0.4568978288352079 -0.8895191813589425
12616660000.0 0.4463372767339037 -0.8948648140348202 -2.334421050305268e-17 1.3333026738038329e-16 -2.334421050305268e-17 1.3333026738038329e-16 0.4463378959061763 -0.8948645052061559
12617277333.333334 0.43571481512891863 -0.900084773716889 -2.1748436322832982e-17 1.335730088383892e-16 -2.1748436322832982e-17 1.335730088383892e-16 0.43571543788250705 -0.9000844722528358
12617894666.666666 0.42503131656053095 -0.9051786453196031 -2.0150194068886754e-17 1.337966622014364e-16 -2.0150194068886754e-17 1.337966622014364e-16 0.4250319428078511 -0.9051783512616692
12618512000.0 0.41428827762304704 -0.9101457152697806 -1.8549711934820848e-17 1.3400120314093513e-16 -1.8549711934820848e-17 1.3400120314093513e-16 0.4142889072760335 -0.9101454286584321
12619129333.333334 0.40348720325164267 -0.9149852877571197 -1.694721834341086e-17 1.3418661005472452e-16 -1.694721834341086e-17 1.3418661005472452e-16 0.40348783622176204 -0.914985008631776
12619746666.666666 0.39262960651129075 -0.9196966848317982 -1.5342941913972296e-17 1.3435286406908764e-16 -1.5342941913972296e-17 1.3435286406908764e-16 0.39263024270955366 -0.9196964132308268
12620364000.0 0.3817170083848011 -0.9242792464994387 -1.3737111429792374e-17 1.3449994904036392e-16 -1.3737111429792374e-17 1.3449994904036392e-16 0.38171764772177397 -0.9242789824601478
12620981333.333334 0.3707509375599885 -0.9287323308134595 -1.2129955805601245e-17 1.3462785155617092e-16 -1.2129955805601245e-17 1.3462785155617092e-16 0.3707515799458079 -0.9287320743720966
12621598666.666666 0.35973293021526764 -0.9330553139651196 -1.0521704054930201e-17 1.3473656093624739e-16 -1.0521704054930201e-17 1.3473656093624739e-16 0.35973357555965146 -0.9330550651568638
12622216000.0 0.3486645298045878 -0.9372475903708457 -8.912585257545024e-18 1.3482606923290052e-16 -8.912585257545024e-18 1.3482606923290052e-16 0.348665178016848 -0.937247349229802
12622833333.333334 0.33754728684116525 -0.9413085727570848 -7.302828526852083e-18 1.3489637123106684e-16 -7.302828526852083e-18 1.3489637123106684e-16 0.33754793783022125 -0.9413083393162821
12623450666.666666 0.3263827586803874 -0.9452376922425344 -5.692662977335387e-18 1.3494746444798402e-16 -5.692662977335387e-18 1.3494746444798402e-16 0.32638341235477836 -0.9452374665339193
12624068000.0 0.31517250930151797 -0.9490343984178843 -4.082317691971752e-18 1.349793491324763e-16 -4.082317691971752e-18 1.349793491324763e-16 0.3151731655694164 -0.9490341804723185
12624685333.333334 0.3039181090885799 -0.9526981594229271 -2.4720216896784484e-18 1.3499202826384993e-16 -2.4720216896784484e-18 1.3499202826384993e-16 0.30391876785780336 -0.9526979492701798
12625302666.666666 0.292621134610638 -0.9562284620209723 -8.6200389282495e-19 1.3498550755040177e-16 -8.6200389282495e-19 1.3498550755040177e-16 0.2926217957886629 -0.9562282596897194
12625920000.0 0.28128316840054013 -0.9596248116708765 7.47506905324833e-19 1.349597954275408e-16 7.47506905324833e-19 1.349597954275408e-16 0.2812838318945145 -0.9596246171886952
12626537333.333334 0.2699057987336084 -0.9628867325961992 2.3562820730279673e-18 1.3491490305552271e-16 2.3562820730279673e-18 1.3491490305552271e-16 0.2699064644503653 -0.9628865459895655
12627154666.666666 0.25849061940498436 -0.9660137678519077 3.9640931725190304e-18 1.3485084431679857e-16 3.9640931725190304e-18 1.3485084431679857e-16 0.2584912872510541 -0.9660135891461903
12627772000.0 0.24703922950619658 -0.9690054793884277 5.570711992426332e-18 1.3476763581297577e-16 5.570711992426332e-18 1.3476763581297577e-16 0.24703989938782067 -0.9690053086078874
12628389333.333334 0.2355532332015373 -0.9718614481129051 7.175910580066672e-18 1.3466529686139734e-16 7.175910580066672e-18 1.3466529686139734e-16 0.23555390502468135 -0.9718612852806902
12629006666.666666 0.22403423950293178 -0.9745812739480254 8.779461273801803e-18 1.3454384949133214e-16 8.779461273801803e-18 1.3454384949133214e-16 0.22403491317329802 -0.9745811190861662
12629624000.0 0.21248386204484118 -0.9771645758879725 1.0381136735241276e-17 1.3440331843978495e-16 1.0381136735241276e-17 1.3440331843978495e-16 0.21248453746788326 -0.9771644290173844
12630241333.333334 0.20090371885805441 -0.979610992051853 1.1980709981451883e-17 1.3424373114692106e-16 1.1980709981451883e-17 1.3424373114692106e-16 0.2009043959389891 -0.9796108531923282
12630858666.666666 0.18929543214319144 -0.9819201797343485 1.3577954417058138e-17 1.3406511775111133e-16 1.3577954417058138e-17 1.3406511775111133e-16 0.18929611078701256 -0.9819200489045545
12631476000.0 0.177660628043152 -0.9840918154537844 1.5172643866339848e-17 1.3386751108358888e-16 1.5172643866339848e-17 1.3386751108358888e-16 0.17766130815464395 -0.9840916926712633
12632093333.333334 0.16600093641568042 -0.9861255949973756 1.6764552605166243e-17 1.3365094666273613e-16 1.6764552605166243e-17 1.3365094666273613e-16 0.16600161789943135 -0.9861254802785406
12632710666.666666 0.15431799060488097 -0.9880212334638785 1.8353455392925706e-17 1.3341546268798327e-16 1.8353455392925706e-17 1.3341546268798327e-16 0.15431867336529587 -0.98802112682401
12633328000.0 0.1426134272122697 -0.9897784653035152 1.993912750437028e-17 1.3316110003332765e-16 1.993912750437028e-17 1.3316110003332765e-16 0.14261411115358433 -0.9897783667567629
12633945333.333334 0.13088888586776512 -0.9913970443551396 2.1521344761317937e-17 1.3288790224048499e-16 2.1521344761317937e-17 1.3288790224048499e-16 0.13088957089405898 -0.991396953914516
12634562666.666666 0.11914600899986034 -0.9928767438807378 2.3099883564336398e-17 1.3259591551165232e-16 2.3099883564336398e-17 1.3259591551165232e-16 0.11914669501507051 -0.9928766615581198
12635180000.0 0.10738644160557255 -0.9942173565971903 2.4674520924271914e-17 1.3228518870190567e-16 2.4674520924271914e-17 1.3228518870190567e-16 0.10738712851350679 -0.9942172824033163
12635797333.333334 0.09561183101997511 -0.9954186947053075 2.6245034493728098e-17 1.319557733112154e-16 2.6245034493728098e-17 1.319557733112154e-16 0.09561251872432575 -0.9954186286497766
12636414666.666666 0.0838238266855453 -0.9964805899161318 2.781120259838108e-17 1.316077234761003e-16 2.781120259838108e-17 1.316077234761003e-16 0.08382451508990234 -0.9964805320074016
12637032000.0 0.07202407992093231 -0.9974028934745247 2.9372804268284225e-17 1.312410959608901e-16 2.9372804268284225e-17 1.312410959608901e-16 0.07202476892879715 -0.9974028437199107
12637649333.333334 0.06021424368974608 -0.9981854761799952 3.09296192689482e-17 1.3085595014864187e-16 3.09296192689482e-17 1.3085595014864187e-16 0.06021493320454505 -0.9981854345856704
12638266666.666666 0.048395972368974215 -0.998828228404801 3.2481428132379074e-17 1.3045234803167075e-16 3.2481428132379074e-17 1.3045234803167075e-16 0.04839666229407209 -0.998828194975795
12638884000.0 0.03657092151722924 -0.9993310601093078 3.4028012187969547e-17 1.3003035420172135e-16 3.4028012187969547e-17 1.3003035420172135e-16 0.036571611755942736 -0.9993310348495057
12639501333.333334 0.024740747642801604 -0.9996939008546002 3.556915359327172e-17 1.295900358397693e-16 3.556915359327172e-17 1.295900358397693e-16 0.024741438098412973 -0.9996938837667427
12640118666.666666 0.01290710797180734 -0.9999166998123471 3.710463536461495e-17 1.2913146270546821e-16 3.710463536461495e-17 1.2913146270546821e-16 0.01290779854757787 -0.9999166908980301
12640736000.0 0.001071660215439252 -0.999999425771932 3.863424140766978e-17 1.2865470712620898e-16 3.863424140766978e-17 1.2865470712620898e-16 0.001072350814622845 -0.9999994250316057
12641353333.333334 -0.010763937661286797 -0.9999420671448104 4.015775654772782e-17 1.281598439858637e-16 4.015775654772782e-17 1.281598439858637e-16 -0.010763247135430053 -0.9999420745777793
12641970666.666666 -0.022598027672668296 -0.9997446319661425 4.167496656000289e-17 1.2764695071311943e-16 4.167496656000289e-17 1.2764695071311943e-16 -0.022597337316858604 -0.9997446475705682
12642588000.0 -0.034428952044148205 -0.999407147893667 4.318565819967268e-17 1.271161072694906e-16 4.318565819967268e-17 1.271161072694906e-16 -0.034428261955072516 -0.999407171666566
12643205333.333334 -0.04625505344457224 -0.9989296622038276 4.468961923180925e-17 1.2656739613696311e-16 4.468961923180925e-17 1.2656739613696311e-16 -0.04625436371887064 -0.9989296941410712
12643822666.666666 -0.05807467521858256 -0.9983122417851378 4.618663846116528e-17 1.2600090230528165e-16 4.618663846116528e-17 1.2600090230528165e-16 -0.05807398595283495 -0.9983122818814569
12644440000.0 -0.06988616161840608 -0.9975549731288281 4.767650576176819e-17 1.2541671325889615e-16 4.767650576176819e-17 1.2541671325889615e-16 -0.06988547290911834 -0.9975550213778088
12645057333.333334 -0.08168785803582759 -0.9966579623167269 4.9159012106372854e-17 1.2481491896355251e-16 4.9159012106372854e-17 1.2481491896355251e-16 -0.08168716997941829 -0.9966580187108138
12645674666.666666 -0.09347811123411717 -0.9956213350063944 5.063394959574288e-17 1.2419561185253642e-16 5.063394959574288e-17 1.2419561185253642e-16 -0.093477423926904 -0.9956213995368931
12646292000.0 -0.10525526957970767 -0.9944452364135067 5.210111148778422e-17 1.2355888681256073e-16 5.210111148778422e-17 1.2355888681256073e-16 -0.10525458311789407 -0.9944453090705845
12646909333.333334 -0.11701768327322412 -0.9931298312915494 5.356029222643364e-17 1.2290484116934117e-16 5.356029222643364e-17 1.2290484116934117e-16 -0.11701699775288552 -0.9931299120642341
12647526666.666666 -0.1287637045808775 -0.9916753039087043 5.501128747044723e-17 1.2223357467279493e-16 5.501128747044723e-17 1.2223357467279493e-16 -0.12876302009794838 -0.9916753927848906
12648144000.0 -0.14049168806523146 -0.9900818580220495 5.645389412196331e-17 1.2154518948191942e-16 5.645389412196331e-17 1.2154518948191942e-16 -0.14049100471549136 -0.9900819549884965
12648761333.333334 -0.15219999081572963 -0.9883497168490033 5.788791035488796e-17 1.2083979014932984e-16 5.788791035488796e-17 1.2083979014932984e-16 -0.15219930869479012 -0.9883498218913384
12649378666.666666 -0.1638869726785615 -0.9864791230360982 5.931313564305062e-17 1.2011748360547997e-16 5.931313564305062e-17 1.2011748360547997e-16 -0.1638862918818526 -0.9864792361388189
12649996000.0 -0.175550996486845 -0.9844703386249317 6.072937078825048e-17 1.1937837914251165e-16 6.072937078825048e-17 1.1937837914251165e-16 -0.17555031710960223 -0.9844704597714092
12650613333.333334 -0.18719042828974322 -0.9823236450154885 6.213641794802356e-17 1.186225883978112e-16 6.213641794802356e-17 1.186225883978112e-16 -0.18718975042699348 -0.9823237741879667
12651230666.666666 -0.1988036375812717 -0.9800393429267351 6.353408066322075e-17 1.17850225337234e-16 6.353408066322075e-17 1.17850225337234e-16 -0.19880296132782094 -0.9800394801063375
12651848000.0 -0.21038899752898765 -0.977617752354447 6.492216388543872e-17 1.1706140623797186e-16 6.492216388543872e-17 1.1706140623797186e-16 -0.21038832297940685 -0.9776178975211759
12652465333.333334 -0.22194488520163178 -0.9750592125264222 6.630047400414545e-17 1.162562496711487e-16 6.630047400414545e-17 1.162562496711487e-16 -0.22194421245024432 -0.9750593656591647
12653082666.666666 -0.23346968179645053 -0.9723640818549798 6.766881887363573e-17 1.1543487648407568e-16 6.766881887363573e-17 1.1543487648407568e-16 -0.2334690109373183 -0.9723642429315071
12653700000.0 -0.24496177286637882 -0.9695327378866446 6.902700783983219e-17 1.145974097821491e-16 6.902700783983219e-17 1.145974097821491e-16 -0.24496110399328994 -0.9695329068836194
12654317333.333334 -0.2564195485455376 -0.9665655772494256 7.037485176672349e-17 1.13743974910518e-16 7.037485176672349e-17 1.13743974910518e-16 -0.25641888175199246 -0.966565754142402
12654934666.666666 -0.2678414037752752 -0.9634630155971232 7.171216306270408e-17 1.1287469943536535e-16 7.171216306270408e-17 1.1287469943536535e-16 -0.2678407391544741 -0.9634632003605523
12655552000.0 -0.2792257385290103 -0.9602254875510967 7.303875570663125e-17 1.1198971312491096e-16 7.303875570663125e-17 1.1198971312491096e-16 -0.2792250761738398 -0.9602256801583293
12656169333.333334 -0.29057095803587774 -0.9568534466395178 7.435444527362435e-17 1.1108914793012676e-16 7.435444527362435e-17 1.1108914793012676e-16 -0.2905702980388981 -0.9568536470628087
12656786666.666666 -0.3018754730046799 -0.9533473652336876 7.56590489606869e-17 1.1017313796510922e-16 7.56590489606869e-17 1.1017313796510922e-16 -0.301874815458112 -0.9533475734441995
12657404000.0 -0.31313769984622014 -0.949707734481946 7.695238561204107e-17 1.0924181948718374e-16 7.695238561204107e-17 1.0924181948718374e-16 -0.31313704484193294 -0.9497079504497549
12658021333.333334 -0.3243560608953575 -0.9459350642408069 7.82342757442398e-17 1.0829533087669718e-16 7.82342757442398e-17 1.0829533087669718e-16 -0.3243554085248545 -0.9459352879349026
12658638666.666666 -0.33552898463158093 -0.9420298830036723 7.950454157101031e-17 1.0733381261653214e-16 7.950454157101031e-17 1.0733381261653214e-16 -0.33552833498598805 -0.9420301143919676
12659256000.0 -0.34665490589980164 -0.9379927378265847 8.076300702789233e-17 1.0635740727129673e-16 8.076300702789233e-17 1.0635740727129673e-16 -0.346654259069854 -0.9379929768759165
12659873333.333334 -0.35773226612909576 -0.933824194251763 8.200949779656413e-17 1.053662594662694e-16 8.200949779656413e-17 1.053662594662694e-16 -0.3577316222051251 -0.9338244409278984
12660490666.666666 -0.3687595135510395 -0.9295248362283893 8.324384132893871e-17 1.0436051586603945e-16 8.324384132893871e-17 1.0436051586603945e-16 -0.36875887262296214 -0.929525090496031
12661108000.0 -0.3797351034176175 -0.9250952660305988 8.446586687102789e-17 1.0334032515284108e-16 8.446586687102789e-17 1.0334032515284108e-16 -0.3797344655749212 -0.9250955278533894
12661725333.333334 -0.39065749821687745 -0.9205361041734013 8.567540548647227e-17 1.0230583800466784e-16 8.567540548647227e-17 1.0230583800466784e-16 -0.39065686354860907 -0.920536373513929
12662342666.666666 -0.4015251678888672 -0.9158479893255369 8.687229007987583e-17 1.0125720707305036e-16 8.687229007987583e-17 1.0125720707305036e-16 -0.4015245364836203 -0.9158482661453405
12662960000.0 -0.41233659003981304 -0.9110315782200699 8.805635541982422e-17 1.001945869606023e-16 8.805635541982422e-17 1.001945869606023e-16 -0.41233596198571537 -0.9110318624796431
12663577333.333334 -0.42309025015527985 -0.9060875455624341 8.922743816164562e-17 9.91181341982819e-17 8.922743816164562e-17 9.91181341982819e-17 -0.4230896255399806 -0.9060878372212328
12664194666.666666 -0.43378464181243476 -0.9010165839358737 9.038537686989009e-17 9.802800722239489e-17 9.038537686989009e-17 9.802800722239489e-17 -0.4337840207230941 -0.9010168829523226
12664812000.0 -0.4444182668910496 -0.8958194037044345 9.153001204054142e-17 9.692436635132133e-17 9.153001204054142e-17 9.692436635132133e-17 -0.44441764941432477 -0.8958197100359311
12665429333.333334 -0.4549896357834148 -0.8904967329134282 9.266118612292436e-17 9.580737376200513e-17 9.266118612292436e-17 9.580737376200513e-17 -0.4549890220054479 -0.8904970465163479
12666046666.666666 -0.46549726760275534 -0.8850493171875683 9.3778743541321e-17 9.467719346619494e-17 9.3778743541321e-17 9.467719346619494e-17 -0.46549665760916337 -0.8850496380172752
12666664000.0 -0.4759396903912154 -0.8794779196262564 9.488253071636699e-17 9.353399128636317e-17 9.488253071636699e-17 9.353399128636317e-17 -0.47593908426707526 -0.8794782476371036
12667281333.333334 -0.486315441325446 -0.8737833206969852 9.597239608603856e-17 9.237793483149535e-17 9.597239608603856e-17 9.237793483149535e-17 -0.48631483915528556 -0.8737836558423264
12667898666.666666 -0.49662306692190644 -0.8679663181258197 9.704819012644846e-17 9.120919347253028e-17 9.704819012644846e-17 9.120919347253028e-17 -0.4966224687896916 -0.8679666603580142
12668516000.0 -0.5068611232404474 -0.8620277267856554 9.810976537230118e-17 9.002793831760191e-17 9.810976537230118e-17 9.002793831760191e-17 -0.506860529229569 -0.8620280760560721
12669133333.333334 -0.5170281760863602 -0.8559683785821904 9.91569764370278e-17 8.883434218706685e-17 9.91569764370278e-17 8.883434218706685e-17 -0.517027586279625 -0.8559687348412194
12669750666.666666 -0.5271228012115354 -0.8497891223372519 1.0018968003266585e-16 8.762857958824519e-17 1.0018968003266585e-16 8.762857958824519e-17 -0.527122215691152 -0.8497894855343076
12670368000.0 -0.5371435845139002 -0.8434908236699261 1.012077349893976e-16 8.641082668997044e-17 1.012077349893976e-16 8.641082668997044e-17 -0.5371430033614701 -0.8434911937534572
