! Parameters = {f0=12700.012000; bw=77.238000; Q=6100.000000; N=10; m_0_1=1.218714; m_1_1=-0.484040; m_1_2=1.053526; m_2_2=-0.484689; m_2_3=0.690489; m_2_8=-0.002001; m_2_9=0.034703; m_3_3=-0.486626; m_3_4=0.579018; m_3_7=-0.001401; m_3_8=-0.098489; m_3_9=-0.002001; m_4_4=-0.489551; m_4_5=0.415353; m_4_6=0.002116; m_4_7=-0.119038; m_4_8=-0.001401; m_5_5=-0.489169; m_5_6=0.822708; m_5_7=0.002116; m_6_6=-0.489170; m_6_7=0.415695; m_7_7=-0.489537; m_7_8=0.579136; m_8_8=-0.486628; m_8_9=0.690802; m_9_9=-0.484694; m_9_10=1.054604; m_10_10=-0.484050; m_10_11=1.219509}
!
! Created with skrf (http://scikit-rf.org).
# Hz S RI R 50.0 
!freq ReS11 ImS11 ReS21 ImS21 ReS12 ImS12 ReS22 ImS22
12607400000.0 0.9447263093590679 0.32786003172792133 -8.620143883654342e-17 -3.970521544280998e-18 -8.620143883654342e-17 -3.970521544280998e-18 0.9447260988133562 0.3278606384132354
12608017333.333334 0.9476409168291199 0.3193378974551913 -8.621709706837377e-17 -3.185700826459985e-18 -8.621709706837377e-17 -3.185700826459985e-18 0.9476407117662039 0.3193385059824136
12608634666.666666 0.9504786500474944 0.310789857948629 -8.622561559034997e-17 -2.4009239112579956e-18 -8.622561559034997e-17 -2.4009239112579956e-18 0.950478450483471 0.31079046826821677
12609252000.0 0.9532392788124923 0.3022166066398024 -8.622699649436596e-17 -1.6162556986836599e-18 -8.622699649436596e-17 -1.6162556986836599e-18 0.9532390847630101 0.302217218702072
12609869333.333334 0.9559225791772399 0.2936188390055566 -8.622124246178674e-17 -8.317610543349365e-19 -8.622124246178674e-17 -8.317610543349365e-19 0.9559223906575005 0.29361945276068857
12610486666.666666 0.9585283334678707 0.28499725251157026 -8.620835676299616e-17 -4.750480405672162e-20 -8.620835676299616e-17 -4.750480405672162e-20 0.958528150492625 0.28499786790961235
12611104000.0 0.9610563303012374 0.2763525465555843 -8.618834325689578e-17 7.364482714206821e-19 -8.618834325689578e-17 7.364482714206821e-19 0.961056152884785 0.27635316354645595
12611721333.333334 0.9635063646019602 0.26768542241099164 -8.616120639035518e-17 1.520033441800506e-18 -8.616120639035518e-17 1.520033441800506e-18 0.9635061927581489 0.26768604094448817
12612338666.666666 0.965878237619118 0.25899658316978763 -8.612695119761432e-17 2.3031860325665117e-18 -8.612695119761432e-17 2.3031860325665117e-18 0.9658780713613406 0.2589972031955836
12612956000.0 0.9681717569424072 0.25028673368536664 -8.608558329963645e-17 3.085841430313453e-18 -8.608558329963645e-17 3.085841430313453e-18 0.9681715962836044 0.25028735515302114
12613573333.333334 0.9703867365176692 0.24155658051567439 -8.603710890341524e-17 3.8679350880337315e-18 -8.603710890341524e-17 3.8679350880337315e-18 0.9703865814703246 0.24155720337463413
12614190666.666666 0.9725229966620292 0.2328068318656975 -8.598153480123045e-17 4.6494025304674256e-18 -8.598153480123045e-17 4.6494025304674256e-18 0.9725228472381718 0.23280745606530154
12614808000.0 0.974580364078485 0.22403819752998602 -8.5918868369858e-17 5.430179359383137e-18 -8.5918868369858e-17 5.430179359383137e-18 0.9745802202896836 0.22403882301946917
12615425333.333334 0.9765586718699368 0.21525138883515504 -8.584911756973075e-17 6.2102012588797435e-18 -8.584911756973075e-17 6.2102012588797435e-18 0.9765585337273042 0.2152520155636529
12616042666.666666 0.9784577595527442 0.20644711858212628 -8.577229094405273e-17 6.989404000662209e-18 -8.577229094405273e-17 6.989404000662209e-18 0.9784576270669336 0.2064477464986788
12616660000.0 0.980277473069719 0.19762610098841515 -8.568839761786351e-17 7.767723449332451e-18 -8.568839761786351e-17 7.767723449332451e-18 0.9802773462509246 0.197626730041971
12617277333.333334 0.9820176648026667 0.18878905162999823 -8.559744729705619e-17 8.545095567648492e-18 -8.559744729705619e-17 8.545095567648492e-18 0.9820175436606204 0.18878968176941863
12617894666.666666 0.9836781935843121 0.17993668738348642 -8.549945026734879e-17 9.321456421773531e-18 -8.549945026734879e-17 9.321456421773531e-18 0.9836780781282849 0.17993731855754955
12618512000.0 0.9852589247097949 0.17106972636774775 -8.539441739320448e-17 1.0096742186538616e-17 -8.539441739320448e-17 1.0096742186538616e-17 0.9852588149485968 0.1710703585251531
12619129333.333334 0.9867597299475589 0.16218888788587624 -8.528236011670947e-17 1.0870889150657946e-17 -8.528236011670947e-17 1.0870889150657946e-17 0.9867596258895359 0.16218952097524839
12619746666.666666 0.9881804875497836 0.1532948923666731 -8.516329045639894e-17 1.1643833721966633e-17 -8.516329045639894e-17 1.1643833721966633e-17 0.9881803892028177 0.1532955263365659
12620364000.0 0.9895210822622634 0.1443884613061469 -8.503722100603673e-17 1.2415512432636809e-17 -8.503722100603673e-17 1.2415512432636809e-17 0.9895209896337746 0.1443890961050482
12620981333.333334 0.9907814053337067 0.13547031720935088 -8.49041649333538e-17 1.3185861944345252e-17 -8.49041649333538e-17 1.3185861944345252e-17 0.9907813184306496 0.13547095278568613
12621598666.666666 0.9919613545246254 0.12654118353132215 -8.476413597872909e-17 1.3954819053498307e-17 -8.476413597872909e-17 1.3954819053498307e-17 0.9919612733534883 0.12654181983345864
12622216000.0 0.993060834115591 0.11760178461861832 -8.461714845383262e-17 1.4722320696383238e-17 -8.461714845383262e-17 1.4722320696383238e-17 0.9930607586823981 0.11760242159486974
12622833333.333334 0.9940797549149999 0.10865284565058583 -8.446321724021683e-17 1.5488303954337353e-17 -8.446321724021683e-17 1.5488303954337353e-17 0.9940796852253093 0.10865348324921618
12623450666.666666 0.9950180342663177 0.099695092580476 -8.430235778786703e-17 1.6252706058874363e-17 -8.430235778786703e-17 1.6252706058874363e-17 0.9950179703252199 0.09969573074970378
12624068000.0 0.9958755960547837 0.09072925207652585 -8.413458611369658e-17 1.7015464396841827e-17 -8.413458611369658e-17 1.7015464396841827e-17 0.9958755378669035 0.0907298907645284
12624685333.333334 0.9966523707135947 0.08175605146292465 -8.395991880000162e-17 1.777651651553012e-17 -8.395991880000162e-17 1.777651651553012e-17 0.9966523182830891 0.08175669061784233
12625302666.666666 0.9973482952295116 0.07277621866120855 -8.377837299287339e-17 1.8535800127754362e-17 -8.377837299287339e-17 1.8535800127754362e-17 0.9973482485600706 0.07277685823114886
12625920000.0 0.9979633131480243 0.06379048213061558 -8.358996640055393e-17 1.929325311696588e-17 -8.358996640055393e-17 1.929325311696588e-17 0.9979632722428701 0.06379112206365747
12626537333.333334 0.9984973745778858 0.05479957080950169 -8.339471729175663e-17 2.004881354230244e-17 -8.339471729175663e-17 2.004881354230244e-17 0.9984973394397741 0.054800211053699796
12627154666.666666 0.9989504361951855 0.045804214055981576 -8.319264449393538e-17 2.0802419643645662e-17 -8.319264449393538e-17 2.0802419643645662e-17 0.9989504068264011 0.04580485455937023
12627772000.0 0.9993224612468554 0.03680514158870473 -8.298376739150423e-17 2.1554009846675635e-17 -8.298376739150423e-17 2.1554009846675635e-17 0.9993224376492175 0.03680578229930243
12628389333.333334 0.9996134195536488 0.02780308342788681 -8.27681059240282e-17 2.2303522767846997e-17 -8.27681059240282e-17 2.2303522767846997e-17 0.9996134017285068 0.027803724293700295
12629006666.666666 0.999823287512599 0.01879876983574825 -8.254568058434424e-17 2.3050897219439038e-17 -8.254568058434424e-17 2.3050897219439038e-17 0.9998232754608338 0.018799410804776755
12629624000.0 0.999952048098917 0.009792931257671752 -8.231651241665986e-17 2.379607221450299e-17 -8.231651241665986e-17 2.379607221450299e-17 0.999952041820944 0.009793572277911245
12630241333.333334 0.9999996908673926 0.0007862982626065695 -8.208062301459238e-17 2.4538986971844797e-17 -8.208062301459238e-17 2.4538986971844797e-17 0.9999996903631541 0.0007869392820539071
12630858666.666666 0.9999662119532222 -0.008220398515912514 -8.183803451917583e-17 2.5279580920946943e-17 -8.183803451917583e-17 2.5279580920946943e-17 0.9999662172221966 -0.008219757549255302
12631476000.0 0.9998516140723386 -0.017226428439404792 -8.15887696168039e-17 2.6017793706933687e-17 -8.15887696168039e-17 2.6017793706933687e-17 0.9998516251135323 -0.017225787577526293
12632093333.333334 0.9996559065211786 -0.0262310609232311 -8.133285153715321e-17 2.6753565195437475e-17 -8.133285153715321e-17 2.6753565195437475e-17 0.999655923333133 -0.026230420218106364
12632710666.666666 0.9993791051759402 -0.035233565496201276 -8.107030405104539e-17 2.74868354775012e-17 -8.107030405104539e-17 2.74868354775012e-17 0.9993791277567278 -0.03523292499978754
12633328000.0 0.9990212324912797 -0.04423321185988783 -8.080115146826506e-17 2.821754487445709e-17 -8.080115146826506e-17 2.821754487445709e-17 0.9990212608385047 -0.04423257162412034
12633945333.333334 0.9985823174985078 -0.05322926994752827 -8.052541863534954e-17 2.894563394274127e-17 -8.052541863534954e-17 2.894563394274127e-17 0.9985823516093064 -0.05322863002431597
12634562666.666666 0.9980623958032201 -0.062221009983561684 -8.024313093331585e-17 2.967104347874198e-17 -8.024313093331585e-17 2.967104347874198e-17 0.9980624356742623 -0.06222037042478319
12635180000.0 0.9974615095824151 -0.07120770254268743 -7.995431427535721e-17 3.039371452358948e-17 -7.995431427535721e-17 3.039371452358948e-17 0.997461555209904 -0.07120706340018672
12635797333.333334 0.9967797075810675 -0.08018861860912246 -7.965899510448999e-17 3.1113588367941977e-17 -7.965899510448999e-17 3.1113588367941977e-17 0.9967797589607397 -0.08018797993470464
12636414666.666666 0.996017045108192 -0.08916302963551362 -7.935720039116714e-17 3.183060655672424e-17 -7.935720039116714e-17 3.183060655672424e-17 0.9960171022353173 -0.08916239148094075
12637032000.0 0.9951735840323301 -0.0981302076023787 -7.90489576308316e-17 3.254471089388859e-17 -7.90489576308316e-17 3.254471089388859e-17 0.995173646901712 -0.09812957001936558
12637649333.333334 0.9942493927765448 -0.1070894250769376 -7.87342948414448e-17 3.325584344710739e-17 -7.87342948414448e-17 3.325584344710739e-17 0.9942494613825241 -0.10708878811714788
12638266666.666666 0.9932445463128714 -0.11603995527220873 -7.841324056096302e-17 3.3963946552466576e-17 -7.841324056096302e-17 3.3963946552466576e-17 0.993244620649321 -0.11603931898725009
12638884000.0 0.9921591261562379 -0.12498107210585312 -7.808582384477852e-17 3.4668962819119776e-17 -7.808582384477852e-17 3.4668962819119776e-17 0.9921592062165684 -0.12498043654727362
12639501333.333334 0.9909932203578365 -0.13391205025927375 -7.77520742631082e-17 3.537083513394232e-17 -7.77520742631082e-17 3.537083513394232e-17 0.9909933061349949 -0.13391141547855764
12640118666.666666 0.9897469234980105 -0.14283216523620082 -7.741202189835757e-17 3.606950666612291e-17 -7.741202189835757e-17 3.606950666612291e-17 0.9897470149844796 -0.142831531284764
12640736000.0 0.9884203366785311 -0.15174069342182994 -7.706569734241443e-17 3.6764920871791634e-17 -7.706569734241443e-17 3.6764920871791634e-17 0.9884204338663323 -0.15174006035101612
12641353333.333334 0.9870135675144678 -0.16063691214101652 -7.671313169395005e-17 3.745702149852181e-17 -7.671313169395005e-17 3.745702149852181e-17 0.9870136703951612 -0.16063628000209307
12641970666.666666 0.9855267301253917 -0.16952009971737905 -7.635435655562138e-17 3.8145752589926305e-17 -7.635435655562138e-17 3.8145752589926305e-17 0.9855268386900756 -0.16951946856153263
12642588000.0 0.9839599451261483 -0.1783895355316172 -7.598940403127578e-17 3.8831058490137743e-17 -7.598940403127578e-17 3.8831058490137743e-17 0.9839600593654596 -0.17838890540994948
12643205333.333334 0.9823133396170856 -0.18724450007988552 -7.561830672309779e-17 3.951288384829953e-17 -7.561830672309779e-17 3.951288384829953e-17 0.9823134595212049 -0.18724387104340975
12643822666.666666 0.9805870471737023 -0.19608427503244186 -7.524109772871872e-17 4.019117362302316e-17 -7.524109772871872e-17 4.019117362302316e-17 0.9805871727323489 -0.19608364713207796
12644440000.0 0.9787812078358415 -0.20490814329169404 -7.485781063828544e-17 4.086587308682046e-17 -7.485781063828544e-17 4.086587308682046e-17 0.9787813390382789 -0.2049075165782651
12645057333.333334 0.9768959680963526 -0.21371538905031834 -7.446847953149421e-17 4.153692783049964e-17 -7.446847953149421e-17 4.153692783049964e-17 0.9768961049313867 -0.2137147635745459
12645674666.666666 0.9749314808891685 -0.2225052978494929 -7.407313897457941e-17 4.22042837675439e-17 -7.407313897457941e-17 4.22042837675439e-17 0.9749316233451493 -0.2225046736619934
12646292000.0 0.9728879055768817 -0.23127715663693968 -7.367182401726159e-17 4.286788713846359e-17 -7.367182401726159e-17 4.286788713846359e-17 0.9728880536417049 -0.2312765337882199
12646909333.333334 0.9707654079378818 -0.24003025382446222 -7.32645701896695e-17 4.3527684515098905e-17 -7.32645701896695e-17 4.3527684515098905e-17 0.9707655615989899 -0.24002963236491576
12647526666.666666 0.9685641601528766 -0.24876387934583918 -7.285141349920737e-17 4.418362280492067e-17 -7.285141349920737e-17 4.418362280492067e-17 0.9685643193972576 -0.2487632593257416
12648144000.0 0.9662843407908828 -0.2574773247145621 -7.24323904273896e-17 4.4835649255290807e-17 -7.24323904273896e-17 4.4835649255290807e-17 0.966284505605074 -0.2574767061840675
12648761333.333334 0.9639261347947976 -0.2661698830810892 -7.200753792664982e-17 4.548371145767507e-17 -7.200753792664982e-17 4.548371145767507e-17 0.9639263051648861 -0.266169266090226
12649378666.666666 0.9614897334663837 -0.2748408492902414 -7.157689341709414e-17 4.6127757351854425e-17 -7.157689341709414e-17 4.6127757351854425e-17 0.9614899093780073 -0.27484023388890827
12649996000.0 0.9589753344507428 -0.28348951993843347 -7.114049478322294e-17 4.676773523009523e-17 -7.114049478322294e-17 4.676773523009523e-17 0.9589755158890914 -0.2834889061763954
12650613333.333334 0.9563831417202603 -0.29211519343081754 -7.069838037061848e-17 4.740359374128508e-17 -7.069838037061848e-17 4.740359374128508e-17 0.9563833286700755 -0.2921145813577011
12651230666.666666 0.9537133655581075 -0.30071717003800486 -7.025058898260524e-17 4.803528189502316e-17 -7.025058898260524e-17 4.803528189502316e-17 0.9537135580036873 -0.30071655970329536
12651848000.0 0.950966222541136 -0.30929475195302203 -6.97971598768413e-17 4.866274906572778e-17 -6.97971598768413e-17 4.866274906572778e-17 0.9509664204663331 -0.3092941434060589
12652465333.333334 0.9481419355223246 -0.31784724334783476 -6.933813276191258e-17 4.928594499665356e-17 -6.933813276191258e-17 4.928594499665356e-17 0.9481421389105495 -0.31784663663780766
12653082666.666666 0.9452407336127439 -0.3263739504296884 -6.887354779387098e-17 4.990481980390691e-17 -6.887354779387098e-17 4.990481980390691e-17 0.9452409424469641 -0.32637334560563264
12653700000.0 0.9422628521628547 -0.33487418149771114 -6.840344557273112e-17 5.0519323980436856e-17 -6.840344557273112e-17 5.0519323980436856e-17 0.9422630664255986 -0.33487357860850464
12654317333.333334 0.9392085327435862 -0.34334724699854285 -6.792786713895163e-17 5.112940839996569e-17 -6.792786713895163e-17 5.112940839996569e-17 0.9392087524169447 -0.3433466460929021
12654934666.666666 0.9360780231265932 -0.3517924595827034 -6.744685396986124e-17 5.173502432091394e-17 -6.744685396986124e-17 5.173502432091394e-17 0.9360782481922184 -0.35179186070917906
12655552000.0 0.9328715772641746 -0.3602091341602686 -6.696044797605544e-17 5.2336123390283746e-17 -6.696044797605544e-17 5.2336123390283746e-17 0.932871807703283 -0.36020853736724134
12656169333.333334 0.9295894552687977 -0.3685965879561273 -6.64686914977821e-17 5.293265764748087e-17 -6.64686914977821e-17 5.293265764748087e-17 0.9295896910621732 -0.36859599329180487
12656786666.666666 0.9262319233918365 -0.3769541405657955 -6.597162730124865e-17 5.352457952815715e-17 -6.597162730124865e-17 5.352457952815715e-17 0.9262321645198297 -0.3769535480782081
12657404000.0 0.9227992540020645 -0.3852811140103723 -6.546929857493343e-17 5.411184186797161e-17 -6.546929857493343e-17 5.411184186797161e-17 0.9227995004445938 -0.3852805237473682
12658021333.333334 0.9192917255635111 -0.3935768327916426 -6.49617489258439e-17 5.469439790634152e-17 -6.49617489258439e-17 5.469439790634152e-17 0.9192919773000692 -0.39357624480088643
12658638666.666666 0.9157096226129834 -0.4018406239466428 -6.444902237576206e-17 5.52722012901347e-17 -6.444902237576206e-17 5.52722012901347e-17 0.9157098796226321 -0.40184003827560894
12659256000.0 0.9120532357367935 -0.4100718171026672 -6.393116335741739e-17 5.584520607737237e-17 -6.393116335741739e-17 5.584520607737237e-17 0.9120534979981719 -0.4100712337986382
12659873333.333334 0.9083228615473409 -0.41826974453131305 -6.340821671067317e-17 5.64133667408434e-17 -6.340821671067317e-17 5.64133667408434e-17 0.9083231290386612 -0.4182691636413737
12660490666.666666 0.9045188026590217 -0.42643374120269767 -6.288022767865745e-17 5.697663817171094e-17 -6.288022767865745e-17 5.697663817171094e-17 0.9045190753580763 -0.4264331627737335
12661108000.0 0.9006413676636151 -0.4345631448395649 -6.234724190385483e-17 5.753497568308918e-17 -6.234724190385483e-17 5.753497568308918e-17 0.9006416455477749 -0.4345625689182564
12661725333.333334 0.896690871105342 -0.4426572959708017 -6.180930542419002e-17 5.808833501355962e-17 -6.180930542419002e-17 5.808833501355962e-17 0.896691154151561 -0.44265672260362215
12662342666.666666 0.8926676334552534 -0.45071553798514236 -6.12664646690558e-17 5.863667233067728e-17 -6.12664646690558e-17 5.863667233067728e-17 0.8926679216400675 -0.4507149672183528
12662960000.0 0.8885719810853309 -0.45873721718422855 -6.07187664553258e-17 5.917994423442171e-17 -6.07187664553258e-17 5.917994423442171e-17 0.8885722743848619 -0.4587366490638745
12663577333.333334 0.8844042462419223 -0.4667216828358165 -6.0166257983338e-17 5.971810776061205e-17 -6.0166257983338e-17 5.971810776061205e-17 0.88440454463188 -0.4667211174077248
12664194666.666666 0.8801647670188423 -0.47466828722646504 -5.960898683283235e-17 6.025112038429977e-17 -5.960898683283235e-17 6.025112038429977e-17 0.8801650704745261 -0.4746677245362397
12664812000.0 0.8758538873299178 -0.48257638571412886 -5.904700095887531e-17 6.077894002310627e-17 -5.904700095887531e-17 6.077894002310627e-17 0.875854195826217 -0.48257582580714636
12665429333.333334 0.8714719568811271 -0.4904453367803764 -5.848034868774515e-17 6.130152504053334e-17 -5.848034868774515e-17 6.130152504053334e-17 0.8714722703925275 -0.49044477970178485
12666046666.666666 0.8670193311422265 -0.4982745020824609 -5.790907871279856e-17 6.181883424922532e-17 -5.790907871279856e-17 6.181883424922532e-17 0.8670196496428064 -0.49827394787717266
12666664000.0 0.8624963713177928 -0.5060632465052965 -5.733324009028896e-17 6.233082691421084e-17 -5.733324009028896e-17 6.233082691421084e-17 0.8624966947812293 -0.5060626952179872
12667281333.333334 0.8579034443181625 -0.5138109382125614 -5.675288223518304e-17 6.28374627560814e-17 -5.675288223518304e-17 6.28374627560814e-17 0.8579037727177347 -0.5138103898876666
12667898666.666666 0.853240922729448 -0.5215169486983513 -5.616805491692479e-17 6.333870195415421e-17 -5.616805491692479e-17 6.333870195415421e-17 0.8532412560380355 -0.5215164033800611
12668516000.0 0.8485091847833603 -0.5291806528380611 -5.557880825517811e-17 6.383450514958845e-17 -5.557880825517811e-17 6.383450514958845e-17 0.8485095229734471 -0.529180110570317
12669133333.333334 0.8437086143266322 -0.5368014289389278 -5.4985192715570026e-17 6.432483344843919e-17 -5.4985192715570026e-17 6.432483344843919e-17 0.8437089573703085 -0.5368008897654196
12669750666.666666 0.8388396007897917 -0.5443786587906092 -5.438725910535431e-17 6.480964842471732e-17 -5.438725910535431e-17 6.480964842471732e-17 0.8388399486587588 -0.5443781227547729
12670368000.0 0.8339025391555421 -0.5519117277153832 -5.378505856909167e-17 6.528891212337155e-17 -5.378505856909167e-17 6.528891212337155e-17 0.8339028918211107 -0.5519111948603943
