! Parameters = {f0=12700.012000; bw=77.238000; Q=6100.000000; N=10; m_0_1=1.188884; m_1_1=-0.931487; m_1_2=1.023696; m_2_2=-0.932136; m_2_3=0.660659; m_2_8=-0.003492; m_2_9=0.033212; m_3_3=-0.934073; m_3_4=0.549188; m_3_7=-0.002892; m_3_8=-0.099980; m_3_9=-0.003492; m_4_4=-0.936998; m_4_5=0.385523; m_4_6=0.000625; m_4_7=-0.120529; m_4_8=-0.002892; m_5_5=-0.936616; m_5_6=0.792878; m_5_7=0.000625; m_6_6=-0.936617; m_6_7=0.385865; m_7_7=-0.936984; m_7_8=0.549306; m_8_8=-0.934075; m_8_9=0.660972; m_9_9=-0.932141; m_9_10=1.024774; m_10_10=-0.931497; m_10_11=1.189679}
!
! Created with skrf (http://scikit-rf.org).
# Hz S RI R 50.0 
!freq ReS11 ImS11 ReS21 ImS21 ReS12 ImS12 ReS22 ImS22
12607400000.0 0.8803400724376826 -0.474343079279397 -5.2654401764824554e-17 5.232147910079228e-17 -5.2654401764824554e-17 5.232147910079228e-17 0.8803403696202358 -0.4743425277336539
12608017333.333334 0.8764570476301231 -0.4814800553079365 -5.2212652294575596e-17 5.274186044056531e-17 -5.2212652294575596e-17 5.274186044056531e-17 0.8764573492693218 -0.4814795062218531
12608634666.666666 0.8725161641177559 -0.4885852467615895 -5.176755260377462e-17 5.3158518157357046e-17 -5.176755260377462e-17 5.3158518157357046e-17 0.8725164701932523 -0.48858470017117067
12609252000.0 0.8685176820553008 -0.49565818459613226 -5.131913403109538e-17 5.357142560219963e-17 -5.131913403109538e-17 5.357142560219963e-17 0.8685179925464563 -0.4956576405372148
12609869333.333334 0.8644618653998328 -0.5026984018964921 -5.0867428126760795e-17 5.39805563894861e-17 -5.0867428126760795e-17 5.39805563894861e-17 0.8644621802857193 -0.5026978604047421
12610486666.666666 0.8603489818933738 -0.5097054339075471 -5.0412466650336323e-17 5.4385884398643766e-17 -5.0412466650336323e-17 5.4385884398643766e-17 0.8603493011527751 -0.5097048950184575
12611104000.0 0.8561793030450883 -0.5166788180650272 -4.995428156849854e-17 5.4787383775798033e-17 -4.995428156849854e-17 5.4787383775798033e-17 0.8561796266565007 -0.5166782818139157
12611721333.333334 0.8519531041135009 -0.5236180940258041 -4.949290505281611e-17 5.518502893539583e-17 -4.949290505281611e-17 5.518502893539583e-17 0.8519534320551376 -0.5236175604478115
12612338666.666666 0.8476706640882741 -0.530522803698381 -4.902836947748028e-17 5.557879456184385e-17 -4.902836947748028e-17 5.557879456184385e-17 0.8476709963380623 -0.5305222728284669
12612956000.0 0.8433322656717385 -0.5373924912732015 -4.8560707417051864e-17 5.59686556111009e-17 -4.8560707417051864e-17 5.59686556111009e-17 0.8433326022073248 -0.5373919631461445
12613573333.333334 0.8389381952603259 -0.5442267032525985 -4.808995164419651e-17 5.63545873122522e-17 -4.808995164419651e-17 5.63545873122522e-17 0.8389385360590759 -0.5442261779029925
12614190666.666666 0.8344887429256017 -0.5510249884808276 -4.761613512737653e-17 5.673656516909014e-17 -4.761613512737653e-17 5.673656516909014e-17 0.8344890879646003 -0.5510244659430786
12614808000.0 0.829984202395142 -0.5577868981737973 -4.713929102856909e-17 5.711456496164314e-17 -4.713929102856909e-17 5.711456496164314e-17 0.829984551651199 -0.5577863784821244
12615425333.333334 0.8254248710330888 -0.5645119859487971 -4.6659452700948433e-17 5.748856274770624e-17 -4.6659452700948433e-17 5.748856274770624e-17 0.8254252244827361 -0.5645114691372267
12616042666.666666 0.8208110498206075 -0.5711998078538183 -4.6176653686557135e-17 5.785853486435031e-17 -4.6176653686557135e-17 5.785853486435031e-17 0.8208114074401032 -0.5711992939561837
12616660000.0 0.8161430433359738 -0.5778499223969334 -4.5690927713980556e-17 5.822445792940003e-17 -4.5690927713980556e-17 5.822445792940003e-17 0.8161434051013026 -0.5778494114468723
12617277333.333334 0.8114211597344004 -0.584461890575534 -4.520230869599334e-17 5.858630884290592e-17 -4.520230869599334e-17 5.858630884290592e-17 0.8114215256212762 -0.5844613826064864
12617894666.666666 0.8066457107278762 -0.5910352759050563 -4.471083072720418e-17 5.894406478858874e-17 -4.471083072720418e-17 5.894406478858874e-17 0.8066460807117433 -0.5910347709502622
12618512000.0 0.8018170115643561 -0.5975696444481189 -4.421652808167907e-17 5.92977032352716e-17 -4.421652808167907e-17 5.92977032352716e-17 0.8018173856203907 -0.597569142540616
12619129333.333334 0.7969353810071336 -0.6040645648429142 -4.371943521057044e-17 5.964720193828e-17 -4.371943521057044e-17 5.964720193828e-17 0.7969357591102456 -0.604064066015536
12619746666.666666 0.7920011413137331 -0.6105196083317798 -4.3219586739720126e-17 5.999253894083326e-17 -4.3219586739720126e-17 5.999253894083326e-17 0.7920015234385664 -0.6105191126171522
12620364000.0 0.7870146182145622 -0.6169343487895877 -4.2717017467249406e-17 6.033369257541693e-17 -4.2717017467249406e-17 6.033369257541693e-17 0.7870150043354994 -0.6169338562201293
12620981333.333334 0.7819761408916044 -0.6233083627516314 -4.221176236116453e-17 6.067064146511726e-17 -4.221176236116453e-17 6.067064146511726e-17 0.7819765309827665 -0.6233078733595495
12621598666.666666 0.7768860419564426 -0.6296412294418934 -4.1703856556908443e-17 6.100336452496553e-17 -4.1703856556908443e-17 6.100336452496553e-17 0.7768864359916898 -0.629640743259182
12622216000.0 0.7717446574284926 -0.6359325308005744 -4.1193335354945364e-17 6.133184096323215e-17 -4.1193335354945364e-17 6.133184096323215e-17 0.7717450553814301 -0.635932047859014
12622833333.333334 0.7665523267127384 -0.6421818515118075 -4.068023421830754e-17 6.165605028271968e-17 -4.068023421830754e-17 6.165605028271968e-17 0.7665527285567121 -0.6421813718429592
12623450666.666666 0.7613093925773375 -0.6483887790310467 -4.016458877014248e-17 6.19759722820285e-17 -4.016458877014248e-17 6.19759722820285e-17 0.761309798285441 -0.6483883026662544
12624068000.0 0.7560162011310165 -0.654552903612284 -3.9646434791250175e-17 6.229158705680172e-17 -3.9646434791250175e-17 6.229158705680172e-17 0.756016610676091 -0.65455243058267
12624685333.333334 0.7506731018001486 -0.6606738183351827 -3.9125808217602025e-17 6.260287500095549e-17 -3.9125808217602025e-17 6.260287500095549e-17 0.7506735151547839 -0.6606733486716457
12625302666.666666 0.745280447305813 -0.6667511191317886 -3.860274513786977e-17 6.290981680787658e-17 -3.860274513786977e-17 6.290981680787658e-17 0.7452808644423511 -0.666750652865003
12625920000.0 0.7398385936403464 -0.6727844048133994 -3.807728179091812e-17 6.321239347161533e-17 -3.807728179091812e-17 6.321239347161533e-17 0.7398390145308807 -0.6727839419738109
12626537333.333334 0.7343479000440465 -0.6787732770968121 -3.7549454563313647e-17 6.351058628804321e-17 -3.7549454563313647e-17 6.351058628804321e-17 0.734348324660427 -0.6787728177146383
12627154666.666666 0.7288087289812877 -0.6847173406308075 -3.70192999868156e-17 6.380437685599472e-17 -3.70192999868156e-17 6.380437685599472e-17 0.7288091572951212 -0.6847168847360352
12627772000.0 0.7232214461165938 -0.6906162030222494 -3.6486854735839666e-17 6.409374707839887e-17 -3.6486854735839666e-17 6.409374707839887e-17 0.7232218780992444 -0.690615750644631
12628389333.333334 0.7175864202906893 -0.6964694748617771 -3.595215562494969e-17 6.437867916336917e-17 -3.595215562494969e-17 6.437867916336917e-17 0.7175868559132832 -0.6964690260308312
12629006666.666666 0.7119040234959013 -0.7022767697497851 -3.541523960630408e-17 6.465915562529261e-17 -3.541523960630408e-17 6.465915562529261e-17 0.7119044627293263 -0.7022763244947922
12629624000.0 0.7061746308517364 -0.7080377043217825 -3.487614376712555e-17 6.493515928588114e-17 -3.487614376712555e-17 6.493515928588114e-17 0.7061750736666453 -0.7080372626717847
12630241333.333334 0.7003986205801177 -0.713751898273702 -3.4334905327131064e-17 6.520667327521828e-17 -3.4334905327131064e-17 6.520667327521828e-17 0.70039906694693 -0.7137514602575011
12630858666.666666 0.6945763739804828 -0.71941897438695 -3.3791561635993005e-17 6.547368103276452e-17 -3.3791561635993005e-17 6.547368103276452e-17 0.6945768238693852 -0.7194185400331039
12631476000.0 0.6887082754043203 -0.7250385585535793 -3.3246150170743933e-17 6.573616630836594e-17 -3.3246150170743933e-17 6.573616630836594e-17 0.6887087287852717 -0.7250381278904032
12632093333.333334 0.6827947122301916 -0.7306102798006167 -3.2698708533218883e-17 6.599411316321936e-17 -3.2698708533218883e-17 6.599411316321936e-17 0.682795169072922 -0.7306098528561773
12632710666.666666 0.6768360748379709 -0.7361337703147258 -3.214927444747136e-17 6.624750597082501e-17 -3.214927444747136e-17 6.624750597082501e-17 0.6768365351119855 -0.7361333471168433
12633328000.0 0.6708327565829102 -0.7416086654666459 -3.1597885757166985e-17 6.649632941792531e-17 -3.1597885757166985e-17 6.649632941792531e-17 0.6708332202574903 -0.7416082460428897
12633945333.333334 0.6647851537699813 -0.7470346038349689 -3.104458042299671e-17 6.674056850540954e-17 -3.104458042299671e-17 6.674056850540954e-17 0.6647856208141864 -0.7470341882126562
12634562666.666666 0.6586936656275283 -0.752411227230174 -3.0489396520073435e-17 6.698020854920116e-17 -3.0489396520073435e-17 6.698020854920116e-17 0.6586941360101993 -0.7524108154363693
12635180000.0 0.6525586942809765 -0.7577381807182165 -2.9932372235316586e-17 6.721523518112665e-17 -2.9932372235316586e-17 6.721523518112665e-17 0.6525591679707371 -0.7577377727797292
12635797333.333334 0.6463806447261786 -0.7630151126440524 -2.937354586482602e-17 6.74456343497642e-17 -2.937354586482602e-17 6.74456343497642e-17 0.6463811216914365 -0.7630147085874336
12636414666.666666 0.6401599248028924 -0.7682416746546626 -2.8812955811276565e-17 6.767139232125855e-17 -2.8812955811276565e-17 6.767139232125855e-17 0.6401604050118426 -0.7682412745062054
12637032000.0 0.6338969451676676 -0.7734175217222228 -2.825064058126992e-17 6.789249568013067e-17 -2.825064058126992e-17 6.789249568013067e-17 0.633897428588294 -0.7734171255079594
12637649333.333334 0.6275921192667532 -0.7785423121668543 -2.768663878269974e-17 6.81089313300566e-17 -2.768663878269974e-17 6.81089313300566e-17 0.6275926058668307 -0.7785419199125548
12638266666.666666 0.6212458633089161 -0.7836157076790926 -2.712098912211871e-17 6.832068649462187e-17 -2.712098912211871e-17 6.832068649462187e-17 0.6212463530560133 -0.7836153194102634
12638884000.0 0.6148585962378998 -0.7886373733422762 -2.6553730402084587e-17 6.852774871806024e-17 -2.6553730402084587e-17 6.852774871806024e-17 0.61485908909938 -0.7886369890841576
12639501333.333334 0.6084307397046773 -0.7936069776547231 -2.5984901518498698e-17 6.873010586597129e-17 -2.5984901518498698e-17 6.873010586597129e-17 0.6084312356477026 -0.7936065974322891
12640118666.666666 0.6019627180398872 -0.7985241925514076 -2.5414541457970508e-17 6.892774612600385e-17 -2.5414541457970508e-17 6.892774612600385e-17 0.601963217031418 -0.7985238163893618
12640736000.0 0.5954549582253906 -0.8033886934259432 -2.4842689295116355e-17 6.91206580085403e-17 -2.4842689295116355e-17 6.91206580085403e-17 0.5954554602321909 -0.803388321348721
12641353333.333334 0.5889078898665624 -0.8082001591516539 -2.4269384189931957e-17 6.930883034733058e-17 -2.4269384189931957e-17 6.930883034733058e-17 0.5889083948551994 -0.808199791183417
12641970666.666666 0.5823219451635893 -0.8129582721030275 -2.3694665385089213e-17 6.949225230012875e-17 -2.3694665385089213e-17 6.949225230012875e-17 0.5823224531004366 -0.8129579082676643
12642588000.0 0.5756975588830748 -0.8176627181765816 -2.3118572203271895e-17 6.967091334929274e-17 -2.3118572203271895e-17 6.967091334929274e-17 0.5756980697343151 -0.8176623584977054
12643205333.333334 0.5690351683293625 -0.8223131868115824 -2.2541144044485374e-17 6.984480330236944e-17 -2.2541144044485374e-17 6.984480330236944e-17 0.5690356820609896 -0.8223128313125309
12643822666.666666 0.562335213315482 -0.8269093710106796 -2.196242038337385e-17 7.001391229265329e-17 -2.196242038337385e-17 7.001391229265329e-17 0.5623357298933023 -0.8269090197145106
12644440000.0 0.5555981361343695 -0.8314509673599888 -2.1382440766533772e-17 7.017823077972301e-17 -2.1382440766533772e-17 7.017823077972301e-17 0.5555986555240051 -0.8314506202894818
12645057333.333334 0.5488243815295788 -0.8359376760491908 -2.0801244809811513e-17 7.033774954996013e-17 -2.0801244809811513e-17 7.033774954996013e-17 0.5488249036964702 -0.8359373332268435
12645674666.666666 0.5420143966658517 -0.8403692008913699 -2.0218872195617352e-17 7.049245971703886e-17 -2.0218872195617352e-17 7.049245971703886e-17 0.5420149215752583 -0.8403688623393976
12646292000.0 0.5351686310995721 -0.8447452493425796 -1.9635362670203852e-17 7.064235272240272e-17 -1.9635362670203852e-17 7.064235272240272e-17 0.5351691587165764 -0.8447449150829132
12646909333.333334 0.528287536749329 -0.8490655325210017 -1.90507560409815e-17 7.078742033570876e-17 -1.90507560409815e-17 7.078742033570876e-17 0.5282880670388383 -0.8490652025752874
12647526666.666666 0.5213715678657733 -0.8533297652262173 -1.8465092173802642e-17 7.092765465525567e-17 -1.8465092173802642e-17 7.092765465525567e-17 0.5213721007925218 -0.8533294396158141
12648144000.0 0.5144211810017961 -0.8575376659579244 -1.787841099024693e-17 7.106304810838956e-17 -1.787841099024693e-17 7.106304810838956e-17 0.5144217165303464 -0.8575373447039015
12648761333.333334 0.5074368349824148 -0.8616889569345059 -1.729075246491e-17 7.119359345188552e-17 -1.729075246491e-17 7.119359345188552e-17 0.5074373730771627 -0.8616886400576457
12649378666.666666 0.5004189908744126 -0.8657833641114154 -1.670215662269974e-17 7.13192837723043e-17 -1.670215662269974e-17 7.13192837723043e-17 0.5004195314995877 -0.8657830516322087
12649996000.0 0.49336811195592667 -0.8698206171992539 -1.611266353610192e-17 7.144011248633364e-17 -1.611266353610192e-17 7.144011248633364e-17 0.49336865507559396 -0.8698203091378967
12650613333.333334 0.4862846636858611 -0.8738004496816055 -1.5522313322459816e-17 7.155607334110289e-17 -1.5522313322459816e-17 7.155607334110289e-17 0.48628520926392554 -0.8738001460580026
12651230666.666666 0.47916911367318893 -0.8777225988326252 -1.4931146141272306e-17 7.166716041447153e-17 -1.4931146141272306e-17 7.166716041447153e-17 0.4791696616733963 -0.877722299666386
12651848000.0 0.472021931645982 -0.8815868057344344 -1.4339202191443283e-17 7.17733681153046e-17 -1.4339202191443283e-17 7.17733681153046e-17 0.4720224820319217 -0.8815865110448722
12652465333.333334 0.4648435894205256 -0.8853928152941429 -1.374652170856821e-17 7.18746911837178e-17 -1.374652170856821e-17 7.18746911837178e-17 0.4648441421556335 -0.8853925251002741
12653082666.666666 0.4576345608702258 -0.8891403762606686 -1.3153144962219408e-17 7.19711246913011e-17 -1.3153144962219408e-17 7.19711246913011e-17 0.4576351159177857 -0.8891400905812095
12653700000.0 0.45039532189397075 -0.8928292412415004 -1.2559112253191035e-17 7.206266404132576e-17 -1.2559112253191035e-17 7.206266404132576e-17 0.4503958792171178 -0.8928289600948693
12654317333.333334 0.44312635038522147 -0.8964591667187749 -1.1964463910792381e-17 7.214930496892138e-17 -1.1964463910792381e-17 7.214930496892138e-17 0.44312690994694437 -0.8964588901230882
12654934666.666666 0.4358281262001104 -0.9000299130655315 -1.1369240290109424e-17 7.223104354123496e-17 -1.1369240290109424e-17 7.223104354123496e-17 0.4358286879632529 -0.9000296410386026
12655552000.0 0.4285011311258117 -0.9035412445615009 -1.0773481769267796e-17 7.230787615756754e-17 -1.0773481769267796e-17 7.230787615756754e-17 0.42850169505307706 -0.9035409771208422
12656169333.333334 0.4211458488488677 -0.9069929294086109 -1.0177228746713813e-17 7.237979954948552e-17 -1.0177228746713813e-17 7.237979954948552e-17 0.42114641490281873 -0.9069926665714277
12656786666.666666 0.41376276492315284 -0.9103847397463312 -9.580521638476591e-18 7.244681078091223e-17 -9.580521638476591e-18 7.244681078091223e-17 0.41376333306621643 -0.9103844815295249
12657404000.0 0.40635236673787406 -0.9137164516666944 -8.983400875430123e-18 7.25089072481968e-17 -8.983400875430123e-18 7.25089072481968e-17 0.40635293693234276 -0.91371619808686
12658021333.333334 0.39891514348526597 -0.9169878452291372 -8.385906900571874e-18 7.256608668015901e-17 -8.385906900571874e-18 7.256608668015901e-17 0.3989157156933005 -0.9169875963025609
12658638666.666666 0.39145158612858216 -0.9201987044748887 -7.788080166293362e-18 7.261834713811215e-17 -7.788080166293362e-18 7.261834713811215e-17 0.39145216031221386 -0.9201984602175485
12659256000.0 0.38396218736934745 -0.9233488174413789 -7.189961131632662e-18 7.266568701586616e-17 -7.189961131632662e-18 7.266568701586616e-17 0.3839627634904812 -0.9233485778689431
12659873333.333334 0.3764474416149872 -0.926437976176159 -6.5915902595542574e-18 7.270810503970459e-17 -6.5915902595542574e-18 7.270810503970459e-17 0.3764480196354036 -0.926437741303985
12660490666.666666 0.36890784494634843 -0.9294659767505676 -5.9930080142318784e-18 7.274560026834009e-17 -5.9930080142318784e-18 7.274560026834009e-17 0.36890842482770647 -0.9294657465937013
12661108000.0 0.36134389508460923 -0.9324326192733333 -5.394254858292973e-18 7.277817209285022e-17 -5.394254858292973e-18 7.277817209285022e-17 0.36134447678844894 -0.9324323938465077
12661725333.333334 0.3537560913587113 -0.9353377079036498 -4.795371250114016e-18 7.28058202365872e-17 -4.795371250114016e-18 7.28058202365872e-17 0.35375667484645573 -0.9353374872212837
12662342666.666666 0.34614493467226565 -0.9381810508641604 -4.196397641086121e-18 7.282854475506756e-17 -4.196397641086121e-18 7.282854475506756e-17 0.34614551990522424 -0.9381808349403584
12662960000.0 0.3385109274705384 -0.9409624604535944 -3.597374472884239e-18 7.284634603583896e-17 -3.597374472884239e-18 7.284634603583896e-17 0.33851151440990945 -0.9409622493021471
12663577333.333334 0.33085457370717664 -0.943681753059202 -2.9983421747567434e-18 7.285922479832407e-17 -2.9983421747567434e-18 7.285922479832407e-17 0.33085516231404893 -0.9436815466935817
12664194666.666666 0.3231763788110988 -0.9463387491688119 -2.399341160798257e-18 7.286718209364295e-17 -2.399341160798257e-18 7.286718209364295e-17 0.32317696904645526 -0.9463385476021745
12664812000.0 0.31547684965302353 -0.9489332733827234 -1.800411827224558e-18 7.287021930441282e-17 -1.800411827224558e-18 7.287021930441282e-17 0.31547744147774326 -0.948933076627906
12665429333.333334 0.3077564945120351 -0.9514651544252741 -1.201594549666338e-18 7.286833814452552e-17 -1.201594549666338e-18 7.286833814452552e-17 0.30775708788689615 -0.9514649624947962
12666046666.666666 0.3000158230420568 -0.9539342251561393 -6.029296804591703e-19 7.286154065890251e-17 -6.029296804591703e-19 7.286154065890251e-17 0.3000164179277388 -0.9539340380622
12666664000.0 0.29225534623807164 -0.956340322581408 -4.457545902987932e-21 7.284982922322837e-17 -4.457545902987932e-21 7.284982922322837e-17 0.2922559425951583 -0.9563401403358861
12667281333.333334 0.28447557640268684 -0.9586832878642486 5.937815564052187e-19 7.283320654366122e-17 5.937815564052187e-19 7.283320654366122e-17 0.2844761741916684 -0.9586831104787015
12667898666.666666 0.2766770271119623 -0.9609629663355053 1.1917473603040594e-18 7.281167565652177e-17 1.1917473603040594e-18 7.281167565652177e-17 0.27667762629323833 -0.9609627938211682
12668516000.0 0.2688602131816691 -0.9631792075038549 1.7893996337764965e-18 7.278523992795924e-17 1.7893996337764965e-18 7.278523992795924e-17 0.2688608137155516 -0.963179039871642
12669133333.333334 0.26102565063346966 -0.9653318650656989 2.3866981816180125e-18 7.275390305359683e-17 2.3866981816180125e-18 7.275390305359683e-17 0.26102625248018463 -0.9653317023261989
12669750666.666666 0.25317385666049647 -0.9674207969149189 2.9836028481591806e-18 7.271766905815329e-17 2.9836028481591806e-18 7.271766905815329e-17 0.25317445978018766 -0.9674206390783986
12670368000.0 0.2453053495934842 -0.9694458651521831 3.580073519955526e-18 7.267654229504305e-17 3.580073519955526e-18 7.267654229504305e-17 0.24530595394621477 -0.9694457122285826
