! Parameters = {f0=12700.012000; bw=77.238000; Q=6100.000000; N=10; m_0_1=1.189484; m_1_1=-0.922478; m_1_2=1.024296; m_2_2=-0.923127; m_2_3=0.661259; m_2_8=-0.003462; m_2_9=0.033242; m_3_3=-0.925064; m_3_4=0.549788; m_3_7=-0.002862; m_3_8=-0.099950; m_3_9=-0.003462; m_4_4=-0.927989; m_4_5=0.386123; m_4_6=0.000655; m_4_7=-0.120499; m_4_8=-0.002862; m_5_5=-0.927607; m_5_6=0.793478; m_5_7=0.000655; m_6_6=-0.927608; m_6_7=0.386465; m_7_7=-0.927975; m_7_8=0.549906; m_8_8=-0.925066; m_8_9=0.661572; m_9_9=-0.923132; m_9_10=1.025374; m_10_10=-0.922488; m_10_11=1.190279}
!
! Created with skrf (http://scikit-rf.org).
# Hz S RI R 50.0 
!freq ReS11 ImS11 ReS21 ImS21 ReS12 ImS12 ReS22 ImS22
12607400000.0 0.6546606944260213 -0.7559228632429921 -3.074992950513327e-17 6.781231131923283e-17 -3.074992950513327e-17 6.781231131923283e-17 0.6546611682608462 -0.7559224528820323
12608017333.333334 0.6484838088369765 -0.7612284477580519 -3.0184791388106376e-17 6.804979404607125e-17 -3.0184791388106376e-17 6.804979404607125e-17 0.6484842859741334 -0.7612280412888525
12608634666.666666 0.6422639267352077 -0.7664835604333058 -2.96178289845907e-17 6.82825719627064e-17 -2.96178289845907e-17 6.82825719627064e-17 0.6422644071427395 -0.7664831578824349
12609252000.0 0.6360014605184591 -0.7716878528383297 -2.904908142184016e-17 6.85106311410521e-17 -2.904908142184016e-17 6.85106311410521e-17 0.6360019441641946 -0.7716874542320932
12609869333.333334 0.6296968254079341 -0.7768409799122437 -2.847858793269834e-17 6.873395797808836e-17 -2.847858793269834e-17 6.873395797808836e-17 0.6296973122594905 -0.7768405852766822
12610486666.666666 0.6233504394208312 -0.7819425999865345 -2.790638785289882e-17 6.895253919665624e-17 -2.790638785289882e-17 6.895253919665624e-17 0.6233509294456168 -0.7819422093474244
12611104000.0 0.6169627233424748 -0.7869923748078396 -2.7332520618345392e-17 6.9166361846235e-17 -2.7332520618345392e-17 6.9166361846235e-17 0.6169632165076895 -0.7869919881906876
12611721333.333334 0.6105341006985917 -0.791989969560226 -2.6757025762436048e-17 6.937541330367834e-17 -2.6757025762436048e-17 6.937541330367834e-17 0.6105345969712314 -0.7919895869902716
12612338666.666666 0.6040649977270759 -0.7969350528875191 -2.6179942913316364e-17 6.95796812739531e-17 -2.6179942913316364e-17 6.95796812739531e-17 0.604065497073934 -0.7969346743897308
12612956000.0 0.5975558433497937 -0.8018272969152164 -2.560131179116679e-17 6.977915379084005e-17 -2.560131179116679e-17 6.977915379084005e-17 0.5975563457374619 -0.8018269225142891
12613573333.333334 0.5910070691442113 -0.8066663772721746 -2.5021172205490992e-17 6.997381921761034e-17 -2.5021172205490992e-17 6.997381921761034e-17 0.5910075745390844 -0.8066660069925308
12614190666.666666 0.5844191093146245 -0.8114519731122393 -2.4439564052373366e-17 7.016366624768904e-17 -2.4439564052373366e-17 7.016366624768904e-17 0.5844196176828997 -0.8114516069780243
12614808000.0 0.5777924006635482 -0.8161837671353794 -2.3856527311741578e-17 7.034868390529189e-17 -2.3856527311741578e-17 7.034868390529189e-17 0.5777929119712303 -0.8161834051704625
12615425333.333334 0.571127382562598 -0.8208614456088451 -2.3272102044632548e-17 7.05288615460369e-17 -2.3272102044632548e-17 7.05288615460369e-17 0.5711278967754989 -0.8208610878368157
12616042666.666666 0.5644244969234232 -0.8254846983879147 -2.2686328390444037e-17 7.070418885753675e-17 -2.2686328390444037e-17 7.070418885753675e-17 0.5644250140071672 -0.8254843448320839
12616660000.0 0.5576841881684819 -0.8300532189364169 -2.2099246564194077e-17 7.087465585996464e-17 -2.2099246564194077e-17 7.087465585996464e-17 0.5576847080885049 -0.8300528696198121
12617277333.333334 0.5509069032014065 -0.8345667043471612 -2.1510896853754108e-17 7.10402529066041e-17 -2.1510896853754108e-17 7.10402529066041e-17 0.5509074259229603 -0.834566359292527
12617894666.666666 0.5440930913775623 -0.8390248553618974 -2.0921319617108622e-17 7.120097068436699e-17 -2.0921319617108622e-17 7.120097068436699e-17 0.5440936168657166 -0.8390245145916942
12618512000.0 0.5372432044740653 -0.8434273763912833 -2.033055527957873e-17 7.135680021429813e-17 -2.033055527957873e-17 7.135680021429813e-17 0.537243732693709 -0.8434270399276843
12619129333.333334 0.5303576966600159 -0.847773975534357 -1.9738644331074748e-17 7.150773285204823e-17 -1.9738644331074748e-17 7.150773285204823e-17 0.5303582275758612 -0.8477736433992487
12619746666.666666 0.523437024466222 -0.8520643645980004 -1.9145627323316982e-17 7.165376028833127e-17 -1.9145627323316982e-17 7.165376028833127e-17 0.5234375580428051 -0.8520640368129793
12620364000.0 0.5164816467549977 -0.8562982591159994 -1.8551544867061514e-17 7.179487454935708e-17 -1.8551544867061514e-17 7.179487454935708e-17 0.5164821829566829 -0.856297935702373
12620981333.333334 0.5094920246898159 -0.8604753783678628 -1.795643762935379e-17 7.193106799723331e-17 -1.795643762935379e-17 7.193106799723331e-17 0.5094925634807959 -0.8604750593466453
12621598666.666666 0.5024686217045836 -0.8645954453975232 -1.7360346330720244e-17 7.20623333303594e-17 -1.7360346330720244e-17 7.20623333303594e-17 0.5024691630488827 -0.8645951307894351
12622216000.0 0.4954119034729874 -0.8686581870316528 -1.676331174240836e-17 7.218866358378468e-17 -1.676331174240836e-17 7.218866358378468e-17 0.49541244733446504 -0.8686578768571209
12622833333.333334 0.488322337877668 -0.8726633338977494 -1.61653746835979e-17 7.231005212955023e-17 -1.61653746835979e-17 7.231005212955023e-17 0.48832288422002024 -0.8726630281769053
12623450666.666666 0.4812003949791497 -0.8766106204420274 -1.5566576018634618e-17 7.242649267700222e-17 -1.5566576018634618e-17 7.242649267700222e-17 0.4812009437659113 -0.8766103191947048
12624068000.0 0.47404654698462345 -0.8804997849470497 -1.4966956654222863e-17 7.253797927309085e-17 -1.4966956654222863e-17 7.253797927309085e-17 0.4740470981791708 -0.8804994881927831
12624685333.333334 0.46686126821668705 -0.884330569549053 -1.4366557536645258e-17 7.264450630263987e-17 -1.4366557536645258e-17 7.264450630263987e-17 0.46686182178224045 -0.8843302773070778
12625302666.666666 0.4596450350819971 -0.8881027202549912 -1.3765419648991105e-17 7.274606848859137e-17 -1.3765419648991105e-17 7.274606848859137e-17 0.45964559098162344 -0.8881024325442419
12625920000.0 0.45239832603940544 -0.8918159869595237 -1.3163584008344148e-17 7.284266089223513e-17 -1.3163584008344148e-17 7.284266089223513e-17 0.45239888423602004 -0.8918157037986318
12626537333.333334 0.44512162156853696 -0.8954701234614372 -1.2561091663008478e-17 7.293427891340793e-17 -1.2561091663008478e-17 7.293427891340793e-17 0.4451221820249072 -0.895469844868732
12627154666.666666 0.43781540413788445 -0.899064887480001 -1.1957983689710528e-17 7.302091829067341e-17 -1.1957983689710528e-17 7.302091829067341e-17 0.4378159668166307 -0.8990646134735057
12627772000.0 0.43048015817251234 -0.9026000406711799 -1.1354301190800275e-17 7.310257510147909e-17 -1.1354301190800275e-17 7.310257510147909e-17 0.43048072303611173 -0.9025997712686126
12628389333.333334 0.4231163700223712 -0.9060753486432229 -1.0750085291474739e-17 7.31792457622872e-17 -1.0750085291474739e-17 7.31792457622872e-17 0.42311693703316017 -0.9060750838619958
12629006666.666666 0.41572452792974607 -0.909490580972357 -1.014537713696135e-17 7.32509270286877e-17 -1.014537713696135e-17 7.32509270286877e-17 0.41572509704992155 -0.9094903208295723
12629624000.0 0.4083051219970111 -0.9128455112180004 -9.540217889742825e-18 7.331761599548296e-17 -9.540217889742825e-18 7.331761599548296e-17 0.40830569318863424 -0.912845255730452
12630241333.333334 0.4008586441540561 -0.9161399169378103 -8.934648726758975e-18 7.337931009675215e-17 -8.934648726758975e-18 7.337931009675215e-17 0.40085921737905467 -0.9161396661219825
12630858666.666666 0.393385588125906 -0.9193735797023322 -8.328710836612837e-18 7.343600710589264e-17 -8.328710836612837e-18 7.343600710589264e-17 0.39338616334607635 -0.9193733335743971
12631476000.0 0.38588644939954186 -0.922546285109675 -7.722445416762483e-18 7.34877051356395e-17 -7.722445416762483e-18 7.34877051356395e-17 0.3858870265765516 -0.9225460436854919
12632093333.333334 0.37836172519149003 -0.9256578227995294 -7.115893670750897e-18 7.35344026380581e-17 -7.115893670750897e-18 7.35344026380581e-17 0.37836230428688156 -0.925657586094646
12632710666.666666 0.37081191441464995 -0.9287079864672146 -6.509096805409413e-18 7.357609840451703e-17 -6.509096805409413e-18 7.357609840451703e-17 0.3708124953898414 -0.9287077544968622
12633328000.0 0.36323751764518514 -0.93169657387736 -5.902096028043131e-18 7.361279156563893e-17 -5.902096028043131e-18 7.361279156563893e-17 0.36323810046147426 -0.9316963466564553
12633945333.333334 0.3556390370894126 -0.9346233868772816 -5.294932543665585e-18 7.364448159122474e-17 -5.294932543665585e-18 7.364448159122474e-17 0.35563962170797897 -0.9346231644204263
12634562666.666666 0.3480169765504541 -0.9374882314101474 -4.6876475522053074e-18 7.367116829015747e-17 -4.6876475522053074e-18 7.367116829015747e-17 0.3480175629323614 -0.9374880137316237
12635180000.0 0.3403718413949369 -0.9402909175277971 -4.080282245707564e-18 7.369285181028321e-17 -4.080282245707564e-18 7.369285181028321e-17 0.34037242950113544 -0.9402907046415702
12635797333.333334 0.3327041385192998 -0.9430312594034072 -3.4728778055544576e-18 7.370953263826803e-17 -3.4728778055544576e-18 7.370953263826803e-17 0.33270472831063 -0.9430310513231236
12636414666.666666 0.3250143763163727 -0.9457090753437468 -2.865475399684767e-18 7.372121159943271e-17 -2.865475399684767e-18 7.372121159943271e-17 0.3250149677535667 -0.9457088720827322
12637032000.0 0.3173030646415874 -0.948324187801251 -2.258116179807383e-18 7.37278898575646e-17 -2.258116179807383e-18 7.37278898575646e-17 0.317303657685272 -0.9483239893725104
12637649333.333334 0.3095707147791188 -0.9508764233858102 -1.650841278616932e-18 7.372956891470636e-17 -1.650841278616932e-18 7.372956891470636e-17 0.30957130938981836 -0.9508762298020277
12638266666.666666 0.3018178394080659 -0.953365612876242 -1.0436918070222673e-18 7.372625061092221e-17 -1.0436918070222673e-18 7.372625061092221e-17 0.3018184355462047 -0.9533654241497784
12638884000.0 0.29404495256840557 -0.9557915912315245 -4.3670885136702955e-19 7.371793712404108e-17 -4.3670885136702955e-19 7.371793712404108e-17 0.2940455501943104 -0.9557914073744178
12639501333.333334 0.28625256962699125 -0.9581541976017169 1.700665293365652e-19 7.370463096937708e-17 1.700665293365652e-19 7.370463096937708e-17 0.28625316870089434 -0.9581540186256815
12640118666.666666 0.27844120724335614 -0.9604532753386329 7.765933061772939e-19 7.368633499942784e-17 7.765933061772939e-19 7.368633499942784e-17 0.27844180772539745 -0.9604531012550577
12640736000.0 0.27061138333523843 -0.9626886720062902 1.3828304831364994e-18 7.366305240354845e-17 1.3828304831364994e-18 7.366305240354845e-17 0.2706119851854685 -0.962688502826239
12641353333.333334 0.26276361704470536 -0.9648602393908815 1.9887370998051553e-18 7.363478670760523e-17 1.9887370998051553e-18 7.363478670760523e-17 0.2627642202230879 -0.964860075125092
12641970666.666666 0.2548984287032688 -0.9669678335107381 2.594272234179118e-18 7.36015417736047e-17 2.594272234179118e-18 7.36015417736047e-17 0.2548990331696834 -0.9669676741696211
12642588000.0 0.24701633979760348 -0.9690113146258098 3.199395005406708e-18 7.356332179930069e-17 3.199395005406708e-18 7.356332179930069e-17 0.24701694551184836 -0.9690111602194489
12643205333.333334 0.2391178729350544 -0.9709905472469136 3.804064576536642e-18 7.352013131777931e-17 3.804064576536642e-18 7.352013131777931e-17 0.23911847985684873 -0.9709903977850631
12643822666.666666 0.23120355180871052 -0.9729054001447851 4.408240157268168e-18 7.347197519702061e-17 4.408240157268168e-18 7.347197519702061e-17 0.23120415989769733 -0.972905255636871
12644440000.0 0.22327390116292908 -0.9747557463587133 5.011881006697002e-18 7.341885863943836e-17 5.011881006697002e-18 7.341885863943836e-17 0.22327451037867868 -0.9747556068138347
12645057333.333334 0.21532944675846363 -0.9765414632049891 5.614946436048462e-18 7.336078718139724e-17 5.614946436048462e-18 7.336078718139724e-17 0.2153300570604746 -0.9765413286319113
12645674666.666666 0.20737071533771223 -0.9782624322850041 6.217395811416471e-18 7.329776669270752e-17 6.217395811416471e-18 7.329776669270752e-17 0.20737132668541572 -0.9782623026921645
12646292000.0 0.19939823458943431 -0.979918539493188 6.819188556499819e-18 7.322980337609647e-17 6.819188556499819e-18 7.322980337609647e-17 0.199398846942196 -0.9799184148886928
12646909333.333334 0.19141253311420645 -0.9815096750244742 7.420284155312683e-18 7.315690376666004e-17 7.420284155312683e-18 7.315690376666004e-17 0.19141314643132917 -0.9815095554160972
12647526666.666666 0.1834141403891802 -0.9830357333816225 8.020642154919084e-18 7.307907473128886e-17 8.020642154919084e-18 7.307907473128886e-17 0.18341475462990692 -0.9830356187768058
12648144000.0 0.17540358673283662 -0.984496613382241 8.62022216813913e-18 7.299632346807425e-17 8.62022216813913e-18 7.299632346807425e-17 0.17540420185635314 -0.9844965037880945
12648761333.333334 0.16738140327001985 -0.9858922181654568 9.218983876262328e-18 7.290865750569174e-17 9.218983876262328e-18 7.290865750569174e-17 0.16738201923545726 -0.9858921135887574
12649378666.666666 0.15934812189680583 -0.9872224551983237 9.816887031742603e-18 7.281608470276262e-17 9.816887031742603e-18 7.281608470276262e-17 0.1593487386632435 -0.9872223556455147
12649996000.0 0.15130427524492823 -0.988487236282014 1.0413891460910326e-17 7.271861324719126e-17 1.0413891460910326e-17 7.271861324719126e-17 0.15130489277139633 -0.9884871417592049
12650613333.333334 0.14325039664665873 -0.9896864775576262 1.1009957066649283e-17 7.261625165548393e-17 1.1009957066649283e-17 7.261625165548393e-17 0.14325101489214126 -0.9896863880705936
12651230666.666666 0.13518702009950262 -0.9908200995117445 1.160504383108609e-17 7.25090087720438e-17 1.160504383108609e-17 7.25090087720438e-17 0.13518763902293976 -0.99082001506593
12651848000.0 0.1271146802306236 -0.9918880269817318 1.2199111818281298e-17 7.239689376844143e-17 1.2199111818281298e-17 7.239689376844143e-17 0.1271152997909146 -0.9918879475822417
12652465333.333334 0.1190339122614812 -0.9928901891607014 1.2792121176887216e-17 7.227991614266856e-17 1.2792121176887216e-17 7.227991614266856e-17 0.11903453241748707 -0.9928901148123072
12653082666.666666 0.11094525197242794 -0.9938265196021995 1.3384032142805157e-17 7.215808571836908e-17 1.3384032142805157e-17 7.215808571836908e-17 0.11094587268297436 -0.9938264503093382
12653700000.0 0.10284923566698882 -0.99469695622464 1.3974805041876795e-17 7.20314126440408e-17 1.3974805041876795e-17 7.20314126440408e-17 0.10284985689086855 -0.9946968919914119
12654317333.333334 0.09474640013652769 -0.9955014413153885 1.4564400292498607e-17 7.189990739222826e-17 1.4564400292498607e-17 7.189990739222826e-17 0.09474702183250357 -0.9955013821455586
12654934666.666666 0.08663728262445908 -0.996239921534615 1.5152778408290554e-17 7.176358075868238e-17 1.5152778408290554e-17 7.176358075868238e-17 0.08663790475126668 -0.9962398674316124
12655552000.0 0.07852242079071188 -0.9969123479188198 1.5739900000724455e-17 7.162244386150492e-17 1.5739900000724455e-17 7.162244386150492e-17 0.07852304330706213 -0.9969122988857361
12656169333.333334 0.07040235267616557 -0.9975186758840697 1.632572578174686e-17 7.147650814027111e-17 1.632572578174686e-17 7.147650814027111e-17 0.0704029755407478 -0.9975186319236625
12656786666.666666 0.06227761666677854 -0.9980588652289765 1.6910216566414372e-17 7.132578535512647e-17 1.6910216566414372e-17 7.132578535512647e-17 0.06227823983826289 -0.998058826343665
12657404000.0 0.05414875145811788 -0.9985328801373413 1.7493333275490584e-17 7.117028758586923e-17 1.7493333275490584e-17 7.117028758586923e-17 0.054149374895158156 -0.9985328463292084
12658021333.333334 0.04601629601941526 -0.9989406891805439 1.807503693806712e-17 7.101002723100335e-17 1.807503693806712e-17 7.101002723100335e-17 0.04601691968065176 -0.9989406604513359
12658638666.666666 0.03788078955808716 -0.9992822653196158 1.8655288694142166e-17 7.084501700677972e-17 1.8655288694142166e-17 7.084501700677972e-17 0.0378814134021493 -0.9992822416707413
12659256000.0 0.029742771483642884 -0.9995575859070445 1.923404979723262e-17 7.06752699462044e-17 1.923404979723262e-17 7.06752699462044e-17 0.029743395469152063 -0.9995575673395765
12659873333.333334 0.021602781372289243 -0.9997666326882624 1.9811281616927346e-17 7.050079939803952e-17 1.9811281616927346e-17 7.050079939803952e-17 0.021603405457861487 -0.9997666192029369
12660490666.666666 0.013461358930984617 -0.9999093918028669 2.038694564146979e-17 7.03216190257733e-17 2.038694564146979e-17 7.03216190257733e-17 0.013461983075233318 -0.9999093834000805
12661108000.0 0.0053190439614556224 -0.9999858537855335 2.0961003480331357e-17 7.013774280656803e-17 2.0961003480331357e-17 7.013774280656803e-17 0.005319668122994376 -0.9999858504653492
12661725333.333334 -0.0028236236751101756 -0.9999960135666481 2.1533416866739834e-17 6.994918503019885e-17 2.1533416866739834e-17 6.994918503019885e-17 -0.002822999537664915 -0.9999960153287897
12662342666.666666 -0.010966104094341995 -0.9999398704726395 2.2104147660236126e-17 6.975596029795953e-17 2.2104147660236126e-17 6.975596029795953e-17 -0.010965480022368126 -0.999939877316494
12662960000.0 -0.01910785742425445 -0.9998174282260244 2.2673157849209687e-17 6.9558083521552e-17 2.2673157849209687e-17 6.9558083521552e-17 -0.0191072334591215 -0.9998174401506431
12663577333.333334 -0.027248343840985942 -0.9996286949451634 2.3240409553418125e-17 6.935556992195651e-17 2.3240409553418125e-17 6.935556992195651e-17 -0.027247720024052333 -0.9996287119492605
12664194666.666666 -0.03538702360476119 -0.9993736831437193 2.380586502649509e-17 6.914843502828245e-17 2.380586502649509e-17 6.914843502828245e-17 -0.035386399977371474 -0.9993737052256719
12664812000.0 -0.043523357095592366 -0.9990524097298279 2.4369486658465794e-17 6.893669467659258e-17 2.4369486658465794e-17 6.893669467659258e-17 -0.04352273369907451 -0.999052436887677
12665429333.333334 -0.05165680484900089 -0.9986648960049808 2.4931236978234675e-17 6.872036500871311e-17 2.4931236978234675e-17 6.872036500871311e-17 -0.05165618172466349 -0.9986649282364305
12666046666.666666 -0.05978682759181391 -0.9982111676626106 2.549107865606258e-17 6.849946247102345e-17 2.549107865606258e-17 6.849946247102345e-17 -0.05978620478094356 -0.99821120496503
12666664000.0 -0.06791288627811866 -0.9976912547863794 2.604897450605306e-17 6.82740038132187e-17 2.604897450605306e-17 6.82740038132187e-17 -0.06791226382197711 -0.9976912971568012
12667281333.333334 -0.0760344421246622 -0.9971051918482008 2.660488748859883e-17 6.804400608706342e-17 2.660488748859883e-17 6.804400608706342e-17 -0.07603382006448361 -0.9971052392833208
12667898666.666666 -0.08415095664674477 -0.9964530177059451 2.7158780712844288e-17 6.78094866451144e-17 2.7158780712844288e-17 6.78094866451144e-17 -0.08415033502373301 -0.9964530702021243
12668516000.0 -0.0922618916940929 -0.9957347756008493 2.7710617439129398e-17 6.757046313942677e-17 2.7710617439129398e-17 6.757046313942677e-17 -0.09226127054941903 -0.9957348331541152
12669133333.333334 -0.10036670948620074 -0.994950513154679 2.8260361081393584e-17 6.732695352025232e-17 2.8260361081393584e-17 6.732695352025232e-17 -0.10036608886099993 -0.9949505757607221
12669750666.666666 -0.10846487264818472 -0.9941002823665528 2.880797520962385e-17 6.707897603469497e-17 2.880797520962385e-17 6.707897603469497e-17 -0.10846425258355366 -0.9941003500207298
12670368000.0 -0.11655584424646956 -0.9931841396094885 2.935342355224545e-17 6.682654922536585e-17 2.935342355224545e-17 6.682654922536585e-17 -0.11655522478346389 -0.9931842123068221
