! Parameters = {f0=12700.012000; bw=77.238000; Q=6100.000000; N=10; m_0_1=1.256752; m_1_1=0.086531; m_1_2=1.091564; m_2_2=0.085882; m_2_3=0.728527; m_2_8=-0.000099; m_2_9=0.036605; m_3_3=0.083945; m_3_4=0.617056; m_3_7=0.000501; m_3_8=-0.096587; m_3_9=-0.000099; m_4_4=0.081020; m_4_5=0.453391; m_4_6=0.004018; m_4_7=-0.117136; m_4_8=0.000501; m_5_5=0.081402; m_5_6=0.860746; m_5_7=0.004018; m_6_6=0.081401; m_6_7=0.453733; m_7_7=0.081034; m_7_8=0.617174; m_8_8=0.083943; m_8_9=0.728840; m_9_9=0.085877; m_9_10=1.092642; m_10_10=0.086521; m_10_11=1.257547}
!
! Created with skrf (http://scikit-rf.org).
# Hz S RI R 50.0 
!freq ReS11 ImS11 ReS21 ImS21 ReS12 ImS12 ReS22 ImS22
12607400000.0 -0.7930508393751968 0.6091554532023197 6.100428970044592e-17 -8.405823270980251e-17 6.100428970044592e-17 -8.405823270980251e-17 -0.7930512427306716 0.6091549280791905
12608017333.333334 -0.7868387117137782 0.6171586844146555 6.01302671459567e-17 -8.466071181259803e-17 6.01302671459567e-17 -8.466071181259803e-17 -0.7868391203486298 0.6171581634304298
12608634666.666666 -0.7805458211660838 0.6250985690753013 5.925030594904549e-17 -8.525411169780618e-17 5.925030594904549e-17 -8.525411169780618e-17 -0.780546235037854 0.625098052283046
12609252000.0 -0.7741728136485906 0.6329742922167146 5.83645003354108e-17 -8.583837394878143e-17 5.83645003354108e-17 -8.583837394878143e-17 -0.7741732327142872 0.632973779669061
12609869333.333334 -0.7677203433010686 0.6407850454571459 5.747294510409297e-17 -8.641344112589021e-17 5.747294510409297e-17 -8.641344112589021e-17 -0.7677207675171712 0.6407845372062846
12610486666.666666 -0.7611890724196567 0.6485300270833488 5.657573561738468e-17 -8.697925677210369e-17 5.657573561738468e-17 -8.697925677210369e-17 -0.7611895017421214 0.6485295231810253
12611104000.0 -0.7545796713886305 0.6562084421331784 5.56729677906079e-17 -8.75357654185374e-17 5.56729677906079e-17 -8.75357654185374e-17 -0.7545801057728925 0.6562079426306856
12611721333.333334 -0.7478928186117901 0.6638195024769447 5.47647380819385e-17 -8.808291258982028e-17 5.47647380819385e-17 -8.808291258982028e-17 -0.7478932580127701 0.6638190074251196
12612338666.666666 -0.7411292004427764 0.6713624268983769 5.3851143482081377e-17 -8.862064480941968e-17 5.3851143482081377e-17 -8.862064480941968e-17 -0.7411296448148836 0.671361936347594
12612956000.0 -0.7342895111144662 0.6788364411749758 5.293228150394358e-17 -8.914890960482771e-17 5.293228150394358e-17 -8.914890960482771e-17 -0.7342899604116053 0.6788359551751435
12613573333.333334 -0.7273744526680409 0.6862407781571241 5.200825017228012e-17 -8.966765551262861e-17 5.200825017228012e-17 -8.966765551262861e-17 -0.7273749068436159 0.6862402967576794
12614190666.666666 -0.7203847348805844 0.6935746778472079 5.1079148013217043e-17 -9.017683208350168e-17 5.1079148013217043e-17 -9.017683208350168e-17 -0.7203851938875018 0.6935742010971092
12614808000.0 -0.7133210751924756 0.7008373874773499 5.014507404380211e-17 -9.067638988707169e-17 5.014507404380211e-17 -9.067638988707169e-17 -0.7133215389831522 0.7008369154250754
12615425333.333334 -0.7061841986335794 0.7080281615868654 4.9206127761452475e-17 -9.116628051668352e-17 4.9206127761452475e-17 -9.116628051668352e-17 -0.706184667159944 0.7080276942804046
12616042666.666666 -0.6989748377489808 0.7151462620986104 4.8262409133400006e-17 -9.164645659404398e-17 4.8262409133400006e-17 -9.164645659404398e-17 -0.6989753109624814 0.7151457995854617
12616660000.0 -0.6916937325236364 0.7221909583949027 4.7314018586050104e-17 -9.211687177377589e-17 4.7314018586050104e-17 -9.211687177377589e-17 -0.6916942103752457 0.7221905007220685
12617277333.333334 -0.6843416303065645 0.7291615273923757 4.636105699433603e-17 -9.25774807478432e-17 4.636105699433603e-17 -9.25774807478432e-17 -0.684342112746783 0.7291610746063566
12617894666.666666 -0.6769192857340707 0.7360572536162543 4.540362567100445e-17 -9.302823924987902e-17 4.540362567100445e-17 -9.302823924987902e-17 -0.6769197727129339 0.7360568057630457
12618512000.0 -0.6694274606522324 0.7428774292738543 4.4441826355859055e-17 -9.346910405940273e-17 4.4441826355859055e-17 -9.346910405940273e-17 -0.6694279521193136 0.7428769863989393
12619129333.333334 -0.6618669240388223 0.7496213543271126 4.347576120498816e-17 -9.390003300591558e-17 4.347576120498816e-17 -9.390003300591558e-17 -0.6618674199432392 0.7496209164754591
12619746666.666666 -0.6542384519243399 0.756288336564482 4.2505532779931517e-17 -9.432098497289471e-17 4.2505532779931517e-17 -9.432098497289471e-17 -0.6542389522147597 0.7562879037805381
12620364000.0 -0.6465428273121842 0.7628776916721279 4.153124403679288e-17 -9.473191990168266e-17 4.153124403679288e-17 -9.473191990168266e-17 -0.6465433319368303 0.7628772639998187
12620981333.333334 -0.6387808400986534 0.7693887433038558 4.0552998315383053e-17 -9.513279879523545e-17 4.0552998315383053e-17 -9.513279879523545e-17 -0.6387813490053081 0.7693883207865756
12621598666.666666 -0.6309532869914757 0.7758208231508618 3.9570899328232714e-17 -9.552358372179952e-17 3.9570899328232714e-17 -9.552358372179952e-17 -0.6309538001274874 0.7758204058314726
12622216000.0 -0.6230609714283181 0.7821732710100929 3.858505114965433e-17 -9.590423781843974e-17 3.858505114965433e-17 -9.590423781843974e-17 -0.6230614887406062 0.7821728589309187
12622833333.333334 -0.6151047034941002 0.7884454348521922 3.75955582047083e-17 -9.62747252944811e-17 3.75955582047083e-17 -9.62747252944811e-17 -0.6151052249291609 0.7884450280550153
12623450666.666666 -0.607085299838088 0.794636670888229 3.66025252581968e-17 -9.663501143481247e-17 3.66025252581968e-17 -9.663501143481247e-17 -0.6070858253419991 0.7946362694142846
12624068000.0 -0.5990035835898938 0.8007463436359181 3.5606057403557954e-17 -9.698506260310407e-17 3.5606057403557954e-17 -9.698506260310407e-17 -0.5990041131083218 0.8007459475258931
12624685333.333334 -0.5908603842748985 0.8067738259849208 3.460626005178489e-17 -9.732484624488924e-17 3.460626005178489e-17 -9.732484624488924e-17 -0.5908609177531018 0.8067734352789449
12625302666.666666 -0.5826565377294897 0.8127184992609138 3.3603238920302604e-17 -9.765433089053863e-17 3.3603238920302604e-17 -9.765433089053863e-17 -0.5826570751123263 0.8127181139985599
12625920000.0 -0.5743928860147473 0.8185797532894872 3.25971000217917e-17 -9.797348615812721e-17 3.25971000217917e-17 -9.797348615812721e-17 -0.5743934272466803 0.8185793735097653
12626537333.333334 -0.5660702773305168 0.8243569864584023 3.15879496530223e-17 -9.828228275617565e-17 3.15879496530223e-17 -9.828228275617565e-17 -0.5660708223556197 0.8243566121997568
12627154666.666666 -0.5576895659280273 0.8300496057795801 3.057589438365135e-17 -9.858069248627999e-17 3.057589438365135e-17 -9.858069248627999e-17 -0.5576901146899884 0.8300492370798827
12627772000.0 -0.5492516120222505 0.8356570269499245 2.956104104495089e-17 -9.886868824563975e-17 2.956104104495089e-17 -9.886868824563975e-17 -0.5492521644643815 0.8356566638464744
12628389333.333334 -0.5407572817037517 0.8411786744112086 2.854349671861468e-17 -9.914624402944088e-17 2.854349671861468e-17 -9.914624402944088e-17 -0.5407578377689912 0.8411783169407261
12629006666.666666 -0.5322074468496237 0.8466139814092568 2.752336872541633e-17 -9.941333493315977e-17 2.752336872541633e-17 -9.941333493315977e-17 -0.5322080064805451 0.8466136296078817
12629624000.0 -0.523602985034069 0.8519623900520732 2.6500764613965357e-17 -9.966993715471784e-17 2.6500764613965357e-17 -9.966993715471784e-17 -0.5236035481728847 0.8519620439553592
12630241333.333334 -0.5149447794383697 0.8572233513670732 2.5475792149350637e-17 -9.991602799654627e-17 2.5475792149350637e-17 -9.991602799654627e-17 -0.5149453460269378 0.8572230110099853
12630858666.666666 -0.5062337187601901 0.8623963253574641 2.444855930184509e-17 -1.0015158586751362e-16 2.444855930184509e-17 -1.0015158586751362e-16 -0.5062342887400199 0.8623959907743737
12631476000.0 -0.49747069712228276 0.8674807810577118 2.341917423549945e-17 -1.0037659028476036e-16 2.341917423549945e-17 -1.0037659028476036e-16 -0.4974712704345422 0.8674804522823961
12632093333.333334 -0.4886566139808383 0.8724761965879704 2.238774529683418e-17 -1.0059102187538949e-16 2.238774529683418e-17 -1.0059102187538949e-16 -0.4886571905663578 0.8724758736536051
12632710666.666666 -0.4797923740332115 0.8773820592076198 2.135438100341726e-17 -1.0079486237806536e-16 2.135438100341726e-17 -1.0079486237806536e-16 -0.47979295383249265 0.8773817421467803
12633328000.0 -0.4708788871247402 0.882197865368078 2.0319190032476548e-17 -1.0098809464448232e-16 2.0319190032476548e-17 -1.0098809464448232e-16 -0.4708794700779599 0.8821975542127326
12633945333.333334 -0.46191706815577843 0.8869231207642505 1.9282281209497673e-17 -1.0117070264071967e-16 1.9282281209497673e-17 -1.0117070264071967e-16 -0.4619176542027957 0.886922815545758
12634562666.666666 -0.4529078369874645 0.8915573403854423 1.8243763496798966e-17 -1.0134267144848038e-16 1.8243763496798966e-17 -1.0134267144848038e-16 -0.45290842606782655 0.891557041134549
12635180000.0 -0.44385211834753086 0.8961000485650233 1.720374598211418e-17 -1.0150398726621091e-16 1.720374598211418e-17 -1.0150398726621091e-16 -0.44385271040047974 0.8960997553118604
12635797333.333334 -0.4347508417351597 0.9005507790293663 1.616233786713181e-17 -1.0165463741010935e-16 1.616233786713181e-17 -1.0165463741010935e-16 -0.43475143669963806 0.9005504918034459
12636414666.666666 -0.42560494132588267 0.9049090749455551 1.5119648456084748e-17 -1.0179461031500722e-16 1.5119648456084748e-17 -1.0179461031500722e-16 -0.4256055391405409 0.904908793775769
12637032000.0 -0.4164153558753382 0.9091744889684502 1.4075787144258635e-17 -1.0192389553514588e-16 1.4075787144258635e-17 -1.0192389553514588e-16 -0.41641595647854 0.9091742138830659
12637649333.333334 -0.40718302862322253 0.9133465832864586 1.3030863406570293e-17 -1.020424837448245e-16 1.3030863406570293e-17 -1.020424837448245e-16 -0.4071836319530508 0.9133463143131144
12638266666.666666 -0.3979089071962406 0.9174249296665755 1.1984986786081583e-17 -1.0215036673893949e-16 1.1984986786081583e-17 -1.0215036673893949e-16 -0.39790951319050494 0.9174246668322815
12638884000.0 -0.38859394351104826 0.9214091094982508 1.0938266882559896e-17 -1.0224753743340035e-16 1.0938266882559896e-17 -1.0224753743340035e-16 -0.38859455210729105 0.9214088528293841
12639501333.333334 -0.37923909367631037 0.925298713836455 9.890813340987856e-18 -1.0233398986543421e-16 9.890813340987856e-18 -1.0233398986543421e-16 -0.37923970481181263 0.925298463358757
12640118666.666666 -0.36984531789493025 0.9290933434435023 8.842735840139646e-18 -1.0240971919376622e-16 8.842735840139646e-18 -1.0240971919376622e-16 -0.3698459315067186 0.9290930991820759
12640736000.0 -0.3604135803648614 0.9327926088302851 7.79414408104767e-18 -1.0247472169869276e-16 7.79414408104767e-18 -1.0247472169869276e-16 -0.3604141963897148 0.9327923708095945
12641353333.333334 -0.3509448491809569 0.936396130295925 6.745147775634501e-18 -1.0252899478202443e-16 6.745147775634501e-18 -1.0252899478202443e-16 -0.35094546755541234 0.9363958985397898
12641970666.666666 -0.34144009623496935 0.9399035379669994 5.695856635170406e-18 -1.0257253696692519e-16 5.695856635170406e-18 -1.0257253696692519e-16 -0.3414407168953294 0.9399033124985949
12642588000.0 -0.33190029711597685 0.9433144718354285 4.646380358872418e-18 -1.0260534789762522e-16 4.646380358872418e-18 -1.0260534789762522e-16 -0.33190091999831534 0.9433142526772824
12643205333.333334 -0.32232643101040837 0.9466285817953738 3.596828622430409e-18 -1.0262742833902141e-16 3.596828622430409e-18 -1.0262742833902141e-16 -0.32232705605057704 0.9466283689693625
12643822666.666666 -0.3127194806012144 0.9498455276792824 2.547311066578006e-18 -1.0263878017615932e-16 2.547311066578006e-18 -1.0263878017615932e-16 -0.3127201077348506 0.9498453212066328
12644440000.0 -0.30308043196735335 0.9529649792926872 1.4979372856512157e-18 -1.0263940641359896e-16 1.4979372856512157e-18 -1.0263940641359896e-16 -0.303081061129885 0.952964779193969
12645057333.333334 -0.29341027448233403 0.9559866164481745 4.4881681618552e-19 -1.0262931117466387e-16 4.4881681618552e-19 -1.0262931117466387e-16 -0.2934109056089881 0.9559864227433053
12645674666.666666 -0.2837100007128834 0.9589101289981894 -5.999408745202975e-19 -1.0260849970057425e-16 -5.999408745202975e-19 -1.0260849970057425e-16 -0.2837106337386906 0.9589099417064246
12646292000.0 -0.2739806063166566 0.961735216866984 -1.648226399802374e-18 -1.02576978349462e-16 -1.648226399802374e-18 -1.02576978349462e-16 -0.2739812411764597 0.9617350360069212
12646909333.333334 -0.2642230899406147 0.964461590081255 -2.695930465005466e-18 -1.025347545952724e-16 -2.695930465005466e-18 -1.025347545952724e-16 -0.2642237265690743 0.9644614156708288
12647526666.666666 -0.2544384531180285 0.9670889688000444 -3.742943878863015e-18 -1.0248183702654703e-16 -3.742943878863015e-18 -1.0248183702654703e-16 -0.2544390914496301 0.9670888008565264
12648144000.0 -0.24462770016592592 0.969617083343398 -4.789157564876527e-18 -1.0241823534509171e-16 -4.789157564876527e-18 -1.0241823534509171e-16 -0.24462834013498685 0.9696169218833947
12648761333.333334 -0.23479183808189635 0.9720456742200712 -5.834462572623193e-18 -1.0234396036453002e-16 -5.834462572623193e-18 -1.0234396036453002e-16 -0.23479247962257205 0.972045519259521
12649378666.666666 -0.2249318764409507 0.9743744921541103 -6.87875008910421e-18 -1.0225902400873989e-16 -6.87875008910421e-18 -1.0225902400873989e-16 -0.22493251948724194 0.9743743437082842
12649996000.0 -0.21504882729153843 0.9766032981105288 -7.921911450042242e-18 -1.0216343931017509e-16 -7.921911450042242e-18 -1.0216343931017509e-16 -0.21504947177729763 0.9766031561940265
12650613333.333334 -0.20514370505197096 0.9787318633197644 -8.963838151182259e-18 -1.0205722040807127e-16 -8.963838151182259e-18 -1.0205722040807127e-16 -0.20514435091090946 0.9787317279465146
12651230666.666666 -0.1952175264061907 0.9807599693011927 -1.0004421859521877e-17 -1.0194038254654057e-16 -1.0004421859521877e-17 -1.0194038254654057e-16 -0.1952181735718852 0.980759840484451
12651848000.0 -0.18527131019935944 0.98268740788556 -1.1043554424606468e-17 -1.01812942072544e-16 -1.1043554424606468e-17 -1.01812942072544e-16 -0.18527195860525922 0.982687285637908
12652465333.333334 -0.17530607733330975 0.9845139812363437 -1.2081127889699351e-17 -1.0167491643375925e-16 -1.2081127889699351e-17 -1.0167491643375925e-16 -0.17530672691274318 0.9845138655696878
12653082666.666666 -0.16532285066198124 0.9862395018700204 -1.3117034502999907e-17 -1.0152632417632766e-16 -1.3117034502999907e-17 -1.0152632417632766e-16 -0.16532350134816273 0.9862393927955896
12653700000.0 -0.1553226548859283 0.9878637926753943 -1.41511667288183e-17 -1.0136718494248749e-16 -1.41511667288183e-17 -1.0136718494248749e-16 -0.15532330661196547 0.9878636902037419
12654317333.333334 -0.14530651644773201 0.9893866869316839 -1.5183417258700532e-17 -1.011975194680989e-16 -1.5183417258700532e-17 -1.011975194680989e-16 -0.1453071691466317 0.9893865910726811
12654934666.666666 -0.13527546342627783 0.9908080283256866 -1.6213679022548228e-17 -1.0101734958005108e-16 -1.6213679022548228e-17 -1.0101734958005108e-16 -0.1352761170309541 0.9908079390885278
12655552000.0 -0.1252305254311478 0.9921276709678384 -1.724184519972654e-17 -1.0082669819355405e-16 -1.724184519972654e-17 -1.0082669819355405e-16 -0.1252311798744281 0.9921275883610369
12656169333.333334 -0.11517273349738874 0.9933454794071236 -1.8267809230069937e-17 -1.0062558930933012e-16 -1.8267809230069937e-17 -1.0062558930933012e-16 -0.11517338871202104 0.9933454034385113
12656786666.666666 -0.10510311997917783 0.9944613286450465 -1.9291464824956858e-17 -1.0041404801067559e-16 -1.9291464824956858e-17 -1.0041404801067559e-16 -0.10510377589783744 0.9944612593217727
12657404000.0 -0.09502271844422598 0.995475104148415 -2.0312705978262834e-17 -1.0019210046042638e-16 -2.0312705978262834e-17 -1.0019210046042638e-16 -0.09502337499952258 0.9954750414769469
12658021333.333334 -0.08493256356740758 0.9963867018611285 -2.1331426977345682e-17 -9.995977389779989e-17 -2.1331426977345682e-17 -9.995977389779989e-17 -0.08493322069189199 0.996386645847249
12658638666.666666 -0.07483369102492696 0.9971960282148211 -2.234752241393031e-17 -9.971709663513948e-17 -2.234752241393031e-17 -9.971709663513948e-17 -0.07483434865109828 0.9971959788636308
12659256000.0 -0.0647271373875048 0.9979030001385145 -2.3360887195042604e-17 -9.946409805452923e-17 -2.3360887195042604e-17 -9.946409805452923e-17 -0.06472779544781716 0.9979029574544285
12659873333.333334 -0.05461394001446343 0.9985075450670992 -2.4371416553823858e-17 -9.920080860431649e-17 -2.4371416553823858e-17 -9.920080860431649e-17 -0.05461459844133301 0.9985075090538483
12660490666.666666 -0.0444951369470236 0.999009600948806 -2.5379006060332767e-17 -9.892725979552e-17 -2.5379006060332767e-17 -9.892725979552e-17 -0.04449579567283558 0.9990095716094367
12661108000.0 -0.03437176680170069 0.9994091162515768 -2.6383551632364047e-17 -9.864348419811339e-17 -2.6383551632364047e-17 -9.864348419811339e-17 -0.03437242575881604 0.9994090935884481
12661725333.333334 -0.024244868663868886 0.9997060499683396 -2.738494954611708e-17 -9.83495154372279e-17 -2.738494954611708e-17 -9.83495154372279e-17 -0.02424552778463155 0.9997060339831271
12662342666.666666 -0.014115481981022275 0.9999003716212287 -2.838309644693792e-17 -9.80453881892164e-17 -2.838309644693792e-17 -9.80453881892164e-17 -0.014116141197765978 0.9999003623149226
12662960000.0 -0.003984646455998249 0.9999920612647125 -2.9377889359929004e-17 -9.77311381776329e-17 -2.9377889359929004e-17 -9.77311381776329e-17 -0.003985305701053442 0.9999920586376161
12663577333.333334 0.0061465980595410245 0.9999811094876359 -3.036922570057656e-17 -9.740680216908791e-17 -3.036922570057656e-17 -9.740680216908791e-17 0.006145938853840187 0.9999811135393675
12664194666.666666 0.016277211672068623 0.9998675174141879 -3.135700328528579e-17 -9.707241796900961e-17 -3.135700328528579e-17 -9.707241796900961e-17 0.016276552573377352 0.9998675281436811
12664812000.0 0.026406154552702503 0.9996512967037895 -3.2341120341914454e-17 -9.672802441728527e-17 -3.2341120341914454e-17 -9.672802441728527e-17 0.026405495628658425 0.9996513141092915
12665429333.333334 0.03653238704419164 0.9993324695498909 -3.332147552021797e-17 -9.63736613838093e-17 -3.332147552021797e-17 -9.63736613838093e-17 0.03653172836240786 0.9993324936289643
12666046666.666666 0.04665486976725936 0.9989110686777021 -3.4297967902274e-17 -9.600936976391656e-17 -3.4297967902274e-17 -9.600936976391656e-17 0.046654211395317585 0.9989110994272263
12666664000.0 0.05677256372782736 0.9983871373408205 -3.5270497012857573e-17 -9.563519147370995e-17 -3.5270497012857573e-17 -9.563519147370995e-17 0.05677190573327083 0.9983871747569885
12667281333.333334 0.0668844304230355 0.9977607293168109 -3.6238962829741806e-17 -9.525116944529292e-17 -3.6238962829741806e-17 -9.525116944529292e-17 0.06688377287336221 0.9977607733951328
12667898666.666666 0.07698943194834726 0.9970319089016657 -3.720326579396883e-17 -9.485734762188917e-17 -3.720326579396883e-17 -9.485734762188917e-17 0.07698877491100287 0.9970319596369676
12668516000.0 0.08708653110385518 0.996200750903213 -3.816330682008436e-17 -9.445377095285195e-17 -3.816330682008436e-17 -9.445377095285195e-17 0.08708587464622629 0.9962008082896391
12669133333.333334 0.0971746915007134 0.9952673406334449 -3.911898730625199e-17 -9.404048538859815e-17 -3.911898730625199e-17 -9.404048538859815e-17 0.0971740356901205 0.995267404664457
12669750666.666666 0.10725287766757147 0.9942317738997548 -4.0070209144406703e-17 -9.361753787540101e-17 -4.0070209144406703e-17 -9.361753787540101e-17 0.10725222257126207 0.9942318445681334
12670368000.0 0.11732005515697065 0.9930941569950927 -4.101687473027262e-17 -9.318497635011409e-17 -4.101687473027262e-17 -9.318497635011409e-17 0.11731940084211243 0.9930942342929376
