! Parameters = {f0=12700.012000; bw=77.238000; Q=6100.000000; N=10; m_0_1=1.271366; m_1_1=0.305750; m_1_2=1.106178; m_2_2=0.305101; m_2_3=0.743141; m_2_8=0.000632; m_2_9=0.037336; m_3_3=0.303164; m_3_4=0.631670; m_3_7=0.001232; m_3_8=-0.095856; m_3_9=0.000632; m_4_4=0.300239; m_4_5=0.468005; m_4_6=0.004749; m_4_7=-0.116405; m_4_8=0.001232; m_5_5=0.300621; m_5_6=0.875360; m_5_7=0.004749; m_6_6=0.300620; m_6_7=0.468347; m_7_7=0.300253; m_7_8=0.631788; m_8_8=0.303162; m_8_9=0.743454; m_9_9=0.305096; m_9_10=1.107256; m_10_10=0.305740; m_10_11=1.272161}
!
! Created with skrf (http://scikit-rf.org).
# Hz S RI R 50.0 
!freq ReS11 ImS11 ReS21 ImS21 ReS12 ImS12 ReS22 ImS22
12607400000.0 0.9982336923088931 -0.05940955764164982 -1.0466496706200696e-16 3.7903946618764143e-17 -1.0466496706200696e-16 3.7903946618764143e-17 0.9982337321029082 -0.059408888995854524
12608017333.333334 0.9975504475796038 -0.06995072932825272 -1.042348666187818e-16 3.900902871769305e-17 -1.042348666187818e-16 3.900902871769305e-17 0.997550494432107 -0.0699500611728274
12608634666.666666 0.9967558930553464 -0.08048409569140047 -1.0379310695519231e-16 4.01092516531827e-17 -1.0379310695519231e-16 4.01092516531827e-17 0.9967559469604174 -0.08048342810084827
12609252000.0 0.9958501173950765 -0.09100848138517625 -1.0333974275583105e-16 4.1204492505711514e-17 -1.0333974275583105e-16 4.1204492505711514e-17 0.9958501783460111 -0.09100781443393008
12609869333.333334 0.9948332216681499 -0.10152271206578407 -1.0287483000020863e-16 4.2294628969031105e-17 -1.0287483000020863e-16 4.2294628969031105e-17 0.9948332896574584 -0.10152204582819829
12610486666.666666 0.9937053193430593 -0.11202561452244456 -1.0239842595590433e-16 4.337953936378292e-17 -1.0239842595590433e-16 4.337953936378292e-17 0.9937053943624651 -0.1120249490727864
12611104000.0 0.9924665362747372 -0.12251601680861604 -1.0191058917155296e-16 4.445910265108479e-17 -1.0191058917155296e-16 4.445910265108479e-17 0.9924666183151822 -0.12251535222105775
12611721333.333334 0.9911170106905576 -0.13299274837236855 -1.0141137946972042e-16 4.5533198445966894e-17 -1.0141137946972042e-16 4.5533198445966894e-17 0.9911170997422004 -0.13299208472097884
12612338666.666666 0.9896568931748829 -0.14345464018728044 -1.0090085793960771e-16 4.660170703079807e-17 -1.0090085793960771e-16 4.660170703079807e-17 0.9896569892271011 -0.14345397754601635
12612956000.0 0.9880863466522529 -0.15390052488288106 -1.0037908692962642e-16 4.766450936860203e-17 -1.0037908692962642e-16 4.766450936860203e-17 0.9880864496936446 -0.15389986332557978
12613573333.333334 0.9864055463692489 -0.16432923687465723 -9.984613003984664e-17 4.872148711626557e-17 -9.984613003984664e-17 4.872148711626557e-17 0.9864056563876313 -0.1643285764750274
12614190666.666666 0.9846146798748905 -0.174739612494393 -9.930205211428033e-17 4.977252263771718e-17 -9.930205211428033e-17 4.977252263771718e-17 0.9846147968573061 -0.1747389533260073
12614808000.0 0.9827139469997348 -0.18513049011987567 -9.874691923304689e-17 5.081749901697757e-17 -9.874691923304689e-17 5.081749901697757e-17 0.9827140709324498 -0.1851298322561622
12615425333.333334 0.9807035598335735 -0.19550071030454133 -9.818079870439366e-17 5.18563000711405e-17 -9.818079870439366e-17 5.18563000711405e-17 0.9807036907020791 -0.19550005381877517
12616042666.666666 0.978583742701764 -0.2058491159068486 -9.760375905658127e-17 5.2888810363262515e-17 -9.760375905658127e-17 5.2888810363262515e-17 0.9785838804907797 -0.20584846087214412
12616660000.0 0.976354732140202 -0.21617455221939724 -9.701587002963442e-17 5.391491521516322e-17 -9.701587002963442e-17 5.391491521516322e-17 0.9763548768336766 -0.2161738987086997
12617277333.333334 0.9740167768689219 -0.2264758670978013 -9.641720256695615e-17 5.493450072013694e-17 -9.641720256695615e-17 5.493450072013694e-17 0.9740169284500343 -0.22647521518387864
12617894666.666666 0.9715701377643705 -0.23675191108910962 -9.580782880681913e-17 5.594745375555587e-17 -9.580782880681913e-17 5.594745375555587e-17 0.9715702962155345 -0.2367512608445448
12618512000.0 0.969015087830234 -0.2470015375603715 -9.518782207369886e-17 5.695366199542271e-17 -9.518782207369886e-17 5.695366199542271e-17 0.9690152531330974 -0.24700088905755377
12619129333.333334 0.966351912167062 -0.25722360282619305 -9.455725686951608e-17 5.79530139227603e-17 -9.455725686951608e-17 5.79530139227603e-17 0.9663520843025105 -0.2572229561373106
12619746666.666666 0.96358090794039 -0.26741696627663014 -9.391620886471023e-17 5.894539884196971e-17 -9.391620886471023e-17 5.894539884196971e-17 0.9635810868885496 -0.2674163214736617
12620364000.0 0.9607023843475809 -0.27758049050446104 -9.326475488919986e-17 5.993070689106284e-17 -9.326475488919986e-17 5.993070689106284e-17 0.9607025700878167 -0.2775798476591672
12620981333.333334 0.9577166625833843 -0.2877130414318533 -9.260297292323067e-17 6.090882905377246e-17 -9.260297292323067e-17 6.090882905377246e-17 0.9577168550943089 -0.28771240061577014
12621598666.666666 0.9546240758040302 -0.29781348843718397 -9.193094208806463e-17 6.187965717161174e-17 -9.193094208806463e-17 6.187965717161174e-17 0.9546242750635008 -0.2978128497216137
12622216000.0 0.9514249690900853 -0.30788070448105964 -9.124874263656821e-17 6.284308395579191e-17 -9.124874263656821e-17 6.284308395579191e-17 0.9514251750752092 -0.3078800679370633
12622833333.333334 0.9481196994079352 -0.31791356623212996 -9.055645594366472e-17 6.379900299905535e-17 -9.055645594366472e-17 6.379900299905535e-17 0.9481199120950707 -0.31791293193051895
12623450666.666666 0.9447086355699846 -0.3279109541923232 -8.985416449667352e-17 6.474730878738861e-17 -8.985416449667352e-17 6.474730878738861e-17 0.9447088549347464 -0.32791032220365257
12624068000.0 0.9411921581934687 -0.3378717528219016 -8.914195188551256e-17 6.568789671164994e-17 -8.914195188551256e-17 6.568789671164994e-17 0.941192384210726 -0.3378711232164605
12624685333.333334 0.9375706596579575 -0.3477948506639582 -8.841990279277491e-17 6.662066307909434e-17 -8.841990279277491e-17 6.662066307909434e-17 0.9375708923018423 -0.34779422351176376
12625302666.666666 0.9338445440616828 -0.3576791404681738 -8.768810298373752e-17 6.754550512472267e-17 -8.768810298373752e-17 6.754550512472267e-17 0.9338447833055881 -0.35767851583896193
12625920000.0 0.9300142271762902 -0.3675235193147639 -8.69466392961551e-17 6.846232102264629e-17 -8.69466392961551e-17 6.846232102264629e-17 0.9300144729928779 -0.3675228972779832
12626537333.333334 0.9260801364005949 -0.3773268887371771 -8.619559963003844e-17 6.937100989720838e-17 -8.619559963003844e-17 6.937100989720838e-17 0.9260803887617934 -0.377326269361979
12627154666.666666 0.9220427107128245 -0.3870881548448219 -8.543507293725846e-17 7.027147183406832e-17 -8.543507293725846e-17 7.027147183406832e-17 0.9220429695898364 -0.3870875382000547
12627772000.0 0.9179024006215752 -0.3968062284452863 -8.46651492110165e-17 7.116360789119357e-17 -8.46651492110165e-17 7.116360789119357e-17 0.9179026659848781 -0.39680561459948654
12628389333.333334 0.9136596681156914 -0.40648002516550336 -8.388591947527875e-17 7.204732010964271e-17 -8.388591947527875e-17 7.204732010964271e-17 0.9136599399350429 -0.40647941418688915
12629006666.666666 0.9093149866125531 -0.4161084655731439 -8.309747577400918e-17 7.292251152433914e-17 -8.309747577400918e-17 7.292251152433914e-17 0.9093152648569932 -0.41610785752960666
12629624000.0 0.9048688409053716 -0.4256904752967745 -8.22999111603566e-17 7.378908617465103e-17 -8.22999111603566e-17 7.378908617465103e-17 0.9048691255432261 -0.42568987025587113
12630241333.333334 0.9003217271090258 -0.43522498514589475 -8.149331968569364e-17 7.464694911489577e-17 -8.149331968569364e-17 7.464694911489577e-17 0.900322018107911 -0.4352243831748411
12630858666.666666 0.895674152604781 -0.4447109312300888 -8.067779638857295e-17 7.549600642469784e-17 -8.067779638857295e-17 7.549600642469784e-17 0.8956744499316053 -0.4447103323957508
12631476000.0 0.8909266359835286 -0.45414725507801507 -7.985343728353857e-17 7.633616521926457e-17 -7.985343728353857e-17 7.633616521926457e-17 0.8909269396045003 -0.45414665944690363
12632093333.333334 0.8860797069880947 -0.46353290375518724 -7.902033934988325e-17 7.71673336594863e-17 -7.902033934988325e-17 7.71673336594863e-17 0.88608001686872 -0.46353231139344775
12632710666.666666 0.8811339064540438 -0.47286682998161195 -7.817860052025978e-17 7.798942096195735e-17 -7.817860052025978e-17 7.798942096195735e-17 0.8811342225591359 -0.4728662409550197
12633328000.0 0.8760897862492727 -0.48214799224877813 -7.732831966918976e-17 7.880233740886989e-17 -7.732831966918976e-17 7.880233740886989e-17 0.8760901085429514 -0.48214740662272854
12633945333.333334 0.8709479092125415 -0.49137535493563955 -7.646959660150213e-17 7.960599435775328e-17 -7.646959660150213e-17 7.960599435775328e-17 0.8709482376582429 -0.49137477277514385
12634562666.666666 0.8657088490906132 -0.5005478884243039 -7.560253204063895e-17 8.04003042511177e-17 -7.560253204063895e-17 8.04003042511177e-17 0.8657091836510886 -0.5005473097939794
12635180000.0 0.8603731904742395 -0.509664569214892 -7.472722761687529e-17 8.118518062595837e-17 -7.472722761687529e-17 8.118518062595837e-17 0.8603735311115616 -0.5096639941789558
12635797333.333334 0.8549415287329198 -0.5187243800397691 -7.384378585543607e-17 8.196053812313583e-17 -7.384378585543607e-17 8.196053812313583e-17 0.8549418754084868 -0.5187238086620312
12636414666.666666 0.8494144699485227 -0.5277263099769562 -7.295231016452806e-17 8.27262924966172e-17 -7.295231016452806e-17 8.27262924966172e-17 0.8494148226230641 -0.5277257423208123
12637032000.0 0.8437926308475747 -0.5366693545630798 -7.205290482325265e-17 8.348236062260829e-17 -7.205290482325265e-17 8.348236062260829e-17 0.843792989481154 -0.5366687906915042
12637649333.333334 0.8380766387324984 -0.5455525159053538 -7.114567496944847e-17 8.422866050853429e-17 -7.114567496944847e-17 8.422866050853429e-17 0.8380770032845177 -0.545551955880892
12638266666.666666 0.8322671314116032 -0.5543748027929529 -7.023072658742903e-17 8.496511130189846e-17 -7.023072658742903e-17 8.496511130189846e-17 0.8322675018408082 -0.5543742466777152
12638884000.0 0.8263647571279159 -0.5631352308076141 -6.930816649563237e-17 8.569163329900722e-17 -6.930816649563237e-17 8.569163329900722e-17 0.8263651333924013 -0.5631346786632688
12639501333.333334 0.8203701744868315 -0.5718328224335054 -6.837810233417752e-17 8.640814795356187e-17 -6.837810233417752e-17 8.640814795356187e-17 0.8203705565440447 -0.5718322743212719
12640118666.666666 0.8142840523827236 -0.5804666071661604 -6.744064255235094e-17 8.711457788510405e-17 -6.744064255235094e-17 8.711457788510405e-17 0.8142844401894695 -0.5804660631468018
12640736000.0 0.808107069924042 -0.5890356216211406 -6.649589639595039e-17 8.781084688736573e-17 -6.649589639595039e-17 8.781084688736573e-17 0.8081074634364882 -0.5890350817549573
12641353333.333334 0.8018399163579324 -0.597538909640978 -6.554397389464434e-17 8.849687993640895e-17 -6.554397389464434e-17 8.849687993640895e-17 0.8018403155316143 -0.5975383739878013
12641970666.666666 0.7954832909929802 -0.6059755224023506 -6.458498584913374e-17 8.91726031987116e-17 -6.458498584913374e-17 8.91726031987116e-17 0.7954836957828069 -0.6059749910215365
12642588000.0 0.7890379031213474 -0.6143445185217261 -6.361904381830994e-17 8.983794403905764e-17 -6.361904381830994e-17 8.983794403905764e-17 0.7890383134816042 -0.6143439914721475
12643205333.333334 0.782504471939609 -0.6226449641604264 -6.264626010630368e-17 9.04928310283089e-17 -6.264626010630368e-17 9.04928310283089e-17 0.7825048878239649 -0.6226444415004667
12643822666.666666 0.7758837264684332 -0.6308759331289171 -6.166674774944667e-17 9.113719395104184e-17 -6.166674774944667e-17 9.113719395104184e-17 0.7758841478299457 -0.6308754149164656
12644440000.0 0.7691764054713245 -0.6390365069900452 -6.068062050317889e-17 9.177096381302848e-17 -6.068062050317889e-17 9.177096381302848e-17 0.7691768322624442 -0.6390359932824882
12645057333.333334 0.7623832573721698 -0.6471257751615408 -5.968799282886366e-17 9.239407284858601e-17 -5.968799282886366e-17 9.239407284858601e-17 0.7623836895447462 -0.6471252660157568
12645674666.666666 0.7555050401717324 -0.6551428350176269 -5.868897988053062e-17 9.300645452778282e-17 -5.868897988053062e-17 9.300645452778282e-17 0.7555054776770195 -0.6551423304899802
12646292000.0 0.7485425213629385 -0.6630867919898866 -5.768369749152635e-17 9.360804356351265e-17 -5.768369749152635e-17 9.360804356351265e-17 0.7485429641515999 -0.6630862921362203
12646909333.333334 0.74149647784548 -0.6709567596667999 -5.667226216114679e-17 9.41987759183926e-17 -5.667226216114679e-17 9.41987759183926e-17 0.7414969258675945 -0.67095626454243
12647526666.666666 0.7343676958389401 -0.6787518598928705 -5.56547910411405e-17 9.477858881155265e-17 -5.56547910411405e-17 9.477858881155265e-17 0.7343681490440073 -0.6787513695525798
12648144000.0 0.7271569707950799 -0.6864712228665861 -5.4631401922159116e-17 9.53474207252695e-17 -5.4631401922159116e-17 9.53474207252695e-17 0.7271574291320273 -0.6864707373646199
12648761333.333334 0.7198651073091601 -0.694113987237396 -5.3602213220172993e-17 9.590521141143654e-17 -5.3602213220172993e-17 9.590521141143654e-17 0.7198655707263452 -0.6941135066274519
12649378666.666666 0.7124929190301563 -0.7016793002018161 -5.2567343962800203e-17 9.645190189789998e-17 -5.2567343962800203e-17 9.645190189789998e-17 0.7124933874753775 -0.7016788245370429
12649996000.0 0.7050412285698794 -0.7091663175986989 -5.152691377552984e-17 9.69874344946698e-17 -5.152691377552984e-17 9.69874344946698e-17 0.7050417019903767 -0.7091658469316866
12650613333.333334 0.697510867411238 -0.7165742040033584 -5.0481042867954284e-17 9.751175279994414e-17 -5.0481042867954284e-17 9.751175279994414e-17 0.6975113457537034 -0.7165737383861358
12651230666.666666 0.689902675815543 -0.7239021328207136 -4.942985201991927e-17 9.802480170599809e-17 -4.942985201991927e-17 9.802480170599809e-17 0.6899031590261238 -0.7239016723047403
12651848000.0 0.6822175027285458 -0.7311492863777213 -4.837346256754983e-17 9.852652740495469e-17 -4.837346256754983e-17 9.852652740495469e-17 0.6822179907528513 -0.7311488310138825
12652465333.333334 0.674456205685892 -0.7383148560144343 -4.731199638932537e-17 9.901687739435417e-17 -4.731199638932537e-17 9.901687739435417e-17 0.6744566984689996 -0.7383144058530354
12653082666.666666 0.6666196507174382 -0.7453980421742376 -4.6245575892031254e-17 9.949580048260593e-17 -4.6245575892031254e-17 9.949580048260593e-17 0.6666201482039001 -0.7453975972649993
12653700000.0 0.6587087122504061 -0.7523980544932558 -4.517432399664439e-17 9.996324679429426e-17 -4.517432399664439e-17 9.996324679429426e-17 0.6587092143842557 -0.7523976148853085
12654317333.333334 0.6507242730121086 -0.7593141118882798 -4.4098364124231506e-17 1.0041916777530357e-16 -4.4098364124231506e-17 1.0041916777530357e-16 0.6507247797368653 -0.7593136776301562
12654934666.666666 0.6426672239312389 -0.7661454426441099 -4.3017820181727833e-17 1.0086351619782211e-16 -4.3017820181727833e-17 1.0086351619782211e-16 0.6426677351899154 -0.7661450137837413
12655552000.0 0.634538464038456 -0.7728912844996645 -4.193281654769448e-17 1.0129624616518013e-16 -4.193281654769448e-17 1.0129624616518013e-16 0.6345389797735648 -0.7728908610843755
12656169333.333334 0.6263389003662654 -0.7795508847328719 -4.084347805805438e-17 1.0171731311652579e-16 -4.084347805805438e-17 1.0171731311652579e-16 0.626339420519825 -0.7795504668093749
12656786666.666666 0.6180694478475887 -0.7861235002448416 -3.974992999172655e-17 1.021266738313689e-16 -3.974992999172655e-17 1.021266738313689e-16 0.6180699723611315 -0.7861230878592324
12657404000.0 0.6097310292137867 -0.7926083976426955 -3.8652298056259544e-17 1.0252428643395442e-16 -3.8652298056259544e-17 1.0252428643395442e-16 0.6097315580283629 -0.7926079908404466
12658021333.333334 0.6013245748916486 -0.7990048533214317 -3.755070837340133e-17 1.0291011039748905e-16 -3.755070837340133e-17 1.0291011039748905e-16 0.6013251079478349 -0.7990044521473887
12658638666.666666 0.5928510228996884 -0.8053121535445849 -3.644528746464837e-17 1.0328410654820625e-16 -3.644528746464837e-17 1.0328410654820625e-16 0.5928515601375941 -0.8053117580429612
12659256000.0 0.5843113187432503 -0.8115295945240372 -3.533616223671108e-17 1.0364623706929142e-16 -3.533616223671108e-17 1.0364623706929142e-16 0.5843118601025235 -0.8115292047384082
12659873333.333334 0.5757064153092086 -0.8176564824983927 -3.422345996699695e-17 1.0399646550463248e-16 -3.422345996699695e-17 1.0399646550463248e-16 0.5757069607290441 -0.8176560984716932
12660490666.666666 0.5670372727596475 -0.823692133810398 -3.310730828903104e-17 1.0433475676242376e-16 -3.310730828903104e-17 1.0433475676242376e-16 0.567037822178792 -0.8236917555849137
12661108000.0 0.5583048584244854 -0.8296358749833814 -3.1987835177811934e-17 1.0466107711862335e-16 -3.1987835177811934e-17 1.0466107711862335e-16 0.5583054117812463 -0.8296355026007488
12661725333.333334 0.549510146693868 -0.8354870427961819 -3.0865168935206055e-17 1.0497539422023134e-16 -3.0865168935206055e-17 1.0497539422023134e-16 0.5495107039261192 -0.8354866762973813
12662342666.666666 0.5406541189091836 -0.8412449843573274 -2.973943817523623e-17 1.0527767708843464e-16 -2.973943817523623e-17 1.0527767708843464e-16 0.5406546799543724 -0.8412446237826778
12662960000.0 0.5317377632536787 -0.8469090571778057 -2.8610771809388134e-17 1.0556789612157949e-16 -2.8610771809388134e-17 1.0556789612157949e-16 0.5317383280488337 -0.846908702566962
12663577333.333334 0.5227620746421715 -0.8524786292427736 -2.7479299031871016e-17 1.0584602309799314e-16 -2.7479299031871016e-17 1.0584602309799314e-16 0.5227626431239082 -0.8524782806347206
12664194666.666666 0.5137280546100346 -0.8579530790820759 -2.6345149304855013e-17 1.0611203117864601e-16 -2.6345149304855013e-17 1.0611203117864601e-16 0.5137286267145639 -0.8579527365151258
12664812000.0 0.5046367112014414 -0.8633317958395941 -2.5208452343683805e-17 1.0636589490965666e-16 -2.5208452343683805e-17 1.0636589490965666e-16 0.5046372868645759 -0.8633314593513806
12665429333.333334 0.4954890588568605 -0.86861417934142 -2.406933810206138e-17 1.0660759022463931e-16 -2.406933810206138e-17 1.0660759022463931e-16 0.495489638014022 -0.8686138489688947
12666046666.666666 0.48628611829998447 -0.8737996401627536 -2.2927936757235675e-17 1.0683709444688882e-16 -2.2927936757235675e-17 1.0683709444688882e-16 0.486286700886212 -0.8737993159421836
12666664000.0 0.4770289164235641 -0.8788875996938321 -2.1784378695114087e-17 1.0705438629141805e-16 -2.1784378695114087e-17 1.0705438629141805e-16 0.47702950237351927 -0.8788872816607927
12667281333.333334 0.4677184861751673 -0.8838774902042894 -2.063879449543708e-17 1.0725944586682013e-16 -2.063879449543708e-17 1.0725944586682013e-16 0.46771907542314384 -0.8838771783936638
12667898666.666666 0.4583558664416772 -0.8887687549066545 -1.9491314916862733e-17 1.0745225467698811e-16 -1.9491314916862733e-17 1.0745225467698811e-16 0.458356458921606 -0.888768449352626
12668516000.0 0.4489421019333622 -0.8935608480184656 -1.8342070882066885e-17 1.0763279562266735e-16 -1.8342070882066885e-17 1.0763279562266735e-16 0.4489426975788214 -0.8935605487545186
12669133333.333334 0.43947824306753674 -0.8982532348230626 -1.7191193462858482e-17 1.0780105300284679e-16 -1.7191193462858482e-17 1.0780105300284679e-16 0.4394788418117567 -0.8982529418819749
12669750666.666666 0.4299653458510964 -0.9028453917293775 -1.6038813865225324e-17 1.079570125159991e-16 -1.6038813865225324e-17 1.079570125159991e-16 0.4299659476269686 -0.9028451051432179
12670368000.0 0.42040447176278717 -0.9073368063303056 -1.4885063414413442e-17 1.0810066126115523e-16 -1.4885063414413442e-17 1.0810066126115523e-16 0.4204050765028715 -0.907336526130432
