! Parameters = {f0=12700.012000; bw=77.238000; Q=6100.000000; N=10; m_0_1=1.295190; m_1_1=0.663107; m_1_2=1.130002; m_2_2=0.662458; m_2_3=0.766965; m_2_8=0.001823; m_2_9=0.038527; m_3_3=0.660521; m_3_4=0.655494; m_3_7=0.002423; m_3_8=-0.094665; m_3_9=0.001823; m_4_4=0.657596; m_4_5=0.491829; m_4_6=0.005940; m_4_7=-0.115214; m_4_8=0.002423; m_5_5=0.657978; m_5_6=0.899184; m_5_7=0.005940; m_6_6=0.657977; m_6_7=0.492171; m_7_7=0.657610; m_7_8=0.655612; m_8_8=0.660519; m_8_9=0.767278; m_9_9=0.662453; m_9_10=1.131080; m_10_10=0.663097; m_10_11=1.295985}
!
! Created with skrf (http://scikit-rf.org).
# Hz S RI R 50.0 
!freq ReS11 ImS11 ReS21 ImS21 ReS12 ImS12 ReS22 ImS22
12607400000.0 -0.3099375068850333 -0.9507569309900963 7.054601537715334e-17 1.0242600290877927e-16 7.054601537715334e-17 1.0242600290877927e-16 -0.3099368581489251 -0.9507571424715089
12608017333.333334 -0.320630388075892 -0.9472043888423032 7.169058315503267e-17 1.0159837344989363e-16 7.169058315503267e-17 1.0159837344989363e-16 -0.3206297417954522 -0.9472046076091472
12608634666.666666 -0.3312825625868487 -0.9435315912706407 7.282545692905208e-17 1.0075796512180893e-16 7.282545692905208e-17 1.0075796512180893e-16 -0.33128191884388386 -0.9435318172944306
12609252000.0 -0.3418926780362984 -0.9397390045672177 7.395049415451774e-17 9.990489129857484e-17 7.395049415451774e-17 9.990489129857484e-17 -0.3418920369122842 -0.9397392378185478
12609869333.333334 -0.35245938738251553 -0.9358271102323111 7.506555361078338e-17 9.90392669428017e-17 7.506555361078338e-17 9.90392669428017e-17 -0.35245874895858775 -0.9358273506808631
12610486666.666666 -0.36298134909432755 -0.9317964049133688 7.617049541891481e-17 9.816120859023665e-17 7.617049541891481e-17 9.816120859023665e-17 -0.3629807134512712 -0.9317966525279122
12611104000.0 -0.37345722732193704 -0.9276474003417611 7.726518105924653e-17 9.727083433408565e-17 7.726518105924653e-17 9.727083433408565e-17 -0.3734565945401759 -0.9276476550901592
12611721333.333334 -0.3838856920659625 -0.9233806232680293 7.834947338864514e-17 9.636826380922825e-17 7.834947338864514e-17 9.636826380922825e-17 -0.38388506222554925 -0.9233808851172426
12612338666.666666 -0.3942654193466373 -0.9189966153948761 7.942323665769932e-17 9.54536181761523e-17 7.942323665769932e-17 9.54536181761523e-17 -0.3942647925272437 -0.9189968843109674
12612956000.0 -0.40459509137195054 -0.9144959333083658 8.048633652765149e-17 9.452702010475496e-17 8.048633652765149e-17 9.452702010475496e-17 -0.4045944676528572 -0.9144962092565047
12613573333.333334 -0.414873396704665 -0.9098791484073858 8.153864008716092e-17 9.35885937579414e-17 8.153864008716092e-17 9.35885937579414e-17 -0.4148727761647508 -0.9098794313518517
12614190666.666666 -0.4250990304289968 -0.9051468468310231 8.258001586888414e-17 9.263846477502951e-17 8.258001586888414e-17 9.263846477502951e-17 -0.4250984131467292 -0.9051471367352101
12614808000.0 -0.435270694316337 -0.9002996293841239 8.361033386586462e-17 9.167676025496847e-17 8.361033386586462e-17 9.167676025496847e-17 -0.43527008036976245 -0.9002999262105471
12615425333.333334 -0.4453870969898922 -0.8953381114611023 8.462946554770253e-17 9.070360873939982e-17 8.462946554770253e-17 9.070360873939982e-17 -0.44538648645662604 -0.8953384151714018
12616042666.666666 -0.4554469540888404 -0.8902629229677117 8.563728387656655e-17 8.971914019550331e-17 8.563728387656655e-17 8.971914019550331e-17 -0.4554463470460575 -0.890263233522658
12616660000.0 -0.46544898843118804 -0.885074708241175 8.663366332296521e-17 8.872348599870373e-17 8.663366332296521e-17 8.872348599870373e-17 -0.4654483849556115 -0.8850750256006715
12617277333.333334 -0.4753919301761445 -0.8797741259682602 8.761847988136186e-17 8.771677891516236e-17 8.761847988136186e-17 8.771677891516236e-17 -0.47539133034403824 -0.8797744500913526
12617894666.666666 -0.48527451698501506 -0.8743618491018332 8.859161108553153e-17 8.669915308415005e-17 8.859161108553153e-17 8.669915308415005e-17 -0.48527392087217225 -0.874362179946711
12618512000.0 -0.4950954941819384 -0.8688385647751599 8.955293602379238e-17 8.567074400016993e-17 8.955293602379238e-17 8.567074400016993e-17 -0.4950949018636731 -0.8688389022991643
12619129333.333334 -0.5048536149126298 -0.8632049742149701 9.050233535393052e-17 8.463168849501633e-17 9.050233535393052e-17 8.463168849501633e-17 -0.504853026463767 -0.8632053183745988
12619746666.666666 -0.5145476403031287 -0.8574617926521857 9.143969131801169e-17 8.358212471956887e-17 9.143969131801169e-17 8.358212471956887e-17 -0.5145470557979942 -0.8574621434030969
12620364000.0 -0.5241763396168825 -0.8516097492312216 9.236488775693405e-17 8.252219212547485e-17 9.236488775693405e-17 8.252219212547485e-17 -0.5241757591292948 -0.8516101065282424
12620981333.333334 -0.5337384904109772 -0.8456495869174353 9.32778101247488e-17 8.145203144669492e-17 9.32778101247488e-17 8.145203144669492e-17 -0.5337379140142373 -0.8456499507145656
12621598666.666666 -0.5432328786913848 -0.8395820624027699 9.41783455028348e-17 8.037178468081454e-17 9.41783455028348e-17 8.037178468081454e-17 -0.5432323064582679 -0.8395824326531899
12622216000.0 -0.5526582990671617 -0.8334079460096406 9.506638261378831e-17 7.928159507027893e-17 9.506638261378831e-17 7.928159507027893e-17 -0.5526577310699065 -0.8334083226657149
12622833333.333334 -0.5620135549033631 -0.827128021593212 9.59418118351488e-17 7.818160708341414e-17 9.59418118351488e-17 7.818160708341414e-17 -0.5620129912136634 -0.8271284046064962
12623450666.666666 -0.5712974584729431 -0.820743086441898 9.680452521285585e-17 7.70719663953561e-17 9.680452521285585e-17 7.70719663953561e-17 -0.5712968991619393 -0.820743475763146
12624068000.0 -0.5805088311077116 -0.8142539511760293 9.765441647454227e-17 7.59528198687644e-17 9.765441647454227e-17 7.59528198687644e-17 -0.5805082762459812 -0.8142543467551997
12624685333.333334 -0.5896465033479498 -0.8076614396449503 9.84913810425598e-17 7.482431553444425e-17 9.84913810425598e-17 7.482431553444425e-17 -0.5896459530054986 -0.8076618414312108
12625302666.666666 -0.5987093150905836 -0.800966388822641 9.931531604679192e-17 7.368660257181582e-17 9.931531604679192e-17 7.368660257181582e-17 -0.5987087693368366 -0.8009667967643774
12625920000.0 -0.607696115736974 -0.79416964870109 1.0012612033727183e-16 7.253983128920004e-17 1.0012612033727183e-16 7.253983128920004e-17 -0.6076955746407674 -0.7941700627459115
12626537333.333334 -0.6166057643385143 -0.7872720821827319 1.0092369449651592e-16 7.138415310404613e-17 1.0092369449651592e-16 7.138415310404613e-17 -0.6166052279680858 -0.7872725022774782
12627154666.666666 -0.6254371297416914 -0.7802745649707495 1.0170794085167921e-16 7.02197205229562e-17 1.0170794085167921e-16 7.02197205229562e-17 -0.6254365981646726 -0.7802749910614972
12627772000.0 -0.6341890907318914 -0.7731779854577301 1.0247876348648147e-16 6.904668712157292e-17 1.0247876348648147e-16 6.904668712157292e-17 -0.6341885640152984 -0.7731784174897998
12628389333.333334 -0.6428605361752834 -0.7659832446132517 1.0323606825284392e-16 6.786520752442533e-17 1.0323606825284392e-16 6.786520752442533e-17 -0.6428600143855083 -0.7659836825312148
12629006666.666666 -0.651450365160371 -0.7586912558691031 1.0397976278237735e-16 6.667543738452159e-17 1.0397976278237735e-16 6.667543738452159e-17 -0.651449848363175 -0.7586916996167902
12629624000.0 -0.6599574871374544 -0.7513029450035685 1.0470975649756631e-16 6.547753336292234e-17 1.0470975649756631e-16 6.547753336292234e-17 -0.6599569753979574 -0.7513033945240742
12630241333.333334 -0.6683808220571723 -0.7438192500238183 1.0542596062275135e-16 6.427165310814279e-17 1.0542596062275135e-16 6.427165310814279e-17 -0.6683803154398474 -0.7438197052595121
12630858666.666666 -0.6767193005075427 -0.7362411210469029 1.0612828819487105e-16 6.305795523544113e-17 1.0612828819487105e-16 6.305795523544113e-17 -0.676718799076204 -0.7362415819394319
12631476000.0 -0.6849718638500215 -0.7285695201788539 1.0681665407396838e-16 6.183659930598402e-17 1.0681665407396838e-16 6.183659930598402e-17 -0.6849713676678209 -0.7285699866691547
12632093333.333334 -0.693137464353491 -0.7208054213929236 1.0749097495344508e-16 6.060774580592299e-17 1.0749097495344508e-16 6.060774580592299e-17 -0.6931369734829065 -0.7208058934212271
12632710666.666666 -0.7012150653275497 -0.712949810405682 1.0815116937008117e-16 5.93715561253507e-17 1.0815116937008117e-16 5.93715561253507e-17 -0.701214579830379 -0.7129502879115216
12633328000.0 -0.7092036412541639 -0.7050036845518262 1.0879715771383715e-16 5.812819253710262e-17 1.0879715771383715e-16 5.812819253710262e-17 -0.7092031611915179 -0.7050041674740476
12633945333.333334 -0.7171021779176273 -0.6969680526578045 1.0942886223736436e-16 5.687781817554563e-17 1.0942886223736436e-16 5.687781817554563e-17 -0.7171017033499185 -0.696968540934569
12634562666.666666 -0.724909672533561 -0.6888439349134924 1.1004620706532066e-16 5.562059701517144e-17 1.1004620706532066e-16 5.562059701517144e-17 -0.7249092035204998 -0.688844428482289
12635180000.0 -0.7326251338760474 -0.6806323627428548 1.1064911820340536e-16 5.435669384915799e-17 1.1064911820340536e-16 5.435669384915799e-17 -0.7326246704766343 -0.6806328615405077
12635797333.333334 -0.7402475824036551 -0.6723343786728162 1.1123752354717744e-16 5.308627426777794e-17 1.1123752354717744e-16 5.308627426777794e-17 -0.7402471246761705 -0.672334882635491
12636414666.666666 -0.7477760503835796 -0.6639510362011275 1.118113528905929e-16 5.18095046367783e-17 1.118113528905929e-16 5.18095046367783e-17 -0.7477755983855793 -0.6639515452643404
12637032000.0 -0.755209582014686 -0.6554833996624319 1.1237053793433517e-16 5.052655207558706e-17 1.1237053793433517e-16 5.052655207558706e-17 -0.7552091358029922 -0.6554839137610582
12637649333.333334 -0.7625472335488301 -0.6469325440931561 1.12915012293856e-16 4.9237584435513037e-17 1.12915012293856e-16 4.9237584435513037e-17 -0.7625467931795246 -0.6469330631614375
12638266666.666666 -0.7697880734105633 -0.6382995550951533 1.1344471150719746e-16 4.7942770277796754e-17 1.1344471150719746e-16 4.7942770277796754e-17 -0.7697876389389814 -0.6383000790667077
12638884000.0 -0.7769311823155367 -0.6295855286977297 1.1395957304254548e-16 4.6642278851613094e-17 1.1395957304254548e-16 4.6642278851613094e-17 -0.7769307537962594 -0.629586057505559
12639501333.333334 -0.7839756533871712 -0.6207915712185335 1.1445953630553596e-16 4.5336280071987753e-17 1.1445953630553596e-16 4.5336280071987753e-17 -0.7839752308740187 -0.6207921047950322
12640118666.666666 -0.7909205922716351 -0.6119187991233014 1.1494454264630438e-16 4.402494449764654e-17 1.1494454264630438e-16 4.402494449764654e-17 -0.7909201758176595 -0.6119193374002652
12640736000.0 -0.7977651172517948 -0.6029683388836 1.1541453536630853e-16 4.270844330871781e-17 1.1541453536630853e-16 4.270844330871781e-17 -0.797764706909274 -0.6029688817922341
12641353333.333334 -0.8045083593586116 -0.5939413268345045 1.1586945972484418e-16 4.138694828450824e-17 1.1586945972484418e-16 4.138694828450824e-17 -0.8045079551790432 -0.5939418743054337
12641970666.666666 -0.8111494624818878 -0.5848389090297953 1.163092629453584e-16 4.006063178106534e-17 1.163092629453584e-16 4.006063178106534e-17 -0.8111490645159808 -0.584839460993071
12642588000.0 -0.8176875834788283 -0.5756622410966105 1.1673389422148218e-16 3.872966670874349e-17 1.1673389422148218e-16 3.872966670874349e-17 -0.8176871917764982 -0.5756627974817211
12643205333.333334 -0.824121892280987 -0.5664124880888688 1.1714330472280257e-16 3.739422650972053e-17 1.1714330472280257e-16 3.739422650972053e-17 -0.8241215068913501 -0.5664130488247486
12643822666.666666 -0.8304515719998341 -0.5570908243391031 1.17537447600398e-16 3.605448513539501e-17 1.17537447600398e-16 3.605448513539501e-17 -0.8304511929712005 -0.557091389354141
12644440000.0 -0.8366758190303333 -0.5476984333095531 1.179162779920944e-16 3.4710617023789546e-17 1.179162779920944e-16 3.4710617023789546e-17 -0.8366754464101994 -0.5476990025316009
12645057333.333334 -0.8427938431529505 -0.5382365074419394 1.1827975302747277e-16 3.336279707687745e-17 1.1827975302747277e-16 3.336279707687745e-17 -0.8427934769879963 -0.5382370807983229
12645674666.666666 -0.8488048676340183 -0.5287062480060305 1.1862783183261991e-16 3.201120063784812e-17 1.1862783183261991e-16 3.201120063784812e-17 -0.8488045079700988 -0.5287068254235572
12646292000.0 -0.854708129324492 -0.5191088649468866 1.18960475534626e-16 3.065600346829708e-17 1.18960475534626e-16 3.065600346829708e-17 -0.8547077762066324 -0.5191094463518555
12646909333.333334 -0.86050287875654 -0.5094455767317303 1.192776472657976e-16 2.9297381725472863e-17 1.192776472657976e-16 2.9297381725472863e-17 -0.8605025322289307 -0.5094461620499418
12647526666.666666 -0.8661883802389491 -0.4997176101948424 1.1957931216764175e-16 2.793551193935629e-17 1.1957931216764175e-16 2.793551193935629e-17 -0.8661880403449385 -0.4997181993516067
12648144000.0 -0.8717639119504623 -0.4899262003818984 1.1986543739457152e-16 2.657057098977182e-17 1.1986543739457152e-16 2.657057098977182e-17 -0.8717635787325544 -0.4899267933020469
12648761333.333334 -0.8772287660313389 -0.4800725903933196 1.201359921173497e-16 2.5202736083469637e-17 1.201359921173497e-16 2.5202736083469637e-17 -0.8772284395311839 -0.48007318700121204
12649378666.666666 -0.8825822486732505 -0.4701580312264015 1.203909475262779e-16 2.3832184731147447e-17 1.203909475262779e-16 2.3832184731147447e-17 -0.8825819289316434 -0.4701586314459379
12649996000.0 -0.8878236802074764 -0.4601837816162906 1.206302768341269e-16 2.2459094724424797e-17 1.206302768341269e-16 2.2459094724424797e-17 -0.8878233672643492 -0.4601843853709192
12650613333.333334 -0.8929523951910556 -0.45015110787642665 1.208539552787964e-16 2.1083644112831127e-17 1.208539552787964e-16 2.1083644112831127e-17 -0.8929520890854733 -0.4501517150891543
12651230666.666666 -0.8979677424913137 -0.4400612837376995 1.210619601257131e-16 1.9706011180776763e-17 1.210619601257131e-16 1.9706011180776763e-17 -0.8979674432614692 -0.4400618943311016
12651848000.0 -0.9028690853686157 -0.4299155901865597 1.2125427066997958e-16 1.832637442441987e-17 1.2125427066997958e-16 1.832637442441987e-17 -0.9028687930518265 -0.4299162040827906
12652465333.333334 -0.9076558015570666 -0.4197153153026666 1.2143086823824165e-16 1.6944912528632234e-17 1.2143086823824165e-16 1.6944912528632234e-17 -0.9076555161897688 -0.4197159324234688
12653082666.666666 -0.9123272833435447 -0.409461754095308 1.2159173619030788e-16 1.556180434386371e-17 1.2159173619030788e-16 1.556180434386371e-17 -0.9123270049612875 -0.40946237436202176
12653700000.0 -0.9168829376450033 -0.39915620833864945 1.2173685992050087e-16 1.4177228863014743e-17 1.2173685992050087e-16 1.4177228863014743e-17 -0.9168826662824471 -0.399156831672224
12654317333.333334 -0.921322186083526 -0.3887999864070085 1.2186622685874477e-16 1.279136519832756e-17 1.2186622685874477e-16 1.279136519832756e-17 -0.9213219217744366 -0.3888006127280114
12654934666.666666 -0.9256444650599532 -0.3783944031083051 1.2197982647139124e-16 1.1404392558242977e-17 1.2197982647139124e-16 1.1404392558242977e-17 -0.9256442078371961 -0.3783950323369318
12655552000.0 -0.9298492258253944 -0.3679407795172105 1.2207765026178606e-16 1.0016490224233314e-17 1.2207765026178606e-16 1.0016490224233314e-17 -0.9298489757209332 -0.3679414115732954
12656169333.333334 -0.9339359345507814 -0.3574404428077167 1.2215969177056424e-16 8.627837527721462e-18 1.2215969177056424e-16 8.627837527721462e-18 -0.933935691595673 -0.3574410776107433
12656786666.666666 -0.9379040723947729 -0.3468947260843263 1.2222594657569294e-16 7.238613826881162e-18 1.2222594657569294e-16 7.238613826881162e-18 -0.9379038366191635 -0.3468953635534369
12657404000.0 -0.9417531355695978 -0.33630496821285294 1.2227641229224314e-16 5.84899848355043e-18 1.2227641229224314e-16 5.84899848355043e-18 -0.9417529070027205 -0.33630560826686007
12658021333.333334 -0.9454826354049719 -0.32567251365057787 1.2231108857190507e-16 4.459170840073727e-18 1.2231108857190507e-16 4.459170840073727e-18 -0.9454824140751403 -0.32567315620797294
12658638666.666666 -0.9490920984101551 -0.31499871227550436 1.2232997710223628e-16 3.0693101962355116e-18 1.2232997710223628e-16 3.0693101962355116e-18 -0.9490918843447613 -0.3149993572544692
12659256000.0 -0.952581066334128 -0.304284919214792 1.2233308160565162e-16 1.6795957861040251e-18 1.2233308160565162e-16 1.6795957861040251e-18 -0.9525808595596396 -0.30428556653320893
12659873333.333334 -0.9559490962236737 -0.2935324946730083 1.2232040783814918e-16 2.902067549934205e-19 1.2232040783814918e-16 2.902067549934205e-19 -0.9559488967656297 -0.29353314424847077
12660490666.666666 -0.9591957604796318 -0.2827428037593862 1.2229196358777468e-16 -1.0986778635850134e-18 1.2229196358777468e-16 -1.0986778635850134e-18 -0.959195568362641 -0.2827434555092092
12661108000.0 -0.9623206469112969 -0.2719172163141593 1.2224775867282527e-16 -2.4868791710177177e-18 1.2224775867282527e-16 -2.4868791710177177e-18 -0.962320462159033 -0.27191787015539
12661725333.333334 -0.9653233587885743 -0.26105710673522026 1.2218780493979263e-16 -3.874218426521804e-18 1.2218780493979263e-16 -3.874218426521804e-18 -0.9653231814237737 -0.261057762584648
12662342666.666666 -0.968203514892501 -0.2501638538031114 1.2211211626104382e-16 -5.2605170701911786e-18 1.2211211626104382e-16 -5.2605170701911786e-18 -0.9682033449369608 -0.2501645115772792
12662960000.0 -0.970960749563546 -0.23923884050633334 1.2202070853224388e-16 -6.6455967458991905e-18 1.2202070853224388e-16 -6.6455967458991905e-18 -0.9709605870381198 -0.23923950012154757
12663577333.333334 -0.9735947127480971 -0.22828345386551518 1.2191359966951687e-16 -8.029279324242483e-18 1.2191359966951687e-16 -8.029279324242483e-18 -0.9735945576726931 -0.22828411523785688
12664194666.666666 -0.9761050700428483 -0.21729908475754178 1.2179080960634956e-16 -9.411386925387684e-18 1.2179080960634956e-16 -9.411386925387684e-18 -0.9761049224364272 -0.217299747802877
12664812000.0 -0.9784915027373017 -0.20628712773877683 1.2165236029023387e-16 -1.0791741941932508e-17 1.2165236029023387e-16 -1.0791741941932508e-17 -0.9784913626178763 -0.20628779237276787
12665429333.333334 -0.9807537078542191 -0.19524898086806802 1.2149827567905358e-16 -1.2170167061670837e-17 1.2149827567905358e-16 -1.2170167061670837e-17 -0.9807535752388461 -0.19524964700618302
12666046666.666666 -0.9828913981880367 -0.18418604552947382 1.2132858173721257e-16 -1.3546485290342115e-17 1.2132858173721257e-16 -1.3546485290342115e-17 -0.9828912730928203 -0.18418671308699852
12666664000.0 -0.9849043023414311 -0.1730997262538449 1.2114330643150127e-16 -1.492051997435142e-17 1.2114330643150127e-16 -1.492051997435142e-17 -0.9849041847815215 -0.17310039514589348
12667281333.333334 -0.9867921647596655 -0.16199143054109402 1.2094247972671804e-16 -1.6292094823354196e-17 1.2094247972671804e-16 -1.6292094823354196e-17 -0.9867920547492518 -0.16199210068261907
12667898666.666666 -0.9885547457630998 -0.15086256868113873 1.2072613358102271e-16 -1.7661033932881773e-17 1.2072613358102271e-16 -1.7661033932881773e-17 -0.9885546433154112 -0.15086323998694237
12668516000.0 -0.9901918215776284 -0.13971455357476814 1.204943019410376e-16 -1.9027161806873708e-17 1.204943019410376e-16 -1.9027161806873708e-17 -0.9901917267049345 -0.1397152259595134
12669133333.333334 -0.9917031843630242 -0.12854880055471368 1.2024702073670312e-16 -2.0390303380104386e-17 1.2024702073670312e-16 -2.0390303380104386e-17 -0.9917030970766317 -0.1285494739329349
12669750666.666666 -0.9930886422394021 -0.11736672720545507 1.1998432787586874e-16 -2.1750284040606873e-17 1.1998432787586874e-16 -2.1750284040606873e-17 -0.9930885625496524 -0.11736740149156857
12670368000.0 -0.9943480193115265 -0.10616975318358315 1.197062632386334e-16 -2.310692965201588e-17 1.197062632386334e-16 -2.310692965201588e-17 -0.9943479472277964 -0.10617042829189849
