! Parameters = {f0=12700.012000; bw=77.238000; Q=6100.000000; N=10; m_0_1=1.217512; m_1_1=-0.502058; m_1_2=1.052324; m_2_2=-0.502707; m_2_3=0.689287; m_2_8=-0.002061; m_2_9=0.034643; m_3_3=-0.504644; m_3_4=0.577816; m_3_7=-0.001461; m_3_8=-0.098549; m_3_9=-0.002061; m_4_4=-0.507569; m_4_5=0.414151; m_4_6=0.002056; m_4_7=-0.119098; m_4_8=-0.001461; m_5_5=-0.507187; m_5_6=0.821506; m_5_7=0.002056; m_6_6=-0.507188; m_6_7=0.414493; m_7_7=-0.507555; m_7_8=0.577934; m_8_8=-0.504646; m_8_9=0.689600; m_9_9=-0.502712; m_9_10=1.053402; m_10_10=-0.502068; m_10_11=1.218307}
!
! Created with skrf (http://scikit-rf.org).
# Hz S RI R 50.0 
!freq ReS11 ImS11 ReS21 ImS21 ReS12 ImS12 ReS22 ImS22
12607400000.0 0.4891098146576373 0.8722222132033841 -6.147898355075794e-17 -5.981954296006241e-17 -6.147898355075794e-17 -5.981954296006241e-17 0.48910925508314146 0.8722225269917375
12608017333.333334 0.4969149758144693 0.867799231856737 -6.200626930059494e-17 -5.924849147982918e-17 -6.200626930059494e-17 -5.924849147982918e-17 0.49691441910479894 0.8677995506368842
12608634666.666666 0.5046801436098713 0.8633064071613028 -6.252825811802378e-17 -5.867279964854112e-17 -6.252825811802378e-17 -5.867279964854112e-17 0.5046795898095494 0.8633067309070993
12609252000.0 0.5124046930775098 0.8587441007145141 -6.30449092350723e-17 -5.809251653424263e-17 -6.30449092350723e-17 -5.809251653424263e-17 0.5124041422308213 0.8587444293994192
12609869333.333334 0.5200880025201746 0.854112679705911 -6.355618233773298e-17 -5.750769156250263e-17 -6.355618233773298e-17 -5.750769156250263e-17 0.5200874546711616 0.854113013302988
12610486666.666666 0.5277294535596918 0.849412516887659 -6.406203756908439e-17 -5.691837451222877e-17 -6.406203756908439e-17 -5.691837451222877e-17 0.527728908752151 0.8494128553695789
12611104000.0 0.5353284311869604 0.8446439905443869 -6.45624355323996e-17 -5.632461551142528e-17 -6.45624355323996e-17 -5.632461551142528e-17 0.5353278894644403 0.8446443338834316
12611721333.333334 0.5428843238111122 0.8398074844629513 -6.50573372941756e-17 -5.572646503296953e-17 -6.50573372941756e-17 -5.572646503296953e-17 0.542883785216908 0.8398078326310131
12612338666.666666 0.5503965233089755 0.834903387901397 -6.554670438716192e-17 -5.512397389031797e-17 -6.554670438716192e-17 -5.512397389031797e-17 0.5503959878861271 0.8349037408699833
12612956000.0 0.557864425074018 0.8299320955576264 -6.603049881333329e-17 -5.4517193233203714e-17 -6.603049881333329e-17 -5.4517193233203714e-17 0.557863892865305 0.8299324532978601
12613573333.333334 0.5652874280648167 0.8248940075377574 -6.650868304680988e-17 -5.3906174543326125e-17 -6.650868304680988e-17 -5.3906174543326125e-17 0.5652868991127566 0.8248943700203812
12614190666.666666 0.5726649348535757 0.8197895293238303 -6.69812200367658e-17 -5.3290969629978035e-17 -6.69812200367658e-17 -5.3290969629978035e-17 0.5726644092004194 0.8197898965192072
12614808000.0 0.5799963516742315 0.8146190717411538 -6.744807321027538e-17 -5.267163062567699e-17 -6.744807321027538e-17 -5.267163062567699e-17 0.57999582936196 0.8146194436192707
12615425333.333334 0.5872810884701699 0.8093830509252893 -6.790920647512767e-17 -5.20482099817597e-17 -6.790920647512767e-17 -5.20482099817597e-17 0.587280569540492 0.8093834274557598
12616042666.666666 0.5945185589417418 0.8040818882885453 -6.836458422259947e-17 -5.1420760463954506e-17 -6.836458422259947e-17 -5.1420760463954506e-17 0.594518043436089 0.8040822694406103
12616660000.0 0.6017081805934469 0.7987160104860563 -6.881417133018689e-17 -5.0789335147929254e-17 -6.881417133018689e-17 -5.0789335147929254e-17 0.6017076685529721 0.798716396228589
12617277333.333334 0.6088493747808406 0.7932858493814305 -6.92579331642982e-17 -5.015398741481396e-17 -6.92579331642982e-17 -5.015398741481396e-17 0.608848866246413 0.7932862396829374
12617894666.666666 0.6159415667569904 0.7877918420120773 -6.969583558289636e-17 -4.9514770946711855e-17 -6.969583558289636e-17 -4.9514770946711855e-17 0.6159410617691938 0.7877922368407011
12618512000.0 0.6229841857189827 0.782234430553842 -7.012784493812331e-17 -4.8871739722155825e-17 -7.012784493812331e-17 -4.8871739722155825e-17 0.6229836843181114 0.7822348298773647
12619129333.333334 0.6299766648535474 0.7766140622856627 -7.055392807884694e-17 -4.822494801159175e-17 -7.055392807884694e-17 -4.822494801159175e-17 0.629976167079602 0.7766144660715062
12619746666.666666 0.636918441382901 0.7709311895533958 -7.097405235320078e-17 -4.7574450372792536e-17 -7.097405235320078e-17 -4.7574450372792536e-17 0.6369179472755878 0.7709315977686276
12620364000.0 0.6438089566100403 0.7651862697334094 -7.138818561106659e-17 -4.69203016462693e-17 -7.138818561106659e-17 -4.69203016462693e-17 0.643808466208766 0.7651866823447432
12620981333.333334 0.6506476559635085 0.7593797651959323 -7.179629620650373e-17 -4.6262556950680167e-17 -7.179629620650373e-17 -4.6262556950680167e-17 0.6506471693073779 0.7593801821697318
12621598666.666666 0.657433989042253 0.753512143267665 -7.219835300016156e-17 -4.5601271678179534e-17 -7.219835300016156e-17 -4.5601271678179534e-17 0.6574335061700646 0.7535125645699443
12622216000.0 0.6641674096598069 0.7475838761942507 -7.259432536162874e-17 -4.49365014897766e-17 -7.259432536162874e-17 -4.49365014897766e-17 0.6641669306100526 0.7475843017906812
12622833333.333334 0.6708473758882979 0.7415954411022382 -7.298418317174989e-17 -4.4268302310660046e-17 -7.298418317174989e-17 -4.4268302310660046e-17 0.670846900699157 0.7415958709581479
12623450666.666666 0.6774733501019754 0.7355473199607521 -7.336789682489128e-17 -4.359673032551488e-17 -7.336789682489128e-17 -4.359673032551488e-17 0.6774728788113131 0.7355477540411298
12624068000.0 0.6840447990206087 0.7294399995425895 -7.374543723117494e-17 -4.292184197380126e-17 -7.374543723117494e-17 -4.292184197380126e-17 0.6840443316659733 0.7294404378120877
12624685333.333334 0.6905611937523439 0.7232739713851011 -7.411677581866446e-17 -4.224369394502253e-17 -7.411677581866446e-17 -4.224369394502253e-17 0.6905607303709627 0.7232744138080381
12625302666.666666 0.6970220098361872 0.7170497317507062 -7.448188453549449e-17 -4.1562343173997785e-17 -7.448188453549449e-17 -4.1562343173997785e-17 0.6970215504649642 0.7170501782910702
12625920000.0 0.7034267272844438 0.7107677815867397 -7.484073585198608e-17 -4.0877846836063364e-17 -7.484073585198608e-17 -4.0877846836063364e-17 0.7034262719599564 0.7107682322081903
12626537333.333334 0.7097748306242977 0.704428626485386 -7.519330276268476e-17 -4.0190262342317936e-17 -7.519330276268476e-17 -4.0190262342317936e-17 0.709774379382795 0.7044290811512588
12627154666.666666 0.7160658089394281 0.6980327766428742 -7.553955878837812e-17 -3.9499647334807876e-17 -7.553955878837812e-17 -3.9499647334807876e-17 0.716065361816826 0.6980332353161823
12627772000.0 0.7222991559112435 0.6915807468182908 -7.58794779780684e-17 -3.880605968169482e-17 -7.58794779780684e-17 -3.880605968169482e-17 0.7222987129431231 0.6915812094617282
12628389333.333334 0.7284743698593543 0.6850730562924334 -7.621303491087984e-17 -3.810955747245032e-17 -7.621303491087984e-17 -3.810955747245032e-17 0.7284739310809599 0.6850735228683792
12629006666.666666 0.7345909537822495 0.6785102288257143 -7.654020469795396e-17 -3.741019901296899e-17 -7.654020469795396e-17 -3.741019901296899e-17 0.734590519228484 0.6785106992962344
12629624000.0 0.7406484153970766 0.6718927926162306 -7.686096298426749e-17 -3.670804282073331e-17 -7.686096298426749e-17 -3.670804282073331e-17 0.7406479851024994 0.6718932669430808
12630241333.333334 0.7466462671793824 0.665221280257128 -7.717528595043409e-17 -3.60031476199039e-17 -7.717528595043409e-17 -3.60031476199039e-17 0.746645841178207 0.6652217584017578
12630858666.666666 0.7525840264022334 0.6584962286938638 -7.748315031443883e-17 -3.52955723364432e-17 -7.748315031443883e-17 -3.52955723364432e-17 0.7525836047283239 0.6584967106174188
12631476000.0 0.7584612151752762 0.6517181791807569 -7.778453333334999e-17 -3.4585376093175844e-17 -7.778453333334999e-17 -3.4585376093175844e-17 0.7584607978621465 0.6517186648440836
12632093333.333334 0.7642773604829571 0.6448876772377052 -7.807941280496127e-17 -3.387261820489016e-17 -7.807941280496127e-17 -3.387261820489016e-17 0.7642769475637653 0.6448881666013516
12632710666.666666 0.7700319942227016 0.6380052726061501 -7.836776706940783e-17 -3.3157358173383835e-17 -7.836776706940783e-17 -3.3157358173383835e-17 0.7700315857302497 0.6380057656303706
12633328000.0 0.7757246532426827 0.6310715192047239 -7.86495750107356e-17 -3.2439655682498177e-17 -7.86495750107356e-17 -3.2439655682498177e-17 0.7757242492094135 0.6310720158494829
12633945333.333334 0.7813548793789482 0.6240869750848417 -7.892481605841275e-17 -3.1719570593170755e-17 -7.892481605841275e-17 -3.1719570593170755e-17 0.7813544798369423 0.6240874753098155
12634562666.666666 0.7869222194923166 0.6170522023857671 -7.919347018880845e-17 -3.099716293844407e-17 -7.919347018880845e-17 -3.099716293844407e-17 0.7869218244732897 0.6170527061503481
12635180000.0 0.7924262255049335 0.6099677672892577 -7.945551792662095e-17 -3.02724929184756e-17 -7.945551792662095e-17 -3.02724929184756e-17 0.7924258350402352 0.6099682745525576
12635797333.333334 0.7978664544362848 0.6028342399740657 -7.971094034626196e-17 -2.954562089553154e-17 -7.971094034626196e-17 -2.954562089553154e-17 0.7978660685568939 0.6028347506949182
12636414666.666666 0.8032424684387941 0.5956521945701125 -7.995971907319092e-17 -2.8816607388980523e-17 -7.995971907319092e-17 -2.8816607388980523e-17 0.8032420871753175 0.5956527087070771
12637032000.0 0.8085538348331658 0.5884222091121475 -8.020183628521193e-17 -2.8085513070253637e-17 -8.020183628521193e-17 -2.8085513070253637e-17 0.8085534582158369 0.588422726623513
12637649333.333334 0.8138001261431419 0.5811448654933157 -8.043727471371666e-17 -2.7352398757816822e-17 -8.043727471371666e-17 -2.7352398757816822e-17 0.8137997542018165 0.5811453863371034
12638266666.666666 0.8189809201299227 0.5738207494183027 -8.066601764488575e-17 -2.661732541212172e-17 -8.066601764488575e-17 -2.661732541212172e-17 0.8189805528940776 0.57382127355227
12638884000.0 0.82409579982615 0.5664504503561956 -8.088804892084295e-17 -2.5880354130549097e-17 -8.088804892084295e-17 -2.5880354130549097e-17 0.8240954373248798 0.5664509777378387
12639501333.333334 0.8291443535694801 0.5590345614930148 -8.110335294076416e-17 -2.5141546142340737e-17 -8.110335294076416e-17 -2.5141546142340737e-17 0.829143995831497 0.5590350920795736
12640118666.666666 0.8341261750356244 0.5515736796841175 -8.131191466193548e-17 -2.4400962803538687e-17 -8.131191466193548e-17 -2.4400962803538687e-17 0.834125822089253 0.5515742134325774
12640736000.0 0.8390408632713012 0.5440684054057797 -8.151371960078007e-17 -2.365866559186513e-17 -8.151371960078007e-17 -2.365866559186513e-17 0.8390405151444786 0.5440689422728762
12641353333.333334 0.8438880227261304 0.5365193427074383 -8.170875383381195e-17 -2.2914716101687057e-17 -8.170875383381195e-17 -2.2914716101687057e-17 0.8438876794464025 0.5365198826496596
12641970666.666666 0.8486672632847951 0.5289270991625746 -8.189700399857311e-17 -2.2169176038868813e-17 -8.189700399857311e-17 -2.2169176038868813e-17 0.8486669248793155 0.5289276421361663
12642588000.0 0.853378200298286 0.5212922858200549 -8.20784572945041e-17 -2.1422107215689585e-17 -8.20784572945041e-17 -2.1422107215689585e-17 0.8533778667938138 0.521292831781023
12643205333.333334 0.8580204546148749 0.5136155171549269 -8.225310148377543e-17 -2.067357154572859e-17 -8.225310148377543e-17 -2.067357154572859e-17 0.8580201260377713 0.5136160660590412
12643822666.666666 0.862593652610701 0.5058974110188424 -8.242092489207393e-17 -1.992363103873687e-17 -8.242092489207393e-17 -1.992363103873687e-17 0.8625933289869293 0.5058979628216401
12644440000.0 0.867097426219714 0.49813858859055116 -8.258191640933737e-17 -1.9172347795524257e-17 -8.258191640933737e-17 -1.9172347795524257e-17 0.8670971075748346 0.49813914324734
12645057333.333334 0.871531412963395 0.49033967432573394 -8.273606549044637e-17 -1.8419784002826926e-17 -8.273606549044637e-17 -1.8419784002826926e-17 0.8715310993225667 0.4903402317915972
12645674666.666666 0.8758952559798765 0.4825012959068447 -8.2883362155869e-17 -1.7666001928172187e-17 -8.2883362155869e-17 -1.7666001928172187e-17 0.875894947367852 0.4825018561366434
12646292000.0 0.8801886040527739 0.474624084192393 -8.302379699226147e-17 -1.6911063914722036e-17 -8.302379699226147e-17 -1.6911063914722036e-17 0.8801883004938991 0.4746246471407703
12646909333.333334 0.8844111116392703 0.46670867316649267 -8.315736115301353e-17 -1.615503237615988e-17 -8.315736115301353e-17 -1.615503237615988e-17 0.8844108131574818 0.46670923878787735
12647526666.666666 0.8885624388980699 0.4587556998875901 -8.328404635875732e-17 -1.5397969791519067e-17 -8.328404635875732e-17 -1.5397969791519067e-17 0.8885621455168934 0.4587562681362002
12648144000.0 0.8926422517167283 0.4507658044372134 -8.340384489782468e-17 -1.4639938700034084e-17 -8.340384489782468e-17 -1.4639938700034084e-17 0.8926419634592774 0.4507663752670603
12648761333.333334 0.896650221738494 0.4427396298685585 -8.351674962665612e-17 -1.3881001695995903e-17 -8.351674962665612e-17 -1.3881001695995903e-17 0.8966499386274673 0.4427402032334503
12649378666.666666 0.9005860263887374 0.43467782215473516 -8.362275397016572e-17 -1.312122142359549e-17 -8.362275397016572e-17 -1.312122142359549e-17 0.9005857484464169 0.43467839800828006
12649996000.0 0.9044493489009736 0.4265810301366488 -8.372185192205989e-17 -1.2360660571753152e-17 -8.372185192205989e-17 -1.2360660571753152e-17 0.9044490761492239 0.42658160843225984
12650613333.333334 0.9082398783423195 0.418449905470856 -8.381403804510705e-17 -1.159938186896537e-17 -8.381403804510705e-17 -1.159938186896537e-17 0.9082396108025843 0.41845048616175384
12651230666.666666 0.9119573096384712 0.4102851025772207 -8.389930747136058e-17 -1.0837448078152817e-17 -8.389930747136058e-17 -1.0837448078152817e-17 0.9119570473317741 0.41028568561643813
12651848000.0 0.9156013435983779 0.4020872785859862 -8.397765590233882e-17 -1.0074921991471671e-17 -8.397765590233882e-17 -1.0074921991471671e-17 0.9156010865453177 0.40208786392637125
12652465333.333334 0.9191716869382105 0.3938570932851186 -8.404907960915168e-17 -9.311866425181946e-18 -8.404907960915168e-17 -9.311866425181946e-18 0.9191714351589624 0.39385768087933887
12653082666.666666 0.9226680523049751 0.38559520906720773 -8.411357543258667e-17 -8.548344214470477e-18 -8.411357543258667e-17 -8.548344214470477e-18 0.9226678058192864 0.3855957988677537
12653700000.0 0.9260901582997432 0.3773022908758915 -8.417114078314588e-17 -7.784418208274237e-18 -8.417114078314588e-17 -7.784418208274237e-18 0.9260899171269359 0.3773028828350818
12654317333.333334 0.9294377295001527 0.36897900615270857 -8.422177364103419e-17 -7.020151264150153e-18 -8.422177364103419e-17 -7.020151264150153e-18 0.9294374936591169 0.3689796002226915
12654934666.666666 0.9327104964826898 0.3606260247830893 -8.426547255610411e-17 -6.255606243091065e-18 -8.426547255610411e-17 -6.255606243091065e-18 0.9327102659918859 0.3606266209158488
12655552000.0 0.935908195844332 0.3522440190425481 -8.430223664775264e-17 -5.490846004367426e-18 -8.430223664775264e-17 -5.490846004367426e-18 0.935907970721788 0.3522446171899065
12656169333.333334 0.9390305702237154 0.34383366354265416 -8.433206560476935e-17 -4.725933400392659e-18 -8.433206560476935e-17 -4.725933400392659e-18 0.9390303504870253 0.34383426365627656
12656786666.666666 0.9420773683219112 0.33539563517657955 -8.435495968514193e-17 -3.960931271545652e-18 -8.435495968514193e-17 -3.960931271545652e-18 0.9420771539882336 0.335396237207977
12657404000.0 0.945048344922609 0.3269306130647248 -8.437091971581167e-17 -3.195902441032095e-18 -8.437091971581167e-17 -3.195902441032095e-18 0.9450481360086659 0.32693121696525923
12658021333.333334 0.9479432609118719 0.31843927850000864 -8.437994709238384e-17 -2.4309097097325236e-18 -8.437994709238384e-17 -2.4309097097325236e-18 0.9479430574339481 0.31843988422089625
12658638666.666666 0.9507618832973366 0.30992231489317007 -8.43820437787915e-17 -1.666015851070978e-18 -8.43820437787915e-17 -1.666015851070978e-18 0.9507616852712775 0.309922922385485
12659256000.0 0.9535039852270549 0.30138040771749486 -8.437721230691249e-17 -9.012836058519179e-19 -8.437721230691249e-17 -9.012836058519179e-19 0.9535037926682663 0.30138101693217406
12659873333.333334 0.9561693460076715 0.29281424445388987 -8.436545577614001e-17 -1.3677567714742083e-19 -8.436545577614001e-17 -1.3677567714742083e-19 0.9561691589311158 0.29281485534173574
12660490666.666666 0.9587577511221845 0.2842245145355519 -8.43467778529074e-17 6.274452748321282e-19 -8.43467778529074e-17 6.274452748321282e-19 0.9587575695423847 0.28422512704723785
12661108000.0 0.9612689922473007 0.27561190929221 -8.432118277016534e-17 1.3913166378858003e-18 -8.432118277016534e-17 1.3913166378858003e-18 0.9612688161783335 0.27561252337828296
12661725333.333334 0.9637028672700804 0.26697712189486367 -8.428867532681484e-17 2.1547758529064145e-18 -8.428867532681484e-17 2.1547758529064145e-18 0.9637026967255776 0.2669777375057487
12662342666.666666 0.9660591803042949 0.25832084729969557 -8.42492608870915e-17 2.9177604190184006e-18 -8.42492608870915e-17 2.9177604190184006e-18 0.9660590152974438 0.25832146438570003
12662960000.0 0.9683377417061546 0.24964378219227565 -8.420294537990574e-17 3.680207898670553e-18 -8.420294537990574e-17 3.680207898670553e-18 0.9683375822496938 0.24964440070359287
12663577333.333334 0.9705383680895755 0.24094662493146135 -8.414973529813573e-17 4.4420559227359634e-18 -8.414973529813573e-17 4.4420559227359634e-18 0.9705382141957984 0.24094724481817525
12664194666.666666 0.972660882340945 0.23223007549319302 -8.408963769787515e-17 5.20324219560198e-18 -8.408963769787515e-17 5.20324219560198e-18 0.9726607340216933 0.23223069670528115
12664812000.0 0.9747051136333753 0.22349483541412782 -8.402266019763434e-17 5.963704500252126e-18 -8.402266019763434e-17 5.963704500252126e-18 0.9747049709000424 0.22349545790146627
12665429333.333334 0.976670897440439 0.21474160773526238 -8.394881097749592e-17 6.723380703341996e-18 -8.394881097749592e-17 6.723380703341996e-18 0.9766707603039683 0.2147422314476296
12666046666.666666 0.9785580755494173 0.20597109694532198 -8.386809877822597e-17 7.482208760252007e-18 -8.386809877822597e-17 7.482208760252007e-18 0.9785579440202987 0.2059717218324024
12666664000.0 0.9803664960740718 0.19718400892386567 -8.378053290033538e-17 8.240126720169e-18 -8.378053290033538e-17 8.240126720169e-18 0.9803663701623438 0.1971846349352542
12667281333.333334 0.982096013466791 0.18838105088483623 -8.368612320310224e-17 8.997072731098646e-18 -8.368612320310224e-17 8.997072731098646e-18 0.9820958931820407 0.18838167797004243
12667898666.666666 0.9837464885303719 0.17956293131936452 -8.35848801035429e-17 9.752985044924969e-18 -8.35848801035429e-17 9.752985044924969e-18 0.98374637388173 0.1795635594278161
12668516000.0 0.9853177884292083 0.17073035993874508 -8.347681457533919e-17 1.0507802022435444e-17 -8.347681457533919e-17 1.0507802022435444e-17 0.9853176794253528 0.1707309890197926
12669133333.333334 0.986809786699945 0.16188404761756983 -8.33619381477244e-17 1.1261462138313991e-17 -8.33619381477244e-17 1.1261462138313991e-17 0.9868096833490987 0.1618846776204906
12669750666.666666 0.9882223632617045 0.15302470633623402 -8.324026290431759e-17 1.20139039861677e-17 -8.324026290431759e-17 1.20139039861677e-17 0.9882222655716336 0.15302533721023578
12670368000.0 0.9895554044257284 0.1441530491237454 -8.311180148191722e-17 1.2765066283508602e-17 -8.311180148191722e-17 1.2765066283508602e-17 0.9895553124037434 0.14415368081797097
12670985333.333334 0.9908088029045167 0.13526979000042186 -8.29765670692502e-17 1.3514887876725807e-17 -8.29765670692502e-17 1.3514887876725807e-17 0.9908087165574709 0.13527042246395293
