! Parameters = {f0=12700.012000; bw=77.238000; Q=6100.000000; N=10; m_0_1=1.240335; m_1_1=-0.159716; m_1_2=1.075147; m_2_2=-0.160365; m_2_3=0.712110; m_2_8=-0.000920; m_2_9=0.035784; m_3_3=-0.162302; m_3_4=0.600639; m_3_7=-0.000320; m_3_8=-0.097408; m_3_9=-0.000920; m_4_4=-0.165227; m_4_5=0.436974; m_4_6=0.003197; m_4_7=-0.117957; m_4_8=-0.000320; m_5_5=-0.164845; m_5_6=0.844329; m_5_7=0.003197; m_6_6=-0.164846; m_6_7=0.437316; m_7_7=-0.165213; m_7_8=0.600757; m_8_8=-0.162304; m_8_9=0.712423; m_9_9=-0.160370; m_9_10=1.076225; m_10_10=-0.159726; m_10_11=1.241130}
!
! Created with skrf (http://scikit-rf.org).
# Hz S RI R 50.0 
!freq ReS11 ImS11 ReS21 ImS21 ReS12 ImS12 ReS22 ImS22
12607400000.0 0.9869049241996791 -0.16130303961877807 -8.640954143330675e-17 4.174268871431996e-17 -8.640954143330675e-17 4.174268871431996e-17 0.9869050296167223 -0.16130239464139232
12608017333.333334 0.9853031092782167 -0.17081505450782236 -8.598225984317658e-17 4.2573526449906025e-17 -8.598225984317658e-17 4.2573526449906025e-17 0.985303220906233 -0.17081441060880737
12608634666.666666 0.9836096175799056 -0.18031117603782756 -8.554699677703949e-17 4.3400003962475586e-17 -8.554699677703949e-17 4.3400003962475586e-17 0.9836097354079004 -0.18031053327698582
12609252000.0 0.9818246066744598 -0.18979052064941224 -8.510379660389895e-17 4.422204464765562e-17 -8.510379660389895e-17 4.422204464765562e-17 0.9818247306908642 -0.18978987908643472
12609869333.333334 0.979948242646917 -0.19925220634424756 -8.465270442730142e-17 4.5039572351398546e-17 -8.465270442730142e-17 4.5039572351398546e-17 0.9799483728395868 -0.19925156603870783
12610486666.666666 0.9779807000822373 -0.20869535276687143 -8.419376608078254e-17 4.585251137700965e-17 -8.419376608078254e-17 4.585251137700965e-17 0.9779808364384541 -0.2086947137782201
12611104000.0 0.975922162048959 -0.2181190812870734 -8.372702812322364e-17 4.666078649216591e-17 -8.372702812322364e-17 4.666078649216591e-17 0.9759223045554327 -0.21811844367463284
12611721333.333334 0.9737728200822727 -0.22752251508114593 -8.325253783418228e-17 4.746432293581727e-17 -8.325253783418228e-17 4.746432293581727e-17 0.9737729687251425 -0.22752187890410464
12612338666.666666 0.9715328741661322 -0.23690477921377298 -8.277034320911033e-17 4.8263046425121106e-17 -8.277034320911033e-17 4.8263046425121106e-17 0.9715330289309679 -0.2369041445311802
12612956000.0 0.9692025327146399 -0.24626500071946514 -8.228049295453266e-17 4.905688316228089e-17 -8.228049295453266e-17 4.905688316228089e-17 0.9692026935864435 -0.24626436759022538
12613573333.333334 0.9667820125527445 -0.2556023086834256 -8.178303648316726e-17 4.984575984132781e-17 -8.178303648316726e-17 4.984575984132781e-17 0.9667821795159495 -0.2556016771662926
12614190666.666666 0.9642715388959524 -0.2649158343230237 -8.127802390895398e-17 5.0629603654894405e-17 -8.127802390895398e-17 5.0629603654894405e-17 0.9642717119344293 -0.26491520447659617
12614808000.0 0.9616713453294403 -0.27420471106838396 -8.076550604203939e-17 5.140834230090629e-17 -8.076550604203939e-17 5.140834230090629e-17 0.9616715244264947 -0.27420408295109894
12615425333.333334 0.9589816737862971 -0.28346807464309653 -8.024553438369596e-17 5.218190398922546e-17 -8.024553438369596e-17 5.218190398922546e-17 0.9589818589246725 -0.28346744831322457
12616042666.666666 0.9562027745250442 -0.2927050631445242 -7.97181611211647e-17 5.295021744826335e-17 -7.97181611211647e-17 5.295021744826335e-17 0.9562029656869244 -0.2927044386601639
12616660000.0 0.953334906106304 -0.3019148171241611 -7.918343912244978e-17 5.371321193151927e-17 -7.918343912244978e-17 5.371321193151927e-17 0.9533351032733152 -0.3019141945432341
12617277333.333334 0.9503783353687674 -0.31109647966751836 -7.864142193104122e-17 5.4470817224080073e-17 -7.864142193104122e-17 5.4470817224080073e-17 0.9503785385219757 -0.3110958590477625
12617894666.666666 0.9473333374043965 -0.3202491964737452 -7.80921637605874e-17 5.5222963649051673e-17 -7.80921637605874e-17 5.5222963649051673e-17 0.9473335465243159 -0.32024857787271127
12618512000.0 0.9442001955327278 -0.3293721159354428 -7.753571948947827e-17 5.596958207397407e-17 -7.753571948947827e-17 5.596958207397407e-17 0.9442004105993174 -0.3293714994104874
12619129333.333334 0.9409792012746694 -0.33846438921741445 -7.697214465541672e-17 5.67106039171171e-17 -7.697214465541672e-17 5.67106039171171e-17 0.9409794222673378 -0.3384637748256959
12619746666.666666 0.9376706543252341 -0.3475251703360772 -7.640149544987427e-17 5.744596115379553e-17 -7.640149544987427e-17 5.744596115379553e-17 0.9376708812228407 -0.3475245581345497
12620364000.0 0.9342748625256866 -0.35655361623806636 -7.582382871251905e-17 5.817558632258504e-17 -7.582382871251905e-17 5.817558632258504e-17 0.9342750953065422 -0.3565530062834743
12620981333.333334 0.9307921418349796 -0.3655488868784634 -7.523920192559245e-17 5.889941253147468e-17 -7.523920192559245e-17 5.889941253147468e-17 0.9307923804768521 -0.36554827922733735
12621598666.666666 0.9272228163002497 -0.3745101452992512 -7.464767320819592e-17 5.961737346400086e-17 -7.464767320819592e-17 5.961737346400086e-17 0.9272230607803619 -0.3745095400079013
12622216000.0 0.9235672180267545 -0.3834365577069487 -7.40493013105441e-17 6.032940338529507e-17 -7.40493013105441e-17 6.032940338529507e-17 0.923567468321789 -0.3834359548314603
12622833333.333334 0.9198256871468898 -0.39232729355040163 -7.344414560815655e-17 6.103543714807809e-17 -7.344414560815655e-17 6.103543714807809e-17 0.9198259432329912 -0.39232669314663
12623450666.666666 0.9159985717886306 -0.4011815255978518 -7.2832266095986e-17 6.173541019860498e-17 -7.2832266095986e-17 6.173541019860498e-17 0.9159988336414058 -0.4011809277214163
12624068000.0 0.9120862280430712 -0.40999843001406144 -7.221372338249183e-17 6.242925858254907e-17 -7.221372338249183e-17 6.242925858254907e-17 0.9120864956375925 -0.40999783472034085
12624685333.333334 0.9080890199312661 -0.41877718643701767 -7.158857868365555e-17 6.311691895082889e-17 -7.158857868365555e-17 6.311691895082889e-17 0.908089293242076 -0.41877659378114573
12625302666.666666 0.9040073193705298 -0.4275169780539021 -7.095689381696337e-17 6.379832856535149e-17 -7.095689381696337e-17 6.379832856535149e-17 0.9040075983716405 -0.4275163880907612
12625920000.0 0.8998415061395809 -0.4362169916776313 -7.031873119528664e-17 6.447342530474784e-17 -7.031873119528664e-17 6.447342530474784e-17 0.8998417908044776 -0.4362164044618482
12626537333.333334 0.8955919678434193 -0.44487641782205534 -6.967415382077023e-17 6.51421476699794e-17 -6.967415382077023e-17 6.51421476699794e-17 0.8955922581450633 -0.4448758334079958
12627154666.666666 0.8912590998771819 -0.4534944507774577 -6.902322527861328e-17 6.580443478994388e-17 -6.902322527861328e-17 6.580443478994388e-17 0.8912593957880118 -0.4534938692192212
12627772000.0 0.8868433053892604 -0.4620702886856976 -6.836600973081405e-17 6.646022642699849e-17 -6.836600973081405e-17 6.646022642699849e-17 0.8868436068811966 -0.462069710037113
12628389333.333334 0.8823449952440228 -0.4706031336143629 -6.770257190989227e-17 6.710946298239273e-17 -6.770257190989227e-17 6.710946298239273e-17 0.8823453022884692 -0.47060255792898303
12629006666.666666 0.8777645879833138 -0.4790921916315444 -6.70329771125059e-17 6.77520855016921e-17 -6.70329771125059e-17 6.77520855016921e-17 0.8777649005511599 -0.47909161896264113
12629624000.0 0.873102509787705 -0.4875366728793268 -6.635729119306533e-17 6.838803568009115e-17 -6.635729119306533e-17 6.838803568009115e-17 0.8731028278493297 -0.4875361032798863
12630241333.333334 0.86835919443675 -0.4959357916474573 -6.567558055727381e-17 6.901725586768548e-17 -6.567558055727381e-17 6.901725586768548e-17 0.8683595179620246 -0.4959352251701751
12630858666.666666 0.8635350832686957 -0.5042887664463284 -6.498791215562249e-17 6.963968907467642e-17 -6.498791215562249e-17 6.963968907467642e-17 0.8635354122269844 -0.5042882031436038
12631476000.0 0.8586306251393134 -0.5125948200798612 -6.429435347682203e-17 7.025527897652325e-17 -6.429435347682203e-17 7.025527897652325e-17 0.8586309594994792 -0.5125942600037932
12632093333.333334 0.8536462763802397 -0.5208531797176479 -6.359497254122379e-17 7.086396991899612e-17 -6.359497254122379e-17 7.086396991899612e-17 0.8536466161106457 -0.5208526229200305
12632710666.666666 0.8485825007564891 -0.5290630769669098 -6.288983789415571e-17 7.146570692319815e-17 -6.288983789415571e-17 7.146570692319815e-17 0.8485828458250032 -0.5290625234992278
12633328000.0 0.843439769423215 -0.5372237479441382 -6.217901859922229e-17 7.20604356905104e-17 -6.217901859922229e-17 7.20604356905104e-17 0.8434401197972089 -0.5372231978575593
12633945333.333334 0.8382185608819833 -0.545334433345969 -6.146258423156683e-17 7.264810260746364e-17 -6.146258423156683e-17 7.264810260746364e-17 0.8382189165283406 -0.5453338866913433
12634562666.666666 0.8329193609362463 -0.5533943785198643 -6.074060487107966e-17 7.322865475055029e-17 -6.074060487107966e-17 7.322865475055029e-17 0.8329197218213624 -0.553393835347717
12635180000.0 0.827542662646059 -0.5614028335344444 -6.0013151095563e-17 7.380203989096742e-17 -6.0013151095563e-17 7.380203989096742e-17 0.8275430287358453 -0.5614022938949716
12635797333.333334 0.8220889662822493 -0.5693590532491913 -5.928029397384945e-17 7.436820649929382e-17 -5.928029397384945e-17 7.436820649929382e-17 0.822089337542136 -0.5693585171922557
12636414666.666666 0.8165587792799027 -0.5772622973837355 -5.854210505888519e-17 7.492710375009226e-17 -5.854210505888519e-17 7.492710375009226e-17 0.8165591556748428 -0.5772617649588614
12637032000.0 0.8109526161911185 -0.5851118305867806 -5.779865638075919e-17 7.547868152645176e-17 -5.779865638075919e-17 7.547868152645176e-17 0.810952997685591 -0.5851113018431502
12637649333.333334 0.8052709986370992 -0.5929069225045707 -5.705002043969012e-17 7.602289042446076e-17 -5.705002043969012e-17 7.602289042446076e-17 0.8052713851951121 -0.5929063974910186
12638266666.666666 0.7995144552596668 -0.6006468478487754 -5.629627019898224e-17 7.655968175760299e-17 -5.629627019898224e-17 7.655968175760299e-17 0.7995148468447597 -0.600646326613784
12638884000.0 0.793683521672058 -0.6083308864639967 -5.553747907793127e-17 7.708900756109e-17 -5.553747907793127e-17 7.708900756109e-17 0.7936839182473067 -0.6083303690556924
12639501333.333334 0.7877787404090538 -0.6159583233948203 -5.477372094469025e-17 7.761082059612379e-17 -5.477372094469025e-17 7.761082059612379e-17 0.7877791419370732 -0.6159578098609685
12640118666.666666 0.7818006608766748 -0.6235284489521132 -5.4005070109108685e-17 7.812507435407997e-17 -5.4005070109108685e-17 7.812507435407997e-17 0.7818010673196233 -0.6235279393401146
12640736000.0 0.7757498393006765 -0.6310405587795501 -5.3231601315494757e-17 7.863172306064524e-17 -5.3231601315494757e-17 7.863172306064524e-17 0.7757502506202598 -0.6310400531364365
12641353333.333334 0.7696268386752907 -0.6384939539185247 -5.245338973540677e-17 7.913072167983974e-17 -5.245338973540677e-17 7.913072167983974e-17 0.7696272548327623 -0.6384934522909524
12641970666.666666 0.7634322287104486 -0.645887940873671 -5.1670510960327783e-17 7.962202591801904e-17 -5.1670510960327783e-17 7.962202591801904e-17 0.7634326496666171 -0.6458874433079195
12642588000.0 0.7571665857789347 -0.6532218316771904 -5.0883040994362174e-17 8.010559222776626e-17 -5.0883040994362174e-17 8.010559222776626e-17 0.7571670114941662 -0.6532213382191566
12643205333.333334 0.750830492862816 -0.6604949439528007 -5.00910562468736e-17 8.058137781172685e-17 -5.00910562468736e-17 8.058137781172685e-17 0.7508309232970366 -0.6604944546479943
12643822666.666666 0.7444245394990111 -0.6677066009794402 -4.929463352507778e-17 8.104934062637603e-17 -4.929463352507778e-17 8.104934062637603e-17 0.7444249746117134 -0.6677061158729808
12644440000.0 0.7379493217246061 -0.6748561317540405 -4.8493850026633106e-17 8.150943938569406e-17 -4.8493850026633106e-17 8.150943938569406e-17 0.7379497614748495 -0.6748556508906514
12645057333.333334 0.7314054420213584 -0.6819428710540013 -4.768878333216015e-17 8.196163356479056e-17 -4.768878333216015e-17 8.196163356479056e-17 0.7314058863677763 -0.6819423944780083
12645674666.666666 0.7247935092596232 -0.6889661594991104 -4.6879511397753357e-17 8.240588340344037e-17 -4.6879511397753357e-17 8.240588340344037e-17 0.724793958160425 -0.6889656872544351
12646292000.0 0.7181141386416404 -0.6959253436129532 -4.606611254743166e-17 8.284214990956094e-17 -4.606611254743166e-17 8.284214990956094e-17 0.7181145920546164 -0.6959248757431108
12646909333.333334 0.7113679516444327 -0.7028197758835738 -4.5248665465604826e-17 8.327039486259026e-17 -4.5248665465604826e-17 8.327039486259026e-17 0.7113684095269562 -0.7028193124316671
12647526666.666666 0.7045555759618608 -0.7096488148238433 -4.442724918946576e-17 8.369058081681335e-17 -4.442724918946576e-17 8.369058081681335e-17 0.7045560382708936 -0.7096483558325596
12648144000.0 0.6976776454462178 -0.7164118250311432 -4.3601943101354755e-17 8.410267110461253e-17 -4.3601943101354755e-17 8.410267110461253e-17 0.6976781121383169 -0.7164113705427537
12648761333.333334 0.6907348000493196 -0.7231081772464343 -4.2772826921125035e-17 8.450662983962678e-17 -4.2772826921125035e-17 8.450662983962678e-17 0.6907352710806342 -0.7231077273027826
12649378666.666666 0.6837276857630339 -0.7297372484127143 -4.1939980698457896e-17 8.490242191984693e-17 -4.1939980698457896e-17 8.490242191984693e-17 0.6837281610893167 -0.7297368030552206
12649996000.0 0.6766569545589581 -0.7362984217332187 -4.110348480513995e-17 8.529001303064033e-17 -4.110348480513995e-17 8.529001303064033e-17 0.6766574341355661 -0.7362979810028719
12650613333.333334 0.6695232643278951 -0.7427910867286653 -4.026341992732958e-17 8.566936964769087e-17 -4.026341992732958e-17 8.566936964769087e-17 0.6695237481097932 -0.7427906506660185
12651230666.666666 0.6623272788187056 -0.7492146392940013 -3.941986705781152e-17 8.604045903985692e-17 -3.941986705781152e-17 8.604045903985692e-17 0.6623277667604729 -0.7492142079391702
12651848000.0 0.6550696675763183 -0.7555684817548204 -3.8572907488166764e-17 8.64032492719797e-17 -3.8572907488166764e-17 8.64032492719797e-17 0.6550701596321501 -0.755568055147478
12652465333.333334 0.6477511058797064 -0.7618520229227261 -3.77226228009881e-17 8.675770920758286e-17 -3.77226228009881e-17 8.675770920758286e-17 0.6477516020034207 -0.761851601102101
12653082666.666666 0.6403722746789331 -0.768064678150455 -3.686909486203701e-17 8.710380851151128e-17 -3.686909486203701e-17 8.710380851151128e-17 0.6403727748239738 -0.768064261155326
12653700000.0 0.6329338605316596 -0.7742058693863821 -3.601240581235438e-17 8.744151765250187e-17 -3.601240581235438e-17 8.744151765250187e-17 0.6329343646511008 -0.7742054572550754
12654317333.333334 0.6254365555395467 -0.7802750252280662 -3.515263806040517e-17 8.777080790565334e-17 -3.515263806040517e-17 8.777080790565334e-17 0.6254370635860986 -0.780274617998453
12654934666.666666 0.6178810572836245 -0.7862715809756212 -3.428987427415384e-17 8.809165135483857e-17 -3.428987427415384e-17 8.809165135483857e-17 0.6178815692096346 -0.7862711786851106
12655552000.0 0.6102680687594654 -0.7921949786841773 -3.3424197373118076e-17 8.840402089503897e-17 -3.3424197373118076e-17 8.840402089503897e-17 0.6102685845169259 -0.7921945813697168
12656169333.333334 0.6025982983118487 -0.7980446672157501 -3.255569052044933e-17 8.870789023458246e-17 -3.255569052044933e-17 8.870789023458246e-17 0.6025988178523994 -0.7980442749138194
12656786666.666666 0.5948724595687144 -0.8038201022906185 -3.1684437114933296e-17 8.900323389732692e-17 -3.1684437114933296e-17 8.900323389732692e-17 0.594872982843649 -0.8038197150372293
12657404000.0 0.5870912713748575 -0.8095207465379047 -3.081052078301139e-17 8.929002722475038e-17 -3.081052078301139e-17 8.929002722475038e-17 0.5870917983351259 -0.8095203643685939
12658021333.333334 0.5792554577249711 -0.815146069545617 -2.993402537076341e-17 8.95682463779699e-17 -2.993402537076341e-17 8.95682463779699e-17 0.5792559883211859 -0.8151456924954456
12658638666.666666 0.5713657476964944 -0.8206955479098564 -2.905503493590333e-17 8.983786833967245e-17 -2.905503493590333e-17 8.983786833967245e-17 0.5713662818789342 -0.820695176013406
12659256000.0 0.5634228753814045 -0.8261686652837812 -2.817363373969432e-17 9.009887091598763e-17 -2.817363373969432e-17 9.009887091598763e-17 0.5634234131000195 -0.8261682985751498
12659873333.333334 0.5554275798182133 -0.8315649124254314 -2.7289906238921534e-17 9.035123273825783e-17 -2.7289906238921534e-17 9.035123273825783e-17 0.55542812102263 -0.8315645509382327
12660490666.666666 0.5473806049231852 -0.8368837872451352 -2.6403937077814063e-17 9.059493326474147e-17 -2.6403937077814063e-17 9.059493326474147e-17 0.5473811495627096 -0.8368834310124917
12661108000.0 0.5392826994208572 -0.8421247948523934 -2.5515811079928743e-17 9.08299527822432e-17 -2.5515811079928743e-17 9.08299527822432e-17 0.5392832474444813 -0.842124443906937
12661725333.333334 0.5311346167748028 -0.8472874476016486 -2.4625613240079707e-17 9.105627240764862e-17 -2.4625613240079707e-17 9.105627240764862e-17 0.5311351681312084 -0.8472871019755148
12662342666.666666 0.5229371151171212 -0.8523712651379192 -2.373342871620307e-17 9.127387408939399e-17 -2.373342871620307e-17 9.127387408939399e-17 0.5229376697546851 -0.8523709248627458
12662960000.0 0.5146909571781129 -0.8573757744413542 -2.2839342821224977e-17 9.148274060885241e-17 -2.2839342821224977e-17 9.148274060885241e-17 0.5146915150449123 -0.8573754395482798
12663577333.333334 0.5063969102152389 -0.8623005098712935 -2.1943441014928314e-17 9.168285558163772e-17 -2.1943441014928314e-17 9.168285558163772e-17 0.5063974712590554 -0.8623001803909517
12664194666.666666 0.4980557459418308 -0.867145013209532 -2.1045808895798454e-17 9.18742034588315e-17 -2.1045808895798454e-17 9.18742034588315e-17 0.498056310110155 -0.8671446891720493
12664812000.0 0.48966824045513985 -0.871908833703043 -2.014653219286173e-17 9.205676952813061e-17 -2.014653219286173e-17 9.205676952813061e-17 0.489668807695177 -0.871908515138037
12665429333.333334 0.48123517416419825 -0.876591528105872 -1.9245696757509257e-17 9.223053991491496e-17 -1.9245696757509257e-17 9.223053991491496e-17 0.48123574442287304 -0.8765912150424484
12666046666.666666 0.4727573317173064 -0.8811926607203245 -1.8343388555341305e-17 9.239550158323018e-17 -1.8343388555341305e-17 9.239550158323018e-17 0.47275790494126846 -0.8811923531870755
12666664000.0 0.46423550192872903 -0.885711803437673 -1.7439693657935935e-17 9.255164233670478e-17 -1.7439693657935935e-17 9.255164233670478e-17 0.4642360780643559 -0.8857115014626705
12667281333.333334 0.4556704777057461 -0.8901485357777376 -1.6534698234702534e-17 9.269895081936839e-17 -1.6534698234702534e-17 9.269895081936839e-17 0.45567105669915103 -0.8901482393885366
12667898666.666666 0.44706305597448215 -0.8945024449282357 -1.5628488544653157e-17 9.283741651640533e-17 -1.5628488544653157e-17 9.283741651640533e-17 0.44706363777151686 -0.8945021541518673
12668516000.0 0.43841403760585057 -0.8987731257831252 -1.4721150928194706e-17 9.296702975482253e-17 -1.4721150928194706e-17 9.296702975482253e-17 0.43841462215211197 -0.8987728406460965
12669133333.333334 0.42972422734124527 -0.9029601809802041 -1.381277179895388e-17 9.308778170403256e-17 -1.381277179895388e-17 9.308778170403256e-17 0.4297248145820793 -0.9029599015084945
12669750666.666666 0.4209944337173816 -0.9070632209382182 -1.2903437635521484e-17 9.319966437636805e-17 -1.2903437635521484e-17 9.319966437636805e-17 0.4209950235978889 -0.9070629471572772
12670368000.0 0.41222546899127166 -0.9110818638930092 -1.1993234973257357e-17 9.330267062750626e-17 -1.1993234973257357e-17 9.330267062750626e-17 0.41222606145631263 -0.911081595827755
12670985333.333334 0.4034181490645723 -0.915015735933076 -1.1082250396077281e-17 9.339679415681664e-17 -1.1082250396077281e-17 9.339679415681664e-17 0.40341874405877237 -0.9150154736078924
