! Parameters = {f0=12700.012000; bw=77.238000; Q=6100.000000; N=10; m_0_1=1.301396; m_1_1=0.756200; m_1_2=1.136208; m_2_2=0.755551; m_2_3=0.773171; m_2_8=0.002134; m_2_9=0.038838; m_3_3=0.753614; m_3_4=0.661700; m_3_7=0.002734; m_3_8=-0.094354; m_3_9=0.002134; m_4_4=0.750689; m_4_5=0.498035; m_4_6=0.006251; m_4_7=-0.114903; m_4_8=0.002734; m_5_5=0.751071; m_5_6=0.905390; m_5_7=0.006251; m_6_6=0.751070; m_6_7=0.498377; m_7_7=0.750703; m_7_8=0.661818; m_8_8=0.753612; m_8_9=0.773484; m_9_9=0.755546; m_9_10=1.137286; m_10_10=0.756190; m_10_11=1.302191}
!
! Created with skrf (http://scikit-rf.org).
# Hz S RI R 50.0 
!freq ReS11 ImS11 ReS21 ImS21 ReS12 ImS12 ReS22 ImS22
12607400000.0 0.7973747058402421 0.6034845304446522 -1.197646340659585e-16 -4.505990665930934e-17 -1.197646340659585e-16 -4.505990665930934e-17 0.7973742920944534 0.6034850771201257
12608017333.333334 0.8042328424026983 0.5943143403963017 -1.202530784334614e-16 -4.366632562249537e-17 -1.202530784334614e-16 -4.366632562249537e-17 0.8042324349638872 0.5943148917466833
12608634666.666666 0.8109855227879937 0.5850662200367567 -1.2072531766459183e-16 -4.226747532594429e-17 -1.2072531766459183e-16 -4.226747532594429e-17 0.8109851217089656 0.5850667759892952
12609252000.0 0.8176318615413982 0.5757413820389866 -1.2118129522704035e-16 -4.08635440884514e-17 -1.2118129522704035e-16 -4.08635440884514e-17 0.81763146687412 0.5757419425203353
12609869333.333334 0.8241709871523624 0.566341049135691 -1.2162095677554726e-16 -3.945472083148862e-17 -1.2162095677554726e-16 -3.945472083148862e-17 0.8241705989479553 0.5663416140719163
12610486666.666666 0.8306020421687513 0.5568664539590401 -1.2204425015827257e-16 -3.804119505384914e-17 -1.2204425015827257e-16 -3.804119505384914e-17 0.8306016604774832 0.5568670232756306
12611104000.0 0.836924183309484 0.5473188388787361 -1.2245112542289755e-16 -3.6623156806134387e-17 -1.2245112542289755e-16 -3.6623156806134387e-17 0.8369238081807661 0.5473194125006153
12611721333.333334 0.8431365815748576 0.5376994558394845 -1.2284153482239025e-16 -3.520079666531683e-17 -1.2284153482239025e-16 -3.520079666531683e-17 0.8431362130572337 0.5377000336910174
12612338666.666666 0.8492384223553615 0.5280095661966657 -1.2321543282051512e-16 -3.37743057091069e-17 -1.2321543282051512e-16 -3.37743057091069e-17 0.8492380604965043 0.5280101482016702
12612956000.0 0.8552289055385989 0.5182504405507684 -1.2357277609702493e-16 -3.2343875490332696e-17 -1.2357277609702493e-16 -3.2343875490332696e-17 0.8552285503853034 0.5182510266325252
12613573333.333334 0.8611072456139461 0.5084233585811901 -1.2391352355254923e-16 -3.090969801129861e-17 -1.2391352355254923e-16 -3.090969801129861e-17 0.8611068972121246 0.5084239486624537
12614190666.666666 0.8668726717758264 0.4985296088780036 -1.2423763631321096e-16 -2.947196569799198e-17 -1.2423763631321096e-16 -2.947196569799198e-17 0.8668723301704999 0.4985302028810108
12614808000.0 0.8725244280245865 0.48857048877330295 -1.245450777349184e-16 -2.803087137434915e-17 -1.245450777349184e-16 -2.803087137434915e-17 0.8725240932598811 0.4885710866197841
12615425333.333334 0.8780617732657594 0.47854730417086844 -1.2483581340737756e-16 -2.6586608236400926e-17 -1.2483581340737756e-16 -2.6586608236400926e-17 0.8780614453849006 0.4785479057820582
12616042666.666666 0.883483981407131 0.4684613693751274 -1.2510981115779198e-16 -2.5139369826438916e-17 -1.2510981115779198e-16 -2.5139369826438916e-17 0.8834836604524369 0.4684619746717742
12616660000.0 0.8887903414540442 0.45831400691863894 -1.2536704105427478e-16 -2.3689350007092592e-17 -1.2536704105427478e-16 -2.3689350007092592e-17 0.8887900274669205 0.4583146158210154
12617277333.333334 0.8939801576026014 0.448106547388724 -1.2560747540895456e-16 -2.2236742935405854e-17 -1.2560747540895456e-16 -2.2236742935405854e-17 0.8939798506235365 0.4481071598166383
12617894666.666666 0.8990527493308 0.4378403292531941 -1.258310887807773e-16 -2.0781743036905964e-17 -1.258310887807773e-16 -2.0781743036905964e-17 0.899052449399359 0.4378409451259994
12618512000.0 0.9040074514879961 0.42751669868438413 -1.2603785797802468e-16 -1.9324544979554094e-17 -1.2603785797802468e-16 -1.9324544979554094e-17 0.9040071586428163 0.4275173179209902
12619129333.333334 0.9088436143818464 0.41713700938319587 -1.2622776206050862e-16 -1.786534364781682e-17 -1.2622776206050862e-16 -1.786534364781682e-17 0.9088433286606333 0.41713763190207964
12619746666.666666 0.9135606038637274 0.40670262240113214 -1.2640078234148747e-16 -1.6404334116575757e-17 -1.2640078234148747e-16 -1.6404334116575757e-17 0.9135603253032473 0.4067032481203475
12620364000.0 0.918157801411781 0.3962149059620285 -1.2655690238926643e-16 -1.4941711625115035e-17 -1.2655690238926643e-16 -1.4941711625115035e-17 0.9181575300478589 0.3962155347992185
12620981333.333334 0.9226346042120193 0.38567523528267356 -1.2669610802850365e-16 -1.347767155107236e-17 -1.2669610802850365e-16 -1.347767155107236e-17 0.9226343400795314 0.38567586715507957
12621598666.666666 0.9269904252373853 0.3750849923924274 -1.2681838734121455e-16 -1.2012409384370758e-17 -1.2681838734121455e-16 -1.2012409384370758e-17 0.9269901683702577 0.37508562721690153
12622216000.0 0.931224693324763 0.3644455659519226 -1.2692373066747577e-16 -1.0546120701145647e-17 -1.2692373066747577e-16 -1.0546120701145647e-17 0.9312244437559657 0.36444620364493807
12622833333.333334 0.9353368532498054 0.35375835107113185 -1.270121306058269e-16 -9.079001137681426e-18 -1.270121306058269e-16 -9.079001137681426e-18 0.9353366110113492 0.35375899154879414
12623450666.666666 0.9393263657997867 0.34302474912632797 -1.2708358201337144e-16 -7.611246364372007e-18 -1.2708358201337144e-16 -7.611246364372007e-18 0.9393261309227153 0.3430253923043847
12624068000.0 0.9431927078442705 0.33224616757640446 -1.2713808200557995e-16 -6.143052059618283e-18 -1.2713808200557995e-16 -6.143052059618283e-18 0.9431924803586618 0.3322468133702583
12624685333.333334 0.9469353724037958 0.3214240197780802 -1.2717562995578933e-16 -4.674613883803392e-18 -1.2717562995578933e-16 -4.674613883803392e-18 0.9469351523387548 0.3214246681027989
12625302666.666666 0.9505538687161863 0.3105597248010546 -1.2719622749440317e-16 -3.2061274532661596e-18 -1.2719622749440317e-16 -3.2061274532661596e-18 0.9505536560998421 0.3105603755713822
12625920000.0 0.9540477223011041 0.2996547072413376 -1.2719987850779263e-16 -1.7377883142362903e-18 -1.2719987850779263e-16 -1.7377883142362903e-18 0.954047517160607 0.29965536037170604
12626537333.333334 0.9574164750221102 0.28871039703490514 -1.2718658913689597e-16 -2.6979191689035783e-19 -1.2718658913689597e-16 -2.6979191689035783e-19 0.9574162773836276 0.2887110524394453
12627154666.666666 0.9606596851467742 0.2777282292701183 -1.2715636777552058e-16 1.1976664106560663e-18 -1.2715636777552058e-16 1.1976664106560663e-18 0.9606594950354871 0.2777288868626714
12627772000.0 0.9637769274046979 0.2667096439991905 -1.2710922506834336e-16 2.6643914883334615e-18 -1.2710922506834336e-16 2.6643914883334615e-18 0.9637767448447971 0.26671030369331866
12628389333.333334 0.9667677930431029 0.2556560860499574 -1.2704517390861564e-16 4.130188309965151e-18 -1.2704517390861564e-16 4.130188309965151e-18 0.9667676180577879 0.25565674775895625
12629006666.666666 0.9696318898806106 0.2445690048357946 -1.269642294355651e-16 5.594862069236172e-18 -1.269642294355651e-16 5.594862069236172e-18 0.9696317224920848 0.24456966847270392
12629624000.0 0.9723688423585213 0.233449854166081 -1.2686640903150468e-16 7.058218185491778e-18 -1.2686640903150468e-16 7.058218185491778e-18 0.9723686825879904 0.23345051964369623
12630241333.333334 0.9749782915901632 0.22230009205518134 -1.2675173231864036e-16 8.520062329578842e-18 -1.2675173231864036e-16 8.520062329578842e-18 0.9749781394578311 0.22230075928606505
12630858666.666666 0.9774598954078565 0.21112118053164883 -1.26620221155586e-16 9.980200449578802e-18 -1.26620221155586e-16 9.980200449578802e-18 0.9774597509329253 0.2111218494281425
12631476000.0 0.9798133284079031 0.1999145854459882 -1.2647189963357472e-16 1.1438438796594478e-17 -1.2647189963357472e-16 1.1438438796594478e-17 0.9798131916085676 0.1999152559202233
12632093333.333334 0.9820382819931246 0.18868177627902644 -1.2630679407238486e-16 1.2894583950349678e-17 -1.2630679407238486e-16 1.2894583950349678e-17 0.9820381528865705 0.18868244824293592
12632710666.666666 0.9841344644134067 0.1774242259488641 -1.2612493301596332e-16 1.4348442844839518e-17 -1.2612493301596332e-16 1.4348442844839518e-17 0.9841343430158115 0.17742489931419467
12633328000.0 0.9861016008039639 0.16614341061768073 -1.2592634722775357e-16 1.5799822793916126e-17 -1.2592634722775357e-16 1.5799822793916126e-17 0.986101487130493 0.1661440852960039
12633945333.333334 0.9879394332213202 0.15484080949850615 -1.2571106968573698e-16 1.7248531516749268e-17 -1.2571106968573698e-16 1.7248531516749268e-17 0.9879393272861224 0.15484148540122963
12634562666.666666 0.9896477206771882 0.14351790466092046 -1.2547913557717827e-16 1.8694377163269964e-17 -1.2547913557717827e-16 1.8694377163269964e-17 0.9896476224933987 0.14351858169930035
12635180000.0 0.9912262391700335 0.13217618083696864 -1.2523058229307455e-16 2.013716833955709e-17 -1.2523058229307455e-16 2.013716833955709e-17 0.9912261487497681 0.1321768589221206
12635797333.333334 0.9926747817144786 0.12081712522621917 -1.249654494223183e-16 2.157671413312863e-17 -1.249654494223183e-16 2.157671413312863e-17 0.992674699068835 0.1208178042691304
12636414666.666666 0.9939931583684023 0.10944222730109139 -1.2468377874557348e-16 2.3012824138141234e-17 -1.2468377874557348e-16 2.3012824138141234e-17 0.9939930835074573 0.10944290721263226
12637032000.0 0.9951811962578957 0.09805297861115152 -1.2438561422884898e-16 2.4445308480583363e-17 -1.2438561422884898e-16 2.4445308480583363e-17 0.9951811291907047 0.09805365930208712
12637649333.333334 0.9962387395998894 0.08665087258786952 -1.2407100201680046e-16 2.5873977843299306e-17 -1.2407100201680046e-16 2.5873977843299306e-17 0.9962386803344845 0.08665155396887152
12638266666.666666 0.9971656497226071 0.07523740434853657 -1.2373999042573033e-16 2.7298643491003482e-17 -1.2373999042573033e-16 2.7298643491003482e-17 0.9971655982659978 0.07523808633019491
12638884000.0 0.9979618050837319 0.06381407050044222 -1.2339262993631416e-16 2.8719117295147706e-17 -1.2339262993631416e-16 2.8719117295147706e-17 0.9979617614419011 0.06381475299327667
12639501333.333334 0.9986271012863565 0.052382368944374175 -1.2302897318602804e-16 3.0135211758757605e-17 -1.2302897318602804e-16 3.0135211758757605e-17 0.9986270654642645 0.05238305185884645
12640118666.666666 0.9991614510926558 0.04094379867860166 -1.226490749613117e-16 3.154674004109487e-17 -1.226490749613117e-16 3.154674004109487e-17 0.9991614230942357 0.040944481925126786
12640736000.0 0.9995647844353557 0.02949985960163549 -1.222529921894155e-16 3.2953515982351543e-17 -1.222529921894155e-16 3.2953515982351543e-17 0.9995647642635143 0.029500543090593745
12641353333.333334 0.9998370484268825 0.01805205231646048 -1.2184078393001158e-16 3.435535412806998e-17 -1.2184078393001158e-16 3.435535412806998e-17 0.9998370360835 0.0180527359582091
12641970666.666666 0.999978207366327 0.006601877932943129 -1.214125113664826e-16 3.5752069753615935e-17 -1.214125113664826e-16 3.5752069753615935e-17 0.9999782028522594 0.006602561637828099
12642588000.0 0.999988242744117 -0.004849162128492143 -1.2096823779695068e-16 3.7143478888471744e-17 -1.2096823779695068e-16 3.7143478888471744e-17 0.9999882460591892 -0.004848478450124404
12643205333.333334 0.9998671532444396 -0.016299566333966318 -1.2050802862503319e-16 3.8529398340406326e-17 -1.2050802862503319e-16 3.8529398340406326e-17 0.9998671643874536 -0.016298882771757138
12643822666.666666 0.999614954745419 -0.027747833233064893 -1.2003195135030284e-16 3.990964571959377e-17 -1.2003195135030284e-16 3.990964571959377e-17 0.9996149737141492 -0.027747149876631613
12644440000.0 0.999231680317032 -0.03919246165549033 -1.1954007555849235e-16 4.128403946255046e-17 -1.1954007555849235e-16 4.128403946255046e-17 0.9992317071082268 -0.039191778594414556
12645057333.333334 0.9987173802167726 -0.05063195090813245 -1.1903247291141932e-16 4.265239885597736e-17 -1.1903247291141932e-16 4.265239885597736e-17 0.9987174148261555 -0.05063126823194832
12645674666.666666 0.9980721218830678 -0.06206480097162189 -1.1850921713663415e-16 4.4014544060489724e-17 -1.1850921713663415e-16 4.4014544060489724e-17 0.9980721643053387 -0.0620641187698044
12646292000.0 0.9972959899264146 -0.07348951269744787 -1.1797038401678803e-16 4.5370296134244603e-17 -1.1797038401678803e-16 4.5370296134244603e-17 0.997296040155248 -0.07348883105940102
12646909333.333334 0.9963890861183179 -0.08490458800394043 -1.17416051378762e-16 4.671947705635908e-17 -1.17416051378762e-16 4.671947705635908e-17 0.9963891441463655 -0.08490390701898554
12647526666.666666 0.9953515293779162 -0.09630853007319068 -1.1684629908250055e-16 4.806190975027082e-17 -1.1684629908250055e-16 4.806190975027082e-17 0.995351595196808 -0.0963078498305548
12648144000.0 0.9941834557563921 -0.10769984354720952 -1.162612090095805e-16 4.93974181069567e-17 -1.162612090095805e-16 4.93974181069567e-17 0.9941835293567379 -0.10769916413601363
12648761333.333334 0.9928850184191486 -0.11907703472383861 -1.1566086505153198e-16 5.072582700797374e-17 -1.1566086505153198e-16 5.072582700797374e-17 0.9928850997905383 -0.11907635623308599
12649378666.666666 0.9914563876257245 -0.13043861175267155 -1.150453530978917e-16 5.204696234837302e-17 -1.150453530978917e-16 5.204696234837302e-17 0.9914564767567302 -0.13043793427123604
12649996000.0 0.9898977507074443 -0.1417830848308721 -1.1441476102397276e-16 5.3360651059518607e-17 -1.1441476102397276e-16 5.3360651059518607e-17 0.9898978475856214 -0.14178240844748655
12650613333.333334 0.9882093120428662 -0.1531089663983851 -1.1376917867840818e-16 5.4666721131684245e-17 -1.1376917867840818e-16 5.4666721131684245e-17 0.988209416654756 -0.15310829120162972
12651230666.666666 0.9863912930310156 -0.16441477133279847 -1.1310869787041567e-16 5.596500163654974e-17 -1.1310869787041567e-16 5.596500163654974e-17 0.9863914053621479 -0.16441409741108953
12651848000.0 0.9844439320622844 -0.17569901714456043 -1.1243341235680726e-16 5.725532274953731e-17 -1.1243341235680726e-16 5.725532274953731e-17 0.9844440520971759 -0.17569834458613792
12652465333.333334 0.9823674844872383 -0.18696022417089403 -1.1174341782875174e-16 5.853751577198341e-17 -1.1174341782875174e-16 5.853751577198341e-17 0.9823676122093989 -0.18695955306381087
12653082666.666666 0.9801622225831073 -0.19819691577004636 -1.110388118982952e-16 5.98114131531295e-17 -1.110388118982952e-16 5.98114131531295e-17 0.9801623579750398 -0.19819624620215648
12653700000.0 0.9778284355180636 -0.20940761851496967 -1.1031969408458935e-16 6.107684851203055e-17 -1.1031969408458935e-16 6.107684851203055e-17 0.9778285785612679 -0.2094069505739168
12654317333.333334 0.9753664293133416 -0.2205908623863599 -1.0958616579992957e-16 6.233365665919225e-17 -1.0958616579992957e-16 6.233365665919225e-17 0.975366579988314 -0.22059019615956554
12654934666.666666 0.9727765268030976 -0.23174518096547078 -1.0883833033550506e-16 6.358167361811665e-17 -1.0883833033550506e-16 6.358167361811665e-17 0.9727766850893378 -0.23174451654012346
12655552000.0 0.9700590675920265 -0.24286911162662125 -1.0807629284690353e-16 6.482073664667727e-17 -1.0807629284690353e-16 6.482073664667727e-17 0.9700592334680379 -0.24286844908966485
12656169333.333334 0.9672144080109428 -0.25396119572851455 -1.0730016033941795e-16 6.605068425824825e-17 -1.0730016033941795e-16 6.605068425824825e-17 0.9672145814542352 -0.25396053516663664
12656786666.666666 0.9642429210699357 -0.2650199788060017 -1.065100416530497e-16 6.727135624276211e-17 -1.065100416530497e-16 6.727135624276211e-17 0.964243102057029 -0.26501932030562253
12657404000.0 0.9611449964095454 -0.27604401076044166 -1.0570604744731982e-16 6.84825936875129e-17 -1.0570604744731982e-16 6.84825936875129e-17 0.9611451849159728 -0.2760433544077027
12658021333.333334 0.9579210402495998 -0.28703184605012244 -1.0488829018582933e-16 6.968423899780317e-17 -1.0488829018582933e-16 6.968423899780317e-17 0.9579212362499109 -0.28703119193087523
12658638666.666666 0.9545714753360468 -0.29798204387945376 -1.0405688412059149e-16 7.087613591739865e-17 -1.0405688412059149e-16 7.087613591739865e-17 0.9545716788038126 -0.29798139207924895
12659256000.0 0.9510967408853928 -0.3088931683883592 -1.0321194527610207e-16 7.205812954884112e-17 -1.0321194527610207e-16 7.205812954884112e-17 0.9510969517932045 -0.30889251899243425
12659873333.333334 0.9474972925271924 -0.3197637888402245 -1.0235359143322558e-16 7.32300663735042e-17 -1.0235359143322558e-16 7.32300663735042e-17 0.9474975108466704 -0.3197631419334938
12660490666.666666 0.9437736022443458 -0.3305924798094282 -1.0148194211283928e-16 7.439179427148229e-17 -1.0148194211283928e-16 7.439179427148229e-17 0.9437738279461416 -0.33059183547647153
12661108000.0 0.9399261583110505 -0.34137782136870964 -1.0059711855920898e-16 7.554316254134288e-17 -1.0059711855920898e-16 7.554316254134288e-17 0.9399263913648503 -0.34137717969376097
12661725333.333334 0.9359554652289778 -0.3521183992747667 -9.969924372322465e-17 7.668402191956994e-17 -9.969924372322465e-17 7.668402191956994e-17 0.935955705603507 -0.3521177603417034
12662342666.666666 0.9318620436609427 -0.362812805154211 -9.87884422453308e-17 7.781422459992387e-17 -9.87884422453308e-17 7.781422459992387e-17 0.9318622913239697 -0.3628121690465427
12662960000.0 0.927646430362755 -0.373459636687895 -9.786484043829292e-17 7.893362425252418e-17 -9.786484043829292e-17 7.893362425252418e-17 0.9276466852810957 -0.37345900348875266
12663577333.333334 0.9233091781127466 -0.38405749779503195 -9.6928566269737e-17 8.004207604274699e-17 -9.6928566269737e-17 8.004207604274699e-17 0.9233094402522685 -0.384056867587157
12664194666.666666 0.9188508556393706 -0.39460499881604805 -9.597974934445464e-17 8.113943664994044e-17 -9.597974934445464e-17 8.113943664994044e-17 0.9188511249649979 -0.39460437168178175
12664812000.0 0.9142720475465524 -0.40510075669498735 -9.501852088653068e-17 8.222556428588965e-17 -9.501852088653068e-17 8.222556428588965e-17 0.9142723240222708 -0.4051001327162601
12665429333.333334 0.9095733542370511 -0.4155433951608142 -9.404501372122412e-17 8.330031871311764e-17 -9.404501372122412e-17 8.330031871311764e-17 0.9095736378259127 -0.41554277441913473
12666046666.666666 0.9047553918338264 -0.4259315449076715 -9.305936225669388e-17 8.436356126291277e-17 -9.305936225669388e-17 8.436356126291277e-17 0.9047556824979532 -0.4259309274841157
12666664000.0 0.8998187920990357 -0.4362638437748982 -9.206170246544749e-17 8.541515485322344e-17 -9.206170246544749e-17 8.541515485322344e-17 0.8998190897996264 -0.43626322975009935
12667281333.333334 0.8947642023514563 -0.44653893692507757 -9.10521718656728e-17 8.645496400624174e-17 -9.10521718656728e-17 8.645496400624174e-17 0.8947645070487906 -0.4465383263792153
12667898666.666666 0.8895922853813875 -0.45675547702215485 -9.003090950231382e-17 8.74828548658305e-17 -9.003090950231382e-17 8.74828548658305e-17 0.8895925970348316 -0.4567548700349449
12668516000.0 0.8843037193638369 -0.46691212440790264 -8.89980559279488e-17 8.849869521472601e-17 -8.89980559279488e-17 8.849869521472601e-17 0.8843040379318489 -0.4669115210585866
12669133333.333334 0.8788991977696087 -0.47700754727756134 -8.795375318353713e-17 8.950235449145649e-17 -8.795375318353713e-17 8.950235449145649e-17 0.8788995232097444 -0.47700694764489576
12669750666.666666 0.8733794292743465 -0.4870404218545243 -8.689814477888843e-17 9.049370380711803e-17 -8.689814477888843e-17 9.049370380711803e-17 0.8733797615432647 -0.48703982601677104
12670368000.0 0.8677451376655517 -0.4970094325640198 -8.583137567300532e-17 9.147261596186205e-17 -8.583137567300532e-17 9.147261596186205e-17 0.8677454767190195 -0.4970088405989353
