! Parameters = {f0=12700.012000; bw=77.238000; Q=6100.000000; N=10; m_0_1=1.258954; m_1_1=0.119564; m_1_2=1.093766; m_2_2=0.118915; m_2_3=0.730729; m_2_8=0.000011; m_2_9=0.036715; m_3_3=0.116978; m_3_4=0.619258; m_3_7=0.000611; m_3_8=-0.096477; m_3_9=0.000011; m_4_4=0.114053; m_4_5=0.455593; m_4_6=0.004128; m_4_7=-0.117026; m_4_8=0.000611; m_5_5=0.114435; m_5_6=0.862948; m_5_7=0.004128; m_6_6=0.114434; m_6_7=0.455935; m_7_7=0.114067; m_7_8=0.619376; m_8_8=0.116976; m_8_9=0.731042; m_9_9=0.118910; m_9_10=1.094844; m_10_10=0.119554; m_10_11=1.259749}
!
! Created with skrf (http://scikit-rf.org).
# Hz S RI R 50.0 
!freq ReS11 ImS11 ReS21 ImS21 ReS12 ImS12 ReS22 ImS22
12607400000.0 0.4028516887748401 0.915265271301761 -6.782832118573005e-17 -8.009858279056634e-17 -6.782832118573005e-17 -8.009858279056634e-17 0.4028510816684749 0.9152655385178481
12608017333.333334 0.4121629936619326 0.9111101287196085 -6.863509600564428e-17 -7.938118983177607e-17 -6.863509600564428e-17 -7.938118983177607e-17 0.4121623893413111 0.9111104020986088
12608634666.666666 0.4214314477702722 0.9068602620195014 -6.943429396058932e-17 -7.865568007889823e-17 -6.943429396058932e-17 -7.865568007889823e-17 0.42143084629794736 0.9068605415323918
12609252000.0 0.4306560874994209 0.9025161130414897 -7.022583348608166e-17 -7.792213344863948e-17 -7.022583348608166e-17 -7.792213344863948e-17 0.4306554889376426 0.9025163986586097
12609869333.333334 0.439835953804154 0.8980781334277197 -7.100963385947634e-17 -7.718063067631963e-17 -7.100963385947634e-17 -7.718063067631963e-17 0.4398353582148647 0.89807842511878
12610486666.666666 0.4489700922940438 0.8935467845755504 -7.178561520816142e-17 -7.643125330702485e-17 -7.178561520816142e-17 -7.643125330702485e-17 0.4489694997388699 0.8935470823096316
12611104000.0 0.45805755333296105 0.8889225375894392 -7.255369851769384e-17 -7.567408368664587e-17 -7.255369851769384e-17 -7.567408368664587e-17 0.4580569638732082 0.8889228413349974
12611721333.333334 0.46709739213745044 0.8842058732321448 -7.331380563978791e-17 -7.490920495288689e-17 -7.331380563978791e-17 -7.490920495288689e-17 0.4670968058340958 0.8842061829570137
12612338666.666666 0.4760886688752077 0.8793972818746141 -7.406585930026011e-17 -7.413670102614421e-17 -7.406585930026011e-17 -7.413670102614421e-17 0.47608808578889483 0.8793975975460092
12612956000.0 0.4850304487628151 0.8744972634449862 -7.480978310685736e-17 -7.335665660032664e-17 -7.480978310685736e-17 -7.335665660032664e-17 0.48502986895384687 0.8744975850295078
12613573333.333334 0.49392180216260045 0.8695063273767913 -7.55455015569698e-17 -7.256915713361676e-17 -7.55455015569698e-17 -7.256915713361676e-17 0.49392122569093344 0.8695066548404288
12614190666.666666 0.502761804679689 0.8644249925557741 -7.627294004528681e-17 -7.177428883911495e-17 -7.627294004528681e-17 -7.177428883911495e-17 0.5027612316049267 0.8644253258639083
12614808000.0 0.5115495372578818 0.8592537872660637 -7.699202487132515e-17 -7.097213867543649e-17 -7.699202487132515e-17 -7.097213867543649e-17 0.511548967639269 0.8592541263834725
12615425333.333334 0.520284086275258 0.8539932491352299 -7.770268324686154e-17 -7.016279433723216e-17 -7.770268324686154e-17 -7.016279433723216e-17 0.5202835201716747 0.8539935940260894
12616042666.666666 0.5289645436391589 0.8486439250783827 -7.840484330328368e-17 -6.934634424561471e-17 -7.840484330328368e-17 -6.934634424561471e-17 0.528963981109113 0.8486442757062732
12616660000.0 0.5375900068805975 0.8432063712413144 -7.909843409882103e-17 -6.85228775385343e-17 -7.909843409882103e-17 -6.85228775385343e-17 0.537589447982221 0.8432067275692232
12617277333.333334 0.5461595792481112 0.8376811529426651 -7.97833856256869e-17 -6.769248406106869e-17 -7.97833856256869e-17 -6.769248406106869e-17 0.5461590240391511 0.8376815149329898
12617894666.666666 0.5546723698008701 0.8320688446152246 -8.045962881710551e-17 -6.685525435565835e-17 -8.045962881710551e-17 -6.685525435565835e-17 0.5546718183386853 0.832069212229778
12618512000.0 0.5631274935015674 0.8263700297460387 -8.112709555426685e-17 -6.60112796522348e-17 -8.112709555426685e-17 -6.60112796522348e-17 0.5631269458431223 0.8263704029460543
12619129333.333334 0.5715240713081026 0.8205853008159708 -8.178571867313222e-17 -6.516065185833821e-17 -8.178571867313222e-17 -6.516065185833821e-17 0.5715235275099595 0.8205856795621038
12619746666.666666 0.5798612302652056 0.8147152592379426 -8.243543197118043e-17 -6.430346354911127e-17 -8.243543197118043e-17 -6.430346354911127e-17 0.5798606903835204 0.8147156434902754
12620364000.0 0.5881381035952176 0.8087605152943905 -8.307617021403098e-17 -6.343980795724947e-17 -8.307617021403098e-17 -6.343980795724947e-17 0.5881375676857334 0.8087609050124372
12620981333.333334 0.5963538307879027 0.80272168807403 -8.370786914194677e-17 -6.256977896290756e-17 -8.370786914194677e-17 -6.256977896290756e-17 0.5963532989059442 0.8027220832167408
12621598666.666666 0.6045075576902847 0.7965994054072312 -8.433046547626486e-17 -6.169347108349625e-17 -8.433046547626486e-17 -6.169347108349625e-17 0.6045070298907531 0.7965998059329962
12622216000.0 0.6125984365952397 0.7903943038008913 -8.494389692569424e-17 -6.081097946345114e-17 -8.494389692569424e-17 -6.081097946345114e-17 0.6125979129326055 0.7903947096675448
12622833333.333334 0.6206256263296971 0.7841070283722107 -8.554810219251945e-17 -5.992239986392284e-17 -8.554810219251945e-17 -5.992239986392284e-17 0.6206251068579963 0.7841074395370368
12623450666.666666 0.6285882923420035 0.7777382327816932 -8.614302097868596e-17 -5.902782865242014e-17 -8.614302097868596e-17 -5.902782865242014e-17 0.6285877771148308 0.7777386492014287
12624068000.0 0.6364856067888003 0.7712885791651006 -8.672859399179347e-17 -5.812736279237173e-17 -8.672859399179347e-17 -5.812736279237173e-17 0.6364850958593037 0.7712890007959402
12624685333.333334 0.6443167486211099 0.7647587380645927 -8.730476295097261e-17 -5.7221099832638e-17 -8.730476295097261e-17 -5.7221099832638e-17 0.6443162420419857 0.7647591648621938
12625302666.666666 0.6520809036694786 0.7581493883591958 -8.787147059263574e-17 -5.630913789699303e-17 -8.787147059263574e-17 -5.630913789699303e-17 0.6520804014929658 0.7581498202786833
12625920000.0 0.6597772647289498 0.7514612171939494 -8.842866067615735e-17 -5.539157567348723e-17 -8.842866067615735e-17 -5.539157567348723e-17 0.659776767006824 0.7514616541899195
12626537333.333334 0.6674050316427014 0.744694919908704 -8.897627798940007e-17 -5.446851240382477e-17 -8.897627798940007e-17 -5.446851240382477e-17 0.6674045384262706 0.74469536193523
12627154666.666666 0.6749634113852833 0.7378511999657982 -8.951426835415351e-17 -5.3540047872649104e-17 -8.951426835415351e-17 -5.3540047872649104e-17 0.6749629227253818 0.7378516469764349
12627772000.0 0.6824516181453136 0.7309307688766905 -9.004257863147607e-17 -5.260628239674926e-17 -9.004257863147607e-17 -5.260628239674926e-17 0.6824511340922977 0.7309312208244791
12628389333.333334 0.6898688734068017 0.7239343461283333 -9.056115672688085e-17 -5.166731681429151e-17 -9.056115672688085e-17 -5.166731681429151e-17 0.689868394010543 0.7239348029658066
12629006666.666666 0.6972144060304177 0.7168626591080608 -9.106995159545785e-17 -5.0723252473911816e-17 -9.106995159545785e-17 -5.0723252473911816e-17 0.6972139313402994 0.7168631207872475
12629624000.0 0.7044874523334369 0.709716443028179 -9.156891324684547e-17 -4.977419122382926e-17 -9.156891324684547e-17 -4.977419122382926e-17 0.704486982398348 0.7097169095006097
12630241333.333334 0.7116872561692618 0.7024964408494142 -9.205799275011205e-17 -4.882023540086622e-17 -9.205799275011205e-17 -4.882023540086622e-17 0.7116867910375921 0.7024969120661254
12630858666.666666 0.718813069005913 0.6952034032037877 -9.253714223850704e-17 -4.786148781945279e-17 -9.253714223850704e-17 -4.786148781945279e-17 0.7188126087255481 0.6952038791153274
12631476000.0 0.7258641500040696 0.6878380883163545 -9.300631491412098e-17 -4.6898051760540265e-17 -9.300631491412098e-17 -4.6898051760540265e-17 0.7258636946223868 0.6878385688727884
12632093333.333334 0.7328397660938342 0.6804012619266382 -9.346546505239799e-17 -4.593003096053272e-17 -9.346546505239799e-17 -4.593003096053272e-17 0.732839315657696 0.6804017470775531
12632710666.666666 0.7397391920510665 0.6728936972088998 -9.391454800655927e-17 -4.495752960012508e-17 -9.391454800655927e-17 -4.495752960012508e-17 0.7397387466068175 0.6728941869034101
12633328000.0 0.7465617105728773 0.6653161746916479 -9.435352021190837e-17 -4.398065229310054e-17 -9.435352021190837e-17 -4.398065229310054e-17 0.7465612701663379 0.6653166688784006
12633945333.333334 0.7533066123520273 0.6576694821766776 -9.478233919000293e-17 -4.299950407512421e-17 -9.478233919000293e-17 -4.299950407512421e-17 0.7533061770284906 0.6576699808038581
12634562666.666666 0.7599731961507904 0.6499544146570432 -9.520096355272802e-17 -4.201419039245927e-17 -9.520096355272802e-17 -4.201419039245927e-17 0.7599727659550155 0.6499549176723798
12635180000.0 0.7665607688737595 0.6421717742345099 -9.560935300624467e-17 -4.1024817090659954e-17 -9.560935300624467e-17 -4.1024817090659954e-17 0.7665603438499691 0.6421722815852801
12635797333.333334 0.7730686456400381 0.6343223700360141 -9.60074683548236e-17 -4.00314904032214e-17 -9.60074683548236e-17 -4.00314904032214e-17 0.773068225831912 0.6343228816690495
12636414666.666666 0.7794961498542939 0.6264070181297132 -9.639527150455607e-17 -3.9034316940206696e-17 -9.639527150455607e-17 -3.9034316940206696e-17 0.7794957353049672 0.6264075339914066
12637032000.0 0.7858426132772349 0.6184265414399946 -9.677272546695752e-17 -3.803340367681105e-17 -9.677272546695752e-17 -3.803340367681105e-17 0.7858422040292896 0.6184270614763029
12637649333.333334 0.7921073760950034 0.6103817696620014 -9.713979436244336e-17 -3.7028857941916634e-17 -9.713979436244336e-17 -3.7028857941916634e-17 0.7921069721904673 0.6103822938184538
12638266666.666666 0.7982897869877957 0.602273539175354 -9.749644342368577e-17 -3.6020787406614274e-17 -9.749644342368577e-17 -3.6020787406614274e-17 0.7982893884681374 0.6022740673970564
12638884000.0 0.8043892031975783 0.5941026929571958 -9.784263899886202e-17 -3.500930007266909e-17 -9.784263899886202e-17 -3.500930007266909e-17 0.8043888101037018 0.5941032251888367
12639501333.333334 0.8104049905949262 0.5858700804945274 -9.817834855477286e-17 -3.399450426097999e-17 -9.817834855477286e-17 -3.399450426097999e-17 0.8104046029671684 0.5858706166803848
12640118666.666666 0.8163365237448539 0.5775765576960303 -9.850354067984134e-17 -3.2976508600016115e-17 -9.850354067984134e-17 -3.2976508600016115e-17 0.8163361416229775 0.5775770977799746
12640736000.0 0.8221831859721155 0.5692229868026847 -9.881818508700982e-17 -3.195542201416607e-17 -9.881818508700982e-17 -3.195542201416607e-17 0.822182809395309 0.5692235307281883
12641353333.333334 0.8279443694248632 0.56081023629878 -9.912225261648213e-17 -3.093135371217302e-17 -9.912225261648213e-17 -3.093135371217302e-17 0.827943998431734 0.5608107840089209
12641970666.666666 0.8336194751382805 0.5523391808209914 -9.941571523838439e-17 -2.990441317541746e-17 -9.941571523838439e-17 -2.990441317541746e-17 0.8336191097668529 0.5523397322584601
12642588000.0 0.8392079130966301 0.5438107010677768 -9.969854605527878e-17 -2.887471014626319e-17 -9.969854605527878e-17 -2.887471014626319e-17 0.8392075533843376 0.5438112561748808
12643205333.333334 0.844709102294621 0.5352256837077637 -9.997071930456614e-17 -2.7842354616349166e-17 -9.997071930456614e-17 -2.7842354616349166e-17 0.844708748278308 0.5352262424264359
12643822666.666666 0.8501224707978825 0.5265850212874749 -1.0023221036076971e-16 -2.6807456814851082e-17 -1.0023221036076971e-16 -2.6807456814851082e-17 0.8501221225137964 0.5265855835592779
12644440000.0 0.8554474558023448 0.5178896121386523 -1.0048299573769063e-16 -2.5770127196747887e-17 -1.0048299573769063e-16 -2.5770127196747887e-17 0.8554471132861328 0.5178901779047846
12645057333.333334 0.8606835036927656 0.5091403602848362 -1.0072305309044749e-16 -2.473047643105219e-17 -1.0072305309044749e-16 -2.473047643105219e-17 0.8606831669794738 0.5091409294861401
12645674666.666666 0.8658300701002936 0.500338175347382 -1.0095236121739315e-16 -2.368861538902529e-17 -1.0095236121739315e-16 -2.368861538902529e-17 0.8658297392243604 0.5003387479243474
12646292000.0 0.8708866199591607 0.49148397245071673 -1.0117090006191441e-16 -2.2644655132355338e-17 -1.0117090006191441e-16 -2.2644655132355338e-17 0.870886294954413 0.4914845483434882
12646909333.333334 0.8758526275621215 0.4825786721275152 -1.013786507140971e-16 -2.1598706901377454e-17 -1.013786507140971e-16 -2.1598706901377454e-17 0.8758523084617748 0.48257925127589935
12647526666.666666 0.8807275766152578 0.47362320022275434 -1.0157559541228448e-16 -2.0550882103213566e-17 -1.0157559541228448e-16 -2.0550882103213566e-17 0.8807272634519094 0.47362378256622467
12648144000.0 0.8855109602916345 0.46461848779747755 -1.017617175445055e-16 -1.9501292299930617e-17 -1.017617175445055e-16 -1.9501292299930617e-17 0.8855106530972615 0.46461907327518154
12648761333.333334 0.8902022812839528 0.45556547103207234 -1.0193700164978105e-16 -1.8450049196693033e-17 -1.0193700164978105e-16 -1.8450049196693033e-17 0.8902019800899084 0.4555660595828373
12649378666.666666 0.8948010518562015 0.446465091129041 -1.0210143341930731e-16 -1.739726462990758e-17 -1.0210143341930731e-16 -1.739726462990758e-17 0.8948007566932129 0.4464656826913812
12649996000.0 0.8993067938945105 0.4373182942148716 -1.0225499969752435e-16 -1.6343050555315417e-17 -1.0225499969752435e-16 -1.6343050555315417e-17 0.8993065047926734 0.4373188887269935
12650613333.333334 0.9037190389567614 0.4281260312418468 -1.0239768848305321e-16 -1.5287519036128412e-17 -1.0239768848305321e-16 -1.5287519036128412e-17 0.9037187559455409 0.4281266286416573
12651230666.666666 0.9080373283212614 0.41888925788925924 -1.0252948892951376e-16 -1.423078223114726e-17 -1.0252948892951376e-16 -1.423078223114726e-17 0.9080370514294833 0.41888985811436996
12651848000.0 0.9122612130345475 0.40960893446379276 -1.0265039134622385e-16 -1.317295238283605e-17 -1.0265039134622385e-16 -1.317295238283605e-17 0.9122609422904019 0.40960953745152867
12652465333.333334 0.916390253957961 0.40028602579991795 -1.0276038719876982e-16 -1.2114141805448195e-17 -1.0276038719876982e-16 -1.2114141805448195e-17 0.9163899893889939 0.4002866314873224
12653082666.666666 0.9204240218132984 0.3909215011595817 -1.0285946910945785e-16 -1.1054462873123156e-17 -1.0285946910945785e-16 -1.1054462873123156e-17 0.9204237634464125 0.39092210948342376
12653700000.0 0.9243620972275611 0.3815163341311779 -1.0294763085764526e-16 -9.994028007952129e-18 -1.0294763085764526e-16 -9.994028007952129e-18 0.9243618450890113 0.38151694502795874
12654317333.333334 0.9282040707763939 0.37207150252869275 -1.0302486737994302e-16 -8.932949668113643e-18 -1.0302486737994302e-16 -8.932949668113643e-18 0.9282038248917844 0.37207211593465206
12654934666.666666 0.9319495430267646 0.362587988289784 -1.0309117477030202e-16 -7.871340335939656e-18 -1.0309117477030202e-16 -7.871340335939656e-18 0.9319493034210479 0.36258860414090693
12655552000.0 0.9355981245784982 0.353066777373666 -1.0314655027997417e-16 -6.809312506013033e-18 -1.0314655027997417e-16 -6.809312506013033e-18 0.9355978912759705 0.35306739560568956
12656169333.333334 0.939149436104626 0.34350885965894745 -1.031909923173499e-16 -5.746978673294794e-18 -1.031909923173499e-16 -5.746978673294794e-18 0.939149209128928 0.3435094802073681
12656786666.666666 0.9426031083909925 0.3339152288402962 -1.0322450044767665e-16 -4.684451321200241e-18 -1.0322450044767665e-16 -4.684451321200241e-18 0.9426028877651024 0.3339158516403751
12657404000.0 0.9459587823745406 0.3242868823253651 -1.0324707539265265e-16 -3.621842909724915e-18 -1.0324707539265265e-16 -3.621842909724915e-18 0.9459585681207757 0.324287507312136
12658021333.333334 0.9492161091806773 0.3146248211310176 -1.0325871902989965e-16 -2.559265863557158e-18 -1.0325871902989965e-16 -2.559265863557158e-18 0.9492159013206906 0.3146254482392935
12658638666.666666 0.9523747501594977 0.3049300497793908 -1.0325943439231326e-16 -1.4968325602195824e-18 -1.0325943439231326e-16 -1.4968325602195824e-18 0.9523745487142751 0.3049306789437704
12659256000.0 0.9554343769210841 0.29520357619319065 -1.0324922566729169e-16 -4.346553181761166e-19 -1.0324922566729169e-16 -4.346553181761166e-19 0.9554341819109408 0.29520420734806463
12659873333.333334 0.9583946713695605 0.2854464115911429 -1.0322809819584254e-16 6.271536149972218e-19 -1.0322809819584254e-16 6.271536149972218e-19 0.9583944828141434 0.2854470446707023
12660490666.666666 0.9612553257361763 0.27565957038286587 -1.031960584715687e-16 1.6884820744382755e-18 -1.031960584715687e-16 1.6884820744382755e-18 0.961255143654458 0.2756602053211076
12661108000.0 0.9640160426113751 0.2658440700631306 -1.0315311413953056e-16 2.7492179898875844e-18 -1.0315311413953056e-16 2.7492179898875844e-18 0.9640158670216539 0.265844706793865
12661725333.333334 0.9666765349756107 0.2560009311064611 -1.0309927399499098e-16 3.8092493974188985e-18 -1.0309927399499098e-16 3.8092493974188985e-18 0.9666763658955075 0.25600156956331843
12662342666.666666 0.9692365262292741 0.24613117686070995 -1.0303454798203441e-16 4.8684644513004604e-18 -1.0303454798203441e-16 4.8684644513004604e-18 0.969236363675732 0.24613181697714748
12662960000.0 0.9716957502213874 0.23623583344091312 -1.0295894719206904e-16 5.9267514357453885e-18 -1.0295894719206904e-16 5.9267514357453885e-18 0.9716955942106696 0.23623647515022242
12663577333.333334 0.9740539512773253 0.22631592962241737 -1.0287248386220571e-16 6.983998776678873e-18 -1.0287248386220571e-16 6.983998776678873e-18 0.9740538018250119 0.22631657285773038
12664194666.666666 0.9763108842253632 0.21637249673403147 -1.0277517137351763e-16 8.040095053479975e-18 -1.0277517137351763e-16 8.040095053479975e-18 0.9763107413463524 0.21637314142832853
12664812000.0 0.9784663144221785 0.20640656855077746 -1.0266702424917944e-16 9.094929010702603e-18 -1.0266702424917944e-16 9.094929010702603e-18 0.9784661781306837 0.2064072146368936
12665429333.333334 0.98052001777725 0.19641918118638524 -1.025480581524862e-16 1.0148389569777408e-17 -1.025480581524862e-16 1.0148389569777408e-17 0.9805198880867975 0.19641982859701723
12666046666.666666 0.9824717807761252 0.1864113729857112 -1.0241828988475399e-16 1.1200365840672899e-17 -1.0241828988475399e-16 1.1200365840672899e-17 0.9824716576995546 0.1864120216534249
12666664000.0 0.9843214005026821 0.1763841844164803 -1.0227773738309604e-16 1.2250747133578644e-17 -1.0227773738309604e-16 1.2250747133578644e-17 0.9843212840521437 0.17638483427371723
12667281333.333334 0.9860686846601476 0.16633865796150288 -1.0212641971808855e-16 1.329942297049009e-17 -1.0212641971808855e-16 1.329942297049009e-17 0.9860685748471023 0.1663393089405877
12667898666.666666 0.9877134515911461 0.15627583801001416 -1.0196435709130909e-16 1.4346283096836262e-17 -1.0196435709130909e-16 1.4346283096836262e-17 0.9877133484263625 0.15627649004316133
12668516000.0 0.9892555302965788 0.14619677074909232 -1.0179157083275839e-16 1.5391217493050017e-17 -1.0179157083275839e-16 1.5391217493050017e-17 0.9892554337901339 0.14619742376841335
12669133333.333334 0.9906947604533636 0.13610250405514396 -1.0160808339817058e-16 1.6434116386083265e-17 -1.0160808339817058e-16 1.6434116386083265e-17 0.990694670614642 0.13610315799265454
12669750666.666666 0.9920309924311522 0.12599408738465218 -1.0141391836619448e-16 1.7474870260946277e-17 -1.0141391836619448e-16 1.7474870260946277e-17 0.9920309092688434 0.12599474217227916
12670368000.0 0.9932640873078518 0.1158725716652942 -1.0120910043546523e-16 1.8513369872174955e-17 -1.0120910043546523e-16 1.8513369872174955e-17 0.9932640108299507 0.11587322723488261
