! Parameters = {f0=12700.012000; bw=77.238000; Q=6100.000000; N=10; m_0_1=1.326822; m_1_1=1.137582; m_1_2=1.161634; m_2_2=1.136933; m_2_3=0.798597; m_2_8=0.003405; m_2_9=0.040109; m_3_3=1.134996; m_3_4=0.687126; m_3_7=0.004005; m_3_8=-0.093083; m_3_9=0.003405; m_4_4=1.132071; m_4_5=0.523461; m_4_6=0.007522; m_4_7=-0.113632; m_4_8=0.004005; m_5_5=1.132453; m_5_6=0.930816; m_5_7=0.007522; m_6_6=1.132452; m_6_7=0.523803; m_7_7=1.132085; m_7_8=0.687244; m_8_8=1.134994; m_8_9=0.798910; m_9_9=1.136928; m_9_10=1.162712; m_10_10=1.137572; m_10_11=1.327617}
!
! Created with skrf (http://scikit-rf.org).
# Hz S RI R 50.0 
!freq ReS11 ImS11 ReS21 ImS21 ReS12 ImS12 ReS22 ImS22
12607400000.0 -0.5441744803641398 -0.8389720704053428 1.0909806900021359e-16 9.32774844629569e-17 1.0909806900021359e-16 9.32774844629569e-17 -0.5441738939723314 -0.8389724507507962
12608017333.333334 -0.5543714772385278 -0.8322693465604627 1.1021472889178863e-16 9.191150010189605e-17 1.1021472889178863e-16 9.191150010189605e-17 -0.5543708955600005 -0.8322697340140455
12608634666.666666 -0.5644859252859811 -0.8254426934402164 1.1131430067031068e-16 9.053216491356697e-17 1.1131430067031068e-16 9.053216491356697e-17 -0.5644853484068831 -0.8254430879435398
12609252000.0 -0.5745163184121184 -0.8184931275691892 1.123966249282826e-16 8.913969248467954e-17 1.123966249282826e-16 8.913969248467954e-17 -0.5745157464178774 -0.8184935290628244
12609869333.333334 -0.5844611630388062 -0.8114216837743085 1.134615449256652e-16 8.773429830253535e-17 1.134615449256652e-16 8.773429830253535e-17 -0.5844605960141122 -0.8114220921977884
12610486666.666666 -0.5943189783264393 -0.8042294150308262 1.1450890661248912e-16 8.631619972176046e-17 1.1450890661248912e-16 8.631619972176046e-17 -0.5943184163552342 -0.8042298303226594
12611104000.0 -0.604088296394701 -0.7969173923053471 1.1553855865110466e-16 8.488561593069696e-17 1.1553855865110466e-16 8.488561593069696e-17 -0.6040877395601673 -0.7969178144030253
12611721333.333334 -0.6137676625408176 -0.7894867043965897 1.165503524379146e-16 8.344276791766575e-17 1.165503524379146e-16 8.344276791766575e-17 -0.6137671109253634 -0.7894871332365969
12612338666.666666 -0.6233556354563987 -0.7819384577730889 1.1754414212480365e-16 8.198787843680928e-17 1.1754414212480365e-16 8.198787843680928e-17 -0.6233550891416478 -0.7819388932909118
12612956000.0 -0.6328507874420544 -0.7742737764084355 1.1851978464005841e-16 8.052117197379595e-17 1.1851978464005841e-16 8.052117197379595e-17 -0.6328502465088327 -0.7742742185385724
12613573333.333334 -0.6422517046197855 -0.7664938016140683 1.1947713970887918e-16 7.904287471125492e-17 1.1947713970887918e-16 7.904287471125492e-17 -0.6422511691481111 -0.7664942502900408
12614190666.666666 -0.6515569871437226 -0.7585996918691728 1.2041606987348915e-16 7.755321449392307e-17 1.2041606987348915e-16 7.755321449392307e-17 -0.6515564572127903 -0.7586001470235318
12614808000.0 -0.6607652494085385 -0.7505926226481842 1.2133644051277987e-16 7.605242079360279e-17 1.2133644051277987e-16 7.605242079360279e-17 -0.6607647250967132 -0.7505930842125258
12615425333.333334 -0.6698751202556726 -0.742473786245855 1.2223811986153088e-16 7.454072467387019e-17 1.2223811986153088e-16 7.454072467387019e-17 -0.669874601640473 -0.7424742541508258
12616042666.666666 -0.678885243177584 -0.7342443915996366 1.2312097902919985e-16 7.301835875454347e-17 1.2312097902919985e-16 7.301835875454347e-17 -0.678884730335673 -0.7342448657749453
12616660000.0 -0.6877942765197234 -0.7259056641096809 1.2398489201824987e-16 7.148555717596456e-17 1.2398489201824987e-16 7.148555717596456e-17 -0.6877937695268981 -0.7259061444841112
12617277333.333334 -0.6966008936803344 -0.7174588454563561 1.248297357420555e-16 6.994255556302682e-17 1.248297357420555e-16 6.994255556302682e-17 -0.6966003926115119 -0.7174593319577738
12617894666.666666 -0.7053037833078851 -0.7089051934154464 1.2565539004234053e-16 6.838959098903166e-17 1.2565539004234053e-16 6.838959098903166e-17 -0.7053032882370942 -0.7089056859708134
12618512000.0 -0.7139016494965639 -0.7002459816706509 1.264617377061996e-16 6.682690193927981e-17 1.264617377061996e-16 6.682690193927981e-17 -0.7139011604969328 -0.7002464802060342
12619129333.333334 -0.7223932119789591 -0.6914824996241989 1.2724866448262032e-16 6.52547282745531e-17 1.2724866448262032e-16 6.52547282745531e-17 -0.7223927291227051 -0.691483004064783
12619746666.666666 -0.730777206316884 -0.6826160522046775 1.280160590985956e-16 6.367331119432046e-17 1.280160590985956e-16 6.367331119432046e-17 -0.7307767296753023 -0.682616562474774
12620364000.0 -0.7390523840897476 -0.6736479596726074 1.287638132747713e-16 6.208289319976979e-17 1.287638132747713e-16 6.208289319976979e-17 -0.7390519137332023 -0.6736484756956693
12620981333.333334 -0.7472175130800887 -0.6645795574242528 1.294918217405927e-16 6.048371805674986e-17 1.294918217405927e-16 6.048371805674986e-17 -0.7472170490779988 -0.6645800791228812
12621598666.666666 -0.7552713774574218 -0.6554121957923702 1.3019998224906626e-16 5.88760307583738e-17 1.3019998224906626e-16 5.88760307583738e-17 -0.7552709198782556 -0.6554127230883309
12622216000.0 -0.7632127779591682 -0.646147239845267 1.308881955909914e-16 5.726007748759953e-17 1.308881955909914e-16 5.726007748759953e-17 -0.7632123268704298 -0.646147772659499
12622833333.333334 -0.7710405320691724 -0.6367860691835958 1.3155636560876596e-16 5.563610557955984e-17 1.3155636560876596e-16 5.563610557955984e-17 -0.7710400875373932 -0.6367866074362243
12623450666.666666 -0.7787534741937889 -0.6273300777349277 1.3220439920970673e-16 5.400436348377826e-17 1.3220439920970673e-16 5.400436348377826e-17 -0.7787530362845185 -0.6273306213452771
12624068000.0 -0.78635045583552 -0.6177806735461041 1.32832206378917e-16 5.23651007261936e-17 1.32832206378917e-16 5.23651007261936e-17 -0.7863500246133136 -0.6177812224327068
12624685333.333334 -0.7938303457640429 -0.6081392785735417 1.33439700191678e-16 5.071856787105186e-17 1.33439700191678e-16 5.071856787105186e-17 -0.7938299212924551 -0.6081398326541544
12625302666.666666 -0.8011920301844871 -0.5984073284717256 1.3402679682535207e-16 4.906501648270195e-17 1.3402679682535207e-16 4.906501648270195e-17 -0.8011916125260605 -0.5984078876633386
12625920000.0 -0.8084344129035416 -0.588586272379092 1.3459341557085501e-16 4.740469908714118e-17 1.3459341557085501e-16 4.740469908714118e-17 -0.8084340021197985 -0.5885868365979431
12626537333.333334 -0.8155564154924424 -0.5786775727025606 1.3513947884360065e-16 4.573786913357525e-17 1.3513947884360065e-16 4.573786913357525e-17 -0.8155560116438761 -0.5786781418641475
12627154666.666666 -0.8225569774476631 -0.5686827048996415 1.356649121940038e-16 4.406478095576283e-17 1.356649121940038e-16 4.406478095576283e-17 -0.8225565805937278 -0.568683278918734
12627772000.0 -0.8294350563489249 -0.55860315725859 1.36169644317516e-16 4.238568973320232e-17 1.36169644317516e-16 4.238568973320232e-17 -0.8294346665480268 -0.5586037360492425
12628389333.333334 -0.8361896280141723 -0.5484404306771413 1.3665360706413448e-16 4.0700851452356826e-17 1.3665360706413448e-16 4.0700851452356826e-17 -0.8361892453236636 -0.5484410141527073
12629006666.666666 -0.842819686652389 -0.5381960384385763 1.3711673544748484e-16 3.901052286760228e-17 1.3711673544748484e-16 3.901052286760228e-17 -0.8428193111285559 -0.5381966265117192
12629624000.0 -0.8493242450130898 -0.5278715059867827 1.3755896765338466e-16 3.7314961462199057e-17 1.3755896765338466e-16 3.7314961462199057e-17 -0.8493238767111465 -0.5278720985694901
12630241333.333334 -0.8557023345334879 -0.5174683706988741 1.3798024504794497e-16 3.561442540909861e-17 1.3798024504794497e-16 3.561442540909861e-17 -0.8557019735075682 -0.5174689677024712
12630858666.666666 -0.8619530054826136 -0.5069881816564347 1.3838051218517518e-16 3.3909173531712265e-17 1.3838051218517518e-16 3.3909173531712265e-17 -0.8619526517857623 -0.5069887829915966
12631476000.0 -0.8680753271028945 -0.49643249941458456 1.3875971681412436e-16 3.2199465264510573e-17 1.3875971681412436e-16 3.2199465264510573e-17 -0.8680749807870602 -0.49643310499135035
12632093333.333334 -0.8740683877485601 -0.48580289576992214 1.3911780988550653e-16 3.0485560613675694e-17 1.3911780988550653e-16 3.0485560613675694e-17 -0.874068048864587 -0.48580350549770823
12632710666.666666 -0.87993129502148 -0.4751009535263298 1.394547455578617e-16 2.876772011759243e-17 1.394547455578617e-16 2.876772011759243e-17 -0.8799309636191025 -0.4751015673139439
12633328000.0 -0.8856631759041179 -0.4643282662591625 1.3977048120323678e-16 2.704620480723837e-17 1.3977048120323678e-16 2.704620480723837e-17 -0.8856628520319481 -0.4643288840148152
12633945333.333334 -0.8912631768893946 -0.45348643807817546 1.4006497741235114e-16 2.5321276166645844e-17 1.4006497741235114e-16 2.5321276166645844e-17 -0.8912628605949219 -0.45348705970949715
12634562666.666666 -0.8967304641078594 -0.4425770833885444 1.4033819799929894e-16 2.359319609319619e-17 1.4033819799929894e-16 2.359319609319619e-17 -0.8967301554374383 -0.4425777088025965
12635180000.0 -0.902064223451824 -0.43160182665051927 1.4059011000575258e-16 2.1862226857914526e-17 1.4059011000575258e-16 2.1862226857914526e-17 -0.9020639224506705 -0.4316024557538094
12635797333.333334 -0.9072636606966653 -0.42056230213738144 1.4082068370467904e-16 2.0128631065711695e-17 1.4082068370467904e-16 2.0128631065711695e-17 -0.9072633674088478 -0.42056293483587665
12636414666.666666 -0.912328001618904 -0.40946015369247574 1.41029892603565e-16 1.8392671615611476e-17 1.41029892603565e-16 1.8392671615611476e-17 -0.9123277160873392 -0.4094607898916175
12637032000.0 -0.917256492111734 -0.3982970344839204 1.4121771344715612e-16 1.6654611660912705e-17 1.4121771344715612e-16 1.6654611660912705e-17 -0.91725621437818 -0.3982976740886382
12637649333.333334 -0.9220483982971323 -0.3870746067588272 1.4138412621970448e-16 1.4914714569348725e-17 1.4138412621970448e-16 1.4914714569348725e-17 -0.9220481284021814 -0.38707524967355256
12638266666.666666 -0.9267030066352107 -0.3757945415956303 1.41529114146723e-16 1.3173243883249982e-17 1.41529114146723e-16 1.3173243883249982e-17 -0.9267027446182827 -0.3757951877243107
12638884000.0 -0.9312196240304478 -0.3644585186552775 1.4165266369625435e-16 1.1430463279659786e-17 1.4165266369625435e-16 1.1430463279659786e-17 -0.9312193699297888 -0.3644591679013924
12639501333.333334 -0.9355975779349137 -0.3530682259310967 1.4175476457964819e-16 9.686636530461345e-18 1.4175476457964819e-16 9.686636530461345e-18 -0.9355973317875846 -0.3530688781976698
12640118666.666666 -0.9398362164483365 -0.3416253594976275 1.4183540975184572e-16 7.942027462534217e-18 1.4183540975184572e-16 7.942027462534217e-18 -0.9398359782902121 -0.3416260146872429
12640736000.0 -0.9439349084153893 -0.33013162325751033 1.4189459541118136e-16 6.196899917805193e-18 1.4189459541118136e-16 6.196899917805193e-18 -0.94393467828115 -0.3301322812723259
12641353333.333334 -0.9478930435193335 -0.31858872868867116 1.4193232099868346e-16 4.451517713534276e-18 1.4193232099868346e-16 4.451517713534276e-18 -0.947892821442462 -0.31858938943043397
12641970666.666666 -0.9517100323732027 -0.3069983945886468 1.4194858919689782e-16 2.7061446023618003e-18 1.4194858919689782e-16 2.7061446023618003e-18 -0.9517098183859796 -0.30699905795870763
12642588000.0 -0.9553853066074196 -0.29536234681904755 1.4194340592821414e-16 9.610442325462488e-19 1.4194340592821414e-16 9.610442325462488e-19 -0.9553851007409174 -0.2953630127183753
12643205333.333334 -0.9589183189544428 -0.2836823180485416 1.4191678035270655e-16 -7.835198917948511e-19 1.4191678035270655e-16 -7.835198917948511e-19 -0.9589181212385216 -0.28368298637773826
12643822666.666666 -0.9623085433303219 -0.27196004749463387 1.4186872486548581e-16 -2.52728445045515e-18 1.4186872486548581e-16 -2.52728445045515e-18 -0.9623083537936251 -0.27196071815394923
12644440000.0 -0.9655554749129411 -0.26019728066498543 1.4179925509356432e-16 -4.269986346809918e-18 1.4179925509356432e-16 -4.269986346809918e-18 -0.9655552935828925 -0.2601979535543323
12645057333.333334 -0.968658630217239 -0.24839576909736485 1.4170838989223478e-16 -6.01136274746551e-18 1.4170838989223478e-16 -6.01136274746551e-18 -0.9686584571200365 -0.24839644411633358
12645674666.666666 -0.9716175471671885 -0.23655727009886068 1.4159615134096173e-16 -7.751151121849528e-18 1.4159615134096173e-16 -7.751151121849528e-18 -0.9716173823278025 -0.23655794714673448
12646292000.0 -0.9744317851646533 -0.22468354648401678 1.4146256473878655e-16 -9.489089281767975e-18 1.4146256473878655e-16 -9.489089281767975e-18 -0.9744316286068222 -0.22468422545978653
12646909333.333334 -0.9771009251549059 -0.21277636631269864 1.4130765859925351e-16 -1.1224915420814818e-17 1.4130765859925351e-16 -1.1224915420814818e-17 -0.977100776901132 -0.21277704711507797
12647526666.666666 -0.9796245696890933 -0.20083750262654332 1.4113146464484611e-16 -1.2958368153797002e-17 1.4113146464484611e-16 -1.2958368153797002e-17 -0.9796244297606416 -0.20083818515398405
12648144000.0 -0.9820023429834128 -0.18886873318497246 1.409340178009422e-16 -1.468918655605625e-17 1.409340178009422e-16 -1.468918655605625e-17 -0.9820022114003049 -0.18886941733567905
12648761333.333334 -0.9842338909750407 -0.17687184020058438 1.4071535618929293e-16 -1.6417110202653877e-17 1.4071535618929293e-16 -1.6417110202653877e-17 -0.9842337677560549 -0.17687252587252975
12649378666.666666 -0.9863188813748591 -0.1648486100737746 1.4047552112101726e-16 -1.8141879207521093e-17 1.4047552112101726e-16 -1.8141879207521093e-17 -0.9863187665375265 -0.16484929716471522
12649996000.0 -0.9882570037169583 -0.15280083312662004 1.4021455708911535e-16 -1.986323426251243e-17 1.4021455708911535e-16 -1.986323426251243e-17 -0.9882568972775596 -0.15280152153411095
12650613333.333334 -0.9900479694048672 -0.14073030333623293 1.3993251176050979e-16 -2.1580916676328825e-17 1.3993251176050979e-16 -2.1580916676328825e-17 -0.9900478713784315 -0.14073099295764316
12651230666.666666 -0.9916915117544692 -0.1286388180680509 1.3962943596760975e-16 -2.3294668413328346e-17 1.3962943596760975e-16 -2.3294668413328346e-17 -0.9916914221547716 -0.12863950880057876
12651848000.0 -0.9931873860338067 -0.11652817780752385 1.3930538369939387e-16 -2.5004232132274515e-17 1.3930538369939387e-16 -2.5004232132274515e-17 -0.9931873048733677 -0.11652886954821243
12652465333.333334 -0.9945353694994482 -0.10440018589257612 1.3896041209202707e-16 -2.6709351224912917e-17 1.3896041209202707e-16 -2.6709351224912917e-17 -0.9945352967895278 -0.10440087853832812
12653082666.666666 -0.9957352614296725 -0.09225664824493855 1.3859458141901228e-16 -2.84097698543946e-17 1.3859458141901228e-16 -2.84097698543946e-17 -0.9957351971802727 -0.09225734169253214
12653700000.0 -0.9967868831543877 -0.08009937310098354 1.382079550808453e-16 -3.010523299370612e-17 1.382079550808453e-16 -3.010523299370612e-17 -0.9967868273742492 -0.08010006724708744
12654317333.333334 -0.9976900780816927 -0.06793017074286443 1.378005995942396e-16 -3.1795486463769096e-17 1.378005995942396e-16 -3.1795486463769096e-17 -0.9976900307782958 -0.06793086548405368
12654934666.666666 -0.9984447117212268 -0.05575085322867282 1.3737258458085338e-16 -3.348027697155444e-17 1.3737258458085338e-16 -3.348027697155444e-17 -0.9984446729007874 -0.05575154846144372
12655552000.0 -0.9990506717041868 -0.04356323412261261 1.369239827555637e-16 -3.51593521479847e-17 1.369239827555637e-16 -3.51593521479847e-17 -0.999050641371658 -0.04356392974339848
12656169333.333334 -0.9995078678000484 -0.03136912822520658 1.364548699142877e-16 -3.683246058565133e-17 1.364548699142877e-16 -3.683246058565133e-17 -0.9995078459591185 -0.03136982413039305
12656786666.666666 -0.9998162319300167 -0.019170351302807653 1.3596532492132475e-16 -3.8499351876441923e-17 1.3596532492132475e-16 -3.8499351876441923e-17 -0.9998162185831089 -0.01917104738874807
12657404000.0 -0.9999757181771552 -0.006968719817249873 1.3545542969625046e-16 -4.015977664896297e-17 1.3545542969625046e-16 -4.015977664896297e-17 -0.9999757133254302 -0.006969415980280853
12658021333.333334 -0.9999863027932271 0.005233949344546854 1.349252692003563e-16 -4.1813486605783716e-17 1.349252692003563e-16 -4.1813486605783716e-17 -0.9999863064365777 0.005233253208090119
12658638666.666666 -0.9998479842022291 0.01743583914095035 1.3437493142264012e-16 -4.3460234560492244e-17 1.3437493142264012e-16 -4.3460234560492244e-17 -0.9998479963392841 0.017435143134718573
12659256000.0 -0.9995607830006233 0.029635132646723062 1.3380450736531398e-16 -4.5099774474664723e-17 1.3380450736531398e-16 -4.5099774474664723e-17 -0.9995608036287487 0.029634436874337502
12659873333.333334 -0.9991247419542786 0.04183001332303193 1.3321409102890906e-16 -4.673186149450165e-17 1.3321409102890906e-16 -4.673186149450165e-17 -0.9991247710695738 0.041829317888068866
12660490666.666666 -0.9985399259920975 0.05401866528808258 1.3260377939690446e-16 -4.835625198736279e-17 1.3260377939690446e-16 -4.835625198736279e-17 -0.9985399635893994 0.05401797029405796
12661108000.0 -0.99780642219634 0.06619927358776918 1.319736724199054e-16 -4.9972703578118156e-17 1.319736724199054e-16 -4.9972703578118156e-17 -0.9978064682692241 0.06619857913812326
12661725333.333334 -0.9969243397896757 0.07837002446553337 1.313238729994109e-16 -5.158097518520832e-17 1.313238729994109e-16 -5.158097518520832e-17 -0.9969243943304558 0.07836933066361523
12662342666.666666 -0.9958938101189011 0.09052910563275404 1.3065448697110894e-16 -5.318082705658564e-17 1.3065448697110894e-16 -5.318082705658564e-17 -0.9958938731186306 0.09052841258180626
12662960000.0 -0.9947149866353928 0.10267470653846507 1.2996562308775008e-16 -5.4772020805399066e-17 1.2996562308775008e-16 -5.4772020805399066e-17 -0.9947150580838657 0.10267401434160828
12663577333.333334 -0.9933880448722535 0.11480501863895554 1.2925739300159406e-16 -5.635431944544456e-17 1.2925739300159406e-16 -5.635431944544456e-17 -0.9933881247580083 0.1148043273991732
12664194666.666666 -0.9919131824181677 0.12691823566718474 1.2852991124641158e-16 -5.792748742642332e-17 1.2852991124641158e-16 -5.792748742642332e-17 -0.9919132707284878 0.12691754548730788
12664812000.0 -0.9902906188879967 0.13901255390157544 1.2778329521906561e-16 -5.9491290668951e-17 1.2778329521906561e-16 -5.9491290668951e-17 -0.9902907156089099 0.13901186488426692
12665429333.333334 -0.9885205958900553 0.1510861724347377 1.2701766516066404e-16 -6.104549659933839e-17 1.2701766516066404e-16 -6.104549659933839e-17 -0.9885207010063417 0.15108548468247773
12666046666.666666 -0.9866033769901676 0.16313729344146607 1.2623314413730113e-16 -6.25898741841097e-17 1.2623314413730113e-16 -6.25898741841097e-17 -0.9866034904853572 0.1631366070565362
12666664000.0 -0.9845392476723657 0.1751641224467528 1.2542985802035141e-16 -6.412419396433222e-17 1.2542985802035141e-16 -6.412419396433222e-17 -0.984539369528743 0.17516343753122116
12667281333.333334 -0.9823285152964475 0.18716486859260267 1.246079354663921e-16 -6.56482280896053e-17 1.246079354663921e-16 -6.56482280896053e-17 -0.9823286454950532 0.18716418524830858
12667898666.666666 -0.9799715090521601 0.199137744904981 1.2376750789667197e-16 -6.716175035187545e-17 1.2376750789667197e-16 -6.716175035187545e-17 -0.9799716475727946 0.1991370632335199
12668516000.0 -0.97746857991018 0.21108096855990333 1.2290870947617814e-16 -6.866453621897175e-17 1.2290870947617814e-16 -6.866453621897175e-17 -0.9774687267314066 0.21108028866261158
12669133333.333334 -0.9748201005698991 0.22299276114865552 1.2203167709233434e-16 -7.015636286780904e-17 1.2203167709233434e-16 -7.015636286780904e-17 -0.9748202556690491 0.22299208312659596
12669750666.666666 -0.9720264654038782 0.23487134894288836 1.2113655033324062e-16 -7.163700921742178e-17 1.2113655033324062e-16 -7.163700921742178e-17 -0.9720266287570507 0.2348706728968343
