! Parameters = {f0=12700.012000; bw=77.238000; Q=6100.000000; N=10; m_0_1=1.251947; m_1_1=0.014459; m_1_2=1.086759; m_2_2=0.013810; m_2_3=0.723722; m_2_8=-0.000339; m_2_9=0.036365; m_3_3=0.011873; m_3_4=0.612251; m_3_7=0.000261; m_3_8=-0.096827; m_3_9=-0.000339; m_4_4=0.008948; m_4_5=0.448586; m_4_6=0.003778; m_4_7=-0.117376; m_4_8=0.000261; m_5_5=0.009330; m_5_6=0.855941; m_5_7=0.003778; m_6_6=0.009329; m_6_7=0.448928; m_7_7=0.008962; m_7_8=0.612369; m_8_8=0.011871; m_8_9=0.724035; m_9_9=0.013805; m_9_10=1.087837; m_10_10=0.014449; m_10_11=1.252742}
!
! Created with skrf (http://scikit-rf.org).
# Hz S RI R 50.0 
!freq ReS11 ImS11 ReS21 ImS21 ReS12 ImS12 ReS22 ImS22
12607400000.0 0.6264326488696647 -0.7794755521695115 -3.849105800623499e-17 9.391759386679155e-17 -3.849105800623499e-17 9.391759386679155e-17 0.626433163037051 -0.7794751389539141
12608017333.333334 0.6186151471009131 -0.7856941515482626 -3.753527125531826e-17 9.428226071035685e-17 -3.753527125531826e-17 9.428226071035685e-17 0.6186156653449163 -0.7856937435093236
12608634666.666666 0.6107359172472017 -0.7918343509750306 -3.657604625511164e-17 9.463720821906353e-17 -3.657604625511164e-17 9.463720821906353e-17 0.6107364395157123 -0.7918339481529568
12609252000.0 0.6027957455321293 -0.797895537754282 -3.5613481765052964e-17 9.498240415325542e-17 -3.5613481765052964e-17 9.498240415325542e-17 0.6027962717726411 -0.797895140188755
12609869333.333334 0.5947954242602437 -0.8038771070747726 -3.464767684497984e-17 9.531781727602219e-17 -3.464767684497984e-17 9.531781727602219e-17 0.5947959544198604 -0.8038767148049479
12610486666.666666 0.5867357517382356 -0.8097784620697174 -3.3678730844961525e-17 9.564341735597667e-17 -3.3678730844961525e-17 9.564341735597667e-17 0.5867362857636743 -0.8097780751342164
12611104000.0 0.5786175321949565 -0.8155990138765785 -3.2706743395061354e-17 9.595917516994244e-17 -3.2706743395061354e-17 9.595917516994244e-17 0.578618070032554 -0.8155986323134874
12611721333.333334 0.5704415757014232 -0.8213381816956432 -3.1731814395170557e-17 9.62650625055066e-17 -3.1731814395170557e-17 9.62650625055066e-17 0.5704421172971413 -0.821337805542508
12612338666.666666 0.5622086980898948 -0.8269953928480462 -3.075404400471207e-17 9.656105216350448e-17 -3.075404400471207e-17 9.656105216350448e-17 0.5622092433893251 -0.8269950221418692
12612956000.0 0.553919720872392 -0.8325700828329584 -2.97735326323901e-17 9.684711796037696e-17 -2.97735326323901e-17 9.684711796037696e-17 0.5539202698207628 -0.832569717610196
12613573333.333334 0.5455754711588668 -0.8380616953838237 -2.879038092591633e-17 9.712323473042675e-17 -2.879038092591633e-17 9.712323473042675e-17 0.545576023701047 -0.8380613356803805
12614190666.666666 0.5371767815745739 -0.8434696825239253 -2.780468976166299e-17 9.738937832798481e-17 -2.780468976166299e-17 9.738937832798481e-17 0.537177337655079 -0.8434693283751521
12614808000.0 0.5287244901770358 -0.8487935046210365 -2.6816560234366107e-17 9.764552562945271e-17 -2.6816560234366107e-17 9.764552562945271e-17 0.5287250497400344 -0.8487931560617265
12615425333.333334 0.5202194403723228 -0.8540326304413286 -2.5826093646752387e-17 9.789165453525683e-17 -2.5826093646752387e-17 9.789165453525683e-17 0.5202200033616414 -0.854032287505714
12616042666.666666 0.5116624808310616 -0.8591865372022723 -2.4833391499193408e-17 9.812774397168566e-17 -2.4833391499193408e-17 9.812774397168566e-17 0.5116630471901896 -0.8591861999240202
12616660000.0 0.5030544654035576 -0.8642547106249232 -2.3838555479316108e-17 9.835377389262978e-17 -2.3838555479316108e-17 9.835377389262978e-17 0.5030550350756544 -0.8642543790371331
12617277333.333334 0.4943962530347397 -0.8692366449851489 -2.2841687451595452e-17 9.856972528121739e-17 -2.2841687451595452e-17 9.856972528121739e-17 0.49439682596264006 -0.8692363191203505
12617894666.666666 0.4856887076785036 -0.8741318431640696 -2.1842889446977988e-17 9.877558015133411e-17 -2.1842889446977988e-17 9.877558015133411e-17 0.4856892838047217 -0.8741315230542166
12618512000.0 0.4769326982111529 -0.8789398166978538 -2.084226365240564e-17 9.897132154905716e-17 -2.084226365240564e-17 9.897132154905716e-17 0.4769332774778911 -0.8789395023743247
12619129333.333334 0.4681290983451974 -0.8836600858261845 -1.983991240044019e-17 9.915693355396008e-17 -1.983991240044019e-17 9.915693355396008e-17 0.46812968069434907 -0.8836597773197755
12619746666.666666 0.4592787865418467 -0.8882921795403118 -1.883593815878135e-17 9.933240128033196e-17 -1.883593815878135e-17 9.933240128033196e-17 0.4592793719150035 -0.8882918768812358
12620364000.0 0.4503826459232754 -0.8928356356300852 -1.7830443519803302e-17 9.9497710878285e-17 -1.7830443519803302e-17 9.9497710878285e-17 0.4503832342617336 -0.8928353388479696
12620981333.333334 0.4414415641848816 -0.8972900007298831 -1.6823531190136456e-17 9.965284953474695e-17 -1.6823531190136456e-17 9.965284953474695e-17 0.4414421554296471 -0.897289709853766
12621598666.666666 0.4324564335063805 -0.9016548303640205 -1.581530398014555e-17 9.979780547436539e-17 -1.581530398014555e-17 9.979780547436539e-17 0.43245702759817484 -0.9016545454223474
12622216000.0 0.42342815046282695 -0.9059296889910704 -1.4805864793486127e-17 9.993256796029088e-17 -1.4805864793486127e-17 9.993256796029088e-17 0.42342874734209385 -0.905929410011693
12622833333.333334 0.41435761593525583 -0.9101141500472782 -1.3795316616607605e-17 1.0005712729486319e-16 -1.3795316616607605e-17 1.0005712729486319e-16 0.41435821554216595 -0.9101138770574488
12623450666.666666 0.4052457350208127 -0.914207795989112 -1.2783762508269013e-17 1.0017147482018879e-16 -1.2783762508269013e-17 1.0017147482018879e-16 0.4052463372952708 -0.9142075290154835
12624068000.0 0.39609341694223443 -0.9182102183350249 -1.1771305589051478e-17 1.0027560291861252e-16 -1.1771305589051478e-17 1.0027560291861252e-16 0.3960940218238851 -0.9182099574036474
12624685333.333334 0.38690157495725025 -0.9221210177061515 -1.0758049030854294e-17 1.0036950501308518e-16 -1.0758049030854294e-17 1.0036950501308518e-16 0.38690218238548374 -0.9221207628424697
12625302666.666666 0.37767112626763694 -0.9259398038660847 -9.744096046421348e-18 1.0045317556742255e-16 -9.744096046421348e-18 1.0045317556742255e-16 0.3776717361815956 -0.9259395550949359
12625920000.0 0.36840299192722575 -0.9296661957600143 -8.729549878824494e-18 1.0052661008646157e-16 -8.729549878824494e-18 1.0052661008646157e-16 0.3684036042658094 -0.9296659531056246
12626537333.333334 0.3590980967505192 -0.9332998215525297 -7.714513790988166e-18 1.0058980511610866e-16 -7.714513790988166e-18 1.0058980511610866e-16 0.359098711452392 -0.9332995850385128
12627154666.666666 0.34975736922017453 -0.9368403186648249 -6.699091055201668e-18 1.0064275824328304e-16 -6.699091055201668e-18 1.0064275824328304e-16 0.3497579862237711 -0.9368400883141803
12627772000.0 0.34038174139411576 -0.9402873338109676 -5.6833849426060086e-18 1.0068546809575576e-16 -5.6833849426060086e-18 1.0068546809575576e-16 0.3403823606376464 -0.9402871096460762
12628389333.333334 0.3309721488130866 -0.9436405230329381 -4.667498712742248e-18 1.0071793434188091e-16 -4.667498712742248e-18 1.0071793434188091e-16 0.3309727702345446 -0.9436403050755624
12629006666.666666 0.3215295304066856 -0.9468995517351801 -3.651535603050648e-18 1.0074015769022239e-16 -3.651535603050648e-18 1.0074015769022239e-16 0.3215301539438529 -0.9468993400064607
12629624000.0 0.31205482840015664 -0.9500640947178128 -2.635598818407754e-18 1.0075213988907603e-16 -2.635598818407754e-18 1.0075213988907603e-16 0.31205545399061047 -0.9500638892382672
12630241333.333334 0.30254898822012927 -0.9531338362091686 -1.619791520665059e-18 1.0075388372588435e-16 -1.619791520665059e-18 1.0075388372588435e-16 0.3025496158012475 -0.9531336369986878
12630858666.666666 0.293012958400359 -0.9561084698972697 -6.042168182019219e-19 1.0074539302654819e-16 -6.042168182019219e-19 1.0074539302654819e-16 0.29301358790932774 -0.9561082769751191
12631476000.0 0.2834476904869456 -0.9589876989604438 4.1102224456072407e-19 1.0072667265463209e-16 4.1102224456072407e-19 1.0072667265463209e-16 0.283448321860764 -0.9589875123452574
12632093333.333334 0.273854138943652 -0.9617712360968488 1.4258226975415645e-18 1.0069772851046468e-16 1.4258226975415645e-18 1.0069772851046468e-16 0.27385477211913994 -0.9617710558066315
12632710666.666666 0.26423326105642214 -0.9644588035532246 2.440081655448675e-18 1.006585675301349e-16 2.440081655448675e-18 1.006585675301349e-16 0.2642338959702258 -0.9644586296053475
12633328000.0 0.25458601683788434 -0.9670501331525941 3.4536963282137074e-18 1.0060919768438208e-16 3.4536963282137074e-18 1.0060919768438208e-16 0.25458665342648207 -0.9670499655637931
12633945333.333334 0.24491336893172055 -0.9695449663209771 4.4665640313436744e-18 1.0054962797738323e-16 4.4665640313436744e-18 1.0054962797738323e-16 0.24491400713143036 -0.9695448051073525
12634562666.666666 0.23521628251639184 -0.9719430541132532 5.478582196340939e-18 1.0047986844543443e-16 5.478582196340939e-18 1.0047986844543443e-16 0.23521692226337731 -0.9719428992902691
12635180000.0 0.22549572520904795 -0.9742441572379456 6.489648381047282e-18 1.0039993015552892e-16 6.489648381047282e-18 1.0039993015552892e-16 0.2254963664393241 -0.9742440088204248
12635797333.333334 0.21575266696872586 -0.9764480460811586 7.49966028000544e-18 1.0030982520383065e-16 7.49966028000544e-18 1.0030982520383065e-16 0.215753309618166 -0.9764479040832834
12636414666.666666 0.20598807999986712 -0.9785545007294164 8.508515734788402e-18 1.0020956671404418e-16 8.508515734788402e-18 1.0020956671404418e-16 0.2059887240042098 -0.9785543651647297
12637032000.0 0.19620293865505953 -0.9805633109916712 9.51611274431262e-18 1.0009916883568073e-16 9.51611274431262e-18 1.0009916883568073e-16 0.19620358394991363 -0.9805631818730698
12637649333.333334 0.18639821933783693 -0.9824742764202598 1.0522349475128363e-17 9.997864674222123e-17 1.0522349475128363e-17 9.997864674222123e-17 0.18639886585868934 -0.9824741537599977
12638266666.666666 0.17657490040539062 -0.9842872063308836 1.1527124271703243e-17 9.98480166291746e-17 1.1527124271703243e-17 9.98480166291746e-17 0.17657554808761217 -0.9842870901405693
12638884000.0 0.16673396207086053 -0.9860019198216516 1.2530335666652466e-17 9.970729571203673e-17 1.2530335666652466e-17 9.970729571203673e-17 0.1667346108497122 -0.9860018101122456
12639501333.333334 0.1568763863054128 -0.9876182457911481 1.3531882390991308e-17 9.955650222414087e-17 1.3531882390991308e-17 9.955650222414087e-17 0.15687703611605283 -0.9876181425729647
12640118666.666666 0.14700315674059167 -0.9891360229554528 1.4531663384298393e-17 9.939565541441463e-17 1.4531663384298393e-17 9.939565541441463e-17 0.1470038075180815 -0.9891359262381569
12640736000.0 0.13711525856963477 -0.990555099864319 1.5529577804961172e-17 9.922477554501892e-17 1.5529577804961172e-17 9.922477554501892e-17 0.1371159102489458 -0.9905550096569261
12641353333.333334 0.12721367844975623 -0.9918753349161934 1.652552504024e-17 9.904388388890893e-17 1.652552504024e-17 9.904388388890893e-17 0.12721433096577614 -0.9918752512270683
12641970666.666666 0.11729940440327222 -0.9930965963724112 1.7519404716460142e-17 9.885300272726892e-17 1.7519404716460142e-17 9.885300272726892e-17 0.11730005769081148 -0.993096519209267
12642588000.0 0.10737342571920849 -0.9942187623703096 1.8511116709088072e-17 9.865215534685925e-17 1.8511116709088072e-17 9.865215534685925e-17 0.1073740797130073 -0.9942186917402099
12643205333.333334 0.09743673285447288 -0.9952417209354093 1.9500561152784434e-17 9.844136603726285e-17 1.9500561152784434e-17 9.844136603726285e-17 0.09743738748920702 -0.9952416568447625
12643822666.666666 0.0874903173350785 -0.9961653699925714 2.0487638451460183e-17 9.82206600880233e-17 2.0487638451460183e-17 9.82206600880233e-17 0.08749097254536628 -0.9961653124471338
12644440000.0 0.07753517165726241 -0.996989617376184 2.1472249288276465e-17 9.799006378568863e-17 2.1472249288276465e-17 9.799006378568863e-17 0.07753582737767112 -0.9969895663810577
12645057333.333334 0.06757228918833648 -0.9977143808393648 2.2454294635603756e-17 9.774960441075613e-17 2.2454294635603756e-17 9.774960441075613e-17 0.067572945353389 -0.9977143363990004
12645674666.666666 0.057602664067735385 -0.9983395880621632 2.3433675764970197e-17 9.749931023451316e-17 2.3433675764970197e-17 9.749931023451316e-17 0.05760332061191645 -0.9983395501803535
12646292000.0 0.0476272911075331 -0.998865176658786 2.4410294256994936e-17 9.723921051577372e-17 2.4410294256994936e-17 9.723921051577372e-17 0.04762794796529609 -0.9988651453386712
12646909333.333334 0.037647165693460036 -0.9992910941838112 2.538405201120312e-17 9.69693354975358e-17 2.538405201120312e-17 9.69693354975358e-17 0.03764782279923346 -0.9992910694278757
12647526666.666666 0.027663283685494203 -0.9996172981374254 2.635485125590989e-17 9.668971640351468e-17 2.635485125590989e-17 9.668971640351468e-17 0.027663940973688166 -0.9996172799474975
12648144000.0 0.01767664131829097 -0.9998437559696687 2.7322594557992413e-17 9.640038543459639e-17 2.7322594557992413e-17 9.640038543459639e-17 0.017677298723303852 -0.9998437443469236
12648761333.333334 0.007688235102087118 -0.9999704450836762 2.828718483265981e-17 9.610137576518471e-17 2.828718483265981e-17 9.610137576518471e-17 0.0076888925583120035 -0.9999704400286321
12649378666.666666 -0.002300938276820525 -0.9999973528379346 2.9248525353153566e-17 9.579272153945872e-17 2.9248525353153566e-17 9.579272153945872e-17 -0.002300280834989246 -0.9999973543504553
12649996000.0 -0.01228988205575606 -0.9999244765475467 3.0206519760448815e-17 9.547445786752142e-17 3.0206519760448815e-17 9.547445786752142e-17 -0.012289224693916164 -0.9999244846268404
12650613333.333334 -0.022277599494870022 -0.999751823484496 3.116107207289279e-17 9.514662082145862e-17 3.116107207289279e-17 9.514662082145862e-17 -0.022276942278604904 -0.9997518381291154
12651230666.666666 -0.03226309397657006 -0.9994794108769272 3.2112086695774056e-17 9.480924743131016e-17 3.2112086695774056e-17 9.480924743131016e-17 -0.03226243697144216 -0.9994794320847694
12651848000.0 -0.042245369105336925 -0.9991072659074117 3.3059468430910754e-17 9.44623756809249e-17 3.3059468430910754e-17 9.44623756809249e-17 -0.042244712376881266 -0.9991072936757213
12652465333.333334 -0.05222342880672311 -0.9986354257102534 3.4003122486143975e-17 9.410604450373832e-17 3.4003122486143975e-17 9.410604450373832e-17 -0.052222772420440676 -0.9986354600356191
12653082666.666666 -0.06219627742683068 -0.9980639373677795 3.4942954484783386e-17 9.374029377845629e-17 3.4942954484783386e-17 9.374029377845629e-17 -0.062195621448181956 -0.9980639782461366
12653700000.0 -0.07216291983203087 -0.9973928579056225 3.587887047507366e-17 9.336516432461968e-17 3.587887047507366e-17 9.336516432461968e-17 -0.07216226432642928 -0.997392905332253
12654317333.333334 -0.08212236150769538 -0.9966222542870645 3.6810776939510576e-17 9.298069789811503e-17 3.6810776939510576e-17 9.298069789811503e-17 -0.08212170654050065 -0.9966223082565963
12654934666.666666 -0.09207360865780187 -0.9957522034063293 3.7738580804199425e-17 9.258693718655681e-17 3.7738580804199425e-17 9.258693718655681e-17 -0.09207295429431384 -0.9957522639127397
12655552000.0 -0.1020156683041844 -0.9947827920809043 3.86621894481381e-17 9.218392580458661e-17 3.86621894481381e-17 9.218392580458661e-17 -0.10201501460963627 -0.9947828591175191
12656169333.333334 -0.11194754838519218 -0.9937141170429122 3.95815107124036e-17 9.177170828910067e-17 3.95815107124036e-17 9.177170828910067e-17 -0.11194689542474373 -0.9937141906024037
12656786666.666666 -0.1218682578550496 -0.9925462849294256 4.04964529093614e-17 9.135033009435444e-17 4.04964529093614e-17 9.135033009435444e-17 -0.12186760569378141 -0.9925463650038189
12657404000.0 -0.13177680678269058 -0.9912794122718315 4.140692483178383e-17 9.091983758699216e-17 4.140692483178383e-17 9.091983758699216e-17 -0.13177615548559687 -0.9912794988525004
12658021333.333334 -0.14167220645042472 -0.9899136254842125 4.2312835761908725e-17 9.048027804098987e-17 4.2312835761908725e-17 9.048027804098987e-17 -0.14167155608240745 -0.989913718561885
12658638666.666666 -0.15155346945254075 -0.9884490608507499 4.321409548046569e-17 9.00316996324993e-17 4.321409548046569e-17 9.00316996324993e-17 -0.15155282007840232 -0.9884491604155029
12659256000.0 -0.1614196097941983 -0.9868858645120614 4.4110614275647613e-17 8.957415143460081e-17 4.4110614275647613e-17 8.957415143460081e-17 -0.16141896147863638 -0.9868859705533299
12659873333.333334 -0.17126964298936642 -0.9852241924506956 4.50023029520048e-17 8.910768341197986e-17 4.50023029520048e-17 8.910768341197986e-17 -0.17126899579696614 -0.9852243049572662
12660490666.666666 -0.18110258615928368 -0.9834642104755259 4.588907283930597e-17 8.863234641550322e-17 4.588907283930597e-17 8.863234641550322e-17 -0.181101940154512 -0.9834643294355424
12661108000.0 -0.19091745813061806 -0.9816060942051931 4.6770835801342013e-17 8.814819217670671e-17 4.6770835801342013e-17 8.814819217670671e-17 -0.19091681337781713 -0.981606219606156
12661725333.333334 -0.20071327953306523 -0.979650029050636 4.7647504244650314e-17 8.765527330220883e-17 4.7647504244650314e-17 8.765527330220883e-17 -0.20071263609644607 -0.9796501608794052
12662342666.666666 -0.2104890728974653 -0.9775962101965189 4.8518991127204753e-17 8.715364326802297e-17 4.8518991127204753e-17 8.715364326802297e-17 -0.2104884308411013 -0.9775963484393138
12662960000.0 -0.22024386275303204 -0.9754448425818115 4.9385209967032054e-17 8.664335641379283e-17 4.9385209967032054e-17 8.664335641379283e-17 -0.22024322214085265 -0.9754449872242127
12663577333.333334 -0.22997667572480077 -0.9731961408793193 5.024607485078242e-17 8.61244679369337e-17 5.024607485078242e-17 8.61244679369337e-17 -0.2299760366205853 -0.9731962919062713
12664194666.666666 -0.23968654063083994 -0.9708503294742454 5.1101500442214595e-17 8.55970338867028e-17 5.1101500442214595e-17 8.55970338867028e-17 -0.23968590309821067 -0.9708504868700557
12664812000.0 -0.24937248857899239 -0.9684076424418339 5.19514019906412e-17 8.506111115817322e-17 5.19514019906412e-17 8.506111115817322e-17 -0.24937185268140877 -0.968407806190177
12665429333.333334 -0.25903355306366704 -0.9658683235239901 5.279569533931347e-17 8.451675748612213e-17 5.279569533931347e-17 8.451675748612213e-17 -0.2590329188644191 -0.9658684936079075
12666046666.666666 -0.2686687700622257 -0.9632326261049723 5.363429693370429e-17 8.396403143886085e-17 5.363429693370429e-17 8.396403143886085e-17 -0.2686681376244281 -0.9632328025068759
12666664000.0 -0.27827717813131464 -0.9605008131860701 5.446712382980046e-17 8.340299241193468e-17 5.446712382980046e-17 8.340299241193468e-17 -0.2782765475179 -0.9605009958877435
12667281333.333334 -0.2878578185025002 -0.9576731573594465 5.529409370223544e-17 8.283370062180392e-17 5.529409370223544e-17 8.283370062180392e-17 -0.28785718977621305 -0.9576733463420457
12667898666.666666 -0.2974097351782945 -0.9547499407808342 5.611512485243583e-17 8.22562170993901e-17 5.611512485243583e-17 8.22562170993901e-17 -0.29740910840168466 -0.9547501360248897
12668516000.0 -0.30693197502735686 -0.9517314551414361 5.693013621667764e-17 8.167060368355806e-17 5.693013621667764e-17 8.167060368355806e-17 -0.30693135026277385 -0.9517316566268565
12669133333.333334 -0.3164235878795757 -0.9486180016388293 5.773904737403119e-17 8.10769230145496e-17 5.773904737403119e-17 8.10769230145496e-17 -0.31642296518916185 -0.948618209344902
12669750666.666666 -0.325883626620961 -0.9454098909468847 5.854177855431594e-17 8.047523852728241e-17 5.854177855431594e-17 8.047523852728241e-17 -0.32588300606664605 -0.9454101048522788
12670368000.0 -0.33531114728812456 -0.9421074431847735 5.933825064591929e-17 7.986561444461868e-17 5.933825064591929e-17 7.986561444461868e-17 -0.3353105289316191 -0.942107663267542
