! Parameters = {f0=12700.012000; bw=77.238000; Q=6100.000000; N=10; m_0_1=1.214309; m_1_1=-0.550106; m_1_2=1.049121; m_2_2=-0.550755; m_2_3=0.686084; m_2_8=-0.002221; m_2_9=0.034483; m_3_3=-0.552692; m_3_4=0.574613; m_3_7=-0.001621; m_3_8=-0.098709; m_3_9=-0.002221; m_4_4=-0.555617; m_4_5=0.410948; m_4_6=0.001896; m_4_7=-0.119258; m_4_8=-0.001621; m_5_5=-0.555235; m_5_6=0.818303; m_5_7=0.001896; m_6_6=-0.555236; m_6_7=0.411290; m_7_7=-0.555603; m_7_8=0.574731; m_8_8=-0.552694; m_8_9=0.686397; m_9_9=-0.550760; m_9_10=1.050199; m_10_10=-0.550116; m_10_11=1.215104}
!
! Created with skrf (http://scikit-rf.org).
# Hz S RI R 50.0 
!freq ReS11 ImS11 ReS21 ImS21 ReS12 ImS12 ReS22 ImS22
12607400000.0 -0.9892600107156426 0.14616645031855083 7.656923192239722e-17 -3.555287161317792e-17 7.656923192239722e-17 -3.555287161317792e-17 -0.9892601042426786 0.14616581732266723
12608017333.333334 -0.9879235955239781 0.1549418258793103 7.623248419952592e-17 -3.623080008570966e-17 7.623248419952592e-17 -3.623080008570966e-17 -0.9879236946612414 0.15494119376950888
12608634666.666666 -0.986509338649717 0.16370499307210656 7.588974014895356e-17 -3.690555049191689e-17 7.588974014895356e-17 -3.690555049191689e-17 -0.9865094433888469 0.16370436189810408
12609252000.0 -0.9850173515267748 0.17245526141877388 7.55410296655504e-17 -3.7577069847338266e-17 7.55410296655504e-17 -3.7577069847338266e-17 -0.985017461858972 0.17245463123020868
12609869333.333334 -0.9834477517136817 0.18119194145751732 7.518638311188345e-17 -3.82453054478778e-17 7.518638311188345e-17 -3.82453054478778e-17 -0.9834478676297043 0.18119131230394492
12610486666.666666 -0.9818006628843399 0.1899143447970974 7.482583131559327e-17 -3.891020487393102e-17 7.482583131559327e-17 -3.891020487393102e-17 -0.9818007843745085 0.1899137167279871
12611104000.0 -0.9800762148182186 0.19862178417140594 7.44594055667273e-17 -3.957171599449913e-17 7.44594055667273e-17 -3.957171599449913e-17 -0.9800763418724157 0.1986211572361368
12611721333.333334 -0.9782745433902249 0.2073135734931159 7.408713761506008e-17 -4.022978697123639e-17 7.408713761506008e-17 -4.022978697123639e-17 -0.9782746759978954 0.20731294774097278
12612338666.666666 -0.9763957905599119 0.21598902790818683 7.370905966735123e-17 -4.088436626252071e-17 7.370905966735123e-17 -4.088436626252071e-17 -0.9763959287100632 0.21598840338835637
12612956000.0 -0.9744401043603096 0.22464746384971407 7.332520438457923e-17 -4.1535402627477865e-17 7.332520438457923e-17 -4.1535402627477865e-17 -0.9744402480415141 0.22464684061128104
12613573333.333334 -0.9724076388863115 0.23328819909156737 7.293560487915046e-17 -4.218284512996117e-17 7.293560487915046e-17 -4.218284512996117e-17 -0.9724077880867089 0.23328757718351129
12614190666.666666 -0.9702985542824764 0.24191055280242443 7.25402947120507e-17 -4.2826643142544733e-17 7.25402947120507e-17 -4.2826643142544733e-17 -0.9702987089897694 0.24190993227361451
12614808000.0 -0.9681130167304338 0.2505138455992755 7.213930788997817e-17 -4.346674635046126e-17 7.213930788997817e-17 -4.346674635046126e-17 -0.9681131769318945 0.25051322649846774
12615425333.333334 -0.9658511984357804 0.2590973996010098 7.173267886244095e-17 -4.410310475551517e-17 7.173267886244095e-17 -4.410310475551517e-17 -0.9658513641182491 0.25909678197684327
12616042666.666666 -0.9635132776145408 0.267660538481719 7.132044251880888e-17 -4.4735668679987594e-17 7.132044251880888e-17 -4.4735668679987594e-17 -0.9635134487644267 0.26765992238271114
12616660000.0 -0.9610994384790804 0.27620258752415067 7.090263418534362e-17 -4.5364388770493267e-17 7.090263418534362e-17 -4.5364388770493267e-17 -0.9610996150823634 0.27620197299869426
12617277333.333334 -0.9586098712236103 0.28472287367278915 7.047928962218722e-17 -4.5989216001822173e-17 7.047928962218722e-17 -4.5989216001822173e-17 -0.9586100532658434 0.2847222607691485
12617894666.666666 -0.9560447720092403 0.29322072558678003 7.00504450203263e-17 -4.66101016807395e-17 7.00504450203263e-17 -4.66101016807395e-17 -0.9560449594755474 0.2932201143530866
12618512000.0 -0.9534043429484266 0.30169547369312566 6.961613699850149e-17 -4.722699744978904e-17 6.961613699850149e-17 -4.722699744978904e-17 -0.9534045358235055 0.30169486417737446
12619129333.333334 -0.9506887920891615 0.31014645023906123 6.917640260011698e-17 -4.783985529101855e-17 6.917640260011698e-17 -4.783985529101855e-17 -0.9506889903572879 0.31014584248910787
12619746666.666666 -0.9478983333984969 0.31857298934497086 6.873127929008414e-17 -4.8448627529726255e-17 6.873127929008414e-17 -4.8448627529726255e-17 -0.9478985370435218 0.3185723834085268
12620364000.0 -0.9450331867457106 0.3269744270567429 6.828080495165165e-17 -4.905326683814782e-17 6.828080495165165e-17 -4.905326683814782e-17 -0.9450333957510627 0.32697382298137206
12620981333.333334 -0.9420935778850136 0.3353501013980064 6.782501788320375e-17 -4.965372623911737e-17 6.782501788320375e-17 -4.965372623911737e-17 -0.9420937922337002 0.3353494992311211
12621598666.666666 -0.9390797384377045 0.3436993524224498 6.7363956795012e-17 -5.024995910971504e-17 6.7363956795012e-17 -5.024995910971504e-17 -0.9390799581123153 0.343698752211308
12622216000.0 -0.93599190587396 0.3520215222657148 6.689766080597046e-17 -5.084191918486623e-17 6.689766080597046e-17 -5.084191918486623e-17 -0.9359921308566663 0.35202092405741564
12622833333.333334 -0.9328303234941011 0.36031595519728354 6.642616944029037e-17 -5.1429560560921676e-17 6.642616944029037e-17 -5.1429560560921676e-17 -0.9328305537666562 0.3603153590387629
12623450666.666666 -0.9295952404094636 0.3685819976720395 6.594952262417252e-17 -5.2012837699196297e-17 6.594952262417252e-17 -5.2012837699196297e-17 -0.929595475953208 0.36858140361006836
12624068000.0 -0.9262869115227117 0.3768189983819232 6.54677606824352e-17 -5.2591705429493775e-17 6.54677606824352e-17 -5.2591705429493775e-17 -0.9262871523185708 0.37681840646310194
12624685333.333334 -0.9229055975077797 0.385026308307169 6.498092433511726e-17 -5.316611895359269e-17 6.498092433511726e-17 -5.316611895359269e-17 -0.9229058435362685 0.3850257185779253
12625302666.666666 -0.91945156478938 0.39320328076734057 6.448905469406622e-17 -5.373603384868335e-17 6.448905469406622e-17 -5.373603384868335e-17 -0.9194518160306016 0.3932026932739243
12625920000.0 -0.9159250855218866 0.40134927147257154 6.399219325946539e-17 -5.4301406070809286e-17 6.399219325946539e-17 -5.4301406070809286e-17 -0.9159253419555367 0.4013486862610526
12626537333.333334 -0.9123264375680372 0.4094636385739919 6.349038191636087e-17 -5.486219195824298e-17 6.349038191636087e-17 -5.486219195824298e-17 -0.9123266991734036 0.40946305569025554
12627154666.666666 -0.9086559044769753 0.4175457427144593 6.298366293114309e-17 -5.5418348234847196e-17 6.298366293114309e-17 -5.5418348234847196e-17 -0.9086561712329396 0.4175451622042025
12627772000.0 -0.904913775461832 0.425594947079089 6.24720789479912e-17 -5.596983201341302e-17 6.24720789479912e-17 -5.596983201341302e-17 -0.904914047346874 0.42559436898781805
12628389333.333334 -0.9011003453770956 0.4336106174450958 6.19556729853219e-17 -5.651660079892809e-17 6.19556729853219e-17 -5.651660079892809e-17 -0.9011006223692924 0.4336100418181218
12629006666.666666 -0.8972159146952492 0.4415921222320512 6.143448843216357e-17 -5.705861249186348e-17 6.143448843216357e-17 -5.705861249186348e-17 -0.8972161967722763 0.441591549114486
12629624000.0 -0.8932607894831495 0.4495388325515163 6.090856904454327e-17 -5.759582539138143e-17 6.090856904454327e-17 -5.759582539138143e-17 -0.8932610766222856 0.4495382619882704
12630241333.333334 -0.8892352813778915 0.4574501222566473 6.037795894181866e-17 -5.812819819853987e-17 6.037795894181866e-17 -5.812819819853987e-17 -0.8892355735560182 0.45744955429242523
12630858666.666666 -0.8851397075623173 0.46532536799140445 5.984270260300007e-17 -5.865569001944439e-17 5.984270260300007e-17 -5.865569001944439e-17 -0.8851400047559209 0.4653248026707014
12631476000.0 -0.8809743907398775 0.47316394923994515 5.930284486302491e-17 -5.917826036838649e-17 5.930284486302491e-17 -5.917826036838649e-17 -0.8809746929250533 0.47316338660704466
12632093333.333334 -0.8767396591093797 0.4809652483751903 5.87584309090289e-17 -5.969586917092476e-17 5.87584309090289e-17 -5.969586917092476e-17 -0.8767399662618298 0.4809646884741586
12632710666.666666 -0.8724358463390336 0.48872865070766436 5.820950627657501e-17 -6.020847676694666e-17 5.820950627657501e-17 -6.020847676694666e-17 -0.8724361584340724 0.4887280935823488
12633328000.0 -0.8680632915401468 0.49645354453395385 5.765611684584887e-17 -6.071604391370214e-17 5.765611684584887e-17 -6.071604391370214e-17 -0.8680636085527014 0.4964529902279786
12633945333.333334 -0.8636223392404453 0.5041393211848296 5.709830883785391e-17 -6.121853178877811e-17 5.709830883785391e-17 -6.121853178877811e-17 -0.8636226611450583 0.504138769741593
12634562666.666666 -0.859113339356915 0.5117853750732326 5.653612881055674e-17 -6.171590199306132e-17 5.653612881055674e-17 -6.171590199306132e-17 -0.8591136661277456 0.5117848265359025
12635180000.0 -0.8545366471682292 0.5193911037419885 5.596962365501689e-17 -6.220811655365545e-17 5.596962365501689e-17 -6.220811655365545e-17 -0.8545369787790551 0.5193905581534994
12635797333.333334 -0.8498926232867399 0.5269559079113011 5.539884059148795e-17 -6.269513792676665e-17 5.539884059148795e-17 -6.269513792676665e-17 -0.8498929597109611 0.5269553653143517
12636414666.666666 -0.8451816336301236 0.5344791915258756 5.482382716550128e-17 -6.31769290005472e-17 5.482382716550128e-17 -6.31769290005472e-17 -0.845181974840764 0.5344786519629253
12637032000.0 -0.8404040493924486 0.541960361802055 5.424463124391571e-17 -6.365345309791095e-17 5.424463124391571e-17 -6.365345309791095e-17 -0.840404395362155 0.5419598253153175
12637649333.333334 -0.8355602470150406 0.5493988292743288 5.366130101094313e-17 -6.412467397931267e-17 5.366130101094313e-17 -6.412467397931267e-17 -0.8355605977160908 0.5493982959057744
12638266666.666666 -0.830650608156723 0.5567940078419538 5.307388496415933e-17 -6.459055584548388e-17 5.307388496415933e-17 -6.459055584548388e-17 -0.8306509635610221 0.5567934776333008
12638884000.0 -0.8256755196638002 0.5641453148150339 5.248243191048362e-17 -6.505106334013777e-17 5.248243191048362e-17 -6.505106334013777e-17 -0.8256758797428866 0.5641447878077483
12639501333.333334 -0.820635373539547 0.5714521709604815 5.188699096213562e-17 -6.550616155263807e-17 5.188699096213562e-17 -6.550616155263807e-17 -0.8206357382645946 0.5714516471957739
12640118666.666666 -0.8155305669134213 0.5787140005475182 5.128761153258186e-17 -6.595581602062055e-17 5.128761153258186e-17 -6.595581602062055e-17 -0.8155309362552393 0.5787134800663385
12640736000.0 -0.8103615020095083 0.5859302313934084 5.0684343332418285e-17 -6.6399992732609e-17 5.0684343332418285e-17 -6.6399992732609e-17 -0.8103618759385451 0.5859297142364439
12641353333.333334 -0.805128586115206 0.5931002949080103 5.0077236365306674e-17 -6.68386581305375e-17 5.0077236365306674e-17 -6.68386581305375e-17 -0.8051289646015521 0.5930997811156832
12641970666.666666 -0.7998322315488555 0.6002236261389725 4.946634092380115e-17 -6.727177911229981e-17 4.946634092380115e-17 -6.727177911229981e-17 -0.7998326145622459 0.6002231157514359
12642588000.0 -0.7944728556273185 0.6072996638161544 4.885170758522202e-17 -6.769932303421067e-17 4.885170758522202e-17 -6.769932303421067e-17 -0.7944732431371323 0.607299156873288
12643205333.333334 -0.7890508806331435 0.6143278503957805 4.823338720746846e-17 -6.812125771345927e-17 4.823338720746846e-17 -6.812125771345927e-17 -0.7890512726084109 0.6143273469371902
12643822666.666666 -0.7835667337812108 0.6213076321044867 4.761143092482286e-17 -6.853755143051376e-17 4.761143092482286e-17 -6.853755143051376e-17 -0.783567130190612 0.6213071321694993
12644440000.0 -0.7780208471851545 0.6282384589828404 4.6985890143743406e-17 -6.894817293148331e-17 4.6985890143743406e-17 -6.894817293148331e-17 -0.7780212479970234 0.628237962610501
12645057333.333334 -0.7724136578232988 0.6351197849286944 4.6356816538626145e-17 -6.935309143044833e-17 4.6356816538626145e-17 -6.935309143044833e-17 -0.772414063005626 0.6351192921577644
12645674666.666666 -0.7667456075042108 0.6419510677402422 4.572426204754933e-17 -6.975227661175069e-17 4.572426204754933e-17 -6.975227661175069e-17 -0.7667460170246461 0.6419505786091954
12646292000.0 -0.7610171428318336 0.6487317691588032 4.508827886798409e-17 -7.014569863225419e-17 4.508827886798409e-17 -7.014569863225419e-17 -0.7610175566576868 0.648731283705822
12646909333.333334 -0.7552287151704244 0.6554613549110812 4.444891945252624e-17 -7.053332812354114e-17 4.444891945252624e-17 -7.053332812354114e-17 -0.7552291332686695 0.6554608731740544
12647526666.666666 -0.7493807806088775 0.66213929475139 4.380623650456075e-17 -7.09151361940996e-17 4.380623650456075e-17 -7.09151361940996e-17 -0.7493812029461566 0.6621388167679116
12648144000.0 -0.7434737999247938 0.6687650625034384 4.316028297394038e-17 -7.129109443145219e-17 4.316028297394038e-17 -7.129109443145219e-17 -0.7434742264674167 0.6687645883108012
12648761333.333334 -0.73750823854824 0.6753381361016951 4.2511112052631554e-17 -7.166117490425347e-17 4.2511112052631554e-17 -7.166117490425347e-17 -0.7375086692621897 0.6753376657368912
12649378666.666666 -0.7314845665250853 0.6818579976325331 4.18587771703555e-17 -7.20253501643417e-17 4.18587771703555e-17 -7.20253501643417e-17 -0.7314850013760191 0.6818575311322485
12649996000.0 -0.725403258479845 0.6883241333751584 4.120333199019045e-17 -7.238359324876139e-17 4.120333199019045e-17 -7.238359324876139e-17 -0.725403697433097 0.6883236707757705
12650613333.333334 -0.7192647935784193 0.6947360338419429 4.054483040417636e-17 -7.273587768173708e-17 4.054483040417636e-17 -7.273587768173708e-17 -0.7192652365990047 0.6947355751795193
12651230666.666666 -0.7130696554903024 0.7010931938186121 3.9883326528904305e-17 -7.308217747660484e-17 3.9883326528904305e-17 -7.308217747660484e-17 -0.7130701025429178 0.7010927391289056
12651848000.0 -0.7068183323503491 0.7073951124041722 3.921887470106091e-17 -7.342246713772053e-17 3.921887470106091e-17 -7.342246713772053e-17 -0.7068187833993789 0.7073946617226206
12652465333.333334 -0.7005113167204752 0.7136412930502165 3.855152947299618e-17 -7.375672166230592e-17 3.855152947299618e-17 -7.375672166230592e-17 -0.700511771729992 0.7136408464119378
12653082666.666666 -0.6941491055508483 0.7198312436000514 3.7881345608255044e-17 -7.40849165422661e-17 3.7881345608255044e-17 -7.40849165422661e-17 -0.694149564484615 0.7198308010398408
12653700000.0 -0.6877322001405256 0.7259644763276724 3.7208378077082925e-17 -7.440702776597133e-17 3.7208378077082925e-17 -7.440702776597133e-17 -0.6877326629619999 0.7259640378800007
12654317333.333334 -0.6812611060982214 0.7320405079759363 3.6532682051946434e-17 -7.472303181998429e-17 3.6532682051946434e-17 -7.472303181998429e-17 -0.6812615727705592 0.732040073674948
12654934666.666666 -0.6747363333023485 0.7380588597947604 3.58543129030093e-17 -7.503290569076005e-17 3.58543129030093e-17 -7.503290569076005e-17 -0.6747368037884047 0.7380584296742686
12655552000.0 -0.6681583958607138 0.7440190575789555 3.5173326193605294e-17 -7.533662686630107e-17 3.5173326193605294e-17 -7.533662686630107e-17 -0.6681588701230472 0.7440186316724415
12656169333.333334 -0.6615278120702845 0.7499206317053438 3.448977767571856e-17 -7.563417333776068e-17 3.448977767571856e-17 -7.563417333776068e-17 -0.6615282900711599 0.7499202100459533
12656786666.666666 -0.6548451043761186 0.755763117169971 3.3803723285410006e-17 -7.592552360102489e-17 3.3803723285410006e-17 -7.592552360102489e-17 -0.6548455860775098 0.7557626997905119
12657404000.0 -0.6481107993303036 0.7615460536246486 3.311521913826261e-17 -7.621065665823753e-17 3.311521913826261e-17 -7.621065665823753e-17 -0.6481112846938963 0.7615456405575882
12658021333.333334 -0.6413254275504258 0.7672689854132663 3.242432152479941e-17 -7.648955201929185e-17 3.242432152479941e-17 -7.648955201929185e-17 -0.6413259165376223 0.7672685766907303
12658638666.666666 -0.6344895236778505 0.7729314616076215 3.173108690590199e-17 -7.676218970327456e-17 3.173108690590199e-17 -7.676218970327456e-17 -0.6344900162497696 0.7729310572613883
12659256000.0 -0.6276036263354616 0.7785330360430565 3.10355719081953e-17 -7.702855023987762e-17 3.10355719081953e-17 -7.702855023987762e-17 -0.6276041224529438 0.7785326361045569
12659873333.333334 -0.6206682780852875 0.784073267353558 3.033783331944066e-17 -7.728861467076037e-17 3.033783331944066e-17 -7.728861467076037e-17 -0.6206687777088992 0.7840728718538741
12660490666.666666 -0.6136840253858431 0.7895517190064676 2.963792808391997e-17 -7.754236455086968e-17 2.963792808391997e-17 -7.754236455086968e-17 -0.6136845284758765 0.7895513279763269
12661108000.0 -0.6066514185488238 0.7949679593370667 2.893591329777585e-17 -7.778978194973018e-17 2.893591329777585e-17 -7.778978194973018e-17 -0.6066519250653031 0.7949675728068424
12661725333.333334 -0.5995710116960592 0.8003215615823451 2.823184620439675e-17 -7.80308494526727e-17 2.823184620439675e-17 -7.80308494526727e-17 -0.5995715215987422 0.8003211795820535
12662342666.666666 -0.5924433627155836 0.8056121039148375 2.7525784189736835e-17 -7.826555016204086e-17 2.7525784189736835e-17 -7.826555016204086e-17 -0.592443875963965 0.8056117264741338
12662960000.0 -0.58526903321788 0.8108391694757033 2.6817784777661432e-17 -7.849386769834277e-17 2.6817784777661432e-17 -7.849386769834277e-17 -0.5852695497711947 0.8108387966238809
12663577333.333334 -0.5780485884914704 0.816002346407692 2.6107905625270116e-17 -7.871578620136547e-17 2.6107905625270116e-17 -7.871578620136547e-17 -0.5780491083086977 0.8160019781736807
12664194666.666666 -0.5707825974584665 0.8211012278875284 2.539620451821085e-17 -7.893129033124738e-17 2.539620451821085e-17 -7.893129033124738e-17 -0.5707831204983317 0.8211008642998905
12664812000.0 -0.5634716326297189 0.8261354121579827 2.4682739365996722e-17 -7.914036526950442e-17 2.4682739365996722e-17 -7.914036526950442e-17 -0.5634721588506979 0.8261350532449123
12665429333.333334 -0.5561162700596839 0.8311045025595425 2.3967568197290133e-17 -7.934299672002247e-17 2.3967568197290133e-17 -7.934299672002247e-17 -0.5561167994200064 0.8311041483488628
12666046666.666666 -0.5487170893011534 0.8360081075615897 2.3250749155214994e-17 -7.953917090999577e-17 2.3250749155214994e-17 -7.953917090999577e-17 -0.5487176217588048 0.8360077580807496
12666664000.0 -0.5412746733593035 0.8408458407934353 2.253234049261417e-17 -7.972887459083679e-17 2.253234049261417e-17 -7.972887459083679e-17 -0.5412752088720305 0.8408454960695099
12667281333.333334 -0.5337896086461881 0.8456173210744857 2.181240056735904e-17 -7.991209503902765e-17 2.181240056735904e-17 -7.991209503902765e-17 -0.5337901471714993 0.845616981134171
12667898666.666666 -0.52626248493415 0.8503221724445231 2.1090987837597824e-17 -8.008882005694365e-17 2.1090987837597824e-17 -8.008882005694365e-17 -0.5262630264293227 0.8503218373141371
12668516000.0 -0.5186938953094479 0.8549600241932668 2.0368160857020374e-17 -8.025903797362766e-17 2.0368160857020374e-17 -8.025903797362766e-17 -0.5186944397315278 0.8549596938987454
12669133333.333334 -0.511084436125716 0.8595305108894614 1.9643978270137855e-17 -8.042273764551746e-17 1.9643978270137855e-17 -8.042273764551746e-17 -0.5110849834315236 0.8595301854563572
12669750666.666666 -0.5034347069567361 0.8640332724098221 1.8918498807511168e-17 -8.057990845714154e-17 1.8918498807511168e-17 -8.057990845714154e-17 -0.5034352571028682 0.864032951863301
12670368000.0 -0.49574531054928905 0.8684679539673461 1.819178128101781e-17 -8.073054032176132e-17 1.819178128101781e-17 -8.073054032176132e-17 -0.4957458634921236 0.8684676383321888
12670985333.333334 -0.48801685277571527 0.8728342061392449 1.746388457908888e-17 -8.087462368197735e-17 1.746388457908888e-17 -8.087462368197735e-17 -0.4880174084714132 0.8728338954398407
