! Parameters = {f0=12700.012000; bw=77.238000; Q=6100.000000; N=10; m_0_1=1.260155; m_1_1=0.137582; m_1_2=1.094967; m_2_2=0.136933; m_2_3=0.731930; m_2_8=0.000071; m_2_9=0.036775; m_3_3=0.134996; m_3_4=0.620459; m_3_7=0.000671; m_3_8=-0.096417; m_3_9=0.000071; m_4_4=0.132071; m_4_5=0.456794; m_4_6=0.004188; m_4_7=-0.116966; m_4_8=0.000671; m_5_5=0.132453; m_5_6=0.864149; m_5_7=0.004188; m_6_6=0.132452; m_6_7=0.457136; m_7_7=0.132085; m_7_8=0.620577; m_8_8=0.134994; m_8_9=0.732243; m_9_9=0.136928; m_9_10=1.096045; m_10_10=0.137572; m_10_11=1.260950}
!
! Created with skrf (http://scikit-rf.org).
# Hz S RI R 50.0 
!freq ReS11 ImS11 ReS21 ImS21 ReS12 ImS12 ReS22 ImS22
12607400000.0 0.9087672187146659 0.4173034174188328 -1.044922827782384e-16 -1.4988236581428944e-17 -1.044922827782384e-16 -1.4988236581428944e-17 0.90876694164898 0.41730402078794426
12608017333.333334 0.9129893843160044 0.4079833135388133 -1.0462091013845339e-16 -1.390631105242993e-17 -1.0462091013845339e-16 -1.390631105242993e-17 0.9129891134515937 0.4079839196815224
12608634666.666666 0.91711596812762 0.3986204974724259 -1.0473834273360676e-16 -1.2823327907214755e-17 -1.0473834273360676e-16 -1.2823327907214755e-17 0.9171157034922331 0.3986211063250065
12609252000.0 0.9211465381333329 0.38921594942242715 -1.0484457244115668e-16 -1.1739402900386938e-17 -1.0484457244115668e-16 -1.1739402900386938e-17 0.9211462797540639 0.38921656092087586
12609869333.333334 0.9250806723687572 0.3797706539605098 -1.0493959233466432e-16 -1.0654651841496481e-17 -1.0493959233466432e-16 -1.0654651841496481e-17 0.9250804202720416 0.3797712680405519
12610486666.666666 0.9289179589653901 0.37028559992443666 -1.0502339668406022e-16 -9.569190582715641e-18 -1.0502339668406022e-16 -9.569190582715641e-18 0.9289177131770036 0.370286216521534
12611104000.0 0.9326579961939148 0.3607617803140726 -1.0509598095578886e-16 -8.483135006449276e-18 -1.0509598095578886e-16 -8.483135006449276e-18 0.9326577567389699 0.36076239936342935
12611721333.333334 0.936300392506074 0.35120019218787174 -1.0515734181281871e-16 -7.396601013039497e-18 -1.0515734181281871e-16 -7.396601013039497e-18 0.9363001594090192 0.35120081362444266
12612338666.666666 0.9398447665757436 0.3416018365583141 -1.0520747711453311e-16 -6.309704508371618e-18 -1.0520747711453311e-16 -6.309704508371618e-18 0.9398445398603582 0.34160246031680963
12612956000.0 0.9432907473389036 0.331967718286944 -1.0524638591648751e-16 -5.222561391544057e-18 -1.0524638591648751e-16 -5.222561391544057e-18 0.9432905270282967 0.3319683443018382
12613573333.333334 0.9466379740323626 0.32229884597951963 -1.0527406847004186e-16 -4.135287542552891e-18 -1.0527406847004186e-16 -4.135287542552891e-18 0.9466377601489717 0.3222994741850569
12614190666.666666 0.9498860962316429 0.3125962318800996 -1.0529052622186579e-16 -3.0479988099442877e-18 -1.0529052622186579e-16 -3.0479988099442877e-18 0.9498858887972279 0.31259686221030086
12614808000.0 0.953034773887578 0.3028608917653105 -1.0529576181331706e-16 -1.960810998490117e-18 -1.0529576181331706e-16 -1.960810998490117e-18 0.9530345729232247 0.30286152415398154
12615425333.333334 0.9560836773619827 0.2930938448378179 -1.052897790796925e-16 -8.738398568820202e-19 -1.052897790796925e-16 -8.738398568820202e-19 0.9560834828880947 0.2930944792185547
12616042666.666666 0.9590324874621288 0.2832961136197031 -1.0527258304935184e-16 2.1279893456076347e-19 -1.0527258304935184e-16 2.1279893456076347e-19 0.9590322994984308 0.2832967499259004
12616660000.0 0.9618808954741433 0.2734687238454986 -1.0524417994271589e-16 1.2989897761983807e-18 -1.0524417994271589e-16 1.2989897761983807e-18 0.9618807140396747 0.27346936201035543
12617277333.333334 0.964628603195383 0.2636127043546104 -1.0520457717113757e-16 2.384617161337036e-18 -1.0520457717113757e-16 2.384617161337036e-18 0.9646284283084982 0.26361334431113803
12617894666.666666 0.9672753229655873 0.2537290869838267 -1.0515378333564679e-16 3.469565688480966e-18 -1.0515378333564679e-16 3.469565688480966e-18 0.967275154643954 0.25372972866485527
12618512000.0 0.9698207776970583 0.24381890645907467 -1.0509180822556864e-16 4.5537200735983175e-18 -1.0509180822556864e-16 4.5537200735983175e-18 0.9698206159576557 0.24381954979726086
12619129333.333334 0.9722647009036116 0.23388320028731469 -1.0501866281701729e-16 5.636965162324902e-18 -1.0501866281701729e-16 5.636965162324902e-18 0.9722645457627278 0.2338838452151479
12619746666.666666 0.9746068367285152 0.2239230086477564 -1.0493435927126198e-16 6.719185942191189e-18 -1.0493435927126198e-16 6.719185942191189e-18 0.9746066882017446 0.22392365509756598
12620364000.0 0.9768469399712861 0.21393937428290566 -1.0483891093296764e-16 7.800267554817412e-18 -1.0483891093296764e-16 7.800267554817412e-18 0.9768467980735304 0.21394002218686856
12620981333.333334 0.978984776113279 0.2039333423897589 -1.0473233232831447e-16 8.880095308042873e-18 -1.0473233232831447e-16 8.880095308042873e-18 0.9789846408587454 0.20393399167990672
12621598666.666666 0.9810201213423426 0.19390596050993816 -1.0461463916298535e-16 9.958554688119183e-18 -1.0461463916298535e-16 9.958554688119183e-18 0.9810199927445393 0.19390661111816354
12622216000.0 0.9829527625761942 0.18385827842024288 -1.0448584832003376e-16 1.103553137180819e-17 -1.0448584832003376e-16 1.103553137180819e-17 0.9829526406479322 0.18385893027830727
12622833333.333334 0.9847824974847257 0.17379134802277646 -1.043459778576265e-16 1.2110911238475867e-17 -1.043459778576265e-16 1.2110911238475867e-17 0.9847823822381175 0.17379200106231749
12623450666.666666 0.986509134511199 0.16370622323476652 -1.041950470066608e-16 1.3184580382168761e-17 -1.041950470066608e-16 1.3184580382168761e-17 0.9865090259576568 0.16370687738730472
12624068000.0 0.9881324928923099 0.1536039598781728 -1.0403307616825774e-16 1.4256425123659866e-17 -1.0403307616825774e-16 1.4256425123659866e-17 0.988132391042542 0.15360461507511855
12624685333.333334 0.9896524026770975 0.14348561556920722 -1.0386008691113075e-16 1.5326332022471502e-17 -1.0386008691113075e-16 1.5326332022471502e-17 0.989652307541111 0.1434862717418686
12625302666.666666 0.9910687047447242 0.13335224960772454 -1.0367610196883926e-16 1.6394187888818022e-17 -1.0367610196883926e-16 1.6394187888818022e-17 0.9910686163318216 0.1333529066873141
12625920000.0 0.9923812508211823 0.1232049228659851 -1.0348114523690292e-16 1.7459879795620325e-17 -1.0348114523690292e-16 1.7459879795620325e-17 0.9923811691399611 0.12320558078362706
12626537333.333334 0.9935899034947466 0.11304469767806925 -1.032752417698111e-16 1.8523295090375666e-17 -1.032752417698111e-16 1.8523295090375666e-17 0.993589828553101 0.11304535636480716
12627154666.666666 0.9946945362304173 0.10287263772832396 -1.0305841777790157e-16 1.958432140705276e-17 -1.0305841777790157e-16 1.958432140705276e-17 0.9946944680355319 0.10287329711512723
12627772000.0 0.9956950333831581 0.09268980793991771 -1.0283070062411012e-16 2.0642846677977616e-17 -1.0283070062411012e-16 2.0642846677977616e-17 0.9956949719415136 0.09269046795768948
12628389333.333334 0.9965912902099662 0.0824972743638345 -1.025921188206183e-16 2.1698759145595645e-17 -1.025921188206183e-16 2.1698759145595645e-17 0.9965912355273342 0.08249793494341856
12629006666.666666 0.9973832128808907 0.07229610406667349 -1.0234270202535796e-16 2.275194737429513e-17 -1.0234270202535796e-16 2.275194737429513e-17 0.9973831649623343 0.07229676513886146
12629624000.0 0.9980707184888155 0.06208736501936097 -1.0208248103841203e-16 2.380230026211609e-17 -1.0208248103841203e-16 2.380230026211609e-17 0.9980706773386901 0.062088026514899815
12630241333.333334 0.9986537350581585 0.051872125985117055 -1.0181148779828791e-16 2.4849707052454125e-17 -1.0181148779828791e-16 2.4849707052454125e-17 0.9986537006801115 0.051872787834716175
12630858666.666666 0.9991322015523927 0.04165145640784956 -1.0152975537807225e-16 2.589405734571706e-17 -1.0152975537807225e-16 2.589405734571706e-17 0.9991321739493603 0.041652118542187984
12631476000.0 0.9995060678804586 0.03142642629971016 -1.0123731798145959e-16 2.6935241110961845e-17 -1.0123731798145959e-16 2.6935241110961845e-17 0.9995060470546673 0.031427088649443886
12632093333.333334 0.9997752949019837 0.02119810612952785 -1.0093421093868175e-16 2.7973148697418915e-17 -1.0093421093868175e-16 2.7973148697418915e-17 0.9997752808549517 0.021198768625297182
12632710666.666666 0.9999398544313925 0.010967566710655647 -1.0062047070229651e-16 2.900767084605193e-17 -1.0062047070229651e-16 2.900767084605193e-17 0.9999398471639284 0.010968229283092351
12633328000.0 0.9999997292408607 0.0007358790885533147 -1.0029613484286686e-16 3.0038698701039555e-17 -1.0029613484286686e-16 3.0038698701039555e-17 0.9999997287530621 0.0007365416682879007
12633945333.333334 0.9999549130621085 -0.009495885571000489 -9.996124204452996e-17 3.106612382118716e-17 -9.996124204452996e-17 3.106612382118716e-17 0.9999549193533649 -0.009495223053331494
12634562666.666666 0.999805410587066 -0.019726656094106444 -9.961583210044264e-17 3.208983819131272e-17 -9.961583210044264e-17 3.208983819131272e-17 0.9998054236560554 -0.01972599370785323
12635180000.0 0.999551237467376 -0.029955361411028978 -9.925994590810711e-17 3.310973423359432e-17 -9.925994590810711e-17 3.310973423359432e-17 0.9995512573120677 -0.029954699225521193
12635797333.333334 0.9991924203127553 -0.04018093066824229 -9.889362546458658e-17 3.41257048188466e-17 -9.889362546458658e-17 3.41257048188466e-17 0.9991924469304103 -0.040180268752781814
12636414666.666666 0.9987289966882141 -0.05040229334048237 -9.851691386161147e-17 3.51376432777313e-17 -9.851691386161147e-17 3.51376432777313e-17 0.9987290300753848 -0.05040163176433607
12637032000.0 0.9981610151101221 -0.06061837934287826 -9.812985528055208e-17 3.614544341196771e-17 -9.812985528055208e-17 3.614544341196771e-17 0.9981610552626519 -0.06061771817527068
12637649333.333334 0.9974885350411236 -0.07082811914303701 -9.773249498729666e-17 3.714899950543232e-17 -9.773249498729666e-17 3.714899950543232e-17 0.9974885819541474 -0.07082745845314312
12638266666.666666 0.996711626883914 -0.08103044387295719 -9.732487932700588e-17 3.8148206335234033e-17 -9.732487932700588e-17 3.8148206335234033e-17 0.9967116805518601 -0.08102978372989525
12638884000.0 0.995830371973879 -0.09122428544084499 -9.690705571876077e-17 3.914295918271261e-17 -9.690705571876077e-17 3.914295918271261e-17 0.9958304323904696 -0.09122362591366925
12639501333.333334 0.9948448625705627 -0.10140857664313205 -9.647907265008742e-17 4.013315384440996e-17 -9.647907265008742e-17 4.013315384440996e-17 0.9948449297288136 -0.10140791780082554
12640118666.666666 0.9937552018480332 -0.11158225127591903 -9.604097967138851e-17 4.1118686642935265e-17 -9.604097967138851e-17 4.1118686642935265e-17 0.9937552757402557 -0.11158159318738639
12640736000.0 0.9925615038840295 -0.12174424424710634 -9.559282739023147e-17 4.209945443784644e-17 -9.559282739023147e-17 4.209945443784644e-17 0.9925615845018314 -0.12174358698116665
12641353333.333334 0.9912638936481094 -0.13189349168710932 -9.513466746558129e-17 4.3075354636345175e-17 -9.513466746558129e-17 4.3075354636345175e-17 0.9912639809823919 -0.13189283531248844
12641970666.666666 0.9898625069884653 -0.1420289310610251 -9.466655260185726e-17 4.4046285204058606e-17 -9.466655260185726e-17 4.4046285204058606e-17 0.9898626010294316 -0.14202827564634937
12642588000.0 0.9883574906177768 -0.15214950127936425 -9.418853654292905e-17 4.501214467564896e-17 -9.418853654292905e-17 4.501214467564896e-17 0.9883575913549258 -0.15214884689315242
12643205333.333334 0.9867490020978112 -0.16225414280936137 -9.370067406599181e-17 4.597283216538852e-17 -9.370067406599181e-17 4.597283216538852e-17 0.9867491095199448 -0.16225348952001825
12643822666.666666 0.9850372098229339 -0.1723417977858996 -9.320302097531788e-17 4.6928247377700676e-17 -9.320302097531788e-17 4.6928247377700676e-17 0.9850373239181534 -0.17234114566170822
12644440000.0 0.9832222930024865 -0.18241141012217418 -9.269563409592579e-17 4.787829061758316e-17 -9.269563409592579e-17 4.787829061758316e-17 0.9832224137581953 -0.18241075923128885
12645057333.333334 0.9813044416420438 -0.19246192562017214 -9.217857126712824e-17 4.8822862800995665e-17 -9.217857126712824e-17 4.8822862800995665e-17 0.9813045690449506 -0.19246127603061158
12645674666.666666 0.979283856523494 -0.20249229208120556 -9.16518913359838e-17 4.9761865465159675e-17 -9.16518913359838e-17 4.9761865465159675e-17 0.9792839905596127 -0.20249164386084564
12646292000.0 0.9771607491839925 -0.2125014594161779 -9.111565415061965e-17 5.0695200778832417e-17 -9.111565415061965e-17 5.0695200778832417e-17 0.9771608898386436 -0.21250081263274445
12646909333.333334 0.9749353418939075 -0.2224883797550738 -9.056992055349203e-17 5.1622771552434364e-17 -9.056992055349203e-17 5.1622771552434364e-17 0.9749354891517201 -0.2224877344761356
12647526666.666666 0.9726078676334564 -0.23245200755710646 -9.001475237451e-17 5.25444812481638e-17 -9.001475237451e-17 5.25444812481638e-17 0.9726080214783704 -0.23245136385006832
12648144000.0 0.9701785700683446 -0.24239129972003715 -8.945021242406018e-17 5.346023399003322e-17 -8.945021242406018e-17 5.346023399003322e-17 0.9701787304836121 -0.24239065765213283
12648761333.333334 0.9676477035242691 -0.2523052156893237 -8.887636448594856e-17 5.436993457379777e-17 -8.887636448594856e-17 5.436993457379777e-17 0.9676478704924545 -0.2523045753276084
12649378666.666666 0.9650155329603175 -0.2621927175669462 -8.829327331022679e-17 5.5273488476833803e-17 -8.829327331022679e-17 5.5273488476833803e-17 0.9650157064633036 -0.26219207897829055
12649996000.0 0.9622823339411618 -0.27205277022037055 -8.770100460592009e-17 5.617080186793896e-17 -8.770100460592009e-17 5.617080186793896e-17 0.9622825139601459 -0.2720521334714524
12650613333.333334 0.9594483926082377 -0.28188434139074947 -8.709962503365209e-17 5.706178161705906e-17 -8.709962503365209e-17 5.706178161705906e-17 0.9594485791237388 -0.281883706548048
12651230666.666666 0.956514005649854 -0.29168640180080163 -8.648920219818959e-17 5.794633530490978e-17 -8.648920219818959e-17 5.794633530490978e-17 0.9565141986417125 -0.2916857689305899
12651848000.0 0.953479480270002 -0.3014579252630043 -8.586980464085673e-17 5.882437123256812e-17 -8.586980464085673e-17 5.882437123256812e-17 0.9534796797173828 -0.30145729443134256
12652465333.333334 0.9503451341562867 -0.31119788878669735 -8.524150183189336e-17 5.969579843092176e-17 -8.524150183189336e-17 5.969579843092176e-17 0.9503453400376801 -0.3111972600594256
12653082666.666666 0.9471112954467006 -0.3209052726851017 -8.460436416268739e-17 6.056052667008446e-17 -8.460436416268739e-17 6.056052667008446e-17 0.9471115077399267 -0.3209046461278339
12653700000.0 0.9437783026951306 -0.330579060682505 -8.395846293790988e-17 6.141846646872772e-17 -8.395846293790988e-17 6.141846646872772e-17 0.9437785213773383 -0.33057843636062056
12654317333.333334 0.9403465048360579 -0.3402182400201941 -8.330387036758808e-17 6.226952910328646e-17 -8.330387036758808e-17 6.226952910328646e-17 0.9403467298837318 -0.340217617998833
12654934666.666666 0.9368162611479751 -0.34982180156267456 -8.264065955905427e-17 6.311362661712391e-17 -8.264065955905427e-17 6.311362661712391e-17 0.936816492536936 -0.3498211819067297
12655552000.0 0.9331879412157115 -0.3593887399034774 -8.196890450880134e-17 6.395067182961047e-17 -8.196890450880134e-17 6.395067182961047e-17 0.9331881789211156 -0.3593881226775864
12656169333.333334 0.9294619248918511 -0.3689180534700928 -8.128868009427921e-17 6.47805783450742e-17 -8.128868009427921e-17 6.47805783450742e-17 0.9294621688881987 -0.36891743873863386
12656786666.666666 0.9256386022569066 -0.3784087446290164 -8.0600062065567e-17 6.560326056170943e-17 -8.0600062065567e-17 6.560326056170943e-17 0.9256388525180405 -0.37840813245609967
12657404000.0 0.9217183735784643 -0.3878598197902165 -7.99031270369658e-17 6.641863368038246e-17 -7.99031270369658e-17 6.641863368038246e-17 0.9217186300775746 -0.3878592102396783
12658021333.333334 0.9177016492693006 -0.39727028951110077 -7.91979524785084e-17 6.722661371334197e-17 -7.91979524785084e-17 6.722661371334197e-17 0.9177019119789277 -0.39726968264649704
12658638666.666666 0.9135888498444518 -0.40663916860002536 -7.848461670738359e-17 6.802711749283746e-17 -7.848461670738359e-17 6.802711749283746e-17 0.9135891187364876 -0.406638564484624
12659256000.0 0.9093804058771202 -0.4159654762195907 -7.776319887925594e-17 6.882006267966727e-17 -7.776319887925594e-17 6.882006267966727e-17 0.9093806809228134 -0.41596487491636636
12659873333.333334 0.9050767579536336 -0.4252482359892495 -7.703377897951734e-17 6.960536777161463e-17 -7.703377897951734e-17 6.960536777161463e-17 0.9050770391235888 -0.42524763756087514
12660490666.666666 0.9006783566273491 -0.43448647608744495 -7.629643781445591e-17 7.038295211179e-17 -7.629643781445591e-17 7.038295211179e-17 0.900678643891536 -0.43448588059628784
12661108000.0 0.8961856623714081 -0.44367922935353515 -7.55512570023083e-17 7.115273589691384e-17 -7.55512570023083e-17 7.115273589691384e-17 0.89618595569916 -0.4436786368616485
12661725333.333334 0.8915991455306246 -0.4528255333888405 -7.479831896429029e-17 7.191464018544167e-17 -7.479831896429029e-17 7.191464018544167e-17 0.8915994448906419 -0.45282494395795675
12662342666.666666 0.8869192862721388 -0.4619244306575991 -7.403770691547412e-17 7.266858690566857e-17 -7.403770691547412e-17 7.266858690566857e-17 0.8869195916324956 -0.4619238443491256
12662960000.0 0.8821465745352576 -0.47097496858701327 -7.326950485563553e-17 7.341449886368475e-17 -7.326950485563553e-17 7.341449886368475e-17 0.8821468858634014 -0.47097438546202347
12663577333.333334 0.8772815099800678 -0.47997619966715016 -7.249379756000918e-17 7.415229975124762e-17 -7.249379756000918e-17 7.415229975124762e-17 0.8772818272428248 -0.47997561978637854
12664194666.666666 0.8723246019351774 -0.4889271815500362 -7.171067056994802e-17 7.48819141535728e-17 -7.171067056994802e-17 7.48819141535728e-17 0.8723249250987566 -0.48892660497387214
12664812000.0 0.8672763693443685 -0.4978269771483634 -7.0920210183526e-17 7.560326755700675e-17 -7.0920210183526e-17 7.560326755700675e-17 0.8672766983743644 -0.49782640393684424
12665429333.333334 0.8621373407123113 -0.5066746547335201 -7.012250344604863e-17 7.631628635661421e-17 -7.012250344604863e-17 7.631628635661421e-17 0.8621376755737059 -0.5066740849463245
12666046666.666666 0.8569080540492177 -0.5154692880331585 -6.931763814051425e-17 7.702089786364247e-17 -6.931763814051425e-17 7.702089786364247e-17 0.8569083947063878 -0.5154687217296015
12666664000.0 0.8515890568144029 -0.5242099563283628 -6.850570277794323e-17 7.771703031293643e-17 -6.850570277794323e-17 7.771703031293643e-17 0.8515894032311219 -0.5242093935673887
12667281333.333334 0.8461809058592186 -0.5328957445496261 -6.768678658771075e-17 7.840461287018385e-17 -6.768678658771075e-17 7.840461287018385e-17 0.8461812579986601 -0.5328951853898032
12667898666.666666 0.8406841673685214 -0.5415257433730394 -6.68609795077402e-17 7.908357563911697e-17 -6.68609795077402e-17 7.908357563911697e-17 0.840684525193264 -0.5415251878725529
12668516000.0 0.8350994168014398 -0.5500990493154149 -6.602837217466048e-17 7.975384966858034e-17 -6.602837217466048e-17 7.975384966858034e-17 0.8350997802734693 -0.5500984975320607
12669133333.333334 0.8294272388313112 -0.5586147648285845 -6.518905591389145e-17 8.041536695949824e-17 -6.518905591389145e-17 8.041536695949824e-17 0.8294276079120275 -0.5586142168197649
12669750666.666666 0.8236682272842298 -0.5670719983937506 -6.43431227296383e-17 8.106806047175371e-17 -6.43431227296383e-17 8.106806047175371e-17 0.823668601934449 -0.5670714542164663
12670368000.0 0.8178229850769824 -0.5754698646146487 -6.349066529483658e-17 8.17118641309486e-17 -6.349066529483658e-17 8.17118641309486e-17 0.8178233652569404 -0.5754693243254939
