! Parameters = {f0=12700.012000; bw=77.238000; Q=6100.000000; N=10; m_0_1=1.166261; m_1_1=-1.270827; m_1_2=1.001073; m_2_2=-1.271476; m_2_3=0.638036; m_2_8=-0.004623; m_2_9=0.032081; m_3_3=-1.273413; m_3_4=0.526565; m_3_7=-0.004023; m_3_8=-0.101111; m_3_9=-0.004623; m_4_4=-1.276338; m_4_5=0.362900; m_4_6=-0.000506; m_4_7=-0.121660; m_4_8=-0.004023; m_5_5=-1.275956; m_5_6=0.770255; m_5_7=-0.000506; m_6_6=-1.275957; m_6_7=0.363242; m_7_7=-1.276324; m_7_8=0.526683; m_8_8=-1.273415; m_8_9=0.638349; m_9_9=-1.271481; m_9_10=1.002151; m_10_10=-1.270837; m_10_11=1.167056}
!
! Created with skrf (http://scikit-rf.org).
# Hz S RI R 50.0 
!freq ReS11 ImS11 ReS21 ImS21 ReS12 ImS12 ReS22 ImS22
12607400000.0 0.8216063757946259 0.5700552282485183 -6.267976267246779e-17 -2.0671562809787817e-17 -6.267976267246779e-17 -2.0671562809787817e-17 0.8216060254207249 0.5700557332333478
12608017333.333334 0.8258339195738499 0.5639134129289196 -6.282163285112028e-17 -2.0194113398823114e-17 -6.282163285112028e-17 -2.0194113398823114e-17 0.8258335729918738 0.5639139204872724
12608634666.666666 0.8300155519229038 0.5577402473965529 -6.295987026474575e-17 -1.9715701119083384e-17 -6.295987026474575e-17 -1.9715701119083384e-17 0.8300152091517481 0.557740757499961
12609252000.0 0.8341510403680993 0.5515360748424972 -6.309446846763641e-17 -1.923635358038619e-17 -6.309446846763641e-17 -1.923635358038619e-17 0.834150701426446 0.551536587462354
12609869333.333334 0.838240155001026 0.545301240181706 -6.322542122369636e-17 -1.875609843494504e-17 -6.322542122369636e-17 -1.875609843494504e-17 0.8382398199073422 0.545301755289268
12610486666.666666 0.8422826684913663 0.5390360900337875 -6.335272250671025e-17 -1.8274963375794254e-17 -6.335272250671025e-17 -1.8274963375794254e-17 0.8422823372639042 0.5390366076001758
12611104000.0 0.8462783560996556 0.5327409727035414 -6.347636650060717e-17 -1.7792976135183017e-17 -6.347636650060717e-17 -1.7792976135183017e-17 0.8462780287564486 0.5327414926997422
12611721333.333334 0.8502269956895141 0.5264162381620014 -6.359634759970661e-17 -1.731016448299537e-17 -6.359634759970661e-17 -1.731016448299537e-17 0.8502266722483806 0.5264167605588707
12612338666.666666 0.8541283677402596 0.5200622380265754 -6.371266040895545e-17 -1.6826556225152084e-17 -6.371266040895545e-17 -1.6826556225152084e-17 0.8541280482187972 0.5200627627948365
12612956000.0 0.8579822553589858 0.5136793255416838 -6.382529974415562e-17 -1.6342179202002082e-17 -6.382529974415562e-17 -1.6342179202002082e-17 0.8579819397745734 0.5136798526519322
12613573333.333334 0.8617884442925927 0.5072678555591742 -6.393426063217109e-17 -1.5857061286747128e-17 -6.393426063217109e-17 -1.5857061286747128e-17 0.8617881326623893 0.5072683849818781
12614190666.666666 0.8655467229398023 0.5008281845184228 -6.403953831113099e-17 -1.5371230383830616e-17 -6.403953831113099e-17 -1.5371230383830616e-17 0.8655464152807442 0.5008287162239243
12614808000.0 0.8692568823628036 0.49436067042671294 -6.414112823061903e-17 -1.4884714427334446e-17 -6.414112823061903e-17 -1.4884714427334446e-17 0.8692565786916052 0.4943612043852304
12615425333.333334 0.8729187162989847 0.48786567283913657 -6.423902605184613e-17 -1.439754137939108e-17 -6.423902605184613e-17 -1.439754137939108e-17 0.8729184166321369 0.4878662090207659
12616042666.666666 0.8765320211722852 0.48134355283880154 -6.433322764781761e-17 -1.3909739228569227e-17 -6.433322764781761e-17 -1.3909739228569227e-17 0.8765317255260551 0.48134409121351807
12616660000.0 0.8800965961046258 0.47479467301655964 -6.442372910348351e-17 -1.3421335988276813e-17 -6.442372910348351e-17 -1.3421335988276813e-17 0.8800963044950555 0.47479521355422016
12617277333.333334 0.883612242926981 0.46821939745102403 -6.451052671587772e-17 -1.2932359695161405e-17 -6.451052671587772e-17 -1.2932359695161405e-17 0.8836119553698863 0.4682199401213674
12617894666.666666 0.8870787661904369 0.46161809168825274 -6.459361699424654e-17 -1.2442838407502651e-17 -6.459361699424654e-17 -1.2442838407502651e-17 0.8870784827014057 0.46161863646090195
12618512000.0 0.8904959731770924 0.45499112272134984 -6.467299666016469e-17 -1.1952800203602095e-17 -6.467299666016469e-17 -1.1952800203602095e-17 0.8904956937714875 0.45499166956581527
12619129333.333334 0.8938636739106878 0.4483388589702421 -6.474866264763691e-17 -1.1462273180191134e-17 -6.474866264763691e-17 -1.1462273180191134e-17 0.8938633986036417 0.448339407855921
12619746666.666666 0.8971816811672532 0.441661670261018 -6.482061210319103e-17 -1.0971285450812525e-17 -6.482061210319103e-17 -1.0971285450812525e-17 0.8971814099736694 0.4416622211571972
12620364000.0 0.9004498104854785 0.43495992780544385 -6.48888423859563e-17 -1.0479865144220166e-17 -6.48888423859563e-17 -1.0479865144220166e-17 0.9004495434200307 0.43496048068130183
12620981333.333334 0.9036678801769435 0.42823400418037805 -6.495335106772968e-17 -9.98804040277859e-18 -6.495335106772968e-17 -9.98804040277859e-18 0.9036676172540745 0.42823455900498597
12621598666.666666 0.9068357113362465 0.42148427330700716 -6.501413593303255e-17 -9.495839380843831e-18 -6.501413593303255e-17 -9.495839380843831e-18 0.9068354525701664 0.4214848300493306
12622216000.0 0.9099531278509694 0.4147111104300061 -6.507119497915118e-17 -9.003290243171943e-18 -6.507119497915118e-17 -9.003290243171943e-18 0.9099528732556575 0.41471166905890783
12622833333.333334 0.913019956411461 0.4079148920967029 -6.51245264161698e-17 -8.510421163298048e-18 -6.51245264161698e-17 -8.510421163298048e-18 0.9130197060006623 0.40791545258094325
12623450666.666666 0.9160360265203873 0.4010959961363259 -6.517412866698713e-17 -8.017260321943179e-18 -6.517412866698713e-17 -8.017260321943179e-18 0.9160357803076127 0.4010965584445653
12624068000.0 0.9190011705023508 0.39425480163868803 -6.52200003673236e-17 -7.523835905404735e-18 -6.52200003673236e-17 -7.523835905404735e-18 0.9190009285008769 0.3942553657394885
12624685333.333334 0.9219152235131287 0.38739168893329184 -6.526214036571687e-17 -7.030176103936066e-18 -6.526214036571687e-17 -7.030176103936066e-18 0.9219149857359976 0.38739225479511924
12625302666.666666 0.9247780235488214 0.3805070395682405 -6.530054772350104e-17 -6.536309110174789e-18 -6.530054772350104e-17 -6.536309110174789e-18 0.9247777900088373 0.3805076071594653
12625920000.0 0.9275894114549292 0.37360123628884034 -6.533522171478052e-17 -6.042263117497233e-18 -6.533522171478052e-17 -6.042263117497233e-18 0.9275891821646606 0.3736018055777402
12626537333.333334 0.9303492309351274 0.36667466301650703 -6.53661618263851e-17 -5.548066318445979e-18 -6.53661618263851e-17 -5.548066318445979e-18 0.9303490059069054 0.36667523397126855
12627154666.666666 0.933057328559989 0.3597277048273436 -6.539336775781681e-17 -5.053746903120903e-18 -6.539336775781681e-17 -5.053746903120903e-18 0.9330571078059063 0.3597282774160638
12627772000.0 0.9357135537755443 0.3527607479306528 -6.54168394211851e-17 -4.5593330575542125e-18 -6.54168394211851e-17 -4.5593330575542125e-18 0.935713337307455 0.35276132212134076
12628389333.333334 0.9383177589115773 0.3457741796476507 -6.543657694112677e-17 -4.064852962140336e-18 -6.543657694112677e-17 -4.064852962140336e-18 0.9383175467410966 0.34577475540823016
12629006666.666666 0.9408697991899106 0.33876838838975026 -6.545258065471683e-17 -3.570334790012736e-18 -6.545258065471683e-17 -3.570334790012736e-18 0.9408695913284124 0.3387689656880601
12629624000.0 0.9433695327324084 0.3317437636370716 -6.546485111136607e-17 -3.075806705451605e-18 -6.546485111136607e-17 -3.075806705451605e-18 0.9433693291910265 0.33174434244086853
12630241333.333334 0.9458168205688964 0.3247006959167107 -6.547338907270647e-17 -2.581296862288921e-18 -6.547338907270647e-17 -2.581296862288921e-18 0.9458166213585236 0.3247012761936713
12630858666.666666 0.948211526644803 0.31763957678126986 -6.547819551246522e-17 -2.086833402307302e-18 -6.547819551246522e-17 -2.086833402307302e-18 0.9482113317760906 0.3176401584989917
12631476000.0 0.9505535178288897 0.3105607987866055 -6.547927161632609e-17 -1.592444453638288e-18 -6.547927161632609e-17 -1.592444453638288e-18 0.9505533273122461 0.3105613819126093
12632093333.333334 0.9528426639204607 0.3034647554705702 -6.547661878177944e-17 -1.0981581291788035e-18 -6.547661878177944e-17 -1.0981581291788035e-18 0.9528424777660509 0.3034653399723014
12632710666.666666 0.9550788376567174 0.2963518413307835 -6.547023861795961e-17 -6.040025249923285e-19 -6.547023861795961e-17 -6.040025249923285e-19 0.9550786558744644 0.29635242717561455
12633328000.0 0.9572619147198526 0.28922245180264594 -6.546013294547056e-17 -1.1000571871352789e-19 -6.546013294547056e-17 -1.1000571871352789e-19 0.9572617373194345 0.2892230389578777
12633945333.333334 0.9593917737438551 0.2820769832376804 -6.54463037962e-17 3.838042320380014e-19 -6.54463037962e-17 3.838042320380014e-19 0.9593916007347056 0.2820775716705441
12634562666.666666 0.961468296321363 0.27491583288117183 -6.542875341312091e-17 8.77399291240378e-19 -6.542875341312091e-17 8.77399291240378e-19 0.9614681277126695 0.2749164225588306
12635180000.0 0.963491367010166 0.26773939885032666 -6.54074842500813e-17 1.3707514460669653e-18 -6.54074842500813e-17 1.3707514460669653e-18 0.9634912028108725 0.2677399897398781
12635797333.333334 0.9654608733396929 0.26054808011192315 -6.538249897158236e-17 1.8638327084670818e-18 -6.538249897158236e-17 1.8638327084670818e-18 0.9654607135584967 0.2605486721804005
12636414666.666666 0.9673767058172085 0.2533422764603217 -6.535380045254506e-17 2.3566151167354066e-18 -6.535380045254506e-17 2.3566151167354066e-18 0.9673765504625597 0.25334286967469566
12637032000.0 0.969238757933922 0.2461223884951566 -6.532139177806318e-17 2.8490707371145562e-18 -6.532139177806318e-17 2.8490707371145562e-18 0.9692386070140244 0.24612298282233777
12637649333.333334 0.9710469261709297 0.23888881759898234 -6.528527624314651e-17 3.3411716653601598e-18 -6.528527624314651e-17 3.3411716653601598e-18 0.9710467796937411 0.23888941300582284
12638266666.666666 0.9728011100049258 0.23164196591515326 -6.524545735245134e-17 3.8328900283129406e-18 -6.524545735245134e-17 3.8328900283129406e-18 0.9728009679781527 0.23164256236844766
12638884000.0 0.9745012119138355 0.22438223632524368 -6.520193881999869e-17 4.324197985485108e-18 -6.520193881999869e-17 4.324197985485108e-18 0.9745010743449407 0.22438283379173252
12639501333.333334 0.9761471373822016 0.21711003242684598 -6.515472456888166e-17 4.815067730618294e-18 -6.515472456888166e-17 4.815067730618294e-18 0.9761470042783953 0.21711063087321592
12640118666.666666 0.9777387949064433 0.20982575851107588 -6.510381873096096e-17 5.305471493255671e-18 -6.510381873096096e-17 5.305471493255671e-18 0.9777386662746899 0.2098263579039631
12640736000.0 0.9792760959999978 0.2025298195398755 -6.504922564654594e-17 5.795381540322392e-18 -6.504922564654594e-17 5.795381540322392e-18 0.9792759718470112 0.20253041984586645
12641353333.333334 0.9807589551981349 0.1952226211239715 -6.49909498640704e-17 6.284770177657249e-18 -6.49909498640704e-17 6.284770177657249e-18 0.9807588355303798 0.19522322230960526
12641970666.666666 0.9821872900628154 0.1879045694998252 -6.492899613974853e-17 6.7736097516041596e-18 -6.492899613974853e-17 6.7736097516041596e-18 0.9821871748865046 0.18790517153159486
12642588000.0 0.9835610211871971 0.18057607150740987 -6.486336943722503e-17 7.261872650554683e-18 -6.486336943722503e-17 7.261872650554683e-18 0.9835609105082959 0.18057667435176528
12643205333.333334 0.984880072200098 0.1732375345673704 -6.479407492721222e-17 7.749531306496707e-18 -6.479407492721222e-17 7.749531306496707e-18 0.9848799660243195 0.17323813819071923
12643822666.666666 0.9861443697702169 0.1658893666584844 -6.47211179871128e-17 8.236558196585919e-18 -6.47211179871128e-17 8.236558196585919e-18 0.9861442681030236 0.16588997102719427
12644440000.0 0.9873538436102213 0.15853197629492496 -6.464450420063587e-17 8.722925844669804e-18 -6.464450420063587e-17 8.722925844669804e-18 0.9873537464568247 0.1585325813753255
12645057333.333334 0.9885084264806441 0.15116577250360588 -6.456423935739706e-17 9.208606822847132e-18 -6.456423935739706e-17 9.208606822847132e-18 0.9885083338460046 0.15116637826199045
12645674666.666666 0.9896080541936145 0.14379116480152712 -6.448032945250969e-17 9.693573753003852e-18 -6.448032945250969e-17 9.693573753003852e-18 0.9896079660824401 0.14379177120415448
12646292000.0 0.9906526656164748 0.13640856317264174 -6.439278068616171e-17 1.0177799308358276e-17 -6.439278068616171e-17 1.0177799308358276e-17 0.9906525820332223 0.13640917018573834
12646909333.333334 0.9916422026751165 0.12901837804551394 -6.430159946318554e-17 1.0661256214982776e-17 -6.430159946318554e-17 1.0661256214982776e-17 0.9916421236239896 0.1290189856352754
12647526666.666666 0.9925766103572402 0.12162102027027612 -6.420679239261152e-17 1.1143917253347392e-17 -6.420679239261152e-17 1.1143917253347392e-17 0.9925765358421919 0.12162162840286958
12648144000.0 0.9934558367154193 0.11421690109576038 -6.410836628721316e-17 1.1625755259839586e-17 -6.410836628721316e-17 1.1625755259839586e-17 0.9934557667401481 0.11421750973732585
12648761333.333334 0.9942798328699749 0.10680643214669115 -6.400632816303948e-17 1.210674312829317e-17 -6.400632816303948e-17 1.210674312829317e-17 0.9942797674379289 0.10680704126334388
12649378666.666666 0.9950485530116959 0.09939002540085874 -6.390068523893892e-17 1.2586853811493157e-17 -6.390068523893892e-17 1.2586853811493157e-17 0.9950484921260673 0.09939063495869058
12649996000.0 0.9957619544043809 0.09196809316615821 -6.379144493606558e-17 1.3066060322713189e-17 -6.379144493606558e-17 1.3066060322713189e-17 0.9957618980681121 0.09196870313124014
12650613333.333334 0.9964199973872346 0.08454104805758399 -6.36786148773799e-17 1.3544335737216084e-17 -6.36786148773799e-17 1.3544335737216084e-17 0.9964199456030128 0.08454165839596745
12651230666.666666 0.9970226453770453 0.07710930297448804 -6.356220288713914e-17 1.402165319374862e-17 -6.356220288713914e-17 1.402165319374862e-17 0.9970225981473041 0.07710991365220701
12651848000.0 0.9975698648702372 0.06967327107742713 -6.344221699036703e-17 1.4497985896075475e-17 -6.344221699036703e-17 1.4497985896075475e-17 0.9975698221971588 0.06967388206050021
12652465333.333334 0.9980616254447323 0.06223336576525046 -6.331866541232548e-17 1.4973307114447387e-17 -6.331866541232548e-17 1.4973307114447387e-17 0.9980615873302433 0.06223397701968243
12653082666.666666 0.9984978997616213 0.05479000065234377 -6.319155657796604e-17 1.5447590187108423e-17 -6.319155657796604e-17 1.5447590187108423e-17 0.9984978662073964 0.05479061214412778
12653700000.0 0.998878663566719 0.047343589545124444 -6.306089911136922e-17 1.5920808521798583e-17 -6.306089911136922e-17 1.5920808521798583e-17 0.9988786345741782 0.04734420124024367
12654317333.333334 0.9992038956918754 0.03989454641966046 -6.292670183518414e-17 1.6392935597208915e-17 -6.292670183518414e-17 1.6392935597208915e-17 0.9992038712621859 0.039895158284090154
12654934666.666666 0.9994735780561821 0.03244328539814509 -6.27889737700411e-17 1.6863944964492905e-17 -6.27889737700411e-17 1.6863944964492905e-17 0.999473558190255 0.03244389739785432
12655552000.0 0.999687695666958 0.02499022072610091 -6.264772413396479e-17 1.733381024872836e-17 -6.264772413396479e-17 1.733381024872836e-17 0.9996876803654541 0.024990832827054665
12656169333.333334 0.999846236620593 0.017535766749407516 -6.250296234177439e-17 1.780250515038547e-17 -6.250296234177439e-17 1.780250515038547e-17 0.9998462258839164 0.01753637891756841
12656786666.666666 0.9999491921032058 0.0100803378910672 -6.235469800446714e-17 1.827000344680572e-17 -6.235469800446714e-17 1.827000344680572e-17 0.9999491859315083 0.010080950092397439
12657404000.0 0.9999965563911354 0.002624348628392935 -6.220294092859936e-17 1.8736278993649424e-17 -6.220294092859936e-17 1.8736278993649424e-17 0.9999965547843148 0.0026249608288562215
12658021333.333334 0.9999883268512586 -0.0048317865302614504 -6.204770111564829e-17 1.9201305726366597e-17 -6.204770111564829e-17 1.9201305726366597e-17 0.9999883298089581 -0.004831174364698055
12658638666.666666 0.9999245039411353 -0.012287653068318086 -6.188898876137117e-17 1.966505766163429e-17 -6.188898876137117e-17 1.966505766163429e-17 0.9999245114627469 -0.012287040971682272
12659256000.0 0.9998050912089863 -0.01974283648421867 -6.172681425514545e-17 2.0127508898815243e-17 -6.172681425514545e-17 2.0127508898815243e-17 0.9998051032936458 -0.01974222449053096
12659873333.333334 0.9996300952934913 -0.02719692231441138 -6.156118817930366e-17 2.0588633621395543e-17 -6.156118817930366e-17 2.0588633621395543e-17 0.9996301119400826 -0.027196310457683292
12660490666.666666 0.9993995259234301 -0.034649496156165395 -6.13921213084608e-17 2.104840609840636e-17 -6.13921213084608e-17 2.104840609840636e-17 0.9993995471305807 -0.03464888447039742
12661108000.0 0.99911339591712 -0.04210014369112035 -6.12196246088159e-17 2.1506800685883844e-17 -6.12196246088159e-17 2.1506800685883844e-17 0.9991134216832075 -0.042099532210300265
12661725333.333334 0.9987717211817314 -0.04954845070769522 -6.104370923746431e-17 2.1963791828264464e-17 -6.104370923746431e-17 2.1963791828264464e-17 0.9987717515048791 -0.04954783946579608
12662342666.666666 0.9983745207123842 -0.056994003124627365 -6.086438654168332e-17 2.241935405981808e-17 -6.086438654168332e-17 2.241935405981808e-17 0.9983745555904607 -0.05699339215560554
12662960000.0 0.9979218165910917 -0.06443638701376525 -6.068166805821112e-17 2.28734620060649e-17 -6.068166805821112e-17 2.28734620060649e-17 0.997921856021715 -0.06443577635155877
12663577333.333334 0.9974136339855483 -0.07187518862302436 -6.04955655125214e-17 2.332609038517136e-17 -6.04955655125214e-17 2.332609038517136e-17 0.9974136779660818 -0.07187457830155075
12664194666.666666 0.9968500011477104 -0.07930999439958727 -6.030609081807791e-17 2.3777214009364065e-17 -6.030609081807791e-17 2.3777214009364065e-17 0.9968500496752659 -0.07930938445274191
12664812000.0 0.996230949412244 -0.08674039101266832 -6.011325607558564e-17 2.4226807786320846e-17 -6.011325607558564e-17 2.4226807786320846e-17 0.9962310024836806 -0.08673978147432244
12665429333.333334 0.9955565131947673 -0.09416596537671891 -5.991707357223042e-17 2.4674846720557303e-17 -5.991707357223042e-17 2.4674846720557303e-17 0.9955565708066909 -0.09416535628071762
12666046666.666666 0.9948267299899517 -0.10158630467416582 -5.97175557809066e-17 2.5121305914814672e-17 -5.97175557809066e-17 2.5121305914814672e-17 0.994826792138717 -0.10158569605432649
12666664000.0 0.9940416403694203 -0.10900099637858811 -5.951471535943204e-17 2.5566160571442433e-17 -5.951471535943204e-17 2.5566160571442433e-17 0.9940417070511305 -0.1090003882686983
12667281333.333334 0.9932012879795099 -0.11640962827745284 -5.930856514976175e-17 2.6009385993758585e-17 -5.930856514976175e-17 2.6009385993758585e-17 0.9932013591900165 -0.11640902071126855
12667898666.666666 0.9923057195388431 -0.12381178849508881 -5.909911817718013e-17 2.645095758742679e-17 -5.909911817718013e-17 2.645095758742679e-17 0.9923057952737446 -0.12381118150633226
12668516000.0 0.991354984835696 -0.13120706551580907 -5.888638764949057e-17 2.6890850861810394e-17 -5.888638764949057e-17 2.6890850861810394e-17 0.9913550650903424 -0.13120645913816742
12669133333.333334 0.9903491367252975 -0.1385950482063103 -5.867038695619576e-17 2.7329041431320313e-17 -5.867038695619576e-17 2.7329041431320313e-17 0.9903492214947871 -0.1385944424734333
12669750666.666666 0.9892882311268238 -0.14597532583903636 -5.845112966765936e-17 2.7765505016772774e-17 -5.845112966765936e-17 2.7765505016772774e-17 0.9892883204060025 -0.1459747207845345
12670368000.0 0.9881723270203293 -0.15334748811467372 -5.822862953426909e-17 2.820021744671732e-17 -5.822862953426909e-17 2.820021744671732e-17 0.9881724208037956 -0.15334688377211678
