! Parameters = {f0=12700.012000; bw=77.238000; Q=6100.000000; N=10; m_0_1=1.244740; m_1_1=-0.093650; m_1_2=1.079552; m_2_2=-0.094299; m_2_3=0.716515; m_2_8=-0.000699; m_2_9=0.036005; m_3_3=-0.096236; m_3_4=0.605044; m_3_7=-0.000099; m_3_8=-0.097187; m_3_9=-0.000699; m_4_4=-0.099161; m_4_5=0.441379; m_4_6=0.003418; m_4_7=-0.117736; m_4_8=-0.000099; m_5_5=-0.098779; m_5_6=0.848734; m_5_7=0.003418; m_6_6=-0.098780; m_6_7=0.441721; m_7_7=-0.099147; m_7_8=0.605162; m_8_8=-0.096238; m_8_9=0.716828; m_9_9=-0.094304; m_9_10=1.080630; m_10_10=-0.093660; m_10_11=1.245535}
!
! Created with skrf (http://scikit-rf.org).
# Hz S RI R 50.0 
!freq ReS11 ImS11 ReS21 ImS21 ReS12 ImS12 ReS22 ImS22
12607400000.0 -0.9496376839282665 -0.31335007461813086 9.798842517724115e-17 3.0101374490891833e-18 9.798842517724115e-17 3.0101374490891833e-18 -0.9496374784179734 -0.31335069743624844
12608017333.333334 -0.9526556242583559 -0.30405141270639147 9.799415621627182e-17 2.0429629073824147e-18 9.799415621627182e-17 2.0429629073824147e-18 -0.9526554248563374 -0.3040520374732291
12608634666.666666 -0.9555825163582207 -0.29472369166784196 9.799034776105745e-17 1.0759683177689971e-18 9.799034776105745e-17 1.0759683177689971e-18 -0.9555823230829348 -0.29472431832350077
12609252000.0 -0.9584180804958281 -0.28536780298155995 9.797700391840467e-17 1.0924770367071418e-19 9.797700391840467e-17 1.0924770367071418e-19 -0.9584178933651459 -0.2853684314659665
12609869333.333334 -0.9611620456676745 -0.27598464081858265 9.795412972117397e-17 -8.571049749642752e-19 9.795412972117397e-17 -8.571049749642752e-19 -0.9611618646988775 -0.2759852710714945
12610486666.666666 -0.9638141496246176 -0.2665751019566644 9.792173112742873e-17 -1.822995830778575e-18 9.792173112742873e-17 -1.822995830778575e-18 -0.9638139748343986 -0.2665757339176763
12611104000.0 -0.9663741388970071 -0.25714008569435187 9.787981501949191e-17 -2.7883310581315394e-18 9.787981501949191e-17 -2.7883310581315394e-18 -0.966373970301465 -0.2571407193029012
12611721333.333334 -0.9688417688188459 -0.24768049376525386 9.782838920291644e-17 -3.7530169421441895e-18 9.782838920291644e-17 -3.7530169421441895e-18 -0.9688416064334872 -0.24768112896062627
12612338666.666666 -0.971216803551228 -0.23819723025166767 9.77674624053631e-17 -4.716959867823565e-18 9.77674624053631e-17 -4.716959867823565e-18 -0.9712166473909627 -0.23819786697300308
12612956000.0 -0.9734990161048519 -0.2286912014982552 9.769704427539032e-17 -5.680066329118117e-18 9.769704427539032e-17 -5.680066329118117e-18 -0.9734988661839955 -0.22869183968455398
12613573333.333334 -0.9756881883616998 -0.21916331602550454 9.761714538115683e-17 -6.642242937950716e-18 9.761714538115683e-17 -6.642242937950716e-18 -0.9756880446939684 -0.21916395561563268
12614190666.666666 -0.9777841110959257 -0.2096144844427054 9.752777720903229e-17 -7.603396433272703e-18 9.752777720903229e-17 -7.603396433272703e-18 -0.977783973694438 -0.209615125375401
12614808000.0 -0.9797865839938037 -0.20004561936114165 9.742895216212059e-17 -8.563433690088165e-18 9.742895216212059e-17 -8.563433690088165e-18 -0.9797864528710778 -0.20004626157502045
12615425333.333334 -0.9816954156729158 -0.1904576353066763 9.732068355869479e-17 -9.522261728453144e-18 9.732068355869479e-17 -9.522261728453144e-18 -0.9816952908408678 -0.1904582787402374
12616042666.666666 -0.9835104237004215 -0.1808514486324295 9.720298563054425e-17 -1.0479787722454428e-17 9.720298563054425e-17 -1.0479787722454428e-17 -0.9835103051703654 -0.1808520932240616
12616660000.0 -0.9852314346104787 -0.1712279774312844 9.707587352123116e-17 -1.1435919009194788e-17 9.707587352123116e-17 -1.1435919009194788e-17 -0.9852313223931264 -0.17122862311927173
12617277333.333334 -0.9868582839208626 -0.16158814144794703 9.693936328426111e-17 -1.2390563097736679e-17 9.693936328426111e-17 -1.2390563097736679e-17 -0.9868581780263203 -0.16158878817047484
12617894666.666666 -0.9883908161486393 -0.15193286199126635 9.679347188116821e-17 -1.3343627678009229e-17 9.679347188116821e-17 -1.3343627678009229e-17 -0.988390716586409 -0.15193350968642724
12618512000.0 -0.9898288848250705 -0.1422630618459587 9.663821717950396e-17 -1.4295020629763e-17 9.663821717950396e-17 -1.4295020629763e-17 -0.9898287916040475 -0.1422637104517583
12619129333.333334 -0.9911723525095721 -0.13257966518463823 9.647361795075149e-17 -1.52446500314065e-17 9.647361795075149e-17 -1.52446500314065e-17 -0.9911722656380442 -0.1325803146390012
12619746666.666666 -0.9924210908028797 -0.12288359747929462 9.629969386814103e-17 -1.6192424168902304e-17 9.629969386814103e-17 -1.6192424168902304e-17 -0.9924210102885281 -0.12288424772007056
12620364000.0 -0.9935749803593074 -0.11317578541292664 9.611646550438481e-17 -1.71382515445956e-17 9.611646550438481e-17 -1.71382515445956e-17 -0.9935749062092051 -0.11317643637789619
12620981333.333334 -0.9946339108981452 -0.10345715679106149 9.59239543293264e-17 -1.8082040886021155e-17 9.59239543293264e-17 -1.8082040886021155e-17 -0.9946338431187565 -0.1034578084179422
12621598666.666666 -0.995597781214223 -0.09372864045288382 9.572218270749702e-17 -1.9023701154712035e-17 9.572218270749702e-17 -1.9023701154712035e-17 -0.9955977198114012 -0.09372929267933588
12622216000.0 -0.9964664991875554 -0.08399116618268945 9.551117389559478e-17 -1.9963141554941335e-17 9.551117389559478e-17 -1.9963141554941335e-17 -0.9964664441665454 -0.08399181894632203
12622833333.333334 -0.9972399817921721 -0.07424566462076874 9.529095203986875e-17 -2.0900271542480382e-17 9.529095203986875e-17 -2.0900271542480382e-17 -0.9972399331576074 -0.07424631785914569
12623450666.666666 -0.9979181551040236 -0.06449306717480208 9.506154217342673e-17 -2.183500083328838e-17 9.506154217342673e-17 -2.183500083328838e-17 -0.997918112859928 -0.064493720825448
12624068000.0 -0.9985009543080754 -0.054734305930502526 9.4822970213452e-17 -2.2767239412197718e-17 9.4822970213452e-17 -2.2767239412197718e-17 -0.998500918457861 -0.05473495993090881
12624685333.333334 -0.9989883237044929 -0.044970313562589986 9.457526295833191e-17 -2.369689754158311e-17 9.457526295833191e-17 -2.369689754158311e-17 -0.9989882942509609 -0.04497096785022063
12625302666.666666 -0.9993802167139484 -0.03520202324602159 9.43184480847164e-17 -2.4623885769944042e-17 9.43184480847164e-17 -2.4623885769944042e-17 -0.9993801936592873 -0.035202677758319256
12625920000.0 -0.9996765958820975 -0.025430368566209043 9.405255414446985e-17 -2.5548114940538938e-17 9.405255414446985e-17 -2.5548114940538938e-17 -0.9996765792278852 -0.02543102324060109
12626537333.333334 -0.9998774328831417 -0.015656283430275923 9.377761056156518e-17 -2.6469496199893928e-17 9.377761056156518e-17 -2.6469496199893928e-17 -0.9998774226303446 -0.015656938204180324
12627154666.666666 -0.9999827085225425 -0.005880701977716054 9.349364762887202e-17 -2.738794100635883e-17 9.349364762887202e-17 -2.738794100635883e-17 -0.9999827046715138 -0.005881356788547368
12627772000.0 -0.999992412738856 0.0038954415092260974 9.320069650486724e-17 -2.8303361138605165e-17 9.320069650486724e-17 -2.8303361138605165e-17 -0.9999924152893386 0.00389478672405071
12628389333.333334 -0.9999065446046931 0.01367121269436454 9.289878921027985e-17 -2.9215668704036995e-17 9.289878921027985e-17 -2.9215668704036995e-17 -0.9999065535558163 0.013670557997419338
12629006666.666666 -0.9997251123268057 0.02344567727721014 9.258795862462189e-17 -3.012477614726691e-17 9.258795862462189e-17 -3.012477614726691e-17 -0.9997251276770889 0.023445022731054848
12629624000.0 -0.9994481332453069 0.033217901082122504 9.226823848266621e-17 -3.1030596258463565e-17 9.226823848266621e-17 -3.1030596258463565e-17 -0.9994481549926577 0.033217246749296325
12630241333.333334 -0.9990756338320095 0.04298695014767732 9.193966337082817e-17 -3.193304218170704e-17 9.193966337082817e-17 -3.193304218170704e-17 -0.9990756619737239 0.04298629609069292
12630858666.666666 -0.9986076496879054 0.052751890815672164 9.16022687234689e-17 -3.2832027423298876e-17 9.16022687234689e-17 -3.2832027423298876e-17 -0.9986076842206686 0.05275123709700977
12631476000.0 -0.9980442255397429 0.06251178982084195 9.125609081910907e-17 -3.372746586005405e-17 9.125609081910907e-17 -3.372746586005405e-17 -0.9980442664596302 0.06251113650294336
12632093333.333334 -0.9973854152357741 0.07226571437959965 9.090116677658568e-17 -3.4619271747491646e-17 9.090116677658568e-17 -3.4619271747491646e-17 -0.9973854625382503 0.07226506152486221
12632710666.666666 -0.996631281740605 0.08201273227927061 9.053753455110193e-17 -3.550735972805821e-17 9.053753455110193e-17 -3.550735972805821e-17 -0.9966313354205253 0.0820120799500413
12633328000.0 -0.9957818971291557 0.09175191196749873 9.016523293020649e-17 -3.6391644839281175e-17 9.016523293020649e-17 -3.6391644839281175e-17 -0.9957819571807676 0.0917512602260683
12633945333.333334 -0.9948373425797971 0.10148232264093762 8.978430152970303e-17 -3.727204252186069e-17 8.978430152970303e-17 -3.727204252186069e-17 -0.9948374089967383 0.10148167154953452
12634562666.666666 -0.9937977083665884 0.11120303433426729 8.939478078947206e-17 -3.8148468627739495e-17 8.939478078947206e-17 -3.8148468627739495e-17 -0.9937977811418905 0.11120238395505186
12635180000.0 -0.9926630938506386 0.12091311800921523 8.899671196921015e-17 -3.902083942813972e-17 8.899671196921015e-17 -3.902083942813972e-17 -0.9926631729767239 0.1209124684042734
12635797333.333334 -0.9914336074706079 0.13061164564329028 8.859013714409792e-17 -3.988907162153789e-17 8.859013714409792e-17 -3.988907162153789e-17 -0.9914336929392942 0.13061099687462815
12636414666.666666 -0.990109366732376 0.1402976903182798 8.817509920039724e-17 -4.075308234158297e-17 8.817509920039724e-17 -4.075308234158297e-17 -0.9901094585348765 0.1402970424478176
12637032000.0 -0.9886904981977673 0.1499703263091764 8.775164183094886e-17 -4.161278916501662e-17 8.775164183094886e-17 -4.161278916501662e-17 -0.9886905963246895 0.14996967939874226
12637649333.333334 -0.9871771374724774 0.15962862917245474 8.731980953061545e-17 -4.246811011949947e-17 8.731980953061545e-17 -4.246811011949947e-17 -0.9871772419138244 0.1596279832837789
12638266666.666666 -0.985569429193122 0.1692716758343669 8.687964759164252e-17 -4.33189636914032e-17 8.687964759164252e-17 -4.33189636914032e-17 -0.9855695399382963 0.16927103102907623
12638884000.0 -0.9838675270133921 0.1788985446793331 8.643120209893441e-17 -4.416526883357491e-17 8.643120209893441e-17 -4.416526883357491e-17 -0.983867644051194 0.17889790101894473
12639501333.333334 -0.9820715935893716 0.18850831563796594 8.597451992526425e-17 -4.500694497303299e-17 8.597451992526425e-17 -4.500694497303299e-17 -0.9820717169080019 0.18850767318388167
12640118666.666666 -0.9801818005640429 0.19810007027475335 8.550964872641853e-17 -4.5843912018597036e-17 8.550964872641853e-17 -4.5843912018597036e-17 -0.9801819301511018 0.1980994290882536
12640736000.0 -0.9781983285507614 0.2076728918764502 8.503663693622701e-17 -4.667609036854333e-17 8.503663693622701e-17 -4.667609036854333e-17 -0.9781984643932528 0.20767225201868839
12641353333.333334 -0.976121367116144 0.21722586553893847 8.455553376158514e-17 -4.750340091808861e-17 8.455553376158514e-17 -4.750340091808861e-17 -0.9761215092004748 0.21722522707093508
12641970666.666666 -0.9739511147618517 0.22675807825516964 8.40663891773346e-17 -4.832576506694556e-17 8.40663891773346e-17 -4.832576506694556e-17 -0.9739512630738327 0.2267574412378061
12642588000.0 -0.9716877789056382 0.23626861900231105 8.356925392112159e-17 -4.914310472673735e-17 8.356925392112159e-17 -4.914310472673735e-17 -0.9716879334304874 0.23626798349632447
12643205333.333334 -0.9693315758615394 0.24575657882876026 8.306417948815415e-17 -4.9955342328410035e-17 8.306417948815415e-17 -4.9955342328410035e-17 -0.9693317365838827 0.24575594489473737
12643822666.666666 -0.9668827308191931 0.2552210509410439 8.255121812589573e-17 -5.0762400829576726e-17 8.255121812589573e-17 -5.0762400829576726e-17 -0.966882897723066 0.25522041863941536
12644440000.0 -0.964341477822312 0.2646611307905105 8.203042282870109e-17 -5.1564203721786847e-17 8.203042282870109e-17 -5.1564203721786847e-17 -0.964341650891159 0.2646605001815448
12645057333.333334 -0.9617080597463236 0.2740759161597248 8.150184733235968e-17 -5.236067503777583e-17 8.150184733235968e-17 -5.236067503777583e-17 -0.9617082389630038 0.2740752873035233
12645674666.666666 -0.9589827282751916 0.28346450724861616 8.096554610858411e-17 -5.3151739358635986e-17 8.096554610858411e-17 -5.3151739358635986e-17 -0.9589829136219771 0.2834638802051063
12646292000.0 -0.9561657438772516 0.29282600676082765 8.042157435941782e-17 -5.3937321820947124e-17 8.042157435941782e-17 -5.3937321820947124e-17 -0.9561659353358306 0.29282538158975807
12646909333.333334 -0.9532573757804471 0.3021595199890383 7.986998801159177e-17 -5.4717348123825634e-17 7.986998801159177e-17 -5.4717348123825634e-17 -0.9532575733319252 0.3021588967499726
12647526666.666666 -0.9502579019465436 0.31146415490066337 7.931084371079203e-17 -5.549174453594536e-17 7.931084371079203e-17 -5.549174453594536e-17 -0.9502581055714459 0.31146353365297497
12648144000.0 -0.9471676090445175 0.32073902222324424 7.874419881586756e-17 -5.626043790248913e-17 7.874419881586756e-17 -5.626043790248913e-17 -0.9471678187227921 0.3207384030261107
12648761333.333334 -0.9439867924232201 0.32998323552924935 7.817011139298535e-17 -5.702335565202105e-17 7.817011139298535e-17 -5.702335565202105e-17 -0.9439870081342365 0.3299826184416457
12649378666.666666 -0.9407157560831768 0.33919591132071153 7.75886402096973e-17 -5.778042580333159e-17 7.75886402096973e-17 -5.778042580333159e-17 -0.9407159778057314 0.3391952964014062
12649996000.0 -0.9373548126474364 0.3483761691139646 7.69998447289461e-17 -5.853157697221239e-17 7.69998447289461e-17 -5.853157697221239e-17 -0.9373550403597524 0.34837555642151263
12650613333.333334 -0.9339042833317389 0.3575231315236289 7.640378510302017e-17 -5.92767383781535e-17 7.640378510302017e-17 -5.92767383781535e-17 -0.9339045170114705 0.3575225211163674
12651230666.666666 -0.9303644979138966 0.3666359243462839 7.580052216743083e-17 -6.001583985099706e-17 7.580052216743083e-17 -6.001583985099706e-17 -0.9303647375381283 0.36663531628232515
12651848000.0 -0.9267357947021087 0.3757136766444405 7.519011743471561e-17 -6.074881183753895e-17 7.519011743471561e-17 -6.074881183753895e-17 -0.9267360402473596 0.37571307098166756
12652465333.333334 -0.923018520502748 0.3847555208294611 7.457263308821167e-17 -6.147558540802758e-17 7.457263308821167e-17 -6.147558540802758e-17 -0.9230187719449747 0.38475491762552205
12653082666.666666 -0.919213030587257 0.39376059274440084 7.394813197573565e-17 -6.219609226263837e-17 7.394813197573565e-17 -6.219609226263837e-17 -0.9192132879018537 0.39375999205670287
12653700000.0 -0.9153196886580144 0.4027280317470175 7.331667760319834e-17 -6.291026473788544e-17 7.331667760319834e-17 -6.291026473788544e-17 -0.9153199518198176 0.40272743363272206
12654317333.333334 -0.9113388668137632 0.41165698079157914 7.26783341282012e-17 -6.361803581291947e-17 7.26783341282012e-17 -6.361803581291947e-17 -0.9113391357970512 0.41165638530759563
12654934666.666666 -0.9072709455139697 0.4205465865109591 7.203316635351311e-17 -6.431933911582909e-17 7.203316635351311e-17 -6.431933911582909e-17 -0.9072712202924688 0.4205459937139404
12655552000.0 -0.9031163135423935 0.4293959992983496 7.138123972052219e-17 -6.501410892983488e-17 7.138123972052219e-17 -6.501410892983488e-17 -0.9031165940892789 0.4293954092446866
12656169333.333334 -0.8988753679700703 0.4382043733881512 7.072262030263436e-17 -6.57022801994118e-17 7.072262030263436e-17 -6.57022801994118e-17 -0.8988756542579669 0.4382037861339663
12656786666.666666 -0.8945485141172791 0.44697086693698557 7.005737479858886e-17 -6.638378853637116e-17 7.005737479858886e-17 -6.638378853637116e-17 -0.8945488061182671 0.44697028253812887
12657404000.0 -0.8901361655147915 0.4556946421041783 6.938557052572474e-17 -6.705857022586486e-17 6.938557052572474e-17 -6.705857022586486e-17 -0.890136463200408 0.4556940606162216
12658021333.333334 -0.8856387438643621 0.4643748651318089 6.870727541319354e-17 -6.772656223231835e-17 6.870727541319354e-17 -6.772656223231835e-17 -0.8856390472056027 0.4643742866100398
12658638666.666666 -0.8810566789985295 0.47301070642419296 6.80225579951286e-17 -6.83877022052809e-17 6.80225579951286e-17 -6.83877022052809e-17 -0.8810569879658525 0.4730101309236105
12659256000.0 -0.8763904088393241 0.481601340627572 6.73314874037122e-17 -6.904192848525451e-17 6.73314874037122e-17 -6.904192848525451e-17 -0.8763907234026533 0.48160076820288106
12659873333.333334 -0.8716403793565731 0.4901459467086929 6.66341333622408e-17 -6.968918010939805e-17 6.66341333622408e-17 -6.968918010939805e-17 -0.8716406994853011 0.4901453774142996
12660490666.666666 -0.8668070445253246 0.498643708033205 6.593056617811928e-17 -7.032939681718032e-17 6.593056617811928e-17 -7.032939681718032e-17 -0.8668073701883137 0.49864314192321035
12661108000.0 -0.8618908662822324 0.5070938124441026 6.522085673576215e-17 -7.096251905599696e-17 6.522085673576215e-17 -7.096251905599696e-17 -0.861891197447821 0.5070932495722988
12661725333.333334 -0.8568923144816489 0.5154954523389262 6.4505076489508e-17 -7.158848798665555e-17 6.4505076489508e-17 -7.158848798665555e-17 -0.8568926511176505 0.51549489275879
12662342666.666666 -0.8518118668506074 0.523847824747146 6.378329745643081e-17 -7.2207245488835e-17 6.378329745643081e-17 -7.2207245488835e-17 -0.8518122089243163 0.523847268511834
12662960000.0 -0.8466500089431436 0.5321501314069241 6.305559220911362e-17 -7.281873416646044e-17 6.305559220911362e-17 -7.281873416646044e-17 -0.8466503564213393 0.5321495785692697
12663577333.333334 -0.8414072340939266 0.5404015788413639 6.232203386837905e-17 -7.342289735299809e-17 6.232203386837905e-17 -7.342289735299809e-17 -0.8414075869428743 0.5404010294538695
12664194666.666666 -0.83608404337115 0.5486013784342691 6.158269609595882e-17 -7.401967911668576e-17 6.158269609595882e-17 -7.401967911668576e-17 -0.8360844015566039 0.5486008325491017
12664812000.0 -0.8306809455285527 0.5567487465056589 6.08376530871268e-17 -7.460902426568026e-17 6.08376530871268e-17 -7.460902426568026e-17 -0.8306813090157612 0.5567482041746465
12665429333.333334 -0.8251984569568237 0.5648429043866172 6.008697956325884e-17 -7.519087835314874e-17 6.008697956325884e-17 -7.519087835314874e-17 -0.8251988257105328 0.5648423656612435
12666046666.666666 -0.8196371016343814 0.5728830784935276 5.933075076437727e-17 -7.576518768226104e-17 5.933075076437727e-17 -7.576518768226104e-17 -0.8196374756188368 0.5728825434249265
12666664000.0 -0.8139974110770052 0.5808685004024273 5.856904244161252e-17 -7.633189931113315e-17 5.856904244161252e-17 -7.633189931113315e-17 -0.813997790255955 0.5808679690413773
12667281333.333334 -0.8082799242873889 0.5887984069219326 5.780193084965353e-17 -7.689096105766949e-17 5.780193084965353e-17 -7.689096105766949e-17 -0.8082803086240894 0.5887978793188536
12667898666.666666 -0.802485187703353 0.5966720401665767 5.702949273911888e-17 -7.74423215043537e-17 5.702949273911888e-17 -7.74423215043537e-17 -0.8024855771605719 0.5966715163715255
12668516000.0 -0.7966137551456698 0.6044886476291742 5.625180534890442e-17 -7.798593000294668e-17 5.625180534890442e-17 -7.798593000294668e-17 -0.796614149685687 0.6044881276918369
12669133333.333334 -0.790666187765327 0.61224748225246 5.546894639848718e-17 -7.852173667910872e-17 5.546894639848718e-17 -7.852173667910872e-17 -0.7906665873499428 0.6122469662221511
12669750666.666666 -0.7846430539896375 0.6199478025008613 5.468099408016493e-17 -7.904969243695843e-17 5.468099408016493e-17 -7.904969243695843e-17 -0.7846434585801719 0.6199472904265158
12670368000.0 -0.7785449294680207 0.6275888724312008 5.388802705127056e-17 -7.956974896354113e-17 5.388802705127056e-17 -7.956974896354113e-17 -0.77854533902532 0.6275883643613713
