! Parameters = {f0=12700.012000; bw=77.238000; Q=6100.000000; N=10; m_0_1=1.165060; m_1_1=-1.288845; m_1_2=0.999872; m_2_2=-1.289494; m_2_3=0.636835; m_2_8=-0.004683; m_2_9=0.032021; m_3_3=-1.291431; m_3_4=0.525364; m_3_7=-0.004083; m_3_8=-0.101171; m_3_9=-0.004683; m_4_4=-1.294356; m_4_5=0.361699; m_4_6=-0.000566; m_4_7=-0.121720; m_4_8=-0.004083; m_5_5=-1.293974; m_5_6=0.769054; m_5_7=-0.000566; m_6_6=-1.293975; m_6_7=0.362041; m_7_7=-1.294342; m_7_8=0.525482; m_8_8=-1.291433; m_8_9=0.637148; m_9_9=-1.289499; m_9_10=1.000950; m_10_10=-1.288855; m_10_11=1.165855}
!
! Created with skrf (http://scikit-rf.org).
# Hz S RI R 50.0 
!freq ReS11 ImS11 ReS21 ImS21 ReS12 ImS12 ReS22 ImS22
12607400000.0 0.23627767130704386 0.9716855777676088 -3.2959333496402216e-17 -5.670113448626616e-17 -3.2959333496402216e-17 -5.670113448626616e-17 0.2362770746918285 0.9716857228419707
12608017333.333334 0.24348163489271082 0.9699055074953562 -3.337764858087532e-17 -5.644097747280234e-17 -3.337764858087532e-17 -5.644097747280234e-17 0.2434810393996228 0.9699056569856322
12608634666.666666 0.2506721909794904 0.9680720286576785 -3.379391705157295e-17 -5.617773866946594e-17 -3.379391705157295e-17 -5.617773866946594e-17 0.2506715966412095 0.9680721825552052
12609252000.0 0.25784894361412003 0.9661852422164884 -3.42081162375637e-17 -5.591143412719209e-17 -3.42081162375637e-17 -5.591143412719209e-17 0.2578483504632592 0.9661854005123593
12609869333.333334 0.26501149760343407 0.964245252069117 -3.462022359343857e-17 -5.564208006344277e-17 -3.462022359343857e-17 -5.564208006344277e-17 0.265010905672538 0.9642454147541863
12610486666.666666 0.27215945853601814 0.9622521650426322 -3.503021670053407e-17 -5.5369692861227156e-17 -3.503021670053407e-17 -5.5369692861227156e-17 0.2721588678575604 0.9622523321075105
12611104000.0 0.27929243280425353 0.9602060908878542 -3.543807326815667e-17 -5.5094289068106247e-17 -3.543807326815667e-17 -5.5094289068106247e-17 0.27929184341063606 0.960206262322914
12611721333.333334 0.2864100276255006 0.9581071422734578 -3.5843771134768375e-17 -5.4815885395209087e-17 -3.5843771134768375e-17 -5.4815885395209087e-17 0.2864094395490517 0.9581073180688318
12612338666.666666 0.293511851064166 0.9559554347796442 -3.6247288269200746e-17 -5.453449871621716e-17 -3.6247288269200746e-17 -5.453449871621716e-17 0.2935112643371379 0.955955614925226
12612956000.0 0.30059751205317314 0.9537510868918024 -3.6648602771845024e-17 -5.425014606634943e-17 -3.6648602771845024e-17 -5.425014606634943e-17 0.3005969267077405 0.9537512713772457
12613573333.333334 0.30766662041528015 0.9514942199940529 -3.7047692875822514e-17 -5.3962844641347833e-17 -3.7047692875822514e-17 -5.3962844641347833e-17 0.3076660364835389 0.9514944088087756
12614190666.666666 0.31471878688486477 0.9491849583624741 -3.7444536948168304e-17 -5.367261179643897e-17 -3.7444536948168304e-17 -5.367261179643897e-17 0.3147182043988292 0.9491851514956542
12614808000.0 0.3217536231291139 0.9468234291583303 -3.7839113490999365e-17 -5.3379465045292654e-17 -3.7839113490999365e-17 -5.3379465045292654e-17 0.3217530421207164 0.9468236265989122
12615425333.333334 0.3287707417695988 0.944409762421016 -3.8231401142668505e-17 -5.3083422058976154e-17 -3.8231401142668505e-17 -5.3083422058976154e-17 0.32877016227068645 0.9444099641577051
12616042666.666666 0.3357697564034966 0.9419440910609229 -3.862137867891627e-17 -5.278450066489574e-17 -3.862137867891627e-17 -5.278450066489574e-17 0.3357691784458309 0.9419442970821913
12616660000.0 0.34275028162489585 0.9394265508521175 -3.9009025014014614e-17 -5.2482718845729795e-17 -3.9009025014014614e-17 -5.2482718845729795e-17 0.34274970524014986 0.9394267611462012
12617277333.333334 0.34971193304607223 0.9368572804248426 -3.9394319201896347e-17 -5.217809473835792e-17 -3.9394319201896347e-17 -5.217809473835792e-17 0.3497113582658293 0.9368574949797436
12617894666.666666 0.35665432731841445 0.9342364212579714 -3.9777240437282425e-17 -5.187064663277774e-17 -3.9777240437282425e-17 -5.187064663277774e-17 0.356653754174167 0.9342366400614592
12618512000.0 0.36357708215398815 0.9315641176710514 -4.0157768056809277e-17 -5.156039297100598e-17 -4.0157768056809277e-17 -5.156039297100598e-17 0.3635765106771351 0.931564340710662
12619129333.333334 0.3704798163461067 0.9288405168165345 -4.053588154011878e-17 -5.1247352345994935e-17 -4.053588154011878e-17 -5.1247352345994935e-17 0.3704792465679523 0.9288407440795728
12619746666.666666 0.3773621497906417 0.9260657686715544 -4.0911560510974536e-17 -5.093154350051283e-17 -4.0911560510974536e-17 -5.093154350051283e-17 0.37736158174239304 0.9260660001450924
12620364000.0 0.38422370350684704 0.9232400260297067 -4.128478473834781e-17 -5.0612985326033614e-17 -4.128478473834781e-17 -5.0612985326033614e-17 0.3842231372196137 0.9232402617005875
12620981333.333334 0.39106409965815003 0.9203634444926696 -4.165553413749651e-17 -5.0291696861617865e-17 -4.165553413749651e-17 -5.0291696861617865e-17 0.39106353516294107 0.9203636843475053
12621598666.666666 0.39788296157311415 0.9174361824615701 -4.202378877104832e-17 -4.9967697292775106e-17 -4.202378877104832e-17 -4.9967697292775106e-17 0.3978823989008368 0.9174364264867438
12622216000.0 0.40467991376607537 0.9144584011283032 -4.238952885006061e-17 -4.9641005950329955e-17 -4.238952885006061e-17 -4.9641005950329955e-17 0.4046793529475341 0.914458649309971
12622833333.333334 0.4114545819578719 0.9114302644666374 -4.275273473508045e-17 -4.931164230927372e-17 -4.275273473508045e-17 -4.931164230927372e-17 0.4114540230237655 0.9114305167907264
12623450666.666666 0.4182065930963748 0.9083519392232148 -4.3113386937187187e-17 -4.897962598761544e-17 -4.3113386937187187e-17 -4.897962598761544e-17 0.41820603607729556 0.908352195675426
12624068000.0 0.4249355753770584 0.9052235949083633 -4.3471466119040056e-17 -4.864497674521301e-17 -4.3471466119040056e-17 -4.864497674521301e-17 0.42493502030349006 0.9052238554741717
12624685333.333334 0.4316411582636524 0.9020454037866742 -4.382695309590421e-17 -4.8307714482607784e-17 -4.382695309590421e-17 -4.8307714482607784e-17 0.4316406051659691 0.9020456684513306
12625302666.666666 0.438322972508187 0.898817540867688 -4.417982883666699e-17 -4.796785923985352e-17 -4.417982883666699e-17 -4.796785923985352e-17 0.4383224214166505 0.8988178096162179
12625920000.0 0.44498065017173605 0.895540183896061 -4.453007446486479e-17 -4.7625431195318263e-17 -4.453007446486479e-17 -4.7625431195318263e-17 0.44498010111649455 0.8955404567132664
12626537333.333334 0.45161382464431754 0.8922135133419481 -4.487767125966883e-17 -4.7280450664509834e-17 -4.487767125966883e-17 -4.7280450664509834e-17 0.45161327765540504 0.8922137902124095
12627154666.666666 0.45822213066526407 0.8888377123909834 -4.52226006568874e-17 -4.693293809886995e-17 -4.52226006568874e-17 -4.693293809886995e-17 0.4582215857725972 0.888837993299059
12627772000.0 0.4648052043433835 0.8854129669341629 -4.5564844249958364e-17 -4.658291408456044e-17 -4.5564844249958364e-17 -4.658291408456044e-17 0.4648046615767604 0.8854132518639894
12628389333.333334 0.47136268317679564 0.8819394655577125 -4.590438379090778e-17 -4.623039934126776e-17 -4.590438379090778e-17 -4.623039934126776e-17 0.47136214256589504 0.8819397544932082
12629006666.666666 0.477894206073171 0.8784173995325598 -4.624120119133035e-17 -4.5875414720968526e-17 -4.624120119133035e-17 -4.5875414720968526e-17 0.47789366764755 0.8784176924574234
12629624000.0 0.48439941336938824 0.8748469628039203 -4.6575278523340056e-17 -4.551798120670969e-17 -4.6575278523340056e-17 -4.551798120670969e-17 0.4843988771584803 0.8748472597016324
12630241333.333334 0.49087794685138886 0.8712283519805906 -4.6906598020519777e-17 -4.5158119911371726e-17 -4.6906598020519777e-17 -4.5158119911371726e-17 0.490877412884503 0.8712286528344145
12630858666.666666 0.4973294497739051 0.8675617663241253 -4.7235142078854826e-17 -4.479585207643421e-17 -4.7235142078854826e-17 -4.479585207643421e-17 0.49732891808022334 0.8675620711171079
12631476000.0 0.5037535668802741 0.8638474077377623 -4.756089325766952e-17 -4.443119907071831e-17 -4.756089325766952e-17 -4.443119907071831e-17 0.5037530374888514 0.8638477164527365
12632093333.333334 0.5101499444217071 0.8600854807554774 -4.788383428053777e-17 -4.4064182389142893e-17 -4.788383428053777e-17 -4.4064182389142893e-17 0.5101494173614679 0.8600857933750603
12632710666.666666 0.5165182301769393 0.8562761925306194 -4.820394803619491e-17 -4.3694823651461186e-17 -4.820394803619491e-17 -4.3694823651461186e-17 0.5165177054766773 0.8562765090372153
12633328000.0 0.522858073471651 0.8524197528244907 -4.852121757944458e-17 -4.3323144600985336e-17 -4.852121757944458e-17 -4.3323144600985336e-17 0.5228575511600271 0.8524200732002921
12633945333.333334 0.5291691251977029 0.8485163739948381 -4.8835626132037506e-17 -4.294916710332519e-17 -4.8835626132037506e-17 -4.294916710332519e-17 0.5291686053032443 0.8485166982218271
12634562666.666666 0.5354510378323875 0.8445662709841492 -4.914715708355797e-17 -4.257291314510158e-17 -4.914715708355797e-17 -4.257291314510158e-17 0.5354505203834837 0.8445665990440944
12635180000.0 0.5417034654575597 0.8405696613078074 -4.9455793992294214e-17 -4.219440483266006e-17 -4.9455793992294214e-17 -4.219440483266006e-17 0.5417029504824649 0.8405699931822712
12635797333.333334 0.5479260637787395 0.8365267650420928 -4.97615205860951e-17 -4.1813664390782384e-17 -4.97615205860951e-17 -4.1813664390782384e-17 0.5479255513055677 0.8365271007124282
12636414666.666666 0.5541184901438757 0.8324378048121814 -5.006432076322354e-17 -4.1430714161385394e-17 -5.006432076322354e-17 -4.1430714161385394e-17 0.554117980200601 0.8324381442595349
12637032000.0 0.5602804035625022 0.8283030057797037 -5.036417859319934e-17 -4.104557660221313e-17 -5.036417859319934e-17 -4.104557660221313e-17 0.5602798961769563 0.8283033489850148
12637649333.333334 0.5664114647243236 0.8241225956304675 -5.066107831762635e-17 -4.065827428553038e-17 -5.066107831762635e-17 -4.065827428553038e-17 0.5664109599241944 0.8241229425744708
12638266666.666666 0.5725113360179467 0.8198968045618897 -5.095500435101458e-17 -4.026882989680462e-17 -5.095500435101458e-17 -4.026882989680462e-17 0.5725108338307782 0.8198971552251167
12638884000.0 0.5785796815494967 0.8156258652703062 -5.124594128159178e-17 -3.9877266233381887e-17 -5.124594128159178e-17 -3.9877266233381887e-17 0.5785791820026844 0.8156262196330841
12639501333.333334 0.58461616716104 0.8113100129382029 -5.153387387210078e-17 -3.948360620316287e-17 -5.153387387210078e-17 -3.948360620316287e-17 0.5846156702818336 0.8113103709806588
12640118666.666666 0.5906204604489901 0.8069494852212717 -5.181878706058981e-17 -3.908787282326882e-17 -5.181878706058981e-17 -3.908787282326882e-17 0.590619966264488 0.8069498469233307
12640736000.0 0.5965922307826832 0.8025445222351182 -5.2100665961206073e-17 -3.869008921868412e-17 -5.2100665961206073e-17 -3.869008921868412e-17 0.5965917393198336 0.8025448875765064
12641353333.333334 0.6025311493220592 0.7980953665424272 -5.237949586494045e-17 -3.829027862094511e-17 -5.237949586494045e-17 -3.829027862094511e-17 0.6025306606076578 0.7980957355026724
12641970666.666666 0.6084368890362719 0.793602263139235 -5.265526224041018e-17 -3.7888464366758176e-17 -5.265526224041018e-17 -3.7888464366758176e-17 0.6084364030969603 0.7936026356976675
12642588000.0 0.6143091247213791 0.7890654594416767 -5.292795073459749e-17 -3.7484669896658536e-17 -5.292795073459749e-17 -3.7484669896658536e-17 0.6143086415836436 0.7890658355774313
12643205333.333334 0.6201475330184096 0.7844852052722432 -5.3197547173590846e-17 -3.707891875364576e-17 -5.3197547173590846e-17 -3.707891875364576e-17 0.6201470527085791 0.7844855849642582
12643822666.666666 0.6259517924311647 0.7798617528460184 -5.34640375633135e-17 -3.6671234581817006e-17 -5.34640375633135e-17 -3.6671234581817006e-17 0.6259513149754109 0.7798621360730406
12644440000.0 0.6317215833438372 0.775195356756868 -5.3727408090243064e-17 -3.6261641124993825e-17 -5.3727408090243064e-17 -3.6261641124993825e-17 0.6317211087681712 0.7751957434974498
12645057333.333334 0.6374565880386304 0.770486273963398 -5.398764512211618e-17 -3.5850162225349695e-17 -5.398764512211618e-17 -3.5850162225349695e-17 0.6374561163689024 0.7704866641959012
12645674666.666666 0.643156490713278 0.7657347637747904 -5.424473520862709e-17 -3.543682182202669e-17 -5.424473520862709e-17 -3.543682182202669e-17 0.6431560219751764 0.7657351574773871
12646292000.0 0.6488209774984977 0.7609410878364673 -5.449866508212118e-17 -3.5021643949737615e-17 -5.449866508212118e-17 -3.5021643949737615e-17 0.6488205117175463 0.7609414849871402
12646909333.333334 0.6544497364751237 0.7561055101158126 -5.4749421658259605e-17 -3.460465273739308e-17 -5.4749421658259605e-17 -3.460465273739308e-17 0.6544492736766808 0.7561059106923567
12647526666.666666 0.660042457691412 0.7512282968875261 -5.4996992036690853e-17 -3.4185872406695656e-17 -5.4996992036690853e-17 -3.4185872406695656e-17 0.6600419979006693 0.7512287008675492
12648144000.0 0.6655988331801286 0.7463097167189399 -5.5241363501710553e-17 -3.3765327270730854e-17 -5.5241363501710553e-17 -3.3765327270730854e-17 0.6655983764221098 0.7463101240798655
12648761333.333334 0.6711185569753372 0.7413500404553803 -5.5482523522898346e-17 -3.3343041732574027e-17 -5.5482523522898346e-17 -3.3343041732574027e-17 0.6711181032748967 0.7413504511744479
12649378666.666666 0.6766013251293768 0.7363495412051427 -5.572045975575252e-17 -3.29190402838785e-17 -5.572045975575252e-17 -3.29190402838785e-17 0.6766008745111988 0.7363499552594093
12649996000.0 0.6820468357296187 0.731308494324432 -5.595516004231859e-17 -3.249334750345135e-17 -5.595516004231859e-17 -3.249334750345135e-17 0.6820463882182141 0.7313089116907722
12650613333.333334 0.6874547889150487 0.7262271774022361 -5.618661241179513e-17 -3.2065988055845505e-17 -5.618661241179513e-17 -3.2065988055845505e-17 0.6874543445347558 0.7262275980573457
12651230666.666666 0.6928248868927178 0.721105870245102 -5.641480508113721e-17 -3.163698668993325e-17 -5.641480508113721e-17 -3.163698668993325e-17 0.6928244456677001 0.7211062941654973
12651848000.0 0.6981568339542644 0.7159448548616087 -5.663972645565227e-17 -3.1206368237469033e-17 -5.663972645565227e-17 -3.1206368237469033e-17 0.6981563959085091 0.7159452820236287
12652465333.333334 0.7034503364921358 0.7107444154468981 -5.686136512957278e-17 -3.077415761167065e-17 -5.686136512957278e-17 -3.077415761167065e-17 0.7034499016494529 0.7107448458267059
12653082666.666666 0.7087051030156749 0.7055048383671046 -5.707970988662553e-17 -3.034037980578373e-17 -5.707970988662553e-17 -3.034037980578373e-17 0.7087046713996948 0.7055052719406875
12653700000.0 0.7139208441673912 0.7002264121433651 -5.729474970059779e-17 -2.990505989162565e-17 -5.729474970059779e-17 -2.990505989162565e-17 0.7139204158015663 0.7002268488865383
12654317333.333334 0.71909727273864 0.694909427436197 -5.750647373587404e-17 -2.946822301816356e-17 -5.750647373587404e-17 -2.946822301816356e-17 0.7190968476462385 0.6949098673246015
12654934666.666666 0.7242341036855474 0.6895541770293643 -5.771487134797674e-17 -2.902989441005702e-17 -5.771487134797674e-17 -2.902989441005702e-17 0.724233681889658 0.6895546200384723
12655552000.0 0.729331054144836 0.6841609558136411 -5.791993208409638e-17 -2.8590099366197255e-17 -5.791993208409638e-17 -2.8590099366197255e-17 0.7293306356683619 0.6841614019187545
12656169333.333334 0.7343878434491367 0.6787300607708326 -5.812164568359573e-17 -2.814886325827417e-17 -5.812164568359573e-17 -2.814886325827417e-17 0.7343874283147971 0.6787305099470858
12656786666.666666 0.7394041931426648 0.6732617909572006 -5.83200020785212e-17 -2.7706211529299845e-17 -5.83200020785212e-17 -2.7706211529299845e-17 0.7394037813729917 0.6732622431795606
12657404000.0 0.7443798269964702 0.6677564474870731 -5.851499139409205e-17 -2.726216969215365e-17 -5.851499139409205e-17 -2.726216969215365e-17 0.7443794186138093 0.6677569027303423
12658021333.333334 0.7493144710236163 0.6622143335163106 -5.870660394917988e-17 -2.6816763328120705e-17 -5.870660394917988e-17 -2.6816763328120705e-17 0.7493140660501224 0.6622147917551262
12658638666.666666 0.7542078534942788 0.6566357542255862 -5.889483025677962e-17 -2.637001808542206e-17 -5.889483025677962e-17 -2.637001808542206e-17 0.7542074519519201 0.6566362154344251
12659256000.0 0.7590597049508306 0.6510210168034596 -5.907966102447234e-17 -2.5921959677733048e-17 -5.907966102447234e-17 -2.5921959677733048e-17 0.7590593068613819 0.6510214809566359
12659873333.333334 0.763869758222521 0.645370430429625 -5.92610871548675e-17 -2.547261388272241e-17 -5.92610871548675e-17 -2.547261388272241e-17 0.7638693636075654 0.645370897501294
12660490666.666666 0.7686377484402126 0.63968430625787 -5.943909974604002e-17 -2.5022006540572927e-17 -5.943909974604002e-17 -2.5022006540572927e-17 0.7686373573211399 0.6396847762220286
12661108000.0 0.7733634130510749 0.6339629573988103 -5.961369009195988e-17 -2.4570163552490824e-17 -5.961369009195988e-17 -2.4570163552490824e-17 0.77336302544908 0.6339634302292982
12661725333.333334 0.7780464918328944 0.6282066989028205 -5.978484968290083e-17 -2.4117110879236034e-17 -5.978484968290083e-17 -2.4117110879236034e-17 0.7780461077689771 0.6282071745733232
12662342666.666666 0.7826867269085341 0.6224158477425354 -5.995257020584804e-17 -2.3662874539624112e-17 -5.995257020584804e-17 -2.3662874539624112e-17 0.7826863464034974 0.6224163262265842
12662960000.0 0.7872838627600587 0.6165907227954813 -6.011684354488712e-17 -2.3207480609044246e-17 -6.011684354488712e-17 -2.3207480609044246e-17 0.7872834858345071 0.6165912040664547
12663577333.333334 0.7918376462428414 0.6107316448264727 -6.027766178158534e-17 -2.2750955217966154e-17 -6.027766178158534e-17 -2.2750955217966154e-17 0.7918372729171808 0.610732128857599
12664194666.666666 0.7963478265994344 0.6048389364700402 -6.043501719536047e-17 -2.2293324550446058e-17 -6.043501719536047e-17 -2.2293324550446058e-17 0.79634745689387 0.6048394232343979
12664812000.0 0.8008141554734801 0.598912922212528 -6.058890226383966e-17 -2.1834614842628674e-17 -6.058890226383966e-17 -2.1834614842628674e-17 0.8008137894080154 0.5989134116830473
12665429333.333334 0.8052363869233348 0.5929539283742928 -6.073930966320394e-17 -2.1374852381253576e-17 -6.073930966320394e-17 -2.1374852381253576e-17 0.8052360245177723 0.5929544205237588
12666046666.666666 0.8096142774355451 0.5869622830918285 -6.088623226852428e-17 -2.0914063502152568e-17 -6.088623226852428e-17 -2.0914063502152568e-17 0.8096139187094833 0.5869627778928806
12666664000.0 0.8139475859384598 0.5809383162994204 -6.102966315408953e-17 -2.0452274588734293e-17 -6.102966315408953e-17 -2.0452274588734293e-17 0.8139472309112921 0.5809388137245548
12667281333.333334 0.8182360738152012 0.5748823597113913 -6.116959559371136e-17 -1.9989512070501535e-17 -6.116959559371136e-17 -1.9989512070501535e-17 0.818235722506115 0.5748828597329618
12667898666.666666 0.8224795049170723 0.5687947468034666 -6.130602306103198e-17 -1.9525802421524854e-17 -6.130602306103198e-17 -1.9525802421524854e-17 0.8224791573450508 0.5687952493936883
12668516000.0 0.8266776455764945 0.5626758127945038 -6.143893922981142e-17 -1.906117215894029e-17 -6.143893922981142e-17 -1.906117215894029e-17 0.8266773017603113 0.5626763179254518
12669133333.333334 0.8308302646197432 0.5565258946282189 -6.156833797420475e-17 -1.859564784144362e-17 -6.156833797420475e-17 -1.859564784144362e-17 0.8308299245779636 0.5565264022718313
12669750666.666666 0.8349371333798559 0.5503453309543753 -6.1694213369032e-17 -1.8129256067767042e-17 -6.1694213369032e-17 -1.8129256067767042e-17 0.8349367971308356 0.550345841082455
12670368000.0 0.8389980257090953 0.5441344621103251 -6.181655969003233e-17 -1.7662023475169923e-17 -6.181655969003233e-17 -1.7662023475169923e-17 0.8389976932709794 0.5441349746945404
