! Parameters = {f0=12700.012000; bw=77.238000; Q=6100.000000; N=10; m_0_1=1.277372; m_1_1=0.395840; m_1_2=1.112184; m_2_2=0.395191; m_2_3=0.749147; m_2_8=0.000932; m_2_9=0.037636; m_3_3=0.393254; m_3_4=0.637676; m_3_7=0.001532; m_3_8=-0.095556; m_3_9=0.000932; m_4_4=0.390329; m_4_5=0.474011; m_4_6=0.005049; m_4_7=-0.116105; m_4_8=0.001532; m_5_5=0.390711; m_5_6=0.881366; m_5_7=0.005049; m_6_6=0.390710; m_6_7=0.474353; m_7_7=0.390343; m_7_8=0.637794; m_8_8=0.393252; m_8_9=0.749460; m_9_9=0.395186; m_9_10=1.113262; m_10_10=0.395830; m_10_11=1.278167}
!
! Created with skrf (http://scikit-rf.org).
# Hz S RI R 50.0 
!freq ReS11 ImS11 ReS21 ImS21 ReS12 ImS12 ReS22 ImS22
12607400000.0 -0.854451875590832 0.5195305499189932 7.690861264300899e-17 -8.482573261411112e-17 7.690861264300899e-17 -8.482573261411112e-17 -0.8544522252254448 0.5195299748879822
12608017333.333334 -0.8488224732116629 0.5286779823017583 7.597061354830791e-17 -8.563685703556558e-17 7.597061354830791e-17 -8.563685703556558e-17 -0.8488228289849161 0.528677411087201
12608634666.666666 -0.8430951458432859 0.537764423381941 7.502407160508523e-17 -8.643761994135023e-17 7.502407160508523e-17 -8.643761994135023e-17 -0.8430955077135366 0.537763856049359
12609252000.0 -0.8372705542228307 0.5467888248960623 7.406910115543878e-17 -8.722793148753078e-17 7.406910115543878e-17 -8.722793148753078e-17 -0.8372709221477367 0.5467882615105232
12609869333.333334 -0.8313493703084148 0.5557501457378341 7.310581748490276e-17 -8.800770309073514e-17 7.310581748490276e-17 -8.800770309073514e-17 -0.8313497442449398 0.5557495863639436
12610486666.666666 -0.82533227720161 0.5646473520782923 7.213433680856143e-17 -8.877684743804646e-17 7.213433680856143e-17 -8.877684743804646e-17 -0.8253326571060277 0.564646796780187
12611104000.0 -0.8192199690685191 0.5734794174852282 7.115477625704339e-17 -8.953527849675488e-17 7.115477625704339e-17 -8.953527849675488e-17 -0.8192203548964193 0.5734788663265681
12611721333.333334 -0.8130131510599047 0.5822453230412991 7.01672538624655e-17 -9.02829115239154e-17 7.01672538624655e-17 -9.02829115239154e-17 -0.8130135427661986 0.5822447760852608
12612338666.666666 -0.8067125392296778 0.5909440574618108 6.917188854421796e-17 -9.101966307579744e-17 6.917188854421796e-17 -9.101966307579744e-17 -0.8067129367686029 0.5909435147710801
12612956000.0 -0.8003188604522856 0.599574617211383 6.816880009467584e-17 -9.174545101715739e-17 6.816880009467584e-17 -9.174545101715739e-17 -0.8003192637774109 0.599574078848147
12613573333.333334 -0.7938328523390096 0.6081360066195175 6.715810916483836e-17 -9.246019453033783e-17 6.715810916483836e-17 -9.246019453033783e-17 -0.7938332614032411 0.6081354726454582
12614190666.666666 -0.7872552631526989 0.616627237995693 6.613993724982266e-17 -9.316381412424466e-17 6.613993724982266e-17 -9.316381412424466e-17 -0.7872556779082848 0.6166267084719798
12614808000.0 -0.7805868517215324 0.6250473317431952 6.511440667430417e-17 -9.385623164313679e-17 6.511440667430417e-17 -9.385623164313679e-17 -0.7805872721200703 0.6250468067304791
12615425333.333334 -0.7738283873514421 0.6333953164721758 6.408164057784945e-17 -9.45373702752676e-17 6.408164057784945e-17 -9.45373702752676e-17 -0.7738288133438819 0.6333947960305805
12616042666.666666 -0.7669806497374313 0.641670229111628 6.304176290016185e-17 -9.52071545613626e-17 6.304176290016185e-17 -9.52071545613626e-17 -0.7669810812740832 0.6416697133007442
12616660000.0 -0.7600444288735185 0.6498711150206241 6.199489836623929e-17 -9.586551040293658e-17 6.199489836623929e-17 -9.586551040293658e-17 -0.760044865904058 0.6498706038995027
12617277333.333334 -0.7530205249616502 0.6579970280983806 6.094117247144307e-17 -9.651236507044866e-17 6.094117247144307e-17 -9.651236507044866e-17 -0.7530209674351243 0.6579965217255261
12617894666.666666 -0.7459097483194654 0.6660470308933248 5.988071146649884e-17 -9.714764721128434e-17 5.988071146649884e-17 -9.714764721128434e-17 -0.7459101961842968 0.6660465293266872
12618512000.0 -0.7387129192865989 0.6740201947114736 5.881364234236729e-17 -9.777128685760055e-17 5.881364234236729e-17 -9.777128685760055e-17 -0.7387133724905948 0.6740196980084434
12619129333.333334 -0.7314308681303126 0.6819155997232791 5.774009281511828e-17 -9.838321543395664e-17 5.774009281511828e-17 -9.838321543395664e-17 -0.731431326620669 0.6819151079406803
12619746666.666666 -0.724064434949519 0.6897323350699562 5.666019131063048e-17 -9.898336576483454e-17 5.666019131063048e-17 -9.898336576483454e-17 -0.7240648986728281 0.6897318482640403
12620364000.0 -0.7166144695778628 0.6974694989685642 5.557406694926954e-17 -9.957167208195877e-17 5.557406694926954e-17 -9.957167208195877e-17 -0.716614938480116 0.697469017195001
12620981333.333334 -0.7090818314858508 0.7051261988158527 5.448184953050299e-17 -1.0014807003144353e-16 5.448184953050299e-17 -1.0014807003144353e-16 -0.7090823055124498 0.705125722129728
12621598666.666666 -0.7014673896814871 0.712701551291466 5.3383669517389883e-17 -1.0071249668079864e-16 5.3383669517389883e-17 -1.0071249668079864e-16 -0.7014678687772472 0.7127010797472726
12622216000.0 -0.6937720226101974 0.7201946824596648 5.2279658021041774e-17 -1.0126489052574334e-16 5.2279658021041774e-17 -1.0126489052574334e-16 -0.6937725067193538 0.7201942161112972
12622833333.333334 -0.6859966180533229 0.7276047278703083 5.116994678499334e-17 -1.0180519149685998e-16 5.116994678499334e-17 -1.0180519149685998e-16 -0.6859971071195383 0.7276042667710563
12623450666.666666 -0.678142073025866 0.7349308326584232 5.0054668169523247e-17 -1.0233334096606954e-16 5.0054668169523247e-17 -1.0233334096606954e-16 -0.6781425669922371 0.7349303768609655
12624068000.0 -0.6702092936728818 0.7421721516429444 4.8933955135881664e-17 -1.0284928175294711e-16 4.8933955135881664e-17 -1.0284928175294711e-16 -0.6702097924819456 0.7421717011993442
12624685333.333334 -0.6621991951649188 0.7493278494242389 4.7807941230465753e-17 -1.0335295813086014e-16 4.7807941230465753e-17 -1.0335295813086014e-16 -0.6621996987586589 0.7493274043859351
12625302666.666666 -0.6541127015926488 0.7563971004802892 4.6676760568964904e-17 -1.0384431583291902e-16 4.6676760568964904e-17 -1.0384431583291902e-16 -0.6541132099125023 0.7563966608980924
12625920000.0 -0.6459507458599412 0.7633790892622151 4.554054782037177e-17 -1.0432330205778736e-16 4.554054782037177e-17 -1.0432330205778736e-16 -0.6459512588468065 0.7633786551863027
12626537333.333334 -0.637714269576536 0.7702730102880972 4.4399438191017563e-17 -1.0478986547528193e-16 4.4399438191017563e-17 -1.0478986547528193e-16 -0.6377147871707789 0.770272581768006
12627154666.666666 -0.6294042229492901 0.7770780682360179 4.325356740850929e-17 -1.05243956231816e-16 4.325356740850929e-17 -1.05243956231816e-16 -0.6294047450907504 0.7770776453206389
12627772000.0 -0.6210215646723981 0.7837934780359358 4.21030717055639e-17 -1.0568552595568699e-16 4.21030717055639e-17 -1.0568552595568699e-16 -0.6210220913003961 0.7837930607735076
12628389333.333334 -0.612567261817187 0.7904184649599323 4.0948087803924667e-17 -1.0611452776213334e-16 4.0948087803924667e-17 -1.0611452776213334e-16 -0.6125677928705335 0.7904180533980386
12629006666.666666 -0.6040422897200903 0.7969522647119672 3.978875289806419e-17 -1.0653091625828025e-16 3.978875289806419e-17 -1.0653091625828025e-16 -0.6040428251370895 0.7969518588975281
12629624000.0 -0.5954476318704541 0.803394123515781 3.862520463896502e-17 -1.0693464754785911e-16 3.862520463896502e-17 -1.0693464754785911e-16 -0.5954481715889142 0.8033937234950499
12630241333.333334 -0.5867842797969253 0.8097432982019828 3.745758111778341e-17 -1.073256792357758e-16 3.745758111778341e-17 -1.073256792357758e-16 -0.5867848237541639 0.8097429040205398
12630858666.666666 -0.5780532329531974 0.8159990562936821 3.6286020849507695e-17 -1.0770397043248762e-16 3.6286020849507695e-17 -1.0770397043248762e-16 -0.5780537810860485 0.8159986679964284
12631476000.0 -0.5692554986024533 0.8221606760911729 3.5110662756521e-17 -1.0806948175821912e-16 3.5110662756521e-17 -1.0806948175821912e-16 -0.5692560508472769 0.8221602937223282
12632093333.333334 -0.5603920917014659 0.8282274467549836 3.393164615219642e-17 -1.0842217534697497e-16 3.393164615219642e-17 -1.0842217534697497e-16 -0.5603926479941524 0.8282270703580777
12632710666.666666 -0.5514640347833648 0.8341986683879771 3.2749110724394726e-17 -1.08762014850394e-16 3.2749110724394726e-17 -1.08762014850394e-16 -0.5514645950593458 0.8341982980058487
12633328000.0 -0.5424723578395564 0.8400736521161791 3.1563196518926903e-17 -1.0908896544142041e-16 3.1563196518926903e-17 -1.0908896544142041e-16 -0.5424729220338079 0.8400732877909666
12633945333.333334 -0.5334180982011058 0.845851720168102 3.037404392302519e-17 -1.0940299381778436e-16 3.037404392302519e-17 -1.0940299381778436e-16 -0.5334186662481606 0.8458513619412434
12634562666.666666 -0.5243023004189266 0.8515322059530359 2.918179364873683e-17 -1.0970406820531411e-16 2.918179364873683e-17 -1.0970406820531411e-16 -0.5243028722528774 0.8515318538652592
12635180000.0 -0.5151260161433926 0.8571144541378706 2.7986586716304985e-17 -1.0999215836106265e-16 2.7986586716304985e-17 -1.0999215836106265e-16 -0.515126591697903 0.857114108229193
12635797333.333334 -0.5058903040028457 0.8625978207228039 2.678856443751376e-17 -1.1026723557625552e-16 2.678856443751376e-17 -1.1026723557625552e-16 -0.5058908832111562 0.862597481032526
12636414666.666666 -0.49659622948166127 0.8679816731155215 2.5587868399018122e-17 -1.1052927267905444e-16 2.5587868399018122e-17 -1.1052927267905444e-16 -0.49659681227659686 0.8679813396822219
12637032000.0 -0.4872448647971551 0.8732653902042753 2.438464044563236e-17 -1.1077824403714323e-16 2.438464044563236e-17 -1.1077824403714323e-16 -0.4872454511111346 0.8732650630658081
12637649333.333334 -0.4778372887759857 0.8784483624294812 2.3179022663594922e-17 -1.1101412556013279e-16 2.3179022663594922e-17 -1.1101412556013279e-16 -0.47783787854102827 0.8784480416229706
12638266666.666666 -0.4683745867296705 0.8835299918540586 2.19711573638271e-17 -1.1123689470178033e-16 2.19711573638271e-17 -1.1123689470178033e-16 -0.4683751798774033 0.8835296774158935
12638884000.0 -0.4588578503293763 0.8885096922324067 2.07611870651594e-17 -1.114465304620297e-16 2.07611870651594e-17 -1.114465304620297e-16 -0.4588584467910434 0.8885093841982387
12639501333.333334 -0.4492881774799285 0.8933868890780666 1.9549254477540042e-17 -1.116430133888697e-16 1.9549254477540042e-17 -1.116430133888697e-16 -0.44928877718639865 0.8933865874828056
12640118666.666666 -0.4396666721934306 0.8981610197298573 1.8335502485249998e-17 -1.1182632558000688e-16 1.8335502485249998e-17 -1.1182632558000688e-16 -0.43966727507520414 0.8981607246076656
12640736000.0 -0.4299944444612097 0.9028315334171254 1.7120074130033822e-17 -1.1199645068436552e-16 1.7120074130033822e-17 -1.1199645068436552e-16 -0.4299950504484287 0.902831244801417
12641353333.333334 -0.42027261012673295 0.9073978913228123 1.5903112594346443e-17 -1.1215337390338842e-16 1.5903112594346443e-17 -1.1215337390338842e-16 -0.42027321914918697 0.9073976092462457
12641970666.666666 -0.4105022907560584 0.911859566646011 1.468476118444625e-17 -1.12297081992174e-16 1.468476118444625e-17 -1.12297081992174e-16 -0.41050290274319445 0.9118592911404885
12642588000.0 -0.4006846135088299 0.9162160446625579 1.3465163313579281e-17 -1.1242756326041794e-16 1.3465163313579281e-17 -1.1242756326041794e-16 -0.40068522838975923 0.9162157757592199
12643205333.333334 -0.39082071100818916 0.9204668227844367 1.2244462485122336e-17 -1.1254480757317708e-16 1.2244462485122336e-17 -1.1254480757317708e-16 -0.39082132871169695 0.9204665605136595
12643822666.666666 -0.380911721210007 0.9246114106178074 1.1022802275712418e-17 -1.1264880635145065e-16 1.1022802275712418e-17 -1.1264880635145065e-16 -0.3809123416645592 0.924611155009199
12644440000.0 -0.37095878727173165 0.9286493300195229 9.800326318403101e-18 -1.1273955257257754e-16 9.800326318403101e-18 -1.1273955257257754e-16 -0.37095941040548364 0.928649081101919
12645057333.333334 -0.3609630574204818 0.9325801151523017 8.577178285798372e-18 -1.1281704077045177e-16 8.577178285798372e-18 -1.1281704077045177e-16 -0.3609636831612876 0.9325798729537651
12645674666.666666 -0.3509256848205826 0.9364033125384748 7.353501873210893e-18 -1.1288126703555488e-16 7.353501873210893e-18 -1.1288126703555488e-16 -0.35092631309600186 0.9364030770862887
12646292000.0 -0.340847827440315 0.9401184811123757 6.12944078175038e-18 -1.1293222901480945e-16 6.12944078175038e-18 -1.1293222901480945e-16 -0.34084845817762255 0.9401182524330438
12646909333.333334 -0.3307306479187797 0.9437251922710582 4.905138701562312e-18 -1.1296992591124262e-16 4.905138701562312e-18 -1.1296992591124262e-16 -0.33073128104497357 0.9437249703903001
12647526666.666666 -0.32057531343134293 0.9472230299239026 3.680739294920406e-18 -1.1299435848347532e-16 3.680739294920406e-18 -1.1299435848347532e-16 -0.32057594887315227 0.9472228148666503
12648144000.0 -0.310382995555115 0.9506115905405617 2.4563861794156306e-18 -1.1300552904502474e-16 2.4563861794156306e-18 -1.1300552904502474e-16 -0.310383633239009 0.9506113823309578
12648761333.333334 -0.3001548701338725 0.9538904831974901 1.2322229111474046e-18 -1.1300344146342615e-16 1.2322229111474046e-18 -1.1300344146342615e-16 -0.30015550998606927 0.9538902818588862
12649378666.666666 -0.2898921171424071 0.957059329623046 8.392967918912507e-21 -1.1298810115917293e-16 8.392967918912507e-21 -1.1298810115917293e-16 -0.28989275908888185 0.9570591351779985
12649996000.0 -0.2795959205502621 0.9601177642411761 -1.2149602675678906e-18 -1.1295951510447472e-16 -1.2149602675678906e-18 -1.1295951510447472e-16 -0.27959656451675496 0.9601175767114415
12650613333.333334 -0.26926746818522146 0.963065434213555 -2.437693524473869e-18 -1.129176918218343e-16 -2.437693524473869e-18 -1.129176918218343e-16 -0.26926811409724755 0.9630652536200929
12651230666.666666 -0.2589079515963878 0.9659019994802703 -3.659663660561462e-18 -1.1286264138244426e-16 -3.659663660561462e-18 -1.1286264138244426e-16 -0.25890859937924493 0.9659018258432376
12651848000.0 -0.24851856591644345 0.9686271327991266 -4.880727678956731e-18 -1.1279437540440043e-16 -4.880727678956731e-18 -1.1279437540440043e-16 -0.24851921549522052 0.9686269661378741
12652465333.333334 -0.23810050972399124 0.9712405197833328 -6.100742744826879e-18 -1.1271290705073711e-16 -6.100742744826879e-18 -1.1271290705073711e-16 -0.2381011610235777 0.9712403601164066
12653082666.666666 -0.22765498490541974 0.9737418589377459 -7.319566202061167e-18 -1.1261825102728155e-16 -7.319566202061167e-18 -1.1261825102728155e-16 -0.22765563785051365 0.9737417062828823
12653700000.0 -0.21718319651566598 0.9761308616937897 -8.537055589956356e-18 -1.1251042358032586e-16 -8.537055589956356e-18 -1.1251042358032586e-16 -0.2171838510307832 0.9761307160679156
12654317333.333334 -0.20668635263996812 0.9784072524425649 -9.753068659795927e-18 -1.123894424941242e-16 -9.753068659795927e-18 -1.123894424941242e-16 -0.20668700864945042 0.9784071138617934
12654934666.666666 -0.19616566425391233 0.9805707685667788 -1.0967463391474795e-17 -1.1225532708820593e-16 -1.0967463391474795e-17 -1.1225532708820593e-16 -0.1961663216819367 0.9805706370464097
12655552000.0 -0.18562234508386563 0.9826211604710076 -1.2180098010061817e-17 -1.1210809821451033e-16 -1.2180098010061817e-17 -1.1210809821451033e-16 -0.1856230038544526 0.9826210360255232
12656169333.333334 -0.17505761146717647 0.9845581916104453 -1.3390831002282663e-17 -1.119477782543495e-16 -1.3390831002282663e-17 -1.119477782543495e-16 -0.17505827150419934 0.9845580742535122
12656786666.666666 -0.16447268221157282 0.9863816385182528 -1.4599521133057878e-17 -1.1177439111518208e-16 -1.4599521133057878e-17 -1.1177439111518208e-16 -0.16447334343876632 0.9863815282627185
12657404000.0 -0.1538687784546932 0.9880912908313098 -1.5806027461922274e-17 -1.115879622272182e-16 -1.5806027461922274e-17 -1.115879622272182e-16 -0.15386944079566178 0.9880911876891996
12658021333.333334 -0.1432471235231522 0.9896869513144878 -1.7010209359441608e-17 -1.1138851853984338e-16 -1.7010209359441608e-17 -1.1138851853984338e-16 -0.14324778690137968 0.9896868552970071
12658638666.666666 -0.13260894279155255 0.9911684358833925 -1.8211926523561067e-17 -1.1117608851786937e-16 -1.8211926523561067e-17 -1.1117608851786937e-16 -0.13260960713041028 0.9911683470009224
12659256000.0 -0.12195546354083646 0.9925355736256325 -1.94110389959563e-17 -1.1095070213760023e-16 -1.94110389959563e-17 -1.1095070213760023e-16 -0.12195612876359269 0.9925354918877309
12659873333.333334 -0.11128791481692518 0.9937882068205098 -2.0607407178277928e-17 -1.1071239088273417e-16 -2.0607407178277928e-17 -1.1071239088273417e-16 -0.11128858084675362 0.9937881322359098
12660490666.666666 -0.10060752728904247 0.994926190957203 -2.1800891848375887e-17 -1.1046118774008473e-16 -2.1800891848375887e-17 -1.1046118774008473e-16 -0.10060819404903106 0.99492612353381
12661108000.0 -0.0899155331072854 0.9959493947514888 -2.2991354176504722e-17 -1.1019712719512139e-16 -2.2991354176504722e-17 -1.1019712719512139e-16 -0.08991620052044552 0.9959493344963833
12661725333.333334 -0.07921316576098532 0.9968577001608329 -2.4178655741401284e-17 -1.0992024522735139e-16 -2.4178655741401284e-17 -1.0992024522735139e-16 -0.0792138337502606 0.9968576470802681
12662342666.666666 -0.06850165993606648 0.9976510023980467 -2.5362658546386652e-17 -1.0963057930551219e-16 -2.5362658546386652e-17 -1.0963057930551219e-16 -0.06850232842434131 0.9976509564974452
12662960000.0 -0.057782251372746375 0.9983292099433533 -2.6543225035361797e-17 -1.0932816838260126e-16 -2.6543225035361797e-17 -1.0932816838260126e-16 -0.05778292028285532 0.9983291712273105
12663577333.333334 -0.047056176722946146 0.9988922445549578 -2.7720218108764335e-17 -1.0901305289073074e-16 -2.7720218108764335e-17 -1.0901305289073074e-16 -0.04705684597768252 0.9988922130272393
12664194666.666666 -0.03632467340762298 0.9993400412780685 -2.8893501139462256e-17 -1.0868527473581065e-16 -2.8893501139462256e-17 -1.0868527473581065e-16 -0.036325342929747956 0.999340016941611
12664812000.0 -0.02558897947401438 0.9996725484523921 -3.006293798858617e-17 -1.0834487729206182e-16 -3.006293798858617e-17 -1.0834487729206182e-16 -0.025589649186265745 0.9996725313093018
12665429333.333334 -0.01485033345275303 0.9998897277180943 -3.122839302130425e-17 -1.0799190539635685e-16 -3.122839302130425e-17 -1.0799190539635685e-16 -0.014851003277854189 0.9998897177696467
12666046666.666666 -0.004109974215238668 0.9999915540202191 -3.238973112249822e-17 -1.0762640534240185e-16 -3.238973112249822e-17 -1.0762640534240185e-16 -0.004110644075907579 0.9999915512668615
12666664000.0 0.006630859169768202 0.9999780156115897 -3.354681771245199e-17 -1.0724842487472616e-16 -3.354681771245199e-17 -1.0724842487472616e-16 0.006630189350810181 0.9999780200529386
12667281333.333334 0.017370927578580886 0.9998491140541571 -3.469951876236441e-17 -1.0685801318253673e-16 -3.469951876236441e-17 -1.0685801318253673e-16 0.017370257878600043 0.9998491256889982
12667898666.666666 0.0281089919758514 0.9996048642188192 -3.584770080987973e-17 -1.0645522089337761e-16 -3.584770080987973e-17 -1.0645522089337761e-16 0.028108322472092783 0.9996048830451101
12668516000.0 0.03884381355751268 0.9992452942837072 -3.69912309745123e-17 -1.0604010006663462e-16 -3.69912309745123e-17 -1.0604010006663462e-16 0.03884314432719114 0.9992453202985743
12669133333.333334 0.04957415389343822 0.9987704457309359 -3.812997697296974e-17 -1.0561270418688364e-16 -3.812997697296974e-17 -1.0561270418688364e-16 0.04957348501372958 0.9987704789306782
12669750666.666666 0.06029877507059872 0.9981803733418168 -3.9263807134457665e-17 -1.0517308815705491e-16 -3.9263807134457665e-17 -1.0517308815705491e-16 0.06029810661863082 0.9981804137219038
