! Parameters = {f0=12700.012000; bw=77.238000; Q=6100.000000; N=10; m_0_1=1.193088; m_1_1=-0.868424; m_1_2=1.027900; m_2_2=-0.869073; m_2_3=0.664863; m_2_8=-0.003282; m_2_9=0.033422; m_3_3=-0.871010; m_3_4=0.553392; m_3_7=-0.002682; m_3_8=-0.099770; m_3_9=-0.003282; m_4_4=-0.873935; m_4_5=0.389727; m_4_6=0.000835; m_4_7=-0.120319; m_4_8=-0.002682; m_5_5=-0.873553; m_5_6=0.797082; m_5_7=0.000835; m_6_6=-0.873554; m_6_7=0.390069; m_7_7=-0.873921; m_7_8=0.553510; m_8_8=-0.871012; m_8_9=0.665176; m_9_9=-0.869078; m_9_10=1.028978; m_10_10=-0.868434; m_10_11=1.193883}
!
! Created with skrf (http://scikit-rf.org).
# Hz S RI R 50.0 
!freq ReS11 ImS11 ReS21 ImS21 ReS12 ImS12 ReS22 ImS22
12607400000.0 -0.9942317197477621 -0.10725337965421233 7.461117888458248e-17 -1.3619283523961931e-17 7.461117888458248e-17 -1.3619283523961931e-17 -0.994231652314951 -0.10725400475006257
12608017333.333334 -0.9950826389367471 -0.09904817861285367 7.448043897866314e-17 -1.423811532924471e-17 7.448043897866314e-17 -1.423811532924471e-17 -0.9950825766657792 -0.09904880421305992
12608634666.666666 -0.9958658433613398 -0.09083623740585044 7.434457124002156e-17 -1.485571468806571e-17 7.434457124002156e-17 -1.485571468806571e-17 -0.995865786255948 -0.09083686346779382
12609252000.0 -0.9965812797250149 -0.08261811485077745 7.420358712238248e-17 -1.5472039149898412e-17 7.420358712238248e-17 -1.5472039149898412e-17 -0.9965812277885786 -0.08261874133181166
12609869333.333334 -0.9972288993428235 -0.07439437018581736 7.405749843055894e-17 -1.6087046369442877e-17 7.405749843055894e-17 -1.6087046369442877e-17 -0.9972288525783713 -0.07439499704327182
12610486666.666666 -0.9978086581446981 -0.06616556303184655 7.39063173194956e-17 -1.670069410952461e-17 7.39063173194956e-17 -1.670069410952461e-17 -0.9978086165549048 -0.06616619022302919
12611104000.0 -0.9983205166784695 -0.05793225335404139 7.375005629328162e-17 -1.731294024400764e-17 7.375005629328162e-17 -1.731294024400764e-17 -0.9983204802656597 -0.05793288083624171
12611721333.333334 -0.99876444011253 -0.049695001424170104 7.35887282041527e-17 -1.7923742760648642e-17 7.35887282041527e-17 -1.7923742760648642e-17 -0.9987644088786733 -0.04969562915466186
12612338666.666666 -0.9991403982382171 -0.041454367782182804 7.342234625145619e-17 -1.8533059763992092e-17 7.342234625145619e-17 -1.8533059763992092e-17 -0.999140372184933 -0.04145499571822714
12612956000.0 -0.9994483654718712 -0.03321091319806713 7.325092398059837e-17 -1.9140849478235376e-17 7.325092398059837e-17 -1.9140849478235376e-17 -0.9994483446004241 -0.0332115412969153
12613573333.333334 -0.999688320856562 -0.02496519863394365 7.307447528197262e-17 -1.9747070250065703e-17 7.307447528197262e-17 -1.9747070250065703e-17 -0.9996883051678651 -0.024965826852840083
12614190666.666666 -0.9998602480635297 -0.01671778520560887 7.289301438985356e-17 -2.0351680551526888e-17 7.289301438985356e-17 -2.0351680551526888e-17 -0.9998602375581439 -0.016718413501794017
12614808000.0 -0.99996413539329 -0.008469234144493624 7.270655588127661e-17 -2.0954638982845232e-17 7.270655588127661e-17 -2.0954638982845232e-17 -0.999964130071422 -0.00846986247520682
12615425333.333334 -0.9999999757764292 -0.0002201067594715615 7.251511467489007e-17 -2.1555904275257715e-17 7.251511467489007e-17 -2.1555904275257715e-17 -0.9999999756379337 -0.00022073508195400365
12616042666.666666 -0.999967766774087 0.008029035601451191 7.231870602978499e-17 -2.2155435293828012e-17 7.231870602978499e-17 -2.2155435293828012e-17 -0.9999677718184666 0.008028407329953562
12616660000.0 -0.9998675105781226 0.01627763158916492 7.21173455443017e-17 -2.2753191040252068e-17 7.21173455443017e-17 -2.2753191040252068e-17 -0.999867520804526 0.016277003411398507
12617277333.333334 -0.9996992140109631 0.024525119891797856 7.191104915481326e-17 -2.334913065565309e-17 7.191104915481326e-17 -2.334913065565309e-17 -0.9996992294181882 0.024524491850498518
12617894666.666666 -0.9994628885251451 0.03277093927274265 7.169983313448659e-17 -2.394321342336374e-17 7.169983313448659e-17 -2.394321342336374e-17 -0.999462909111636 0.03277031141063276
12618512000.0 -0.9991585502025246 0.041014528609160675 7.148371409201649e-17 -2.4535398771709514e-17 7.148371409201649e-17 -2.4535398771709514e-17 -0.999158575966375 0.04101390096894628
12619129333.333334 -0.9987862197531989 0.04925532692976848 7.12627089703474e-17 -2.512564627675056e-17 7.12627089703474e-17 -2.512564627675056e-17 -0.9987862506921467 0.04925469955413622
12619746666.666666 -0.9983459225140815 0.057492773453295384 7.103683504535919e-17 -2.5713915665050712e-17 7.103683504535919e-17 -2.5713915665050712e-17 -0.9983459586255162 0.05749214638490986
12620364000.0 -0.9978376884471806 0.06572630762664441 7.080610992453605e-17 -2.6300166816416562e-17 7.080610992453605e-17 -2.6300166816416562e-17 -0.9978377297281381 0.06572568090814505
12620981333.333334 -0.9972615521375732 0.07395536916278207 7.057055154562053e-17 -2.6884359766606956e-17 7.057055154562053e-17 -2.6884359766606956e-17 -0.9972615985847398 0.07395474283678043
12621598666.666666 -0.9966175527910358 0.08217939807914937 7.033017817523033e-17 -2.746645471006868e-17 7.033017817523033e-17 -2.746645471006868e-17 -0.9966176044007452 0.08217877218822604
12622216000.0 -0.9959057342313844 0.09039783473562639 7.008500840746423e-17 -2.8046412002629917e-17 7.008500840746423e-17 -2.8046412002629917e-17 -0.9959057909996205 0.0903972093223283
12622833333.333334 -0.9951261448974902 0.0986101198726723 6.983506116248041e-17 -2.862419216419544e-17 6.983506116248041e-17 -2.862419216419544e-17 -0.9951262068198841 0.09860949497950952
12623450666.666666 -0.9942788378399886 0.10681569464926904 6.958035568505783e-17 -2.919975588141761e-17 6.958035568505783e-17 -2.919975588141761e-17 -0.9942789049118227 0.1068150703187122
12624068000.0 -0.9933638707176611 0.1150140006810919 6.932091154312781e-17 -2.977306401037238e-17 6.932091154312781e-17 -2.977306401037238e-17 -0.993363942933868 0.11501337695556922
12624685333.333334 -0.9923813057935054 0.12320448007853531 6.905674862628794e-17 -3.034407757921253e-17 6.905674862628794e-17 -3.034407757921253e-17 -0.9923813831486672 0.12320385700042961
12625302666.666666 -0.9913312099305293 0.13138657548439436 6.878788714429896e-17 -3.0912757790798426e-17 6.878788714429896e-17 -3.0912757790798426e-17 -0.9913312924188812 0.1313859530960405
12625920000.0 -0.990213654587155 0.13955973011221634 6.85143476255514e-17 -3.147906602533285e-17 6.85143476255514e-17 -3.147906602533285e-17 -0.9902137422025812 0.13955910845589786
12626537333.333334 -0.9890287158123992 0.14772338778379435 6.823615091551514e-17 -3.2042963842975006e-17 6.823615091551514e-17 -3.2042963842975006e-17 -0.9890288085484357 0.14772276690174083
12627154666.666666 -0.9877764742406825 0.1558769929671846 6.795331817517137e-17 -3.260441298643111e-17 6.795331817517137e-17 -3.260441298643111e-17 -0.9877765720905185 0.1558763729015689
12627772000.0 -0.9864570150863122 0.164019990814678 6.766587087940872e-17 -3.3163375383562225e-17 6.766587087940872e-17 -3.3163375383562225e-17 -0.9864571180427906 0.1640193716076135
12628389333.333334 -0.9850704281377491 0.1721518272001649 6.737383081542265e-17 -3.3719813149928226e-17 6.737383081542265e-17 -3.3719813149928226e-17 -0.9850705361933639 0.17215120889370214
12629006666.666666 -0.9836168077514252 0.180271948757263 6.70772200810653e-17 -3.427368859137525e-17 6.70772200810653e-17 -3.427368859137525e-17 -0.9836169208983241 0.18027133139338705
12629624000.0 -0.982096252845373 0.18837980291666517 6.67760610831991e-17 -3.482496420655917e-17 6.67760610831991e-17 -3.482496420655917e-17 -0.9820963710753605 0.18837918653729335
12630241333.333334 -0.9805088668924775 0.1964748379438827 6.647037653601335e-17 -3.5373602689487114e-17 6.647037653601335e-17 -3.5373602689487114e-17 -0.9805089901970105 0.19647422259086073
12630858666.666666 -0.9788547579134376 0.20455650297673325 6.616018945933212e-17 -3.5919566932021804e-17 6.616018945933212e-17 -3.5919566932021804e-17 -0.9788548862836304 0.20455588869183328
12631476000.0 -0.9771340384693914 0.2126242480629667 6.58455231768838e-17 -3.6462820026402924e-17 6.58455231768838e-17 -3.6462820026402924e-17 -0.9771341718960138 0.212623634887884
12632093333.333334 -0.9753468256543073 0.2206775241974384 6.552640131457636e-17 -3.700332526770685e-17 6.552640131457636e-17 -3.700332526770685e-17 -0.9753469641277849 0.2206769121737885
12632710666.666666 -0.9734932410869861 0.2287157833596078 6.520284779872652e-17 -3.7541046156338266e-17 6.520284779872652e-17 -3.7541046156338266e-17 -0.973493384597404 0.22871517252892404
12633328000.0 -0.9715734109027568 0.23673847855096986 6.487488685428557e-17 -3.8075946400474235e-17 6.487488685428557e-17 -3.8075946400474235e-17 -0.9715735594398561 0.23673786895470003
12633945333.333334 -0.969587465744943 0.24474506383202718 6.454254300303495e-17 -3.8607989918514186e-17 6.454254300303495e-17 -3.8607989918514186e-17 -0.9695876192981265 0.24474445551153162
12634562666.666666 -0.9675355407559488 0.2527349943595814 6.420584106177229e-17 -3.9137140841493135e-17 6.420584106177229e-17 -3.9137140841493135e-17 -0.9675356993142769 0.252734387356129
12635180000.0 -0.9654177755680636 0.2607077264237799 6.386480614046798e-17 -3.9663363515498294e-17 6.386480614046798e-17 -3.9663363515498294e-17 -0.9654179391202576 0.2607071207785462
12635797333.333334 -0.9632343142939533 0.26866271748514337 6.351946364040563e-17 -4.018662250406202e-17 6.351946364040563e-17 -4.018662250406202e-17 -0.9632344828283965 0.2686621132392074
12636414666.666666 -0.9609853055168861 0.27659942621137507 6.316983925230815e-17 -4.070688259053177e-17 6.316983925230815e-17 -4.070688259053177e-17 -0.9609854790216229 0.2765988234057166
12637032000.0 -0.9586709022805738 0.2845173125143635 6.281595895443252e-17 -4.12241087804416e-17 6.281595895443252e-17 -4.12241087804416e-17 -0.9586710807433124 0.2845167111898603
12637649333.333334 -0.9562912620787873 0.2924158375868239 6.245784901065736e-17 -4.173826630384968e-17 6.245784901065736e-17 -4.173826630384968e-17 -0.9562914454869006 0.2924152377842493
12638266666.666666 -0.9538465468446365 0.3002944639389934 6.209553596854516e-17 -4.224932061766789e-17 6.209553596854516e-17 -4.224932061766789e-17 -0.9538467351851596 0.30029386569901245
12638884000.0 -0.9513369229395426 0.3081526554352042 6.172904665738714e-17 -4.2757237407973405e-17 6.172904665738714e-17 -4.2757237407973405e-17 -0.9513371161991783 0.30815205879837226
12639501333.333334 -0.9487625611419148 0.3159898773303962 6.13584081862276e-17 -4.326198259230467e-17 6.13584081862276e-17 -4.326198259230467e-17 -0.9487627593070325 0.31598928233715573
12640118666.666666 -0.9461236366355817 0.3238055963063442 6.098364794187891e-17 -4.376352232192876e-17 6.098364794187891e-17 -4.376352232192876e-17 -0.9461238396922169 0.32380500299702125
12640736000.0 -0.9434203289977222 0.3315992805083792 6.060479358689092e-17 -4.426182298412747e-17 6.060479358689092e-17 -4.426182298412747e-17 -0.9434205369315805 0.3315986889231818
12641353333.333334 -0.9406528221868684 0.339370399580937 6.0221873057547e-17 -4.475685120440631e-17 6.0221873057547e-17 -4.475685120440631e-17 -0.9406530349833243 0.33936980975995173
12641970666.666666 -0.9378213045301921 0.34711842470421217 5.983491456179683e-17 -4.5248573848745805e-17 5.983491456179683e-17 -4.5248573848745805e-17 -0.9378215221742905 0.3471178366874016
12642588000.0 -0.9349259687107818 0.35484282862987493 5.944394657719797e-17 -4.5736958025799235e-17 5.944394657719797e-17 -4.5736958025799235e-17 -0.9349261911872394 0.35484224245707524
12643205333.333334 -0.9319670117545235 0.3625430857169782 5.90489978488323e-17 -4.6221971089083424e-17 5.90489978488323e-17 -4.6221971089083424e-17 -0.9319672390477297 0.362542501427896
12643822666.666666 -0.9289446350166515 0.37021867196783265 5.865009738719875e-17 -4.670358063915765e-17 5.865009738719875e-17 -4.670358063915765e-17 -0.9289448671106693 0.3702180896020424
12644440000.0 -0.9258590441681055 0.37786906506350465 5.824727446610073e-17 -4.718175452576996e-17 5.824727446610073e-17 -4.718175452576996e-17 -0.9258592810466734 0.3778684846604464
12645057333.333334 -0.9227104491814876 0.3854937443994934 5.784055862050823e-17 -4.765646084999539e-17 5.784055862050823e-17 -4.765646084999539e-17 -0.9227106908280195 0.3854931659984696
12645674666.666666 -0.9194990643168355 0.39309219112099936 5.742997964440373e-17 -4.812766796635403e-17 5.742997964440373e-17 -4.812766796635403e-17 -0.9194993107144229 0.3930916147611725
12646292000.0 -0.9162251081069226 0.4006638881585205 5.701556758860117e-17 -4.8595344484921946e-17 5.701556758860117e-17 -4.8595344484921946e-17 -0.9162253592383345 0.40066331387890985
12646909333.333334 -0.9128888033425392 0.4082083202626712 5.6597352758576e-17 -4.905945927339137e-17 5.6597352758576e-17 -4.905945927339137e-17 -0.9128890591902253 0.4082077481021515
12647526666.666666 -0.9094903770572265 0.41572497403950837 5.617536571224613e-17 -4.951998145914927e-17 5.617536571224613e-17 -4.951998145914927e-17 -0.9094906376033165 0.4157244040368056
12648144000.0 -0.906030060511829 0.42321333798543764 5.574963725775143e-17 -4.997688043131902e-17 5.574963725775143e-17 -4.997688043131902e-17 -0.9060303257381362 0.4232127701791282
12648761333.333334 -0.9025080891788119 0.4306729025219207 5.5320198451221434e-17 -5.04301258427789e-17 5.5320198451221434e-17 -5.04301258427789e-17 -0.902508359066831 0.4306723369504268
12649378666.666666 -0.8989247027262309 0.43810316003014904 5.488708059452216e-17 -5.087968761216585e-17 5.488708059452216e-17 -5.087968761216585e-17 -0.8989249772571424 0.4381025967317376
12649996000.0 -0.8952801450013697 0.44550360488571855 5.4450315232972394e-17 -5.1325535925875965e-17 5.4450315232972394e-17 -5.1325535925875965e-17 -0.8952804241560399 0.44550304389849815
12650613333.333334 -0.8915746640141772 0.4528737334929579 5.4009934153069806e-17 -5.1767641240017046e-17 5.4009934153069806e-17 -5.1767641240017046e-17 -0.8915749477731588 0.45287317485487555
12651230666.666666 -0.8878085119204439 0.4602130443190971 5.356596938018861e-17 -5.220597428235631e-17 5.356596938018861e-17 -5.220597428235631e-17 -0.8878088002639787 0.4602124880679366
12651848000.0 -0.883981945004514 0.4675210379286495 5.311845317624773e-17 -5.264050605426161e-17 5.311845317624773e-17 -5.264050605426161e-17 -0.8839822379125335 0.46752048410202834
12652465333.333334 -0.8800952236619598 0.4747972170171698 5.2667418037390295e-17 -5.307120783259578e-17 5.2667418037390295e-17 -5.307120783259578e-17 -0.880095521114088 0.4747966656525374
12653082666.666666 -0.876148612381869 0.48204108644509874 5.2212896691634735e-17 -5.3498051171604914e-17 5.2212896691634735e-17 -5.3498051171604914e-17 -0.8761489143574214 0.4820405375797327
12653700000.0 -0.8721423797287042 0.48925215327170335 5.1754922096494884e-17 -5.3921007904801114e-17 5.1754922096494884e-17 -5.3921007904801114e-17 -0.8721426862066912 0.4892516069427081
12654317333.333334 -0.8680767983242226 0.49642992678827463 5.1293527436622123e-17 -5.434005014678987e-17 5.1293527436622123e-17 -5.434005014678987e-17 -0.868077109283351 0.4964293830325785
12654934666.666666 -0.863952144828787 0.5035739185517687 5.0828746121395824e-17 -5.4755150295112556e-17 5.0828746121395824e-17 -5.4755150295112556e-17 -0.8639524602474594 0.5035733774061206
12655552000.0 -0.8597686999225352 0.5106836424180431 5.0360611782514035e-17 -5.5166281032053345e-17 5.0360611782514035e-17 -5.5166281032053345e-17 -0.8597690197788531 0.5106831039190113
12656169333.333334 -0.8555267482864078 0.5177586145747164 4.9889158271584537e-17 -5.557341532641363e-17 4.9889158271584537e-17 -5.557341532641363e-17 -0.8555270725581745 0.517758078758686
12656786666.666666 -0.8512265785826387 0.5247983535743416 4.941441965767105e-17 -5.597652643529221e-17 4.941441965767105e-17 -5.597652643529221e-17 -0.8512269072473572 0.5247978204775103
12657404000.0 -0.8468684834351763 0.5318023803670396 4.893643022484933e-17 -5.637558790582389e-17 4.893643022484933e-17 -5.637558790582389e-17 -0.8468688164700535 0.5318018500254175
12658021333.333334 -0.8424527594097608 0.5387702183331274 4.8455224469739606e-17 -5.677057357690556e-17 4.8455224469739606e-17 -5.677057357690556e-17 -0.8424530967917082 0.5387696907825329
12658638666.666666 -0.8379797069937558 0.5457013933155249 4.7970837099028704e-17 -5.716145758089872e-17 4.7970837099028704e-17 -5.716145758089872e-17 -0.8379800486993926 0.545700868591584
12659256000.0 -0.8334496305756408 0.5525954336521183 4.74833030269698e-17 -5.754821434531735e-17 4.74833030269698e-17 -5.754821434531735e-17 -0.8334499765812938 0.5525949117902608
12659873333.333334 -0.8288628384243745 0.559451870207737 4.6992657372884226e-17 -5.793081859448311e-17 4.6992657372884226e-17 -5.793081859448311e-17 -0.8288631887060793 0.559451351243194
12660490666.666666 -0.8242196426684323 0.5662702364060535 4.649893545864288e-17 -5.830924535116407e-17 4.649893545864288e-17 -5.830924535116407e-17 -0.8242199972019366 0.5662697203738558
12661108000.0 -0.8195203592744078 0.5730500682615697 4.600217280611657e-17 -5.8683469938207e-17 4.600217280611657e-17 -5.8683469938207e-17 -0.8195207180351732 0.5730495551965462
12661725333.333334 -0.8147653080257392 0.5797909044108648 4.550240513465335e-17 -5.905346798011645e-17 4.550240513465335e-17 -5.905346798011645e-17 -0.8147656709889397 0.5797903943476369
12662342666.666666 -0.8099548125007628 0.5864922861442422 4.499966835850131e-17 -5.941921540464491e-17 4.499966835850131e-17 -5.941921540464491e-17 -0.8099551796412915 0.5864917791172259
12662960000.0 -0.805089200050783 0.5931537574368343 4.449399858424568e-17 -5.97806884443406e-17 4.449399858424568e-17 -5.97806884443406e-17 -0.8050895713432501 0.5931532534802346
12663577333.333334 -0.8001688017777764 0.5997748649796539 4.398543210822357e-17 -6.013786363808123e-17 4.398543210822357e-17 -6.013786363808123e-17 -0.8001691771965115 0.5997743641274634
12664194666.666666 -0.79519395251186 0.6063551582104436 4.347400541392801e-17 -6.04907178325844e-17 4.347400541392801e-17 -6.04907178325844e-17 -0.7951943320309143 0.6063546604964402
12664812000.0 -0.7901649907885048 0.6128941893443328 4.2959755169400256e-17 -6.083922818389639e-17 4.2959755169400256e-17 -6.083922818389639e-17 -0.7901653743816555 0.6128936948020789
12665429333.333334 -0.7850822588254878 0.6193915134043376 4.244271822461015e-17 -6.11833721588585e-17 4.244271822461015e-17 -6.11833721588585e-17 -0.7850826464662339 0.6193910220671747
12666046666.666666 -0.7799461024996829 0.6258466882515232 4.19229316088267e-17 -6.15231275365505e-17 4.19229316088267e-17 -6.15231275365505e-17 -0.7799464941612538 0.6258462001525732
12666664000.0 -0.7747568713233385 0.6322592746153418 4.140043252796647e-17 -6.18584724097182e-17 4.140043252796647e-17 -6.18584724097182e-17 -0.77475726697869 0.6322587897875014
12667281333.333334 -0.7695149184205345 0.638628836123208 4.0875258361957485e-17 -6.218938518616186e-17 4.0875258361957485e-17 -6.218938518616186e-17 -0.7695153180423557 0.63862835459915
12667898666.666666 -0.764220600502982 0.6449549393304221 4.034744666205836e-17 -6.251584459012401e-17 4.034744666205836e-17 -6.251584459012401e-17 -0.7642210040636922 0.6449544611425889
12668516000.0 -0.758874277845739 0.6512371537496564 3.98170351481823e-17 -6.283782966364383e-17 3.98170351481823e-17 -6.283782966364383e-17 -0.7588746853174947 0.6512366789302629
12669133333.333334 -0.7534763142628672 0.6574750518800626 3.928406170622694e-17 -6.315531976787977e-17 3.928406170622694e-17 -6.315531976787977e-17 -0.7534767256175599 0.6574745804610896
12669750666.666666 -0.7480270770824851 0.6636682092365728 3.8748564385359347e-17 -6.346829458442986e-17 3.8748564385359347e-17 -6.346829458442986e-17 -0.7480274922917454 0.6636677412497672
12670368000.0 -0.7425269371218485 0.6698162043787033 3.821058139531585e-17 -6.377673411661409e-17 3.821058139531585e-17 -6.377673411661409e-17 -0.7425273561570469 0.6698157398555747
