! Parameters = {f0=12700.012000; bw=77.238000; Q=6100.000000; N=10; m_0_1=1.168063; m_1_1=-1.243800; m_1_2=1.002875; m_2_2=-1.244449; m_2_3=0.639838; m_2_8=-0.004533; m_2_9=0.032171; m_3_3=-1.246386; m_3_4=0.528367; m_3_7=-0.003933; m_3_8=-0.101021; m_3_9=-0.004533; m_4_4=-1.249311; m_4_5=0.364702; m_4_6=-0.000416; m_4_7=-0.121570; m_4_8=-0.003933; m_5_5=-1.248929; m_5_6=0.772057; m_5_7=-0.000416; m_6_6=-1.248930; m_6_7=0.365044; m_7_7=-1.249297; m_7_8=0.528485; m_8_8=-1.246388; m_8_9=0.640151; m_9_9=-1.244454; m_9_10=1.003953; m_10_10=-1.243810; m_10_11=1.168858}
!
! Created with skrf (http://scikit-rf.org).
# Hz S RI R 50.0 
!freq ReS11 ImS11 ReS21 ImS21 ReS12 ImS12 ReS22 ImS22
12607400000.0 0.8860872451669947 -0.4635184936463881 -4.783449923648132e-17 4.638090781992554e-17 -4.783449923648132e-17 4.638090781992554e-17 0.8860875304984837 -0.46351794819073555
12608017333.333334 0.8825815376292386 -0.4701593659982327 -4.7471413976833966e-17 4.673386124637531e-17 -4.7471413976833966e-17 4.673386124637531e-17 0.882581827034527 -0.4701588227272215
12608634666.666666 0.879026060286178 -0.4767737255109719 -4.710572954136192e-17 4.708397760600579e-17 -4.710572954136192e-17 4.708397760600579e-17 0.8790263537485483 -0.4767731844550225
12609252000.0 0.8754210136353738 -0.483361199193177 -4.6737468059020644e-17 4.7431237798273294e-17 -4.6737468059020644e-17 4.7431237798273294e-17 0.8754213111378804 -0.4833606603825814
12609869333.333334 0.8717666009696557 -0.48992141556954205 -4.636665179881251e-17 4.77756228949521e-17 -4.636665179881251e-17 4.77756228949521e-17 0.8717669024951279 -0.48992087903446363
12610486666.666666 0.868063028365703 -0.49645400470175916 -4.599330316845973e-17 4.8117114141147215e-17 -4.599330316845973e-17 4.8117114141147215e-17 0.8680633338967441 -0.4964534704722292
12611104000.0 0.8643105046723265 -0.5029585982095532 -4.561744471304046e-17 4.845569295632382e-17 -4.561744471304046e-17 4.845569295632382e-17 0.8643108141913152 -0.5029580663154701
12611721333.333334 0.8605092414988 -0.5094348292912559 -4.523909911365264e-17 4.879134093529436e-17 -4.523909911365264e-17 4.879134093529436e-17 0.8605095549878926 -0.5094342997623836
12612338666.666666 0.856659453202832 -0.5158823327446641 -4.4858289186043596e-17 4.912403984921917e-17 -4.4858289186043596e-17 4.912403984921917e-17 0.8566597706439628 -0.5158818056106304
12612956000.0 0.8527613568785182 -0.5223007449875595 -4.447503787923289e-17 4.945377164659685e-17 -4.447503787923289e-17 4.945377164659685e-17 0.8527616782534004 -0.522300220277854
12613573333.333334 0.848815172344145 -0.5286897040781388 -4.4089368274154426e-17 4.97805184542198e-17 -4.4089368274154426e-17 4.97805184542198e-17 0.8488154976342717 -0.528689181822112
12614190666.666666 0.844821122129705 -0.5350488497355701 -4.3701303582257473e-17 5.01042625781491e-17 -4.3701303582257473e-17 5.01042625781491e-17 0.8448214513163501 -0.535048329962431
12614808000.0 0.8407794314644059 -0.5413778233602122 -4.3310867144122436e-17 5.042498650466041e-17 -4.3310867144122436e-17 5.042498650466041e-17 0.8407797645286259 -0.5413773060990268
12615425333.333334 0.8366903282639412 -0.547676268053884 -4.291808242806773e-17 5.0742672901179724e-17 -4.291808242806773e-17 5.0742672901179724e-17 0.836690665186575 -0.5476757533335737
12616042666.666666 0.8325540431176978 -0.5539438286398953 -4.252297302873756e-17 5.1057304617220144e-17 -4.252297302873756e-17 5.1057304617220144e-17 0.8325543838793698 -0.553943316489236
12616660000.0 0.8283708092756623 -0.5601801516832199 -4.212556266569674e-17 5.136886468529478e-17 -4.212556266569674e-17 5.136886468529478e-17 0.8283711538567817 -0.5601796421308394
12617277333.333334 0.8241408626353117 -0.5663848855103526 -4.17258751820107e-17 5.167733632182659e-17 -4.17258751820107e-17 5.167733632182659e-17 0.824141211016074 -0.5663843785847295
12617894666.666666 0.8198644417283598 -0.5725576802290716 -4.132393454282729e-17 5.198270292803978e-17 -4.132393454282729e-17 5.198270292803978e-17 0.8198647938887486 -0.5725571759585331
12618512000.0 0.8155417877071944 -0.5786981877483324 -4.091976483393619e-17 5.228494809085333e-17 -4.091976483393619e-17 5.228494809085333e-17 0.8155421436269822 -0.5786976861610541
12619129333.333334 0.8111731443314075 -0.5848060617977112 -4.0513390260344015e-17 5.2584055583745896e-17 -4.0513390260344015e-17 5.2584055583745896e-17 0.8111735039901562 -0.584805562921714
12619746666.666666 0.8067587579539345 -0.5908809579470938 -4.010483514482082e-17 5.2880009367627004e-17 -4.010483514482082e-17 5.2880009367627004e-17 0.806759121330998 -0.5908804618102435
12620364000.0 0.8022988775072123 -0.5969225336260288 -3.969412392645517e-17 5.317279359168543e-17 -3.969412392645517e-17 5.317279359168543e-17 0.8022992445817366 -0.5969220402560336
12620981333.333334 0.7977937544891912 -0.6029304481429766 -3.928128115920334e-17 5.346239259422668e-17 -3.928128115920334e-17 5.346239259422668e-17 0.7977941252401154 -0.6029299575673859
12621598666.666666 0.7932436429490524 -0.6089043627046594 -3.8866331510418754e-17 5.374879090350931e-17 -3.8866331510418754e-17 5.374879090350931e-17 0.7932440173551109 -0.6089038749508627
12622216000.0 0.7886487994729485 -0.6148439404350737 -3.844929975939041e-17 5.4031973238558397e-17 -3.844929975939041e-17 5.4031973238558397e-17 0.7886491775126714 -0.6148434555302986
12622833333.333334 0.7840094831694829 -0.6207488463945556 -3.803021079586667e-17 5.4311924509975013e-17 -3.803021079586667e-17 5.4311924509975013e-17 0.7840098648211977 -0.6207483643658662
12623450666.666666 0.7793259556552391 -0.6266187475984892 -3.760908961858073e-17 5.4588629820728417e-17 -3.760908961858073e-17 5.4588629820728417e-17 0.7793263408970719 -0.6266182684727853
12624068000.0 0.7745984810398352 -0.632453313036331 -3.7185961333764074e-17 5.4862074466941124e-17 -3.7185961333764074e-17 5.4862074466941124e-17 0.7745988698497114 -0.6324528368403455
12624685333.333334 0.7698273259110796 -0.6382522136902056 -3.676085115364527e-17 5.513224393866926e-17 -3.676085115364527e-17 5.513224393866926e-17 0.769827718266726 -0.6382517404505039
12625302666.666666 0.765012759320084 -0.6440151225532852 -3.633378439497577e-17 5.539912392064891e-17 -3.633378439497577e-17 5.539912392064891e-17 0.765013155199029 -0.6440146522962634
12625920000.0 0.7601550527658918 -0.6497417146484712 -3.5904786477503383e-17 5.566270029306251e-17 -3.5904786477503383e-17 5.566270029306251e-17 0.7601554521454685 -0.6497412474003548
12626537333.333334 0.755254480180315 -0.6554316670465455 -3.5473882922485924e-17 5.59229591322635e-17 -3.5473882922485924e-17 5.59229591322635e-17 0.7552548830376601 -0.6554312028333873
12627154666.666666 0.7503113179124485 -0.6610846588844244 -3.504109935117607e-17 5.617988671150503e-17 -3.504109935117607e-17 5.617988671150503e-17 0.7503117242245058 -0.6610841977321039
12627772000.0 0.745325844712958 -0.6667003713834024 -3.4606461483285065e-17 5.643346950166692e-17 -3.4606461483285065e-17 5.643346950166692e-17 0.7453262544564784 -0.6666999133176242
12628389333.333334 0.740298341718602 -0.6722784878668508 -3.4169995135489113e-17 5.668369417194091e-17 -3.4169995135489113e-17 5.668369417194091e-17 0.7402987548701445 -0.6722780329131421
12629006666.666666 0.7352290924361727 -0.6778186937783091 -3.373172621987463e-17 5.693054759053857e-17 -3.373172621987463e-17 5.693054759053857e-17 0.7352295089721078 -0.6778182419620203
12629624000.0 0.7301183827266033 -0.6833206766991183 -3.329168074243045e-17 5.717401682535702e-17 -3.329168074243045e-17 5.717401682535702e-17 0.7301188026231117 -0.6833202280454194
12630241333.333334 0.7249665007887887 -0.6887841263660995 -3.2849884801491217e-17 5.741408914465795e-17 -3.2849884801491217e-17 5.741408914465795e-17 0.7249669240218649 -0.6887836808999804
12630858666.666666 0.7197737371435108 -0.6942087346888656 -3.240636458621201e-17 5.76507520177147e-17 -3.240636458621201e-17 5.76507520177147e-17 0.7197741636889632 -0.6942082924351339
12631476000.0 0.7145403846167226 -0.6995941957675444 -3.196114637500215e-17 5.788399311546728e-17 -3.196114637500215e-17 5.788399311546728e-17 0.7145408144501749 -0.6995937567508239
12632093333.333334 0.7092667383233687 -0.70494020590968 -3.1514256533995797e-17 5.811380031114326e-17 -3.1514256533995797e-17 5.811380031114326e-17 0.7092671714202617 -0.7049397701544093
12632710666.666666 0.7039530956505857 -0.7102464636475205 -3.106572151548486e-17 5.834016168088435e-17 -3.106572151548486e-17 5.834016168088435e-17 0.7039535319861793 -0.7102460311779532
12633328000.0 0.6985997562409143 -0.715512669755042 -3.0615567856357716e-17 5.856306550435598e-17 -3.0615567856357716e-17 5.856306550435598e-17 0.6986001957902868 -0.7155122405952419
12633945333.333334 0.6932070219754572 -0.720738527264756 -3.016382217654009e-17 5.878250026534116e-17 -3.016382217654009e-17 5.878250026534116e-17 0.6932074647135101 -0.7207381014386005
12634562666.666666 0.6877751969568424 -0.7259237414844821 -2.9710511177423564e-17 5.899845465232685e-17 -2.9710511177423564e-17 5.899845465232685e-17 0.6877756428582978 -0.7259233190156562
12635180000.0 0.6823045874920463 -0.7310680200139795 -2.9255661640299944e-17 5.921091755907297e-17 -2.9255661640299944e-17 5.921091755907297e-17 0.6823050365314517 -0.7310676009259779
12635797333.333334 0.6767955020751887 -0.7361710727613825 -2.8799300424773295e-17 5.941987808517891e-17 -2.8799300424773295e-17 5.941987808517891e-17 0.6767959542269167 -0.7361706570775063
12636414666.666666 0.6712482513700928 -0.7412326119595951 -2.834145446719322e-17 5.962532553662533e-17 -2.834145446719322e-17 5.962532553662533e-17 0.6712487066083433 -0.7412321997029516
12637032000.0 0.665663148192725 -0.7462523521825588 -2.788215077905902e-17 5.982724942631599e-17 -2.788215077905902e-17 5.982724942631599e-17 0.6656636064915262 -0.7462519433760593
12637649333.333334 0.660040507493595 -0.7512300103613065 -2.742141644543706e-17 6.002563947459938e-17 -2.742141644543706e-17 6.002563947459938e-17 0.6600409688268052 -0.7512296050276662
12638266666.666666 0.6543806463400619 -0.7561653057998723 -2.6959278623374595e-17 6.022048560977857e-17 -2.6959278623374595e-17 6.022048560977857e-17 0.6543811106813704 -0.7561649039616074
12638884000.0 0.6486838838983243 -0.7610579601912307 -2.649576454029469e-17 6.041177796861557e-17 -2.649576454029469e-17 6.041177796861557e-17 0.6486843512212538 -0.761057561870659
12639501333.333334 0.6429505414154876 -0.7659076976329349 -2.603090149240299e-17 6.059950689681633e-17 -2.603090149240299e-17 6.059950689681633e-17 0.6429510116933951 -0.7659073028521729
12640118666.666666 0.6371809422015341 -0.7707142446426017 -2.556471684309312e-17 6.078366294950362e-17 -2.556471684309312e-17 6.078366294950362e-17 0.6371814154076133 -0.7707138534235658
12640736000.0 0.631375411610832 -0.7754773301735548 -2.509723802132259e-17 6.096423689168736e-17 -2.509723802132259e-17 6.096423689168736e-17 0.6313758877181126 -0.7754769425379561
12641353333.333334 0.6255342770241779 -0.7801966856297773 -2.4628492520027538e-17 6.114121969870678e-17 -2.4628492520027538e-17 6.114121969870678e-17 0.6255347560055305 -0.780196301599125
12641970666.666666 0.6196578678299683 -0.7848720448813734 -2.4158507894499254e-17 6.131460255667327e-17 -2.4158507894499254e-17 6.131460255667327e-17 0.6196583496581026 -0.7848716644769695
12642588000.0 0.6137465154058175 -0.7895031442794057 -2.368731176076852e-17 6.148437686289753e-17 -2.368731176076852e-17 6.148437686289753e-17 0.6137470000532856 -0.7895027675223463
12643205333.333334 0.6078005530998288 -0.7940897226708031 -2.32149317939939e-17 6.165053422630131e-17 -2.32149317939939e-17 6.165053422630131e-17 0.6078010405390275 -0.7940893495819771
12643822666.666666 0.6018203162117983 -0.7986315214130874 -2.2741395726840136e-17 6.1813066467819e-17 -2.2741395726840136e-17 6.1813066467819e-17 0.6018208064149683 -0.7986311520131735
12644440000.0 0.5958061419742811 -0.8031282843889729 -2.2266731347854204e-17 6.1971965620788e-17 -2.2266731347854204e-17 6.1971965620788e-17 0.5958066349135107 -0.8031279186984411
12645057333.333334 0.5897583695336439 -0.8075797580207601 -2.1790966499845466e-17 6.212722393132299e-17 -2.1790966499845466e-17 6.212722393132299e-17 0.5897588651808704 -0.8075793960598693
12645674666.666666 0.5836773399308969 -0.8119856912846702 -2.131412907825654e-17 6.227883385868103e-17 -2.131412907825654e-17 6.227883385868103e-17 0.5836778382579068 -0.8119853330734664
12646292000.0 0.5775633960823892 -0.8163458357250488 -2.0836247029520858e-17 6.242678807561728e-17 -2.0836247029520858e-17 6.242678807561728e-17 0.5775638970608211 -0.8163454812833651
12646909333.333334 0.5714168827606358 -0.8206599454682613 -2.0357348349451986e-17 6.257107946871745e-17 -2.0357348349451986e-17 6.257107946871745e-17 0.5714173863619814 -0.8206595948157154
12647526666.666666 0.5652381465747115 -0.8249277772366715 -1.9877461081598384e-17 6.271170113872804e-17 -1.9877461081598384e-17 6.271170113872804e-17 0.5652386527703174 -0.8249274303926669
12648144000.0 0.5590275359507997 -0.829149090362299 -1.9396613315598108e-17 6.284864640087366e-17 -1.9396613315598108e-17 6.284864640087366e-17 0.5590280447118688 -0.8291487473460212
12648761333.333334 0.5527854011124956 -0.8333236468004181 -1.8914833185554464e-17 6.298190878515418e-17 -1.8914833185554464e-17 6.298190878515418e-17 0.5527859124100896 -0.8333233076308358
12649378666.666666 0.5465120940611529 -0.8374512111429213 -1.8432148868392087e-17 6.311148203663565e-17 -1.8432148868392087e-17 6.311148203663565e-17 0.546512607866192 -0.8374508758387835
12649996000.0 0.5402079685558893 -0.8415315506316854 -1.7948588582212788e-17 6.323736011572737e-17 -1.7948588582212788e-17 6.323736011572737e-17 0.5402084848391572 -0.8415312192115235
12650613333.333334 0.533873380093714 -0.8455644351716574 -1.74641805846462e-17 6.335953719844789e-17 -1.74641805846462e-17 6.335953719844789e-17 0.5338738988258557 -0.8455641076537791
12651230666.666666 0.5275086858895464 -0.8495496373437731 -1.697895317121848e-17 6.34780076766728e-17 -1.697895317121848e-17 6.34780076766728e-17 0.5275092070410722 -0.8495493137462655
12651848000.0 0.5211142448559316 -0.8534869324178808 -1.6492934673685316e-17 6.359276615837929e-17 -1.6492934673685316e-17 6.359276615837929e-17 0.5211147683972189 -0.8534866127586094
12652465333.333334 0.5146904175828739 -0.8573760983653669 -1.600615345839769e-17 6.370380746786906e-17 -1.600615345839769e-17 6.370380746786906e-17 0.5146909434841677 -0.857375782661972
12653082666.666666 0.5082375663175728 -0.86121691587163 -1.5518637924659186e-17 6.381112664598071e-17 -1.5518637924659186e-17 6.381112664598071e-17 0.508238094548988 -0.8612166041415279
12653700000.0 0.501756054943828 -0.8650091683485546 -1.503041650304569e-17 6.39147189502984e-17 -1.503041650304569e-17 6.39147189502984e-17 0.5017565854753512 -0.865008860608935
12654317333.333334 0.49524624896171277 -0.8687526419466042 -1.4541517653785706e-17 6.401457985533305e-17 -1.4541517653785706e-17 6.401457985533305e-17 0.4952467817632035 -0.8687523382144311
12654934666.666666 0.4887085154667924 -0.8724471255669856 -1.4051969865085016e-17 6.411070505270373e-17 -1.4051969865085016e-17 6.411070505270373e-17 0.4887090505079854 -0.8724468258589947
12655552000.0 0.48214322312949637 -0.876092410873506 -1.3561801651479514e-17 6.420309045129974e-17 -1.3561801651479514e-17 6.420309045129974e-17 0.4821437603800029 -0.8760921152062047
12656169333.333334 0.4755507421744037 -0.8796882923042826 -1.3071041552185444e-17 6.429173217743098e-17 -1.3071041552185444e-17 6.429173217743098e-17 0.47555128160371357 -0.8796880006939488
12656786666.666666 0.46893144435921646 -0.8832345670834171 -1.2579718129432265e-17 6.43766265749686e-17 -1.2579718129432265e-17 6.43766265749686e-17 0.46893198593669927 -0.8832342795460982
12657404000.0 0.4622857029538944 -0.8867310352323731 -1.2087859966813228e-17 6.445777020546951e-17 -1.2087859966813228e-17 6.445777020546951e-17 0.46228624664880186 -0.8867307517838853
12658021333.333334 0.45561389271955666 -0.8901774995812824 -1.1595495667624355e-17 6.453515984829057e-17 -1.1595495667624355e-17 6.453515984829057e-17 0.45561443850102457 -0.890177220237211
12658638666.666666 0.4489163898874499 -0.8935737657800116 -1.1102653853213927e-17 6.460879250068816e-17 -1.1102653853213927e-17 6.460879250068816e-17 0.44891693772449837 -0.8935734905557069
12659256000.0 0.4421935721375796 -0.8969196423091979 -1.0609363161313215e-17 6.46786653779082e-17 -1.0609363161313215e-17 6.46786653779082e-17 0.4421941219991168 -0.8969193712197778
12659873333.333334 0.4354458185774881 -0.9002149404910105 -1.0115652244383453e-17 6.474477591326064e-17 -1.0115652244383453e-17 6.474477591326064e-17 0.43544637043231077 -0.9002146735513584
12660490666.666666 0.4286735097209533 -0.9034594744997537 -9.621549767964494e-18 6.480712175818183e-17 -9.621549767964494e-18 6.480712175818183e-17 0.4286740635377488 -0.903459211724517
12661108000.0 0.4218770274663528 -0.9066530613724337 -9.1270844089938e-18 6.48657007822876e-17 -9.1270844089938e-18 6.48657007822876e-17 0.42187758321370067 -0.9066528027760234
12661725333.333334 0.4150567550753315 -0.9097955210189752 -8.632284854180788e-18 6.492051107340652e-17 -8.632284854180788e-18 6.492051107340652e-17 0.41505731272170565 -0.9097952666155653
12662342666.666666 0.40821307715101046 -0.9128866762324636 -8.13717979831673e-18 6.497155093760975e-17 -8.13717979831673e-18 6.497155093760975e-17 0.40821363666478133 -0.9128864260359915
12662960000.0 0.4013463796163758 -0.9159263526991022 -7.64179794263271e-18 6.501881889922088e-17 -7.64179794263271e-18 6.501881889922088e-17 0.40134694096581086 -0.9159261067232649
12663577333.333334 0.39445704969259326 -0.9189143790080052 -7.14616799313764e-18 6.506231370081662e-17 -7.14616799313764e-18 6.506231370081662e-17 0.39445761284585984 -0.9189141372662615
12664194666.666666 0.38754547587701693 -0.9218505866609347 -6.650318658958473e-18 6.510203430321451e-17 -6.650318658958473e-18 6.510203430321451e-17 0.38754604080218386 -0.9218503491665029
12664812000.0 0.3806120479213854 -0.9247348100817563 -6.1542786506900946e-18 6.513797988544684e-17 -6.1542786506900946e-18 6.513797988544684e-17 0.38061261458642487 -0.924734576847615
12665429333.333334 0.3736571568097909 -0.9275668866257976 -5.658076678725462e-18 6.517014984472414e-17 -5.658076678725462e-18 6.517014984472414e-17 0.37365772518258 -0.927566657664683
12666046666.666666 0.3666811947367372 -0.9303466565889794 -5.161741451616024e-18 6.519854379638361e-17 -5.161741451616024e-18 6.519854379638361e-17 0.36668176478505915 -0.9303464319133844
12666664000.0 0.35968455508483654 -0.9330739632168907 -4.665301674393949e-18 6.522316157382782e-17 -4.665301674393949e-18 6.522316157382782e-17 0.35968512677638453 -0.9330737428390682
12667281333.333334 0.3526676324028407 -0.9357486527135517 -4.168786046941566e-18 6.52440032284474e-17 -4.168786046941566e-18 6.52440032284474e-17 0.3526682057052175 -0.9357484366455088
12667898666.666666 0.34563082238320464 -0.938370574250153 -3.672223262326538e-18 6.526106902953425e-17 -3.672223262326538e-18 6.526106902953425e-17 0.34563139726392567 -0.9383703625036534
12668516000.0 0.33857452183985276 -0.9409395799735324 -3.1756420051380273e-18 6.527435946418111e-17 -3.1756420051380273e-18 6.527435946418111e-17 0.3385750982663474 -0.9409393725600947
12669133333.333334 0.33149912868588205 -0.9434555250144822 -2.679070949859289e-18 6.528387523716779e-17 -2.679070949859289e-18 6.528387523716779e-17 0.33149970662549627 -0.9434553219453806
12669750666.666666 0.3244050419109643 -0.9459182674959804 -2.1825387591950645e-18 6.528961727083639e-17 -2.1825387591950645e-18 6.528961727083639e-17 0.3244056213309611 -0.9459180687822412
12670368000.0 0.3172926615589246 -0.9483276685411559 -1.6860740824374345e-18 6.529158670495261e-17 -1.6860740824374345e-18 6.529158670495261e-17 0.31729324242648743 -0.9483274741935604
