! Parameters = {f0=12700.012000; bw=77.238000; Q=6100.000000; N=10; m_0_1=1.179474; m_1_1=-1.072629; m_1_2=1.014286; m_2_2=-1.073278; m_2_3=0.651249; m_2_8=-0.003963; m_2_9=0.032741; m_3_3=-1.075215; m_3_4=0.539778; m_3_7=-0.003363; m_3_8=-0.100451; m_3_9=-0.003963; m_4_4=-1.078140; m_4_5=0.376113; m_4_6=0.000154; m_4_7=-0.121000; m_4_8=-0.003363; m_5_5=-1.077758; m_5_6=0.783468; m_5_7=0.000154; m_6_6=-1.077759; m_6_7=0.376455; m_7_7=-1.078126; m_7_8=0.539896; m_8_8=-1.075217; m_8_9=0.651562; m_9_9=-1.073283; m_9_10=1.015364; m_10_10=-1.072639; m_10_11=1.180269}
!
! Created with skrf (http://scikit-rf.org).
# Hz S RI R 50.0 
!freq ReS11 ImS11 ReS21 ImS21 ReS12 ImS12 ReS22 ImS22
12607400000.0 0.4599730504491016 -0.8879328763259056 -1.3351936071523114e-17 6.94422474987207e-17 -1.3351936071523114e-17 6.94422474987207e-17 0.4599736023631824 -0.8879325904193881
12608017333.333334 0.45299155230790766 -0.8915148083669273 -1.2797957825197227e-17 6.953239135030519e-17 -1.2797957825197227e-17 6.953239135030519e-17 0.45299210642128085 -0.8915145268137016
12608634666.666666 0.4459821627751211 -0.895041848455296 -1.2243390460894621e-17 6.961812020879597e-17 -1.2243390460894621e-17 6.961812020879597e-17 0.44598271905345505 -0.8950415712722701
12609252000.0 0.4389453134297665 -0.8985137794257201 -1.1688269129675771e-17 6.969943040550337e-17 -1.1688269129675771e-17 6.969943040550337e-17 0.43894587183860023 -0.8985135066295323
12609869333.333334 0.4318814375416118 -0.9019303875060638 -1.1132629003698745e-17 6.977631855132726e-17 -1.1132629003698745e-17 6.977631855132726e-17 0.4318819980463561 -0.90193011911308
12610486666.666666 0.42479097004451594 -0.9052914623304951 -1.0576505274009495e-17 6.984878153685929e-17 -1.0576505274009495e-17 6.984878153685929e-17 0.4247915326104563 -0.905291198356809
12611104000.0 0.4176743475095218 -0.9085967969525007 -1.0019933148299945e-17 6.991681653247131e-17 -1.0019933148299945e-17 6.991681653247131e-17 0.41767491210181945 -0.9085965374139309
12611721333.333334 0.41053200811823043 -0.9118461878575026 -9.462947848705808e-18 6.998042098838177e-17 -9.462947848705808e-18 6.998042098838177e-17 0.4105325747019267 -0.9118459327695958
12612338666.666666 0.4033643916355949 -0.9150394349755068 -8.905584609576367e-18 7.003959263470711e-17 -8.905584609576367e-18 7.003959263470711e-17 0.40336496017561024 -0.915039184353531
12612956000.0 0.3961719393828625 -0.9181763416933967 -8.347878675244446e-18 7.009432948149602e-17 -8.347878675244446e-18 7.009432948149602e-17 0.39617250984400176 -0.9181760955523464
12613573333.333334 0.3889550942105365 -0.9212567148669908 -7.789865297824504e-18 7.014462981874291e-17 -7.789865297824504e-18 7.014462981874291e-17 0.38895566655748914 -0.9212564732215819
12614190666.666666 0.38171430047100297 -0.924280364832977 -7.231579734973229e-18 7.019049221638787e-17 -7.231579734973229e-18 7.019049221638787e-17 0.3817148746683455 -0.9242801276976461
12614808000.0 0.3744500039911974 -0.9272471054205774 -6.6730572476705854e-18 7.023191552429679e-17 -6.6730572476705854e-18 7.023191552429679e-17 0.3744505800033966 -0.9272468728094844
12615425333.333334 0.3671626520451558 -0.9301567539630163 -6.114333098009489e-18 7.026889887222285e-17 -6.114333098009489e-18 7.026889887222285e-17 0.3671632298365694 -0.9301565258900389
12616042666.666666 0.35985269332647385 -0.9330091313087626 -5.555442546968374e-18 7.030144166975294e-17 -5.555442546968374e-18 7.030144166975294e-17 0.3598532728613539 -0.9330089077874982
12616660000.0 0.35252057792070673 -0.9358040618325498 -4.9964208521946216e-18 7.032954360623472e-17 -4.9964208521946216e-18 7.032954360623472e-17 0.3525211591632017 -0.9358038428763159
12617277333.333334 0.3451667572775255 -0.9385413734462458 -4.437303265787099e-18 7.035320465068669e-17 -4.437303265787099e-18 7.035320465068669e-17 0.345167340191682 -0.9385411590680762
12617894666.666666 0.3377916841832112 -0.9412208976093327 -3.878125032081933e-18 7.037242505169082e-17 -3.878125032081933e-18 7.037242505169082e-17 0.33779226873297624 -0.9412206878219775
12618512000.0 0.3303958127323774 -0.9438424693394334 -3.3189213854275774e-18 7.038720533726755e-17 -3.3189213854275774e-18 7.038720533726755e-17 0.33039639888160127 -0.9438422641553607
12619129333.333334 0.32297959830041156 -0.9464059272223272 -2.7597275479914553e-18 7.039754631473254e-17 -2.7597275479914553e-18 7.039754631473254e-17 0.3229801860128493 -0.9464057266537189
12619746666.666666 0.3155434975151689 -0.9489111134219804 -2.2005787275301665e-18 7.04034490705372e-17 -2.2005787275301665e-18 7.04034490705372e-17 0.3155440867544829 -0.9489109174807335
12620364000.0 0.30808796822888385 -0.9513578736902566 -1.641510115181503e-18 7.040491497009084e-17 -1.641510115181503e-18 7.040491497009084e-17 0.3080885589586461 -0.951357682387982
12620981333.333334 0.300613469490114 -0.9537460573763665 -1.0825568832663812e-18 7.040194565756568e-17 -1.0825568832663812e-18 7.040194565756568e-17 0.30061406167380855 -0.9537458707243894
12621598666.666666 0.29312046151536825 -0.9560755174361836 -5.237541830747879e-19 7.039454305568398e-17 -5.237541830747879e-19 7.039454305568398e-17 0.29312105511639236 -0.9560753354455392
12622216000.0 0.2856094056607963 -0.9583461104412829 3.486285733605645e-20 7.038270936548826e-17 3.486285733605645e-20 7.038270936548826e-17 0.28561000064246467 -0.9583459331227214
12622833333.333334 0.27808076439378404 -0.9605576965877776 5.932591353432236e-19 7.036644706609386e-17 5.932591353432236e-19 7.036644706609386e-17 0.27808136071932943 -0.9605575239517592
12623450666.666666 0.27053500126447777 -0.962710139704925 1.1513995759571406e-18 7.034575891442406e-17 1.1513995759571406e-18 7.034575891442406e-17 0.27053559889705375 -0.9627099717616205
12624068000.0 0.2629725808772703 -0.9648033072635046 1.7092491340160552e-18 7.032064794492805e-17 1.7092491340160552e-18 7.032064794492805e-17 0.26297317977995344 -0.964803144022794
12624685333.333334 0.25539396886205656 -0.9668370703840101 2.26677279638975e-18 7.029111746928073e-17 2.26677279638975e-18 7.029111746928073e-17 0.2553945689978493 -0.966836911855485
12625302666.666666 0.24779963184586742 -0.968811303844511 2.8239355841484257e-18 7.025717107606709e-17 2.8239355841484257e-18 7.025717107606709e-17 0.24780023317769956 -0.9688111500374702
12625920000.0 0.24019003742372552 -0.970725886088466 3.3807025547785078e-18 7.021881263044661e-17 3.3807025547785078e-18 7.021881263044661e-17 0.24019063991445708 -0.9707257370119182
12626537333.333334 0.23256565413026808 -0.9725806992321047 3.937038804347368e-18 7.017604627380266e-17 3.937038804347368e-18 7.017604627380266e-17 0.232566257742691 -0.9725805548947647
12627154666.666666 0.22492695141062222 -0.9743756290717515 4.4929094696847705e-18 7.012887642337428e-17 4.4929094696847705e-18 7.012887642337428e-17 0.2249275561074636 -0.9743754894820436
12627772000.0 0.21727439959150158 -0.9761105650908622 5.048279730580779e-18 7.007730777186854e-17 5.048279730580779e-18 7.007730777186854e-17 0.21727500533542457 -0.9761104302569147
12628389333.333334 0.2096084698525222 -0.9777854004667552 5.603114811928338e-18 7.002134528705997e-17 5.603114811928338e-18 7.002134528705997e-17 0.20960907660613012 -0.9777852703964063
12629006666.666666 0.20192963419680607 -0.979400032077288 6.157379985931865e-18 6.996099421136751e-17 6.157379985931865e-18 6.996099421136751e-17 0.2019302419226431 -0.9793999067780794
12629624000.0 0.1942383654222218 -0.9809543605071294 6.711040574240332e-18 6.989626006141964e-17 6.711040574240332e-18 6.989626006141964e-17 0.1942389740827762 -0.9809542399863097
12630241333.333334 0.18653513709213665 -0.9824482900539169 7.26406195013014e-18 6.982714862759856e-17 7.26406195013014e-18 6.982714862759856e-17 0.1865357466498426 -0.982448174318439
12630858666.666666 0.17882042350631336 -0.9838817287341354 7.81640954065011e-18 6.975366597357e-17 7.81640954065011e-18 6.975366597357e-17 0.17882103392355347 -0.9838816177906564
12631476000.0 0.17109469967156699 -0.9852545882888061 8.36804882879593e-18 6.967581843579242e-17 8.36804882879593e-18 6.967581843579242e-17 0.17109531091067476 -0.9852544821436884
12632093333.333334 0.16335844127276983 -0.986566784188875 8.918945355642654e-18 6.959361262301396e-17 8.918945355642654e-18 6.959361262301396e-17 0.1633590532960319 -0.9865666828481853
12632710666.666666 0.1556121246434237 -0.9878182356404477 9.469064722490499e-18 6.950705541575009e-17 9.469064722490499e-18 6.950705541575009e-17 0.15561273741308201 -0.9878181391099556
12633328000.0 0.1478562267362179 -0.9890088655897764 1.0018372593023742e-17 6.941615396574147e-17 1.0018372593023742e-17 6.941615396574147e-17 0.14785684021447204 -0.9890087738749541
12633945333.333334 0.14009122509380328 -0.9901386007279811 1.0566834695425496e-17 6.932091569540156e-17 1.0566834695425496e-17 6.932091569540156e-17 0.1400918392428132 -0.9901385138340056
12634562666.666666 0.1323175978194176 -0.9912073714955651 1.1114416824526895e-17 6.922134829724065e-17 1.1114416824526895e-17 6.922134829724065e-17 0.13231821260130533 -0.9912072894273143
12635180000.0 0.12453582354736283 -0.9922151120867025 1.1661084843919835e-17 6.91174597332784e-17 1.1661084843919835e-17 6.91174597332784e-17 0.1245364389242154 -0.9922150348487584
12635797333.333334 0.11674638141353602 -0.9931617604532978 1.2206804688088126e-17 6.900925823443592e-17 1.2206804688088126e-17 6.900925823443592e-17 0.11674699734740734 -0.9931616880499429
12636414666.666666 0.10894975102606813 -0.9940472583087823 1.2751542364513715e-17 6.889675229991421e-17 1.2751542364513715e-17 6.889675229991421e-17 0.10895036747898164 -0.9940471907440024
12637032000.0 0.101146412435512 -0.994871551131739 1.3295263955797125e-17 6.877995069655292e-17 1.3295263955797125e-17 6.877995069655292e-17 0.101147029369463 -0.9948714884092221
12637649333.333334 0.0933368461055677 -0.9956345881692307 1.3837935621762531e-17 6.865886245817389e-17 1.3837935621762531e-17 6.865886245817389e-17 0.0933374634825253 -0.9956345302923642
12638266666.666666 0.08552153288335734 -0.9963363224399326 1.4379523601547312e-17 6.853349688491e-17 1.4379523601547312e-17 6.853349688491e-17 0.0855221506652673 -0.9963362694118063
12638884000.0 0.07770095396984779 -0.9969767107370283 1.491999421570351e-17 6.840386354251455e-17 1.491999421570351e-17 6.840386354251455e-17 0.07770157211863463 -0.9969766625604338
12639501333.333334 0.06987559089019361 -0.9975557136308703 1.545931386828347e-17 6.826997226165571e-17 1.545931386828347e-17 6.826997226165571e-17 0.06987620936776293 -0.9975556703082995
12640118666.666666 0.06204592546425898 -0.9980732954713961 1.5997449048917656e-17 6.81318331371956e-17 1.5997449048917656e-17 6.81318331371956e-17 0.062046544232499896 -0.9980732570050418
12640736000.0 0.05421243977652588 -0.9985294243903502 1.6534366334909115e-17 6.79894565274463e-17 1.6534366334909115e-17 6.79894565274463e-17 0.05421305879731341 -0.9985293907821078
12641353333.333334 0.046375616146978896 -0.9989240723032139 1.707003239326416e-17 6.784285305342549e-17 1.707003239326416e-17 6.784285305342549e-17 0.04637623538217609 -0.9989240435546765
12641970666.666666 0.038535937100982166 -0.999257214910955 1.7604413982793422e-17 6.769203359807528e-17 1.7604413982793422e-17 6.769203359807528e-17 0.03853655651244264 -0.9992571910234175
12642588000.0 0.030693885339739938 -0.9995288317015164 1.813747795614664e-17 6.753700930548024e-17 1.813747795614664e-17 6.753700930548024e-17 0.030694504889310314 -0.9995288126759769
12643205333.333334 0.022849943710576137 -0.9997389059510844 1.8669191261871732e-17 6.737779158006226e-17 1.8669191261871732e-17 6.737779158006226e-17 0.022850563360098105 -0.999738891788238
12643822666.666666 0.015004595177119157 -0.9998874247251138 1.9199520946453183e-17 6.721439208576112e-17 1.9199520946453183e-17 6.721439208576112e-17 0.015005214888432018 -0.9998874154253568
12644440000.0 0.007158322789593556 -0.9999743788791238 1.9728434156345864e-17 6.704682274520052e-17 1.9728434156345864e-17 6.704682274520052e-17 0.007158942524536575 -0.9999743744425544
12645057333.333334 -0.0006883903447799271 -0.9999997630592625 2.0255898140001482e-17 6.687509573883698e-17 2.0255898140001482e-17 6.687509573883698e-17 -0.000687770624365236 -0.9999997634856801
12645674666.666666 -0.00853506109164377 -0.9999635757026405 2.0781880249897437e-17 6.669922350409035e-17 2.0781880249897437e-17 6.669922350409035e-17 -0.008534441423911274 -0.9999635809915426
12646292000.0 -0.016381206319421523 -0.9998658190374197 2.1306347944552523e-17 6.651921873446002e-17 2.1306347944552523e-17 6.651921873446002e-17 -0.016380586742518116 -0.9998658291880059
12646909333.333334 -0.024226342928667058 -0.9997064990826818 2.1829268790516445e-17 6.633509437863183e-17 2.1829268790516445e-17 6.633509437863183e-17 -0.024225723480730318 -0.9997065140938534
12647526666.666666 -0.032069987882207635 -0.9994856256480545 2.2350610464385535e-17 6.614686363955752e-17 2.2350610464385535e-17 6.614686363955752e-17 -0.032069368601363515 -0.9994856455184128
12648144000.0 -0.039911658234686384 -0.9992032123331097 2.2870340754792138e-17 6.595453997352573e-17 2.2870340754792138e-17 6.595453997352573e-17 -0.03991103915904675 -0.9992032370609558
12648761333.333334 -0.04775087116229786 -0.9988592765265234 2.3388427564378392e-17 6.575813708921886e-17 2.3388427564378392e-17 6.575813708921886e-17 -0.04775025232995827 -0.998859306109861
12649378666.666666 -0.055587143992488014 -0.998453839405011 2.3904838911779282e-17 6.555766894674986e-17 2.3904838911779282e-17 6.555766894674986e-17 -0.0555865254415253 -0.9984538738415444
12649996000.0 -0.06341999423381497 -0.9979869259320144 2.441954293358791e-17 6.535314975668572e-17 2.441954293358791e-17 6.535314975668572e-17 -0.06341937600228499 -0.9979869652191502
12650613333.333334 -0.07124893960554322 -0.9974585648561717 2.4932507886316495e-17 6.514459397905467e-17 2.4932507886316495e-17 6.514459397905467e-17 -0.07124832173147849 -0.9974586089910182
12651230666.666666 -0.07907349806733867 -0.996868788709549 2.5443702148336217e-17 6.49320163223436e-17 2.5443702148336217e-17 6.49320163223436e-17 -0.07907288058874574 -0.9968688376889142
12651848000.0 -0.08689318784906144 -0.9962176338056236 2.595309422184524e-17 6.471543174246467e-17 2.595309422184524e-17 6.471543174246467e-17 -0.08689257080391909 -0.9962176876260199
12652465333.333334 -0.09470752748028809 -0.995505140237065 2.6460652734775032e-17 6.449485544172889e-17 2.6460652734775032e-17 6.449485544172889e-17 -0.09470691090654454 -0.9955051988947061
12653082666.666666 -0.10251603581992785 -0.994731351873266 2.6966346442722878e-17 6.427030286779028e-17 2.6966346442722878e-17 6.427030286779028e-17 -0.10251541975549866 -0.9947314153640685
12653700000.0 -0.11031823208610213 -0.9938963163576194 2.747014423088469e-17 6.404178971257097e-17 2.747014423088469e-17 6.404178971257097e-17 -0.11031761656886778 -0.9938963846772023
12654317333.333334 -0.11811363588546403 -0.993000085104611 2.797201511593516e-17 6.380933191119007e-17 2.797201511593516e-17 6.380933191119007e-17 -0.11811302095326756 -0.9930001582482965
12654934666.666666 -0.12590176724289004 -0.9920427132966432 2.847192824795172e-17 6.357294564085497e-17 2.847192824795172e-17 6.357294564085497e-17 -0.12590115293353488 -0.9920427912594574
12655552000.0 -0.13368214663114567 -0.991024259880623 2.896985291229282e-17 6.333264731975328e-17 2.896985291229282e-17 6.333264731975328e-17 -0.13368153298239327 -0.9910243426572961
12656169333.333334 -0.14145429500012893 -0.9899447875643703 2.94657585314692e-17 6.308845360593001e-17 2.94657585314692e-17 6.308845360593001e-17 -0.1414536820496961 -0.9899448751493352
12656786666.666666 -0.1492177338066472 -0.9888043628127139 2.995961466703065e-17 6.2840381396138e-17 2.995961466703065e-17 6.2840381396138e-17 -0.14921712159220454 -0.9888044552001102
12657404000.0 -0.15697198504371446 -0.9876030558434321 3.045139102141665e-17 6.258844782468676e-17 3.045139102141665e-17 6.258844782468676e-17 -0.15697137360288305 -0.9876031530271018
12658021333.333334 -0.1647165712701498 -0.9863409406228937 3.094105743981855e-17 6.233267026226595e-17 3.094105743981855e-17 6.233267026226595e-17 -0.1647159606404998 -0.9863410425963862
12658638666.666666 -0.17245101563966656 -0.9850180948615598 3.142858391200216e-17 6.207306631476994e-17 3.142858391200216e-17 6.207306631476994e-17 -0.17245040585871443 -0.9850182016181293
12659256000.0 -0.1801748419306248 -0.9836346000091306 3.1913940574164475e-17 6.18096538220854e-17 3.1913940574164475e-17 6.18096538220854e-17 -0.18017423303583124 -0.9836347115417386
12659873333.333334 -0.18788757457507294 -0.9821905412495816 3.239709771073661e-17 6.154245085688739e-17 3.239709771073661e-17 6.154245085688739e-17 -0.18788696660383997 -0.9821906575508936
12660490666.666666 -0.19558873868802867 -0.9806860074959136 3.287802575620303e-17 6.127147572340765e-17 3.287802575620303e-17 6.127147572340765e-17 -0.19558813167769828 -0.980686128558305
12661108000.0 -0.20327786009697105 -0.9791210913846379 3.3356695296910437e-17 6.099674695618834e-17 3.3356695296910437e-17 6.099674695618834e-17 -0.2032772540848223 -0.9791212172001907
12661725333.333334 -0.21095446537075574 -0.9774958892701222 3.3833077072842217e-17 6.071828331883548e-17 3.3833077072842217e-17 6.071828331883548e-17 -0.21095386039400252 -0.9774960198306264
12662342666.666666 -0.2186180818489049 -0.9758105012186306 3.430714197941723e-17 6.043610380273917e-17 3.430714197941723e-17 6.043610380273917e-17 -0.21861747794469374 -0.9758106365155848
12662960000.0 -0.2262682376706813 -0.9740650310021669 3.477886106925029e-17 6.01502276257955e-17 3.477886106925029e-17 6.01502276257955e-17 -0.22626763487608922 -0.9740651710267799
12663577333.333334 -0.23390446180414237 -0.9722595860920901 3.524820555392108e-17 5.986067423110356e-17 3.524820555392108e-17 5.986067423110356e-17 -0.2339038601561743 -0.9722597308352792
12664194666.666666 -0.24152628407511417 -0.9703942776524993 3.5715146805713745e-17 5.956746328566048e-17 3.5715146805713745e-17 5.956746328566048e-17 -0.24152568361070084 -0.9703944271048928
12664812000.0 -0.24913323519625077 -0.9684692205333624 3.617965635936229e-17 5.927061467903198e-17 3.617965635936229e-17 5.927061467903198e-17 -0.2491326359522464 -0.9684693746852989
12665429333.333334 -0.2567248467957916 -0.9664845332634796 3.664170591377709e-17 5.897014852201518e-17 3.664170591377709e-17 5.897014852201518e-17 -0.256724248808972 -0.9664846921050111
12666046666.666666 -0.26430065144637255 -0.9644403380431945 3.7101267333760113e-17 5.866608514528776e-17 3.7101267333760113e-17 5.866608514528776e-17 -0.2643000547534323 -0.964440501564084
12666664000.0 -0.27186018269408085 -0.962336760736796 3.7558312651719093e-17 5.835844509803745e-17 3.7558312651719093e-17 5.835844509803745e-17 -0.2718595873316313 -0.9623369289265191
12667281333.333334 -0.27940297508676337 -0.9601739308648792 3.801281406934555e-17 5.804724914659424e-17 3.801281406934555e-17 5.804724914659424e-17 -0.27940238109133037 -0.9601741037126257
12667898666.666666 -0.2869285642030698 -0.9579519815962668 3.846474395931324e-17 5.773251827302956e-17 3.846474395931324e-17 5.773251827302956e-17 -0.28692797161109135 -0.95795215909094
12668516000.0 -0.2944364866808815 -0.9556710497398507 3.891407486694802e-17 5.741427367375213e-17 3.891407486694802e-17 5.741427367375213e-17 -0.29443589552870597 -0.9556712318700703
12669133333.333334 -0.3019262802457074 -0.9533312757362149 3.936077951188056e-17 5.709253675809682e-17 3.936077951188056e-17 5.709253675809682e-17 -0.3019256905695911 -0.953331462490316
12669750666.666666 -0.30939748373939147 -0.9509328036489132 3.9804830789701215e-17 5.676732914688914e-17 3.9804830789701215e-17 5.676732914688914e-17 -0.30939689557549555 -0.9509329950149457
12670368000.0 -0.3168496371483697 -0.9484757811556365 4.0246201773597435e-17 5.643867267100264e-17 4.0246201773597435e-17 5.643867267100264e-17 -0.31684905053275975 -0.9484759771213702
