! Parameters = {f0=12700.012000; bw=77.238000; Q=6100.000000; N=10; m_0_1=1.159454; m_1_1=-1.372929; m_1_2=0.994266; m_2_2=-1.373578; m_2_3=0.631229; m_2_8=-0.004964; m_2_9=0.031740; m_3_3=-1.375515; m_3_4=0.519758; m_3_7=-0.004364; m_3_8=-0.101452; m_3_9=-0.004964; m_4_4=-1.378440; m_4_5=0.356093; m_4_6=-0.000847; m_4_7=-0.122001; m_4_8=-0.004364; m_5_5=-1.378058; m_5_6=0.763448; m_5_7=-0.000847; m_6_6=-1.378059; m_6_7=0.356435; m_7_7=-1.378426; m_7_8=0.519876; m_8_8=-1.375517; m_8_9=0.631542; m_9_9=-1.373583; m_9_10=0.995344; m_10_10=-1.372939; m_10_11=1.160249}
!
! Created with skrf (http://scikit-rf.org).
# Hz S RI R 50.0 
!freq ReS11 ImS11 ReS21 ImS21 ReS12 ImS12 ReS22 ImS22
12607400000.0 0.006427354982992386 -0.9999793443405599 1.7692539599398806e-17 6.116322909141267e-17 1.7692539599398806e-17 6.116322909141267e-17 0.006427966025898747 -0.9999793404129018
12608017333.333334 -0.0008275307173618975 -0.9999996575963236 1.8137664266136722e-17 6.101969854443272e-17 1.8137664266136722e-17 6.101969854443272e-17 -0.000826919691967933 -0.9999996581017792
12608634666.666666 -0.008082372859510549 -0.9999673370909736 1.8581636099699058e-17 6.087293241082871e-17 1.8581636099699058e-17 6.087293241082871e-17 -0.008081761883786266 -0.9999673420290814
12609252000.0 -0.015336789593695202 -0.9998823845257059 1.9024431609422725e-17 6.072293987293359e-17 1.9024431609422725e-17 6.072293987293359e-17 -0.015336178699792133 -0.9998823938957724
12609869333.333334 -0.022590399092577318 -0.9997448043719412 1.9466027377268406e-17 6.05697302834112e-17 1.9466027377268406e-17 6.05697302834112e-17 -0.022589788312639515 -0.9997448181730387
12610486666.666666 -0.029842819571193082 -0.9995546038710912 1.9906400059034933e-17 6.0413313164691e-17 1.9906400059034933e-17 6.0413313164691e-17 -0.029842208937355477 -0.9995546221020597
12611104000.0 -0.03709366930733237 -0.9993117930341714 2.034552638561424e-17 6.025369820838025e-17 2.034552638561424e-17 6.025369820838025e-17 -0.037093058851719055 -0.9993118156936177
12611721333.333334 -0.04434256666134608 -0.9990163846412812 2.078338316419019e-17 6.009089527468415e-17 2.078338316419019e-17 6.009089527468415e-17 -0.04434195641606861 -0.9990164117275792
12612338666.666666 -0.05158913009634696 -0.9986683942409288 2.121994727947562e-17 5.992491439180244e-17 2.121994727947562e-17 5.992491439180244e-17 -0.051588520093502656 -0.9986684257522185
12612956000.0 -0.058832978198404766 -0.9982678401492051 2.165519569492584e-17 5.975576575532367e-17 2.165519569492584e-17 5.975576575532367e-17 -0.05883236847007512 -0.9982678760833957
12613573333.333334 -0.0660737296963378 -0.9978147434488367 2.2089105453940908e-17 5.958345972761363e-17 2.2089105453940908e-17 5.958345972761363e-17 -0.06607312027458667 -0.9978147838036038
12614190666.666666 -0.0733110034820645 -0.9973091279880604 2.2521653681078007e-17 5.940800683718875e-17 2.2521653681078007e-17 5.940800683718875e-17 -0.07331039439893644 -0.9973091727608472
12614808000.0 -0.08054441863052048 -0.9967510203793745 2.2952817583250833e-17 5.922941777808447e-17 2.2952817583250833e-17 5.922941777808447e-17 -0.0805438099180391 -0.9967510695673916
12615425333.333334 -0.08777359441970829 -0.9961404499981397 2.3382574450925636e-17 5.904770340921418e-17 2.3382574450925636e-17 5.904770340921418e-17 -0.08777298610987468 -0.9961405035983673
12616042666.666666 -0.09499815035084969 -0.9954774489810254 2.381090165931061e-17 5.886287475372007e-17 2.381090165931061e-17 5.886287475372007e-17 -0.09499754247564036 -0.9954775069902089
12616660000.0 -0.10221770616824233 -0.9947620522243279 2.423777666954862e-17 5.867494299831214e-17 2.423777666954862e-17 5.867494299831214e-17 -0.102217098759608 -0.994762114638983
12617277333.333334 -0.10943188187941587 -0.9939942973821235 2.4663177029889746e-17 5.848391949260444e-17 2.4663177029889746e-17 5.848391949260444e-17 -0.10943127496927964 -0.9939943641985354
12617894666.666666 -0.11664029777496328 -0.9931742248643091 2.508708037686562e-17 5.8289815748441e-17 2.508708037686562e-17 5.8289815748441e-17 -0.11663969139521858 -0.9931742960785285
12618512000.0 -0.12384257444883615 -0.9923018778344308 2.5509464436476388e-17 5.809264343920423e-17 2.5509464436476388e-17 5.809264343920423e-17 -0.12384196863134563 -0.99230195344228
12619129333.333334 -0.1310383328178915 -0.9913773022074702 2.593030702533138e-17 5.78924143991339e-17 2.593030702533138e-17 5.78924143991339e-17 -0.13103772759448507 -0.99137738220454
12619746666.666666 -0.13822719414226725 -0.9904005466473703 2.6349586051832048e-17 5.768914062261589e-17 2.6349586051832048e-17 5.768914062261589e-17 -0.13822658954474037 -0.9904006310290204
12620364000.0 -0.14540878004500682 -0.9893716625645173 2.676727951731663e-17 5.748283426347751e-17 2.676727951731663e-17 5.748283426347751e-17 -0.1454081761051189 -0.989371751325878
12620981333.333334 -0.15258271253211497 -0.9882907041130133 2.7183365517201242e-17 5.727350763427428e-17 2.7183365517201242e-17 5.727350763427428e-17 -0.15258210928158794 -0.988290797248985
12621598666.666666 -0.15974861401242557 -0.9871577281878329 2.759782224213809e-17 5.706117320555713e-17 2.759782224213809e-17 5.706117320555713e-17 -0.1597480114829416 -0.9871578256930846
12622216000.0 -0.16690610731747496 -0.9859727944218246 2.8010627979145254e-17 5.684584360514241e-17 2.8010627979145254e-17 5.684584360514241e-17 -0.16690550554067543 -0.9859728962907978
12622833333.333334 -0.1740548157213543 -0.984735965182576 2.8421761112740845e-17 5.662753161736918e-17 2.8421761112740845e-17 5.662753161736918e-17 -0.1740542147288379 -0.9847360714094824
12623450666.666666 -0.18119436296053773 -0.9834473055691286 2.88312001260696e-17 5.640625018234897e-17 2.88312001260696e-17 5.640625018234897e-17 -0.1811937627838586 -0.9834474161479507
12624068000.0 -0.18832437325365878 -0.9821068834085581 2.9238923602022215e-17 5.618201239520829e-17 2.9238923602022215e-17 5.618201239520829e-17 -0.18832377392432503 -0.9821069983330498
12624685333.333334 -0.19544447132142845 -0.9807147692523758 2.96449102243585e-17 5.595483150531806e-17 2.96449102243585e-17 5.595483150531806e-17 -0.19544387287090081 -0.9807148885160643
12625302666.666666 -0.20255428240608142 -0.9792710363728785 3.004913877879905e-17 5.572472091552868e-17 3.004913877879905e-17 5.572472091552868e-17 -0.2025536848657709 -0.9792711599690616
12625920000.0 -0.20965343229151798 -0.9777757607592035 3.0451588154150794e-17 5.549169418137559e-17 3.0451588154150794e-17 5.549169418137559e-17 -0.20965283569278503 -0.977775888680953
12626537333.333334 -0.21674154732258394 -0.97622902111342 3.085223734338854e-17 5.5255765010297786e-17 3.085223734338854e-17 5.5255765010297786e-17 -0.21674095169673602 -0.9762291533535796
12627154666.666666 -0.22381825442504238 -0.9746308988463172 3.1251065444746394e-17 5.5016947260839856e-17 3.1251065444746394e-17 5.5016947260839856e-17 -0.22381765980333293 -0.9746310353975051
12627772000.0 -0.23088318112507203 -0.9729814780731543 3.164805166281833e-17 5.4775254941836685e-17 3.164805166281833e-17 5.4775254941836685e-17 -0.2308825875386985 -0.9729816189277618
12628389333.333334 -0.23793595556887145 -0.9712808456092299 3.204317530961416e-17 5.45307022116138e-17 3.204317530961416e-17 5.45307022116138e-17 -0.23793536304897375 -0.971280990759423
12629006666.666666 -0.24497620654234176 -0.9695290909652877 3.2436415805655466e-17 5.4283303377151895e-17 3.2436415805655466e-17 5.4283303377151895e-17 -0.24497561512000057 -0.9695292404030065
12629624000.0 -0.2520035634904592 -0.9677263063428438 3.282775268102368e-17 5.4033072893268825e-17 3.282775268102368e-17 5.4033072893268825e-17 -0.2520029731966945 -0.9677264600598042
12630241333.333334 -0.2590176565369169 -0.9658725866293009 3.3217165576435707e-17 5.378002536177352e-17 3.3217165576435707e-17 5.378002536177352e-17 -0.2590170674026863 -0.9658727446169943
12630858666.666666 -0.2660181165034284 -0.9639680293929993 3.360463424427944e-17 5.352417553063291e-17 3.360463424427944e-17 5.352417553063291e-17 -0.2660175285596251 -0.9639681916426922
12631476000.0 -0.2730045749294321 -0.9620127348780019 3.399013854968414e-17 5.326553829310578e-17 3.399013854968414e-17 5.326553829310578e-17 -0.2730039882068843 -0.9620129013807396
12632093333.333334 -0.2799766640912396 -0.9600068059988923 3.437365847153845e-17 5.3004128686897655e-17 3.437365847153845e-17 5.3004128686897655e-17 -0.2799760786207075 -0.9600069767454946
12632710666.666666 -0.28693401702138865 -0.9579503483353519 3.475517410354024e-17 5.2739961893284504e-17 3.475517410354024e-17 5.2739961893284504e-17 -0.28693343283356426 -0.9579505233164185
12633328000.0 -0.29387626752820645 -0.9558434701265394 3.513466565522262e-17 5.247305323623909e-17 3.513466565522262e-17 5.247305323623909e-17 -0.2938756846537102 -0.9558436493324451
12633945333.333334 -0.30080305021480713 -0.9536862822654638 3.551211345296784e-17 5.220341818155453e-17 3.551211345296784e-17 5.220341818155453e-17 -0.30080246868418864 -0.9536864656863653
12634562666.666666 -0.30771400049846415 -0.9514788982931175 3.588749794102775e-17 5.193107233595153e-17 3.588749794102775e-17 5.193107233595153e-17 -0.30771342034219856 -0.9514790859189489
12635180000.0 -0.3146087546297701 -0.949221434392502 3.6260799682529973e-17 5.1656031446182925e-17 3.6260799682529973e-17 5.1656031446182925e-17 -0.3146081758782574 -0.9492216262129771
12635797333.333334 -0.3214869497117824 -0.946914009382513 3.663199936047906e-17 5.1378311398130777e-17 3.663199936047906e-17 5.1378311398130777e-17 -0.321486372395346 -0.9469142053871273
12636414666.666666 -0.32834822371912536 -0.9445567447116919 3.7001077778750405e-17 5.1097928215895485e-17 3.7001077778750405e-17 5.1097928215895485e-17 -0.3283476478680093 -0.9445569448897186
12637032000.0 -0.33519221551704287 -0.9421497644518257 3.7368015863077535e-17 5.0814898060878495e-17 3.7368015863077535e-17 5.0814898060878495e-17 -0.3351916411614117 -0.9421499687923216
12637649333.333334 -0.3420185648804074 -0.9396931952914213 3.7732794662032385e-17 5.0529237230857546e-17 3.7732794662032385e-17 5.0529237230857546e-17 -0.34201799205034417 -0.9396934037832254
12638266666.666666 -0.3488269125126802 -0.9371871665290368 3.8095395347998626e-17 5.0240962159055337e-17 3.8095395347998626e-17 5.0240962159055337e-17 -0.3488263412381849 -0.937187379160771
12638884000.0 -0.35561690006482255 -0.9346318100664774 3.8455799218137707e-17 4.995008941320063e-17 3.8455799218137707e-17 4.995008941320063e-17 -0.35561633037580975 -0.9346320268265456
12639501333.333334 -0.362388170154156 -0.9320272604018494 3.8813987695348134e-17 4.965663569458317e-17 3.8813987695348134e-17 4.965663569458317e-17 -0.3623876020804542 -0.9320274812784394
12640118666.666666 -0.3691403663831472 -0.9293736546224936 3.916994232921458e-17 4.936061783710364e-17 3.916994232921458e-17 4.936061783710364e-17 -0.36913979995449714 -0.929373879603579
12640736000.0 -0.3758731333582981 -0.9266711323977179 3.952364479696647e-17 4.906205280630315e-17 3.952364479696647e-17 4.906205280630315e-17 -0.37587256860435087 -0.9266713614710563
12641353333.333334 -0.38258611670858844 -0.9239198359715506 3.9875076904387983e-17 4.87609576984206e-17 3.9875076904387983e-17 4.87609576984206e-17 -0.38258555365890373 -0.9239200691246853
12641970666.666666 -0.38927896310438964 -0.9211199101551464 4.022422058677574e-17 4.8457349739397254e-17 4.022422058677574e-17 4.8457349739397254e-17 -0.3892784017884356 -0.9211201473754087
12642588000.0 -0.39595132027593294 -0.9182715023192215 4.0571057909846643e-17 4.8151246283910395e-17 4.0571057909846643e-17 4.8151246283910395e-17 -0.39595076072308255 -0.9182717435937284
12643205333.333334 -0.40260283703184796 -0.9153747623862927 4.091557107066023e-17 4.7842664814382144e-17 4.091557107066023e-17 4.7842664814382144e-17 -0.40260227927137887 -0.9153750077019496
12643822666.666666 -0.4092331632777531 -0.9124298428227441 4.125774239852391e-17 4.753162293998954e-17 4.125774239852391e-17 4.753162293998954e-17 -0.4092326073388462 -0.9124300921662455
12644440000.0 -0.41584195003452623 -0.9094368986308705 4.1597554355892245e-17 4.721813839566736e-17 4.1597554355892245e-17 4.721813839566736e-17 -0.4158413959462632 -0.9094371519886993
12645057333.333334 -0.42242884945680176 -0.9063960873406596 4.193498953926019e-17 4.690222904110337e-17 4.193498953926019e-17 4.690222904110337e-17 -0.42242829724816405 -0.9063963446990894
12645674666.666666 -0.42899351485112464 -0.9033075690015736 4.227003068004845e-17 4.658391285972706e-17 4.227003068004845e-17 4.658391285972706e-17 -0.42899296455099195 -0.9033078303466678
12646292000.0 -0.4355356006944812 -0.9001715061739916 4.260266064548928e-17 4.626320795768492e-17 4.260266064548928e-17 4.626320795768492e-17 -0.4355350523316304 -0.9001717714916069
12646909333.333334 -0.44205476265212545 -0.8969880639208228 4.2932862439484943e-17 4.5940132562827725e-17 4.2932862439484943e-17 4.5940132562827725e-17 -0.4420542162552288 -0.896988333196608
12647526666.666666 -0.448550657595961 -0.8937574097987019 4.3260619203475476e-17 4.561470502367593e-17 4.3260619203475476e-17 4.561470502367593e-17 -0.44855011319358334 -0.893757683018097
12648144000.0 -0.4550229436225464 -0.890479713849185 4.358591421729723e-17 4.52869438083798e-17 4.358591421729723e-17 4.52869438083798e-17 -0.4550224012431459 -0.8904799909974256
12648761333.333334 -0.4614712800710934 -0.887155148589806 4.390873090002347e-17 4.495686750368383e-17 4.390873090002347e-17 4.495686750368383e-17 -0.4614707397430181 -0.8871554296519211
12649378666.666666 -0.46789532754124347 -0.8837838890050705 4.4229052810802394e-17 4.462449481388008e-17 4.4229052810802394e-17 4.462449481388008e-17 -0.4678947892927318 -0.8837841739658862
12649996000.0 -0.4742947479111612 -0.880366112537132 4.454686364969973e-17 4.428984455974298e-17 4.454686364969973e-17 4.428984455974298e-17 -0.47429421177033865 -0.8803664013812694
12650613333.333334 -0.48066920435522864 -0.8769019990765022 4.4862147258510657e-17 4.3952935677480845e-17 4.4862147258510657e-17 4.3952935677480845e-17 -0.4806686703501072 -0.87690229178838
12651230666.666666 -0.48701836136167403 -0.8733917309526374 4.5174887621575475e-17 4.361378721767053e-17 4.5174887621575475e-17 4.361378721767053e-17 -0.48701782952015055 -0.8733920275164726
12651848000.0 -0.49334188475045604 -0.869835492924221 4.548506886659792e-17 4.327241834417447e-17 4.548506886659792e-17 4.327241834417447e-17 -0.49334135510031074 -0.8698357933240288
12652465333.333334 -0.499639441690727 -0.8662334721695035 4.57926752654323e-17 4.292884833307663e-17 4.57926752654323e-17 4.292884833307663e-17 -0.4996389142596219 -0.8662337763890988
12653082666.666666 -0.5059107007182038 -0.862585858276537 4.609769123487996e-17 4.258309657159502e-17 4.609769123487996e-17 4.258309657159502e-17 -0.5059101755336824 -0.8625861662995369
12653700000.0 -0.5121553317529606 -0.8588928432330019 4.6400101337476736e-17 4.223518255698766e-17 4.6400101337476736e-17 4.223518255698766e-17 -0.5121548088424439 -0.8588931550428222
12654317333.333334 -0.5183730061164298 -0.8551546214163089 4.669989028225646e-17 4.188512589547274e-17 4.669989028225646e-17 4.188512589547274e-17 -0.5183724855072178 -0.8551549369961695
12654934666.666666 -0.5245633965489513 -0.8513713895832314 4.6997042925528504e-17 4.153294630111744e-17 4.6997042925528504e-17 4.153294630111744e-17 -0.5245628782682197 -0.8513717089161552
12655552000.0 -0.5307261772269695 -0.8475433468595585 4.729154427163588e-17 4.1178663594733055e-17 4.729154427163588e-17 4.1178663594733055e-17 -0.5307256613017688 -0.8475436699283724
12656169333.333334 -0.5368610237800623 -0.8436706947296905 4.758337947369444e-17 4.082229770277912e-17 4.758337947369444e-17 4.082229770277912e-17 -0.5368605102373161 -0.843671021517026
12656786666.666666 -0.5429676133081096 -0.8397536370259725 4.787253383435086e-17 4.046386865622923e-17 4.787253383435086e-17 4.046386865622923e-17 -0.5429671021746143 -0.8397539675142685
12657404000.0 -0.5490456243982683 -0.8357923799179854 4.8158992806503664e-17 4.01033965894657e-17 4.8158992806503664e-17 4.01033965894657e-17 -0.54904511570069 -0.8357927140894863
12658021333.333334 -0.555094737141908 -0.831787131901673 4.844274199403529e-17 3.974090173914593e-17 4.844274199403529e-17 3.974090173914593e-17 -0.5550942309067826 -0.8317874697384312
12658638666.666666 -0.5611146331513343 -0.8277381037884495 4.87237671525225e-17 3.93764044430805e-17 4.87237671525225e-17 3.93764044430805e-17 -0.5611141294050651 -0.827738445272327
12659256000.0 -0.5671049955767824 -0.823645508693948 4.900205418995565e-17 3.900992513908352e-17 4.900205418995565e-17 3.900992513908352e-17 -0.5671044943456396 -0.8236458538066163
12659873333.333334 -0.5730655091228574 -0.8195095620269576 4.9277589167427615e-17 3.864148436384624e-17 4.9277589167427615e-17 3.864148436384624e-17 -0.5730650104329758 -0.8195099107498985
12660490666.666666 -0.5789958600652231 -0.8153304814780237 4.9550358299829914e-17 3.827110275178644e-17 4.9550358299829914e-17 3.827110275178644e-17 -0.5789953639426024 -0.815330833792533
12661108000.0 -0.5848957362672114 -0.8111084870079284 4.9820347956539377e-17 3.789880103389215e-17 4.9820347956539377e-17 3.789880103389215e-17 -0.5848952427377118 -0.8111088428951115
12661725333.333334 -0.5907648271960132 -0.8068438008362705 5.008754466208205e-17 3.752460003658139e-17 5.008754466208205e-17 3.752460003658139e-17 -0.5907643362853573 -0.8068441602770487
12662342666.666666 -0.5966028239392586 -0.8025366474296082 5.035193509680943e-17 3.7148520680528275e-17 5.035193509680943e-17 3.7148520680528275e-17 -0.5966023356730283 -0.8025370104047177
12662960000.0 -0.6024094192211605 -0.7981872534897295 5.0613506097549045e-17 3.6770583979507306e-17 5.0613506097549045e-17 3.6770583979507306e-17 -0.6024089336247954 -0.7981876199797208
12663577333.333334 -0.6081843074187087 -0.7937958479416982 5.0872244658258194e-17 3.639081103921766e-17 5.0872244658258194e-17 3.639081103921766e-17 -0.6081838245175061 -0.79379621792694
12664194666.666666 -0.6139271845777344 -0.789362661921826 5.1128137930656974e-17 3.6009223056118327e-17 5.1128137930656974e-17 3.6009223056118327e-17 -0.6139267043968472 -0.7893630353825043
12664812000.0 -0.6196377484289987 -0.7848879287654349 5.1381173224863567e-17 3.562584131624491e-17 5.1381173224863567e-17 3.562584131624491e-17 -0.6196372709934344 -0.7848883056815559
12665429333.333334 -0.62531569840399 -0.7803718839946657 5.1631338010016096e-17 3.524068719402742e-17 5.1631338010016096e-17 3.524068719402742e-17 -0.6253152237386086 -0.7803722643460544
12666046666.666666 -0.6309607356507214 -0.7758147653060967 5.1878619914881046e-17 3.4853782151111374e-17 5.1878619914881046e-17 3.4853782151111374e-17 -0.6309602637802353 -0.7758151490724002
12666664000.0 -0.6365725630496837 -0.7712168125580585 5.2123006728467445e-17 3.446514773515248e-17 5.2123006728467445e-17 3.446514773515248e-17 -0.6365720939986547 -0.7712171997187447
12667281333.333334 -0.6421508852291711 -0.7665782677582547 5.2364486400612684e-17 3.40748055786366e-17 5.2364486400612684e-17 3.40748055786366e-17 -0.642150419022012 -0.7665786582926171
12667898666.666666 -0.6476954085810532 -0.7618993750508505 5.26030470425731e-17 3.3682777397675156e-17 5.26030470425731e-17 3.3682777397675156e-17 -0.6476949452420235 -0.7618997689380057
12668516000.0 -0.6532058412762024 -0.7571803807036359 5.283867692760536e-17 3.3289084990796014e-17 5.283867692760536e-17 3.3289084990796014e-17 -0.6532053808294086 -0.7571807779225259
12669133333.333334 -0.6586818932797458 -0.7524215330951551 5.307136449152596e-17 3.2893750237751885e-17 5.307136449152596e-17 3.2893750237751885e-17 -0.6586814357491397 -0.7524219336245496
12669750666.666666 -0.664123276366419 -0.747623082701563 5.330109833327939e-17 3.249679509829586e-17 5.330109833327939e-17 3.249679509829586e-17 -0.6641228217757967 -0.7476234865200582
12670368000.0 -0.669529704135734 -0.7427852820834371 5.3527867215488914e-17 3.2098241610966865e-17 5.3527867215488914e-17 3.2098241610966865e-17 -0.669529252508735 -0.7427856891694598
