! Parameters = {f0=12700.012000; bw=77.238000; Q=6100.000000; N=10; m_0_1=1.300596; m_1_1=0.744188; m_1_2=1.135408; m_2_2=0.743539; m_2_3=0.772371; m_2_8=0.002093; m_2_9=0.038797; m_3_3=0.741602; m_3_4=0.660900; m_3_7=0.002693; m_3_8=-0.094395; m_3_9=0.002093; m_4_4=0.738677; m_4_5=0.497235; m_4_6=0.006210; m_4_7=-0.114944; m_4_8=0.002693; m_5_5=0.739059; m_5_6=0.904590; m_5_7=0.006210; m_6_6=0.739058; m_6_7=0.497577; m_7_7=0.738691; m_7_8=0.661018; m_8_8=0.741600; m_8_9=0.772684; m_9_9=0.743534; m_9_10=1.136486; m_10_10=0.744178; m_10_11=1.301391}
!
! Created with skrf (http://scikit-rf.org).
# Hz S RI R 50.0 
!freq ReS11 ImS11 ReS21 ImS21 ReS12 ImS12 ReS22 ImS22
12607400000.0 0.42516044826854227 0.9051179996154682 -8.474984739757368e-17 -9.524650261209857e-17 -8.474984739757368e-17 -9.524650261209857e-17 0.42515982810512604 0.9051182909241388
12608017333.333334 0.4354756390627918 0.9002005153201528 -8.582426470221395e-17 -9.424576054549044e-17 -8.582426470221395e-17 -9.424576054549044e-17 0.435475022298902 0.900200813681917
12608634666.666666 0.44573396334978005 0.8951654785101533 -8.688687906659711e-17 -9.323291125570422e-17 -8.688687906659711e-17 -9.323291125570422e-17 0.4457333500656205 0.8951657838853615
12609252000.0 0.4559340815481915 0.8900135466848933 -8.793755420661683e-17 -9.220809379092551e-17 -8.793755420661683e-17 -9.220809379092551e-17 0.4559334718235025 0.8900138590329826
12609869333.333334 0.46607466167756706 0.8847453926084929 -8.897615547448776e-17 -9.117144873167617e-17 -8.897615547448776e-17 -9.117144873167617e-17 0.4660740555916178 0.8847457118879962
12610486666.666666 0.4761543795321176 0.8793617042219887 -9.000254987594148e-17 -9.01231181715909e-17 -9.000254987594148e-17 -9.01231181715909e-17 0.47615377716369284 0.8793620303905348
12611104000.0 0.4861719188539186 0.8738631845533459 -9.101660608723763e-17 -8.906324569796009e-17 -9.101660608723763e-17 -8.906324569796009e-17 0.48617132028131105 0.8738635175676703
12611721333.333334 0.496125971504445 0.8682505516258469 -9.201819447188308e-17 -8.799197637214636e-17 -9.201819447188308e-17 -8.799197637214636e-17 0.4961253768054436 0.868250891441795
12612338666.666666 0.5060152376356426 0.8625245383641901 -9.300718709717948e-17 -8.690945670975412e-17 -9.300718709717948e-17 -8.690945670975412e-17 0.5060146468875236 0.8625248849367246
12612956000.0 0.5158384258596689 0.8566858924987816 -9.398345775052769e-17 -8.581583466062413e-17 -9.398345775052769e-17 -8.581583466062413e-17 0.5158378391391842 0.8566862457819854
12613573333.333334 0.5255942534173057 0.8507353764682174 -9.494688195543639e-17 -8.471125958871173e-17 -9.494688195543639e-17 -8.471125958871173e-17 0.5255936708006743 0.8507357364153029
12614190666.666666 0.5352814463457146 0.8446737673195817 -9.589733698740333e-17 -8.359588225167002e-17 -9.589733698740333e-17 -8.359588225167002e-17 0.5352808679086121 0.8446741338828948
12614808000.0 0.544898739644675 0.8385018566070445 -9.683470188945794e-17 -8.246985478036027e-17 -9.683470188945794e-17 -8.246985478036027e-17 0.5448981654622231 0.8385022297380726
12615425333.333334 0.5544448774417962 0.8322204502884843 -9.775885748752019e-17 -8.133333065813263e-17 -9.775885748752019e-17 -8.133333065813263e-17 0.5544443075885548 0.8322208299378616
12616042666.666666 0.5639186131565184 0.8258303686202427 -9.866968640549794e-17 -8.01864646999522e-17 -9.866968640549794e-17 -8.01864646999522e-17 0.5639180477064742 0.8258307547377575
12616660000.0 0.5733187096628942 0.8193324460500085 -9.956707308014311e-17 -7.902941303135483e-17 -9.956707308014311e-17 -7.902941303135483e-17 0.5733181486894524 0.8193328385846097
12617277333.333334 0.5826439394511644 0.8127275311078395 -1.0045090377566433e-16 -7.786233306723477e-17 -1.0045090377566433e-16 -7.786233306723477e-17 0.5826433830271379 0.8127279300076425
12617894666.666666 0.5918930847879339 0.8060164862954345 -1.0132106659807795e-16 -7.668538349048671e-17 -1.0132106659807795e-16 -7.668538349048671e-17 0.5918925329855348 0.8060168915077296
12618512000.0 0.6010649378754453 0.7992001879733275 -1.0217745150934465e-16 -7.549872423044198e-17 -1.0217745150934465e-16 -7.549872423044198e-17 0.6010643907662745 0.7992005994445841
12619129333.333334 0.6101583010089744 0.7922795262466752 -1.0301995034120007e-16 -7.43025164412205e-17 -1.0301995034120007e-16 -7.43025164412205e-17 0.6101577586640137 0.7922799439225522
12619746666.666666 0.6191719867334647 0.7852554048488616 -1.0384845680878397e-16 -7.3096922479859e-17 -1.0384845680878397e-16 -7.3096922479859e-17 0.6191714492230661 0.7852558286742117
12620364000.0 0.6281048179985855 0.7781287410234747 -1.0466286652399252e-16 -7.188210588431719e-17 -1.0466286652399252e-16 -7.188210588431719e-17 0.628104285392464 0.7781291709423552
12620981333.333334 0.6369556283122403 0.7709004654046946 -1.0546307700855625e-16 -7.065823135136331e-17 -1.0546307700855625e-16 -7.065823135136331e-17 0.6369551006794623 0.7709009013603703
12621598666.666666 0.6457232618931106 0.7635715218955829 -1.0624898770689804e-16 -6.942546471425782e-17 -1.0624898770689804e-16 -6.942546471425782e-17 0.6457227393020875 0.7635719638305373
12622216000.0 0.6544065738214774 0.7561428675449179 -1.0702049999870122e-16 -6.818397292034018e-17 -1.0702049999870122e-16 -6.818397292034018e-17 0.654406056339955 0.7561433154008589
12622833333.333334 0.6630044301887699 0.7486154724221775 -1.0777751721122964e-16 -6.693392400845539e-17 -1.0777751721122964e-16 -6.693392400845539e-17 0.6630039178838211 0.7486159261400461
12623450666.666666 0.6715157082455542 0.7409903194909414 -1.0851994463137405e-16 -6.567548708626348e-17 -1.0851994463137405e-16 -6.567548708626348e-17 0.6715152011835678 0.740990779010918
12624068000.0 0.6799392965482517 0.733268404480435 -1.0924768951744874e-16 -6.440883230739135e-17 -1.0924768951744874e-16 -6.440883230739135e-17 0.6799387947949276 0.7332688697419498
12624685333.333334 0.6882740951043 0.725450735755484 -1.0996066111072535e-16 -6.313413084844836e-17 -1.0996066111072535e-16 -6.313413084844836e-17 0.6882735987246357 0.7254512066972209
12625302666.666666 0.6965190155155806 0.7175383341850254 -1.106587706466509e-16 -6.185155488599991e-17 -1.106587706466509e-16 -6.185155488599991e-17 0.6965185245738684 0.7175388107449358
12625920000.0 0.7046729811208656 0.7095322330085136 -1.1134193136588665e-16 -6.056127757326082e-17 -1.1134193136588665e-16 -6.056127757326082e-17 0.7046724956806795 0.7095327151238187
12626537333.333334 0.7127349271361186 0.7014334777012616 -1.1201005852498306e-16 -5.926347301683485e-17 -1.1201005852498306e-16 -5.926347301683485e-17 0.7127344472603091 0.7014339653084647
12627154666.666666 0.7207038007936695 0.693243125837808 -1.1266306940683629e-16 -5.795831625324284e-17 -1.1266306940683629e-16 -5.795831625324284e-17 0.7207033265443534 0.6932436188727009
12627772000.0 0.7285785614798013 0.6849622469536837 -1.1330088333088552e-16 -5.6645983225307e-17 -1.1330088333088552e-16 -5.6645983225307e-17 0.7285780929183558 0.6849627453513563
12628389333.333334 0.7363581808703678 0.6765919224060384 -1.1392342166297338e-16 -5.532665075855003e-17 -1.1392342166297338e-16 -5.532665075855003e-17 0.7363577180574207 0.6765924261008863
12629006666.666666 0.7440416430653672 0.6681332452321198 -1.1453060782500145e-16 -5.4000496537344334e-17 -1.1453060782500145e-16 -5.4000496537344334e-17 0.7440411860607904 0.6681337541578538
12629624000.0 0.7516279447213918 0.6595873200067692 -1.1512236730425955e-16 -5.266769908106055e-17 -1.1512236730425955e-16 -5.266769908106055e-17 0.7516274935842918 0.6595878340964232
12630241333.333334 0.7591160951827619 0.6509552626980537 -1.156986276625047e-16 -5.132843772005598e-17 -1.156986276625047e-16 -5.132843772005598e-17 0.7591156499714742 0.6509557818839938
12630858666.666666 0.766505116610762 0.6422382005216886 -1.1625931854474487e-16 -4.998289257160461e-17 -1.1625931854474487e-16 -4.998289257160461e-17 0.7665046773828431 0.6422387247356226
12631476000.0 0.7737940441116282 0.6334372717934961 -1.1680437168776628e-16 -4.863124451567565e-17 -1.1680437168776628e-16 -4.863124451567565e-17 0.7737936109238458 0.6334378009664806
12632093333.333334 0.7809819258621211 0.6245536257812523 -1.1733372092834692e-16 -4.727367517070015e-17 -1.1733372092834692e-16 -4.727367517070015e-17 0.7809814987704505 0.6245541598437048
12632710666.666666 0.7880678232341185 0.6155884225542688 -1.1784730221121523e-16 -4.591036686918638e-17 -1.1784730221121523e-16 -4.591036686918638e-17 0.7880674022937334 0.6155889614359749
12633328000.0 0.7950508109171815 0.6065428328319008 -1.1834505359672395e-16 -4.454150263325281e-17 -1.1834505359672395e-16 -4.454150263325281e-17 0.7950503961824459 0.6065433764620225
12633945333.333334 0.8019299770392421 0.5974180378308445 -1.1882691526822238e-16 -4.316726615012646e-17 -1.1882691526822238e-16 -4.316726615012646e-17 0.801929568563705 0.5974185861379315
12634562666.666666 0.808704423285753 0.5882152291108018 -1.1929282953916296e-16 -4.17878417475158e-17 -1.1929282953916296e-16 -4.17878417475158e-17 0.8087040211221413 0.5882157820228003
12635180000.0 0.8153732650170447 0.5789356084188126 -1.1974274085991484e-16 -4.040341436892832e-17 -1.1974274085991484e-16 -4.040341436892832e-17 0.8153728692172549 0.5789361658630738
12635797333.333334 0.8219356313837741 0.5695803875324122 -1.2017659582429334e-16 -3.9014169548909335e-17 -1.2017659582429334e-16 -3.9014169548909335e-17 0.8219352419988678 0.5695809494357035
12636414666.666666 0.8283906654405851 0.5601507881014894 -1.205943431757982e-16 -3.762029338822942e-17 -1.205943431757982e-16 -3.762029338822942e-17 0.8283902825207817 0.5601513543900032
12637032000.0 0.8347375242581909 0.5506480414885011 -1.2099593381357503e-16 -3.622197252897225e-17 -1.2099593381357503e-16 -3.622197252897225e-17 0.8347371478528586 0.5506486120878631
12637649333.333334 0.8409753790333138 0.5410733886078583 -1.2138132079807724e-16 -3.4819394129594305e-17 -1.2138132079807724e-16 -3.4819394129594305e-17 0.8409750091909669 0.5410739634431395
12638266666.666666 0.8471034151969349 0.531428079763862 -1.217504593564446e-16 -3.341274583991271e-17 -1.217504593564446e-16 -3.341274583991271e-17 0.8471030519652264 0.531428658759588
12638884000.0 0.8531208325207247 0.5217133744873345 -1.2210330688759594e-16 -3.200221577602355e-17 -1.2210330688759594e-16 -3.200221577602355e-17 0.8531204759464387 0.5217139575674945
12639501333.333334 0.8590268452214775 0.5119305413712406 -1.2243982296702363e-16 -3.058799249519579e-17 -1.2243982296702363e-16 -3.058799249519579e-17 0.8590264953505248 0.5119311284592978
12640118666.666666 0.8648206820636254 0.5020808579051996 -1.2275996935129742e-16 -2.917026497072751e-17 -1.2275996935129742e-16 -2.917026497072751e-17 0.8648203389410373 0.5020814489241019
12640736000.0 0.8705015864603238 0.4921656103080296 -1.2306370998230195e-16 -2.7749222566644666e-17 -1.2306370998230195e-16 -2.7749222566644666e-17 0.8705012501302449 0.49216620518021836
12641353333.333334 0.8760688165717038 0.48218609336071677 -1.2335101099113614e-16 -2.632505501256433e-17 -1.2335101099113614e-16 -2.632505501256433e-17 0.8760684870773887 0.4821866920081384
12641970666.666666 0.881521645402191 0.47214361023657764 -1.2362184070176848e-16 -2.489795237830938e-17 -1.2362184070176848e-16 -2.489795237830938e-17 0.8815213227859968 0.47214421258069283
12642588000.0 0.8868593608952787 0.4620394723313515 -1.2387616963437086e-16 -2.346810504861751e-17 -1.2387616963437086e-16 -2.346810504861751e-17 0.8868590451986604 0.4620400782931462
12643205333.333334 0.8920812660264599 0.4518749990920541 -1.2411397050837003e-16 -2.20357036977764e-17 -1.2411397050837003e-16 -2.20357036977764e-17 0.8920809572899654 0.4518756085920498
12643822666.666666 0.8971866788943562 0.44165151784447765 -1.2433521824520738e-16 -2.060093926421978e-17 -1.2433521824520738e-16 -2.060093926421978e-17 0.89718637715762 0.441652130802741
12644440000.0 0.902174932809682 0.4313703636200118 -1.2453988997080023e-16 -1.9164002925130063e-17 -1.2453988997080023e-16 -1.9164002925130063e-17 0.9021746381114206 0.4313709799561659
12645057333.333334 0.9070453763823331 0.4210328789812596 -1.247279650177148e-16 -1.7725086070998325e-17 -1.247279650177148e-16 -1.7725086070998325e-17 0.9070450887603407 0.4210334986144946
12645674666.666666 0.9117973736063864 0.4106404138468478 -1.2489942492704375e-16 -1.6284380280169232e-17 -1.2489942492704375e-16 -1.6284380280169232e-17 0.9117970930975305 0.4106410366959316
12646292000.0 0.9164303039433596 0.4001943253147109 -1.2505425344999416e-16 -1.4842077293346232e-17 -1.2505425344999416e-16 -1.4842077293346232e-17 0.9164300305835734 0.4001949512979984
12646909333.333334 0.9209435624029648 0.38969597748546564 -1.2519243654917276e-16 -1.3398368988156211e-17 -1.2519243654917276e-16 -1.3398368988156211e-17 0.9209432962272446 0.38969660652091076
12647526666.666666 0.9253365596222922 0.3791467412838949 -1.2531396239958808e-16 -1.1953447353624276e-17 -1.2531396239958808e-16 -1.1953447353624276e-17 0.9253363006646942 0.3791473732890615
12648144000.0 0.9296087219427451 0.3685479942799753 -1.2541882138935252e-16 -1.0507504464686211e-17 -1.2541882138935252e-16 -1.0507504464686211e-17 0.9296084702363789 0.36854862917204717
12648761333.333334 0.9337594914849066 0.3579011205090926 -1.2550700612009375e-16 -9.060732456689047e-18 -1.2550700612009375e-16 -9.060732456689047e-18 0.933759247061933 0.3579017582048853
12649378666.666666 0.9377883262213953 0.34720751029131 -1.2557851140706806e-16 -7.613323499932624e-18 -1.2557851140706806e-16 -7.613323499932624e-18 0.9377880891130188 0.34720815070728
12649996000.0 0.941694700047692 0.33646856004967785 -1.2563333427898776e-16 -6.165469774127393e-18 -1.2563333427898776e-16 -6.165469774127393e-18 0.94169447028416 0.3364692031019354
12650613333.333334 0.945478102850813 0.32568567212796423 -1.2567147397754871e-16 -4.7173634429429435e-18 -1.2567147397754871e-16 -4.7173634429429435e-18 0.945477880461411 0.3256863177322832
12651230666.666666 0.9491380405758851 0.3148602546076357 -1.2569293195666758e-16 -3.2691966285543783e-18 -1.2569293195666758e-16 -3.2691966285543783e-18 0.9491378255889333 0.3148609026794653
12651848000.0 0.9526740352907557 0.3039937211237162 -1.2569771188142608e-16 -1.821161386139767e-18 -1.2569771188142608e-16 -1.821161386139767e-18 0.952673827733604 0.30399437157819115
12652465333.333334 0.956085625248317 0.2930874906804279 -1.2568581962672144e-16 -3.7344967850007427e-19 -1.2568581962672144e-16 -3.7344967850007427e-19 0.9560854251473435 0.29308814343238065
12653082666.666666 0.9593723649468107 0.28214298746589356 -1.2565726327562582e-16 1.073746649366663e-18 -1.2565726327562582e-16 1.073746649366663e-18 0.9593721723274159 0.28214364242986434
12653700000.0 0.9625338251880818 0.2711616406658858 -1.2561205311745226e-16 2.520235895683462e-18 -1.2561205311745226e-16 2.520235895683462e-18 0.9625336400746884 0.2711622977561349
12654317333.333334 0.9655695931335145 0.2601448842775791 -1.2555020164553097e-16 3.9658265272014935e-18 -1.2555020164553097e-16 3.9658265272014935e-18 0.9655694155495617 0.26014554340809715
12654934666.666666 0.9684792723580228 0.24909415692201936 -1.2547172355469217e-16 5.4103272045606564e-18 -1.2547172355469217e-16 5.4103272045606564e-18 0.9684791023259641 0.24909481800653882
12655552000.0 0.9712624829018109 0.23801090165625927 -1.2537663573845873e-16 6.853546807578837e-18 -1.2537663573845873e-16 6.853546807578837e-18 0.9712623204431132 0.23801156460826656
12656169333.333334 0.9739188613199325 0.22689656578516698 -1.2526495728595083e-16 8.295294460470209e-18 -1.2526495728595083e-16 8.295294460470209e-18 0.9739187064550705 0.22689723051791255
12656786666.666666 0.9764480607298158 0.21575260067215293 -1.2513670947849638e-16 9.735379557088982e-18 -1.2513670947849638e-16 9.735379557088982e-18 0.976447913478271 0.2157532670986634
12657404000.0 0.9788497508565313 0.20458046154978288 -1.2499191578595599e-16 1.1173611786074141e-17 -1.2499191578595599e-16 1.1173611786074141e-17 0.9788496112367885 0.20458112958287203
12658021333.333334 0.9811236180759295 0.19338160732969029 -1.2483060186275734e-16 1.260980115597022e-17 -1.2483060186275734e-16 1.260980115597022e-17 0.9811234861054752 0.1933822768819706
12658638666.666666 0.9832693654555673 0.18215750041220405 -1.2465279554364384e-16 1.4043758020271027e-17 -1.2465279554364384e-16 1.4043758020271027e-17 0.9832692411508895 0.18215817139609858
12659256000.0 0.9852867127935429 0.1709096064951034 -1.2445852683913047e-16 1.5475293102461046e-17 -1.2445852683913047e-16 1.5475293102461046e-17 0.9852865961701244 0.17091027882285625
12659873333.333334 0.9871753966550288 0.1596393943824695 -1.2424782793068008e-16 1.6904217520930707e-17 -1.2424782793068008e-16 1.6904217520930707e-17 0.9871752877273501 0.1596400679661583
12660490666.666666 0.9889351704066848 0.14834833579288395 -1.240207331655921e-16 1.8330342813858074e-17 -1.240207331655921e-16 1.8330342813858074e-17 0.9889350691882174 0.1483490105444305
12661108000.0 0.9905658042488984 0.13703790516696276 -1.2377727905159578e-16 1.9753480964081376e-17 -1.2377727905159578e-16 1.9753480964081376e-17 0.9905657107521089 0.13703858099814534
12661725333.333334 0.992067085245742 0.12570957947521097 -1.2351750425118154e-16 2.117344442376565e-17 -1.2351750425118154e-16 2.117344442376565e-17 0.9920669994820861 0.12571025629767532
12662342666.666666 0.9934388173528197 0.114364838024843 -1.2324144957562364e-16 2.2590046139155954e-17 -1.2324144957562364e-16 2.2590046139155954e-17 0.9934387393327416 0.11436551575011396
12662960000.0 0.9946808214428471 0.10300516226674822 -1.2294915797873807e-16 2.400309957514278e-17 -1.2294915797873807e-16 2.400309957514278e-17 0.9946807511757808 0.10300584080624162
12663577333.333334 0.9957929353290518 0.09163203560200836 -1.226406745503497e-16 2.5412418739808988e-17 -1.226406745503497e-16 2.5412418739808988e-17 0.9957928728234159 0.09163271486704207
12664194666.666666 0.9967750137863449 0.08024694318818709 -1.2231604650948577e-16 2.6817818208853054e-17 -1.2231604650948577e-16 2.6817818208853054e-17 0.9967749590495453 0.08024762308999307
12664812000.0 0.9976269285702923 0.06885137174539167 -1.2197532319728297e-16 2.821911314996247e-17 -1.2197532319728297e-16 2.821911314996247e-17 0.9976268816087183 0.06885205219512729
12665429333.333334 0.9983485684338564 0.05744680936210098 -1.216185560696197e-16 2.9616119347085347e-17 -1.216185560696197e-16 2.9616119347085347e-17 0.9983485292528834 0.05744749027086081
12666046666.666666 0.9989398391419217 0.04603474530098614 -1.2124579868947474e-16 3.1008653224593597e-17 -1.2124579868947474e-16 3.1008653224593597e-17 0.9989398077459074 0.04603542657981344
12666664000.0 0.999400663483614 0.034616669804122965 -1.208571067189947e-16 3.23965318714067e-17 -1.208571067189947e-16 3.23965318714067e-17 0.9994006398758988 0.03461735136402129
12667281333.333334 0.9997309812823619 0.023194073898786364 -1.2045253791131023e-16 3.377957306493234e-17 -1.2045253791131023e-16 3.377957306493234e-17 0.9997309654652694 0.023194755650731307
12667898666.666666 0.9999307494037697 0.01176844920248948 -1.200321521020556e-16 3.5157595294988763e-17 -1.200321521020556e-16 3.5157595294988763e-17 0.9999307413786064 0.011769131057440221
12668516000.0 0.9999999417612504 0.0003412877280589019 -1.1959601120062415e-16 3.6530417787588756e-17 -1.1959601120062415e-16 3.6530417787588756e-17 0.9999999415283038 0.00034196959696984017
12669133333.333334 0.9999385493194198 -0.011085918310659658 -1.1914417918116254e-16 3.789786052858663e-17 -1.1914417918116254e-16 3.789786052858663e-17 0.9999385568779625 -0.01108523651682726
12669750666.666666 0.9997465800952916 -0.022511676694230126 -1.1867672207327517e-16 3.9259744287279634e-17 -1.1867672207327517e-16 3.9259744287279634e-17 0.9997465954435766 -0.02251099506449653
12670368000.0 0.9994240591572185 -0.03393449539223149 -1.181937079524735e-16 4.061589063984872e-17 -1.181937079524735e-16 4.061589063984872e-17 0.9994240822924829 -0.03393381401558686
