! Parameters = {f0=12700.012000; bw=77.238000; Q=6100.000000; N=10; m_0_1=1.286381; m_1_1=0.530975; m_1_2=1.121193; m_2_2=0.530326; m_2_3=0.758156; m_2_8=0.001383; m_2_9=0.038087; m_3_3=0.528389; m_3_4=0.646685; m_3_7=0.001983; m_3_8=-0.095105; m_3_9=0.001383; m_4_4=0.525464; m_4_5=0.483020; m_4_6=0.005500; m_4_7=-0.115654; m_4_8=0.001983; m_5_5=0.525846; m_5_6=0.890375; m_5_7=0.005500; m_6_6=0.525845; m_6_7=0.483362; m_7_7=0.525478; m_7_8=0.646803; m_8_8=0.528387; m_8_9=0.758469; m_9_9=0.530321; m_9_10=1.122271; m_10_10=0.530965; m_10_11=1.287176}
!
! Created with skrf (http://scikit-rf.org).
# Hz S RI R 50.0 
!freq ReS11 ImS11 ReS21 ImS21 ReS12 ImS12 ReS22 ImS22
12607400000.0 -0.9570316421448004 -0.28998350976123816 1.1940763729411587e-16 7.404023134422655e-19 1.1940763729411587e-16 7.404023134422655e-19 -0.9570314456192947 -0.2899841583529383
12608017333.333334 -0.9601655151815309 -0.27943189412807556 1.1938511911758048e-16 -5.844381965264732e-19 1.1938511911758048e-16 -5.844381965264732e-19 -0.9601653258162522 -0.2794325448117828
12608634666.666666 -0.9631830567215356 -0.2688464231571243 1.193479107478975e-16 -1.9086879458147605e-18 1.193479107478975e-16 -1.9086879458147605e-18 -0.9631828745387236 -0.26884707585380196
12609252000.0 -0.966083901166344 -0.25822837936028054 1.192960225183789e-16 -3.2321841460148003e-18 1.192960225183789e-16 -3.2321841460148003e-18 -0.966083726187369 -0.2582290339906566
12609869333.333334 -0.9688676970562624 -0.2475790491958352 1.1922946656515051e-16 -4.554764165231824e-18 1.1922946656515051e-16 -4.554764165231824e-18 -0.9688675293016172 -0.24757970568041038
12610486666.666666 -0.9715341071128853 -0.23689972291285571 1.191482568249532e-16 -5.876265548006618e-18 1.191482568249532e-16 -5.876265548006618e-18 -0.9715339466021867 -0.23690038117191428
12611104000.0 -0.9740828082800829 -0.2261916943943952 1.1905240903272012e-16 -7.196526035279651e-18 1.1905240903272012e-16 -7.196526035279651e-18 -0.9740826550320674 -0.22619235434801407
12611721333.333334 -0.9765134917630129 -0.21545626100122378 1.1894194071893979e-16 -8.515383584238649e-18 1.1894194071893979e-16 -8.515383584238649e-18 -0.9765133457955366 -0.21545692256928262
12612338666.666666 -0.978825863065615 -0.20469472341434086 1.1881687120679347e-16 -9.832676388196015e-18 1.1881687120679347e-16 -9.832676388196015e-18 -0.9788257243956489 -0.20469538651653135
12612956000.0 -0.9810196420262869 -0.19390838547735795 1.1867722160907424e-16 -1.1148242896429439e-17 1.1867722160907424e-16 -1.1148242896429439e-17 -0.9810195106699169 -0.1939090500331939
12613573333.333334 -0.9830945628517569 -0.1830985540388902 1.1852301482489142e-16 -1.2461921833919024e-17 1.1852301482489142e-16 -1.2461921833919024e-17 -0.9830944388241813 -0.1830992199677172
12614190666.666666 -0.985050374149379 -0.17226653879377624 1.1835427553615046e-16 -1.377355222112387e-17 1.1835427553615046e-16 -1.377355222112387e-17 -0.985050257464907 -0.17226720601478152
12614808000.0 -0.9868868389575381 -0.16141365212464892 1.1817103020381794e-16 -1.5082973393663792e-17 1.1817103020381794e-16 -1.5082973393663792e-17 -0.9868867296295873 -0.16141432055687088
12615425333.333334 -0.9886037347743767 -0.15054120894284634 1.1797330706397069e-16 -1.639002502195815e-17 1.1797330706397069e-16 -1.639002502195815e-17 -0.9886036328154721 -0.15054187850518463
12616042666.666666 -0.9902008535847325 -0.1396505265292121 1.1776113612362336e-16 -1.7694547130845907e-17 1.1776113612362336e-16 -1.7694547130845907e-17 -0.9902007590065065 -0.13965119714043753
12616660000.0 -0.991678001885373 -0.12874292437432874 1.1753454915634415e-16 -1.8996380119120855e-17 1.1753454915634415e-16 -1.8996380119120855e-17 -0.9916779146985605 -0.1287435959530928
12617277333.333334 -0.9930350007084184 -0.11781972401873447 1.172935796976522e-16 -2.0295364779033263e-17 1.172935796976522e-16 -2.0295364779033263e-17 -0.99303492092286 -0.11782039648357957
12617894666.666666 -0.9942716856430196 -0.10688224889292217 1.1703826304020408e-16 -2.1591342315712267e-17 1.1703826304020408e-16 -2.1591342315712267e-17 -0.9942716132676568 -0.10688292216229123
12618512000.0 -0.9953879068553105 -0.09593182415665585 1.1676863622875513e-16 -2.28841543665862e-17 1.1676863622875513e-16 -2.28841543665862e-17 -0.9953878418981867 -0.09593249814890238
12619129333.333334 -0.996383529106511 -0.08496977653892655 1.1648473805492668e-16 -2.4173643020642624e-17 1.1648473805492668e-16 -2.4173643020642624e-17 -0.99638347157477 -0.08497045117232441
12619746666.666666 -0.9972584317693569 -0.07399743417675622 1.1618660905173818e-16 -2.545965083773812e-17 1.1618660905173818e-16 -2.545965083773812e-17 -0.9972583816692425 -0.07399810936950961
12620364000.0 -0.9980125088427015 -0.0630161264543965 1.1587429148793974e-16 -2.6742020867776003e-17 1.1587429148793974e-16 -2.6742020867776003e-17 -0.998012466179557 -0.06301680212464991
12620981333.333334 -0.9986456689643444 -0.05202718384246211 1.1554782936213678e-16 -2.802059666980674e-17 1.1554782936213678e-16 -2.802059666980674e-17 -0.9986456337426104 -0.05202785990831013
12621598666.666666 -0.9991578354221127 -0.04103193773656382 1.1520726839669376e-16 -2.929522233110088e-17 1.1520726839669376e-16 -2.929522233110088e-17 -0.9991578076453294 -0.04103261411606117
12622216000.0 -0.9995489461631605 -0.03003172029597141 1.1485265603143238e-16 -3.056574248613317e-17 1.1485265603143238e-16 -3.056574248613317e-17 -0.9995489258339638 -0.030032396907142753
12622833333.333334 -0.9998189538014755 -0.019027864282240122 1.1448404141712272e-16 -3.183200233548183e-17 1.1448404141712272e-16 -3.183200233548183e-17 -0.9998189409216003 -0.019028541043090135
12623450666.666666 -0.9999678256236232 -0.008021702897935558 1.1410147540876753e-16 -3.3093847664651346e-17 1.1410147540876753e-16 -3.3093847664651346e-17 -0.9999678201939018 -0.008022379726458804
12624068000.0 -0.9999955435927169 0.0029854303752068043 1.1370501055867668e-16 -3.4351124862821785e-17 1.1370501055867668e-16 -3.4351124862821785e-17 -0.9999955456130784 0.0029847535610159695
12624685333.333334 -0.9999021043505971 0.013992201937758096 1.1329470110932468e-16 -3.5603680941555865e-17 1.1329470110932468e-16 -3.5603680941555865e-17 -0.9999021138200678 0.013991525219895546
12625302666.666666 -0.999687519218239 0.024997278233916155 1.1287060298603773e-16 -3.685136355330551e-17 1.1287060298603773e-16 -3.685136355330551e-17 -0.9996875361349431 0.024996601694358068
12625920000.0 -0.999351814194376 0.035999325913530715 1.1243277378942648e-16 -3.809402100999349e-17 1.1243277378942648e-16 -3.809402100999349e-17 -0.9993518385555369 0.035998649634223695
12626537333.333334 -0.9988950299523651 0.0469970119931379 1.1198127278766155e-16 -3.9331502301365505e-17 1.1198127278766155e-16 -3.9331502301365505e-17 -0.9988950617543029 0.04699633605598894
12627154666.666666 -0.9983172218352453 0.057989004017802194 1.1151616090852414e-16 -4.0563657113318664e-17 1.1151616090852414e-16 -4.0563657113318664e-17 -0.9983172610733795 0.057988328504668896
12627772000.0 -0.9976184598490294 0.0689739702226106 1.1103750073124535e-16 -4.179033584616593e-17 1.1103750073124535e-16 -4.179033584616593e-17 -0.9976185065178794 0.06897329521529115
12628389333.333334 -0.996798828654241 0.0799505796936571 1.1054535647818007e-16 -4.3011389632710224e-17 1.1054535647818007e-16 -4.3011389632710224e-17 -0.9967988827474265 0.07994990527388045
12629006666.666666 -0.9958584275556303 0.0909175025297473 1.1003979400624146e-16 -4.42266703563288e-17 1.1003979400624146e-16 -4.42266703563288e-17 -0.9958584890658715 0.09091682877916314
12629624000.0 -0.994797370490172 0.10187341000310086 1.0952088079817096e-16 -4.543603066887324e-17 1.0952088079817096e-16 -4.543603066887324e-17 -0.9947974394092913 0.10187273700326985
12630241333.333334 -0.9936157860132319 0.11281697472067687 1.0898868595358889e-16 -4.6639324008524334e-17 1.0898868595358889e-16 -4.6639324008524334e-17 -0.993615862332157 0.11281630255306095
12630858666.666666 -0.9923138172830257 0.12374687078471588 1.0844328017987206e-16 -4.783640461749048e-17 1.0844328017987206e-16 -4.783640461749048e-17 -0.9923139009917857 0.12374619953066787
12631476000.0 -0.9908916220432222 0.13466177395374837 1.078847357828001e-16 -4.902712755968324e-17 1.078847357828001e-16 -4.902712755968324e-17 -0.9908917131309547 0.13466110369450282
12632093333.333334 -0.9893493726038985 0.1455603618025586 1.0731312665705605e-16 -5.0211348738180704e-17 1.0731312665705605e-16 -5.0211348738180704e-17 -0.9893494710588457 0.14555969261922125
12632710666.666666 -0.9876872558206167 0.15644131388274418 1.0672852827650158e-16 -5.138892491265411e-17 1.0672852827650158e-16 -5.138892491265411e-17 -0.9876873616301312 0.15644064585628276
12633328000.0 -0.9859054730717808 0.1673033118827271 1.0613101768426261e-16 -5.255971371667918e-17 1.0613101768426261e-16 -5.255971371667918e-17 -0.9859055862223239 0.16730264509396103
12633945333.333334 -0.9840042402342625 0.1781450397872796 1.0552067348265386e-16 -5.372357367487551e-17 1.0552067348265386e-16 -5.372357367487551e-17 -0.98400436071141 0.17814437431687083
12634562666.666666 -0.9819837876572514 0.1889651840369994 1.048975758228797e-16 -5.488036422000224e-17 1.048975758228797e-16 -5.488036422000224e-17 -0.9819839154456909 0.18896451996544206
12635180000.0 -0.979844360134317 0.19976243368759683 1.0426180639457291e-16 -5.602994570988717e-17 1.0426180639457291e-16 -5.602994570988717e-17 -0.9798444952178514 0.1997617710952075
12635797333.333334 -0.9775862168737605 0.21053548056864083 1.036134484151347e-16 -5.717217944425881e-17 1.036134484151347e-16 -5.717217944425881e-17 -0.9775863592353123 0.21053481953554948
12636414666.666666 -0.9752096314672302 0.22128301944200032 1.0295258661891049e-16 -5.830692768142449e-17 1.0295258661891049e-16 -5.830692768142449e-17 -0.9752097810888408 0.22128236004813992
12637032000.0 -0.9727148918565572 0.23200374816003827 1.0227930724614896e-16 -5.943405365488185e-17 1.0227930724614896e-16 -5.943405365488185e-17 -0.9727150487193902 0.23200309048513537
12637649333.333334 -0.9701023002988567 0.2426963678234327 1.0159369803181413e-16 -6.055342158974588e-17 1.0159369803181413e-16 -6.055342158974588e-17 -0.9701024643832011 0.2426957119469981
12638266666.666666 -0.9673721733299276 0.25335958293846567 1.0089584819420024e-16 -6.166489671907603e-17 1.0089584819420024e-16 -6.166489671907603e-17 -0.9673723446151979 0.253358928939784
12638884000.0 -0.9645248417258848 0.26399210157403613 1.0018584842337302e-16 -6.276834530006794e-17 1.0018584842337302e-16 -6.276834530006794e-17 -0.9645250201906277 0.2639914495321576
12639501333.333334 -0.9615606504631105 0.27459263551810736 9.946379086943008e-17 -6.386363463011789e-17 9.946379086943008e-17 -6.386363463011789e-17 -0.9615608360850014 0.2745919855118364
12640118666.666666 -0.9584799586764532 0.2851599004337819 9.87297691306083e-17 -6.495063306271939e-17 9.87297691306083e-17 -6.495063306271939e-17 -0.958480151432306 0.2851592525416694
12640736000.0 -0.9552831396156249 0.2956926160152379 9.798387824115895e-17 -6.602921002331344e-17 9.798387824115895e-17 -6.602921002331344e-17 -0.9552833394813894 0.29569197031557054
12641353333.333334 -0.9519705806001502 0.3061895061422468 9.722621465914326e-17 -6.709923602486072e-17 9.722621465914326e-17 -6.709923602486072e-17 -0.9519707875509184 0.30618886271303836
12641970666.666666 -0.948542682972308 0.31664929903524996 9.645687625396254e-17 -6.816058268341625e-17 9.645687625396254e-17 -6.816058268341625e-17 -0.9485428969823158 0.31664865795423136
12642588000.0 -0.9449998620485341 0.3270707274093346 9.567596229378909e-17 -6.921312273345929e-17 9.567596229378909e-17 -6.921312273345929e-17 -0.9450000830911638 0.3270700887539445
12643205333.333334 -0.9413425470691287 0.33745252862769387 9.488357343279005e-17 -7.02567300431378e-17 9.488357343279005e-17 -7.02567300431378e-17 -0.9413427751169142 0.33745189247506985
12643822666.666666 -0.9375711811462065 0.34779344485474045 9.407981169819899e-17 -7.129127962934813e-17 9.407981169819899e-17 -7.129127962934813e-17 -0.937571416170835 0.34779281128170897
12644440000.0 -0.9336862212100439 0.35809222320839385 9.326478047723088e-17 -7.231664767265615e-17 9.326478047723088e-17 -7.231664767265615e-17 -0.9336864631823603 0.35809159229146154
12645057333.333334 -0.9296881379537517 0.368347615911799 9.243858450382483e-17 -7.333271153208683e-17 9.243858450382483e-17 -7.333271153208683e-17 -0.9296883868437636 0.3683469877271437
12645674666.666666 -0.9255774157761913 0.37855838044466444 9.160132984523669e-17 -7.433934975974621e-17 9.160132984523669e-17 -7.433934975974621e-17 -0.9255776715530691 0.37855775506812483
12646292000.0 -0.9213545527232463 0.38872327969388 9.075312388843803e-17 -7.533644211533522e-17 9.075312388843803e-17 -7.533644211533522e-17 -0.92135481535533 0.3887226572009476
12646909333.333334 -0.9170200604275991 0.3988410821031133 8.989407532642116e-17 -7.632386958043161e-17 8.989407532642116e-17 -7.632386958043161e-17 -0.9170203298824008 0.3988404625689226
12647526666.666666 -0.9125744640466815 0.4089105618221812 8.902429414428971e-17 -7.73015143726885e-17 8.902429414428971e-17 -7.73015143726885e-17 -0.9125747402908907 0.4089099453215014
12648144000.0 -0.9080183021989885 0.41893049885570066 8.814389160522016e-17 -7.826925995984356e-17 8.814389160522016e-17 -7.826925995984356e-17 -0.9080185851984748 0.4189298854629256
12648761333.333334 -0.9033521268989101 0.42889967921069166 8.725298023627739e-17 -7.922699107356484e-17 8.725298023627739e-17 -7.922699107356484e-17 -0.9033524166187286 0.4288990689998318
12649378666.666666 -0.8985765034898322 0.4388168950437155 8.635167381408193e-17 -8.017459372313295e-17 8.635167381408193e-17 -8.017459372313295e-17 -0.8985767998942263 0.43881628808838835
12649996000.0 -0.8936920105756248 0.4486809448072388 8.54400873502956e-17 -8.111195520899793e-17 8.54400873502956e-17 -8.111195520899793e-17 -0.8936923136280323 0.4486803411806604
12650613333.333334 -0.8886992399505063 0.4584906333952887 8.451833707699857e-17 -8.203896413612953e-17 8.451833707699857e-17 -8.203896413612953e-17 -0.8886995496135627 0.4584900331702644
12651230666.666666 -0.8835987965274393 0.4682447722880431 8.358654043192803e-17 -8.295551042719814e-17 8.358654043192803e-17 -8.295551042719814e-17 -0.8835991127629842 0.46824417553695974
12651848000.0 -0.8783912982647036 0.47794217969610986 8.264481604350556e-17 -8.386148533565697e-17 8.264481604350556e-17 -8.386148533565697e-17 -0.8783916210337828 0.4779415864909258
12652465333.333334 -0.8730773760911258 0.4875816807035056 8.169328371582745e-17 -8.475678145855092e-17 8.169328371582745e-17 -8.475678145855092e-17 -0.8730777053539972 0.48758109111574266
12653082666.666666 -0.8676576738296955 0.49716210740990874 8.073206441343676e-17 -8.564129274923657e-17 8.073206441343676e-17 -8.564129274923657e-17 -0.8676580095458355 0.49716152151064386
12653700000.0 -0.8621328481193415 0.5066822990725566 7.976128024597096e-17 -8.651491452991403e-17 7.976128024597096e-17 -8.651491452991403e-17 -0.8621331902474477 0.5066817169324126
12654317333.333334 -0.8565035683356246 0.5161411022464326 7.87810544527172e-17 -8.737754350394803e-17 7.87810544527172e-17 -8.737754350394803e-17 -0.8565039168336214 0.5161405239355698
12654934666.666666 -0.8507705165094669 0.5255373709243105 7.779151138699026e-17 -8.822907776805479e-17 7.779151138699026e-17 -8.822907776805479e-17 -0.8507708713345115 0.5255367965124187
12655552000.0 -0.8449343872445753 0.534869966675503 7.679277650037929e-17 -8.906941682431233e-17 7.679277650037929e-17 -8.906941682431233e-17 -0.8449347483530643 0.5348693962317939
12656169333.333334 -0.8389958876333348 0.5441377587837226 7.578497632691328e-17 -8.989846159195159e-17 7.578497632691328e-17 -8.989846159195159e-17 -0.8389962549809057 0.5441371923769188
12656786666.666666 -0.8329557371710422 0.5533396243842172 7.476823846703869e-17 -9.071611441902048e-17 7.476823846703869e-17 -9.071611441902048e-17 -0.8329561107125806 0.5533390620825455
12657404000.0 -0.826814667668781 0.5624744485997419 7.374269157151053e-17 -9.152227909383562e-17 7.374269157151053e-17 -9.152227909383562e-17 -0.8268150473584288 0.5624738904709268
12658021333.333334 -0.8205734231647894 0.5715411246755907 7.270846532515516e-17 -9.231686085625636e-17 7.270846532515516e-17 -9.231686085625636e-17 -0.8205738089559464 0.5715405707868432
12658638666.666666 -0.8142327598343011 0.5805385541137114 7.166569043050521e-17 -9.309976640878315e-17 7.166569043050521e-17 -9.309976640878315e-17 -0.8142331516796321 0.5805380045317219
12659256000.0 -0.8077934458978251 0.5894656468059343 7.061449859130096e-17 -9.387090392747977e-17 7.061449859130096e-17 -9.387090392747977e-17 -0.8077938437492678 0.5894651015968664
12659873333.333334 -0.8012562615281881 0.5983213211658863 6.95550224959133e-17 -9.463018307268345e-17 6.95550224959133e-17 -9.463018307268345e-17 -0.8012566653369566 0.598320780395367
12660490666.666666 -0.7946219987560803 0.6071045042599444 6.848739580063043e-17 -9.537751499954363e-17 6.848739580063043e-17 -9.537751499954363e-17 -0.7946224084726705 0.6071039679930553
12661108000.0 -0.7878914613738189 0.6158141319375913 6.741175311280182e-17 -9.611281236839385e-17 6.741175311280182e-17 -9.611281236839385e-17 -0.7878918769480174 0.6158136002388633
12661725333.333334 -0.7810654648382739 0.6244491489599386 6.632822997395104e-17 -9.683598935487885e-17 6.632822997395104e-17 -9.683598935487885e-17 -0.7810658862191623 0.624448621893343
12662342666.666666 -0.7741448361718616 0.6330085091278498 6.523696284268446e-17 -9.754696165995797e-17 6.523696284268446e-17 -9.754696165995797e-17 -0.7741452633078216 0.6330079867567893
12662960000.0 -0.7671304138624099 0.6414911754086003 6.413808907756477e-17 -9.824564651966744e-17 6.413808907756477e-17 -9.824564651966744e-17 -0.7671308467011337 0.6414906577959043
12663577333.333334 -0.7600230477616302 0.6498961200614628 6.303174691984775e-17 -9.893196271471286e-17 6.303174691984775e-17 -9.893196271471286e-17 -0.7600234862501215 0.6498956072693763
12664194666.666666 -0.752823598982036 0.6582223247623519 6.191807547613668e-17 -9.960583057985497e-17 6.191807547613668e-17 -9.960583057985497e-17 -0.7528240430666209 0.6582218168525313
12664812000.0 -0.7455329397926891 0.6664687807271178 6.079721470090863e-17 -1.0026717201311844e-16 6.079721470090863e-17 -1.0026717201311844e-16 -0.74553338941902 0.6664682777606209
12665429333.333334 -0.7381519535134595 0.6746344888338305 5.966930537896897e-17 -1.0091591048478869e-16 5.966930537896897e-17 -1.0091591048478869e-16 -0.7381524086265234 0.6746339908711111
12666046666.666666 -0.7306815344081765 0.6827184597436433 5.853448910781322e-17 -1.0155197104621028e-16 5.853448910781322e-17 -1.0155197104621028e-16 -0.7306819949523009 0.6827179668445427
12666664000.0 -0.7231225875759577 0.6907197140210151 5.739290827985e-17 -1.021752803384143e-16 5.739290827985e-17 -1.021752803384143e-16 -0.7231230534948169 0.6907192262447548
12667281333.333334 -0.7154760288418912 0.6986372822519982 5.624470606461946e-17 -1.0278576660049669e-16 5.624470606461946e-17 -1.0278576660049669e-16 -0.7154765000785153 0.6986367996571748
12667898666.666666 -0.7077427846458694 0.7064702051619235 5.509002639082495e-17 -1.03383359677853e-16 5.509002639082495e-17 -1.03383359677853e-16 -0.7077432611426486 0.7064697278064993
12668516000.0 -0.699923791930318 0.7142175337316399 5.3929013928335746e-17 -1.0396799103017902e-16 5.3929013928335746e-17 -1.0396799103017902e-16 -0.6999242736290107 0.714217061672936
12669133333.333334 -0.6920199980269377 0.7218783293122312 5.2761814070117943e-17 -1.0453959373926411e-16 5.2761814070117943e-17 -1.0453959373926411e-16 -0.6920204848686788 0.7218778626069227
12669750666.666666 -0.6840323605416104 0.7294516637390672 5.1588572914027325e-17 -1.0509810251661138e-16 5.1588572914027325e-17 -1.0509810251661138e-16 -0.6840328524669169 0.7294512024431746
