! Parameters = {f0=12700.012000; bw=77.238000; Q=6100.000000; N=10; m_0_1=1.322818; m_1_1=1.077522; m_1_2=1.157630; m_2_2=1.076873; m_2_3=0.794593; m_2_8=0.003205; m_2_9=0.039909; m_3_3=1.074936; m_3_4=0.683122; m_3_7=0.003805; m_3_8=-0.093283; m_3_9=0.003205; m_4_4=1.072011; m_4_5=0.519457; m_4_6=0.007322; m_4_7=-0.113832; m_4_8=0.003805; m_5_5=1.072393; m_5_6=0.926812; m_5_7=0.007322; m_6_6=1.072392; m_6_7=0.519799; m_7_7=1.072025; m_7_8=0.683240; m_8_8=1.074934; m_8_9=0.794906; m_9_9=1.076868; m_9_10=1.158708; m_10_10=1.077512; m_10_11=1.323613}
!
! Created with skrf (http://scikit-rf.org).
# Hz S RI R 50.0 
!freq ReS11 ImS11 ReS21 ImS21 ReS12 ImS12 ReS22 ImS22
12607400000.0 0.9630296840453728 0.269395299972507 -1.4097373790019818e-16 2.1491683264914973e-18 -1.4097373790019818e-16 2.1491683264914973e-18 0.9630294963199942 0.26939597104906193
12608017333.333334 0.9662147643546329 0.2577382958408192 -1.4090953566916494e-16 3.864292897578388e-18 -1.4090953566916494e-16 3.864292897578388e-18 0.9662145847611001 0.2577389691039038
12608634666.666666 0.9692587478555567 0.24604365406425008 -1.4082447838960315e-16 5.578173277685402e-18 -1.4082447838960315e-16 5.578173277685402e-18 0.9692585764192982 0.24604432941533816
12609252000.0 0.9721611900338485 0.23431308241705262 -1.407185868300081e-16 7.290556021452812e-18 -1.407185868300081e-16 7.290556021452812e-18 0.9721610267791011 0.23431375975732302
12609869333.333334 0.9749216670445976 0.22254829392019707 -1.4059188483719892e-16 9.001188004646385e-18 -1.4059188483719892e-16 9.001188004646385e-18 0.9749215119943992 0.22254897315054753
12610486666.666666 0.9775397757740835 0.21075100659157597 -1.4044439933158316e-16 1.0709816461473431e-17 -1.4044439933158316e-16 1.0709816461473431e-17 0.9775396289502708 0.21075168761263782
12611104000.0 0.9800151338987623 0.1989229431945948 -1.4027616030196083e-16 1.2416189021959035e-17 -1.4027616030196083e-16 1.2416189021959035e-17 0.98001499532197 0.19892362590674784
12611721333.333334 0.9823473799409632 0.1870658309872065 -1.4008720079988793e-16 1.4120053749085354e-17 -1.4008720079988793e-16 1.4120053749085354e-17 0.9823472496306197 0.1870665152905933
12612338666.666666 0.9845361733217856 0.17518140146917943 -1.3987755693357602e-16 1.5821159176007857e-17 -1.3987755693357602e-16 1.5821159176007857e-17 0.9845360512961092 0.17518208726371987
12612956000.0 0.9865811944107795 0.16327139012946718 -1.3964726786134707e-16 1.751925434310747e-17 -1.3964726786134707e-16 1.751925434310747e-17 0.9865810806867799 0.1632720773148736
12613573333.333334 0.9884821445726273 0.15133753619280363 -1.393963757846454e-16 1.921408883492155e-17 -1.393963757846454e-16 1.921408883492155e-17 0.9884820391660974 0.15133822466859465
12614190666.666666 0.9902387462107569 0.13938158236566645 -1.3912492594058914e-16 2.0905412817071077e-17 -1.3912492594058914e-16 2.0905412817071077e-17 0.9902386491362745 0.13938227203118222
12614808000.0 0.9918507428078933 0.1274052745817045 -1.3883296659408243e-16 2.259297707303172e-17 -1.3883296659408243e-16 2.259297707303172e-17 0.9918506540788187 0.12740596533612145
12615425333.333334 0.9933178989634892 0.11541036174697535 -1.385205490294841e-16 2.4276533040783175e-17 -1.385205490294841e-16 2.4276533040783175e-17 0.9933178185919622 0.11541105348932061
12616042666.666666 0.9946400004281335 0.1033985954843265 -1.381877275418263e-16 2.595583284939883e-17 -1.381877275418263e-16 2.595583284939883e-17 0.994639928425072 0.10339928811349285
12616660000.0 0.9958168541348059 0.09137172987783031 -1.3783455942759403e-16 2.7630629355478835e-17 -1.3783455942759403e-16 2.7630629355478835e-17 0.9958167905099055 0.09137242329259096
12617277333.333334 0.9968482882271025 0.07933152121638033 -1.3746110497506582e-16 2.93006761794696e-17 -1.3746110497506582e-16 2.93006761794696e-17 0.9968482329888335 0.07933221531540365
12617894666.666666 0.9977341520842946 0.06727972773758724 -1.370674274542152e-16 3.0965727741847904e-17 -1.370674274542152e-16 3.0965727741847904e-17 0.9977341052399027 0.06728042241945163
12618512000.0 0.9984743163433695 0.05521810937048449 -1.366535931061594e-16 3.262553929923853e-17 -1.366535931061594e-16 3.262553929923853e-17 0.9984742778988744 0.05521880453369322
12619129333.333334 0.9990686729178767 0.04314842747912016 -1.3621967113220407e-16 3.4279866980257814e-17 -1.3621967113220407e-16 3.4279866980257814e-17 0.9990686428780716 0.043149123022116126
12619746666.666666 0.9995171350137423 0.031072444604975796 -1.3576573368241946e-16 3.592846782136187e-17 -1.3576573368241946e-16 3.592846782136187e-17 0.9995171133821901 0.031073140426156245
12620364000.0 0.9998196371419352 0.018991924209495793 -1.352918558438009e-16 3.757109980246814e-17 -1.352918558438009e-16 3.757109980246814e-17 0.999819623920972 0.018992620207227414
12620981333.333334 0.9999761351280183 0.006908630417023087 -1.347981156280112e-16 3.920752188238927e-17 -1.347981156280112e-16 3.920752188238927e-17 0.9999761303187535 0.006909326489656713
12621598666.666666 0.9999866061186204 -0.005175672243328147 -1.3428459395866288e-16 4.083749403421962e-17 -1.3428459395866288e-16 4.083749403421962e-17 0.999986609720933 -0.005174976197442711
12622216000.0 0.999851048584758 -0.017259219094978285 -1.3375137465820627e-16 4.246077728044225e-17 -1.3375137465820627e-16 4.246077728044225e-17 0.999851060597298 -0.01725852317747736
12622833333.333334 0.9995694823220607 -0.029340245571862895 -1.3319854443436764e-16 4.407713372795483e-17 -1.3319854443436764e-16 4.407713372795483e-17 0.999569502742252 -0.02933954988435411
12623450666.666666 0.9991419484478867 -0.041416987475772146 -1.3262619286619127e-16 4.568632660284169e-17 -1.3262619286619127e-16 4.568632660284169e-17 0.9991419772719261 -0.041416292119819655
12624068000.0 0.9985685093953165 -0.05348768123431871 -1.3203441238963751e-16 4.728812028503823e-17 -1.3203441238963751e-16 4.728812028503823e-17 0.998568546618173 -0.053486986311428286
12624685333.333334 0.9978492489040226 -0.0655505641584158 -1.314232982827683e-16 4.888228034279155e-17 -1.314232982827683e-16 4.888228034279155e-17 0.9978492945194389 -0.06554986977002002
12625302666.666666 0.9969842720080703 -0.07760387469931486 -1.3079294865054016e-16 5.0468573566876204e-17 -1.3079294865054016e-16 5.0468573566876204e-17 0.9969843260085656 -0.07760318094675842
12625920000.0 0.9959737050205388 -0.08964585270646935 -1.3014346440914912e-16 5.204676800470428e-17 -1.3014346440914912e-16 5.204676800470428e-17 0.9959737673974073 -0.08964515969099407
12626537333.333334 0.9948176955151155 -0.10167473968397488 -1.2947494926999426e-16 5.361663299416628e-17 -1.2947494926999426e-16 5.361663299416628e-17 0.9948177662584305 -0.10167404750670522
12627154666.666666 0.993516412304533 -0.11368877904761884 -1.287875097232253e-16 5.5177939197285476e-17 -1.287875097232253e-16 5.5177939197285476e-17 0.9935164914031461 -0.11368808780954688
12627772000.0 0.9920700454158841 -0.125686216381649 -1.2808125502086056e-16 5.673045863372215e-17 -1.2808125502086056e-16 5.673045863372215e-17 0.9920701328574281 -0.12568552618361983
12628389333.333334 0.9904788060629396 -0.1376652996943788 -1.2735629715955923e-16 5.827396471393169e-17 -1.2735629715955923e-16 5.827396471393169e-17 0.9904789018338309 -0.13766461063707572
12629006666.666666 0.9887429266152266 -0.14962427967468026 -1.2661275086292111e-16 5.980823227226778e-17 -1.2661275086292111e-16 5.980823227226778e-17 0.9887430307006653 -0.14962359185861016
12629624000.0 0.9868626605641632 -0.16156140994690124 -1.258507335634593e-16 6.13330375997096e-17 -1.258507335634593e-16 6.13330375997096e-17 0.986862772948139 -0.1615607234723802
12630241333.333334 0.9848382824859886 -0.1734749473262838 -1.2507036538412217e-16 6.28481584764792e-17 -1.2507036538412217e-16 6.28481584764792e-17 0.9848384031512796 -0.17347426229342194
12630858666.666666 0.9826700880017276 -0.1853631520731292 -1.2427176911947378e-16 6.435337420432584e-17 -1.2427176911947378e-16 6.435337420432584e-17 0.9826702169299038 -0.18536246858181632
12631476000.0 0.9803583937339277 -0.1972242881473848 -1.234550702164258e-16 6.584846563868894e-17 -1.234550702164258e-16 6.584846563868894e-17 0.9803585309053549 -0.19722360629727592
12632093333.333334 0.9779035372605236 -0.2090566234615994 -1.2262039675465595e-16 6.733321522048094e-17 -1.2262039675465595e-16 6.733321522048094e-17 0.9779036826543667 -0.20905594335210032
12632710666.666666 0.9753058770654998 -0.22085843013411366 -1.217678794265912e-16 6.88074070077254e-17 -1.217678794265912e-16 6.88074070077254e-17 0.9753060306597242 -0.22085775186436607
12633328000.0 0.9725657924864939 -0.2326279847415766 -1.2089765151701345e-16 7.027082670693494e-17 -1.2089765151701345e-16 7.027082670693494e-17 0.97256595425787 -0.2326273084104439
12633945333.333334 0.9696836836594659 -0.24436356857031213 -1.2000984888232526e-16 7.172326170417103e-17 -1.2000984888232526e-16 7.172326170417103e-17 0.9696838535835725 -0.24436289427636523
12634562666.666666 0.9666599714602595 -0.2560634678673605 -1.191046099294178e-16 7.316450109588805e-17 -1.191046099294178e-16 7.316450109588805e-17 0.9666601495114869 -0.25606279570886287
12635180000.0 0.9634950974430987 -0.26772597409090343 -1.1818207559416224e-16 7.459433571952169e-17 -1.1818207559416224e-16 7.459433571952169e-17 0.9634952835946528 -0.26772530416579715
12635797333.333334 0.9601895237761463 -0.27934938415959726 -1.1724238931954948e-16 7.601255818378377e-17 -1.1724238931954948e-16 7.601255818378377e-17 0.9601897180000541 -0.27934871656548904
12636414666.666666 0.956743733174029 -0.2909320007012494 -1.162856970334761e-16 7.74189628986698e-17 -1.162856970334761e-16 7.74189628986698e-17 0.9567439354411397 -0.29093133553539563
12637032000.0 0.9531582288272701 -0.302472132300931 -1.15312147126141e-16 7.881334610523491e-17 -1.15312147126141e-16 7.881334610523491e-17 0.9531584391072625 -0.3024714696602243
12637649333.333334 0.9494335343288967 -0.3139680937476751 -1.1432189042710473e-16 8.019550590505629e-17 -1.1432189042710473e-16 8.019550590505629e-17 0.9494337525902834 -0.31396743372863
12638266666.666666 0.9455701935979092 -0.32541820628081436 -1.133150801820088e-16 8.156524228939285e-17 -1.133150801820088e-16 8.156524228939285e-17 0.9455704198080382 -0.32541754897955283
12638884000.0 0.9415687707999143 -0.3368207978349132 -1.122918720289139e-16 8.292235716809925e-17 -1.122918720289139e-16 8.292235716809925e-17 0.9415690049249782 -0.33682014334715127
12639501333.333334 0.937429850264666 -0.34817420328418475 -1.1125242397432785e-16 8.426665439819552e-17 -1.1125242397432785e-16 8.426665439819552e-17 0.9374300922697028 -0.34817355170521774
12640118666.666666 0.9331540364008605 -0.3594767646852724 -1.1019689636887404e-16 8.559793981216369e-17 -1.1019689636887404e-16 8.559793981216369e-17 0.9331542862497635 -0.3594761161099625
12640736000.0 0.9287419536076473 -0.37072683152000324 -1.0912545188259152e-16 8.691602124597716e-17 -1.0912545188259152e-16 8.691602124597716e-17 0.9287422112631658 -0.3707261860427638
12641353333.333334 0.9241942461837608 -0.38192276093556 -1.0803825547999798e-16 8.822070856670182e-17 -1.0803825547999798e-16 8.822070856670182e-17 0.9241945116075091 -0.38192211865034337
12641970666.666666 0.9195115782331409 -0.3930629179851586 -1.0693547439470161e-16 8.95118136999372e-17 -1.0693547439470161e-16 8.95118136999372e-17 0.9195118513856031 -0.39306227898544205
12642588000.0 0.9146946335681432 -0.40414567586632477 -1.0581727810376037e-16 9.078915065684899e-17 -1.0581727810376037e-16 9.078915065684899e-17 0.9146949144086779 -0.4041450402450964
12643205333.333334 0.9097441156095811 -0.4151694161586924 -1.0468383830171816e-16 9.20525355608862e-17 -1.0468383830171816e-16 9.20525355608862e-17 0.9097444040964278 -0.41516878400843765
12643822666.666666 0.9046607472840501 -0.4261325290602376 -1.0353532887427777e-16 9.330178667422564e-17 -1.0353532887427777e-16 9.330178667422564e-17 0.9046610433743362 -0.4261319004729261
12644440000.0 0.8994452709183206 -0.4370334136224354 -1.0237192587170931e-16 9.453672442383237e-17 -1.0237192587170931e-16 9.453672442383237e-17 0.8994455745680678 -0.43703278868950785
12645057333.333334 0.8940984481310131 -0.44787047798389523 -1.011938074819311e-16 9.575717142721135e-17 -1.011938074819311e-16 9.575717142721135e-17 0.8940987592951444 -0.44786985679624997
12645674666.666666 0.8886210597213445 -0.4586421396028986 -1.0000115400327547e-16 9.696295251783246e-17 -1.0000115400327547e-16 9.696295251783246e-17 0.8886213783536878 -0.45864152225087745
12646292000.0 0.8830139055549708 -0.46934682548874906 -9.879414781693044e-17 9.815389477023985e-17 -9.879414781693044e-17 9.815389477023985e-17 0.8830142316082702 -0.4693462120621257
12646909333.333334 0.8772778044474492 -0.47998297243097376 -9.757297335916727e-17 9.932982752473525e-17 -9.757297335916727e-17 9.932982752473525e-17 0.8772781378733683 -0.4799823630189394
12647526666.666666 0.8714135940444386 -0.4905490272280266 -9.633781709317086e-17 1.0049058241181977e-16 -9.633781709317086e-17 1.0049058241181977e-16 0.8714139347935708 -0.49054842191917825
12648144000.0 0.8654221306994319 -0.5010434469140029 -9.508886748063981e-17 1.0163599337622791e-16 -9.508886748063981e-17 1.0163599337622791e-16 0.8654224787213043 -0.5010428457963291
12648761333.333334 0.8593042893487799 -0.5114646989838078 -9.382631495311062e-17 1.0276589670060209e-16 -9.382631495311062e-17 1.0276589670060209e-16 0.8593046445918641 -0.5114641021446767
12649378666.666666 0.8530609633839077 -0.5218112616170036 -9.255035188296165e-17 1.0388013102885002e-16 -9.255035188296165e-17 1.0388013102885002e-16 0.8530613257956241 -0.5218106691431499
12649996000.0 0.8466930645207266 -0.532081623900234 -9.126117255416855e-17 1.049785373891151e-16 -9.126117255416855e-17 1.049785373891151e-16 0.8466934340474558 -0.5320810358777468
12650613333.333334 0.8402015226666472 -0.5422742860476206 -8.995897313276545e-17 1.060609592164068e-16 -8.995897313276545e-17 1.060609592164068e-16 0.8402018992537353 -0.5422737025619309
12651230666.666666 0.8335872857847398 -0.5523877596198519 -8.864395163708954e-17 1.071272423748215e-16 -8.864395163708954e-17 1.071272423748215e-16 0.8335876693765081 -0.5523871807557195
12651848000.0 0.8268513197551944 -0.5624205677417057 -8.731630790767208e-17 1.0817723517947126e-16 -8.731630790767208e-17 1.0817723517947126e-16 0.8268517102949449 -0.5624199935832069
12652465333.333334 0.8199946082344411 -0.572371245317456 -8.597624357697795e-17 1.0921078841795276e-16 -8.597624357697795e-17 1.0921078841795276e-16 0.8199950056644683 -0.5723706759479724
12653082666.666666 0.8130181525114818 -0.5822383392448732 -8.462396203881559e-17 1.1022775537150509e-16 -8.462396203881559e-17 1.1022775537150509e-16 0.813018556773079 -0.5822377747470785
12653700000.0 0.8059229713614554 -0.5920204086277202 -8.325966841751513e-17 1.112279918357729e-16 -8.325966841751513e-17 1.112279918357729e-16 0.8059233823949254 -0.5920198490835697
12654317333.333334 0.7987101008972145 -0.6017160249856843 -8.188356953688881e-17 1.1221135614117228e-16 -8.188356953688881e-17 1.1221135614117228e-16 0.7987105186418756 -0.6017154704764008
12654934666.666666 0.7913805944177349 -0.6113237724633671 -8.049587388892541e-17 1.131777091728904e-16 -8.049587388892541e-17 1.131777091728904e-16 0.7913810188119327 -0.6113232230694313
12655552000.0 0.7839355222543534 -0.6208422480369745 -7.909679160223134e-17 1.1412691439051374e-16 -7.909679160223134e-17 1.1412691439051374e-16 0.7839359532354673 -0.6208417038381114
12656169333.333334 0.7763759716146545 -0.6302700617189521 -7.768653441032156e-17 1.1505883784721005e-16 -7.768653441032156e-17 1.1505883784721005e-16 0.7763764091191084 -0.6302695227941205
12656786666.666666 0.7687030464235001 -0.6396058367612364 -7.626531561957251e-17 1.159733482085978e-16 -7.626531561957251e-17 1.159733482085978e-16 0.768703490386772 -0.6396053031886176
12657404000.0 0.7609178671618532 -0.648848209856256 -7.483335007705473e-17 1.1687031677115182e-16 -7.483335007705473e-17 1.1687031677115182e-16 0.7609183175184844 -0.6488476817132421
12658021333.333334 0.7530215707032448 -0.6579958313359051 -7.339085413807518e-17 1.1774961748026308e-16 -7.339085413807518e-17 1.1774961748026308e-16 0.7530220273868498 -0.6579953086990885
12658638666.666666 0.7450153101477045 -0.6670473653687052 -7.193804563358458e-17 1.1861112694784994e-16 -7.193804563358458e-17 1.1861112694784994e-16 0.7450157730909791 -0.6670468483138655
12659256000.0 0.7369002546533308 -0.6760014901549162 -7.047514383727862e-17 1.194547244696294e-16 -7.047514383727862e-17 1.194547244696294e-16 0.736900723788064 -0.6760009787570112
12659873333.333334 0.7286775892655778 -0.6848568981195392 -6.900236943259619e-17 1.202802920419257e-16 -6.900236943259619e-17 1.202802920419257e-16 0.7286780645226619 -0.6848563924526935
12660490666.666666 0.7203485147443579 -0.6936122961030946 -6.75199444794912e-17 1.2108771437809042e-16 -6.75199444794912e-17 1.2108771437809042e-16 0.7203489960537974 -0.693611796240589
12661108000.0 0.7119142473883461 -0.7022664055508397 -6.602809238094492e-17 1.2187687892455245e-16 -6.602809238094492e-17 1.2187687892455245e-16 0.711914734679267 -0.7022659115650984
12661725333.333334 0.7033760188577871 -0.7108179626990158 -6.452703784942326e-17 1.226476758763841e-16 -6.452703784942326e-17 1.226476758763841e-16 0.7033765120584524 -0.7108174746616013
12662342666.666666 0.6947350759942715 -0.7192657187597951 -6.30170068730323e-17 1.2339999819252045e-16 -6.30170068730323e-17 1.2339999819252045e-16 0.6947355750320845 -0.7192652367413905
12662960000.0 0.685992680638907 -0.7276084401033684 -6.149822668155348e-17 1.2413374161053332e-16 -6.149822668155348e-17 1.2413374161053332e-16 0.6859931854404284 -0.727607964173774
12663577333.333334 0.6771501094478765 -0.7358449084382793 -5.997092571232203e-17 1.2484880466098039e-16 -5.997092571232203e-17 1.2484880466098039e-16 0.6771506199388313 -0.735844438666398
12664194666.666666 0.6682086537061677 -0.743973920989171 -5.843533357589466e-17 1.2554508868135957e-16 -5.843533357589466e-17 1.2554508868135957e-16 0.6682091698114581 -0.7439734574430006
12664812000.0 0.6591696191388421 -0.751994290672585 -5.689168102159155e-17 1.2622249782962277e-16 -5.689168102159155e-17 1.2622249782962277e-16 0.659170140782557 -0.7519938334192068
12665429333.333334 0.6500343257204826 -0.7599048462701941 -5.5340199902876435e-17 1.2688093909727161e-16 -5.5340199902876435e-17 1.2688093909727161e-16 0.6500348528259104 -0.7599043953757648
12666046666.666666 0.640804107482485 -0.7677044325998037 -5.378112314259409e-17 1.2752032232202545e-16 -5.378112314259409e-17 1.2752032232202545e-16 0.6408046399721232 -0.7677039881295441
12666664000.0 0.6314803123179412 -0.7753919106842975 -5.22146846980011e-17 1.2814056020008823e-16 -5.22146846980011e-17 1.2814056020008823e-16 0.63148085011351 -0.7753914727024854
12667281333.333334 0.6220643017852663 -0.7829661579175821 -5.064111952578409e-17 1.2874156829793444e-16 -5.064111952578409e-17 1.2874156829793444e-16 0.6220648448077171 -0.78296572648754
12667898666.666666 0.6125574509089956 -0.7904260682288277 -4.906066354680551e-17 1.2932326506372236e-16 -4.906066354680551e-17 1.2932326506372236e-16 0.6125579990785254 -0.7904256434129165
12668516000.0 0.6029611479790545 -0.7977705522439341 -4.747355361079297e-17 1.2988557183824562e-16 -4.747355361079297e-17 1.2988557183824562e-16 0.602961701215116 -0.7977701341035421
12669133333.333334 0.5932767943482703 -0.8049985374444175 -4.588002746093827e-17 1.304284128654413e-16 -4.588002746093827e-17 1.304284128654413e-16 0.5932773525695846 -0.8049981260399525
12669750666.666666 0.5835058042274669 -0.8121089683242441 -4.428032369827092e-17 1.3095171530250244e-16 -4.428032369827092e-17 1.3095171530250244e-16 0.5835063673520346 -0.8121085637151243
12670368000.0 0.5736496044789636 -0.8191008065439436 -4.2674681746021766e-17 1.3145540922951803e-16 -4.2674681746021766e-17 1.3145540922951803e-16 0.5736501724240786 -0.81910040878859
