! Parameters = {f0=12700.012000; bw=77.238000; Q=6100.000000; N=10; m_0_1=1.342037; m_1_1=1.365810; m_1_2=1.176849; m_2_2=1.365161; m_2_3=0.813812; m_2_8=0.004166; m_2_9=0.040870; m_3_3=1.363224; m_3_4=0.702341; m_3_7=0.004766; m_3_8=-0.092322; m_3_9=0.004166; m_4_4=1.360299; m_4_5=0.538676; m_4_6=0.008283; m_4_7=-0.112871; m_4_8=0.004766; m_5_5=1.360681; m_5_6=0.946031; m_5_7=0.008283; m_6_6=1.360680; m_6_7=0.539018; m_7_7=1.360313; m_7_8=0.702459; m_8_8=1.363222; m_8_9=0.814125; m_9_9=1.365156; m_9_10=1.177927; m_10_10=1.365800; m_10_11=1.342832}
!
! Created with skrf (http://scikit-rf.org).
# Hz S RI R 50.0 
!freq ReS11 ImS11 ReS21 ImS21 ReS12 ImS12 ReS22 ImS22
12607400000.0 0.33602983023825495 0.9418513434666073 -9.05524656820622e-17 -1.2401069192643934e-16 -9.05524656820622e-17 -1.2401069192643934e-16 0.33602916441842934 0.9418515810147876
12608017333.333334 0.34791943827706556 0.9375244340649334 -9.210708526185866e-17 -1.2282285403423272e-16 -9.210708526185866e-17 -1.2282285403423272e-16 0.3479187755484882 0.9375246800061551
12608634666.666666 0.3597533496562746 0.9330474411362443 -9.364614403782454e-17 -1.2161554290988525e-16 -9.364614403782454e-17 -1.2161554290988525e-16 0.3597526901247304 0.9330476954303156
12609252000.0 0.37152966994511416 0.9284210813797142 -9.516939829076028e-17 -1.2038896214258183e-16 -9.516939829076028e-17 -1.2038896214258183e-16 0.3715290137158659 0.9284213439851106
12609869333.333334 0.3832465139323369 0.9236460954058727 -9.667660696193287e-17 -1.1914331836914475e-16 -9.667660696193287e-17 -1.1914331836914475e-16 0.38324586111010867 0.9236463662797437
12610486666.666666 0.39490200592774616 0.9187232476181522 -9.816753169106345e-17 -1.178788212393789e-16 -9.816753169106345e-17 -1.178788212393789e-16 0.3949013566167066 0.9187235267163283
12611104000.0 0.40649428006304456 0.9136533260902794 -9.96419368540797e-17 -1.1659568338076606e-16 -9.96419368540797e-17 -1.1659568338076606e-16 0.4064936343667893 0.9136536133672772
12611721333.333334 0.4180214805897957 0.9084371424404218 -1.0109958960013336e-16 -1.1529412036291757e-16 -1.0109958960013336e-16 -1.1529412036291757e-16 0.4180208386113322 0.9084374378494543
12612338666.666666 0.42948176217702644 0.9030755317010413 -1.0254025988842072e-16 -1.1397435066133936e-16 -1.0254025988842072e-16 -1.1397435066133936e-16 0.42948112401875743 0.9030758351940259
12612956000.0 0.44087329020663374 0.8975693521852114 -1.0396372052435916e-16 -1.1263659562088568e-16 -1.0396372052435916e-16 -1.1263659562088568e-16 0.44087265597033937 0.8975696637127736
12613573333.333334 0.4521942410666152 0.8919194853494297 -1.0536974719532962e-16 -1.1128107941872975e-16 -1.0536974719532962e-16 -1.1128107941872975e-16 0.45219361085343834 0.8919198048609146
12614190666.666666 0.46344280244351665 0.8861268356522685 -1.0675811850599336e-16 -1.0990802902683425e-16 -1.0675811850599336e-16 -1.0990802902683425e-16 0.4634421763539465 0.8861271630957488
12614808000.0 0.4746171736123005 0.8801923304097095 -1.0812861601302714e-16 -1.0851767417407391e-16 -1.0812861601302714e-16 -1.0851767417407391e-16 0.47461655174615597 0.8801926657319925
12615425333.333334 0.48571556572466357 0.8741169196466646 -1.0948102425946582e-16 -1.0711024730782767e-16 -1.0948102425946582e-16 -1.0711024730782767e-16 0.48571494818107824 0.8741172627933025
12616042666.666666 0.49673620209540736 0.867901575944896 -1.1081513080844803e-16 -1.0568598355524366e-16 -1.1081513080844803e-16 -1.0568598355524366e-16 0.49673558897281267 0.867901926860193
12616660000.0 0.5076773184868566 0.8615472942873176 -1.1213072627655649e-16 -1.0424512068398493e-16 -1.1213072627655649e-16 -1.0424512068398493e-16 0.5076767098829669 0.8615476529143402
12617277333.333334 0.5185371633913364 0.8550550918986849 -1.1342760436655886e-16 -1.0278789906265601e-16 -1.1342760436655886e-16 -1.0278789906265601e-16 0.5185365594031335 0.8550554581792712
12617894666.666666 0.5293139983113201 0.848426008082901 -1.1470556189969571e-16 -1.0131456162076042e-16 -1.1470556189969571e-16 -1.0131456162076042e-16 0.5293133990350364 0.848426381957668
12618512000.0 0.540006098038268 0.8416611040563108 -1.1596439884744827e-16 -9.982535380825677e-17 -1.1596439884744827e-16 -9.982535380825677e-17 0.5400055035693733 0.841661485464667
12619129333.333334 0.5506117509281312 0.8347614627782357 -1.172039183627259e-16 -9.832052355478813e-17 -1.172039183627259e-16 -9.832052355478813e-17 0.5506111613613166 0.8347618516583907
12619746666.666666 0.5611292591758451 0.8277281887773125 -1.1842392681060478e-16 -9.680032122843229e-17 -1.1842392681060478e-16 -9.680032122843229e-17 0.5611286746050065 0.8277285850662832
12620364000.0 0.5715569390871139 0.8205624079746605 -1.196242337984763e-16 -9.526499959413863e-17 -1.196242337984763e-16 -9.526499959413863e-17 0.5715563596053391 0.8205628116082856
12620981333.333334 0.5818931213475235 0.8132652675039306 -1.2080465220566442e-16 -9.371481377178639e-17 -1.2080465220566442e-16 -9.371481377178639e-17 0.5818925470470769 0.8132656784168799
12621598666.666666 0.5921361512902454 0.8058379355273484 -1.2196499821252197e-16 -9.215002119385011e-17 -1.2196499821252197e-16 -9.215002119385011e-17 0.5921355822625526 0.805838353653132
12622216000.0 0.6022843891606865 0.7982816010488664 -1.2310509132898474e-16 -9.05708815626988e-17 -1.2310509132898474e-16 -9.05708815626988e-17 0.6022838254963202 0.7982820263198469
12622833333.333334 0.6123362103790378 0.790597473723792 -1.2422475442252678e-16 -8.897765680760612e-17 -1.2422475442252678e-16 -8.897765680760612e-17 0.6123356521677034 0.7905979060711944
12623450666.666666 0.6222900058003443 0.7827867836651383 -1.2532381374560786e-16 -8.737061104135379e-17 -1.2532381374560786e-16 -8.737061104135379e-17 0.6222894531308647 0.7827872230190611
12624068000.0 0.6321441819720593 0.7748507812467375 -1.264020989625541e-16 -8.57500105165037e-17 -1.264020989625541e-16 -8.57500105165037e-17 0.6321436349323631 0.7748512275361656
12624685333.333334 0.6418971613893565 0.7667907369028985 -1.2745944317585516e-16 -8.41161235813688e-17 -1.2745944317585516e-16 -8.41161235813688e-17 0.6418966200664614 0.7667911900557131
12625302666.666666 0.6515473827471763 0.7586079409254207 -1.284956829518889e-16 -8.246922063566855e-17 -1.284956829518889e-16 -8.246922063566855e-17 0.651546847227177 0.7586084008684116
12625920000.0 0.6610933011908281 0.7503037032564995 -1.2951065834612172e-16 -8.080957408579653e-17 -1.2951065834612172e-16 -8.080957408579653e-17 0.6610927715588809 0.7503041699153754
12626537333.333334 0.6705333885626827 0.7418793532795279 -1.3050421292766643e-16 -7.913745829988147e-17 -1.3050421292766643e-16 -7.913745829988147e-17 0.6705328649029949 0.7418798265789317
12627154666.666666 0.6798661336470783 0.7333362396060747 -1.314761938033077e-16 -7.745314956247508e-17 -1.314761938033077e-16 -7.745314956247508e-17 0.6798656160428911 0.7333367194695922
12627772000.0 0.6890900424124857 0.7246757298597515 -1.324264516409428e-16 -7.575692602894538e-17 -1.324264516409428e-16 -7.575692602894538e-17 0.6890895309460646 0.7246762162099264
12628389333.333334 0.6982036382500987 0.7158992104578195 -1.3335484069239195e-16 -7.404906767965985e-17 -1.3335484069239195e-16 -7.404906767965985e-17 0.6982031330027176 0.7158997032161647
12629006666.666666 0.7072054622108387 0.7070080863886626 -1.342612188156829e-16 -7.232985627377735e-17 -1.342612188156829e-16 -7.232985627377735e-17 0.7072049632627683 0.7070085854756719
12629624000.0 0.7160940732384551 0.6980037809872974 -1.3514544749667354e-16 -7.059957530289027e-17 -1.3514544749667354e-16 -7.059957530289027e-17 0.7160935806689493 0.6980042863224596
12630241333.333334 0.7248680484004628 0.6888877357072838 -1.3600739187014473e-16 -6.885850994428243e-17 -1.3600739187014473e-16 -6.885850994428243e-17 0.7248675622877482 0.6888882472090961
12630858666.666666 0.7335259831156962 0.6796614098902152 -1.3684692074022734e-16 -6.710694701405407e-17 -1.3684692074022734e-16 -6.710694701405407e-17 0.7335255035369571 0.6796619274761952
12631476000.0 0.7420664913795899 0.6703262805316446 -1.3766390660028852e-16 -6.534517491987548e-17 -1.3766390660028852e-16 -6.534517491987548e-17 0.7420660184109571 0.670326804118344
12632093333.333334 0.7504882059855124 0.6608838420452204 -1.3845822565215494e-16 -6.357348361361785e-17 -1.3845822565215494e-16 -6.357348361361785e-17 0.7504877397020512 0.6608843715482385
12632710666.666666 0.7587897787440606 0.6513356060229957 -1.3922975782476458e-16 -6.1792164543674e-17 -1.3922975782476458e-16 -6.1792164543674e-17 0.7587893192197599 0.6513361413569934
12633328000.0 0.766969880698695 0.6416831009936546 -1.399783867922012e-16 -6.000151060706223e-17 -1.399783867922012e-16 -6.000151060706223e-17 0.7669694280064531 0.6416836420723673
12633945333.333334 0.7750272023385202 0.6319278721777748 -1.407039999911006e-16 -5.820181610134564e-17 -1.407039999911006e-16 -5.820181610134564e-17 0.7750267565501349 0.6319284189140264
12634562666.666666 0.782960453807919 0.6220714812404615 -1.4140648863743702e-16 -5.639337667635118e-17 -1.4140648863743702e-16 -5.639337667635118e-17 0.7829600149940764 0.6220720335461796
12635180000.0 0.7907683651130387 0.6121155060413476 -1.4208574774272228e-16 -5.4576489285608256e-17 -1.4208574774272228e-16 -5.4576489285608256e-17 0.7907679333433022 0.6121160638275769
12635797333.333334 0.7984496863251004 0.6020615403820048 -1.4274167612953731e-16 -5.275145213770683e-17 -1.4274167612953731e-16 -5.275145213770683e-17 0.7984492616678979 0.6020621035589209
12636414666.666666 0.8060031877804898 0.5919111937507965 -1.4337417644647452e-16 -5.091856464738257e-17 -1.4337417644647452e-16 -5.091856464738257e-17 0.8060027703031037 0.5919117622277207
12637032000.0 0.81342766027761 0.5816660910652248 -1.4398315518243498e-16 -4.907812738647382e-17 -1.4398315518243498e-16 -4.907812738647382e-17 0.8134272500461679 0.5816666647506393
12637649333.333334 0.820721915270455 0.5713278724118052 -1.4456852268031104e-16 -4.723044203466921e-17 -1.4456852268031104e-16 -4.723044203466921e-17 0.8207215123499186 0.5713284512133678
12638266666.666666 0.8278847850588817 0.5608981927835148 -1.4513019315002397e-16 -4.537581133013558e-17 -1.4513019315002397e-16 -4.537581133013558e-17 0.827884389513035 0.5608987766080732
12638884000.0 0.8349151229755366 0.5503787218148511 -1.4566808468092751e-16 -4.351453902000183e-17 -1.4566808468092751e-16 -4.351453902000183e-17 0.8349147348669765 0.5503793105684572
12639501333.333334 0.8418118035694507 0.5397711435145007 -1.4618211925360503e-16 -4.1646929810607803e-17 -1.4618211925360503e-16 -4.1646929810607803e-17 0.8418114229595793 0.5397717371024277
12640118666.666666 0.8485737227860293 0.529077155996045 -1.466722227509789e-16 -3.9773289317790627e-17 -1.466722227509789e-16 -3.9773289317790627e-17 0.8485733497350401 0.5290777543228001
12640736000.0 0.8551997981442734 0.5182984712053452 -1.471383249688552e-16 -3.7893924016785326e-17 -1.471383249688552e-16 -3.7893924016785326e-17 0.8551994327111458 0.5182990741746879
12641353333.333334 0.8616889689093484 0.5074368146476453 -1.4758035962574987e-16 -3.600914119229717e-17 -1.4758035962574987e-16 -3.600914119229717e-17 0.8616886111518353 0.5074374221626
12641970666.666666 0.8680401962630208 0.4964939251103278 -1.4799826437213057e-16 -3.41192488882537e-17 -1.4799826437213057e-16 -3.41192488882537e-17 0.8680398462376427 0.4964945370732024
12642588000.0 0.8742524634696609 0.48547155438504763 -1.4839198079900205e-16 -3.22245558575028e-17 -1.4839198079900205e-16 -3.22245558575028e-17 0.8742521212316925 0.4854721706974456
12643205333.333334 0.8803247760390335 0.47437146698724464 -1.4876145444583287e-16 -3.0325371511491594e-17 -1.4876145444583287e-16 -3.0325371511491594e-17 0.8803244416424998 0.47437208755008436
12643822666.666666 0.886256161885615 0.46319543987347556 -1.491066348078638e-16 -2.842200586973983e-17 -1.491066348078638e-16 -2.842200586973983e-17 0.8862558353832799 0.46319606458700435
12644440000.0 0.8920456714840701 0.4519452621571976 -1.4942747534275324e-16 -2.651476950931881e-17 -1.4942747534275324e-16 -2.651476950931881e-17 0.8920453529274284 0.45194589092100773
12645057333.333334 0.8976923780212613 0.4406227348223608 -1.4972393347658012e-16 -2.460397351425131e-17 -1.4972393347658012e-16 -2.460397351425131e-17 0.8976920674605309 0.44062336753540615
12645674666.666666 0.9031953775447478 0.4292296704348445 -1.4999597060920684e-16 -2.2689929424815052e-17 -1.4999597060920684e-16 -2.2689929424815052e-17 0.9031950750288612 0.4292303069954565
12646292000.0 0.9085537891073882 0.4177678928524949 -1.5024355211899424e-16 -2.0772949186783096e-17 -1.5024355211899424e-16 -2.0772949186783096e-17 0.9085534946839858 0.4177685331583991
12646909333.333334 0.9137667549083933 0.40623923693310193 -1.5046664736686054e-16 -1.885334510069533e-17 -1.5046664736686054e-16 -1.885334510069533e-17 0.9137664686238173 0.40623988088143514
12647526666.666666 0.918833440430652 0.39464554824066805 -1.506652296997015e-16 -1.69314297710152e-17 -1.506652296997015e-16 -1.69314297710152e-17 0.9188331623299337 0.3946461957279926
12648144000.0 0.9237530345743152 0.3829886827499582 -1.508392764531616e-16 -1.500751605526549e-17 -1.508392764531616e-16 -1.500751605526549e-17 0.9237527647011754 0.3829893336722815
12648761333.333334 0.9285247497866518 0.37127050654938953 -1.5098876895375334e-16 -1.3081917013177263e-17 -1.5098876895375334e-16 -1.3081917013177263e-17 0.9285244881834873 0.3712711608021783
12649378666.666666 0.9331478221881141 0.3594928955422958 -1.5111369252032755e-16 -1.1154945855825636e-17 -1.5111369252032755e-16 -1.1154945855825636e-17 0.9331475688959947 0.3594935530204943
12649996000.0 0.9376215116946305 0.347657735146626 -1.5121403646489972e-16 -9.226915894726814e-18 -1.5121403646489972e-16 -9.226915894726814e-18 0.9376212667532906 0.34765839574467183
12650613333.333334 0.9419451021360948 0.33576691999306135 -1.5128979409282751e-16 -7.298140490929894e-18 -1.5128979409282751e-16 -7.298140490929894e-18 0.94194486558393 0.3357675836049039
12651230666.666666 0.9461179013709252 0.3238223536219838 -1.5134096270233521e-16 -5.368933004206499e-18 -1.5134096270233521e-16 -5.368933004206499e-18 0.9461176732449837 0.32382302014110004
12651848000.0 0.950139241397051 0.3118259481782106 -1.513675435833966e-16 -3.4396067421314468e-18 -1.513675435833966e-16 -3.4396067421314468e-18 0.9501390217330282 0.3118266174976222
12652465333.333334 0.954008478458681 0.2997796241053709 -1.5136954201596625e-16 -1.5104749093208344e-18 -1.5136954201596625e-16 -1.5104749093208344e-18 0.9540082672909139 0.2997802961176619
12653082666.666666 0.957724993149362 0.28768530983847423 -1.5134696726756678e-16 4.1814944337943733e-19 -1.5134696726756678e-16 4.1814944337943733e-19 0.9577247905108255 0.2876859844358081
12653700000.0 0.9612881905113119 0.27554494149465486 -1.512998325902285e-16 2.3459534696603445e-18 -1.512998325902285e-16 2.3459534696603445e-18 0.9612879964336112 0.27554561856879184
12654317333.333334 0.9646975001304224 0.26336046256398804 -1.5122815521678497e-16 4.272624578377415e-18 -1.5122815521678497e-16 4.272624578377415e-18 0.9646973146437906 0.2633611420063026
12654934666.666666 0.9679523762277464 0.25113382359782466 -1.5113195635652242e-16 6.197850484237655e-18 -1.5113195635652242e-16 6.197850484237655e-18 0.9679521993610374 0.25113450529932263
12655552000.0 0.9710522977468542 0.2388669818965329 -1.510112611901864e-16 8.121319258331045e-18 -1.510112611901864e-16 8.121319258331045e-18 0.9710521295275396 0.2388676657478691
12656169333.333334 0.973996768437123 0.22656190119666103 -1.5086609886434794e-16 1.004271937859319e-17 -1.5086609886434794e-16 1.004271937859319e-17 0.9739966088912869 0.22656258708815669
12656786666.666666 0.9767853169333202 0.2142205513560215 -1.50696502485126e-16 1.19617397802166e-17 -1.50696502485126e-16 1.19617397802166e-17 0.9767851660856561 0.21422123917768204
12657404000.0 0.9794174968309911 0.20184490803862226 -1.5050250911126795e-16 1.3878069905976577e-17 -1.5050250911126795e-16 1.3878069905976577e-17 0.9794173547047987 0.20184559768015517
12658021333.333334 0.9818928867579476 0.1894369523982818 -1.5028415974659822e-16 1.5791399756378066e-17 -1.5028415974659822e-16 1.5791399756378066e-17 0.9818927533751272 0.18943764374911368
12658638666.666666 0.9842110904416678 0.17699867076175504 -1.5004149933182527e-16 1.770141993976108e-17 -1.5004149933182527e-16 1.770141993976108e-17 0.9842109658227182 0.17699936371104968
12659256000.0 0.986371736772842 0.1645320543101944 -1.4977457673570517e-16 1.960782172233033e-17 -1.4977457673570517e-16 1.960782172233033e-17 0.9863716209368575 0.16453274874687074
12659873333.333334 0.9883744798646731 0.15203909876094998 -1.4948344474559202e-16 2.151029707789665e-17 -1.4948344474559202e-16 2.151029707789665e-17 0.9883743728293402 0.15203979457369957
12660490666.666666 0.9902189991083032 0.1395218040478061 -1.491681600573369e-16 2.3408538737646366e-17 -1.491681600573369e-16 2.3408538737646366e-17 0.990218900889898 0.13952250112511108
12661108000.0 0.991904999224127 0.12698217400087802 -1.4882878326455937e-16 2.5302240239725286e-17 -1.4882878326455937e-16 2.5302240239725286e-17 0.991904909837512 0.12698287223102897
12661725333.333334 0.9934322103090595 0.11442221602582865 -1.4846537884730352e-16 2.7191095978604957e-17 -1.4846537884730352e-16 2.7191095978604957e-17 0.9934321297676824 0.1144229152969425
12662342666.666666 0.9948003878797457 0.10184394078251344 -1.4807801516005437e-16 2.9074801254366815e-17 -1.4807801516005437e-16 2.9074801254366815e-17 0.9948003161956371 0.10184464098255142
12662960000.0 0.996009312911699 0.08924936186310407 -1.476667644191318e-16 3.095305232181167e-17 -1.476667644191318e-16 3.095305232181167e-17 0.99600925009547 0.08925006287988957
12663577333.333334 0.9970587918743595 0.07664049546974237 -1.472317026894688e-16 3.28255464393614e-17 -1.472317026894688e-16 3.28255464393614e-17 0.9970587379352022 0.07664119719097912
12664194666.666666 0.9979486567620821 0.0640193600917773 -1.4677290987077266e-16 3.4691981917770427e-17 -1.4677290987077266e-16 3.4691981917770427e-17 0.9979486117077653 0.06402006240506708
12664812000.0 0.9986787651210264 0.05138797618263486 -1.4629046968305178e-16 3.655205816873133e-17 -1.4629046968305178e-16 3.655205816873133e-17 0.9986787289578958 0.051388678975495684
12665429333.333334 0.9992490000719634 0.03874836583631716 -1.4578446965155347e-16 3.840547575316562e-17 -1.4578446965155347e-16 3.840547575316562e-17 0.999248972804942 0.03874906899620124
12666046666.666666 0.9996592703289807 0.026102552463979946 -1.4525500109107227e-16 4.025193642939309e-17 -1.4525500109107227e-16 4.025193642939309e-17 0.9996592519615658 0.026103255878291674
12666664000.0 0.9999095102141108 0.013452560469389821 -1.4470215908964638e-16 4.2091143201087046e-17 -1.4470215908964638e-16 4.2091143201087046e-17 0.9999095007483748 0.01345326402550388
12667281333.333334 0.9999996796678242 0.0008004149256433152 -1.441260424916738e-16 4.392280036492736e-17 -1.441260424916738e-16 4.392280036492736e-17 0.9999996791044163 0.0008011185109226664
12667898666.666666 0.9999297642554628 -0.01185185874958501 -1.43526753880391e-16 4.5746613558139614e-17 -1.43526753880391e-16 4.5746613558139614e-17 0.9999297725936044 -0.011851155247771113
12668516000.0 0.9996997751695323 -0.024502235118281465 -1.4290439955977515e-16 4.756228980571605e-17 -1.4290439955977515e-16 4.756228980571605e-17 0.9996997924070223 -0.024501531812539442
12669133333.333334 0.9993097492279266 -0.03714868904582377 -1.4225908953585e-16 4.936953756740185e-17 -1.4225908953585e-16 4.936953756740185e-17 0.9993097753611383 -0.03714798604871767
12669750666.666666 0.9987597488680229 -0.04978919602574292 -1.415909374973862e-16 5.116806678446255e-17 -1.415909374973862e-16 5.116806678446255e-17 0.9987597838919056 -0.0497884934497764
12670368000.0 0.9980498621366849 -0.062421732503588595 -1.4090006079600852e-16 5.295758892620065e-17 -1.4090006079600852e-16 5.295758892620065e-17 0.9980499060447671 -0.06242103046118701
