! Parameters = {f0=12700.012000; bw=77.238000; Q=6100.000000; N=10; m_0_1=1.208503; m_1_1=-0.637193; m_1_2=1.043315; m_2_2=-0.637842; m_2_3=0.680278; m_2_8=-0.002511; m_2_9=0.034193; m_3_3=-0.639779; m_3_4=0.568807; m_3_7=-0.001911; m_3_8=-0.098999; m_3_9=-0.002511; m_4_4=-0.642704; m_4_5=0.405142; m_4_6=0.001606; m_4_7=-0.119548; m_4_8=-0.001911; m_5_5=-0.642322; m_5_6=0.812497; m_5_7=0.001606; m_6_6=-0.642323; m_6_7=0.405484; m_7_7=-0.642690; m_7_8=0.568925; m_8_8=-0.639781; m_8_9=0.680591; m_9_9=-0.637847; m_9_10=1.044393; m_10_10=-0.637203; m_10_11=1.209298}
!
! Created with skrf (http://scikit-rf.org).
# Hz S RI R 50.0 
!freq ReS11 ImS11 ReS21 ImS21 ReS12 ImS12 ReS22 ImS22
12607400000.0 0.9760680630672893 0.21746525299438102 -8.180800681452065e-17 5.636651990454695e-18 -8.180800681452065e-17 5.636651990454695e-18 0.9760679245811077 0.21746587457292993
12608017333.333334 0.9779240819688645 0.2089604984325849 -8.17392650809227e-17 6.354569813982624e-18 -8.17392650809227e-17 6.354569813982624e-18 0.977923948905187 0.20896112116258758
12608634666.666666 0.9797059980308439 0.20043990975409282 -8.166422846114288e-17 7.071714977200567e-18 -8.166422846114288e-17 7.071714977200567e-18 0.9797058703992223 0.20044053358825112
12609252000.0 0.9814136762274048 0.19190413261222716 -8.158290522288454e-17 7.788032331658862e-18 -8.158290522288454e-17 7.788032331658862e-18 0.9814135540369779 0.1919047575031638
12609869333.333334 0.9830469871581928 0.18335381381100238 -8.149530411658566e-17 8.503466814504058e-18 -8.149530411658566e-17 8.503466814504058e-18 0.9830468704176867 0.18335443971126472
12610486666.666666 0.9846058070580397 0.1747896012565593 -8.140143437455521e-17 9.217963452686992e-18 -8.140143437455521e-17 9.217963452686992e-18 0.984605695775766 0.17479022811862271
12611104000.0 0.9860900178064229 0.16621214390762198 -8.130130571006657e-17 9.931467367210781e-18 -8.130130571006657e-17 9.931467367210781e-18 0.9860899119902797 0.16621277168389384
12611721333.333334 0.9874995069363501 0.1576220917267151 -8.119492831642427e-17 1.064392377728904e-17 -8.119492831642427e-17 1.064392377728904e-17 0.9874994065938197 0.15762272036953803
12612338666.666666 0.9888341676429084 0.1490200956307439 -8.108231286598422e-17 1.1355278004573423e-17 -8.108231286598422e-17 1.1355278004573423e-17 0.9888340727810583 0.14902072509239958
12612956000.0 0.9900938987913849 0.14040680744150247 -8.096347050914121e-17 1.2065475477336875e-17 -8.096347050914121e-17 1.2065475477336875e-17 0.9900938094168662 0.14040743767421515
12613573333.333334 0.9912786049248681 0.13178287983667453 -8.083841287328336e-17 1.2774461734628732e-17 -8.083841287328336e-17 1.2774461734628732e-17 0.9912785210439157 0.13178351079261477
12614190666.666666 0.9923881962715493 0.1231489662999264 -8.07071520617032e-17 1.3482182430463257e-17 -8.07071520617032e-17 1.3482182430463257e-17 0.9923881178899817 0.12314959793121474
12614808000.0 0.9934225887514624 0.11450572107183972 -8.056970065247747e-17 1.418858333796318e-17 -8.056970065247747e-17 1.418858333796318e-17 0.9934225158746802 0.11450635333055009
12615425333.333334 0.9943817039829064 0.10585379909994105 -8.042607169730922e-17 1.489361035350625e-17 -8.042607169730922e-17 1.489361035350625e-17 0.9943816366158926 0.10585443193810452
12616042666.666666 0.9952654692883616 0.09719385598924181 -8.027627872033364e-17 1.5597209500855966e-17 -8.027627872033364e-17 1.5597209500855966e-17 0.9952654074356814 0.09719448935885026
12616660000.0 0.9960738176999804 0.0885265479527292 -8.012033571688654e-17 1.6299326935292364e-17 -8.012033571688654e-17 1.6299326935292364e-17 0.9960737613657804 0.08852718180573896
12617277333.333334 0.9968066879647026 0.07985253176124538 -7.995825715224021e-17 1.6999908947710412e-17 -7.995825715224021e-17 1.6999908947710412e-17 0.9968066371527119 0.07985316604958091
12617894666.666666 0.9974640245488542 0.07117246469417297 -7.979005796030245e-17 1.7698901968715557e-17 -7.979005796030245e-17 1.7698901968715557e-17 0.9974639792623824 0.07117309936973042
12618512000.0 0.998045777642393 0.06248700448917617 -7.961575354227346e-17 1.839625257273167e-17 -7.961575354227346e-17 1.839625257273167e-17 0.9980457378843316 0.06248763950382707
12619129333.333334 0.9985519031626545 0.053796809292756945 -7.943535976528065e-17 1.909190748204212e-17 -7.943535976528065e-17 1.909190748204212e-17 0.998551868935474 0.05379744459835175
12619746666.666666 0.9989823627577014 0.045102537610213385 -7.924889296096388e-17 1.9785813570871843e-17 -7.924889296096388e-17 1.9785813570871843e-17 0.998982334063454 0.04510317315858531
12620364000.0 0.9993371238092429 0.03640484825557096 -7.905636992403187e-17 2.0477917869433707e-17 -7.905636992403187e-17 2.0477917869433707e-17 0.9993371006495617 0.036405483998539497
12620981333.333334 0.9996161594350821 0.02770440030205763 -7.88578079107881e-17 2.1168167567940908e-17 -7.88578079107881e-17 2.1168167567940908e-17 0.9996161418111812 0.027705036191432292
12621598666.666666 0.9998194484911773 0.019001853031708017 -7.865322463761095e-17 2.1856510020648214e-17 -7.865322463761095e-17 2.1856510020648214e-17 0.9998194364038496 0.019002489019291875
12622216000.0 0.9999469755732232 0.010297865885860137 -7.844263827940751e-17 2.2542892749842826e-17 -7.844263827940751e-17 2.2542892749842826e-17 0.9999469690228442 0.010298501923453588
12622833333.333334 0.9999987310178357 0.0015930984147313997 -7.822606746802621e-17 2.3227263449847852e-17 -7.822606746802621e-17 2.3227263449847852e-17 0.9999987300043587 0.0015937344541357232
12623450666.666666 0.9999747109032703 -0.007111789772104707 -7.80035312906444e-17 2.3909569990974994e-17 -7.80035312906444e-17 2.3909569990974994e-17 0.9999747154262302 -0.007111153779083622
12624068000.0 0.9998749170497273 -0.015816139056098747 -7.777504928810922e-17 2.4589760423504577e-17 -7.777504928810922e-17 2.4589760423504577e-17 0.9998749271082414 -0.015815503157646807
12624685333.333334 0.9996993570192114 -0.024519289859537878 -7.754064145324966e-17 2.5267782981629837e-17 -7.754064145324966e-17 2.5267782981629837e-17 0.9996993726119753 -0.024518654103829085
12625302666.666666 0.9994480441149617 -0.03322058269535531 -7.730032822916205e-17 2.594358608736373e-17 -7.730032822916205e-17 2.594358608736373e-17 0.9994480652402522 -0.03321994713054814
12625920000.0 0.999120997380434 -0.04191935821750106 -7.70541305074425e-17 2.6617118354484413e-17 -7.70541305074425e-17 2.6617118354484413e-17 0.9991210240361105 -0.04191872289173487
12626537333.333334 0.9987182415978723 -0.050614957270506786 -7.680206962640794e-17 2.7288328592400984e-17 -7.680206962640794e-17 2.7288328592400984e-17 0.9987182737813731 -0.050614322231898025
12627154666.666666 0.998239807286422 -0.05930672093960398 -7.654416736926755e-17 2.795716581004631e-17 -7.654416736926755e-17 2.795716581004631e-17 0.9982398449947685 -0.05930608623624271
12627772000.0 0.9976857306998113 -0.0679939906008241 -7.628044596226099e-17 2.862357921975047e-17 -7.628044596226099e-17 2.862357921975047e-17 0.9976857739296058 -0.06799335628077026
12628389333.333334 0.9970560538236227 -0.0766761079705088 -7.601092807277584e-17 2.9287518241064767e-17 -7.601092807277584e-17 2.9287518241064767e-17 0.9970561025710507 -0.07667547408178861
12629006666.666666 0.9963508243720884 -0.08535241515564598 -7.573563680741545e-17 2.994893250460896e-17 -7.573563680741545e-17 2.994893250460896e-17 0.9963508786329145 -0.08535178174624809
12629624000.0 0.9955700957844981 -0.09402225470326778 -7.545459571004758e-17 3.060777185586658e-17 -7.545459571004758e-17 3.060777185586658e-17 0.9955701555540741 -0.09402162182114018
12630241333.333334 0.9947139272211236 -0.10268496965072366 -7.516782875980938e-17 3.126398635898762e-17 -7.516782875980938e-17 3.126398635898762e-17 0.9947139924943809 -0.10268433734376943
12630858666.666666 0.9937823835587697 -0.11133990357500868 -7.48753603690895e-17 3.1917526300549564e-17 -7.48753603690895e-17 3.1917526300549564e-17 0.9937824543302238 -0.11133927189108267
12631476000.0 0.9927755353858141 -0.11998640064295697 -7.457721538146162e-17 3.256834219333569e-17 -7.457721538146162e-17 3.256834219333569e-17 0.9927756116495664 -0.11998576962986228
12632093333.333334 0.9916934589969019 -0.1286238056605422 -7.427341906960837e-17 3.321638478004383e-17 -7.427341906960837e-17 3.321638478004383e-17 0.9916935407466368 -0.1286231753660264
12632710666.666666 0.9905362363871488 -0.13725146412269568 -7.396399713319446e-17 3.386160503701578e-17 -7.396399713319446e-17 3.386160503701578e-17 0.9905363236161349 -0.13725083459444706
12633328000.0 0.9893039552459074 -0.14586872226301328 -7.364897569670977e-17 3.450395417794318e-17 -7.364897569670977e-17 3.450395417794318e-17 0.9893040479470006 -0.1458680935486577
12633945333.333334 0.9879967089501392 -0.15447492710318322 -7.332838130728906e-17 3.5143383657534535e-17 -7.332838130728906e-17 3.5143383657534535e-17 0.9879968071157802 -0.15447429925028
12634562666.666666 0.9866145965573655 -0.1630694265022969 -7.300224093249613e-17 3.5779845175170776e-17 -7.300224093249613e-17 3.5779845175170776e-17 0.9866147001795813 -0.1630687995583353
12635180000.0 0.9851577227980973 -0.17165156920665842 -7.267058195807224e-17 3.641329067854857e-17 -7.267058195807224e-17 3.641329067854857e-17 0.9851578318685034 -0.17165094321905452
12635797333.333334 0.9836261980679656 -0.18022070489874117 -7.233343218565629e-17 3.704367236729706e-17 -7.233343218565629e-17 3.704367236729706e-17 0.9836263125777656 -0.18022007991483388
12636414666.666666 0.9820201384193303 -0.18877618424663492 -7.199081983047791e-17 3.7670942696565353e-17 -7.199081983047791e-17 3.7670942696565353e-17 0.9820202583593155 -0.1887755603136823
12637032000.0 0.9803396655524499 -0.19731735895341568 -7.164277351900843e-17 3.8295054380609224e-17 -7.164277351900843e-17 3.8295054380609224e-17 0.980339790913001 -0.1973167361185916
12637649333.333334 0.978584906806336 -0.20584358180588094 -7.128932228659265e-17 3.8915960396336315e-17 -7.128932228659265e-17 3.8915960396336315e-17 0.9785850375774261 -0.2058429601162717
12638266666.666666 0.9767559951490182 -0.21435420672403857 -7.093049557504353e-17 3.9533613986839464e-17 -7.093049557504353e-17 3.9533613986839464e-17 0.9767561313202083 -0.21435358622663872
12638884000.0 0.9748530691675552 -0.22284858880961808 -7.05663232302092e-17 4.014796866490427e-17 -7.05663232302092e-17 4.014796866490427e-17 0.9748532107280006 -0.22284796955132746
12639501333.333334 0.9728762730574427 -0.23132608439538338 -7.019683549950303e-17 4.0758978216506535e-17 -7.019683549950303e-17 4.0758978216506535e-17 0.9728764199958908 -0.23132546642300356
12640118666.666666 0.9708257566117975 -0.23978605109340825 -6.982206302942271e-17 4.136659670425306e-17 -6.982206302942271e-17 4.136659670425306e-17 0.9708259089165888 -0.23978543445363845
12640736000.0 0.9687016752098361 -0.24822784784447202 -6.944203686300219e-17 4.1970778470863377e-17 -6.944203686300219e-17 4.1970778470863377e-17 0.9687018328689051 -0.24822723258390586
12641353333.333334 0.9665041898053413 -0.2566508349656421 -6.905678843728783e-17 4.25714781425397e-17 -6.905678843728783e-17 4.25714781425397e-17 0.9665043528062203 -0.2566502211307647
12641970666.666666 0.9642334669142242 -0.26505437419974054 -6.866634958072925e-17 4.316865063240404e-17 -6.866634958072925e-17 4.316865063240404e-17 0.9642336352440402 -0.26505376183692403
12642588000.0 0.9618896786020844 -0.2734378287629912 -6.827075251057878e-17 4.376225114385093e-17 -6.827075251057878e-17 4.376225114385093e-17 0.9618898522475622 -0.2734372179184917
12643205333.333334 0.9594730024710573 -0.28180056339371273 -6.78700298302488e-17 4.43522351738982e-17 -6.78700298302488e-17 4.43522351738982e-17 0.9594731814185202 -0.2817999541136669
12643822666.666666 0.9569836216463997 -0.2901419444002906 -6.746421452663564e-17 4.4938558516519165e-17 -6.746421452663564e-17 4.4938558516519165e-17 0.9569838058817697 -0.29014133673071163
12644440000.0 0.9544217247626433 -0.29846133970908656 -6.705333996742833e-17 4.55211772659316e-17 -6.705333996742833e-17 4.55211772659316e-17 0.9544219142714448 -0.2984607336958617
12645057333.333334 0.9517875059492561 -0.3067581189124982 -6.663743989837466e-17 4.610004781988325e-17 -6.663743989837466e-17 4.610004781988325e-17 0.9517877007166159 -0.3067575146013849
12645674666.666666 0.9490811648159696 -0.3150316533166217 -6.62165484405334e-17 4.667512688289168e-17 -6.62165484405334e-17 4.667512688289168e-17 0.9490813648266143 -0.31503105075324284
12646292000.0 0.9463029064375709 -0.32328131598910365 -6.579070008747589e-17 4.724637146949101e-17 -6.579070008747589e-17 4.724637146949101e-17 0.9463031116758346 -0.3232807152189465
12646909333.333334 0.9434529413384999 -0.3315064818062735 -6.53599297024938e-17 4.781373890740703e-17 -6.53599297024938e-17 4.781373890740703e-17 0.9434531517883212 -0.3315058828746846
12647526666.666666 0.940531485476765 -0.33970652750088837 -6.49242725157467e-17 4.837718684075115e-17 -6.49242725157467e-17 4.837718684075115e-17 0.9405317011216874 -0.33970593045306985
12648144000.0 0.9375387602276478 -0.34788083170914436 -6.44837641213973e-17 4.8936673233168387e-17 -6.44837641213973e-17 4.8936673233168387e-17 0.9375389810508258 -0.34788023659015244
12648761333.333334 0.9344749923668981 -0.35602877501787134 -6.403844047472409e-17 4.949215637095401e-17 -6.403844047472409e-17 4.949215637095401e-17 0.9344752183510935 -0.35602818187261076
12649378666.666666 0.9313404140536047 -0.3641497400113072 -6.358833788920189e-17 5.004359486615161e-17 -6.358833788920189e-17 5.004359486615161e-17 0.9313406451811895 -0.3641491488845288
12649996000.0 0.9281352628125623 -0.3722431113179898 -6.313349303354937e-17 5.059094765963141e-17 -6.313349303354937e-17 5.059094765963141e-17 0.9281354990655228 -0.3722425222542879
12650613333.333334 0.924859781516217 -0.38030827565754755 -6.267394292875524e-17 5.1134174024137033e-17 -6.267394292875524e-17 5.1134174024137033e-17 0.9248600228761509 -0.38030768870135495
12651230666.666666 0.921514218366402 -0.3883446218867988 -6.220972494509419e-17 5.1673233567285714e-17 -6.220972494509419e-17 5.1673233567285714e-17 0.9215144648145226 -0.3883440370823847
12651848000.0 0.918098826875363 -0.3963515410464845 -6.174087679908174e-17 5.220808623458392e-17 -6.174087679908174e-17 5.220808623458392e-17 0.9180990783925005 -0.396350958437951
12652465333.333334 0.9146138658466991 -0.4043284264070447 -6.126743655043887e-17 5.273869231237342e-17 -6.126743655043887e-17 5.273869231237342e-17 0.9146141224133004 -0.40432784603832256
12653082666.666666 0.9110595993556879 -0.4122746735147514 -6.078944259901709e-17 5.3265012430767625e-17 -6.078944259901709e-17 5.3265012430767625e-17 0.9110598609518192 -0.4122740954295976
12653700000.0 0.907436296729203 -0.42018968023766645 -6.030693368168244e-17 5.3787007566577214e-17 -6.030693368168244e-17 5.3787007566577214e-17 0.9074365633345516 -0.4201891044796606
12654317333.333334 0.9037442325254689 -0.4280728468109057 -5.981994886921176e-17 5.43046390461667e-17 -5.981994886921176e-17 5.43046390461667e-17 0.9037445041193458 -0.4280722734234476
12654934666.666666 0.899983686513094 -0.43592357588244984 -5.932852756312741e-17 5.4817868548323856e-17 -5.932852756312741e-17 5.4817868548323856e-17 0.8999839630744333 -0.4359230049087548
12655552000.0 0.8961549436499386 -0.44374127255825213 -5.883270949252459e-17 5.5326658107082086e-17 -5.883270949252459e-17 5.5326658107082086e-17 0.8961552251572992 -0.44374070404134813
12656169333.333334 0.8922582940615971 -0.4515253444471647 -5.833253471088099e-17 5.583097011450762e-17 -5.833253471088099e-17 5.583097011450762e-17 0.8922585804931664 -0.45152477842988986
12656786666.666666 0.8882940330192389 -0.45927520170618386 -5.782804359282819e-17 5.633076732347274e-17 -5.782804359282819e-17 5.633076732347274e-17 0.8882943243528336 -0.4592746382311828
12657404000.0 0.8842624609174409 -0.4669902570847417 -5.731927683090796e-17 5.682601285039223e-17 -5.731927683090796e-17 5.682601285039223e-17 0.8842627571305068 -0.4669896961944614
12658021333.333334 0.8801638832512105 -0.4746699259696058 -5.680627543230126e-17 5.73166701779333e-17 -5.680627543230126e-17 5.73166701779333e-17 0.8801641843208275 -0.47466936770629414
12658638666.666666 0.8759986105930545 -0.48231362642877995 -5.628908071554506e-17 5.780270315768737e-17 -5.628908071554506e-17 5.780270315768737e-17 0.8759989164959361 -0.4823130708344814
12659256000.0 0.8717669585692248 -0.48992077925599814 -5.576773430720036e-17 5.828407601283498e-17 -5.576773430720036e-17 5.828407601283498e-17 0.8717672692817213 -0.48992022637255106
12659873333.333334 0.867469247835998 -0.4974908080142679 -5.524227813853055e-17 5.87607533407523e-17 -5.524227813853055e-17 5.87607533407523e-17 0.8674695633340964 -0.4974902578833008
12660490666.666666 0.8631058040552904 -0.5050231390796978 -5.4712754442141674e-17 5.923270011560088e-17 -5.4712754442141674e-17 5.923270011560088e-17 0.8631061243146182 -0.5050225917426265
12661108000.0 0.8586769578698988 -0.512517201685112 -5.417920574858565e-17 5.969988169090142e-17 -5.417920574858565e-17 5.969988169090142e-17 0.8586772828657248 -0.5125166571831369
12661725333.333334 0.8541830448786429 -0.5199724279629565 -5.364167488297438e-17 6.016226380204838e-17 -5.364167488297438e-17 6.016226380204838e-17 0.8541833745858798 -0.5199718863370593
12662342666.666666 0.8496244056107061 -0.5273882529887219 -5.310020496154634e-17 6.061981256881639e-17 -5.310020496154634e-17 6.061981256881639e-17 0.8496247400039117 -0.5273877142796621
12662960000.0 0.845001385500065 -0.534764114823361 -5.2554839388222673e-17 6.10724944978273e-17 -5.2554839388222673e-17 6.10724944978273e-17 0.8450017245534446 -0.534763579071673
12663577333.333334 0.8403143348591062 -0.5420994545562086 -5.2005621851140636e-17 6.152027648498805e-17 -5.2005621851140636e-17 6.152027648498805e-17 0.8403146785465154 -0.5420989218021992
12664194666.666666 0.8355636088521725 -0.5493937163471897 -5.145259631916625e-17 6.196312581789693e-17 -5.145259631916625e-17 6.196312581789693e-17 0.8355639571471165 -0.5493931866309342
12664812000.0 0.8307495674687374 -0.5566463474687928 -5.08958070383867e-17 6.240101017821908e-17 -5.08958070383867e-17 6.240101017821908e-17 0.8307499203443767 -0.556645820830133
12665429333.333334 0.8258725754959156 -0.5638567983482895 -5.0335298528580984e-17 6.283389764403193e-17 -5.0335298528580984e-17 6.283389764403193e-17 0.825872932925066 -0.56385627482683
12666046666.666666 0.8209330024910714 -0.5710245226089998 -4.97711155796816e-17 6.326175669213069e-17 -4.97711155796816e-17 6.326175669213069e-17 0.820933364446205 -0.5710240022441045
12666664000.0 0.8159312227535549 -0.5781489771120673 -4.920330324818749e-17 6.368455620032424e-17 -4.920330324818749e-17 6.368455620032424e-17 0.8159315892068052 -0.5781484599428578
12667281333.333334 0.8108676152965716 -0.5852296219972914 -4.863190685360559e-17 6.410226544966364e-17 -4.863190685360559e-17 6.410226544966364e-17 0.810867986219733 -0.5852291080626432
12667898666.666666 0.8057425638183614 -0.5922659207241748 -4.805697197481994e-17 6.451485412667782e-17 -4.805697197481994e-17 6.451485412667782e-17 0.8057429391828924 -0.5922654100627143
12668516000.0 0.8005564566730261 -0.5992573401127188 -4.747854444647913e-17 6.492229232555013e-17 -4.747854444647913e-17 6.492229232555013e-17 0.8005568364500515 -0.5992568327628205
12669133333.333334 0.7953096868413324 -0.6062033503835018 -4.689667035536354e-17 6.532455055026406e-17 -4.689667035536354e-17 6.532455055026406e-17 0.7953100710016462 -0.6062028463832863
12669750666.666666 0.7900026519006672 -0.6131034251981926 -4.631139603670868e-17 6.57215997167351e-17 -4.631139603670868e-17 6.57215997167351e-17 0.7900030404147327 -0.6131029245855216
12670368000.0 0.7846357539951441 -0.61995704169911 -4.572276807053464e-17 6.611341115489227e-17 -4.572276807053464e-17 6.611341115489227e-17 0.7846361468330998 -0.6199565445115871
