! Parameters = {f0=12700.012000; bw=77.238000; Q=6100.000000; N=10; m_0_1=1.283979; m_1_1=0.494939; m_1_2=1.118791; m_2_2=0.494290; m_2_3=0.755754; m_2_8=0.001263; m_2_9=0.037967; m_3_3=0.492353; m_3_4=0.644283; m_3_7=0.001863; m_3_8=-0.095225; m_3_9=0.001263; m_4_4=0.489428; m_4_5=0.480618; m_4_6=0.005380; m_4_7=-0.115774; m_4_8=0.001863; m_5_5=0.489810; m_5_6=0.887973; m_5_7=0.005380; m_6_6=0.489809; m_6_7=0.480960; m_7_7=0.489442; m_7_8=0.644401; m_8_8=0.492351; m_8_9=0.756067; m_9_9=0.494285; m_9_10=1.119869; m_10_10=0.494929; m_10_11=1.284774}
!
! Created with skrf (http://scikit-rf.org).
# Hz S RI R 50.0 
!freq ReS11 ImS11 ReS21 ImS21 ReS12 ImS12 ReS22 ImS22
12607400000.0 0.17390437146674184 -0.9847625447713663 1.3340541215082506e-17 1.1732878282025822e-16 1.3340541215082506e-17 1.1732878282025822e-16 0.17390503761000548 -0.9847624271334088
12608017333.333334 0.16312462414125367 -0.9866054718065338 1.4630375683457323e-17 1.171516317957457e-16 1.4630375683457323e-17 1.171516317957457e-16 0.16312529149849403 -0.9866053614659468
12608634666.666666 0.15232536722222637 -0.988330401485472 1.591792670342411e-17 1.1696031013620847e-16 1.591792670342411e-17 1.1696031013620847e-16 0.15232603571351266 -0.9883302984547346
12609252000.0 0.14150789229353442 -0.989937127507834 1.720303868957163e-17 1.167548466429041e-16 1.720303868957163e-17 1.167548466429041e-16 0.14150856183880864 -0.9899370317985541
12609869333.333334 0.13067349311796933 -0.9914254577103456 1.8485556413796775e-17 1.1653527182423552e-16 1.8485556413796775e-17 1.1653527182423552e-16 0.13067416363705503 -0.9914253693332521
12610486666.666666 0.11982346548253389 -0.992795214089782 1.9765325024004195e-17 1.1630161789137975e-16 1.9765325024004195e-17 1.1630161789137975e-16 0.11982413689514607 -0.9927951330547271
12611104000.0 0.10895910704318569 -0.9940462328242948 2.104219006282228e-17 1.1605391875369876e-16 2.104219006282228e-17 1.1605391875369876e-16 0.10895977926894022 -0.9940461591402501
12611721333.333334 0.09808171717006088 -0.9951783642929508 2.231599748614828e-17 1.1579221001396663e-16 2.231599748614828e-17 1.1579221001396663e-16 0.09808239012848438 -0.9951782979680093
12612338666.666666 0.08719259679167543 -0.996191473093674 2.358659368174492e-17 1.155165289633732e-16 2.358659368174492e-17 1.155165289633732e-16 0.08719327040221478 -0.9961914141350474
12612956000.0 0.07629304823950425 -0.9970854380594193 2.485382548774409e-17 1.1522691457633006e-16 2.485382548774409e-17 1.1522691457633006e-16 0.07629372242153618 -0.9970853864734379
12613573333.333334 0.06538437509236489 -0.9978601522726522 2.6117540211029665e-17 1.1492340750508646e-16 2.6117540211029665e-17 1.1492340750508646e-16 0.06538504976520564 -0.9978601080647633
12614190666.666666 0.05446788202025541 -0.9985155230781574 2.7377585645651267e-17 1.1460605007412418e-16 2.7377585645651267e-17 1.1460605007412418e-16 0.054468557103170556 -0.9985154862529267
12614808000.0 0.043544874628487024 -0.9990514720941099 2.863381009110605e-17 1.142748862743645e-16 2.863381009110605e-17 1.142748862743645e-16 0.04354555004070084 -0.9990514426552181
12615425333.333334 0.032616659301392376 -0.9994679352214544 2.9886062370571737e-17 1.1392996175717176e-16 2.9886062370571737e-17 1.1392996175717176e-16 0.03261733496209774 -0.9994679131716987
12616042666.666666 0.021684543046253238 -0.9997648626515608 3.113419184908158e-17 1.1357132382815326e-16 3.113419184908158e-17 1.1357132382815326e-16 0.021685218874621243 -0.9997648479928564
12616660000.0 0.010749833336869961 -0.9999422188721951 3.237804845159435e-17 1.1319902144076989e-16 3.237804845159435e-17 1.1319902144076989e-16 0.010750509252059524 -0.9999422116055712
12617277333.333334 -0.00018616204281178463 -0.999999982671757 3.3617482681024443e-17 1.128131051897388e-16 3.3617482681024443e-17 1.128131051897388e-16 -0.00018548612164420405 -0.9999999827973589
12617894666.666666 -0.011122135154940448 -0.9999381471418194 3.4852345636156544e-17 1.1241362730425141e-16 3.4852345636156544e-17 1.1241362730425141e-16 -0.011121459308631202 -0.9999381546589101
12618512000.0 -0.022056778064613435 -0.9997567196779569 3.608248902955081e-17 1.1200064164097276e-16 3.608248902955081e-17 1.1200064164097276e-16 -0.022056102373982003 -0.999756734584913
12619129333.333334 -0.032988782995736814 -0.9994557219788577 3.73077652052551e-17 1.115742036768816e-16 3.73077652052551e-17 1.115742036768816e-16 -0.03298810754157618 -0.9994557442731746
12619746666.666666 -0.04391684248783246 -0.9990351900437336 3.85280271565419e-17 1.1113437050188245e-16 3.85280271565419e-17 1.1113437050188245e-16 -0.043916167350899364 -0.9990352197220211
12620364000.0 -0.05483964955238069 -0.9984951741680033 3.9743128543508253e-17 1.106812008112394e-16 3.9743128543508253e-17 1.106812008112394e-16 -0.05483897481338614 -0.9984952112259908
12620981333.333334 -0.06575589782885169 -0.9978357389372968 4.095292371057875e-17 1.1021475489782334e-16 4.095292371057875e-17 1.1021475489782334e-16 -0.06575522356845112 -0.9978357833698304
12621598666.666666 -0.07666428174134239 -0.9970569632197072 4.215726770394642e-17 1.0973509464415607e-16 4.215726770394642e-17 1.0973509464415607e-16 -0.07666360804012609 -0.9970570150207508
12622216000.0 -0.08756349665441036 -0.9961589401563747 4.3356016288906465e-17 1.0924228351427209e-16 4.3356016288906465e-17 1.0924228351427209e-16 -0.087562823592894 -0.9961589993190139
12622833333.333334 -0.0984522390292779 -0.9951417771503424 4.4549025967101636e-17 1.0873638654538779e-16 4.4549025967101636e-17 1.0873638654538779e-16 -0.09845156668789261 -0.9951418436667805
12623450666.666666 -0.10932920657959226 -0.994005595853714 4.5736153993652923e-17 1.082174703393905e-16 4.5736153993652923e-17 1.082174703393905e-16 -0.10932853503867526 -0.9940056697152773
12624068000.0 -0.12019309842729192 -0.9927505321531024 4.6917258394235503e-17 1.0768560305412379e-16 4.6917258394235503e-17 1.0768560305412379e-16 -0.12019242776707682 -0.9927506133502391
12624685333.333334 -0.13104261525833139 -0.9913767361533539 4.809219798201053e-17 1.0714085439450307e-16 4.809219798201053e-17 1.0714085439450307e-16 -0.13104194555893875 -0.9913768246756365
12625302666.666666 -0.1418764594776272 -0.9898843721596547 4.926083237444986e-17 1.0658329560345298e-16 4.926083237444986e-17 1.0658329560345298e-16 -0.14187579081905471 -0.9898844679957797
12625920000.0 -0.15269333536478458 -0.9882736186578076 5.042302201013142e-17 1.0601299945262415e-16 5.042302201013142e-17 1.0601299945262415e-16 -0.15269266782689764 -0.9882737217955986
12626537333.333334 -0.1634919492286428 -0.9865446682929461 5.1578628165313626e-17 1.0543004023298256e-16 5.1578628165313626e-17 1.0543004023298256e-16 -0.16349128289116505 -0.9865447787193548
12627154666.666666 -0.17427100956214064 -0.9846977278464759 5.2727512970492316e-17 1.0483449374517536e-16 5.2727512970492316e-17 1.0483449374517536e-16 -0.17427034450464438 -0.9846978455475833
12627772000.0 -0.18502922719705975 -0.9827330182112938 5.3869539426831653e-17 1.0422643728972313e-16 5.3869539426831653e-17 1.0422643728972313e-16 -0.18502856349895624 -0.9827331431723122
12628389333.333334 -0.19576531545764794 -0.9806507743654657 5.5004571422424037e-17 1.0360594965706502e-16 5.5004571422424037e-17 1.0360594965706502e-16 -0.19576465319817846 -0.9806509065707414
12629006666.666666 -0.20647799031503697 -0.9784512453440307 5.613247374853596e-17 1.0297311111737368e-16 5.613247374853596e-17 1.0297311111737368e-16 -0.20647732957326254 -0.9784513847770434
12629624000.0 -0.21716597054044734 -0.9761346942092805 5.725311211563218e-17 1.0232800341025132e-16 5.725311211563218e-17 1.0232800341025132e-16 -0.21716531139524028 -0.9761348408526498
12630241333.333334 -0.2278279778587021 -0.9737013980192462 5.836635316936102e-17 1.0167070973420816e-16 5.836635316936102e-17 1.0167070973420816e-16 -0.22782732038873577 -0.9737015518547294
12630858666.666666 -0.23846273710077392 -0.9711516477946314 5.947206450636745e-17 1.0100131473599732e-16 5.947206450636745e-17 1.0100131473599732e-16 -0.23846208138451355 -0.971151808803127
12631476000.0 -0.24906897635670958 -0.9684857484839109 6.057011469005056e-17 1.0031990449973893e-16 6.057011469005056e-17 1.0031990449973893e-16 -0.24906832247240324 -0.9684859166454629
12632093333.333334 -0.25964542712736316 -0.965704018926953 6.166037326610022e-17 9.9626566535932e-17 6.166037326610022e-17 9.9626566535932e-17 -0.25964477515303225 -0.9657041942207516
12632710666.666666 -0.2701908244762738 -0.9628067918168483 6.274271077799113e-17 9.892138977024783e-17 6.274271077799113e-17 9.892138977024783e-17 -0.27019017448970345 -0.9628069742212322
12633328000.0 -0.28070390718106003 -0.9597944136600858 6.381699878233227e-17 9.820446453216535e-17 6.381699878233227e-17 9.820446453216535e-17 -0.28070325925979006 -0.9597946031525455
12633945333.333334 -0.291183417884124 -0.956667244735149 6.48831098640478e-17 9.74758825434658e-17 6.48831098640478e-17 9.74758825434658e-17 -0.2911827721054397 -0.9566674412923294
12634562666.666666 -0.3016281032430033 -0.9534256590494345 6.594091765148084e-17 9.673573690652886e-17 6.594091765148084e-17 9.673573690652886e-17 -0.30162745968392646 -0.9534258626471395
12635180000.0 -0.3120367140803533 -0.950070044294502 6.699029683131959e-17 9.59841220924942e-17 6.699029683131959e-17 9.59841220924942e-17 -0.31203607281763224 -0.9500702549076935
12635797333.333334 -0.3224080055333451 -0.9466008017996986 6.803112316342207e-17 9.522113392923931e-17 6.803112316342207e-17 9.522113392923931e-17 -0.32240736664344644 -0.9466010194025034
12636414666.666666 -0.3327407372024174 -0.9430183464842093 6.906327349547549e-17 9.444686958921884e-17 6.906327349547549e-17 9.444686958921884e-17 -0.33274010076151667 -0.9430185710499218
12637032000.0 -0.34303367329989687 -0.9393231068073435 7.00866257775602e-17 9.366142757711341e-17 7.00866257775602e-17 9.366142757711341e-17 -0.34303303938386864 -0.9393233383084258
12637649333.333334 -0.3532855827975266 -0.9355155247173786 7.110105907652026e-17 9.28649077173607e-17 7.110105907652026e-17 9.28649077173607e-17 -0.3532849514819367 -0.935515763125468
12638266666.666666 -0.36349523957383245 -0.9315960555986601 7.210645359023357e-17 9.205741114150221e-17 7.210645359023357e-17 9.205741114150221e-17 -0.363494610933928 -0.9315963008845692
12638884000.0 -0.3736614225607129 -0.9275651682171583 7.310269066171973e-17 9.123904027538925e-17 7.310269066171973e-17 9.123904027538925e-17 -0.3736607966714135 -0.9275654203508804
12639501333.333334 -0.38378291588960817 -0.9234233446643474 7.408965279312188e-17 9.040989882622293e-17 7.408965279312188e-17 9.040989882622293e-17 -0.3837822928254978 -0.9234236036150607
12640118666.666666 -0.3938585090366039 -0.9191710802996815 7.506722365949836e-17 8.957009176947887e-17 7.506722365949836e-17 8.957009176947887e-17 -0.39385788887192097 -0.919171346035751
12640736000.0 -0.40388699696773195 -0.9148088836911276 7.603528812254832e-17 8.871972533561518e-17 7.603528812254832e-17 8.871972533561518e-17 -0.40388637977636094 -0.9148091561801104
12641353333.333334 -0.41386718028243835 -0.9103372765546207 7.699373224407349e-17 8.785890699672953e-17 7.699373224407349e-17 8.785890699672953e-17 -0.4138665661379008 -0.9103375557632692
12641970666.666666 -0.42379786535757846 -0.9057567936914298 7.794244329940294e-17 8.698774545297365e-17 7.794244329940294e-17 8.698774545297365e-17 -0.4237972543330248 -0.9057570795856968
12642588000.0 -0.4336778644898886 -0.9010679829243239 7.888130979059906e-17 8.610635061888014e-17 7.888130979059906e-17 8.610635061888014e-17 -0.43367725665808843 -0.9010682754693651
12643205333.333334 -0.4435059960381619 -0.8962714050319902 7.981022145951269e-17 8.521483360954512e-17 7.981022145951269e-17 8.521483360954512e-17 -0.4435053914714962 -0.8962717041921695
12643822666.666666 -0.45328108456452093 -0.8913676336819911 8.07290693007118e-17 8.431330672664396e-17 8.07290693007118e-17 8.431330672664396e-17 -0.45328048333497295 -0.8913679394208845
12644440000.0 -0.4630019609749733 -0.8863572553621645 8.163774557423078e-17 8.340188344432805e-17 8.163774557423078e-17 8.340188344432805e-17 -0.4630013631541208 -0.8863575676425663
12645057333.333334 -0.4726674626592366 -0.8812408693104854 8.25361438181544e-17 8.248067839499223e-17 8.25361438181544e-17 8.248067839499223e-17 -0.47266686831824195 -0.8812411880944095
12645674666.666666 -0.48227643362975964 -0.8760190874434078 8.342415886106285e-17 8.154980735488602e-17 8.342415886106285e-17 8.154980735488602e-17 -0.4822758428393624 -0.8760194126920953
12646292000.0 -0.49182772466025276 -0.8706925342825325 8.430168683431902e-17 8.060938722958623e-17 8.430168683431902e-17 8.060938722958623e-17 -0.4918271374907613 -0.8706928659564545
12646909333.333334 -0.5013201934226609 -0.8652618468801723 8.516862518414994e-17 7.965953603938396e-17 8.516862518414994e-17 7.965953603938396e-17 -0.5013196099439432 -0.8652621849390355
12647526666.666666 -0.5107527046241334 -0.8597276747429693 8.60248726836133e-17 7.870037290448875e-17 8.60248726836133e-17 7.870037290448875e-17 -0.5107521249056095 -0.859728019145721
12648144000.0 -0.5201241301427301 -0.8540906797542569 8.687032944438482e-17 7.773201803011925e-17 8.687032944438482e-17 7.773201803011925e-17 -0.5201235542533634 -0.8540910304590892
12648761333.333334 -0.5294333491623417 -0.8483515360948942 8.770489692834896e-17 7.67545926914998e-17 8.770489692834896e-17 7.67545926914998e-17 -0.5294327771706311 -0.8483518930592501
12649378666.666666 -0.5386792483065951 -0.8425109301627267 8.852847795905069e-17 7.576821921870126e-17 8.852847795905069e-17 7.576821921870126e-17 -0.5386786802805668 -0.8425112933433045
12649996000.0 -0.5478607217722297 -0.8365695604903595 8.934097673298765e-17 7.47730209813467e-17 8.934097673298765e-17 7.47730209813467e-17 -0.5478601577794285 -0.8365699298431184
12650613333.333334 -0.5569766714612537 -0.8305281376616717 9.014229883069417e-17 7.376912237323925e-17 9.014229883069417e-17 7.376912237323925e-17 -0.5569761115687363 -0.8305285131418374
12651230666.666666 -0.5660260071121583 -0.8243873842269106 9.093235122767324e-17 7.275664879684983e-17 9.093235122767324e-17 7.275664879684983e-17 -0.5660254513864842 -0.8243877657889808
12651848000.0 -0.5750076464306433 -0.8181480346160553 9.171104230517005e-17 7.173572664766652e-17 9.171104230517005e-17 7.173572664766652e-17 -0.5750070949378668 -0.8181484222138035
12652465333.333334 -0.5839205152187019 -0.8118108350512127 9.247828186074414e-17 7.07064832984636e-17 9.247828186074414e-17 7.07064832984636e-17 -0.583919968024365 -0.8118112286376958
12653082666.666666 -0.592763547503194 -0.8053765434573137 9.323398111866432e-17 6.966904708346118e-17 9.323398111866432e-17 6.966904708346118e-17 -0.5927630046723182 -0.8053769429848772
12653700000.0 -0.6015356856635402 -0.7988459293713119 9.39780527401648e-17 6.862354728232061e-17 9.39780527401648e-17 6.862354728232061e-17 -0.6015351472606191 -0.7988463347915958
12654317333.333334 -0.6102358805578925 -0.7922197738503849 9.471041083346691e-17 6.757011410410907e-17 9.471041083346691e-17 6.757011410410907e-17 -0.610235346646883 -0.7922201851143276
12654934666.666666 -0.6188630916488155 -0.7854988693783659 9.543097096366686e-17 6.65088786710929e-17 9.543097096366686e-17 6.65088786710929e-17 -0.6188625622931317 -0.7854992864362131
12655552000.0 -0.6274162871278235 -0.7786840197708933 9.613965016243313e-17 6.543997300243963e-17 9.613965016243313e-17 6.543997300243963e-17 -0.6274157623903293 -0.7786844425722032
12656169333.333334 -0.6358944440384486 -0.7717760400795384 9.683636693748652e-17 6.436352999786932e-17 9.683636693748652e-17 6.436352999786932e-17 -0.6358939239814481 -0.7717764685731855
12656786666.666666 -0.6442965483988974 -0.7647757564940771 9.752104128195111e-17 6.327968342112614e-17 9.752104128195111e-17 6.327968342112614e-17 -0.6442960330841294 -0.7647761906282615
12657404000.0 -0.6526215953231682 -0.7576840062438063 9.819359468348223e-17 6.218856788340895e-17 9.819359468348223e-17 6.218856788340895e-17 -0.6526210848117985 -0.7576844459660578
12658021333.333334 -0.660868589141364 -0.7505016374972976 9.885395013323298e-17 6.109031882666932e-17 9.885395013323298e-17 6.109031882666932e-17 -0.6608680834939779 -0.7505020827544836
12658638666.666666 -0.6690365435185366 -0.7432295092611633 9.950203213460475e-17 5.998507250686294e-17 9.950203213460475e-17 5.998507250686294e-17 -0.6690360427951325 -0.7432299599994947
12659256000.0 -0.6771244815729561 -0.7358684912770609 1.0013776671185365e-16 5.887296597703819e-17 1.0013776671185365e-16 5.887296597703819e-17 -0.6771239858329358 -0.7358689474420964
12659873333.333334 -0.6851314359927224 -0.7284194639178518 1.0076108141846794e-16 5.775413707040219e-17 1.0076108141846794e-16 5.775413707040219e-17 -0.6851309452948885 -0.7284199254545093
12660490666.666666 -0.6930564491514478 -0.7208833180823422 1.0137190534537239e-16 5.662872438327376e-17 1.0137190534537239e-16 5.662872438327376e-17 -0.6930559635539925 -0.7208837849349005
12661108000.0 -0.7008985732230686 -0.7132609550884498 1.0197016912896566e-16 5.54968672579064e-17 1.0197016912896566e-16 5.54968672579064e-17 -0.7008980927835685 -0.7132614272005576
12661725333.333334 -0.7086568702947962 -0.705553286565802 1.0255580495891349e-16 5.435870576532607e-17 1.0255580495891349e-16 5.435870576532607e-17 -0.7086563950702063 -0.7055537638804855
12662342666.666666 -0.716330412479599 -0.6977612343464111 1.0312874658580478e-16 5.321438068798535e-17 1.0312874658580478e-16 5.321438068798535e-17 -0.7163299425262447 -0.6977617168060796
12662960000.0 -0.7239182820270534 -0.6898857303545417 1.0368892932858126e-16 5.2064033502402277e-17 1.0368892932858126e-16 5.2064033502402277e-17 -0.7239178174006237 -0.6898862179009938
12663577333.333334 -0.7314195714331074 -0.6819277164952535 1.0423629008179186e-16 5.0907806361686315e-17 1.0423629008179186e-16 5.0907806361686315e-17 -0.731419112188649 -0.6819282090696858
12664194666.666666 -0.7388333835486934 -0.6738881445416663 1.0477076732263607e-16 4.9745842078021203e-17 1.0477076732263607e-16 4.9745842078021203e-17 -0.7388329297406053 -0.673888642084681
12664812000.0 -0.746158831686914 -0.6657679760212565 1.0529230111782765e-16 4.8578284105045327e-17 1.0529230111782765e-16 4.8578284105045327e-17 -0.7461583833689379 -0.6657684784728655
12665429333.333334 -0.7533950397291814 -0.6575681821007502 1.0580083313025506e-16 4.740527652017575e-17 1.0580083313025506e-16 4.740527652017575e-17 -0.7533945969543988 -0.6575686894003856
12666046666.666666 -0.7605411422298912 -0.6492897434701044 1.062963066254456e-16 4.622696400686342e-17 1.062963066254456e-16 4.622696400686342e-17 -0.7605407050507135 -0.6492902555566229
12666664000.0 -0.767596284520112 -0.6409336502249983 1.067786664778395e-16 4.5043491836763265e-17 1.067786664778395e-16 4.5043491836763265e-17 -0.7675958529882786 -0.6409341670366919
12667281333.333334 -0.7745596228096204 -0.6325009017486375 1.0724785917684801e-16 4.385500585188573e-17 1.0724785917684801e-16 4.385500585188573e-17 -0.7745591969761892 -0.6325014232232383
12667898666.666666 -0.7814303242878913 -0.62399250659214 1.0770383283273495e-16 4.266165244663099e-17 1.0770383283273495e-16 4.266165244663099e-17 -0.781429904203234 -0.6239930326668288
12668516000.0 -0.7882075672237714 -0.6154094823538264 1.0814653718229392e-16 4.1463578549775105e-17 1.0814653718229392e-16 4.1463578549775105e-17 -0.788207152937567 -0.6154100129652397
12669133333.333334 -0.7948905410635809 -0.606752855557737 1.0857592359430294e-16 4.026093160645669e-17 1.0857592359430294e-16 4.026093160645669e-17 -0.7948901326248103 -0.606753390641975
12669750666.666666 -0.8014784465282153 -0.5980236615306609 1.0899194507481393e-16 3.9053859560018965e-17 1.0899194507481393e-16 3.9053859560018965e-17 -0.8014780439851557 -0.5980242010232952
12670368000.0 -0.8079704957087357 -0.5892229442783102 1.0939455627221763e-16 3.784251083385643e-17 1.0939455627221763e-16 3.784251083385643e-17 -0.807970099108953 -0.589223488114391
