! Parameters = {f0=12700.012000; bw=77.238000; Q=6100.000000; N=10; m_0_1=1.232928; m_1_1=-0.270827; m_1_2=1.067740; m_2_2=-0.271476; m_2_3=0.704703; m_2_8=-0.001290; m_2_9=0.035414; m_3_3=-0.273413; m_3_4=0.593232; m_3_7=-0.000690; m_3_8=-0.097778; m_3_9=-0.001290; m_4_4=-0.276338; m_4_5=0.429567; m_4_6=0.002827; m_4_7=-0.118327; m_4_8=-0.000690; m_5_5=-0.275956; m_5_6=0.836922; m_5_7=0.002827; m_6_6=-0.275957; m_6_7=0.429909; m_7_7=-0.276324; m_7_8=0.593350; m_8_8=-0.273415; m_8_9=0.705016; m_9_9=-0.271481; m_9_10=1.068818; m_10_10=-0.270837; m_10_11=1.233723}
!
! Created with skrf (http://scikit-rf.org).
# Hz S RI R 50.0 
!freq ReS11 ImS11 ReS21 ImS21 ReS12 ImS12 ReS22 ImS22
12607400000.0 -0.3887844468454069 -0.9213287436582798 5.872585592638225e-17 7.154342878359533e-17 5.872585592638225e-17 7.154342878359533e-17 -0.3887838483080959 -0.9213289962302178
12608017333.333334 -0.39745240824771066 -0.9176227891557238 5.939233756464531e-17 7.09674796816977e-17 5.939233756464531e-17 7.09674796816977e-17 -0.3974518121471448 -0.9176230473461223
12608634666.666666 -0.40608504898485 -0.9138352876699424 6.005317968538931e-17 7.038532943155976e-17 6.005317968538931e-17 7.038532943155976e-17 -0.40608445537376264 -0.9138355514553086
12609252000.0 -0.41468160189432657 -0.9099665757873687 6.070832466515518e-17 6.979703316958146e-17 6.070832466515518e-17 6.979703316958146e-17 -0.4146810108252241 -0.9099668451437141
12609869333.333334 -0.4232413030207085 -0.9060169973114003 6.135771541876238e-17 6.920264656690438e-17 6.135771541876238e-17 6.920264656690438e-17 -0.4232407145458665 -0.9060172722142434
12610486666.666666 -0.43176339168339406 -0.9019869032319073 6.20012954042546e-17 6.860222582417285e-17 6.20012954042546e-17 6.860222582417285e-17 -0.43176280585485177 -0.9019871836562753
12611104000.0 -0.4402471105444927 -0.8978766516939051 6.263900862782541e-17 6.799582766622085e-17 6.263900862782541e-17 6.799582766622085e-17 -0.44024652741405035 -0.8978769376143392
12611721333.333334 -0.4486917056757711 -0.8936866079659025 6.327079964864412e-17 6.738350933675795e-17 6.327079964864412e-17 6.738350933675795e-17 -0.4486911252949828 -0.8936868993564557
12612338666.666666 -0.4570964266259065 -0.8894171444073143 6.389661358367586e-17 6.676532859296765e-17 6.389661358367586e-17 6.676532859296765e-17 -0.4570958490460778 -0.8894174412415574
12612956000.0 -0.4654605264871783 -0.8850686404353689 6.451639611243005e-17 6.614134370007908e-17 6.451639611243005e-17 6.614134370007908e-17 -0.4654599517593608 -0.8850689426863917
12613573333.333334 -0.4737832619616163 -0.8806414824915101 6.513009348163937e-17 6.551161342591156e-17 6.513009348163937e-17 6.551161342591156e-17 -0.4737826901366029 -0.8806417901319228
12614190666.666666 -0.4820638934273077 -0.8761360640069211 6.573765250992097e-17 6.48761970353408e-17 6.573765250992097e-17 6.48761970353408e-17 -0.48206332455562856 -0.8761363770088585
12614808000.0 -0.49030168500400007 -0.8715527853676289 6.633902059235647e-17 6.42351542847501e-17 6.633902059235647e-17 6.42351542847501e-17 -0.4903011191359179 -0.8715531037027519
12615425333.333334 -0.49849590461852256 -0.86689205387891 6.693414570502865e-17 6.358854541642797e-17 6.693414570502865e-17 6.358854541642797e-17 -0.49849534180402844 -0.8668923775184083
12616042666.666666 -0.5066458240698429 -0.8621542837290922 6.752297640950233e-17 6.293643115292582e-17 6.752297640950233e-17 6.293643115292582e-17 -0.5066452643586516 -0.8621546126436871
12616660000.0 -0.5147507190937815 -0.857339895952748 6.810546185725053e-17 6.227887269137468e-17 6.810546185725053e-17 6.227887269137468e-17 -0.5147501625353269 -0.8573402301126948
12617277333.333334 -0.522809869427399 -0.852449318393264 6.868155179402698e-17 6.161593169775888e-17 6.868155179402698e-17 6.161593169775888e-17 -0.5228093160708301 -0.8524496577683544
12617894666.666666 -0.5308225588728832 -0.8474829856648912 6.92511965641731e-17 6.094767030116177e-17 6.92511965641731e-17 6.094767030116177e-17 -0.53082200876706 -0.8474833302244574
12618512000.0 -0.5387880753614628 -0.8424413391139618 6.98143471148963e-17 6.027415108793967e-17 6.98143471148963e-17 6.027415108793967e-17 -0.5387875285549512 -0.8424416888268772
12619129333.333334 -0.5467057110163472 -0.8373248267798729 7.037095500044956e-17 5.95954370959067e-17 7.037095500044956e-17 5.95954370959067e-17 -0.5467051675574157 -0.8373251816145574
12619746666.666666 -0.554574762215878 -0.8321339033551245 7.092097238629535e-17 5.891159180843329e-17 7.092097238629535e-17 5.891159180843329e-17 -0.5545742221524927 -0.832134263279545
12620364000.0 -0.5623945296560547 -0.826869030144907 7.146435205319515e-17 5.822267914852609e-17 7.146435205319515e-17 5.822267914852609e-17 -0.5623939930358749 -0.8268693951265811
12620981333.333334 -0.5701643184124664 -0.8215306750262475 7.200104740122746e-17 5.752876347288947e-17 7.200104740122746e-17 5.752876347288947e-17 -0.5701637852828413 -0.8215310450322472
12621598666.666666 -0.5778834380022873 -0.8161193124062746 7.253101245377908e-17 5.682990956591083e-17 7.253101245377908e-17 5.682990956591083e-17 -0.5778829084102509 -0.8161196874032283
12622216000.0 -0.5855512024455184 -0.8106354231801381 7.305420186145407e-17 5.612618263364047e-17 7.305420186145407e-17 5.612618263364047e-17 -0.5855506764377862 -0.8106358031342343
12622833333.333334 -0.5931669303259955 -0.8050794946882387 7.357057090593554e-17 5.5417648297721176e-17 7.357057090593554e-17 5.5417648297721176e-17 -0.5931664079489595 -0.8050798795652282
12623450666.666666 -0.6007299448518537 -0.7994520206729869 7.408007550377982e-17 5.47043725892954e-17 7.408007550377982e-17 5.47043725892954e-17 -0.6007294261515792 -0.7994524104381874
12624068000.0 -0.6082395739157888 -0.793753501234845 7.45826722101639e-17 5.398642194286063e-17 7.45826722101639e-17 5.398642194286063e-17 -0.6082390589380084 -0.7937538958531412
12624685333.333334 -0.6156951501548016 -0.7879844427878568 7.507831822257455e-17 5.326386319008829e-17 7.507831822257455e-17 5.326386319008829e-17 -0.6156946389449159 -0.7879848422237091
12625302666.666666 -0.623096011009289 -0.78214535801483 7.55669713844071e-17 5.253676355365456e-17 7.55669713844071e-17 5.253676355365456e-17 -0.6230955036123556 -0.7821457622322698
12625920000.0 -0.6304414987822512 -0.7762367658215004 7.604859018855589e-17 5.180519064096254e-17 7.604859018855589e-17 5.180519064096254e-17 -0.6304409952429868 -0.7762371747841414
12626537333.333334 -0.6377309606974335 -0.7702591912906741 7.652313378089648e-17 5.106921243790379e-17 7.652313378089648e-17 5.106921243790379e-17 -0.637730461060207 -0.77025960496171
12627154666.666666 -0.6449637489574684 -0.7642131656354539 7.699056196372881e-17 5.0328897302555164e-17 7.699056196372881e-17 5.0328897302555164e-17 -0.6449632532662981 -0.7642135839776647
12627772000.0 -0.6521392208015757 -0.7580992261519248 7.745083519918154e-17 4.9584313958811805e-17 7.745083519918154e-17 4.9584313958811805e-17 -0.652138729100124 -0.758099649127678
12628389333.333334 -0.6592567385623771 -0.75191791617166 7.790391461249796e-17 4.883553149007717e-17 7.790391461249796e-17 4.883553149007717e-17 -0.6592562508939483 -0.7519183437429157
12629006666.666666 -0.6663156697229105 -0.7456697850131405 7.834976199532291e-17 4.808261933282611e-17 7.834976199532291e-17 4.808261933282611e-17 -0.666315186130446 -0.7456702171414538
12629624000.0 -0.6733153869725186 -0.7393553879332199 7.878833980888364e-17 4.7325647270209395e-17 7.878833980888364e-17 4.7325647270209395e-17 -0.6733149074985938 -0.7393558245797449
12630241333.333334 -0.6802552682628522 -0.7329752860775521 7.921961118713323e-17 4.6564685425589256e-17 7.921961118713323e-17 4.6564685425589256e-17 -0.6802547929496717 -0.7329757272030454
12630858666.666666 -0.6871346968629399 -0.7265300464309172 7.964353993981641e-17 4.5799804256073744e-17 7.964353993981641e-17 4.5799804256073744e-17 -0.687134225752335 -0.7265304919957408
12631476000.0 -0.6939530614142442 -0.7200202417666 8.006009055549435e-17 4.5031074545984627e-17 8.006009055549435e-17 4.5031074545984627e-17 -0.6939525945476686 -0.7200206917307258
12632093333.333334 -0.7007097559847231 -0.7134464505957431 8.046922820447676e-17 4.4258567400353145e-17 8.046922820447676e-17 4.4258567400353145e-17 -0.7007092934032495 -0.7134469049187561
12632710666.666666 -0.7074041801228036 -0.7068092571158207 8.087091874171532e-17 4.34823542383459e-17 8.087091874171532e-17 4.34823542383459e-17 -0.7074037218671195 -0.7068097157569221
12633328000.0 -0.7140357389108407 -0.7001092511586203 8.126512870963178e-17 4.270250678666681e-17 8.126512870963178e-17 4.270250678666681e-17 -0.7140352850212456 -0.7001097140766315
12633945333.333334 -0.7206038430178056 -0.6933470281380056 8.165182534086641e-17 4.1919097072966303e-17 8.165182534086641e-17 4.1919097072966303e-17 -0.7206033935342063 -0.6933474952913721
12634562666.666666 -0.7271079087517586 -0.6865231889969041 8.203097656097995e-17 4.113219741919372e-17 8.203097656097995e-17 4.113219741919372e-17 -0.7271074637136677 -0.6865236603436995
12635180000.0 -0.7335473581117007 -0.679638340153922 8.240255099108397e-17 4.034188043493914e-17 8.240255099108397e-17 4.034188043493914e-17 -0.7335469175582319 -0.6796388156518511
12635797333.333334 -0.739921618838959 -0.6726930934494335 8.276651795041012e-17 3.954821901074746e-17 8.276651795041012e-17 3.954821901074746e-17 -0.739921182808822 -0.6726935730558361
12636414666.666666 -0.7462301244679634 -0.6656880660912907 8.312284745880971e-17 3.875128631142139e-17 8.312284745880971e-17 3.875128631142139e-17 -0.7462296929994634 -0.6656885497631456
12637032000.0 -0.7524723143767029 -0.6586238805998472 8.347151023919928e-17 3.795115576927837e-17 8.347151023919928e-17 3.795115576927837e-17 -0.7524718875077371 -0.6586243682937776
12637649333.333334 -0.7586476338364727 -0.6515011647527237 8.381247771993129e-17 3.7147901077409935e-17 8.381247771993129e-17 3.7147901077409935e-17 -0.7586472116045233 -0.6515016564249975
12638266666.666666 -0.7647555340611853 -0.6443205515289924 8.414572203710548e-17 3.6341596182908124e-17 8.414572203710548e-17 3.6341596182908124e-17 -0.7647551165033212 -0.6443210471355298
12638884000.0 -0.7707954722561458 -0.637082679052931 8.447121603681367e-17 3.55323152800738e-17 8.447121603681367e-17 3.55323152800738e-17 -0.7707950594090149 -0.6370831785493061
12639501333.333334 -0.7767669116663011 -0.6297881905372876 8.478893327732098e-17 3.472013280360304e-17 8.478893327732098e-17 3.472013280360304e-17 -0.7767665035661312 -0.6297886938787337
12640118666.666666 -0.7826693216238383 -0.6224377342262563 8.509884803117493e-17 3.390512342177135e-17 8.509884803117493e-17 3.390512342177135e-17 -0.7826689183064302 -0.6224382413676689
12640736000.0 -0.7885021775956238 -0.6150319633375113 8.540093528726933e-17 3.308736202954576e-17 8.540093528726933e-17 3.308736202954576e-17 -0.7885017790963509 -0.6150324742334534
12641353333.333334 -0.7942649612293958 -0.6075715360046929 8.569517075280626e-17 3.2266923741776856e-17 8.569517075280626e-17 3.2266923741776856e-17 -0.794264567583199 -0.6075720506093977
12641970666.666666 -0.7999571604001964 -0.6000571152184512 8.598153085523293e-17 3.1443883886263496e-17 8.598153085523293e-17 3.1443883886263496e-17 -0.7999567716415829 -0.6000576334858271
12642588000.0 -0.8055782692557096 -0.5924893687677518 8.625999274408444e-17 3.061831799687682e-17 8.625999274408444e-17 3.061831799687682e-17 -0.8055778854187489 -0.5924898906513867
12643205333.333334 -0.8111277882612342 -0.5848689691805101 8.6530534292771e-17 2.9790301806641425e-17 8.6530534292771e-17 2.9790301806641425e-17 -0.8111274093795536 -0.5848694946336734
12643822666.666666 -0.8166052242441397 -0.5771965936637308 8.679313410030078e-17 2.895991124079377e-17 8.679313410030078e-17 2.895991124079377e-17 -0.8166048503509239 -0.5771971226393806
12644440000.0 -0.8220100904376096 -0.5694729240434414 8.704777149292891e-17 2.8127222409847985e-17 8.704777149292891e-17 2.8127222409847985e-17 -0.8220097215655977 -0.5694734564942278
12645057333.333334 -0.8273419065239225 -0.5616986467040807 8.729442652574587e-17 2.7292311602633162e-17 8.729442652574587e-17 2.7292311602633162e-17 -0.8273415427054027 -0.5616991825823485
12645674666.666666 -0.8326001986771313 -0.5538744525274982 8.75330799841977e-17 2.645525527931936e-17 8.75330799841977e-17 2.645525527931936e-17 -0.8325998399439409 -0.5538749917852934
12646292000.0 -0.8377844996052844 -0.546001036831394 8.776371338554457e-17 2.561613006441345e-17 8.776371338554457e-17 2.561613006441345e-17 -0.8377841459888051 -0.546001579420466
12646909333.333334 -0.8428943485917476 -0.5380790993078329 8.798630898023864e-17 2.477501273979286e-17 8.798630898023864e-17 2.477501273979286e-17 -0.8428940001229025 -0.53807964517964
12647526666.666666 -0.8479292915363017 -0.5301093439608286 8.8200849753251e-17 2.3931980237670167e-17 8.8200849753251e-17 2.3931980237670167e-17 -0.8479289482455552 -0.5301098930665428
12648144000.0 -0.8528888809954844 -0.5220924790438044 8.840731942532403e-17 2.3087109633574506e-17 8.840731942532403e-17 2.3087109633574506e-17 -0.8528885429128367 -0.5220930313343143
12648761333.333334 -0.8577726762222884 -0.5140292169967455 8.86057024541547e-17 2.2240478139330116e-17 8.86057024541547e-17 2.2240478139330116e-17 -0.8577723433772745 -0.5140297724226622
12649378666.666666 -0.8625802432053347 -0.5059202743828907 8.879598403551358e-17 2.1392163096015457e-17 8.879598403551358e-17 2.1392163096015457e-17 -0.8625799156270211 -0.5059208328945509
12649996000.0 -0.8673111547075136 -0.49776637182492867 8.897815010429968e-17 2.0542241966900635e-17 8.897815010429968e-17 2.0542241966900635e-17 -0.8673108324244958 -0.4977669333724002
12650613333.333334 -0.8719649903039074 -0.4895682339410317 8.915218733552241e-17 1.9690792330396657e-17 8.915218733552241e-17 1.9690792330396657e-17 -0.871964673344307 -0.4895687984741169
12651230666.666666 -0.8765413364190978 -0.4813265892805595 8.93180831452172e-17 1.883789187299983e-17 8.93180831452172e-17 1.883789187299983e-17 -0.876541024810562 -0.4813271567488009
12651848000.0 -0.8810397863640587 -0.47304217025906714 8.947582569129979e-17 1.798361838219329e-17 8.947582569129979e-17 1.798361838219329e-17 -0.8810394801337554 -0.47304274061175106
12652465333.333334 -0.885459940372185 -0.46471571309341486 8.96254038743439e-17 1.7128049739390673e-17 8.96254038743439e-17 1.7128049739390673e-17 -0.8854596395468024 -0.46471628627957656
12653082666.666666 -0.8898014056347694 -0.4563479577364439 8.976680733829591e-17 1.6271263912851047e-17 8.976680733829591e-17 1.6271263912851047e-17 -0.8898011102405122 -0.45634853370487155
12653700000.0 -0.8940637963361211 -0.4479396478108166 8.99000264711268e-17 1.5413338950563322e-17 8.99000264711268e-17 1.5413338950563322e-17 -0.894063506398709 -0.4479402265100562
12654317333.333334 -0.8982467336876145 -0.4394915305433846 9.002505240540508e-17 1.4554352973187373e-17 9.002505240540508e-17 1.4554352973187373e-17 -0.89824644923228 -0.4394921119217447
12654934666.666666 -0.9023498459614981 -0.431004356698509 9.014187701881322e-17 1.369438416693013e-17 9.014187701881322e-17 1.369438416693013e-17 -0.9023495670129844 -0.4310049407040651
12655552000.0 -0.9063727685239235 -0.4224788805113382 9.025049293459174e-17 1.2833510776443997e-17 9.025049293459174e-17 1.2833510776443997e-17 -0.906372495106481 -0.4224794670919371
12656169333.333334 -0.9103151438672391 -0.4139158596210127 9.035089352191252e-17 1.1971811097745886e-17 9.035089352191252e-17 1.1971811097745886e-17 -0.9103148760046257 -0.413916448724278
12656786666.666666 -0.9141766216418875 -0.40531605500307977 9.044307289619162e-17 1.1109363471085638e-17 9.044307289619162e-17 1.1109363471085638e-17 -0.9141763593573639 -0.4053166465764154
12657404000.0 -0.9179568586874748 -0.39668023090199406 9.052702591932863e-17 1.0246246273851648e-17 9.052702591932863e-17 1.0246246273851648e-17 -0.9179566020038035 -0.3966808248925897
12658021333.333334 -0.9216555190632897 -0.38800915476314957 9.060274819988117e-17 9.382537913458006e-18 9.060274819988117e-17 9.382537913458006e-18 -0.921655268002735 -0.3880097511179857
12658638666.666666 -0.925272274078106 -0.37930359716481027 9.067023609316963e-17 8.518316820249661e-18 9.067023609316963e-17 8.518316820249661e-18 -0.9252720286624303 -0.3793041958306625
12659256000.0 -0.9288068023195021 -0.37056433174936904 9.072948670131841e-17 7.653661440369678e-18 9.072948670131841e-17 7.653661440369678e-18 -0.9288065625699622 -0.37056493267281215
12659873333.333334 -0.9322587896823201 -0.3617921351548291 9.078049787322412e-17 6.7886502286767345e-18 9.078049787322412e-17 6.7886502286767345e-18 -0.9322585556196689 -0.3617927382822431
12660490666.666666 -0.9356279293965888 -0.35298778694578997 9.082326820445976e-17 5.923361641641512e-18 9.082326820445976e-17 5.923361641641512e-18 -0.935627701041071 -0.3529883922233639
12661108000.0 -0.9389139220548837 -0.3441520695439027 9.085779703711184e-17 5.057874130219795e-18 9.085779703711184e-17 5.057874130219795e-18 -0.9389136994262344 -0.3441526769176396
12661725333.333334 -0.9421164756387922 -0.33528576815870925 9.088408445954667e-17 4.192266132790853e-18 9.088408445954667e-17 4.192266132790853e-18 -0.9421162587562377 -0.3352863775744319
12662342666.666666 -0.945235305544979 -0.32638967071757174 9.090213130611273e-17 3.3266160680351577e-18 9.090213130611273e-17 3.3266160680351577e-18 -0.9452350944272314 -0.32639028212092625
12662960000.0 -0.9482701346104242 -0.31746456779578286 9.091193915677377e-17 2.46100232785798e-18 9.091193915677377e-17 2.46100232785798e-18 -0.9482699292756815 -0.31746518113224376
12663577333.333334 -0.9512206931370646 -0.3085112525462828 9.091351033667487e-17 1.5955032703026597e-18 9.091351033667487e-17 1.5955032703026597e-18 -0.951220493603011 -0.30851186776115913
12664194666.666666 -0.9540867189157648 -0.2995305206291753 9.090684791564165e-17 7.301972124723073e-19 9.090684791564165e-17 7.301972124723073e-19 -0.9540865251995652 -0.2995311376676134
12664812000.0 -0.9568679572496139 -0.29052317014101653 9.089195570761186e-17 -1.3483757654204888e-19 9.089195570761186e-17 -1.3483757654204888e-19 -0.9568677693679148 -0.2905237889480065
12665429333.333334 -0.9595641609765707 -0.28149000154386483 9.086883827e-17 -9.995228827287842e-19 9.086883827e-17 -9.995228827287842e-19 -0.9595639789454994 -0.2814906220642451
12666046666.666666 -0.9621750904913885 -0.2724318175942811 9.083750090299543e-17 -1.863780554199773e-18 9.083750090299543e-17 -1.863780554199773e-18 -0.962174914326551 -0.27243243977274323
12666664000.0 -0.9647005137669946 -0.2633494232716899 9.07979496487921e-17 -2.727532508267421e-18 9.07979496487921e-17 -2.727532508267421e-18 -0.9647003434834734 -0.2633500470527835
12667281333.333334 -0.9671402063750011 -0.25424362570722503 9.075019129075367e-17 -3.590700738448146e-18 9.075019129075367e-17 -3.590700738448146e-18 -0.9671400419873546 -0.25424425103536236
12667898666.666666 -0.9694939515057265 -0.24511523411172823 9.069423335250987e-17 -4.453207321518186e-18 9.069423335250987e-17 -4.453207321518186e-18 -0.9694937930279888 -0.24511586093118998
12668516000.0 -0.9717615399874603 -0.23596505970383602 9.063008409698628e-17 -5.314974424533262e-18 9.063008409698628e-17 -5.314974424533262e-18 -0.9717613874331377 -0.2359656879587755
12669133333.333334 -0.9739427703049895 -0.22679391563813647 9.055775252537048e-17 -6.17592431181423e-18 9.055775252537048e-17 -6.17592431181423e-18 -0.9739426236870611 -0.22679454527258497
12669750666.666666 -0.9760374486175758 -0.21760261693263067 9.047724837600744e-17 -7.035979351970091e-18 9.047724837600744e-17 -7.035979351970091e-18 -0.976037307948492 -0.21760324789050223
12670368000.0 -0.9780453887761524 -0.20839198039641343 9.038858212323171e-17 -7.895062024872794e-18 9.038858212323171e-17 -7.895062024872794e-18 -0.9780452540678348 -0.2083926126215104
12670985333.333334 -0.9799664123398537 -0.19916282455717035 9.029176497613344e-17 -8.753094928621871e-18 9.029176497613344e-17 -8.753094928621871e-18 -0.9799662836036913 -0.1991634579931874
