! Parameters = {f0=12700.012000; bw=77.238000; Q=6100.000000; N=10; m_0_1=1.283378; m_1_1=0.485930; m_1_2=1.118190; m_2_2=0.485281; m_2_3=0.755153; m_2_8=0.001233; m_2_9=0.037937; m_3_3=0.483344; m_3_4=0.643682; m_3_7=0.001833; m_3_8=-0.095255; m_3_9=0.001233; m_4_4=0.480419; m_4_5=0.480017; m_4_6=0.005350; m_4_7=-0.115804; m_4_8=0.001833; m_5_5=0.480801; m_5_6=0.887372; m_5_7=0.005350; m_6_6=0.480800; m_6_7=0.480359; m_7_7=0.480433; m_7_8=0.643800; m_8_8=0.483342; m_8_9=0.755466; m_9_9=0.485276; m_9_10=1.119268; m_10_10=0.485920; m_10_11=1.284173}
!
! Created with skrf (http://scikit-rf.org).
# Hz S RI R 50.0 
!freq ReS11 ImS11 ReS21 ImS21 ReS12 ImS12 ReS22 ImS22
12607400000.0 0.5121086746147184 -0.8589206630324923 -2.909079359423914e-17 1.1410537814025237e-16 -2.909079359423914e-17 1.1410537814025237e-16 0.5121092553612475 -0.858920316777504
12608017333.333334 0.5027002565194894 -0.8644607869042173 -2.782763302703097e-17 1.1439625981611495e-16 -2.782763302703097e-17 1.1439625981611495e-16 0.502700840983278 -0.8644604470272339
12608634666.666666 0.4932319108736762 -0.8698978572773478 -2.6561595493950667e-17 1.1467316723693497e-16 -2.6561595493950667e-17 1.1467316723693497e-16 0.4932324989846889 -0.869897523818259
12609252000.0 0.4837047664111233 -0.8752312259917258 -2.5292835491551357e-17 1.149360723301976e-16 -2.5292835491551357e-17 1.149360723301976e-16 0.4837053580988969 -0.8752308989896536
12609869333.333334 0.4741199588751571 -0.8804602572496045 -2.4021507785642192e-17 1.1518494873037714e-16 -2.4021507785642192e-17 1.1518494873037714e-16 0.47412055406880876 -0.8804599367428966
12610486666.666666 0.4644786308832917 -0.8855843276913848 -2.2747767392437073e-17 1.154197717814622e-16 -2.2747767392437073e-17 1.154197717814622e-16 0.46447922951152837 -0.8855840137176125
12611104000.0 0.45478193179071785 -0.8906028264700955 -2.1471769559660557e-17 1.1564051853927659e-16 -2.1471769559660557e-17 1.1564051853927659e-16 0.45478253378184313 -0.8906025190660457
12611721333.333334 0.44503101755373653 -0.8955151553239655 -2.0193669747698915e-17 1.158471677735796e-16 -2.0193669747698915e-17 1.158471677735796e-16 0.44503162283566067 -0.8955148545256398
12612338666.666666 0.4352270505915551 -0.9003207286479616 -1.8913623610657267e-17 1.1603969996997217e-16 -1.8913623610657267e-17 1.1603969996997217e-16 0.43522765909180317 -0.9003204344905702
12612956000.0 0.42537119964781156 -0.9050189735635389 -1.7631786977430074e-17 1.162180973315883e-16 -1.7631786977430074e-17 1.162180973315883e-16 0.425371811293532 -0.9050186860814972
12613573333.333334 0.4154646396514538 -0.9096093299868395 -1.634831583280433e-17 1.163823437805716e-16 -1.634831583280433e-17 1.163823437805716e-16 0.41546525436942744 -0.9096090492137635
12614190666.666666 0.40550855157639204 -0.9140912506955947 -1.5063366298455383e-17 1.1653242495935752e-16 -1.5063366298455383e-17 1.1653242495935752e-16 0.40550916929304004 -0.9140909766642971
12614808000.0 0.39550412230094467 -0.9184642013942511 -1.377709461401616e-17 1.1666832823173366e-16 -1.377709461401616e-17 1.1666832823173366e-16 0.39550474294233845 -0.9184639341367382
12615425333.333334 0.3854525444661686 -0.9227276607777481 -1.2489657118103357e-17 1.1679004268369806e-16 -1.2489657118103357e-17 1.1679004268369806e-16 0.38545316795803847 -0.9227274003252163
12616042666.666666 0.37535501633378754 -0.9268811205936188 -1.120121022934545e-17 1.1689755912410605e-16 -1.120121022934545e-17 1.1689755912410605e-16 0.3753556426015302 -0.9268808669764479
12616660000.0 0.3652127416433167 -0.9309240857025838 -9.911910427408621e-18 1.1699087008510934e-16 -9.911910427408621e-18 1.1699087008510934e-16 0.36521337061200654 -0.930923838950339
12617277333.333334 0.35502692946851366 -0.9348560741376073 -8.621914234015982e-18 1.1706996982238637e-16 -8.621914234015982e-18 1.1706996982238637e-16 0.35502756106290967 -0.9348558342790304
12617894666.666666 0.34479879407347985 -0.9386766171612534 -7.331378194005777e-18 1.1713485431516155e-16 -7.331378194005777e-18 1.1713485431516155e-16 0.3447994282180358 -0.9386763842242626
12618512000.0 0.33452955476745627 -0.9423852593217429 -6.040458856307614e-18 1.1718552126602103e-16 -6.040458856307614e-18 1.1718552126602103e-16 0.3345301913863289 -0.9423850333334279
12619129333.333334 0.32422043575994564 -0.9459815585070626 -4.749312755042195e-18 1.1722197010051306e-16 -4.749312755042195e-18 1.1722197010051306e-16 0.32422107477700457 -0.9459813394936833
12619746666.666666 0.31387266601448127 -0.9494650859977851 -3.458096390533701e-18 1.172442019665457e-16 -3.458096390533701e-18 1.172442019665457e-16 0.3138733073533177 -0.949464873984767
12620364000.0 0.3034874791021185 -0.9528354265181695 -2.1669662103702416e-18 1.1725221973357288e-16 -2.1669662103702416e-18 1.1725221973357288e-16 0.30348812268605385 -0.9528352215300999
12620981333.333334 0.2930661130545941 -0.9560921782855938 -8.76078590508185e-19 1.172460279915733e-16 -8.76078590508185e-19 1.172460279915733e-16 0.2930667588066904 -0.9560919803462219
12621598666.666666 0.28260981021658044 -0.9592349530585138 4.144101836741442e-19 1.1722563304982178e-16 4.144101836741442e-19 1.1722563304982178e-16 0.28261045805964824 -0.9592347621907454
12622216000.0 0.2721198170975525 -0.9622633761827446 1.70434393623773e-18 1.171910429354522e-16 1.70434393623773e-18 1.171910429354522e-16 0.272120466954161 -0.962263192408641
12622833333.333334 0.26159738422324713 -0.9651770866361131 2.9935666195801326e-18 1.1714226739181342e-16 2.9935666195801326e-18 1.1714226739181342e-16 0.26159803601573267 -0.9651769099768865
12623450666.666666 0.25104376598666656 -0.9679757370714684 4.281922333256547e-18 1.1707931787661854e-16 4.281922333256547e-18 1.1707931787661854e-16 0.2510444196371427 -0.967975567547482
12624068000.0 0.24046022049840488 -0.9706589938581314 5.569255342822288e-18 1.170022075598858e-16 5.569255342822288e-18 1.170022075598858e-16 0.24046087592877116 -0.9706588314888955
12624685333.333334 0.2298480094366104 -0.9732265371216757 6.855410098634442e-18 1.1691095132167333e-16 6.855410098634442e-18 1.1691095132167333e-16 0.22984866656856207 -0.9732263819258465
12625302666.666666 0.219208397896967 -0.9756780607819703 8.140231254567387e-18 1.168055657496119e-16 8.140231254567387e-18 1.168055657496119e-16 0.2192090566520037 -0.9756779127773458
12625920000.0 0.20854265424129886 -0.9780132725898021 9.423563686832451e-18 1.1668606913622188e-16 9.423563686832451e-18 1.1668606913622188e-16 0.20854331454073494 -0.9780131317933232
12626537333.333334 0.1978520499468387 -0.9802318941616078 1.0705252512584016e-17 1.1655248147603778e-16 1.0705252512584016e-17 1.1655248147603778e-16 0.19785271171181174 -0.9802317605893534
12627154666.666666 0.18713785945457054 -0.9823336610126838 1.1985143108638644e-17 1.1640482446251793e-16 1.1985143108638644e-17 1.1640482446251793e-16 0.18713852260605113 -0.9823335346798688
12627772000.0 0.17640136001696718 -0.9843183225887776 1.3263081130102087e-17 1.1624312148475122e-16 1.3263081130102087e-17 1.1624312148475122e-16 0.1764020244757686 -0.9843182035097547
12628389333.333334 0.16564383154622983 -0.9861856422958631 1.453891252890923e-17 1.1606739762396661e-16 1.453891252890923e-17 1.1606739762396661e-16 0.16564449723301714 -0.9861855304841181
12629006666.666666 0.1548665564612609 -0.9879353975284278 1.5812483572413317e-17 1.1587767964982816e-16 1.5812483572413317e-17 1.1587767964982816e-16 0.15486722329656039 -0.9879352929965778
12629624000.0 0.1440708195350921 -0.9895673796959493 1.7083640861847157e-17 1.156739960165371e-16 1.7083640861847157e-17 1.156739960165371e-16 0.14407148743930123 -0.9895672824557447
12630241333.333334 0.13325790774153015 -0.991081394247803 1.8352231350776303e-17 1.154563768587264e-16 1.8352231350776303e-17 1.154563768587264e-16 0.13325857663492666 -0.9910813043101226
12630858666.666666 0.12242911010201549 -0.992477260696409 1.9618102363495893e-17 1.1522485398715527e-16 1.9618102363495893e-17 1.1522485398715527e-16 0.12242977990476683 -0.9924771780712597
12631476000.0 0.11158571753147757 -0.9937548126388149 2.0881101613398013e-17 1.149794608841963e-16 2.0881101613398013e-17 1.149794608841963e-16 0.11158638816365062 -0.9937547373353305
12632093333.333334 0.10072902268492212 -0.9949138977764663 2.214107722122602e-17 1.1472023269913364e-16 2.214107722122602e-17 1.1472023269913364e-16 0.10072969406649294 -0.9949138298029089
12632710666.666666 0.08986031980313558 -0.9959543779333968 2.339787773331199e-17 1.1444720624325573e-16 2.339787773331199e-17 1.1444720624325573e-16 0.0898609918539985 -0.9959543172971523
12633328000.0 0.07898090455825463 -0.9968761290727053 2.4651352139803726e-17 1.1416041998473563e-16 2.4651352139803726e-17 1.1416041998473563e-16 0.0789815771982321 -0.9968760757802847
12633945333.333334 0.06809207389953399 -0.9976790413113227 2.590134989270438e-17 1.138599140433406e-16 2.590134989270438e-17 1.138599140433406e-16 0.06809274704838612 -0.9976789953683624
12634562666.666666 0.0571951258987075 -0.9983630189331195 2.7147720923975887e-17 1.135457301849173e-16 2.7147720923975887e-17 1.135457301849173e-16 0.057195799476141486 -0.9983629803443765
12635180000.0 0.04629135959510101 -0.9989279804003178 2.839031566350554e-17 1.1321791181569425e-16 2.839031566350554e-17 1.1321791181569425e-16 0.0462920335207809 -0.9989279491696743
12635797333.333334 0.0353820748408578 -0.9993738583632136 2.9628985057031406e-17 1.1287650397638283e-16 2.9628985057031406e-17 1.1287650397638283e-16 0.035382749034413914 -0.9993738344936736
12636414666.666666 0.024468572146066316 -0.9997005996681971 3.08635805839789e-17 1.1252155333608734e-16 3.08635805839789e-17 1.1252155333608734e-16 0.024469246527104922 -0.9997005831618868
12637032000.0 0.013552152523526088 -0.9999081653640993 3.2093954275260924e-17 1.1215310818601052e-16 3.2093954275260924e-17 1.1215310818601052e-16 0.013552827011638954 -0.999908156222267
12637649333.333334 0.0026341173338794888 -0.9999965307068276 3.331995873095647e-17 1.11771218432979e-16 3.331995873095647e-17 1.11771218432979e-16 0.0026347918486534696 -0.9999965289298434
12638266666.666666 -0.008284231869724068 -0.9999656851623208 3.454144713796113e-17 1.1137593559276146e-16 3.454144713796113e-17 1.1137593559276146e-16 -0.008283557408697429 -0.9999656907496766
12638884000.0 -0.019201593496674278 -0.9998156324078002 3.5758273287524763e-17 1.109673127832051e-16 3.5758273287524763e-17 1.109673127832051e-16 -0.019200919169789176 -0.9998156453581112
12639501333.333334 -0.030116666074121064 -0.9995463903313342 3.697029159272785e-17 1.1054540471717462e-16 3.697029159272785e-17 1.1054540471717462e-16 -0.03011599196174786 -0.9995464106423374
12640118666.666666 -0.041028148401954505 -0.999157991029711 3.8177357105851306e-17 1.1011026769531058e-16 3.8177357105851306e-17 1.1011026769531058e-16 -0.04102747458443013 -0.9991580186982663
12640736000.0 -0.05193473970840527 -0.9986504808045911 3.937932553573293e-17 1.096619595985707e-16 3.937932553573293e-17 1.096619595985707e-16 -0.051934066266023676 -0.9986505158266814
12641353333.333334 -0.0628351398043163 -0.9980239201570233 4.057605326489837e-17 1.0920053988063565e-16 4.057605326489837e-17 1.0920053988063565e-16 -0.06283446681731888 -0.9980239625277563
12641970666.666666 -0.07372804923890668 -0.9972783837801988 4.1767397366774304e-17 1.0872606956006344e-16 4.1767397366774304e-17 1.0872606956006344e-16 -0.0737273767874727 -0.9972784334938058
12642588000.0 -0.08461216945428338 -0.9964139605505639 4.295321562268405e-17 1.0823861121230476e-16 4.295321562268405e-17 1.0823861121230476e-16 -0.08461149761852041 -0.996414017600401
12643205333.333334 -0.09548620294030068 -0.9954307535172217 4.4133366538800455e-17 1.0773822896151448e-16 4.4133366538800455e-17 1.0773822896151448e-16 -0.09548553180023515 -0.9954308178957728
12643822666.666666 -0.1063488533893518 -0.9943288798896428 4.5307709363010475e-17 1.072249884721761e-16 4.5307709363010475e-17 1.072249884721761e-16 -0.10634818302491922 -0.9943289515885166
12644440000.0 -0.11719882585078903 -0.9931084710236923 4.6476104101655676e-17 1.0669895694055422e-16 4.6476104101655676e-17 1.0669895694055422e-16 -0.11719815634182507 -0.9931085500336294
12645057333.333334 -0.1280348268852135 -0.9917696724059947 4.763841153619612e-17 1.061602030859564e-16 4.763841153619612e-17 1.061602030859564e-16 -0.12803415831144355 -0.9917697587168612
12645674666.666666 -0.13885556471883592 -0.9903126436365607 4.879449323975531e-17 1.0560879714182154e-16 4.879449323975531e-17 1.0560879714182154e-16 -0.13885489715986635 -0.9903127372373555
12646292000.0 -0.14965974939758364 -0.9887375584097501 4.9944211593614225e-17 1.0504481084660528e-16 4.9944211593614225e-17 1.0504481084660528e-16 -0.14965908293289207 -0.9887376592886037
12646909333.333334 -0.1604460929404271 -0.9870446044936236 5.10874298035107e-17 1.0446831743452787e-16 5.10874298035107e-17 1.0446831743452787e-16 -0.1604454276493529 -0.9870447126377998
12647526666.666666 -0.17121330949337216 -0.9852339837074984 5.222401191591706e-17 1.0387939162610655e-16 5.222401191591706e-17 1.0387939162610655e-16 -0.17121264545510728 -0.9852340991033979
12648144000.0 -0.18196011548260768 -0.9833059118979085 5.3353822834172834e-17 1.0327810961852656e-16 5.3353822834172834e-17 1.0327810961852656e-16 -0.1819594527761867 -0.9833060345310665
12648761333.333334 -0.1926852297674371 -0.9812606189128807 5.447672833450222e-17 1.0266454907584188e-16 5.447672833450222e-17 1.0266454907584188e-16 -0.1926845684717284 -0.9812607487679733
12649378666.666666 -0.20338737379300673 -0.979098348574547 5.559259508191684e-17 1.020387891190037e-16 5.559259508191684e-17 1.020387891190037e-16 -0.20338671398670252 -0.9790984856353888
12649996000.0 -0.2140652717428895 -0.9768193586500343 5.670129064604803e-17 1.014009103156924e-16 5.670129064604803e-17 1.014009103156924e-16 -0.21406461350449704 -0.9768195028995842
12650613333.333334 -0.22471765069098296 -0.9744239208207823 5.780268351681101e-17 1.0075099467000652e-16 5.780268351681101e-17 1.0075099467000652e-16 -0.22471699409881493 -0.9744240722411438
12651230666.666666 -0.23534324075331237 -0.971912320650145 5.889664311996382e-17 1.000891256119769e-16 5.889664311996382e-17 1.000891256119769e-16 -0.23534258588547732 -0.9719124792225672
12651848000.0 -0.24594077523958008 -0.9692848575493047 5.998303983258323e-17 9.941538798688885e-17 5.998303983258323e-17 9.941538798688885e-17 -0.24594012217397382 -0.969285023254188
12652465333.333334 -0.2565089908039488 -0.9665418447416338 6.106174499836853e-17 9.872986804446857e-17 6.106174499836853e-17 9.872986804446857e-17 -0.2565083396182444 -0.9665420175585289
12653082666.666666 -0.2670466275956472 -0.9636836092253577 6.213263094283412e-17 9.803265342789711e-17 6.213263094283412e-17 9.803265342789711e-17 -0.2670459783672862 -0.9636837891329704
12653700000.0 -0.2775524294094602 -0.9607104917344904 6.31955709884328e-17 9.732383316262452e-17 6.31955709884328e-17 9.732383316262452e-17 -0.27755178221564314 -0.9607106787106825
12654317333.333334 -0.2880251438349892 -0.9576228466983508 6.425043946945753e-17 9.660349764508076e-17 6.425043946945753e-17 9.660349764508076e-17 -0.2880244987526668 -0.9576230407201446
12654934666.666666 -0.2984635224063924 -0.9544210421991906 6.5297111746896e-17 9.587173863117399e-17 6.5297111746896e-17 9.587173863117399e-17 -0.29846287951225564 -0.9544212432427689
12655552000.0 -0.30886632075110476 -0.9511054599283391 6.633546422312375e-17 9.51286492246478e-17 6.633546422312375e-17 9.51286492246478e-17 -0.3088656801215767 -0.9511056679690518
12656169333.333334 -0.31923229873796466 -0.9476764951407711 6.736537435644182e-17 9.437432386529693e-17 6.736537435644182e-17 9.437432386529693e-17 -0.3192316604491912 -0.9476767101531367
12656786666.666666 -0.32956022062535073 -0.9441345566078976 6.838672067553464e-17 9.360885831698846e-17 6.838672067553464e-17 9.360885831698846e-17 -0.3295595847531911 -0.9441347785656055
12657404000.0 -0.33984885520825203 -0.9404800665689103 6.93993827937388e-17 9.283234965556476e-17 6.93993827937388e-17 9.283234965556476e-17 -0.33984822182826974 -0.9404802954448238
12658021333.333334 -0.35009697596525663 -0.9367134606803742 7.040324142322055e-17 9.20448962565601e-17 7.040324142322055e-17 9.20448962565601e-17 -0.3500963451527115 -0.9367136964465368
12658638666.666666 -0.36030336120452766 -0.9328351879643813 7.139817838896974e-17 9.124659778279796e-17 7.139817838896974e-17 9.124659778279796e-17 -0.3603027330343648 -0.932835430592014
12659256000.0 -0.3704667942097326 -0.9288457107549052 7.238407664270563e-17 9.04375551717968e-17 7.238407664270563e-17 9.04375551717968e-17 -0.3704661687565764 -0.9288459602144187
12659873333.333334 -0.3805860633848798 -0.9247455046427747 7.336082027658877e-17 8.96178706230672e-17 7.336082027658877e-17 8.96178706230672e-17 -0.38058544072302264 -0.9247457609037653
12660490666.666666 -0.39065996239864936 -0.9205350584190194 7.432829453681411e-17 8.87876475852439e-17 7.432829453681411e-17 8.87876475852439e-17 -0.3906593426020432 -0.9205353214502747
12661108000.0 -0.4006872903286195 -0.9162148740164227 7.528638583708457e-17 8.794699074304621e-17 7.528638583708457e-17 8.794699074304621e-17 -0.40068667347086867 -0.9162151437859289
12661725333.333334 -0.4106668518039616 -0.9117854664498906 7.623498177186717e-17 8.709600600415731e-17 7.623498177186717e-17 8.709600600415731e-17 -0.4106662379583121 -0.9117857429248324
12662342666.666666 -0.4205974571482524 -0.9072473637549157 7.717397112958724e-17 8.623480048588482e-17 7.717397112958724e-17 8.623480048588482e-17 -0.4205968463875845 -0.9072476469016824
12662960000.0 -0.430477922521195 -0.9026011069246793 7.810324390560863e-17 8.536348250173613e-17 7.810324390560863e-17 8.536348250173613e-17 -0.4304773149180139 -0.9026013967088675
12663577333.333334 -0.4403070700596672 -0.8978472498455918 7.902269131509012e-17 8.44821615478306e-17 7.902269131509012e-17 8.44821615478306e-17 -0.4403064656860944 -0.89784754623201
12664194666.666666 -0.4500837280182907 -0.8929863592311915 7.993220580568388e-17 8.359094828917787e-17 7.993220580568388e-17 8.359094828917787e-17 -0.45008312694605634 -0.8929866621838659
12664812000.0 -0.4598067309090142 -0.8880190145546356 8.083168107008213e-17 8.26899545458178e-17 8.083168107008213e-17 8.26899545458178e-17 -0.4598061332094475 -0.8880193240368123
12665429333.333334 -0.4694749196401035 -0.8829458079795948 8.172101205839906e-17 8.177929327883541e-17 8.172101205839906e-17 8.177929327883541e-17 -0.46947432538412487 -0.8829461239537452
12666046666.666666 -0.479087141654192 -0.8777673442897254 8.260009499040509e-17 8.085907857623384e-17 8.260009499040509e-17 8.085907857623384e-17 -0.47908655091230407 -0.8777676667175509
12666664000.0 -0.4886422510659796 -0.8724842408164136 8.346882736761571e-17 7.992942563866182e-17 8.346882736761571e-17 7.992942563866182e-17 -0.4886416639082598 -0.8724845696588501
12667281333.333334 -0.49813910879838597 -0.8670971273654248 8.432710798517519e-17 7.899045076505939e-17 8.432710798517519e-17 7.899045076505939e-17 -0.49813852529447705 -0.867097462582647
12667898666.666666 -0.5075765827187396 -0.861606646141607 8.517483694363157e-17 7.804227133812215e-17 8.517483694363157e-17 7.804227133812215e-17 -0.5075760029378428 -0.861606987693034
12668516000.0 -0.5169535477736408 -0.8560134516723832 8.601191566052734e-17 7.708500580966011e-17 8.601191566052734e-17 7.708500580966011e-17 -0.5169529717845063 -0.8560137995166833
12669133333.333334 -0.5262688861228837 -0.8503182107298419 8.683824688179701e-17 7.611877368586831e-17 8.683824688179701e-17 7.611877368586831e-17 -0.5262683139938032 -0.8503185648249375
12669750666.666666 -0.5355214872729861 -0.8445216022510911 8.765373469306196e-17 7.514369551240402e-17 8.765373469306196e-17 7.514369551240402e-17 -0.535520919071784 -0.8445219625541618
12670368000.0 -0.5447102482093767 -0.8386243172574361 8.845828453070602e-17 7.415989285940227e-17 8.845828453070602e-17 7.415989285940227e-17 -0.544709684003403 -0.8386246837249272
