! Parameters = {f0=12700.012000; bw=77.238000; Q=6100.000000; N=10; m_0_1=1.275771; m_1_1=0.371816; m_1_2=1.110583; m_2_2=0.371167; m_2_3=0.747546; m_2_8=0.000852; m_2_9=0.037556; m_3_3=0.369230; m_3_4=0.636075; m_3_7=0.001452; m_3_8=-0.095636; m_3_9=0.000852; m_4_4=0.366305; m_4_5=0.472410; m_4_6=0.004969; m_4_7=-0.116185; m_4_8=0.001452; m_5_5=0.366687; m_5_6=0.879765; m_5_7=0.004969; m_6_6=0.366686; m_6_7=0.472752; m_7_7=0.366319; m_7_8=0.636193; m_8_8=0.369228; m_8_9=0.747859; m_9_9=0.371162; m_9_10=1.111661; m_10_10=0.371806; m_10_11=1.276566}
!
! Created with skrf (http://scikit-rf.org).
# Hz S RI R 50.0 
!freq ReS11 ImS11 ReS21 ImS21 ReS12 ImS12 ReS22 ImS22
12607400000.0 -0.9125641743009563 -0.40893352489400575 1.126367221755283e-16 1.5101294214455912e-17 1.126367221755283e-16 1.5101294214455912e-17 -0.9125638994396297 -0.4089341382660041
12608017333.333334 -0.9168848642736349 -0.3991517827415302 1.127709094214084e-16 1.3883245190532017e-17 1.127709094214084e-16 1.3883245190532017e-17 -0.9168845960001555 -0.39915239898747146
12608634666.666666 -0.9211007076896303 -0.3893243972492409 1.128919332103501e-16 1.2664059077450389e-17 1.128919332103501e-16 1.2664059077450389e-17 -0.9211004460340297 -0.38932501629837957
12609252000.0 -0.9252112224637791 -0.37945249218697036 1.1299978462937735e-16 1.1443878041494234e-17 1.1299978462937735e-16 1.1443878041494234e-17 -0.9252109674553272 -0.3794531139682459
12609869333.333334 -0.9292159385553446 -0.36953719641537175 1.130944562999392e-16 1.022284430889154e-17 1.130944562999392e-16 1.022284430889154e-17 -0.9292156902225508 -0.3695378208574195
12610486666.666666 -0.9331143980217182 -0.3595796437569672 1.1317594237816441e-16 9.001100149293344e-18 1.1317594237816441e-16 9.001100149293344e-18 -0.9331141563923249 -0.3595802707881247
12611104000.0 -0.9369061550709117 -0.34958097286617734 1.1324423855494215e-16 7.77878785918579e-18 1.1324423855494215e-16 7.77878785918579e-18 -0.9369059201718907 -0.3495816024144928
12611721333.333334 -0.940590776112342 -0.3395423270995894 1.1329934205581866e-16 6.556049745389274e-18 1.1329934205581866e-16 6.556049745389274e-18 -0.9405905479698942 -0.3395429590928306
12612338666.666666 -0.9441678398065836 -0.329464854384792 1.133412516407212e-16 5.333028108485622e-18 1.133412516407212e-16 5.333028108485622e-18 -0.9441676184461347 -0.3294654887504541
12612956000.0 -0.9476369371135012 -0.31934970708921195 1.1336996760350053e-16 4.109865226284593e-18 1.1336996760350053e-16 4.109865226284593e-18 -0.9476367225596988 -0.31935034375452614
12613573333.333334 -0.9509976713389503 -0.30919804188855554 1.1338549177129578e-16 2.886703337328585e-18 1.1338549177129578e-16 2.886703337328585e-18 -0.9509974636156617 -0.3091986807804971
12614190666.666666 -0.954249658180234 -0.2990110196342735 1.1338782750372273e-16 1.6636846243438704e-18 1.1338782750372273e-16 1.6636846243438704e-18 -0.9542494573105436 -0.2990116606795705
12614808000.0 -0.9573925257700033 -0.28878980522095155 1.1337697969188275e-16 4.409511977692512e-19 1.1337697969188275e-16 4.409511977692512e-19 -0.9573923317762084 -0.2887904483460927
12615425333.333334 -0.9604259147187929 -0.27853556745304764 1.1335295475719556e-16 -7.8135492075199195e-19 1.1335295475719556e-16 -7.8135492075199195e-19 -0.9604257276224022 -0.2785362125842909
12616042666.666666 -0.9633494781560904 -0.26824947891134965 1.1331576065005357e-16 -2.003091814827934e-18 1.1331576065005357e-16 -2.003091814827934e-18 -0.9633492979778228 -0.2682501259747309
12616660000.0 -0.9661628817700461 -0.2579327158187238 1.132654068482997e-16 -3.224117689771278e-18 1.132654068482997e-16 -3.224117689771278e-18 -0.9661627085298268 -0.2579333647400654
12617277333.333334 -0.9688658038456784 -0.2475864579056961 1.1320190435552795e-16 -4.444290889032037e-18 1.1320190435552795e-16 -4.444290889032037e-18 -0.9688656375626385 -0.24758710861061545
12617894666.666666 -0.9714579353016365 -0.2372118882756589 1.1312526569920878e-16 -5.663469910588463e-18 1.1312526569920878e-16 -5.663469910588463e-18 -0.9714577759941083 -0.2372125406895762
12618512000.0 -0.9739389797256166 -0.22681019326927834 1.1303550492863442e-16 -6.881513423365004e-18 1.1303550492863442e-16 -6.881513423365004e-18 -0.9739388274111337 -0.2268108473174259
12619129333.333334 -0.9763086534081646 -0.21638256232922212 1.1293263761269392e-16 -8.098280283543674e-18 1.1293263761269392e-16 -8.098280283543674e-18 -0.9763085081034586 -0.21638321793665274
12619746666.666666 -0.9785666853751835 -0.20593018786386924 1.1281668083746734e-16 -9.313629550924382e-18 1.1281668083746734e-16 -9.313629550924382e-18 -0.9785665470961852 -0.20593084495546513
12620364000.0 -0.980712817418926 -0.19545426511092942 1.126876532036454e-16 -1.0527420505226197e-17 1.126876532036454e-16 -1.0527420505226197e-17 -0.9807126861807595 -0.19545492361141
12620981333.333334 -0.982746804127442 -0.1849559920011275 1.1254557482378024e-16 -1.173951266231199e-17 1.1254557482378024e-16 -1.173951266231199e-17 -0.9827466799444238 -0.18495665183505836
12621598666.666666 -0.9846684129127338 -0.1744365690207739 1.1239046731935105e-16 -1.2949765790472046e-17 1.1239046731935105e-16 -1.2949765790472046e-17 -0.9846682957983744 -0.17443723011257584
12622216000.0 -0.9864774240373054 -0.16389719907473915 1.1222235381766452e-16 -1.4158039926592003e-17 1.1222235381766452e-16 -1.4158039926592003e-17 -0.9864773140043039 -0.16389786134869633
12622833333.333334 -0.9881736306392997 -0.1533390873488162 1.1204125894857657e-16 -1.5364195392321582e-17 1.1204125894857657e-16 -1.5364195392321582e-17 -0.9881735276995454 -0.15333975072908507
12623450666.666666 -0.9897568387561394 -0.14276344117201908 1.1184720884104502e-16 -1.656809281018172e-17 1.1184720884104502e-16 -1.656809281018172e-17 -0.98975674292071 -0.1427641055826372
12624068000.0 -0.9912268673467287 -0.13217146987838357 1.1164023111950412e-16 -1.776959311965895e-17 1.1164023111950412e-16 -1.776959311965895e-17 -0.9912267786258881 -0.13217213524327806
12624685333.333334 -0.9925835483121619 -0.12156438466862231 1.1142035490006895e-16 -1.8968557593243955e-17 1.1142035490006895e-16 -1.8968557593243955e-17 -0.9925834667153579 -0.12156505091161832
12625302666.666666 -0.99382672651489 -0.11094339847201679 1.1118761078657402e-16 -2.016484785239038e-17 1.1118761078657402e-16 -2.016484785239038e-17 -0.993826652050757 -0.11094406551684685
12625920000.0 -0.994956259796541 -0.10030972580712666 1.1094203086642569e-16 -2.1358325883508976e-17 1.1094203086642569e-16 -2.1358325883508976e-17 -0.9949561924728958 -0.10031039357743894
12626537333.333334 -0.99597201899411 -0.0896645826434158 1.1068364870630444e-16 -2.2548854053805915e-17 1.1068364870630444e-16 -2.2548854053805915e-17 -0.9959719588179532 -0.08966525106278304
12627154666.666666 -0.9968738879547596 -0.07900918626200823 1.1041249934767849e-16 -2.3736295127165173e-17 1.1041249934767849e-16 -2.3736295127165173e-17 -0.9968738349322718 -0.07900985525393628
12627772000.0 -0.9976617635491082 -0.06834475511629194 1.1012861930215288e-16 -2.4920512279946915e-17 1.1012861930215288e-16 -2.4920512279946915e-17 -0.997661717685654 -0.06834542460422886
12628389333.333334 -0.9983355556829895 -0.057672508693126644 1.0983204654666153e-16 -2.610136911668501e-17 1.0983204654666153e-16 -2.610136911668501e-17 -0.9983355169831132 -0.057673178600471185
12629006666.666666 -0.9988951873078034 -0.04699366737265717 1.0952282051847007e-16 -2.727872968581624e-17 1.0952282051847007e-16 -2.727872968581624e-17 -0.9988951557752292 -0.04699433762276756
12629624000.0 -0.9993405944292776 -0.036309452289470745 1.092009821100299e-16 -2.845245849527036e-17 1.092009821100299e-16 -2.845245849527036e-17 -0.9993405700669113 -0.036310122805673604
12630241333.333334 -0.9996717261148186 -0.025621085192477255 1.088665736636535e-16 -2.962242052805408e-17 1.088665736636535e-16 -2.962242052805408e-17 -0.9996717089247458 -0.025621755898076238
12630858666.666666 -0.9998885444993234 -0.01492978830551347 1.0851963896603173e-16 -3.0788481257736106e-17 1.0851963896603173e-16 -3.0788481257736106e-17 -0.9998885344828066 -0.014930459123798015
12631476000.0 -0.9999910247895102 -0.0042367841872395905 1.0816022324257047e-16 -3.195050666392493e-17 1.0816022324257047e-16 -3.195050666392493e-17 -0.9999910219469941 -0.004237455041493823
12632093333.333334 -0.9999791552667517 0.0064567044083201665 1.07788373151588e-16 -3.310836324759234e-17 1.07788373151588e-16 -3.310836324759234e-17 -0.9999791595978613 0.006456033594808756
12632710666.666666 -0.9998529372884235 0.017149454671657408 1.0740413677832264e-16 -3.4261918046419834e-17 1.0740413677832264e-16 -3.4261918046419834e-17 -0.9998529487919614 0.017148783975589173
12633328000.0 -0.9996123852877377 0.027840243877921472 1.0700756362878556e-16 -3.5411038650042384e-17 1.0700756362878556e-16 -3.5411038650042384e-17 -0.9996124039616885 0.027839573375975868
12633945333.333334 -0.9992575267721011 0.03852784952636963 1.0659870462346037e-16 -3.6555593215194875e-17 1.0659870462346037e-16 -3.6555593215194875e-17 -0.9992575526136283 0.038527179295196376
12634562666.666666 -0.9987884023199644 0.04921104948033149 1.0617761209082837e-16 -3.769545048082652e-17 1.0617761209082837e-16 -3.769545048082652e-17 -0.9987884353254127 0.04921037959654189
12635180000.0 -0.9982050655761849 0.05988862210693303 1.0574433976073871e-16 -3.883047978312338e-17 1.0574433976073871e-16 -3.883047978312338e-17 -0.9982051057410808 0.05988795264709119
12635797333.333334 -0.9975075832458886 0.07055934641681963 1.0529894275761537e-16 -3.9960551070461396e-17 1.0529894275761537e-16 -3.9960551070461396e-17 -0.9975076305649397 0.07055867745743369
12636414666.666666 -0.9966960350868519 0.08122200220366389 1.0484147759351167e-16 -4.1085534918268003e-17 1.0484147759351167e-16 -4.1085534918268003e-17 -0.9966960895539477 0.08122133382117722
12637032000.0 -0.9957705139003643 0.09187537018389551 1.0437200216099248e-16 -4.220530254383742e-17 1.0437200216099248e-16 -4.220530254383742e-17 -0.9957705755085791 0.09187470245467814
12637649333.333334 -0.9947311255206361 0.10251823213590085 1.0389057572587712e-16 -4.3319725821021175e-17 1.0389057572587712e-16 -4.3319725821021175e-17 -0.9947311942622284 0.10251756513624073
12638266666.666666 -0.9935779888026817 0.11314937103952603 1.0339725891980745e-16 -4.4428677294881225e-17 1.0339725891980745e-16 -4.4428677294881225e-17 -0.9935780646690934 0.11314870484562002
12638884000.0 -0.9923112356087326 0.12376757121513049 1.0289211373267327e-16 -4.553203019622644e-17 1.0289211373267327e-16 -4.553203019622644e-17 -0.9923113185905927 0.12376690590307601
12639501333.333334 -0.9909310107931569 0.13437161846265774 1.0237520350487566e-16 -4.6629658456081784e-17 1.0237520350487566e-16 -4.6629658456081784e-17 -0.9909311008802824 0.134370954108444
12640118666.666666 -0.9894374721859173 0.14496030020031125 1.0184659291944718e-16 -4.7721436720047087e-17 1.0184659291944718e-16 -4.7721436720047087e-17 -0.989437569367313 0.1449596368798104
12640736000.0 -0.9878307905744583 0.1555324056036643 1.0130634799398854e-16 -4.880724036263062e-17 1.0130634799398854e-16 -4.880724036263062e-17 -0.9878308948383188 0.15553174339262288
12641353333.333334 -0.9861111496842718 0.16608672574347194 1.007545360725097e-16 -4.988694550137753e-17 1.007545360725097e-16 -4.988694550137753e-17 -0.9861112610179826 0.16608606471750223
12641970666.666666 -0.9842787461578153 0.1766220537243908 1.001912258170563e-16 -5.096042901103537e-17 1.001912258170563e-16 -5.096042901103537e-17 -0.9842788645479568 0.17662139395896237
12642588000.0 -0.982333789532046 0.18713718482287667 9.96164871992285e-17 -5.2027568537540146e-17 9.96164871992285e-17 -5.2027568537540146e-17 -0.9823339149643919 0.18713652639330758
12643205333.333334 -0.9802765022144719 0.19763091662486132 9.90303914915449e-17 -5.3088242511922005e-17 9.90303914915449e-17 -5.3088242511922005e-17 -0.9802766346739911 0.19763025960630926
12643822666.666666 -0.9781071194576911 0.20810204916338884 9.84330112586296e-17 -5.414233016416769e-17 9.84330112586296e-17 -5.414233016416769e-17 -0.9781072589285509 0.20810139363084285
12644440000.0 -0.9758258893325189 0.2185493850556933 9.782442034830376e-17 -5.5189711536888773e-17 9.782442034830376e-17 -5.5189711536888773e-17 -0.9758260357980876 0.2185487310839655
12645057333.333334 -0.9734330726996189 0.22897172964014942 9.720469388248533e-17 -5.623026749897805e-17 9.720469388248533e-17 -5.623026749897805e-17 -0.9734332261424657 0.22897107730386598
12645674666.666666 -0.9709289431796714 0.23936789111288276 9.657390824796959e-17 -5.726387975911615e-17 9.657390824796959e-17 -5.726387975911615e-17 -0.9709291035815707 0.2393672404864757
12646292000.0 -0.9683137871220328 0.2497366806642745 9.593214108704547e-17 -5.829043087921145e-17 9.593214108704547e-17 -5.829043087921145e-17 -0.968313954463963 0.24973603182197282
12646909333.333334 -0.9655879035721026 0.2600769126144332 9.527947128800453e-17 -5.930980428767827e-17 9.527947128800453e-17 -5.930980428767827e-17 -0.9655880778342514 0.26007626563025477
12647526666.666666 -0.9627516042370221 0.27038740454922033 9.461597897547095e-17 -6.032188429267193e-17 9.461597897547095e-17 -6.032188429267193e-17 -0.9627517853987881 0.2703867594969632
12648144000.0 -0.9598052134500611 0.2806669774553213 9.394174550060918e-17 -6.132655609518628e-17 9.394174550060918e-17 -6.132655609518628e-17 -0.9598054014900562 0.2806663344085558
12648761333.333334 -0.9567490681335526 0.29091445585498493 9.32568534311968e-17 -6.232370580203705e-17 9.32568534311968e-17 -6.232370580203705e-17 -0.9567492630296036 0.29091381488704454
12649378666.666666 -0.9535835177603683 0.30112866794044063 9.256138654156253e-17 -6.331322043873278e-17 9.256138654156253e-17 -6.331322043873278e-17 -0.9535837194895208 0.30112802912441416
12649996000.0 -0.9503089243139166 0.3113084457080324 9.185542980236049e-17 -6.429498796227341e-17 9.185542980236049e-17 -6.429498796227341e-17 -0.9503091328524363 0.31130780911675526
12650613333.333334 -0.9469256622467591 0.32145262509172434 9.11390693702413e-17 -6.526889727378761e-17 9.11390693702413e-17 -6.526889727378761e-17 -0.9469258775701367 0.3214519907977707
12651230666.666666 -0.9434341184378707 0.3315600460959992 9.041239257738386e-17 -6.623483823106729e-17 9.041239257738386e-17 -6.623483823106729e-17 -0.9434343405208229 0.33155941417167345
12651848000.0 -0.9398346921482521 0.341629552928935 8.967548792086867e-17 -6.719270166101845e-17 8.967548792086867e-17 -6.719270166101845e-17 -0.9398349209647249 0.34162892344626333
12652465333.333334 -0.9361277949753891 0.35165999413401977 8.892844505195664e-17 -6.814237937194638e-17 8.892844505195664e-17 -6.814237937194638e-17 -0.9361280304985619 0.35165936716474255
12653082666.666666 -0.9323138508061855 0.36165022272185127 8.81713547652212e-17 -6.90837641657452e-17 8.81713547652212e-17 -6.90837641657452e-17 -0.9323140930084723 0.361649598337414
12653700000.0 -0.9283932957683869 0.3715990963015612 8.740430898752945e-17 -7.001674984999435e-17 8.740430898752945e-17 -7.001674984999435e-17 -0.9283935446214411 0.37159847457310685
12654317333.333334 -0.9243665781808386 0.3815054772111015 8.662740076695387e-17 -7.094123124986137e-17 8.662740076695387e-17 -7.094123124986137e-17 -0.9243668336555574 0.3815048582094632
12654934666.666666 -0.9202341585021795 0.39136823264747483 8.584072426149024e-17 -7.185710421996638e-17 8.584072426149024e-17 -7.185710421996638e-17 -0.9202344205687037 0.39136761644316614
12655552000.0 -0.9159965092780574 0.40118623479655496 8.504437472769077e-17 -7.276426565607213e-17 8.504437472769077e-17 -7.276426565607213e-17 -0.9159967779057779 0.4011856214597631
12656169333.333334 -0.9116541150873503 0.41095836096145316 8.423844850918281e-17 -7.366261350663986e-17 8.423844850918281e-17 -7.366261350663986e-17 -0.9116543902449105 0.4109577505620304
12656786666.666666 -0.9072074724865211 0.42068349369144803 8.342304302502867e-17 -7.455204678430154e-17 8.342304302502867e-17 -7.455204678430154e-17 -0.9072077541418208 0.4206828862989039
12657404000.0 -0.9026570899529462 0.4303605209095054 8.259825675799537e-17 -7.543246557716746e-17 8.259825675799537e-17 -7.543246557716746e-17 -0.9026573780731476 0.43035991659299994
12658021333.333334 -0.898003487826742 0.4399883360395257 8.176418924269214e-17 -7.630377106002217e-17 8.176418924269214e-17 -7.630377106002217e-17 -0.8980037823782671 0.43998773486785864
12658638666.666666 -0.8932471982513142 0.44956583813274903 8.092094105360391e-17 -7.716586550537233e-17 8.092094105360391e-17 -7.716586550537233e-17 -0.8932474991998564 0.44956524017435545
12659256000.0 -0.88838876511238 0.459091931993935 8.006861379297682e-17 -7.801865229439809e-17 8.006861379297682e-17 -7.801865229439809e-17 -0.8883890724229033 0.4590913373168751
12659873333.333334 -0.8834287439759327 0.4685655283062658 7.920731007862823e-17 -7.886203592772964e-17 7.920731007862823e-17 -7.886203592772964e-17 -0.8834290576126768 0.4685649369782178
12660490666.666666 -0.8783677020246385 0.47798554375606395 7.833713353163534e-17 -7.969592203609955e-17 7.833713353163534e-17 -7.969592203609955e-17 -0.8783680219511234 0.47798495584431683
12661108000.0 -0.8732062179928971 0.48735090115681995 7.745818876386604e-17 -8.052021739090315e-17 7.745818876386604e-17 -8.052021739090315e-17 -0.8732065441719282 0.48735031672826595
12661725333.333334 -0.8679448821008389 0.49666052957204493 7.657058136547751e-17 -8.133482991454789e-17 7.657058136547751e-17 -8.133482991454789e-17 -0.8679452144945096 0.49665994869317104
12662342666.666666 -0.8625842959866821 0.5059133644380067 7.567441789223696e-17 -8.213966869073038e-17 7.567441789223696e-17 -8.213966869073038e-17 -0.8625846345563781 0.5059127871748872
12662960000.0 -0.8571250726380036 0.5151083476853392 7.476980585277432e-17 -8.293464397453738e-17 7.476980585277432e-17 -8.293464397453738e-17 -0.8571254173444092 0.515107774103629
12663577333.333334 -0.8515678363216153 0.5242444278600827 7.38568536957155e-17 -8.371966720242009e-17 7.38568536957155e-17 -8.371966720242009e-17 -0.851568187124717 0.5242438580250096
12664194666.666666 -0.845913222512238 0.5333205602438221 7.293567079671362e-17 -8.449465100202491e-17 7.293567079671362e-17 -8.449465100202491e-17 -0.8459135793713283 0.5333199942201784
12664812000.0 -0.8401618778197439 0.5423357069732961 7.200636744537752e-17 -8.525950920188185e-17 7.200636744537752e-17 -8.525950920188185e-17 -0.8401622406934276 0.5423351448254323
12665429333.333334 -0.8343144599152623 0.5512888371590043 7.106905483209442e-17 -8.601415684095392e-17 7.106905483209442e-17 -8.601415684095392e-17 -0.8343148287614599 0.5512882789508217
12666046666.666666 -0.8283716374560358 0.560178927002997 7.012384503478029e-17 -8.675851017802016e-17 7.012384503478029e-17 -8.675851017802016e-17 -0.8283720122319894 0.5601783727979399
12666664000.0 -0.8223340900087865 0.5690049599162065 6.917085100546752e-17 -8.749248670096473e-17 6.917085100546752e-17 -8.749248670096473e-17 -0.8223344706710646 0.5690044097772556
12667281333.333334 -0.8162025079722289 0.5777659266343652 6.821018655688367e-17 -8.821600513585072e-17 6.821018655688367e-17 -8.821600513585072e-17 -0.8162028944767307 0.5777653806240302
12667898666.666666 -0.8099775924979631 0.5864608253336518 6.724196634886285e-17 -8.892898545590328e-17 6.724196634886285e-17 -8.892898545590328e-17 -0.8099779847999237 0.5864602835139633
12668516000.0 -0.8036600554102757 0.5950886617452692 6.626630587469116e-17 -8.963134889032257e-17 6.626630587469116e-17 -8.963134889032257e-17 -0.8036604534642732 0.5950881241777741
12669133333.333334 -0.7972506191249658 0.6036484492688463 6.528332144738433e-17 -9.032301793293091e-17 6.528332144738433e-17 -9.032301793293091e-17 -0.7972510228849232 0.6036479160145979
12669750666.666666 -0.7907500165664604 0.6121392090856178 6.429313018582654e-17 -9.100391635070544e-17 6.429313018582654e-17 -9.100391635070544e-17 -0.7907504259856545 0.6121386802051716
