! Parameters = {f0=12700.012000; bw=77.238000; Q=6100.000000; N=10; m_0_1=1.196091; m_1_1=-0.823379; m_1_2=1.030903; m_2_2=-0.824028; m_2_3=0.667866; m_2_8=-0.003132; m_2_9=0.033572; m_3_3=-0.825965; m_3_4=0.556395; m_3_7=-0.002532; m_3_8=-0.099620; m_3_9=-0.003132; m_4_4=-0.828890; m_4_5=0.392730; m_4_6=0.000985; m_4_7=-0.120169; m_4_8=-0.002532; m_5_5=-0.828508; m_5_6=0.800085; m_5_7=0.000985; m_6_6=-0.828509; m_6_7=0.393072; m_7_7=-0.828876; m_7_8=0.556513; m_8_8=-0.825967; m_8_9=0.668179; m_9_9=-0.824033; m_9_10=1.031981; m_10_10=-0.823389; m_10_11=1.196886}
!
! Created with skrf (http://scikit-rf.org).
# Hz S RI R 50.0 
!freq ReS11 ImS11 ReS21 ImS21 ReS12 ImS12 ReS22 ImS22
12607400000.0 0.13554995475691292 0.99077051316904 -3.1682737243350235e-17 -7.019520014576801e-17 -3.1682737243350235e-17 -7.019520014576801e-17 0.1355493302744442 0.9907705986059503
12608017333.333334 0.14380619700237188 0.9896058698813169 -3.226679751973629e-17 -6.991203418335458e-17 -3.226679751973629e-17 -6.991203418335458e-17 0.14380557328452118 0.9896059605176971
12608634666.666666 0.1520524415612221 0.9883724272839234 -3.2848337322908194e-17 -6.962401372909498e-17 -3.2848337322908194e-17 -6.962401372909498e-17 0.15205181865127437 0.9883725231129625
12609252000.0 0.16028811513863558 0.9870702711282252 -3.3427316348276135e-17 -6.933116113531053e-17 -3.3427316348276135e-17 -6.933116113531053e-17 0.16028749307981538 0.9870703721427524
12609869333.333334 0.16851264517472797 0.9856994919426809 -3.4003694488818045e-17 -6.903349908857642e-17 -3.4003694488818045e-17 -6.903349908857642e-17 0.1685120240101968 0.9856995981351675
12610486666.666666 0.17672545988422472 0.9842601850265781 -3.457743183783855e-17 -6.873105060798569e-17 -3.457743183783855e-17 -6.873105060798569e-17 0.1767248396570772 0.9842602963891331
12611104000.0 0.1849259882965195 0.9827524504433452 -3.5148488691741935e-17 -6.842383904337527e-17 -3.5148488691741935e-17 -6.842383904337527e-17 0.18492536904978124 0.9827525669677215
12611721333.333334 0.1931136602949783 0.9811763930136719 -3.5716825552751005e-17 -6.811188807354972e-17 -3.5716825552751005e-17 -6.811188807354972e-17 0.19311304207160254 0.9811765146912635
12612338666.666666 0.20128790665685484 0.9795321223081686 -3.628240313163894e-17 -6.779522170446676e-17 -3.628240313163894e-17 -6.779522170446676e-17 0.20128728949971927 0.9795322491300121
12612956000.0 0.20944815909286268 0.977819752639746 -3.6845182350433934e-17 -6.747386426740642e-17 -3.6845182350433934e-17 -6.747386426740642e-17 0.20944754304476687 0.9778198845965216
12613573333.333334 0.21759385028643444 0.9760394030557211 -3.740512434510984e-17 -6.714784041711735e-17 -3.740512434510984e-17 -6.714784041711735e-17 0.2175932353900963 0.9760395401377516
12614190666.666666 0.22572441393343978 0.9741911973294811 -3.796219046826024e-17 -6.681717512994019e-17 -3.796219046826024e-17 -6.681717512994019e-17 0.22572380023149352 0.974191339526736
12614808000.0 0.23383928478141822 0.9722752639519106 -3.851634229175637e-17 -6.648189370190929e-17 -3.851634229175637e-17 -6.648189370190929e-17 0.23383867231641048 0.9722754112540035
12615425333.333334 0.24193789866890353 0.9702917361224506 -3.9067541609388276e-17 -6.614202174683223e-17 -3.9067541609388276e-17 -6.614202174683223e-17 0.24193728748329077 0.9702918885186411
12616042666.666666 0.25001969256464496 0.9682407517398365 -3.961575043948934e-17 -6.579758519434786e-17 -3.961575043948934e-17 -6.579758519434786e-17 0.2500190827007909 0.9682409092190324
12616660000.0 0.25808410460675185 0.9661224533925167 -4.016093102754385e-17 -6.544861028796257e-17 -4.016093102754385e-17 -6.544861028796257e-17 0.25808349610692366 0.9661226159432721
12617277333.333334 0.26613057414178043 0.9639369883487248 -4.070304584877904e-17 -6.50951235830636e-17 -4.070304584877904e-17 -6.50951235830636e-17 0.266129967048147 0.963937155959244
12617894666.666666 0.274158541763577 0.9616845085462864 -4.124205761072903e-17 -6.47371519449185e-17 -4.124205761072903e-17 -6.47371519449185e-17 0.27415793611820477 0.9616846812044216
12618512000.0 0.28216744935246824 0.9593651705819662 -4.17779292558106e-17 -6.437472254663424e-17 -4.17779292558106e-17 -6.437472254663424e-17 0.2821668451973192 0.959365348275221
12619129333.333334 0.29015674011368076 0.9569791357006928 -4.231062396383546e-17 -6.400786286712502e-17 -4.231062396383546e-17 -6.400786286712502e-17 0.29015613749060887 0.9569793184162209
12619746666.666666 0.29812585861632357 0.9545265697842692 -4.284010515454849e-17 -6.363660068903046e-17 -4.284010515454849e-17 -6.363660068903046e-17 0.2981252575670724 0.9545267575088769
12620364000.0 0.306074250832002 0.952007643339838 -4.3366336490129805e-17 -6.326096409662507e-17 -4.3366336490129805e-17 -6.326096409662507e-17 0.3060736513982017 0.9520078360599853
12620981333.333334 0.31400136417309094 0.9494225314881046 -4.388928187766238e-17 -6.288098147371821e-17 -4.388928187766238e-17 -6.288098147371821e-17 0.3140007663962553 0.9494227291899051
12621598666.666666 0.32190664753142306 0.9467714139510784 -4.440890547161565e-17 -6.249668150151041e-17 -4.440890547161565e-17 -6.249668150151041e-17 0.3219060514529461 0.9467716166203001
12622216000.0 0.32978955131646637 0.9440544750396168 -4.4925171676283434e-17 -6.21080931564475e-17 -4.4925171676283434e-17 -6.21080931564475e-17 0.32978895697762106 0.9440546826616858
12622833333.333334 0.3376495274935889 0.9412719036406002 -4.5438045148215784e-17 -6.171524570804627e-17 -4.5438045148215784e-17 -6.171524570804627e-17 0.3376489349355222 0.9412721162005973
12623450666.666666 0.3454860296220494 0.9384238932038312 -4.5947490798621705e-17 -6.131816871670821e-17 -4.5947490798621705e-17 -6.131816871670821e-17 0.3454854388857811 0.938424110686497
12624068000.0 0.353298512893123 0.9355106417285439 -4.645347379576811e-17 -6.091689203150087e-17 -4.645347379576811e-17 -6.091689203150087e-17 0.3532979240195417 0.9355108641182772
12624685333.333334 0.3610864341680017 0.9325323517496226 -4.695595956735277e-17 -6.051144578792542e-17 -4.695595956735277e-17 -6.051144578792542e-17 0.36108584719786296 0.9325325790304835
12625302666.666666 0.36884925201529023 0.9294892303236252 -4.745491380283936e-17 -6.01018604056796e-17 -4.745491380283936e-17 -6.01018604056796e-17 0.3688486669892134 0.9294894624793354
12625920000.0 0.37658642674904447 0.926381489014234 -4.795030245581534e-17 -5.968816658636724e-17 -4.795030245581534e-17 -5.968816658636724e-17 0.3765858437075097 0.9263817260281781
12626537333.333334 0.38429742046592164 0.9232093438776937 -4.844209174628109e-17 -5.927039531122841e-17 -4.844209174628109e-17 -5.927039531122841e-17 0.3842968394492666 0.923209585732919
12627154666.666666 0.39198169708273406 0.9199730154477263 -4.8930248162953145e-17 -5.88485778388233e-17 -4.8930248162953145e-17 -5.88485778388233e-17 0.3919811181311525 0.9199732621269462
12627772000.0 0.3996387223738771 0.9166727287201352 -4.941473846554712e-17 -5.842274570269682e-17 -4.941473846554712e-17 -5.842274570269682e-17 0.3996381455274146 0.9166729802057286
12628389333.333334 0.4072679640081017 0.9133087131373155 -4.9895529687007466e-17 -5.799293070905303e-17 -4.9895529687007466e-17 -5.799293070905303e-17 0.4072673893066541 0.9133089694113301
12629006666.666666 0.4148688915859159 0.9098812025721368 -5.03725891357649e-17 -5.755916493437008e-17 -5.03725891357649e-17 -5.755916493437008e-17 0.41486831906922583 0.9098814636162882
12629624000.0 0.42244097667617186 0.9063904353118066 -5.0845884397930527e-17 -5.712148072303377e-17 -5.0845884397930527e-17 -5.712148072303377e-17 0.4224404063838262 0.9063907011074811
12630241333.333334 0.42998369285295984 0.902836654041237 -5.1315383339497474e-17 -5.667991068492893e-17 -5.1315383339497474e-17 -5.667991068492893e-17 0.42998312482438705 0.9028369245694924
12630858666.666666 0.43749651573205095 0.8992201058262427 -5.1781054108502123e-17 -5.623448769303011e-17 -5.1781054108502123e-17 -5.623448769303011e-17 0.4374959500065185 0.8992203810678101
12631476000.0 0.4449789230076373 0.8955410420962332 -5.22428651371917e-17 -5.578524488094941e-17 -5.22428651371917e-17 -5.578524488094941e-17 0.444978359624248 0.8955413220315167
12632093333.333334 0.45243039448830846 0.8917997186268889 -5.270078514413129e-17 -5.533221564050433e-17 -5.270078514413129e-17 -5.533221564050433e-17 0.45242983348599913 0.8918000032359692
12632710666.666666 0.4598504121333716 0.8879963955223084 -5.3154783136327704e-17 -5.4875433619232013e-17 -5.3154783136327704e-17 -5.4875433619232013e-17 0.4598498535509097 0.8879966847849434
12633328000.0 0.4672384600889934 0.8841313371968618 -5.360482841131425e-17 -5.4414932717902825e-17 -5.360482841131425e-17 -5.4414932717902825e-17 0.46723790396497383 0.884131631092487
12633945333.333334 0.4745940247238328 0.8802048123569188 -5.405089055920838e-17 -5.3950747088023156e-17 -5.405089055920838e-17 -5.3950747088023156e-17 0.4745934710966766 0.8802051108646506
12634562666.666666 0.48191659466487907 0.8762170939821083 -5.449293946476159e-17 -5.3482911129307784e-17 -5.449293946476159e-17 -5.3482911129307784e-17 0.48191604357282947 0.8762173970807439
12635180000.0 0.48920566083297645 0.8721684593063512 -5.4930945309379885e-17 -5.3011459487143166e-17 -5.4930945309379885e-17 -5.3011459487143166e-17 0.48920511231409697 0.8721687669743714
12635797333.333334 0.496460716478242 0.8680591897985728 -5.53648785731253e-17 -5.2536427050031005e-17 -5.53648785731253e-17 -5.2536427050031005e-17 0.49646017057041303 0.8680595020141418
12636414666.666666 0.5036812572151955 0.8638895711431896 -5.579471003668816e-17 -5.2057848947023756e-17 -5.579471003668816e-17 -5.2057848947023756e-17 0.5036807139561126 0.8638898878841584
12637032000.0 0.5108667810579753 0.859659893220166 -5.622041078335227e-17 -5.1575760545128305e-17 -5.622041078335227e-17 -5.1575760545128305e-17 0.5108662404851463 0.8596602144640729
12637649333.333334 0.5180167884551372 0.8553704500849149 -5.664195220092249e-17 -5.1090197446709016e-17 -5.664195220092249e-17 -5.1090197446709016e-17 0.51801625060588 0.8553707758089881
12638266666.666666 0.52513078232441 0.8510215399478425 -5.705930598363787e-17 -5.060119548686796e-17 -5.705930598363787e-17 -5.060119548686796e-17 0.5251302472358482 0.8510218701289998
12638884000.0 0.5322082680872529 0.8466134651536151 -5.747244413406071e-17 -5.010879073081069e-17 -5.747244413406071e-17 -5.010879073081069e-17 0.5322077357963154 0.8466137997684674
12639501333.333334 0.539248753703263 0.8421465321601237 -5.788133896494414e-17 -4.96130194711953e-17 -5.788133896494414e-17 -4.96130194711953e-17 0.5392482242466812 0.8421468711849762
12640118666.666666 0.5462517497042411 0.8376210515172717 -5.828596310106767e-17 -4.911391822547799e-17 -5.828596310106767e-17 -4.911391822547799e-17 0.5462512231185443 0.8376213949281247
12640736000.0 0.5532167692286007 0.8330373378451381 -5.86862894810798e-17 -4.8611523733206975e-17 -5.86862894810798e-17 -4.8611523733206975e-17 0.5532162455501165 0.8330376856176899
12641353333.333334 0.5601433280546438 0.8283957098124731 -5.908229135926311e-17 -4.8105872953368615e-17 -5.908229135926311e-17 -4.8105872953368615e-17 0.560142807319494 0.8283960619221218
12641970666.666666 0.5670309446347273 0.8236964901142249 -5.94739423073376e-17 -4.7597003061643687e-17 -5.94739423073376e-17 -4.7597003061643687e-17 0.5670304268788242 0.8236968465360673
12642588000.0 0.5738791401284986 0.8189400054492507 -5.986121621619845e-17 -4.7084951447701135e-17 -5.986121621619845e-17 -4.7084951447701135e-17 0.5738786253875454 0.8189403661580887
12643205333.333334 0.580687438436215 0.8141265864975992 -6.024408729764574e-17 -4.656975571245957e-17 -6.024408729764574e-17 -4.656975571245957e-17 0.5806869267457005 0.814126951467937
12643822666.666666 0.58745536623193 0.8092565678974455 -6.06225300860943e-17 -4.605145366532936e-17 -6.06225300860943e-17 -4.605145366532936e-17 0.5874548576271295 0.8092569371034964
12644440000.0 0.5941824529962906 0.8043302882219192 -6.099651944024846e-17 -4.55300833214567e-17 -6.099651944024846e-17 -4.55300833214567e-17 0.5941819475122597 0.8043306616376021
12645057333.333334 0.6008682310492663 0.7993480899555404 -6.136603054476073e-17 -4.500568289894365e-17 -6.136603054476073e-17 -4.500568289894365e-17 0.6008677287208406 0.7993484675544847
12645674666.666666 0.6075122355826672 0.7943103194704166 -6.173103891186586e-17 -4.447829081605683e-17 -6.173103891186586e-17 -4.447829081605683e-17 0.6075117364444595 0.7943107012259636
12646292000.0 0.6141140046926148 0.7892173270020386 -6.209152038299898e-17 -4.3947945688410296e-17 -6.209152038299898e-17 -4.3947945688410296e-17 0.6141135087790138 0.7892177128872443
12646909333.333334 0.620673079411363 0.7840694666251584 -6.244745113036582e-17 -4.3414686326171213e-17 -6.244745113036582e-17 -4.3414686326171213e-17 0.6206725867565281 0.7840698566127923
12647526666.666666 0.6271890037394281 0.7788670962289959 -6.279880765851643e-17 -4.2878551731211804e-17 -6.279880765851643e-17 -4.2878551731211804e-17 0.6271885143772903 0.7788674902915461
12648144000.0 0.6336613246772715 0.7736105774923776 -6.314556680588174e-17 -4.233958109426848e-17 -6.314556680588174e-17 -4.233958109426848e-17 0.6336608386415287 0.773610975602052
12648761333.333334 0.6400895922567006 0.7683002758586615 -6.348770574628178e-17 -4.179781379209393e-17 -6.348770574628178e-17 -4.179781379209393e-17 0.640089109580817 0.7683006779873892
12649378666.666666 0.6464733595721549 0.7629365605103318 -6.382520199041516e-17 -4.125328938459032e-17 -6.382520199041516e-17 -4.125328938459032e-17 0.6464728802893571 0.7629369666297647
12649996000.0 0.6528121828118852 0.7575198043432436 -6.415803338732883e-17 -4.0706047611921073e-17 -6.415803338732883e-17 -4.0706047611921073e-17 0.6528117069551609 0.7575202144247594
12650613333.333334 0.6591056212887397 0.7520503839407489 -6.448617812585464e-17 -4.015612839162579e-17 -6.448617812585464e-17 -4.015612839162579e-17 0.6591051488908359 0.7520507979554529
12651230666.666666 0.6653532374707194 0.7465286795475956 -6.480961473602022e-17 -3.9603571815725605e-17 -6.480961473602022e-17 -3.9603571815725605e-17 0.6653527685641383 0.7465290974663219
12651848000.0 0.6715545970116067 0.7409550750433005 -6.512832209045018e-17 -3.904841814779132e-17 -6.512832209045018e-17 -3.904841814779132e-17 0.6715541316286053 0.7409554968366145
12652465333.333334 0.6777092687809722 0.7353299579156319 -6.544227940572103e-17 -3.8490707820037714e-17 -6.544227940572103e-17 -3.8490707820037714e-17 0.6777088069535594 0.7353303835538335
12653082666.666666 0.6838168248941472 0.7296537192336723 -6.575146624370712e-17 -3.7930481430379055e-17 -6.575146624370712e-17 -3.7930481430379055e-17 0.6838163666540822 0.7296541486867971
12653700000.0 0.6898768407421834 0.7239267536204396 -6.605586251289504e-17 -3.736777973948508e-17 -6.605586251289504e-17 -3.736777973948508e-17 0.6898763861209714 0.7239271868582592
12654317333.333334 0.6958888950210751 0.7181494592257175 -6.635544846967453e-17 -3.680264366782505e-17 -6.635544846967453e-17 -3.680264366782505e-17 0.6958884440499683 0.7181498962177455
12654934666.666666 0.7018525697612642 0.712322237698189 -6.665020471960253e-17 -3.6235114292703186e-17 -6.665020471960253e-17 -3.6235114292703186e-17 0.7018521224712561 0.7123226784136787
12655552000.0 0.7077674503566875 0.7064454941575021 -6.694011221864815e-17 -3.566523284527268e-17 -6.694011221864815e-17 -3.566523284527268e-17 0.7077670067785156 0.706445938565454
12656169333.333334 0.7136331255934292 0.7005196371662948 -6.722515227439776e-17 -3.5093040707569006e-17 -6.722515227439776e-17 -3.5093040707569006e-17 0.7136326857575668 0.7005200852354531
12656786666.666666 0.7194491876785021 0.6945450787015826 -6.750530654725402e-17 -3.4518579409494997e-17 -6.750530654725402e-17 -3.4518579409494997e-17 0.7194487516151616 0.6945455304004412
12657404000.0 0.7252152322681038 0.6885222341262229 -6.778055705159469e-17 -3.3941890625825476e-17 -6.778055705159469e-17 -3.3941890625825476e-17 0.7252148000072312 0.6885226894230259
12658021333.333334 0.7309308584957627 0.6824515221599933 -6.805088615691298e-17 -3.336301617318947e-17 -6.805088615691298e-17 -3.336301617318947e-17 0.7309304300670374 0.6824519810227385
12658638666.666666 0.7365956690001136 0.6763333648505896 -6.831627658892538e-17 -3.2781998007056954e-17 -6.831627658892538e-17 -3.2781998007056954e-17 0.7365952444329453 0.6763338272470292
12659256000.0 0.7422092699527131 0.6701681875440711 -6.857671143066772e-17 -3.219887821868772e-17 -6.857671143066772e-17 -3.219887821868772e-17 0.742208849276241 0.6701686534417161
12659873333.333334 0.7477712710852488 0.6639564188554824 -6.883217412354827e-17 -3.161369903210897e-17 -6.883217412354827e-17 -3.161369903210897e-17 0.7477708543283373 0.6639568882216019
12660490666.666666 0.753281285716669 0.6576984906390516 -6.908264846838292e-17 -3.1026502801067054e-17 -6.908264846838292e-17 -3.1026502801067054e-17 0.753280872907909 0.6576989634406782
12661108000.0 0.7587389307802586 0.6513948379579583 -6.932811862641327e-17 -3.043733200595142e-17 -6.932811862641327e-17 -3.043733200595142e-17 0.7587385219479628 0.6513953141618887
12661725333.333334 0.7641438268500028 0.645045899054383 -6.956856912027807e-17 -2.98462292507582e-17 -6.956856912027807e-17 -2.98462292507582e-17 0.7641434220222049 0.6450463786271802
12662342666.666666 0.7694955981671755 0.6386521153188058 -6.980398483498009e-17 -2.925323725999685e-17 -6.980398483498009e-17 -2.925323725999685e-17 0.7694951973716276 0.6386525982268018
12662960000.0 0.7747938726663666 0.6322139312594267 -7.003435101881282e-17 -2.8658398875620896e-17 -7.003435101881282e-17 -2.8658398875620896e-17 0.7747934759305379 0.632214417468725
12663577333.333334 0.7800382820013678 0.6257317944712407 -7.025965328426694e-17 -2.806175705393994e-17 -7.025965328426694e-17 -2.806175705393994e-17 0.7800378893524436 0.6257322839477192
12664194666.666666 0.7852284615707834 0.6192061556049215 -7.047987760890907e-17 -2.746335486252659e-17 -7.047987760890907e-17 -2.746335486252659e-17 0.785228073035661 0.6192066483142338
12664812000.0 0.7903640505433728 0.6126374683354888 -7.069501033623434e-17 -2.6863235477116554e-17 -7.069501033623434e-17 -2.6863235477116554e-17 0.7903636661486625 0.6126379642430678
12665429333.333334 0.7954446918831598 0.6060261893307495 -7.090503817649391e-17 -2.626144217850064e-17 -7.090503817649391e-17 -2.626144217850064e-17 0.7954443116551796 0.606026688401808
12666046666.666666 0.800470032374163 0.5993727782196576 -7.11099482074912e-17 -2.5658018349422265e-17 -7.11099482074912e-17 -2.5658018349422265e-17 0.8004696563389401 0.5993732804191927
12666664000.0 0.8054397226451439 0.5926776975601138 -7.130972787536356e-17 -2.505300747143675e-17 -7.130972787536356e-17 -2.505300747143675e-17 0.8054393508284106 0.5926782028529085
12667281333.333334 0.8103534171936557 0.5859414128071255 -7.150436499531968e-17 -2.4446453121815485e-17 -7.150436499531968e-17 -2.4446453121815485e-17 0.8103530496208484 0.5859419211577502
12667898666.666666 0.8152107744102332 0.5791643922802175 -7.169384775236746e-17 -2.3838398970395767e-17 -7.169384775236746e-17 -2.3838398970395767e-17 0.8152104111064917 0.579164903653035
12668516000.0 0.82001145660214 0.5723471071308744 -7.18781647020078e-17 -2.3228888776445502e-17 -7.18781647020078e-17 -2.3228888776445502e-17 0.8200110975923057 0.5723476214900409
12669133333.333334 0.8247551300167008 0.5654900313099951 -7.205730477089681e-17 -2.261796638554139e-17 -7.205730477089681e-17 -2.261796638554139e-17 0.8247547753253117 0.5654905486194608
12669750666.666666 0.8294414648646646 0.5585936415347069 -7.223125725749347e-17 -2.2005675726403276e-17 -7.223125725749347e-17 -2.2005675726403276e-17 0.8294411145159577 0.5585941617582222
12670368000.0 0.8340701353430671 0.5516584172553181 -7.240001183267108e-17 -2.1392060807752306e-17 -7.240001183267108e-17 -2.1392060807752306e-17 0.8340697893609749 0.5516589403564338
