! Parameters = {f0=12700.012000; bw=77.238000; Q=6100.000000; N=10; m_0_1=1.277573; m_1_1=0.398843; m_1_2=1.112385; m_2_2=0.398194; m_2_3=0.749348; m_2_8=0.000942; m_2_9=0.037646; m_3_3=0.396257; m_3_4=0.637877; m_3_7=0.001542; m_3_8=-0.095546; m_3_9=0.000942; m_4_4=0.393332; m_4_5=0.474212; m_4_6=0.005059; m_4_7=-0.116095; m_4_8=0.001542; m_5_5=0.393714; m_5_6=0.881567; m_5_7=0.005059; m_6_6=0.393713; m_6_7=0.474554; m_7_7=0.393346; m_7_8=0.637995; m_8_8=0.396255; m_8_9=0.749661; m_9_9=0.398189; m_9_10=1.113463; m_10_10=0.398833; m_10_11=1.278368}
!
! Created with skrf (http://scikit-rf.org).
# Hz S RI R 50.0 
!freq ReS11 ImS11 ReS21 ImS21 ReS12 ImS12 ReS22 ImS22
12607400000.0 -0.7855265601058584 0.6188279432670107 6.617421233383627e-17 -9.357299540942055e-17 6.617421233383627e-17 -9.357299540942055e-17 -0.7855269766309074 0.6188274145389219
12608017333.333334 -0.7788308990504453 0.6272339521136411 6.514367796125915e-17 -9.426605558296703e-17 6.514367796125915e-17 -9.426605558296703e-17 -0.7788313212128032 0.6272334279179806
12608634666.666666 -0.7720452885873684 0.6355675199141857 6.410589845770974e-17 -9.494777631997778e-17 6.410589845770974e-17 -9.494777631997778e-17 -0.7720457163377291 0.6355670003110482
12609252000.0 -0.7651705124062629 0.6438276842011051 6.306099848911479e-17 -9.561808203161214e-17 6.306099848911479e-17 -9.561808203161214e-17 -0.7651709456946799 0.6438271692500482
12609869333.333334 -0.7582073644947492 0.6520134909844647 6.200910350833674e-17 -9.627689849846449e-17 6.200910350833674e-17 -9.627689849846449e-17 -0.7582078032706403 0.652012980744503
12610486666.666666 -0.7511566490468224 0.6601239948620036 6.095033974015938e-17 -9.692415287872751e-17 6.095033974015938e-17 -9.692415287872751e-17 -0.7511570932589775 0.660123489391602
12611104000.0 -0.7440191803697742 0.6681582591285627 5.988483416612837e-17 -9.755977371622846e-17 5.988483416612837e-17 -9.755977371622846e-17 -0.7440196299663604 0.6681577584856297
12611721333.333334 -0.7367957827904036 0.676115355883964 5.88127145094221e-17 -9.818369094822994e-17 5.88127145094221e-17 -9.818369094822994e-17 -0.7367962377189712 0.6761148601258451
12612338666.666666 -0.7294872905596271 0.6839943661403911 5.773410921950594e-17 -9.879583591314733e-17 5.773410921950594e-17 -9.879583591314733e-17 -0.7294877507671161 0.683993875323862
12612956000.0 -0.7220945477561289 0.6917943799285263 5.664914745680374e-17 -9.939614135803853e-17 5.664914745680374e-17 -9.939614135803853e-17 -0.7220950131888738 0.6917938941097859
12613573333.333334 -0.7146184081890452 0.6995144964024536 5.555795907727382e-17 -9.998454144593987e-17 5.555795907727382e-17 -9.998454144593987e-17 -0.7146188787927831 0.6995140156371186
12614190666.666666 -0.7070597352991649 0.7071538239439115 5.4460674616871376e-17 -1.0056097176305142e-16 5.4460674616871376e-17 -1.0056097176305142e-16 -0.7070602110190418 0.7071533482870099
12614808000.0 -0.6994194020593074 0.714711480265165 5.335742527597795e-17 -1.0112536932573212e-16 5.335742527597795e-17 -1.0112536932573212e-16 -0.6994198828398823 0.7147110097711291
12615425333.333334 -0.6916982908734751 0.7221865925109213 5.224834290374095e-17 -1.016776725873322e-16 5.224834290374095e-17 -1.016776725873322e-16 -0.6916987766587293 0.7221861272335818
12616042666.666666 -0.6838972934749477 0.7295782973591411 5.113355998234685e-17 -1.022178214448541e-16 5.113355998234685e-17 -1.022178214448541e-16 -0.6838977842082888 0.7295778373517211
12616660000.0 -0.6760173108232899 0.7368857411207447 5.001320961122576e-17 -1.027457572454404e-16 5.001320961122576e-17 -1.027457572454404e-16 -0.6760178064475608 0.7368852864358534
12617277333.333334 -0.6680592530002778 0.7441080798382267 4.8887425491187145e-17 -1.0326142279269126e-16 4.8887425491187145e-17 -1.0326142279269126e-16 -0.6680597534577614 0.7441076305278537
12617894666.666666 -0.6600240391048954 0.7512444793830313 4.77563419085085e-17 -1.0376476235279938e-16 4.77563419085085e-17 -1.0376476235279938e-16 -0.660024544337322 0.7512440354985398
12618512000.0 -0.6519125971469527 0.7582941155520976 4.662009371891468e-17 -1.0425572166053341e-16 4.662009371891468e-17 -1.0425572166053341e-16 -0.6519131070955079 0.7582936771442201
12619129333.333334 -0.6437258639402044 0.7652561741627831 4.547881633157057e-17 -1.047342479250131e-16 4.547881633157057e-17 -1.047342479250131e-16 -0.6437263785455339 0.7652557412816146
12619746666.666666 -0.6354647849939647 0.7721298511470698 4.433264569294667e-17 -1.0520028983533905e-16 4.433264569294667e-17 -1.0520028983533905e-16 -0.635465304196183 0.7721294238420617
12620364000.0 -0.6271303144037949 0.7789143526445121 4.3181718270642845e-17 -1.0565379756604046e-16 4.3181718270642845e-17 -1.0565379756604046e-16 -0.6271308381424906 0.7789139309644673
12620981333.333334 -0.6187234147417512 0.785608895093564 4.2026171037214257e-17 -1.0609472278232235e-16 4.2026171037214257e-17 -1.0609472278232235e-16 -0.6187239429559952 0.7856084790866299
12621598666.666666 -0.6102450569446856 0.7922127053225028 4.0866141453857235e-17 -1.0652301864517194e-16 4.0866141453857235e-17 -1.0652301864517194e-16 -0.6102455895730391 0.7922122950361695
12622216000.0 -0.601696220202467 0.7987250206384456 3.970176745410443e-17 -1.0693863981626303e-16 3.970176745410443e-17 -1.0693863981626303e-16 -0.601696757182986 0.7987246161195359
12622833333.333334 -0.5930778918447079 0.8051450889155686 3.8533187427446626e-17 -1.073415424626917e-16 3.8533187427446626e-17 -1.073415424626917e-16 -0.593078433114952 0.8051446902102345
12623450666.666666 -0.5843910672269658 0.8114721686818047 3.736054020292607e-17 -1.0773168426152743e-16 3.736054020292607e-17 -1.0773168426152743e-16 -0.5843916127240057 0.8114717758355231
12624068000.0 -0.5756367496154419 0.8177055292047318 3.6183965032656676e-17 -1.0810902440419429e-16 3.6183965032656676e-17 -1.0810902440419429e-16 -0.5756372992758669 0.8177051422622994
12624685333.333334 -0.5668159500713199 0.8238444505758168 3.500360157531359e-17 -1.0847352360066855e-16 3.500360157531359e-17 -1.0847352360066855e-16 -0.5668165038312435 0.823844069581342
12625302666.666666 -0.5579296873341074 0.8298882237934737 3.381958987961534e-17 -1.0882514408348606e-16 3.381958987961534e-17 -1.0882514408348606e-16 -0.5579302451291771 0.8298878487903757
12625920000.0 -0.5489789877036575 0.8358361508451819 3.2632070367689303e-17 -1.091638496115929e-16 3.2632070367689303e-17 -1.091638496115929e-16 -0.5489795494690601 0.8358357818761826
12626537333.333334 -0.5399648849219622 0.8416875447878711 3.144118381848996e-17 -1.0948960547398878e-16 3.144118381848996e-17 -1.0948960547398878e-16 -0.5399654505924328 0.8416871818949917
12627154666.666666 -0.5308884200536251 0.847441729827359 3.024707135111954e-17 -1.0980237849320777e-16 3.024707135111954e-17 -1.0980237849320777e-16 -0.5308889895634549 0.8474413730519155
12627772000.0 -0.5217506413654822 0.853098041396492 2.904987440811508e-17 -1.1010213702861683e-16 2.904987440811508e-17 -1.1010213702861683e-16 -0.5217512146485235 0.8530976907790877
12628389333.333334 -0.5125526042058658 0.8586558262316789 2.784973473876679e-17 -1.1038885097951658e-16 2.784973473876679e-17 -1.1038885097951658e-16 -0.5125531811955434 0.8586554818122047
12629006666.666666 -0.5032953708823634 0.8641144424485718 2.664679438231922e-17 -1.1066249178808314e-16 2.664679438231922e-17 -1.1066249178808314e-16 -0.5032959515116802 0.8641141042661981
12629624000.0 -0.49398001053939183 0.8694732596160307 2.5441195651210727e-17 -1.1092303244211032e-16 2.5441195651210727e-17 -1.1092303244211032e-16 -0.4939805947409365 0.8694729277092027
12630241333.333334 -0.4846075990345721 0.8747316588290202 2.423308111426549e-17 -1.1117044747757535e-16 2.423308111426549e-17 -1.1117044747757535e-16 -0.484608186740528 0.8747313332354564
12630858666.666666 -0.4751792188146272 0.8798890327800111 2.3022593579868628e-17 -1.1140471298102126e-16 2.3022593579868628e-17 -1.1140471298102126e-16 -0.4751798099567789 0.8798887135366956
12631476000.0 -0.46569595879008924 0.8849447858292634 2.1809876079081348e-17 -1.1162580659176296e-16 2.1809876079081348e-17 -1.1162580659176296e-16 -0.465696553299832 0.8849444729724449
12632093333.333334 -0.4561589142098664 0.8898983340734482 2.0595071848809742e-17 -1.118337075038964e-16 2.0595071848809742e-17 -1.118337075038964e-16 -0.45615951201821214 0.8898980276386323
12632710666.666666 -0.44656918653459654 0.8947491054131609 1.937832431489569e-17 -1.1202839646813627e-16 1.937832431489569e-17 -1.1202839646813627e-16 -0.4465697875721843 0.8947488054351104
12633328000.0 -0.4369278833093123 0.8994965396190623 1.815977707519523e-17 -1.1220985579346911e-16 1.815977707519523e-17 -1.1220985579346911e-16 -0.43692848750641405 0.8994962461317891
12633945333.333334 -0.42723611803575273 0.9041400883964621 1.6939573882688075e-17 -1.1237806934861543e-16 1.6939573882688075e-17 -1.1237806934861543e-16 -0.42723672532228296 0.9041398014332268
12634562666.666666 -0.4174950100436381 0.9086792154487112 1.5717858628530843e-17 -1.1253302256331597e-16 1.5717858628530843e-17 -1.1253302256331597e-16 -0.41749562034916055 0.9086789350420156
12635180000.0 -0.4077056843614169 0.9131133965391208 1.449477532511986e-17 -1.12674702429431e-16 1.449477532511986e-17 -1.12674702429431e-16 -0.4077062976151548 0.9131131227207093
12635797333.333334 -0.3978692715863113 0.9174421195515277 1.3270468089139915e-17 -1.128030975018563e-16 1.3270468089139915e-17 -1.128030975018563e-16 -0.3978698877171531 0.9174418523523779
12636414666.666666 -0.3879869077538416 0.9216648845493867 1.204508112462355e-17 -1.1291819789925498e-16 1.204508112462355e-17 -1.1291819789925498e-16 -0.387987526690351 0.92166462399971
12637032000.0 -0.378059734206468 0.9257812038335825 1.0818758705974466e-17 -1.13019995304607e-16 1.0818758705974466e-17 -1.13019995304607e-16 -0.37806035587689163 0.9257809499628195
12637649333.333334 -0.36808889746187756 0.9297906019987082 9.591645161021555e-18 -1.1310848296557336e-16 9.591645161021555e-18 -1.1310848296557336e-16 -0.3680895217941537 0.9297903548355261
12638266666.666666 -0.35807554908054434 0.9336926159879866 8.363884854057163e-18 -1.1318365569467733e-16 8.363884854057163e-18 -1.1318365569467733e-16 -0.35807617600230995 0.9336923755602724
12638884000.0 -0.3480208455327296 0.9374867951467406 7.135622168880904e-18 -1.1324550986930156e-16 7.135622168880904e-18 -1.1324550986930156e-16 -0.34802147497133074 0.9374865614816043
12639501333.333334 -0.3379259480648942 0.9411727012744603 5.907001491844602e-18 -1.1329404343150192e-16 5.907001491844602e-18 -1.1329404343150192e-16 -0.33792657994739295 0.9411724743982267
12640118666.666666 -0.327792022565769 0.9447499086753409 4.678167194929372e-18 -1.1332925588763745e-16 4.678167194929372e-18 -1.1332925588763745e-16 -0.3277926568189521 0.9447496886135476
12640736000.0 -0.3176202394311395 0.948218004207644 3.449263618743925e-18 -1.1335114830781856e-16 3.449263618743925e-18 -1.1335114830781856e-16 -0.31762087598152755 0.9482177909850406
12641353333.333334 -0.30741177342958687 0.9515765873310978 2.2204350556943703e-18 -1.1335972332516836e-16 2.2204350556943703e-18 -1.1335972332516836e-16 -0.30741241220344173 0.9515763809716398
12641970666.666666 -0.2971678035660048 0.9548252701534347 9.918257329889855e-19 -1.1335498513490463e-16 9.918257329889855e-19 -1.1335498513490463e-16 -0.2971684444893391 0.9548250706802837
12642588000.0 -0.28688951294572673 0.9579636774750834 -2.36420204226699e-19 -1.1333693949323695e-16 -2.36420204226699e-19 -1.1333693949323695e-16 -0.2868901559443126 0.9579634849106048
12643205333.333334 -0.27657808863799666 0.9609914468324757 -1.4641587097572845e-18 -1.1330559371608156e-16 -1.4641587097572845e-18 -1.1330559371608156e-16 -0.27657873363737295 0.9609912611982327
12643822666.666666 -0.2662347215386514 0.9639082285399675 -2.6912458532363296e-18 -1.1326095667759312e-16 -2.6912458532363296e-18 -1.1326095667759312e-16 -0.26623536846413376 0.9639080498567225
12644440000.0 -0.2558606062327459 0.9667136857301825 -3.917537836956013e-18 -1.1320303880851515e-16 -3.917537836956013e-18 -1.1320303880851515e-16 -0.2558612550094344 0.9667135140178914
12645057333.333334 -0.24545694085655878 0.9694074943929213 -5.142891012693997e-18 -1.1313185209434838e-16 -5.142891012693997e-18 -1.1313185209434838e-16 -0.24545759140934736 0.9694073296707345
12645674666.666666 -0.2350249269592178 0.9719893434125899 -6.367161898512957e-18 -1.1304741007333695e-16 -6.367161898512957e-18 -1.1304741007333695e-16 -0.23502557921280237 0.9719891856988476
12646292000.0 -0.22456576936373457 0.9744589346041708 -7.59020719555647e-18 -1.1294972783427132e-16 -7.59020719555647e-18 -1.1294972783427132e-16 -0.22456642324262255 0.9744587839164046
12646909333.333334 -0.21408067602821695 0.9768159827475819 -8.811883804752721e-18 -1.1283882201411556e-16 -8.811883804752721e-18 -1.1283882201411556e-16 -0.2140813314567346 0.9768158391025066
12647526666.666666 -0.20357085790608045 0.9790602156206764 -1.0032048843562044e-17 -1.1271471079544804e-16 -1.0032048843562044e-17 -1.1271471079544804e-16 -0.2035715148083831 0.9790600790341943
12648144000.0 -0.19303752880621994 0.981191374030678 -1.1250559662653939e-17 -1.1257741390372394e-16 -1.1250559662653939e-17 -1.1257741390372394e-16 -0.1930381871062999 0.9811912445178745
12648761333.333334 -0.1824819052529345 0.9832092118440925 -1.246727386255994e-17 -1.1242695260435833e-16 -1.246727386255994e-17 -1.1242695260435833e-16 -0.1824825648746301 0.9832090894192338
12649378666.666666 -0.17190520634542752 0.9851134960151336 -1.3682049310252246e-17 -1.1226334969963277e-16 -1.3682049310252246e-17 -1.1226334969963277e-16 -0.17190586721243184 0.9851133806916667
12649996000.0 -0.1613086536168703 0.9869040066126671 -1.489474415578047e-17 -1.1208662952541273e-16 -1.489474415578047e-17 -1.1208662952541273e-16 -0.16130931565274015 0.986903898403217
12650613333.333334 -0.150693470893407 0.9885805368455931 -1.6105216848763315e-17 -1.1189681794769815e-16 -1.6105216848763315e-17 -1.1189681794769815e-16 -0.15069413402157159 0.9885804357619621
12651230666.666666 -0.14006088415292406 0.9901428930867122 -1.7313326154886594e-17 -1.1169394235899057e-16 -1.7313326154886594e-17 -1.1169394235899057e-16 -0.14006154829669396 0.9901427991398792
12651848000.0 -0.12941212138317737 0.9915908948951316 -1.8518931172383028e-17 -1.1147803167447843e-16 -1.8518931172383028e-17 -1.1147803167447843e-16 -0.1294127864657534 0.9915908080952505
12652465333.333334 -0.11874841244022179 0.9929243750370677 -1.9721891348409466e-17 -1.112491163280534e-16 -1.9721891348409466e-17 -1.112491163280534e-16 -0.11874907838470368 0.9929242953934638
12653082666.666666 -0.10807098890637103 0.9941431795051566 -2.092206649540542e-17 -1.1100722826814677e-16 -2.092206649540542e-17 -1.1100722826814677e-16 -0.10807165563576678 0.9941431070263308
12653700000.0 -0.09738108394767779 0.9952471675362851 -2.2119316807433822e-17 -1.1075240095338294e-16 -2.2119316807433822e-17 -1.1075240095338294e-16 -0.09738175138491202 0.9952471022299082
12654317333.333334 -0.08667993217190599 0.9962362116277932 -2.331350287639497e-17 -1.1048466934807218e-16 -2.331350287639497e-17 -1.1048466934807218e-16 -0.08668060023982917 0.9962361535007077
12654934666.666666 -0.07596876948566045 0.9971101975522346 -2.450448570826304e-17 -1.1020406991751326e-16 -2.450448570826304e-17 -1.1020406991751326e-16 -0.07596943810705778 0.9971101466104535
12655552000.0 -0.06524883295164835 0.9978690243705691 -2.5692126739236197e-17 -1.099106406231285e-16 -2.5692126739236197e-17 -1.099106406231285e-16 -0.0652495020492485 0.9978689806192731
12656169333.333334 -0.05452136064606177 0.9985126044437922 -2.6876287851801767e-17 -1.0960442091743128e-16 -2.6876287851801767e-17 -1.0960442091743128e-16 -0.054522030142546155 0.9985125678873341
12656786666.666666 -0.04378759151530605 0.999040863443088 -2.805683139080219e-17 -1.0928545173880684e-16 -2.805683139080219e-17 -1.0928545173880684e-16 -0.04378826133331744 0.9990408340849872
12657404000.0 -0.033048765233051655 0.9994537403583988 -2.9233620179393704e-17 -1.089537755061324e-16 -2.9233620179393704e-17 -1.089537755061324e-16 -0.03304943529520326 0.9994537182013434
12658021333.333334 -0.022306122057003955 0.9997511875054717 -3.040651753496428e-17 -1.0860943611321945e-16 -3.040651753496428e-17 -1.0860943611321945e-16 -0.022306792285888357 0.9997511725513188
12658638666.666666 -0.011560902685804543 0.9999331705313673 -3.1575387284962783e-17 -1.0825247892309247e-16 -3.1575387284962783e-17 -1.0825247892309247e-16 -0.011561573004002594 0.9999331627811407
12659256000.0 -0.0008143481154835775 0.99999966841843 -3.2740093782723884e-17 -1.0788295076208035e-16 -3.2740093782723884e-17 -1.0788295076208035e-16 -0.000815018445573387 0.9999996678723226
12659873333.333334 0.009932300503752732 0.9999506734867107 -3.390050192313528e-17 -1.0750089991376244e-16 -3.390050192313528e-17 -1.0750089991376244e-16 0.009931630239186888 0.9999506801440833
12660490666.666666 0.020677802010553477 0.9997861913948577 -3.50564771582946e-17 -1.0710637611273196e-16 -3.50564771582946e-17 -1.0710637611273196e-16 0.020677131888912202 0.9997862052542387
12661108000.0 0.03142091537645039 0.9995062411394587 -3.620788551310911e-17 -1.0669943053818337e-16 -3.620788551310911e-17 -1.0669943053818337e-16 0.031420245475110235 0.9995062621985447
12661725333.333334 0.04216039984847731 0.9991108550528516 -3.7354593600752476e-17 -1.0628011580735718e-16 -3.7354593600752476e-17 -1.0628011580735718e-16 0.04215973024478184 0.9991108833085094
12662342666.666666 0.0528950150929229 0.9986000787993873 -3.84964686381225e-17 -1.0584848596879304e-16 -3.84964686381225e-17 -1.0584848596879304e-16 0.052894345864173783 0.9986001142476519
12662960000.0 0.06362352133840994 0.9979739713701571 -3.9633378461173326e-17 -1.0540459649543377e-16 -3.9633378461173326e-17 -1.0540459649543377e-16 0.06362285256185798 0.9979740140062334
12663577333.333334 0.0743446795191085 0.99723260507618 -4.0765191540187234e-17 -1.0494850427755891e-16 -4.0765191540187234e-17 -1.0494850427755891e-16 0.07434401127194477 0.9972326548944431
12664194666.666666 0.08505725141783897 0.9963760655400481 -4.189177699496289e-17 -1.0448026761555518e-16 -4.189177699496289e-17 -1.0448026761555518e-16 0.0850565837771859 0.996376122534045
12664812000.0 0.09575999980907748 0.9954044516860416 -4.3013004609921807e-17 -1.0399994621252542e-16 -4.3013004609921807e-17 -1.0399994621252542e-16 0.09575933285197989 0.9954045158484902
12665429333.333334 0.1064516886018749 0.9943178757286992 -4.4128744849133525e-17 -1.0350760116673349e-16 -4.4128744849133525e-17 -1.0350760116673349e-16 0.10645102240529115 0.9943179470514908
12666046666.666666 0.11713108298247507 0.9931164631598731 -4.523886887123788e-17 -1.0300329496389686e-16 -4.523886887123788e-17 -1.0300329496389686e-16 0.1171304176232683 0.9931165416340734
12666664000.0 0.12779694955723783 0.9918003527342014 -4.634324854432631e-17 -1.0248709146929778e-16 -4.634324854432631e-17 -1.0248709146929778e-16 0.12779628511216698 0.9918004383500508
12667281333.333334 0.13844805649469205 0.9903696964531307 -4.7441756460661876e-17 -1.0195905591976972e-16 -4.7441756460661876e-17 -1.0195905591976972e-16 0.1384473930404027 0.9903697892000439
12667898666.666666 0.149083173668085 0.9888246595473207 -4.85342659513749e-17 -1.0141925491549436e-16 -4.85342659513749e-17 -1.0141925491549436e-16 0.1490825112811013 0.988824759413893
12668516000.0 0.1597010727974535 0.9871654204575666 -4.9620651101051505e-17 -1.0086775641164833e-16 -4.9620651101051505e-17 -1.0086775641164833e-16 0.15970041155416867 0.9871655274315713
12669133333.333334 0.17030052759122846 0.9853921708142261 -5.070078676217408e-17 -1.0030462970992166e-16 -5.070078676217408e-17 -1.0030462970992166e-16 0.17029986756789595 0.9853922848826147
12669750666.666666 0.1808803138881429 0.983505115415039 -5.177454856954877e-17 -9.972994544984022e-17 -5.177454856954877e-17 -9.972994544984022e-17 0.18087965516086843 0.9835052365639486
