! Parameters = {f0=12700.012000; bw=77.238000; Q=6100.000000; N=10; m_0_1=1.280776; m_1_1=0.446891; m_1_2=1.115588; m_2_2=0.446242; m_2_3=0.752551; m_2_8=0.001102; m_2_9=0.037806; m_3_3=0.444305; m_3_4=0.641080; m_3_7=0.001702; m_3_8=-0.095386; m_3_9=0.001102; m_4_4=0.441380; m_4_5=0.477415; m_4_6=0.005219; m_4_7=-0.115935; m_4_8=0.001702; m_5_5=0.441762; m_5_6=0.884770; m_5_7=0.005219; m_6_6=0.441761; m_6_7=0.477757; m_7_7=0.441394; m_7_8=0.641198; m_8_8=0.444303; m_8_9=0.752864; m_9_9=0.446237; m_9_10=1.116666; m_10_10=0.446881; m_10_11=1.281571}
!
! Created with skrf (http://scikit-rf.org).
# Hz S RI R 50.0 
!freq ReS11 ImS11 ReS21 ImS21 ReS12 ImS12 ReS22 ImS22
12607400000.0 0.8581352117915684 0.5134237609258657 -1.1268590147517905e-16 -2.89128052372297e-17 -1.1268590147517905e-16 -2.89128052372297e-17 0.8581348653489316 0.5134243399687932
12608017333.333334 0.8636509588547752 0.5040902907902991 -1.129730593263826e-16 -2.767400346882699e-17 -1.129730593263826e-16 -2.767400346882699e-17 0.8636506187267269 0.5040908735265517
12608634666.666666 0.8690651948612901 0.4946975713307355 -1.1324660745697e-16 -2.6432380512351952e-17 -1.1324660745697e-16 -2.6432380512351952e-17 0.8690648610871884 0.4946981576914622
12609252000.0 0.8743772834374108 0.48524670654053426 -1.1350651852026872e-16 -2.5188085789678417e-17 -1.1350651852026872e-16 -2.5188085789678417e-17 0.8743769560558613 0.48524729645646353
12609869333.333334 0.8795866002156039 0.4757388072471874 -1.1375276680905926e-16 -2.39412689832634e-17 -1.1375276680905926e-16 -2.39412689832634e-17 0.8795862792644589 0.4757394006486381
12610486666.666666 0.8846925329077453 0.4661749909820336 -1.1398532825800038e-16 -2.2692080018186963e-17 -1.1398532825800038e-16 -2.2692080018186963e-17 0.8846922184240973 0.4661755877989211
12611104000.0 0.8896944813772875 0.45655638184852937 -1.1420418044586625e-16 -2.144066904411795e-17 -1.1420418044586625e-16 -2.144066904411795e-17 0.889694173397465 0.45655698201037476
12611721333.333334 0.8945918577095984 0.446884110390503 -1.1440930259757115e-16 -2.0187186417344542e-17 -1.1440930259757115e-16 -2.0187186417344542e-17 0.8945915562691616 0.44688471382644057
12612338666.666666 0.899384086281194 0.43715931345902076 -1.1460067558601462e-16 -1.893178268269308e-17 -1.1460067558601462e-16 -1.893178268269308e-17 0.8993837914149326 0.43715992009780796
12612956000.0 0.9040706038273959 0.4273831340787652 -1.1477828193371558e-16 -1.767460855549602e-17 -1.1477828193371558e-16 -1.767460855549602e-17 0.9040703155693215 0.42738374384878913
12613573333.333334 0.9086508595084215 0.4175567213139157 -1.1494210581425253e-16 -1.6415814903543976e-17 -1.1494210581425253e-16 -1.6415814903543976e-17 0.908650577891767 0.4175573341432028
12614190666.666666 0.9131243149742414 0.4076812301328621 -1.150921330535104e-16 -1.515555272898051e-17 -1.150921330535104e-16 -1.515555272898051e-17 0.9131240400314549 0.40768184594908596
12614808000.0 0.917490444427839 0.397757821272476 -1.1522835113072473e-16 -1.389397315023385e-17 -1.1522835113072473e-16 -1.389397315023385e-17 0.9174901761905829 0.3977584400029672
12615425333.333334 0.9217487346869573 0.3877876611018133 -1.1535074917932961e-16 -1.2631227383925497e-17 -1.1535074917932961e-16 -1.2631227383925497e-17 0.9217484731861004 0.3877882826735657
12616042666.666666 0.9258986852444577 0.37777192148491573 -1.1545931798760869e-16 -1.1367466726760888e-17 -1.1545931798760869e-16 -1.1367466726760888e-17 0.9258984305100765 0.3777725458245976
12616660000.0 0.9299398083271424 0.3677117796431021 -1.1555404999914636e-16 -1.0102842537450646e-17 -1.1555404999914636e-16 -1.0102842537450646e-17 0.9299395603885141 0.3677124066770632
12617277333.333334 0.9338716289530934 0.35760841801657317 -1.156349393130827e-16 -8.837506218595133e-18 -1.156349393130827e-16 -8.837506218595133e-18 0.9338713878386927 0.35760904767085333
12617894666.666666 0.9376936849874479 0.34746302412556346 -1.1570198168416974e-16 -7.571609198607229e-18 -1.1570198168416974e-16 -7.571609198607229e-18 0.9376934507249455 0.34746365632590215
12618512000.0 0.9414055271968291 0.3372767904304718 -1.1575517452263232e-16 -6.305302913583031e-18 -1.1575517452263232e-16 -6.305302913583031e-18 0.941405299813089 0.3372774251023168
12619129333.333334 0.9450067193020099 0.3270509141920757 -1.1579451689382684e-16 -5.038738789261059e-18 -1.1579451689382684e-16 -5.038738789261059e-18 0.9450064988230831 0.32705155126059127
12619746666.666666 0.9484968380292788 0.3167865973305689 -1.1582000951770718e-16 -3.772068222914044e-18 -1.1582000951770718e-16 -3.772068222914044e-18 0.9484966244804032 0.316787236720645
12620364000.0 0.951875473160225 0.30648504628418244 -1.158316547680909e-16 -2.505442565267652e-18 -1.158316547680909e-16 -2.505442565267652e-18 0.9518752665658212 0.3064856879204435
12620981333.333334 0.955142227579819 0.2961474718677874 -1.1582945667172765e-16 -1.2390131024943986e-18 -1.1582945667172765e-16 -1.2390131024943986e-18 0.9551420279634874 0.29614811567460114
12621598666.666666 0.9582967173232124 0.285775089130202 -1.15813420907173e-16 2.7068961873153367e-20 -1.15813420907173e-16 2.7068961873153367e-20 0.9582965247077329 0.28577573503168896
12622216000.0 0.9613385716208196 0.2753691172115408 -1.1578355480346313e-16 1.2926525249464243e-18 -1.1578355480346313e-16 1.2926525249464243e-18 0.9613383860281446 0.2753697651315821
12622833333.333334 0.9642674329419065 0.26493077919986463 -1.157398673385942e-16 2.5575866024921104e-18 -1.157398673385942e-16 2.5575866024921104e-18 0.9642672543931623 0.2649314290621119
12623450666.666666 0.9670829570365874 0.2544613019875328 -1.1568236913780546e-16 3.821720346902526e-18 -1.1568236913780546e-16 3.821720346902526e-18 0.9670827855520715 0.2544619537154173
12624068000.0 0.9697848129763207 0.24396191612688897 -1.1561107247166591e-16 5.084903065168939e-18 -1.1561107247166591e-16 5.084903065168939e-18 0.9697846485754957 0.24396256964362947
12624685333.333334 0.972372683192839 0.2334338556854584 -1.1552599125396438e-16 6.3469842368326425e-18 -1.1552599125396438e-16 6.3469842368326425e-18 0.9723725258943349 0.23343451091407125
12625302666.666666 0.9748462635153341 0.2228783581014787 -1.154271410394077e-16 7.607813531839456e-18 -1.154271410394077e-16 7.607813531839456e-18 0.9748461133369445 0.22287901496478676
12625920000.0 0.9772052632064075 0.21229666403765543 -1.153145390211183e-16 8.867240828479443e-18 -1.153145390211183e-16 8.867240828479443e-18 0.9772051201650851 0.2122973224582964
12626537333.333334 0.9794494049960679 0.20169001723602692 -1.15188204027943e-16 1.0125116231183113e-17 -1.15188204027943e-16 1.0125116231183113e-17 0.9794492691079286 0.20169067713646385
12627154666.666666 0.9815784251144063 0.19105966437147717 -1.1504815652156446e-16 1.1381290088352656e-17 -1.1504815652156446e-16 1.1381290088352656e-17 0.9815782963947213 0.19106032567400627
12627772000.0 0.983592073322617 0.18040685490506364 -1.1489441859341614e-16 1.263561301015684e-17 -1.1489441859341614e-16 1.263561301015684e-17 0.9835919517858132 0.18040751753182385
12628389333.333334 0.9854901129423318 0.16973284093754956 -1.1472701396141264e-16 1.3887935886219238e-17 -1.1472701396141264e-16 1.3887935886219238e-17 0.9854899986019917 0.1697335048105321
12629006666.666666 0.9872723208835229 0.15903887706181782 -1.1454596796647413e-16 1.5138109903377074e-17 -1.1454596796647413e-16 1.5138109903377074e-17 0.9872722137523818 0.1590395421028749
12629624000.0 0.98893848767066 0.14832622021574424 -1.1435130756887235e-16 1.6385986563280253e-17 -1.1435130756887235e-16 1.6385986563280253e-17 0.9889383877606044 0.14832688634659855
12630241333.333334 0.9904884174673834 0.13759612953415298 -1.141430613443738e-16 1.7631417700033928e-17 -1.141430613443738e-16 1.7631417700033928e-17 0.9904883247894505 0.13759679667640673
12630858666.666666 0.9919219280994517 0.12684986620129896 -1.1392125948019954e-16 1.8874255497739212e-17 -1.1392125948019954e-16 1.8874255497739212e-17 0.991921842663827 0.12685053427644313
12631476000.0 0.9932388510762515 0.1160886933019285 -1.1368593377078362e-16 2.0114352508043436e-17 -1.1368593377078362e-16 2.0114352508043436e-17 0.993238772892268 0.11608936223135205
12632093333.333334 0.9944390316105097 0.10531387567349547 -1.1343711761335613e-16 2.135156166756221e-17 -1.1343711761335613e-16 2.135156166756221e-17 0.9944389606866485 0.1053145453784948
12632710666.666666 0.9955223286365318 0.09452667975718688 -1.1317484600332535e-16 2.2585736315306825e-17 -1.1317484600332535e-16 2.2585736315306825e-17 0.9955222649804194 0.09452735015897484
12633328000.0 0.9964886148267889 0.08372837344895515 -1.1289915552946828e-16 2.3816730210069537e-17 -1.1289915552946828e-16 2.3816730210069537e-17 0.9964885584451961 0.08372904446867034
12633945333.333334 0.997337776606859 0.07292022595074779 -1.1261008436894786e-16 2.504439754767473e-17 -1.1261008436894786e-16 2.504439754767473e-17 0.9973377275057007 0.0729208975094639
12634562666.666666 0.9980697141687883 0.062103507621187694 -1.123076722821281e-16 2.626859297824852e-17 -1.123076722821281e-16 2.626859297824852e-17 0.9980696723531247 0.062104179639922874
12635180000.0 0.9986843414828203 0.051279489826315555 -1.1199196060720782e-16 2.748917162339173e-17 -1.1199196060720782e-16 2.748917162339173e-17 0.9986843069568543 0.05128016222604157
12635797333.333334 0.9991815863075145 0.04044944479001522 -1.1166299225466715e-16 2.870598909329967e-17 -1.1166299225466715e-16 2.870598909329967e-17 0.9991815590745916 0.04045011749166678
12636414666.666666 0.9995613901982221 0.029614645444763964 -1.1132081170153311e-16 2.991890150379783e-17 -1.1132081170153311e-16 2.991890150379783e-17 0.9995613702608309 0.029615318369248012
12637032000.0 0.9998237085139707 0.01877636528173181 -1.109654649854476e-16 3.1127765493357975e-17 -1.109654649854476e-16 3.1127765493357975e-17 0.9998236958737406 0.018777038349936808
12637649333.333334 0.9999685104227014 0.00793587820124096 -1.1059699969856837e-16 3.233243823998196e-17 -1.1059699969856837e-16 3.233243823998196e-17 0.9999685050804067 0.007936551334046256
12638266666.666666 0.9999957789049002 -0.0029055416369931295 -1.102154649812742e-16 3.353277747806192e-17 -1.102154649812742e-16 3.353277747806192e-17 0.9999957808604545 -0.0029048685187080896
12638884000.0 0.9999055107555901 -0.013746619963622888 -1.0982091151569283e-16 3.472864151514861e-17 -1.0982091151569283e-16 3.472864151514861e-17 0.999905520008052 -0.013745946938969213
12639501333.333334 0.9996977165847144 -0.024586082549470954 -1.094133915190447e-16 3.591988924865075e-17 -1.094133915190447e-16 3.591988924865075e-17 0.9996977331322834 -0.02458540969754103
12640118666.666666 0.9993724208158917 -0.035422655355100585 -1.0899295873681605e-16 3.710638018243303e-17 -1.0899295873681605e-16 3.710638018243303e-17 0.9993724446559097 -0.035421982754958746
12640736000.0 0.9989296616835258 -0.046255064681159065 -1.085596684357214e-16 3.8287974443418335e-17 -1.085596684357214e-16 3.8287974443418335e-17 0.9989296928124791 -0.04625439241183236
12641353333.333334 0.9983694912283486 -0.05708203731709062 -1.0811357739654262e-16 3.946453279795488e-17 -1.0811357739654262e-16 3.946453279795488e-17 0.9983695296418664 -0.05708136545755947
12641970666.666666 0.9976919752912644 -0.06790230069177991 -1.0765474390672957e-16 4.06359166682703e-17 -1.0765474390672957e-16 4.06359166682703e-17 0.9976920209841208 -0.0679016293209689
12642588000.0 0.9968971935056347 -0.07871458302252998 -1.0718322775286299e-16 4.1801988148729906e-17 -1.0718322775286299e-16 4.1801988148729906e-17 0.9968972464717485 -0.07871391221929852
12643205333.333334 0.9959852392879142 -0.08951761346471455 -1.0669909021292887e-16 4.296261002204549e-17 -1.0669909021292887e-16 4.296261002204549e-17 0.9959852995203498 -0.08951694330784765
12643822666.666666 0.9949562198266603 -0.10031012226123408 -1.0620239404841441e-16 4.41176457754015e-17 -1.0620239404841441e-16 4.41176457754015e-17 0.9949562873176296 -0.10030945282943314
12644440000.0 0.993810256069947 -0.1110908408916179 -1.0569320349623506e-16 4.5266959616478574e-17 -1.0569320349623506e-16 4.5266959616478574e-17 0.993810330810809 -0.11109017226349138
12645057333.333334 0.9925474827111495 -0.121858502221151 -1.0517158426049396e-16 4.641041648937306e-17 -1.0517158426049396e-16 4.641041648937306e-17 0.9925475646924108 -0.12185783447520511
12645674666.666666 0.9911680481731129 -0.13261184064978093 -1.0463760350405809e-16 4.754788209044939e-17 -1.0463760350405809e-16 4.754788209044939e-17 0.9911681373844322 -0.1326111738644107
12646292000.0 0.9896721145906687 -0.1433495922612115 -1.0409132983995938e-16 4.8679222884101855e-17 -1.0409132983995938e-16 4.8679222884101855e-17 0.9896722110208545 -0.14334892651469142
12646909333.333334 0.9880598577916623 -0.15407049497078337 -1.0353283332265356e-16 4.980430611836282e-17 -1.0353283332265356e-16 4.980430611836282e-17 0.9880599614286764 -0.154069830341258
12647526666.666666 0.9863314672761961 -0.16477328867449142 -1.0296218543907736e-16 5.092299984047878e-17 -1.0296218543907736e-16 5.092299984047878e-17 0.986331578107155 -0.16477262523996675
12648144000.0 0.9844871461944047 -0.17545671539675656 -1.0237945909955528e-16 5.203517291234971e-17 -1.0237945909955528e-16 5.203517291234971e-17 0.9844872642055797 -0.17545605323509028
12648761333.333334 0.9825271113225694 -0.186119519438312 -1.0178472862853742e-16 5.314069502587105e-17 -1.0178472862853742e-16 5.314069502587105e-17 0.9825272364993898 -0.18611885862720465
12649378666.666666 0.9804515930376517 -0.19676044752376776 -1.0117806975518085e-16 5.423943671815319e-17 -1.0117806975518085e-16 5.423943671815319e-17 0.9804517253647052 -0.1967597881407534
12649996000.0 0.9782608352901823 -0.20737824894905557 -1.0055955960374408e-16 5.5331269386677425e-17 -1.0055955960374408e-16 5.5331269386677425e-17 0.9782609747512193 -0.20737759107149323
12650613333.333334 0.9759550955756103 -0.21797167572835047 -9.992927668383892e-17 5.641606530430573e-17 -9.992927668383892e-17 5.641606530430573e-17 0.9759552421535426 -0.21797101943341424
12651230666.666666 0.9735346449040598 -0.22853948274061497 -9.928730088052092e-17 5.749369763418058e-17 -9.928730088052092e-17 5.749369763418058e-17 0.9735347985809674 -0.2285388281052862
12651848000.0 0.9709997677684011 -0.2390804278763379 -9.863371344419658e-17 5.856404044455191e-17 -9.863371344419658e-17 5.856404044455191e-17 0.970999928525528 -0.23907977497739447
12652465333.333334 0.9683507621108945 -0.24959327218310964 -9.796859698040251e-17 5.962696872343686e-17 -9.796859698040251e-17 5.962696872343686e-17 0.9683509299286557 -0.24959262109711827
12653082666.666666 0.9655879392881551 -0.26007678001135864 -9.729203543941448e-17 6.068235839318668e-17 -9.729203543941448e-17 6.068235839318668e-17 0.9655881141461377 -0.26007613081466535
12653700000.0 0.9627116240344896 -0.2705297191598322 -9.660411410567274e-17 6.17300863249774e-17 -9.660411410567274e-17 6.17300863249774e-17 0.962711805911456 -0.27052907192855385
12654317333.333334 0.9597221544238309 -0.28095086102004224 -9.590491958711234e-17 6.277003035308823e-17 -9.590491958711234e-17 6.277003035308823e-17 0.9597223432977197 -0.2809502158300569
12654934666.666666 0.9566198818299265 -0.2913389807209459 -9.519453980427982e-17 6.380206928915288e-17 -9.519453980427982e-17 6.380206928915288e-17 0.9566200776778571 -0.2913383376478848
12655552000.0 0.9534051708850374 -0.30169285727291334 -9.447306397932281e-17 6.482608293624664e-17 -9.447306397932281e-17 6.482608293624664e-17 0.9534053736833106 -0.3016922163921511
12656169333.333334 0.9500783994371544 -0.31201127371099435 -9.374058262484503e-17 6.584195210282943e-17 -9.374058262484503e-17 6.584195210282943e-17 0.950078609161257 -0.31201063509764065
12656786666.666666 0.9466399585055125 -0.3222930172382015 -9.299718753257676e-17 6.684955861661056e-17 -9.299718753257676e-17 6.684955861661056e-17 0.9466401751301199 -0.3222923809670923
12657404000.0 0.9430902522346385 -0.33253687936803117 -9.224297176191673e-17 6.784878533826039e-17 -9.224297176191673e-17 6.784878533826039e-17 0.9430904757336176 -0.3325362455137198
12658021333.333334 0.9394296978468832 -0.3427416560663975 -9.147802962833173e-17 6.883951617498467e-17 -9.147802962833173e-17 6.883951617498467e-17 0.939429928193295 -0.3427410247031461
12658638666.666666 0.9356587255933962 -0.3529061478931255 -9.070245669160657e-17 6.982163609397756e-17 -9.070245669160657e-17 6.982163609397756e-17 0.9356589627595003 -0.35290551909489615
12659256000.0 0.9317777787034669 -0.3630291601431699 -8.991634974392921e-17 7.079503113576803e-17 -8.991634974392921e-17 7.079503113576803e-17 0.9317780226607238 -0.363028533983616
12659873333.333334 0.9277873133325161 -0.37310950298679685 -8.91198067978692e-17 7.175958842738634e-17 -8.91198067978692e-17 7.175958842738634e-17 0.9277875640515906 -0.3731088795392544
12660490666.666666 0.923687798508482 -0.3831459916094339 -8.831292707420001e-17 7.27151961954172e-17 -8.831292707420001e-17 7.27151961954172e-17 0.9236880559592472 -0.3831453709469129
12661108000.0 0.9194797160765888 -0.3931374463511941 -8.749581098954997e-17 7.366174377895321e-17 -8.749581098954997e-17 7.366174377895321e-17 0.9194799802281304 -0.39313682854637066
12661725333.333334 0.9151635606428594 -0.4030826928451603 -8.66685601439863e-17 7.459912164232588e-17 -8.66685601439863e-17 7.459912164232588e-17 0.9151638314634775 -0.4030820779703671
12662342666.666666 0.9107398395158742 -0.4129805621556808 -8.583127730838928e-17 7.552722138778434e-17 -8.583127730838928e-17 7.552722138778434e-17 0.9107401169730888 -0.4129799502828993
12662960000.0 0.9062090726471513 -0.42282989091573453 -8.498406641173603e-17 7.644593576798126e-17 -8.498406641173603e-17 7.644593576798126e-17 0.9062093567077055 -0.42282928211658644
12663577333.333334 0.9015717925700925 -0.43262952146354106 -8.412703252823577e-17 7.73551586983336e-17 -8.412703252823577e-17 7.73551586983336e-17 0.901572083199956 -0.4326289158092794
12664194666.666666 0.8968285443373419 -0.4423783019787317 -8.326028186433583e-17 7.825478526923768e-17 -8.326028186433583e-17 7.825478526923768e-17 0.8968288415017176 -0.44237769954023387
12664812000.0 0.8919798854567381 -0.4520750866177065 -8.238392174559961e-17 7.914471175813635e-17 -8.238392174559961e-17 7.914471175813635e-17 0.8919801891200613 -0.45207448746546397
12665429333.333334 0.8870263858257671 -0.461718735648337 -8.149806060344246e-17 8.002483564145406e-17 -8.149806060344246e-17 8.002483564145406e-17 0.8870266959517151 -0.4617181398524489
12666046666.666666 0.8819686276646505 -0.47130811558380314 -8.060280796177736e-17 8.089505560634708e-17 -8.060280796177736e-17 8.089505560634708e-17 0.8819689442161431 -0.4713075232139666
12666664000.0 0.8768072054477616 -0.48084209931609434 -7.969827442347508e-17 8.175527156236382e-17 -7.969827442347508e-17 8.175527156236382e-17 0.8768075283869685 -0.4808415104415979
12667281333.333334 0.8715427258339572 -0.4903195662481122 -7.878457165677119e-17 8.260538465288717e-17 -7.878457165677119e-17 8.260538465288717e-17 0.8715430551223005 -0.4903189809378265
12667898666.666666 0.8661758075950828 -0.4997394024257323 -7.786181238149214e-17 8.344529726648095e-17 -7.786181238149214e-17 8.344529726648095e-17 0.8661761431932415 -0.49973882074810205
12668516000.0 0.8607070815433205 -0.5091005006685824 -7.69301103551844e-17 8.427491304806059e-17 -7.69301103551844e-17 8.427491304806059e-17 0.8607074234112363 -0.509099922691619
12669133333.333334 0.8551371904571229 -0.5184017607000575 -7.598958035914984e-17 8.509413690988804e-17 -7.598958035914984e-17 8.509413690988804e-17 0.8551375385540049 -0.5184011864913309
12669750666.666666 0.8494667890055319 -0.5276420892768641 -7.504033818430612e-17 8.590287504246354e-17 -7.504033818430612e-17 8.590287504246354e-17 0.8494671432898603 -0.5276415189034943
12670368000.0 0.8436965436712844 -0.5368204003174155 -7.408250061698981e-17 8.670103492520756e-17 -7.408250061698981e-17 8.670103492520756e-17 0.8436969041008174 -0.536819833846066
