! Parameters = {f0=12700.012000; bw=77.238000; Q=6100.000000; N=10; m_0_1=1.192888; m_1_1=-0.871427; m_1_2=1.027700; m_2_2=-0.872076; m_2_3=0.664663; m_2_8=-0.003292; m_2_9=0.033412; m_3_3=-0.874013; m_3_4=0.553192; m_3_7=-0.002692; m_3_8=-0.099780; m_3_9=-0.003292; m_4_4=-0.876938; m_4_5=0.389527; m_4_6=0.000825; m_4_7=-0.120329; m_4_8=-0.002692; m_5_5=-0.876556; m_5_6=0.796882; m_5_7=0.000825; m_6_6=-0.876557; m_6_7=0.389869; m_7_7=-0.876924; m_7_8=0.553310; m_8_8=-0.874015; m_8_9=0.664976; m_9_9=-0.872081; m_9_10=1.028778; m_10_10=-0.871437; m_10_11=1.193683}
!
! Created with skrf (http://scikit-rf.org).
# Hz S RI R 50.0 
!freq ReS11 ImS11 ReS21 ImS21 ReS12 ImS12 ReS22 ImS22
12607400000.0 -0.9740280088872506 -0.22642755552931632 7.563197177159614e-17 -4.513061706787383e-18 7.563197177159614e-17 -4.513061706787383e-18 -0.9740278665507643 -0.226428167820194
12608017333.333334 -0.9758614068623478 -0.2183907383486806 7.557693803991679e-17 -5.142055833363605e-18 7.557693803991679e-17 -5.142055833363605e-18 -0.9758612695846677 -0.2183913517620252
12608634666.666666 -0.9776284933187754 -0.21033908113117056 7.551667803128448e-17 -5.770446540070352e-18 7.551667803128448e-17 -5.770446540070352e-18 -0.977628361108732 -0.21033969562519106
12609252000.0 -0.979329148179919 -0.2022731310012249 7.545119797606525e-17 -6.3981904417773085e-18 7.545119797606525e-17 -6.3981904417773085e-18 -0.9793290210460003 -0.2022737465340619
12609869333.333334 -0.9809632558833171 -0.19419343605448353 7.538050446444774e-17 -7.025244215245214e-18 7.538050446444774e-17 -7.025244215245214e-18 -0.9809631338336648 -0.19419405258421082
12610486666.666666 -0.9825307053884823 -0.18610054532068138 7.530460444584709e-17 -7.651564602088104e-18 7.530460444584709e-17 -7.651564602088104e-18 -0.9825305884308928 -0.18610116280530928
12611104000.0 -0.984031390184512 -0.17799500872603502 7.5223505228279e-17 -8.277108411774796e-18 7.5223505228279e-17 -8.277108411774796e-18 -0.984031278326432 -0.17799562712351258
12611721333.333334 -0.9854652082972426 -0.16987737705626388 7.513721447771595e-17 -8.901832524568939e-18 7.513721447771595e-17 -8.901832524568939e-18 -0.9854651015457745 -0.16987799632448275
12612338666.666666 -0.9868320622962452 -0.16174820191885714 7.504574021741247e-17 -9.525693894514267e-18 7.504574021741247e-17 -9.525693894514267e-18 -0.9868319606581422 -0.16174882201565366
12612956000.0 -0.9881318593014198 -0.15360803570570217 7.494909082720849e-17 -1.0148649552392194e-17 7.494909082720849e-17 -1.0148649552392194e-17 -0.9881317627830865 -0.1536086565888605
12613573333.333334 -0.9893645109892922 -0.1454574315556325 7.484727504281101e-17 -1.0770656608653778e-17 7.484727504281101e-17 -1.0770656608653778e-17 -0.9893644195967877 -0.1454580531828879
12614190666.666666 -0.990529933599052 -0.137296943316674 7.474030195504567e-17 -1.1391672256385466e-17 7.474030195504567e-17 -1.1391672256385466e-17 -0.9905298473380828 -0.1372975656457148
12614808000.0 -0.9916280479382141 -0.12912712550852046 7.462818100908845e-17 -1.2011653774236018e-17 7.462818100908845e-17 -1.2011653774236018e-17 -0.9916279668141386 -0.12912774849699155
12615425333.333334 -0.9926587793880097 -0.12094853328482566 7.451092200367131e-17 -1.2630558529349099e-17 7.451092200367131e-17 -1.2630558529349099e-17 -0.9926587034058395 -0.12094915689033171
12616042666.666666 -0.9936220579084628 -0.11276172239548055 7.43885350902641e-17 -1.3248343980286515e-17 7.43885350902641e-17 -1.3248343980286515e-17 -0.9936219870728565 -0.11276234657558798
12616660000.0 -0.9945178180431387 -0.10456724914884748 7.426103077223185e-17 -1.3864967679943874e-17 7.426103077223185e-17 -1.3864967679943874e-17 -0.9945177523584063 -0.10456787386108807
12617277333.333334 -0.9953459989236044 -0.09636567037393114 7.41284199039681e-17 -1.4480387278460742e-17 7.41284199039681e-17 -1.4480387278460742e-17 -0.9953459383937032 -0.09636629557580435
12617894666.666666 -0.9961065442735411 -0.08815754338268134 7.399071369000658e-17 -1.5094560526110293e-17 7.399071369000658e-17 -1.5094560526110293e-17 -0.9961064889020802 -0.08815816903165785
12618512000.0 -0.9967994024126063 -0.07994342593181225 7.384792368410173e-17 -1.5707445276214433e-17 7.384792368410173e-17 -1.5707445276214433e-17 -0.9967993522028448 -0.07994405198533655
12619129333.333334 -0.9974245262599075 -0.07172387618529798 7.3700061788297e-17 -1.6318999487998258e-17 7.3700061788297e-17 -1.6318999487998258e-17 -0.9974244812147504 -0.071724502600791
12619746666.666666 -0.9979818733372238 -0.06349945267613244 7.35471402519574e-17 -1.6929181229488366e-17 7.35471402519574e-17 -1.6929181229488366e-17 -0.997981833459228 -0.06350007941099488
12620364000.0 -0.9984714057718903 -0.055270714268489854 7.338917167078569e-17 -1.753794868037114e-17 7.338917167078569e-17 -1.753794868037114e-17 -0.9984713710632583 -0.055271341280104705
12620981333.333334 -0.9988930902993591 -0.04703822011983363 7.322616898581467e-17 -1.8145260134844287e-17 7.322616898581467e-17 -1.8145260134844287e-17 -0.9988930607619434 -0.04703884736556935
12621598666.666666 -0.999246898265473 -0.038802529642750536 7.305814548237078e-17 -1.875107400447801e-17 7.305814548237078e-17 -1.875107400447801e-17 -0.9992468739007756 -0.0388031570799639
12622216000.0 -0.9995328056284084 -0.030564202467051313 7.288511478901997e-17 -1.935534882104617e-17 7.288511478901997e-17 -1.935534882104617e-17 -0.9995327864375786 -0.030564830053090183
12622833333.333334 -0.9997507929603086 -0.022323798401685798 7.270709087648655e-17 -1.99580432393604e-17 7.270709087648655e-17 -1.99580432393604e-17 -0.9997507789441441 -0.022324426093892107
12623450666.666666 -0.9999008454486005 -0.014081877396816623 7.252408805655258e-17 -2.0559116040082252e-17 7.252408805655258e-17 -2.0559116040082252e-17 -0.9999008366075474 -0.014082505152529278
12624068000.0 -0.9999829528970074 -0.0058389995056276145 7.233612098092839e-17 -2.1158526132544058e-17 7.233612098092839e-17 -2.1158526132544058e-17 -0.9999829492311605 -0.00583962728218537
12624685333.333334 -0.9999971097262377 0.0024042751537613305 7.214320464010226e-17 -2.1756232557551364e-17 7.214320464010226e-17 -2.1756232557551364e-17 -0.9999971112353403 0.0024036473990169606
12625302666.666666 -0.9999433149743664 0.010647386436071025 7.194535436217432e-17 -2.2352194490152847e-17 7.194535436217432e-17 -2.2352194490152847e-17 -0.9999433216578095 0.010646758745792878
12625920000.0 -0.9998215722968973 0.018889774207352186 7.17425858116514e-17 -2.2946371242450843e-17 7.17425858116514e-17 -2.2946371242450843e-17 -0.9998215841537204 0.018889146624184536
12626537333.333334 -0.9996318899665172 0.02713087838264962 7.15349149882376e-17 -2.353872226634204e-17 7.15349149882376e-17 -2.353872226634204e-17 -0.9996319069954083 0.027130250949225283
12627154666.666666 -0.9993742808725338 0.03537013896425994 7.132235822558945e-17 -2.412920715628833e-17 7.132235822558945e-17 -2.412920715628833e-17 -0.9993743030718307 0.035369511723197425
12627772000.0 -0.9990487625199967 0.04360699607984124 7.110493219004753e-17 -2.4717785652076352e-17 7.110493219004753e-17 -2.4717785652076352e-17 -0.9990487898876858 0.0436063690737418
12628389333.333334 -0.9986553570285167 0.051840890020230165 7.08826538793602e-17 -2.530441764152574e-17 7.08826538793602e-17 -2.530441764152574e-17 -0.9986553895622328 0.05184026329167495
12629006666.666666 -0.9981940911307479 0.06007126127778755 7.065554062136375e-17 -2.588906316324432e-17 7.065554062136375e-17 -2.588906316324432e-17 -0.9981941288277748 0.06007063486933462
12629624000.0 -0.9976649961705846 0.06829755058413395 7.042361007265908e-17 -2.647168240931953e-17 7.042361007265908e-17 -2.647168240931953e-17 -0.9976650390278554 0.06829692453831544
12630241333.333334 -0.9970681081010219 0.07651919894832312 7.01868802172538e-17 -2.7052235728032332e-17 7.01868802172538e-17 -2.7052235728032332e-17 -0.9970681561151212 0.07651857330764253
12630858666.666666 -0.9964034674817285 0.08473564769465675 6.994536936519033e-17 -2.7630683626537153e-17 6.994536936519033e-17 -2.7630683626537153e-17 -0.9964035206488887 0.0847350225015857
12631476000.0 -0.9956711194762604 0.09294633850095867 6.969909615114223e-17 -2.820698677355358e-17 6.969909615114223e-17 -2.820698677355358e-17 -0.9956711777923661 0.09294571379793437
12632093333.333334 -0.9948711138490268 0.10115071343614583 6.94480795330005e-17 -2.878110600201826e-17 6.94480795330005e-17 -2.878110600201826e-17 -0.9948711773096115 0.10115008926556796
12632710666.666666 -0.9940035049618926 0.10934821499831078 6.919233879042999e-17 -2.935300231174197e-17 6.919233879042999e-17 -2.935300231174197e-17 -0.9940035735621416 0.1093475914025387
12633328000.0 -0.9930683517704675 0.11753828615277435 6.893189352340097e-17 -2.9922636872061895e-17 6.893189352340097e-17 -2.9922636872061895e-17 -0.993068425505217 0.11753766317412424
12633945333.333334 -0.9920657178201364 0.12572037036956957 6.86667636507117e-17 -3.0489971024451844e-17 6.86667636507117e-17 -3.0489971024451844e-17 -0.9920657966838745 0.12571974805031158
12634562666.666666 -0.9909956712417104 0.13389391166157 6.839696940847752e-17 -3.105496628514683e-17 6.839696940847752e-17 -3.105496628514683e-17 -0.9909957552285771 0.1338932900439253
12635180000.0 -0.9898582847468108 0.14205835462212849 6.812253134860384e-17 -3.161758434774278e-17 6.812253134860384e-17 -3.161758434774278e-17 -0.9898583738505985 0.14205773374826647
12635797333.333334 -0.9886536356229219 0.1502131444628747 6.784347033723562e-17 -3.217778708578676e-17 6.784347033723562e-17 -3.217778708578676e-17 -0.988653729837076 0.1502125243749101
12636414666.666666 -0.9873818057281541 0.15835772705130116 6.755980755319078e-17 -3.273553655534424e-17 6.755980755319078e-17 -3.273553655534424e-17 -0.9873819050457742 0.1583571077912912
12637032000.0 -0.9860428814856607 0.16649154894858656 6.727156448636295e-17 -3.3290794997571695e-17 6.727156448636295e-17 -3.3290794997571695e-17 -0.9860429858994991 0.16649093055852812
12637649333.333334 -0.9846369538777779 0.17461405744709044 6.697876293611274e-17 -3.384352484125642e-17 6.697876293611274e-17 -3.384352484125642e-17 -0.9846370633802416 0.17461343996891707
12638266666.666666 -0.9831641184398384 0.1827247006079383 6.668142500963308e-17 -3.439368870535157e-17 6.668142500963308e-17 -3.439368870535157e-17 -0.9831642330229899 0.18272408408351767
12638884000.0 -0.9816244752536811 0.1908229272985273 6.637957312029566e-17 -3.494124940149554e-17 6.637957312029566e-17 -3.494124940149554e-17 -0.9816245949092393 0.19082231176965825
12639501333.333334 -0.9800181289408469 0.19890818723000472 6.607322998597482e-17 -3.5486169936518573e-17 6.607322998597482e-17 -3.5486169936518573e-17 -0.9800182536601842 0.19890757273841397
12640118666.666666 -0.978345188655491 0.206979930994521 6.576241862735872e-17 -3.6028413514921804e-17 6.576241862735872e-17 -3.6028413514921804e-17 -0.9783453184296391 0.20697931758186114
12640736000.0 -0.9766057680769094 0.21503761010287 6.544716236621715e-17 -3.6567943541382654e-17 6.544716236621715e-17 -3.6567943541382654e-17 -0.9766059028965569 0.2150369978107161
12641353333.333334 -0.9747999854018877 0.223080677021398 6.512748482369102e-17 -3.710472362317111e-17 6.512748482369102e-17 -3.710472362317111e-17 -0.9748001252573795 0.2230800658912446
12641970666.666666 -0.9729279633366248 0.23110858520940344 6.480340991851454e-17 -3.7638717572634334e-17 6.480340991851454e-17 -3.7638717572634334e-17 -0.9729281082179674 0.23110797528266272
12642588000.0 -0.9709898290883949 0.23912078915630441 6.447496186524871e-17 -3.816988940961054e-17 6.447496186524871e-17 -3.816988940961054e-17 -0.9709899789852529 0.2391201804743024
12643205333.333334 -0.9689857143569245 0.24711674441859544 6.414216517248935e-17 -3.86982033638388e-17 6.414216517248935e-17 -3.86982033638388e-17 -0.9689858692586222 0.24711613702256943
12643822666.666666 -0.9669157553254081 0.2550959076569808 6.380504464104053e-17 -3.922362387737696e-17 6.380504464104053e-17 -3.922362387737696e-17 -0.9669159152209322 0.2550953015880771
12644440000.0 -0.9647800926512939 0.2630577366731591 6.346362536209019e-17 -3.974611560696943e-17 6.346362536209019e-17 -3.974611560696943e-17 -0.9647802575292906 0.2630571319724291
12645057333.333334 -0.9625788714567132 0.2710016904466926 6.3117932715353e-17 -4.0265643426418835e-17 6.3117932715353e-17 -4.0265643426418835e-17 -0.9625790413054934 0.2710010871550913
12645674666.666666 -0.9603122413186262 0.27892722917177204 6.276799236719776e-17 -4.078217242893873e-17 6.276799236719776e-17 -4.078217242893873e-17 -0.9603124161261636 0.27892662733015466
12646292000.0 -0.9579803562585977 0.2868338142940879 6.241383026874558e-17 -4.1295667929501635e-17 6.241383026874558e-17 -4.1295667929501635e-17 -0.9579805360125311 0.28683321394320727
12646909333.333334 -0.9555833747324374 0.2947209085470715 6.205547265397407e-17 -4.1806095467136134e-17 6.205547265397407e-17 -4.1806095467136134e-17 -0.9555835594200688 0.2947203097275748
12647526666.666666 -0.9531214596193418 0.30258797598870313 6.16929460377748e-17 -4.2313420807247914e-17 6.16929460377748e-17 -4.2313420807247914e-17 -0.9531216492276409 0.30258737874112973
12648144000.0 -0.9505947782108694 0.3104344820377937 6.132627721400508e-17 -4.281760994390465e-17 6.132627721400508e-17 -4.281760994390465e-17 -0.9505949727264713 0.3104338864025721
12648761333.333334 -0.9480035021995527 0.31825989351036543 6.095549325352479e-17 -4.3318629102098963e-17 6.095549325352479e-17 -4.3318629102098963e-17 -0.9480037016087609 0.31825929952781046
12649378666.666666 -0.9453478076672678 0.3260636786557732 6.058062150221044e-17 -4.3816444740001826e-17 6.058062150221044e-17 -4.3816444740001826e-17 -0.9453480119560567 0.3260630863660843
12649996000.0 -0.942627875073221 0.3338453071930026 6.020168957894414e-17 -4.431102355120712e-17 6.020168957894414e-17 -4.431102355120712e-17 -0.942628084227232 0.33384471663625925
12650613333.333334 -0.9398438892417028 0.34160425034661873 5.98187253735943e-17 -4.480233246694518e-17 5.98187253735943e-17 -4.480233246694518e-17 -0.93984410324625 0.34160366156277955
12651230666.666666 -0.9369960393495771 0.3493399808825941 5.943175704498055e-17 -4.5290338658277915e-17 5.943175704498055e-17 -4.5290338658277915e-17 -0.9369962581896454 0.34933939391149277
12651848000.0 -0.934084518913324 0.35705197314440007 5.904081301880156e-17 -4.5775009538299317e-17 5.904081301880156e-17 -4.5775009538299317e-17 -0.9340847425735718 0.35705138802574354
12652465333.333334 -0.9311095257759789 0.36473970308848636 5.864592198557073e-17 -4.625631276428685e-17 5.864592198557073e-17 -4.625631276428685e-17 -0.931109754240738 0.36473911986185154
12653082666.666666 -0.9280712620936912 0.3724026483198917 5.824711289852098e-17 -4.6734216239851904e-17 5.824711289852098e-17 -4.6734216239851904e-17 -0.9280714953469691 0.37240206702472356
12653700000.0 -0.9249699343218819 0.3800402881280058 5.784441497148665e-17 -4.7208688117078514e-17 5.784441497148665e-17 -4.7208688117078514e-17 -0.9249701723473629 0.38003970880361404
12654317333.333334 -0.9218057532013657 0.3876521035215835 5.743785767677911e-17 -4.7679696798631255e-17 5.743785767677911e-17 -4.7679696798631255e-17 -0.9218059959824089 0.38765152620713955
12654934666.666666 -0.9185789337439066 0.39523757726429953 5.702747074304632e-17 -4.8147210939842843e-17 5.702747074304632e-17 -4.8147210939842843e-17 -0.9185791812635525 0.39523700199883516
12655552000.0 -0.9152896952176567 0.4027961939097914 5.661328415309524e-17 -4.861119945080827e-17 5.661328415309524e-17 -4.861119945080827e-17 -0.9152899474586245 0.4027956207321952
12656169333.333334 -0.9119382611322887 0.41032743983660713 5.619532814173192e-17 -4.907163149841978e-17 5.619532814173192e-17 -4.907163149841978e-17 -0.9119385180769769 0.41032686878562136
12656786666.666666 -0.9085248592237365 0.41783080328326117 5.577363319354998e-17 -4.9528476508423385e-17 5.577363319354998e-17 -4.9528476508423385e-17 -0.9085251208542293 0.4178302343974813
12657404000.0 -0.9050497214387728 0.4253057743829084 5.5348230040725105e-17 -4.998170416743112e-17 5.5348230040725105e-17 -4.998170416743112e-17 -0.9050499877368342 0.4253052077007774
12658021333.333334 -0.9015130839192169 0.4327518451980389 5.491914966078353e-17 -5.043128442492557e-17 5.491914966078353e-17 -5.043128442492557e-17 -0.9015133548662984 0.43275128075784763
12658638666.666666 -0.8979151869859561 0.440168509754868 5.4486423274364226e-17 -5.0877187495234456e-17 5.4486423274364226e-17 -5.0877187495234456e-17 -0.897915462563192 0.4401679475947498
12659256000.0 -0.8942562751224857 0.4475552640779714 5.405008234294354e-17 -5.1319383859509216e-17 5.405008234294354e-17 -5.1319383859509216e-17 -0.8942565553107001 0.44755470423590216
12659873333.333334 -0.890536596958412 0.4549116062243024 5.361015856657127e-17 -5.1757844267654904e-17 5.361015856657127e-17 -5.1757844267654904e-17 -0.8905368817381178 0.45491104873809685
12660490666.666666 -0.8867564052525596 0.4622370363173015 5.316668388157878e-17 -5.2192539740255155e-17 5.316668388157878e-17 -5.2192539740255155e-17 -0.8867566946039576 0.4622364812246097
12661108000.0 -0.8829159568756632 0.4695310565811154 5.271969045825576e-17 -5.2623441570491834e-17 5.271969045825576e-17 -5.2623441570491834e-17 -0.8829162507786452 0.469530503919421
12661725333.333334 -0.8790155127930935 0.4767931713740667 5.226921069854815e-17 -5.3050521326009576e-17 5.226921069854815e-17 -5.3050521326009576e-17 -0.8790158112272474 0.4767926211806861
12662342666.666666 -0.8750553380469744 0.4840228872226404 5.18152772337032e-17 -5.3473750850797733e-17 5.18152772337032e-17 -5.3473750850797733e-17 -0.8750556409915793 0.4840223395347173
12662960000.0 -0.8710357017382852 0.4912197128547866 5.1357922921923527e-17 -5.389310226702859e-17 5.1357922921923527e-17 -5.389310226702859e-17 -0.8710360091723167 0.49121916770929125
12663577333.333334 -0.866956877008483 0.49838315923347953 5.0897180845997436e-17 -5.430854797688444e-17 5.0897180845997436e-17 -5.430854797688444e-17 -0.8669571889106138 0.49838261666720585
12664194666.666666 -0.862819141020997 0.505512739589849 5.0433084310916034e-17 -5.472006066436314e-17 5.0433084310916034e-17 -5.472006066436314e-17 -0.8628194573695984 0.5055121996394121
12664812000.0 -0.8586227749423803 0.5126079694562815 4.9965666841474366e-17 -5.5127613297064886e-17 4.9965666841474366e-17 -5.5127613297064886e-17 -0.8586230957155231 0.5126074321581151
12665429333.333334 -0.85436806392319 0.5196683666993659 4.9494962179864287e-17 -5.553117912795261e-17 4.9494962179864287e-17 -5.553117912795261e-17 -0.8543683890986465 0.5196678320897198
12666046666.666666 -0.8500552970786821 0.5266934515525313 4.9021004283247364e-17 -5.593073169709815e-17 4.9021004283247364e-17 -5.593073169709815e-17 -0.8500556266339289 0.5266929196674698
12666664000.0 -0.8456847674690084 0.5336827466489196 4.8543827321303786e-17 -5.632624483341561e-17 4.8543827321303786e-17 -5.632624483341561e-17 -0.8456851013812247 0.5336822175243172
12667281333.333334 -0.8412567720795041 0.5406357770534791 4.80634656737996e-17 -5.671769265634651e-17 4.80634656737996e-17 -5.671769265634651e-17 -0.8412571103255766 0.5406352507250203
12667898666.666666 -0.8367716118003625 0.5475520702954827 4.757995392810353e-17 -5.710504957755584e-17 4.757995392810353e-17 -5.710504957755584e-17 -0.8367719543568858 0.5475515467986583
12668516000.0 -0.8322295914061848 0.5544311564006302 4.709332687670619e-17 -5.748829030259327e-17 4.709332687670619e-17 -5.748829030259327e-17 -0.8322299382494626 0.5544306357707349
12669133333.333334 -0.8276310195353956 0.5612725679227943 4.6603619514741074e-17 -5.786738983252164e-17 4.6603619514741074e-17 -5.786738983252164e-17 -0.8276313706414419 0.5612720501949242
12669750666.666666 -0.8229762086691766 0.5680758399759269 4.611086703746124e-17 -5.82423234655495e-17 4.611086703746124e-17 -5.82423234655495e-17 -0.8229765640137189 0.5680753251849782
