! Parameters = {f0=12700.012000; bw=77.238000; Q=6100.000000; N=10; m_0_1=1.344640; m_1_1=1.404849; m_1_2=1.179452; m_2_2=1.404200; m_2_3=0.816415; m_2_8=0.004296; m_2_9=0.041000; m_3_3=1.402263; m_3_4=0.704944; m_3_7=0.004896; m_3_8=-0.092192; m_3_9=0.004296; m_4_4=1.399338; m_4_5=0.541279; m_4_6=0.008413; m_4_7=-0.112741; m_4_8=0.004896; m_5_5=1.399720; m_5_6=0.948634; m_5_7=0.008413; m_6_6=1.399719; m_6_7=0.541621; m_7_7=1.399352; m_7_8=0.705062; m_8_8=1.402261; m_8_9=0.816728; m_9_9=1.404195; m_9_10=1.180530; m_10_10=1.404839; m_10_11=1.345435}
!
! Created with skrf (http://scikit-rf.org).
# Hz S RI R 50.0 
!freq ReS11 ImS11 ReS21 ImS21 ReS12 ImS12 ReS22 ImS22
12607400000.0 0.9413355463674747 -0.33747205683559894 -1.2529733521823755e-16 9.178654490346946e-17 -1.2529733521823755e-16 9.178654490346946e-17 0.9413357853961744 -0.337471390094582
12608017333.333334 0.9369635488174353 -0.34942711427025736 -1.2408623771045653e-16 9.336676005306275e-17 -1.2408623771045653e-16 9.336676005306275e-17 0.9369637963016982 -0.3494264506583775
12608634666.666666 0.9324397277929701 -0.3613255513151188 -1.2285522701875894e-16 9.493101632509697e-17 -1.2285522701875894e-16 9.493101632509697e-17 0.9324399836918686 -0.3613248909395944
12609252000.0 0.9277648163240503 -0.3731654399740205 -1.2160451317159222e-16 9.647906299081363e-17 -1.2160451317159222e-16 9.647906299081363e-17 0.9277650805952973 -0.3731647829415354
12609869333.333334 0.9229395719229214 -0.3849448617380635 -1.2033430935165915e-16 9.801065208222224e-17 -1.2033430935165915e-16 9.801065208222224e-17 0.9229398445228784 -0.3849442081547496
12610486666.666666 0.9179647764615483 -0.3966619078960087 -1.1904483185965353e-16 9.952553843176752e-17 -1.1904483185965353e-16 9.952553843176752e-17 0.9179650573452304 -0.3966612578674282
12611104000.0 0.9128412360446582 -0.40831467984418857 -1.1773630007748997e-16 1.0102347971152618e-16 -1.1773630007748997e-16 1.0102347971152618e-16 0.9128415251657425 -0.4083140334753174
12611721333.333334 0.9075697808794343 -0.4199012893934214 -1.1640893643112968e-16 1.0250423647182283e-16 -1.1640893643112968e-16 1.0250423647182283e-16 0.9075700781902685 -0.4199006467886324
12612338666.666666 0.9021512651407666 -0.43141985907549185 -1.1506296635278152e-16 1.039675721795173e-16 -1.1506296635278152e-16 1.039675721795173e-16 0.9021515705923758 -0.43141922033853775
12612956000.0 0.8965865668328344 -0.4428685224473665 -1.136986182427396e-16 1.0541325325566465e-16 -1.136986182427396e-16 1.0541325325566465e-16 0.8965868803749301 -0.4428678876813635
12613573333.333334 0.8908765876470611 -0.4542454243931699 -1.1231612343071575e-16 1.0684104911271732e-16 -1.1231612343071575e-16 1.0684104911271732e-16 0.890876909228048 -0.45424479370058013
12614190666.666666 0.88502225281573 -0.4655487214253432 -1.1091571613667985e-16 1.082507321912449e-16 -1.1091571613667985e-16 1.082507321912449e-16 0.8850225823827164 -0.4655480949079595
12614808000.0 0.8790245109622948 -0.47677658198290385 -1.0949763343127246e-16 1.096420779961119e-16 -1.0949763343127246e-16 1.096420779961119e-16 0.8790248484610989 -0.47677595974183173
12615425333.333334 0.872884333947481 -0.4879271867285795 -1.0806211519572708e-16 1.1101486513217493e-16 -1.0806211519572708e-16 1.1101486513217493e-16 0.8728846793226411 -0.48792656886422187
12616042666.666666 0.8666027167119118 -0.4989987288434072 -1.0660940408140851e-16 1.1236887533939426e-16 -1.0660940408140851e-16 1.1236887533939426e-16 0.8666030699066974 -0.498998115455449
12616660000.0 0.8601806771148696 -0.5099894143195594 -1.051397454688571e-16 1.1370389352747392e-16 -1.051397454688571e-16 1.1370389352747392e-16 0.8601810380712872 -0.5099888055069495
12617277333.333334 0.8536192557693277 -0.5208974622510865 -1.0365338742639892e-16 1.1501970780996563e-16 -1.0365338742639892e-16 1.1501970780996563e-16 0.853619624428132 -0.5208968581120228
12617894666.666666 0.846919515873484 -0.5317211051222489 -1.0215058066839625e-16 1.1631610953777484e-16 -1.0215058066839625e-16 1.1631610953777484e-16 0.8469198921741884 -0.5317205057541634
12618512000.0 0.8400825430381554 -0.5424585890944565 -1.00631578512975e-16 1.175928933322151e-16 -1.00631578512975e-16 1.175928933322151e-16 0.84008292691904 -0.5424579945939978
12619129333.333334 0.8331094451112846 -0.5531081742897764 -9.909663683948003e-17 1.1884985711739156e-16 -9.909663683948003e-17 1.1884985711739156e-16 0.8331098365094077 -0.5531075847527951
12619746666.666666 0.826001351998098 -0.5636681350733929 -9.754601404536061e-17 1.200868021521733e-16 -9.754601404536061e-17 1.200868021521733e-16 0.8260017508493064 -0.5636675505949259
12620364000.0 0.8187594154781356 -0.5741367603330279 -9.597997100278394e-17 1.2130353306149418e-16 -9.597997100278394e-17 1.2130353306149418e-16 0.8187598217170737 -0.5741361810072831
12620981333.333334 0.8113848090187185 -0.5845123537560696 -9.439877101486373e-17 1.2249985786709447e-16 -9.439877101486373e-17 1.2249985786709447e-16 0.8113852225788416 -0.5845117796764117
12621598666.666666 0.8038787275846107 -0.5947932341047194 -9.28026797713731e-17 1.2367558801779264e-16 -9.28026797713731e-17 1.2367558801779264e-16 0.8038791483981933 -0.5947926653636528
12622216000.0 0.7962423874445151 -0.6049777354882263 -9.119196530425685e-17 1.248305384190484e-16 -9.119196530425685e-17 1.248305384190484e-16 0.7962428154426641 -0.6049771721773822
12622833333.333334 0.7884770259739292 -0.6150642076329188 -8.9566897942623e-17 1.2596452746206425e-16 -8.9566897942623e-17 1.2596452746206425e-16 0.7884774610865939 -0.6150636498430401
12623450666.666666 0.7805839014547805 -0.6250510161494313 -8.792775026752985e-17 1.2707737705218776e-16 -8.792775026752985e-17 1.2707737705218776e-16 0.7805843436107632 -0.6250504639703558
12624068000.0 0.7725642928713641 -0.6349365427977605 -8.627479706624331e-17 1.281689126368548e-16 -8.627479706624331e-17 1.281689126368548e-16 0.7725647419983337 -0.6349359963184092
12624685333.333334 0.7644194997030586 -0.644719185749523 -8.460831528628396e-17 1.2923896323284108e-16 -8.460831528628396e-17 1.2923896323284108e-16 0.7644199557275619 -0.644718645057885
12625302666.666666 0.7561508417140886 -0.6543973598471188 -8.29285839891412e-17 1.3028736145292212e-16 -8.29285839891412e-17 1.3028736145292212e-16 0.7561513045615607 -0.6543968250302353
12625920000.0 0.7477596587392698 -0.6639694968610632 -8.123588430351635e-17 1.3131394353202034e-16 -8.123588430351635e-17 1.3131394353202034e-16 0.7477601283340498 -0.6639689680050177
12626537333.333334 0.7392473104672429 -0.6734340457437168 -7.953049937842246e-17 1.3231854935263418e-16 -7.953049937842246e-17 1.3231854935263418e-16 0.7392477867325822 -0.6734335229336162
12627154666.666666 0.7306151762198856 -0.6827894728809074 -7.781271433585983e-17 1.3330102246972907e-16 -7.781271433585983e-17 1.3330102246972907e-16 0.7306156590779631 -0.682788956200872
12627772000.0 0.7218646547289244 -0.6920342623403071 -7.608281622319217e-17 1.3426121013500905e-16 -7.608281622319217e-17 1.3426121013500905e-16 0.721865144100858 -0.6920337518734544
12628389333.333334 0.7129971639094439 -0.7011669161169056 -7.434109396530197e-17 1.3519896332052926e-16 -7.434109396530197e-17 1.3519896332052926e-16 0.7129976597153043 -0.7011664119453399
12629006666.666666 0.7040141406297398 -0.7101859543761562 -7.258783831634119e-17 1.3611413674175178e-16 -7.258783831634119e-17 1.3611413674175178e-16 0.7040146427885624 -0.7101854565809524
12629624000.0 0.6949170404788836 -0.7190899156933525 -7.082334181131586e-17 1.370065888799152e-16 -7.082334181131586e-17 1.370065888799152e-16 0.694917548908683 -0.7190894243545454
12630241333.333334 0.6857073375306248 -0.7278773572906796 -6.904789871731248e-17 1.3787618200382247e-16 -6.904789871731248e-17 1.3787618200382247e-16 0.6857078521484077 -0.72787687248725
12630858666.666666 0.6763865241047418 -0.7365468552708025 -6.726180498450526e-17 1.3872278219097412e-16 -6.726180498450526e-17 1.3872278219097412e-16 0.6763870448265191 -0.7365463770806635
12631476000.0 0.6669561105249782 -0.7450970048478229 -6.546535819685879e-17 1.3954625934808957e-16 -6.546535819685879e-17 1.3954625934808957e-16 0.6669566372657812 -0.7450965333478098
12632093333.333334 0.6574176248744374 -0.7535264205747898 -6.365885752266106e-17 1.4034648723095533e-16 -6.365885752266106e-17 1.4034648723095533e-16 0.6574181575483313 -0.7535259558406469
12632710666.666666 0.6477726127481082 -0.7618337365680863 -6.184260366474458e-17 1.4112334346366716e-16 -6.184260366474458e-17 1.4112334346366716e-16 0.6477731512682029 -0.7618332786744518
12633328000.0 0.6380226370021573 -0.7700176067289731 -6.001689881047381e-17 1.4187670955722687e-16 -6.001689881047381e-17 1.4187670955722687e-16 0.6380231812806257 -0.7700171557493717
12633945333.333334 0.628169277500865 -0.7780767049615646 -5.818204658158142e-17 1.426064709274641e-16 -5.818204658158142e-17 1.426064709274641e-16 0.6281698274489547 -0.7780762609683922
12634562666.666666 0.6182141308605779 -0.7860097253877351 -5.633835198371604e-17 1.433125169123406e-16 -5.633835198371604e-17 1.433125169123406e-16 0.6182146863886281 -0.7860092884522506
12635180000.0 0.6081588101910052 -0.7938153825587309 -5.4486121355781903e-17 1.4399474078860214e-16 -5.4486121355781903e-17 1.4399474078860214e-16 0.6081593712084576 -0.7938149527510404
12635797333.333334 0.59800494483378 -0.8014924116634858 -5.262566231915286e-17 1.4465303978774885e-16 -5.262566231915286e-17 1.4465303978774885e-16 0.5980055112491972 -0.8014919890525352
12636414666.666666 0.5877541800986318 -0.8090395687334382 -5.0757283726614286e-17 1.4528731511138228e-16 -5.0757283726614286e-17 1.4528731511138228e-16 0.5877547518197104 -0.8090391533869997
12637032000.0 0.5774081769965101 -0.8164556308443033 -4.888129561117129e-17 1.4589747194587435e-16 -4.888129561117129e-17 1.4589747194587435e-16 0.5774087539300957 -0.8164552228289662
12637649333.333334 0.5669686119705722 -0.8237393963141291 -4.699800913463395e-17 1.464834194763947e-16 -4.699800913463395e-17 1.464834194763947e-16 0.5669691940226754 -0.8237389956952875
12638266666.666666 0.5564371766246775 -0.8308896848979175 -4.5107736536119926e-17 1.4704507090024717e-16 -4.5107736536119926e-17 1.4704507090024717e-16 0.5564377637004883 -0.8308892917397613
12638884000.0 0.5458155774490047 -0.8379053379790659 -4.3210791080325926e-17 1.4758234343956822e-16 -4.3210791080325926e-17 1.4758234343956822e-16 0.5458161694529089 -0.8379049523445702
12639501333.333334 0.5351055355436739 -0.8447852187570054 -4.1307487005641864e-17 1.4809515835335942e-16 -4.1307487005641864e-17 1.4809515835335942e-16 0.5351061323792676 -0.8447848407079191
12640118666.666666 0.5243087863401048 -0.8515282124312553 -3.9398139472260065e-17 1.485834409488149e-16 -3.9398139472260065e-17 1.485834409488149e-16 0.5243093879102113 -0.8515278420280937
12640736000.0 0.5134270793190415 -0.8581332263825484 -3.7483064509892285e-17 1.490471205920515e-16 -3.7483064509892285e-17 1.490471205920515e-16 0.513427685525726 -0.8581328636845804
12641353333.333334 0.5024621777282282 -0.8645991903491524 -3.5562578965710375e-17 1.494861307180757e-16 -3.5562578965710375e-17 1.494861307180757e-16 0.5024627884728146 -0.8645988354143942
12641970666.666666 0.49141585829568124 -0.8709250566009236 -3.3637000451826376e-17 1.4990040884016856e-16 -3.3637000451826376e-17 1.4990040884016856e-16 0.49141647347876743 -0.8709247094861268
12642588000.0 0.4802899109422768 -0.877109800108779 -3.170664729292993e-17 1.5028989655853027e-16 -3.170664729292993e-17 1.5028989655853027e-16 0.4802905304637516 -0.8771094608694234
12643205333.333334 0.4690861384916184 -0.8831524187108502 -2.977183847369364e-17 1.5065453956828486e-16 -2.977183847369364e-17 1.5065453956828486e-16 0.469086762250677 -0.8831520874011335
12643822666.666666 0.4578063563779116 -0.8890519332748696 -2.783289358610727e-17 1.5099428766680334e-16 -2.783289358610727e-17 1.5099428766680334e-16 0.45780698427307304 -0.8890516099477
12644440000.0 0.4464523923517449 -0.8948073878568548 -2.5890132776758362e-17 1.513090947603452e-16 -2.5890132776758362e-17 1.513090947603452e-16 0.4464530242808669 -0.8948070725638405
12645057333.333334 0.435026086184075 -0.9004178498559259 -2.3943876694085517e-17 1.515989188700156e-16 -2.3943876694085517e-17 1.515989188700156e-16 0.43502672204437315 -0.9004175426473711
12645674666.666666 0.4235292893680697 -0.9058824101654598 -2.199444643544962e-17 1.5186372213706638e-16 -2.199444643544962e-17 1.5186372213706638e-16 0.4235299290561314 -0.9058821110903509
12646292000.0 0.411963864818731 -0.9112001833205575 -2.0042163494228957e-17 1.521034708275021e-16 -2.0042163494228957e-17 1.521034708275021e-16 0.4119645082305347 -0.9111998924265613
12646909333.333334 0.4003316865717038 -0.9163703076412162 -1.8087349706904904e-17 1.5231813533600504e-16 -1.8087349706904904e-17 1.5231813533600504e-16 0.40033233360263404 -0.9163700249746675
12647526666.666666 0.3886346394790967 -0.921391945372194 -1.6130327200042838e-17 1.525076901891898e-16 -1.6130327200042838e-17 1.525076901891898e-16 0.3886352900239614 -0.921391670978089
12648144000.0 0.37687461890405927 -0.9262642828187447 -1.417141833725443e-17 1.5267211404817526e-16 -1.417141833725443e-17 1.5267211404817526e-16 0.3768752728571081 -0.9262640167407368
12648761333.333334 0.3650535304141358 -0.9309865304782761 -1.221094566616797e-17 1.528113897104748e-16 -1.221094566616797e-17 1.528113897104748e-16 0.36505418766907655 -0.9309862727586667
12649378666.666666 0.353173289471914 -0.9355579231685182 -1.0249231865441121e-17 1.5292550411120183e-16 -1.0249231865441121e-17 1.5292550411120183e-16 0.35317394992192885 -0.9355576738482487
12649996000.0 0.3412358211251206 -0.9399777201513169 -8.286599691599271e-18 1.5301444832361006e-16 -8.286599691599271e-18 1.5301444832361006e-16 0.34123648466288575 -0.9399774792699662
12650613333.333334 0.3292430596942689 -0.9442452052528303 -6.32337192609021e-18 1.530782175589369e-16 -6.32337192609021e-18 1.530782175589369e-16 0.3292437262119697 -0.9442449728486041
12651230666.666666 0.31719694845970386 -0.9483596869793944 -4.359871322225164e-18 1.531168111655787e-16 -4.359871322225164e-18 1.531168111655787e-16 0.3171976178490541 -0.9483594630891229
12651848000.0 0.3050994393461295 -0.9523204986297843 -2.3964205521536828e-18 1.5313023262758264e-16 -2.3964205521536828e-18 1.5313023262758264e-16 0.30510011149838784 -0.952320283288913
12652465333.333334 0.2929524926068042 -0.9561269984030694 -4.333421539509711e-19 1.5311848956245964e-16 -4.333421539509711e-19 1.5311848956245964e-16 0.29295316741279237 -0.9561267916456561
12653082666.666666 0.28075807650591095 -0.9597785695026251 1.5290415213304866e-18 1.530815937183221e-16 1.5290415213304866e-18 1.530815937183221e-16 0.2807587538560311 -0.9597783713613329
12653700000.0 0.26851816699907693 -0.9632746202362338 3.490408362557915e-18 1.5301956097034053e-16 3.490408362557915e-18 1.5301956097034053e-16 0.26851884678333016 -0.9632744307423271
12654317333.333334 0.256234747413959 -0.9666145841117377 5.450436551276884e-18 1.5293241131652773e-16 5.450436551276884e-18 1.5293241131652773e-16 0.2562354295219627 -0.9666144032950778
12654934666.666666 0.24390980812826907 -0.9697979199290102 7.408804614479627e-18 1.5282016887284542e-16 7.408804614479627e-18 1.5282016887284542e-16 0.24391049244927446 -0.9697977478180471
12655552000.0 0.23154534624747447 -0.972824111867577 9.365191477295938e-18 1.5268286186763438e-16 9.365191477295938e-18 1.5268286186763438e-16 0.23154603267038548 -0.9728239484893495
12656169333.333334 0.21914336528135947 -0.9756926695701698 1.1319276515520055e-17 1.525205226353783e-16 1.1319276515520055e-17 1.525205226353783e-16 0.2191440536947499 -0.9756925149502975
12656786666.666666 0.20670587481904815 -0.978403128222256 1.3270739608121098e-17 1.52333187609788e-16 1.3270739608121098e-17 1.52333187609788e-16 0.20670656511118038 -0.9784029823849382
12657404000.0 0.19423489020359688 -0.9809550486273066 1.5219261189650435e-17 1.521208973162178e-16 1.5219261189650435e-17 1.521208973162178e-16 0.1942355822624397 -0.9809549115953166
12658021333.333334 0.18173243220532093 -0.9833480172779835 1.7164522302459267e-17 1.5188369636341657e-16 1.7164522302459267e-17 1.5188369636341657e-16 0.18173312591856813 -0.9833478890726668
12658638666.666666 0.16920052669463398 -0.9855816464230965 1.9106204648874276e-17 1.5162163343460822e-16 1.9106204648874276e-17 1.5162163343460822e-16 0.16920122194972181 -0.9855815270643647
12659256000.0 0.15664120431322 -0.98765557413053 2.1043990643243905e-17 1.5133476127790067e-16 2.1043990643243905e-17 1.5133476127790067e-16 0.156641900997346 -0.9876554636368601
12659873333.333334 0.1440565001454968 -0.9895694643458002 2.297756346377044e-17 1.5102313669604603e-16 2.297756346377044e-17 1.5102313669604603e-16 0.14405719814563805 -0.9895693627342312
12660490666.666666 0.1314484533887999 -0.9913230069465231 2.4906607104273537e-17 1.5068682053552537e-16 2.4906607104273537e-17 1.5068682053552537e-16 0.1314491525917312 -0.9913229142326528
12661108000.0 0.11881910702261851 -0.9929159177927155 2.6830806425799692e-17 1.5032587767497423e-16 2.6830806425799692e-17 1.5032587767497423e-16 0.11881980731493089 -0.9929158339906997
12661725333.333334 0.10617050747800585 -0.9943479387727752 2.874984720799199e-17 1.4994037701296286e-16 2.874984720799199e-17 1.4994037701296286e-16 0.10617120874612475 -0.9943478638953223
12662342666.666666 0.09350470430558541 -0.995618837845352 3.0663416200374625e-17 1.4953039145510693e-16 3.0663416200374625e-17 1.4953039145510693e-16 0.09350540643578938 -0.9956187719037248
12662960000.0 0.080823749843672 -0.9967284090769221 3.257120117340693e-17 1.4909599790053434e-16 3.257120117340693e-17 1.4909599790053434e-16 0.08082445272211095 -0.9967283520809344
12663577333.333334 0.06812969888565905 -0.9976764726751619 3.447289096940068e-17 1.4863727722769062e-16 3.447289096940068e-17 1.4863727722769062e-16 0.0681304023983728 -0.9976764246331772
12664194666.666666 0.05542460834706466 -0.998462875018085 3.636817555315677e-17 1.4815431427951461e-16 3.636817555315677e-17 1.4815431427951461e-16 0.05542531238000125 -0.9984628359370132
12664812000.0 0.04271053693223322 -0.9990874886789265 3.8256746062474314e-17 1.4764719784795326e-16 3.8256746062474314e-17 1.4764719784795326e-16 0.042711241371267666 -0.9990874585642284
12665429333.333334 0.029989544800691333 -0.999550212446805 4.0138294858455214e-17 1.4711602065782954e-16 4.0138294858455214e-17 1.4711602065782954e-16 0.02999024953164384 -0.9995501913024845
12666046666.666666 0.01726369323355086 -0.999850971343101 4.201251557545435e-17 1.4656087935010665e-16 4.201251557545435e-17 1.4656087935010665e-16 0.01726439814220556 -0.9998509591717113
12666664000.0 0.004535044299106332 -0.9999897166336313 4.387910317106034e-17 1.4598187446444506e-16 4.387910317106034e-17 1.4598187446444506e-16 0.004535749271229647 -0.9999897134362693
12667281333.333334 -0.008194339480843664 -0.9999664258365265 4.5737753975497636e-17 1.4537911042122273e-16 4.5737753975497636e-17 1.4537911042122273e-16 -0.008193634559484454 -0.9999664316128364
12667898666.666666 -0.02092239546554376 -0.999781102725885 4.758816574111675e-17 1.447526955028279e-16 4.758816574111675e-17 1.447526955028279e-16 -0.02092169070916203 -0.9997811174740571
12668516000.0 -0.033647061229564394 -0.9994337773311539 4.943003769142363e-17 1.4410274183438613e-16 4.943003769142363e-17 1.4410274183438613e-16 -0.03364635675233561 -0.9994338010479225
12669133333.333334 -0.04636627489648094 -0.9989245059322687 5.1263070569858014e-17 1.4342936536386467e-16 5.1263070569858014e-17 1.4342936536386467e-16 -0.04636557081252431 -0.9989245386129186
12669750666.666666 -0.059077975473544125 -0.9982533710505324 5.3086966688458204e-17 1.4273268584150235e-16 5.3086966688458204e-17 1.4273268584150235e-16 -0.059077271896903906 -0.9982534126888938
12670368000.0 -0.07178010318541084 -0.9974204814352348 5.49014299760529e-17 1.420128267986904e-16 5.49014299760529e-17 1.420128267986904e-16 -0.07177940023003807 -0.9974205320236895
