! Parameters = {f0=12700.012000; bw=77.238000; Q=6100.000000; N=10; m_0_1=1.338834; m_1_1=1.317762; m_1_2=1.173646; m_2_2=1.317113; m_2_3=0.810609; m_2_8=0.004005; m_2_9=0.040709; m_3_3=1.315176; m_3_4=0.699138; m_3_7=0.004605; m_3_8=-0.092483; m_3_9=0.004005; m_4_4=1.312251; m_4_5=0.535473; m_4_6=0.008122; m_4_7=-0.113032; m_4_8=0.004605; m_5_5=1.312633; m_5_6=0.942828; m_5_7=0.008122; m_6_6=1.312632; m_6_7=0.535815; m_7_7=1.312265; m_7_8=0.699256; m_8_8=1.315174; m_8_9=0.810922; m_9_9=1.317108; m_9_10=1.174724; m_10_10=1.317752; m_10_11=1.339629}
!
! Created with skrf (http://scikit-rf.org).
# Hz S RI R 50.0 
!freq ReS11 ImS11 ReS21 ImS21 ReS12 ImS12 ReS22 ImS22
12607400000.0 -0.9997650372085868 -0.02167649360749588 1.4606176000505922e-16 -3.9847392164687724e-17 1.4606176000505922e-16 -3.9847392164687724e-17 -0.999765021921092 -0.02167719868715716
12608017333.333334 -0.9999584100320769 -0.009120208655821216 1.4551766425869639e-16 -4.1683169984549854e-17 1.4551766425869639e-16 -4.1683169984549854e-17 -0.9999584036001576 -0.009120913837338493
12608634666.666666 -0.9999940917293807 0.003437514528798585 1.4495050885349448e-16 -4.3511562611255635e-17 1.4495050885349448e-16 -4.3511562611255635e-17 -0.9999940941531852 0.003436809356635307
12609252000.0 -0.9998720766736849 0.015994695622491468 1.4436039351302963e-16 -4.533228055600578e-17 1.4436039351302963e-16 -4.533228055600578e-17 -0.9998720879519651 0.01599399057087986
12609869333.333334 -0.9995923841065882 0.028549354386930972 1.4374742159294938e-16 -4.714503567044587e-17 1.4374742159294938e-16 -4.714503567044587e-17 -0.9995924042366978 0.02854864956703879
12610486666.666666 -0.9991550581350715 0.04109951098133106 1.4311170006302112e-16 -4.894954119223393e-17 1.4311170006302112e-16 -4.894954119223393e-17 -0.9991550871129702 0.04109880650427866
12611104000.0 -0.998560167724529 0.053643186275287476 1.4245333948860575e-16 -5.0745511790367187e-17 1.4245333948860575e-16 -5.0745511790367187e-17 -0.9985602055447801 0.05364248225213021
12611721333.333334 -0.9978078066879121 0.0661784021600865 1.4177245401159368e-16 -5.25326636101817e-17 1.4177245401159368e-16 -5.25326636101817e-17 -0.9978078533436875 0.06617769870179739
12612338666.666666 -0.9968980936709246 0.07870318186121654 1.4106916133073698e-16 -5.4310714318211976e-17 1.4106916133073698e-16 -5.4310714318211976e-17 -0.9968981491540023 0.07870247907866863
12612956000.0 -0.9958311721332973 0.09121555025010022 1.403435826814477e-16 -5.607938314670827e-17 1.403435826814477e-16 -5.607938314670827e-17 -0.9958312364340631 0.09121484825404903
12613573333.333334 -0.9946072103262029 0.10371353415505719 1.3959584281503823e-16 -5.783839093789511e-17 1.3959584281503823e-16 -5.783839093789511e-17 -0.9946072834336556 0.1037128330561236
12614190666.666666 -0.9932264012656886 0.11619516267303624 1.3882606997739504e-16 -5.958746018798714e-17 1.3882606997739504e-16 -5.958746018798714e-17 -0.9932264831674374 0.11619446258168868
12614808000.0 -0.9916889627022509 0.12865846748013818 1.380343958870972e-16 -6.132631509093055e-17 1.380343958870972e-16 -6.132631509093055e-17 -0.9916890533845207 0.12865776850667549
12615425333.333334 -0.9899951370864968 0.1411014831420728 1.3722095571302235e-16 -6.305468158177719e-17 1.3722095571302235e-16 -6.305468158177719e-17 -0.989995236534128 0.14110078539660662
12616042666.666666 -0.9881451915309086 0.15352224742410328 1.3638588805135947e-16 -6.477228737988179e-17 1.3638588805135947e-16 -6.477228737988179e-17 -0.9881452997273625 0.15352155101654097
12616660000.0 -0.9861394177677223 0.16591880160048625 1.3552933490213818e-16 -6.647886203167148e-17 1.3552933490213818e-16 -6.647886203167148e-17 -0.9861395346950809 0.16591810664051335
12617277333.333334 -0.9839781321029101 0.17828919076341398 1.3465144164516137e-16 -6.817413695323862e-17 1.3465144164516137e-16 -6.817413695323862e-17 -0.9839782577418806 0.17828849736047706
12617894666.666666 -0.9816616753663497 0.19063146413101906 1.3375235701549026e-16 -6.985784547244887e-17 1.3375235701549026e-16 -6.985784547244887e-17 -0.9816618096962687 0.19063077239430856
12618512000.0 -0.9791904128579669 0.20294367535562352 1.3283223307827836e-16 -7.152972287097155e-17 1.3283223307827836e-16 -7.152972287097155e-17 -0.9791905558568015 0.20294298539405642
12619129333.333334 -0.9765647342902721 0.21522388282989116 1.3189122520324504e-16 -7.318950642566959e-17 1.3189122520324504e-16 -7.318950642566959e-17 -0.9765648859346243 0.2152231947520937
12619746666.666666 -0.9737850537267999 0.2274701499935729 1.3092949203847097e-16 -7.483693544995753e-17 1.3092949203847097e-16 -7.483693544995753e-17 -0.9737852139919114 0.22746946390786382
12620364000.0 -0.9708518095168006 0.2396805456388957 1.2994719548378326e-16 -7.647175133462044e-17 1.2994719548378326e-16 -7.647175133462044e-17 -0.9708519783765563 0.23967986165326907
12620981333.333334 -0.9677654642262343 0.25185314421461225 1.2894450066360588e-16 -7.809369758833941e-17 1.2894450066360588e-16 -7.809369758833941e-17 -0.9677656416531663 0.2518524624367204
12621598666.666666 -0.9645265045646928 0.26398602613020883 1.2792157589929017e-16 -7.970251987788354e-17 1.2792157589929017e-16 -7.970251987788354e-17 -0.9645266905299853 0.2639853466673455
12622216000.0 -0.9611354413087166 0.27607727805834453 1.2687859268094086e-16 -8.12979660679487e-17 1.2687859268094086e-16 -8.12979660679487e-17 -0.9611356357822078 0.2760766010174272
12622833333.333334 -0.9575928092212078 0.2881249932366861 1.258157256387866e-16 -8.287978626056357e-17 1.258157256387866e-16 -8.287978626056357e-17 -0.9575930121714008 0.288124318724241
12623450666.666666 -0.953899166967175 0.30012727176838494 1.247331525140208e-16 -8.444773283418895e-17 1.247331525140208e-16 -8.444773283418895e-17 -0.9538993783612375 0.3001265998905287
12624068000.0 -0.9500550970255474 0.3120822209219577 1.23631054129158e-16 -8.600156048242889e-17 1.23631054129158e-16 -8.600156048242889e-17 -0.950055316829319 0.3120815517843811
12624685333.333334 -0.9460612055972969 0.3239879554298179 1.2250961435792993e-16 -8.754102625232903e-17 1.2250961435792993e-16 -8.754102625232903e-17 -0.9460614337752937 0.323987289137769
12625302666.666666 -0.9419181225100202 0.3358425977850389 1.21369020094711e-16 -8.906588958227712e-17 1.21369020094711e-16 -8.906588958227712e-17 -0.9419183590254422 0.3358419344433071
12625920000.0 -0.9376265011183458 0.3476442785382406 1.2020946122342237e-16 -9.05759123395755e-17 1.2020946122342237e-16 -9.05759123395755e-17 -0.937626745933082 0.3476436182511399
12626537333.333334 -0.9331870182011588 0.35939113659164457 1.1903113058603614e-16 -9.207085885752109e-17 1.1903113058603614e-16 -9.207085885752109e-17 -0.9331872712757936 0.3593904794629972
12627154666.666666 -0.928600373854771 0.3710813194928898 1.1783422395059945e-16 -9.355049597210483e-17 1.1783422395059945e-16 -9.355049597210483e-17 -0.9286006351485889 0.3710806656260094
12627772000.0 -0.9238672913823813 0.38271298372747387 1.1661893997871814e-16 -9.501459305840343e-17 1.1661893997871814e-16 -9.501459305840343e-17 -0.9238675608533758 0.38271233322514986
12628389333.333334 -0.9189885171803138 0.39428429500873347 1.1538548019278243e-16 -9.646292206631092e-17 1.1538548019278243e-16 -9.646292206631092e-17 -0.9189887947851916 0.39428364797321414
12629006666.666666 -0.9139648206199823 0.40579342856789397 1.1413404894250563e-16 -9.789525755614273e-17 1.1413404894250563e-16 -9.789525755614273e-17 -0.9139651063141753 0.4057927851008728
12629624000.0 -0.9087969939268153 0.4172385694412591 1.1286485337125337e-16 -9.931137673353259e-17 1.1286485337125337e-16 -9.931137673353259e-17 -0.9087972876644798 0.41723792964385453
12630241333.333334 -0.9034858520551747 0.4286179127567333 1.1157810338175692e-16 -1.0071105948410817e-16 1.1157810338175692e-16 -1.0071105948410817e-16 -0.9034861537892057 0.4286172767294767
12630858666.666666 -0.8980322325599956 0.4399296640181422 1.1027401160155018e-16 -1.0209408840755036e-16 1.1027401160155018e-16 -1.0209408840755036e-16 -0.8980325422420301 0.43992903186095966
12631476000.0 -0.892436995464427 0.4511720393887808 1.0895279334783122e-16 -1.0346024885137776e-16 1.0895279334783122e-16 -1.0346024885137776e-16 -0.8924373130448556 0.45117141120097964
12632093333.333334 -0.8867010231245345 0.4623432659720572 1.0761466659205086e-16 -1.0480932894412042e-16 1.0761466659205086e-16 -1.0480932894412042e-16 -0.8867013485525063 0.4623426418523084
12632710666.666666 -0.8808252200900093 0.47344158209138243 1.0625985192400484e-16 -1.0614111962813091e-16 1.0625985192400484e-16 -1.0614111962813091e-16 -0.8808255533134404 0.47344096213770565
12633328000.0 -0.8748105129613841 0.48446523756823145 1.0488857251553159e-16 -1.0745541469191905e-16 1.0488857251553159e-16 -1.0745541469191905e-16 -0.8748108539269673 0.48446462187798045
12633945333.333334 -0.8686578502441523 0.49541249399769144 1.035010540838358e-16 -1.0875201080199484e-16 1.035010540838358e-16 -1.0875201080199484e-16 -0.8686581988973631 0.4954118826675373
12634562666.666666 -0.8623682021990515 0.5062816250228522 1.0209752485442653e-16 -1.1003070753423399e-16 1.0209752485442653e-16 -1.1003070753423399e-16 -0.8623685584841608 0.5062810181487702
12635180000.0 -0.8559425606890916 0.5170709166070031 1.006782155236065e-16 -1.112913074048246e-16 1.006782155236065e-16 -1.112913074048246e-16 -0.85594292454917 0.5170703142842549
12635797333.333334 -0.8493819390231016 0.5277786673039758 9.924335922066784e-17 -1.1253361590064927e-16 9.924335922066784e-17 -1.1253361590064927e-16 -0.8493823104000333 0.5277780696270981
12636414666.666666 -0.8426873717960602 0.5384031885262703 9.779319146965244e-17 -1.1375744150924052e-16 9.779319146965244e-17 -1.1375744150924052e-16 -0.8426877506305478 0.5384025955890562
12637032000.0 -0.8358599147257565 0.5489428048116267 9.632795015074209e-17 -1.149625957482412e-16 9.632795015074209e-17 -1.149625957482412e-16 -0.8358603009573337 0.5489422167071142
12637649333.333334 -0.8289006444864319 0.5593958540870522 9.484787546134637e-17 -1.1614889319432138e-16 9.484787546134637e-17 -1.1614889319432138e-16 -0.8289010380534709 0.5593952709075068
12638266666.666666 -0.8218106585389553 0.5697606879309715 9.335320987677715e-17 -1.1731615151164434e-16 9.335320987677715e-17 -1.1731615151164434e-16 -0.8218110593786778 0.5697601097678737
12638884000.0 -0.8145910749577587 0.5800356718331797 9.184419811057299e-17 -1.1846419147982614e-16 9.184419811057299e-17 -1.1846419147982614e-16 -0.8145914830062465 0.5800350987772107
12639501333.333334 -0.8072430322544862 0.5902191854526482 9.03210870745419e-17 -1.1959283702133988e-16 9.03210870745419e-17 -1.1959283702133988e-16 -0.8072434474466901 0.590218617593674
12640118666.666666 -0.799767689198654 0.6003096228727721 8.878412583841547e-17 -1.2070191522844945e-16 8.878412583841547e-17 -1.2070191522844945e-16 -0.7997681114684047 0.6003090602998309
12640736000.0 -0.792166224634376 0.6103053928553515 8.72335655891303e-17 -1.2179125638965352e-16 8.72335655891303e-17 -1.2179125638965352e-16 -0.7921666539143941 0.6103048356566391
12641353333.333334 -0.7844398372952747 0.6202049190904309 8.566965958996116e-17 -1.228606940154856e-16 8.566965958996116e-17 -1.228606940154856e-16 -0.7844402735171833 0.6202043673532875
12641970666.666666 -0.7765897456147326 0.6300066404458379 8.409266313909517e-17 -1.239100648639618e-16 8.409266313909517e-17 -1.239100648639618e-16 -0.7765901887090648 0.6300060942567328
12642588000.0 -0.7686171875340835 0.6397090112129109 8.250283352811206e-17 -1.2493920896534656e-16 8.250283352811206e-17 -1.2493920896534656e-16 -0.7686176374302984 0.6397084706574322
12643205333.333334 -0.760523420307368 0.6493105013503073 8.090043000001601e-17 -1.2594796964648873e-16 8.090043000001601e-17 -1.2594796964648873e-16 -0.7605238769338564 0.6493099665131445
12643822666.666666 -0.7523097203029137 0.6588095967254559 7.928571370704812e-17 -1.2693619355456675e-16 7.928571370704812e-17 -1.2693619355456675e-16 -0.7523101835870126 0.6588090676903887
12644440000.0 -0.743977382802239 0.6682047993531149 7.765894766820447e-17 -1.279037306803009e-16 7.765894766820447e-17 -1.279037306803009e-16 -0.7439778526702442 0.6682042762030013
12645057333.333334 -0.7355277217957588 0.6774946276316488 7.602039672643608e-17 -1.2885043438064382e-16 7.602039672643608e-17 -1.2885043438064382e-16 -0.7355281981729339 0.6774941104484095
12645674666.666666 -0.7269620697755713 0.6866776165766739 7.437032750561005e-17 -1.297761614009016e-16 7.437032750561005e-17 -1.297761614009016e-16 -0.7269625525861614 0.6866771054412814
12646292000.0 -0.7182817775250555 0.6957523180523735 7.270900836715838e-17 -1.3068077189633018e-16 7.270900836715838e-17 -1.3068077189633018e-16 -0.7182822666922977 0.6957518130448379
12646909333.333334 -0.7094882139063577 0.7047173009993236 7.103670936654041e-17 -1.315641294531362e-16 7.103670936654041e-17 -1.315641294531362e-16 -0.7094887093524946 0.7047168021986815
12647526666.666666 -0.7005827656441393 0.7135711516605849 6.935370220939235e-17 -1.324261011089558e-16 6.935370220939235e-17 -1.324261011089558e-16 -0.7005832672904317 0.7135706591448868
12648144000.0 -0.691566837106928 0.7223124738046033 6.766026020739185e-17 -1.3326655737279137e-16 6.766026020739185e-17 -1.3326655737279137e-16 -0.6915673448736654 0.7223119876508997
12648761333.333334 -0.6824418500858102 0.7309398889452281 6.595665823402601e-17 -1.3408537224431134e-16 6.595665823402601e-17 -1.3408537224431134e-16 -0.6824423638923262 0.7309394092295604
12649378666.666666 -0.673209243570226 0.7394520365591063 6.4243172679977e-17 -1.348824232326637e-16 6.4243172679977e-17 -1.348824232326637e-16 -0.6732097633349088 0.7394515633564922
12649996000.0 -0.6638704735208342 0.7478475743004236 6.25200814083649e-17 -1.3565759137467738e-16 6.25200814083649e-17 -1.3565759137467738e-16 -0.6638709991611417 0.7478471076848481
12650613333.333334 -0.6544270126400342 0.7561251782124735 6.078766370971943e-17 -1.3641076125251858e-16 6.078766370971943e-17 -1.3641076125251858e-16 -0.654427544072504 0.7561247182568733
12651230666.666666 -0.644880350139896 0.7642835429362915 5.90462002568259e-17 -1.371418210107351e-16 5.90462002568259e-17 -1.371418210107351e-16 -0.644880887280161 0.7642830897125474
12651848000.0 -0.635231991506885 0.7723213819168818 5.729597305925161e-17 -1.3785066237277603e-16 5.729597305925161e-17 -1.3785066237277603e-16 -0.6352325342696872 0.7723209354958056
12652465333.333334 -0.6254834582648383 0.7802374276057664 5.553726541779286e-17 -1.3853718065688186e-16 5.553726541779286e-17 -1.3853718065688186e-16 -0.6254840065640405 0.7802369880570906
12653082666.666666 -0.6156362877350278 0.7880304316608835 5.377036187865596e-17 -1.3920127479142867e-16 5.377036187865596e-17 -1.3920127479142867e-16 -0.6156368414836292 0.7880299990532508
12653700000.0 -0.6056920327932852 0.7956991651438017 5.1995548187455616e-17 -1.398428473296859e-16 5.1995548187455616e-17 -1.398428473296859e-16 -0.605692591903433 0.7956987395447518
12654317333.333334 -0.5956522616257379 0.8032424187130233 5.021311124311974e-17 -1.4046180446396077e-16 5.021311124311974e-17 -1.4046180446396077e-16 -0.5956528260087434 0.803242000188986
12654934666.666666 -0.5855185574810675 0.8106590028150527 4.842333905151633e-17 -1.4105805603919664e-16 4.842333905151633e-17 -1.4105805603919664e-16 -0.5855191270474183 0.8106585914313341
12655552000.0 -0.5752925184208245 0.8179477478719717 4.662652067900075e-17 -1.4163151556595131e-16 4.662652067900075e-17 -1.4163151556595131e-16 -0.5752930930802006 0.8179473436927471
12656169333.333334 -0.5649757570678381 0.825107504465587 4.4822946205804524e-17 -1.421821002327904e-16 4.4822946205804524e-17 -1.421821002327904e-16 -0.5649763367291245 0.8251071075538888
12656786666.666666 -0.5545699003514449 0.8321371435190197 4.3012906679247533e-17 -1.4270973091809674e-16 4.3012906679247533e-17 -1.4270973091809674e-16 -0.5545704849227471 0.8321367539367278
12657404000.0 -0.5440765892511592 0.8390355564745939 4.1196694066805905e-17 -1.4321433220128805e-16 4.1196694066805905e-17 -1.4321433220128805e-16 -0.5440771786398171 0.8390351742824269
12658021333.333334 -0.5334974785377968 0.8458016554687147 3.937460120912368e-17 -1.4369583237341574e-16 3.937460120912368e-17 -1.4369583237341574e-16 -0.5334980726504002 0.8458012807262197
12658638666.666666 -0.5228342365127657 0.8524343735032738 3.7546921772830976e-17 -1.4415416344719017e-16 3.7546921772830976e-17 -1.4415416344719017e-16 -0.5228348352551682 0.8524340062688175
12659256000.0 -0.5120885447444951 0.8589326646142122 3.571395020324742e-17 -1.4458926116640346e-16 3.571395020324742e-17 -1.4458926116640346e-16 -0.5120891480218296 0.8589323049449716
12659873333.333334 -0.5012620978036889 0.8652955040361938 3.3875981677053756e-17 -1.450010650147347e-16 3.3875981677053756e-17 -1.450010650147347e-16 -0.5012627055203824 0.8652951519881477
12660490666.666666 -0.49035660299610084 0.8715218883642163 3.203331205479151e-17 -1.4538951822397403e-16 3.203331205479151e-17 -1.4538951822397403e-16 -0.4903572150558898 0.8715215439921362
12661108000.0 -0.4793737800928031 0.8776108357121295 3.0186237833270865e-17 -1.4575456778164022e-16 3.0186237833270865e-17 -1.4575456778164022e-16 -0.47937439639874835 0.877610499069571
12661725333.333334 -0.468315361059673 0.8835613858670797 2.8335056097978866e-17 -1.4609616443798043e-16 2.8335056097978866e-17 -1.4609616443798043e-16 -0.46831598151417503 0.883561057006374
12662342666.666666 -0.4571830897837213 0.8893726004412407 2.6480064475287386e-17 -1.4641426271238933e-16 2.6480064475287386e-17 -1.4641426271238933e-16 -0.45718371428853666 0.8893722794134881
12662960000.0 -0.44597872179833525 0.8950435630196605 2.4621561084726195e-17 -1.4670882089919818e-16 2.4621561084726195e-17 -1.4670882089919818e-16 -0.44597935025459046 0.895043249874719
12663577333.333334 -0.43470402400638203 0.9005733793047982 2.2759844491062855e-17 -1.469798010728829e-16 2.2759844491062855e-17 -1.469798010728829e-16 -0.43470465631459104 0.9005730740912803
12664194666.666666 -0.4233607744015752 0.9059611772575596 2.089521365646319e-17 -1.4722716909264173e-16 2.089521365646319e-17 -1.4722716909264173e-16 -0.42336141046165393 0.9059608800228213
12664812000.0 -0.41195076178808804 0.9112061072348123 1.9027967892473594e-17 -1.4745089460638905e-16 1.9027967892473594e-17 -1.4745089460638905e-16 -0.41195140149936976 0.9112058180249456
12665429333.333334 -0.4004757854984099 0.9163073421233929 1.7158406812091318e-17 -1.4765095105412144e-16 1.7158406812091318e-17 -1.4765095105412144e-16 -0.40047642875966366 0.916307060983223
12666046666.666666 -0.388937655109859 0.9212640774704337 1.5286830281721943e-17 -1.4782731567069072e-16 1.5286830281721943e-17 -1.4782731567069072e-16 -0.3889383018193025 0.9212638044435061
12666664000.0 -0.37733819015864045 0.926075531610466 1.3413538373114607e-17 -1.4797996948796542e-16 1.3413538373114607e-17 -1.4797996948796542e-16 -0.3773388402139579 0.9260752667390435
12667281333.333334 -0.36567921985364127 0.9307409457883749 1.1538831315359013e-17 -1.4810889733637916e-16 1.1538831315359013e-17 -1.4810889733637916e-16 -0.36567987315199946 0.9307406891134302
12667898666.666666 -0.35396258278744624 0.9352595842792772 9.663009446808618e-18 -1.4821408784587646e-16 9.663009446808618e-18 -1.4821408784587646e-16 -0.35396323922551076 0.9352593358404874
12668516000.0 -0.34219012664639226 0.9396307345045346 7.786373166954671e-18 -1.4829553344625463e-16 7.786373166954671e-18 -1.4829553344625463e-16 -0.3421907861203435 0.9396304943402736
12669133333.333334 -0.33036370791967223 0.943853707143947 5.909222888519706e-18 -1.4835323036688436e-16 5.909222888519706e-18 -1.4835323036688436e-16 -0.33036437032522153 0.943853475291279
12669750666.666666 -0.3184851916060376 0.9479278362446546 4.031858989272713e-18 -1.4838717863583972e-16 4.031858989272713e-18 -1.4838717863583972e-16 -0.3184858568384448 0.9479276127393309
