! Parameters = {f0=12700.012000; bw=77.238000; Q=6100.000000; N=10; m_0_1=1.211306; m_1_1=-0.595151; m_1_2=1.046118; m_2_2=-0.595800; m_2_3=0.683081; m_2_8=-0.002371; m_2_9=0.034333; m_3_3=-0.597737; m_3_4=0.571610; m_3_7=-0.001771; m_3_8=-0.098859; m_3_9=-0.002371; m_4_4=-0.600662; m_4_5=0.407945; m_4_6=0.001746; m_4_7=-0.119408; m_4_8=-0.001771; m_5_5=-0.600280; m_5_6=0.815300; m_5_7=0.001746; m_6_6=-0.600281; m_6_7=0.408287; m_7_7=-0.600648; m_7_8=0.571728; m_8_8=-0.597739; m_8_9=0.683394; m_9_9=-0.595805; m_9_10=1.047196; m_10_10=-0.595161; m_10_11=1.212101}
!
! Created with skrf (http://scikit-rf.org).
# Hz S RI R 50.0 
!freq ReS11 ImS11 ReS21 ImS21 ReS12 ImS12 ReS22 ImS22
12607400000.0 0.09658577263916747 -0.9953246648825368 1.5809924525059303e-17 8.164607926812989e-17 1.5809924525059303e-17 8.164607926812989e-17 0.0965864079458299 -0.995324603232514
12608017333.333334 0.08783543464920843 -0.99613499909391 1.6530784814966146e-17 8.148656480475966e-17 1.6530784814966146e-17 8.148656480475966e-17 0.08783607044196629 -0.9961349430318935
12608634666.666666 0.07907831356517216 -0.9968684067235393 1.7250060055784334e-17 8.132069127148555e-17 1.7250060055784334e-17 8.132069127148555e-17 0.07907894979488109 -0.9968683562533109
12609252000.0 0.07031508565623334 -0.9975248311340406 1.796769419968939e-17 8.11484742276294e-17 1.796769419968939e-17 8.11484742276294e-17 0.07031572227372011 -0.9975247862589501
12609869333.333334 0.0615464276631373 -0.9981042216330647 1.8683631350076788e-17 8.096992972607458e-17 1.8683631350076788e-17 8.096992972607458e-17 0.06154706461920354 -0.9981041823560299
12610486666.666666 0.05277301674608047 -0.9986065334772039 1.9397815765895362e-17 8.078507431181138e-17 1.9397815765895362e-17 8.078507431181138e-17 0.052773653991506436 -0.9986064998007093
12611104000.0 0.04399553043210461 -0.9990317278754653 2.011019186599178e-17 8.059392502043678e-17 2.011019186599178e-17 8.059392502043678e-17 0.04399616791765308 -0.9990316998015635
12611721333.333334 0.03521464656317199 -0.9993797719922451 2.0820704233406646e-17 8.039649937662608e-17 2.0820704233406646e-17 8.039649937662608e-17 0.035215284239592005 -0.9993797495225547
12612338666.666666 0.026431043243535186 -0.999650638949877 2.1529297619687732e-17 8.019281539255749e-17 2.1529297619687732e-17 8.019281539255749e-17 0.026431681061565904 -0.9996506220855859
12612956000.0 0.017645398787370467 -0.9998443078307111 2.2235916949176918e-17 7.998289156630192e-17 2.2235916949176918e-17 7.998289156630192e-17 0.017646036697744876 -0.9998442965725722
12613573333.333334 0.008858391666622018 -0.999960763678716 2.2940507323259234e-17 7.976674688018217e-17 2.2940507323259234e-17 7.976674688018217e-17 0.008859029620070813 -0.9999607580270488
12614190666.666666 7.07004584366139e-05 -0.9999999975006424 2.3643014024639274e-17 7.954440079908171e-17 2.3643014024639274e-17 7.954440079908171e-17 7.133840569201248e-05 -0.9999999974553357
12614808000.0 -0.008716996207267997 -0.9999620062667189 2.4343382521567765e-17 7.931587326872642e-17 2.4343382521567765e-17 7.931587326872642e-17 -0.008716358315468499 -0.9999620118272275
12615425333.333334 -0.01750401970012512 -0.9998467929108824 2.50415584720654e-17 7.908118471392487e-17 2.50415584720654e-17 7.908118471392487e-17 -0.017503381913034907 -0.9998468040762276
12616042666.666666 -0.026289691441754748 -0.9996543663305519 2.573748772812786e-17 7.884035603677241e-17 2.573748772812786e-17 7.884035603677241e-17 -0.0262890538086143 -0.9996543830993228
12616660000.0 -0.035073332958166815 -0.9993847413859412 2.6431116339913862e-17 7.859340861481833e-17 2.6431116339913862e-17 7.859340861481833e-17 -0.03507269552819993 -0.999384763756295
12617277333.333334 -0.0438542659321849 -0.9990379388989133 2.7122390559918237e-17 7.834036429919541e-17 2.7122390559918237e-17 7.834036429919541e-17 -0.04385362875459483 -0.999037966868574
12617894666.666666 -0.052631812255687124 -0.9986139856513737 2.7811256847114116e-17 7.808124541271799e-17 2.7811256847114116e-17 7.808124541271799e-17 -0.05263117537965281 -0.9986140192176329
12618512000.0 -0.06140529408228557 -0.9981129143831916 2.849766187111272e-17 7.781607474793047e-17 2.849766187111272e-17 7.781607474793047e-17 -0.06140465755695791 -0.9981129535429103
12619129333.333334 -0.07017403387927548 -0.9975347637896889 2.918155251624953e-17 7.754487556514007e-17 2.918155251624953e-17 7.754487556514007e-17 -0.07017339775377347 -0.9975348085392958
12619746666.666666 -0.07893735448027007 -0.9968795785186372 2.986287588570729e-17 7.72676715903929e-17 2.986287588570729e-17 7.72676715903929e-17 -0.07893671880367704 -0.9968796288541301
12620364000.0 -0.08769457913738117 -0.9961474091668152 3.054157930558702e-17 7.698448701342671e-17 3.054157930558702e-17 7.698448701342671e-17 -0.08769394395874089 -0.99614746508376
12620981333.333334 -0.09644503157339587 -0.9953383122761055 3.121761032896213e-17 7.669534648558712e-17 3.121761032896213e-17 7.669534648558712e-17 -0.09644439694170899 -0.9953383737696385
12621598666.666666 -0.10518803603417258 -0.9944523503291207 3.189091673993291e-17 7.640027511770065e-17 3.189091673993291e-17 7.640027511770065e-17 -0.10518740199839269 -0.9944524173939483
12622216000.0 -0.11392291734071258 -0.9934895917443832 3.256144655763903e-17 7.609929847792074e-17 3.256144655763903e-17 7.609929847792074e-17 -0.1139222839497423 -0.9934896643747801
12622833333.333334 -0.12264900094135685 -0.992450110871033 3.3229148040265454e-17 7.579244258953373e-17 3.3229148040265454e-17 7.579244258953373e-17 -0.12264836824404454 -0.9924501890608476
12623450666.666666 -0.13136561296376664 -0.9913339879831086 3.389396968901479e-17 7.547973392873534e-17 3.389396968901479e-17 7.547973392873534e-17 -0.13136498100890195 -0.9913340717257576
12624068000.0 -0.14007208026710302 -0.9901413092733203 3.455586025207841e-17 7.516119942236375e-17 3.455586025207841e-17 7.516119942236375e-17 -0.14007144910341388 -0.9901413985617958
12624685333.333334 -0.1487677304940394 -0.9888721668463988 3.5214768728577676e-17 7.483686644560156e-17 3.5214768728577676e-17 7.483686644560156e-17 -0.14876710017018754 -0.9888722616732619
12625302666.666666 -0.15745189212240204 -0.9875266587120136 3.5870644372460964e-17 7.450676281965504e-17 3.5870644372460964e-17 7.450676281965504e-17 -0.1574512626869799 -0.9875267590694009
12625920000.0 -0.16612389451747905 -0.9861048887771448 3.652343669643168e-17 7.417091680937324e-17 3.652343669643168e-17 7.417091680937324e-17 -0.16612326601900543 -0.9861049946567649
12626537333.333334 -0.17478306798330373 -0.9846069668381304 3.7173095475793325e-17 7.382935712086328e-17 3.7173095475793325e-17 7.382935712086328e-17 -0.17478244047022046 -0.9846070782312675
12627154666.666666 -0.18342874381470978 -0.9830330085721422 3.781957075231456e-17 7.348211289905108e-17 3.781957075231456e-17 7.348211289905108e-17 -0.18342811733537795 -0.9830331254696553
12627772000.0 -0.19206025434902704 -0.9813831355282335 3.8462812838071394e-17 7.312921372520779e-17 3.8462812838071394e-17 7.312921372520779e-17 -0.1920596289517229 -0.9813832579205568
12628389333.333334 -0.20067693301727835 -0.9796574751180224 3.910277231922534e-17 7.277068961446534e-17 3.910277231922534e-17 7.277068961446534e-17 -0.20067630875019032 -0.9796576029951679
12629006666.666666 -0.20927811439607472 -0.9778561606057727 3.9739400059840434e-17 7.24065710132651e-17 3.9739400059840434e-17 7.24065710132651e-17 -0.2092774913072989 -0.9778562939573295
12629624000.0 -0.21786313425869527 -0.9759793310981624 4.037264720561299e-17 7.20368887968086e-17 4.037264720561299e-17 7.20368887968086e-17 -0.21786251239623228 -0.9759794699132975
12630241333.333334 -0.2264313296265499 -0.9740271315335072 4.100246518763323e-17 7.166167426644474e-17 4.100246518763323e-17 7.166167426644474e-17 -0.22643070903830073 -0.9740272758009668
12630858666.666666 -0.23498203882021074 -0.971999712670604 4.162880572607815e-17 7.128095914705024e-17 4.162880572607815e-17 7.128095914705024e-17 -0.23498141955397334 -0.9719998623787143
12631476000.0 -0.24351460151081522 -0.9698972310770186 4.2251620833924394e-17 7.089477558435099e-17 4.2251620833924394e-17 7.089477558435099e-17 -0.2435139836142812 -0.9698973862136879
12632093333.333334 -0.2520283587707009 -0.9677198491170812 4.287086282058663e-17 7.050315614224197e-17 4.287086282058663e-17 7.050315614224197e-17 -0.25202774229145086 -0.9677200096697982
12632710666.666666 -0.2605226531244841 -0.9654677349392988 4.3486484295569334e-17 7.010613380005245e-17 4.3486484295569334e-17 7.010613380005245e-17 -0.26052203810998475 -0.9654679008951358
12633328000.0 -0.26899682859986074 -0.9631410624633636 4.409843817209095e-17 6.970374194977978e-17 4.409843817209095e-17 6.970374194977978e-17 -0.2689962150974614 -0.963141233808978
12633945333.333334 -0.27745023077818226 -0.960740011366745 4.470667767065551e-17 6.929601439331002e-17 4.470667767065551e-17 6.929601439331002e-17 -0.2774496188351104 -0.9607401880883778
12634562666.666666 -0.28588220684501947 -0.9582647670708038 4.531115632262611e-17 6.88829853395896e-17 4.531115632262611e-17 6.88829853395896e-17 -0.2858815965083778 -0.9582649491542833
12635180000.0 -0.29429210564057684 -0.9557155207264748 4.591182797376078e-17 6.846468940177369e-17 4.591182797376078e-17 6.846468940177369e-17 -0.2942914969573392 -0.9557157081572158
12635797333.333334 -0.3026792777100048 -0.953092469199495 4.650864678772581e-17 6.804116159434076e-17 4.650864678772581e-17 6.804116159434076e-17 -0.30267867072701315 -0.9530926619625021
12636414666.666666 -0.3110430753534469 -0.9503958150552384 4.710156724957364e-17 6.761243733018428e-17 4.710156724957364e-17 6.761243733018428e-17 -0.3110424701174068 -0.9503960131351045
12637032000.0 -0.3193828526762192 -0.947625766543017 4.769054416921273e-17 6.717855241765996e-17 4.769054416921273e-17 6.717855241765996e-17 -0.3193822492336975 -0.9476259699239276
12637649333.333334 -0.327697965638583 -0.9447825375800373 4.827553268483157e-17 6.673954305761674e-17 4.827553268483157e-17 6.673954305761674e-17 -0.3276973640360027 -0.944782746245768
12638266666.666666 -0.33598777210553304 -0.941866347734858 4.8856488266305083e-17 6.629544584039144e-17 4.8856488266305083e-17 6.629544584039144e-17 -0.33598717238917114 -0.9418665616687797
12638884000.0 -0.34425163189628055 -0.9388774222104757 4.943336671857351e-17 6.584629774277362e-17 4.943336671857351e-17 6.584629774277362e-17 -0.3442510341122635 -0.9388776413955532
12639501333.333334 -0.35248890683387757 -0.935815991826864 5.0006124184986075e-17 6.539213612494702e-17 5.0006124184986075e-17 6.539213612494702e-17 -0.3524883110281785 -0.9358162162456592
12640118666.666666 -0.3606989607942348 -0.9326822930032495 5.057471715062266e-17 6.4932998727398e-17 5.057471715062266e-17 6.4932998727398e-17 -0.3606983670126688 -0.93268252263792
12640736000.0 -0.3688811597556963 -0.9294765677396785 5.113910244560849e-17 6.446892366777699e-17 5.113910244560849e-17 6.446892366777699e-17 -0.3688805680439185 -0.9294768025719826
12641353333.333334 -0.37703487184736645 -0.9261990635985768 5.1699237248337294e-17 6.399994943778358e-17 5.1699237248337294e-17 6.399994943778358e-17 -0.3770342822508673 -0.9261993036098726
12641970666.666666 -0.38515946739846274 -0.9228500336854162 5.2255079088745275e-17 6.352611489995812e-17 5.2255079088745275e-17 6.352611489995812e-17 -0.38515887996256504 -0.9228502788566638
12642588000.0 -0.39325431898667623 -0.9194297366292683 5.280658585150026e-17 6.304745928449146e-17 5.280658585150026e-17 6.304745928449146e-17 -0.39325373375653194 -0.9194299869410324
12643205333.333334 -0.40131880148665283 -0.9159384365628273 5.3353715779181105e-17 6.256402218599027e-17 5.3353715779181105e-17 6.256402218599027e-17 -0.4013182185072384 -0.9159386919952756
12643822666.666666 -0.40935229211837143 -0.9123764031019626 5.389642747543365e-17 6.207584356021094e-17 5.389642747543365e-17 6.207584356021094e-17 -0.40935171143448573 -0.9123766636348706
12644440000.0 -0.41735417049513424 -0.9087439113249446 5.4434679908080337e-17 6.158296372077937e-17 5.4434679908080337e-17 6.158296372077937e-17 -0.4173535921513937 -0.9087441769376948
12645057333.333334 -0.4253238186713982 -0.905041241751237 5.496843241221132e-17 6.108542333587558e-17 5.496843241221132e-17 6.108542333587558e-17 -0.42532324271223493 -0.9050415124228223
12645674666.666666 -0.43326062119065273 -0.9012686803197648 5.549764469324296e-17 6.058326342489221e-17 5.549764469324296e-17 6.058326342489221e-17 -0.43326004766031045 -0.9012689560287903
12646292000.0 -0.4411639651330244 -0.8974265183667952 5.602227682995849e-17 6.00765253550564e-17 5.602227682995849e-17 6.00765253550564e-17 -0.4411633940755548 -0.8974267990914786
12646909333.333334 -0.44903324016230095 -0.8935150526035839 5.654228927748366e-17 5.956525083805695e-17 5.654228927748366e-17 5.956525083805695e-17 -0.4490326716215602 -0.893515338321757
12647526666.666666 -0.45686783857332197 -0.8895345850933404 5.705764287027254e-17 5.904948192660748e-17 5.705764287027254e-17 5.904948192660748e-17 -0.45686727259296767 -0.8895348757824524
12648144000.0 -0.4646671553388815 -0.8854854232279108 5.756829882503495e-17 5.852926101100969e-17 5.756829882503495e-17 5.852926101100969e-17 -0.4646665919623694 -0.8854857188650287
12648761333.333334 -0.47243058815635064 -0.8813678797040914 5.807421874364478e-17 5.800463081568025e-17 5.807421874364478e-17 5.800463081568025e-17 -0.4724300274269314 -0.881368180265903
12649378666.666666 -0.48015753749419093 -0.8771822724994819 5.857536461600686e-17 5.747563439566252e-17 5.857536461600686e-17 5.747563439566252e-17 -0.4801569794549064 -0.8771825779622966
12649996000.0 -0.487847406638379 -0.872928924847864 5.907169882290832e-17 5.694231513309689e-17 5.907169882290832e-17 5.694231513309689e-17 -0.4878468513320592 -0.8729292351876158
12650613333.333334 -0.49549960173841234 -0.8686081652142787 5.956318413882351e-17 5.640471673368181e-17 5.956318413882351e-17 5.640471673368181e-17 -0.4954990492076715 -0.8686084804065257
12651230666.666666 -0.5031135318530932 -0.8642203272696993 6.004978373468547e-17 5.586288322311273e-17 6.004978373468547e-17 5.586288322311273e-17 -0.5031129821403282 -0.8642206472896293
12651848000.0 -0.5106886089963172 -0.8597657498651873 6.053146118064709e-17 5.5316858943472966e-17 6.053146118064709e-17 5.5316858943472966e-17 -0.5106880621437017 -0.8597660746876156
12652465333.333334 -0.5182242481824 -0.8552447770057569 6.10081804487798e-17 5.4766688549633846e-17 6.10081804487798e-17 5.4766688549633846e-17 -0.5182237042318845 -0.8552451066051325
12653082666.666666 -0.5257198674711616 -0.8506577578238762 6.147990591575411e-17 5.421241700561635e-17 6.147990591575411e-17 5.421241700561635e-17 -0.5257193264644671 -0.8506580921742809
12653700000.0 -0.53317488801313 -0.846005046552339 6.194660236550202e-17 5.365408958091193e-17 6.194660236550202e-17 5.365408958091193e-17 -0.5331743499917465 -0.8460053856274904
12654317333.333334 -0.5405887340939063 -0.8412870024971197 6.240823499181007e-17 5.309175184682315e-17 6.240823499181007e-17 5.309175184682315e-17 -0.5405881990990885 -0.8412873462703717
12654934666.666666 -0.5479608331788626 -0.8365039900094717 6.286476940091532e-17 5.252544967273954e-17 6.286476940091532e-17 5.252544967273954e-17 -0.5479603012516291 -0.8365043384538208
12655552000.0 -0.5552906159573592 -0.8316563784577956 6.331617161405275e-17 5.1955229222409045e-17 6.331617161405275e-17 5.1955229222409045e-17 -0.5552900871384864 -0.8316567315458776
12656169333.333334 -0.5625775163864929 -0.8267445421992492 6.376240806995587e-17 5.13811369502042e-17 6.376240806995587e-17 5.13811369502042e-17 -0.5625769907165132 -0.8267448999033451
12656786666.666666 -0.5698209717350701 -0.8217688605506666 6.420344562735122e-17 5.080321959733227e-17 6.420344562735122e-17 5.080321959733227e-17 -0.5698204492542699 -0.821769222842704
12657404000.0 -0.5770204226268543 -0.8167297177594106 6.463925156739843e-17 5.0221524188049946e-17 6.463925156739843e-17 5.0221524188049946e-17 -0.5770199033752689 -0.816730084610966
12658021333.333334 -0.5841753130839489 -0.8116275029735693 6.506979359609913e-17 4.963609802585343e-17 6.506979359609913e-17 4.963609802585343e-17 -0.5841747971013601 -0.8116278743558679
12658638666.666666 -0.5912850905695238 -0.8064626102120489 6.549503984667576e-17 4.9046988689642807e-17 6.549503984667576e-17 4.9046988689642807e-17 -0.5912845778954582 -0.8064629860959707
12659256000.0 -0.5983492060307405 -0.8012354383339664 6.591495888192262e-17 4.8454244029856465e-17 6.591495888192262e-17 4.8454244029856465e-17 -0.5983486967044644 -0.8012358186900463
12659873333.333334 -0.6053671139409428 -0.795946391007996 6.632951969650259e-17 4.785791216461197e-17 6.632951969650259e-17 4.785791216461197e-17 -0.6053666080014609 -0.7959467758064263
12660490666.666666 -0.6123382723417898 -0.790595876681198 6.673869171922077e-17 4.7258041475812776e-17 6.673869171922077e-17 4.7258041475812776e-17 -0.6123377698278409 -0.7905962658918307
12661108000.0 -0.6192621428853315 -0.7851843085473039 6.714244481527551e-17 4.665468060521604e-17 6.714244481527551e-17 4.665468060521604e-17 -0.6192616438353865 -0.7851847021396535
12661725333.333334 -0.6261381908752691 -0.7797121045150494 6.754074928844275e-17 4.6047878450527635e-17 6.754074928844275e-17 4.6047878450527635e-17 -0.6261376953275264 -0.7797125024582935
12662342666.666666 -0.632965885308492 -0.7741796871757092 6.793357588325813e-17 4.543768416143082e-17 6.793357588325813e-17 4.543768416143082e-17 -0.6329653933008779 -0.7741800894386953
12662960000.0 -0.6397446989159752 -0.7685874837705522 6.832089578714214e-17 4.4824147135626965e-17 6.832089578714214e-17 4.4824147135626965e-17 -0.6397442104861382 -0.7685878903217958
12663577333.333334 -0.646474108203541 -0.762935926157811 6.870268063249748e-17 4.420731701484682e-17 6.870268063249748e-17 4.420731701484682e-17 -0.646473623388849 -0.7629363369654995
12664194666.666666 -0.6531535934921969 -0.757225450779403 6.907890249876974e-17 4.358724368084648e-17 6.907890249876974e-17 4.358724368084648e-17 -0.6531531123297352 -0.7572258658113976
12664812000.0 -0.6597826389584014 -0.7514564986271192 6.94495339144715e-17 4.296397725138551e-17 6.94495339144715e-17 4.296397725138551e-17 -0.6597821614849698 -0.7514569178509588
12665429333.333334 -0.6663607326738284 -0.7456295152086185 6.981454785917171e-17 4.233756807618616e-17 6.981454785917171e-17 4.233756807618616e-17 -0.666360258925939 -0.7456299385915219
12666046666.666666 -0.6728873666448226 -0.7397449505131058 7.01739177654429e-17 4.170806673288616e-17 7.01739177654429e-17 4.170806673288616e-17 -0.6728868966586948 -0.7397453780219729
12666664000.0 -0.6793620368518565 -0.7338032589763677 7.05276175207849e-17 4.1075524022952836e-17 7.05276175207849e-17 4.1075524022952836e-17 -0.6793615706634172 -0.7338036905777838
12667281333.333334 -0.6857842432881605 -0.7278048994459471 7.08756214694945e-17 4.0439990967611504e-17 7.08756214694945e-17 4.0439990967611504e-17 -0.6857837809330393 -0.7278053351061848
12667898666.666666 -0.6921534899985483 -0.7217503351455197 7.121790441451466e-17 3.980151880372985e-17 7.121790441451466e-17 3.980151880372985e-17 -0.6921530315120747 -0.7217507748305405
12668516000.0 -0.6984692851177104 -0.7156400336391153 7.155444161924047e-17 3.916015897969686e-17 7.155444161924047e-17 3.916015897969686e-17 -0.6984688305349129 -0.7156404773145747
12669133333.333334 -0.7047311409080198 -0.7094744667951923 7.188520880927827e-17 3.851596315130744e-17 7.188520880927827e-17 3.851596315130744e-17 -0.7047306902636202 -0.7094749144264388
12669750666.666666 -0.710938573797416 -0.7032541107499747 7.22101821741875e-17 3.786898317759322e-17 7.22101821741875e-17 3.786898317759322e-17 -0.7109381271258304 -0.7032545623020565
12670368000.0 -0.717091104416592 -0.6969794458708467 7.252933836917093e-17 3.7219271116667876e-17 7.252933836917093e-17 3.7219271116667876e-17 -0.7170906617519265 -0.6969799013085136
