! Parameters = {f0=12700.012000; bw=77.238000; Q=6100.000000; N=10; m_0_1=1.186281; m_1_1=-0.970526; m_1_2=1.021093; m_2_2=-0.971175; m_2_3=0.658056; m_2_8=-0.003622; m_2_9=0.033082; m_3_3=-0.973112; m_3_4=0.546585; m_3_7=-0.003022; m_3_8=-0.100110; m_3_9=-0.003622; m_4_4=-0.976037; m_4_5=0.382920; m_4_6=0.000495; m_4_7=-0.120659; m_4_8=-0.003022; m_5_5=-0.975655; m_5_6=0.790275; m_5_7=0.000495; m_6_6=-0.975656; m_6_7=0.383262; m_7_7=-0.976023; m_7_8=0.546703; m_8_8=-0.973114; m_8_9=0.658369; m_9_9=-0.971180; m_9_10=1.022171; m_10_10=-0.970536; m_10_11=1.187076}
!
! Created with skrf (http://scikit-rf.org).
# Hz S RI R 50.0 
!freq ReS11 ImS11 ReS21 ImS21 ReS12 ImS12 ReS22 ImS22
12607400000.0 0.4729938829208305 0.8810657107840032 -5.1546983349015976e-17 -5.2034166686265626e-17 -5.1546983349015976e-17 -5.2034166686265626e-17 0.47299333212489225 0.8810660064746779
12608017333.333334 0.48006930668594994 0.8772305630664715 -5.1958478953260835e-17 -5.160291748183601e-17 -5.1958478953260835e-17 -5.160291748183601e-17 0.480068758314398 0.877230863165631
12608634666.666666 0.4871136363700018 0.8733385971444528 -5.236637262534073e-17 -5.116841999180247e-17 -5.236637262534073e-17 -5.116841999180247e-17 0.48711309045811535 0.8733389016322298
12609252000.0 0.49412641571187427 0.8693900651005751 -5.277063877287311e-17 -5.073070425321462e-17 -5.277063877287311e-17 -5.073070425321462e-17 0.49412587229476973 0.8693903739568196
12609869333.333334 0.5011071904940954 0.8653852226811832 -5.3171252053577586e-17 -5.0289800504350983e-17 -5.3171252053577586e-17 -5.0289800504350983e-17 0.5011066496067234 0.865385535885463
12610486666.666666 0.5080555085719296 0.8613243292799544 -5.3568187376856576e-17 -4.98457391826385e-17 -5.3568187376856576e-17 -4.98457391826385e-17 0.5080549702490745 0.8613246468115594
12611104000.0 0.5149709199031104 0.8572076479208471 -5.3961419905367644e-17 -4.939855092254798e-17 -5.3961419905367644e-17 -4.939855092254798e-17 0.5149703841793858 0.8572079697587868
12611721333.333334 0.5218529765765665 0.8530354452413007 -5.435092505654404e-17 -4.894826655351638e-17 -5.435092505654404e-17 -4.894826655351638e-17 0.5218524434864154 0.8530357713643097
12612338666.666666 0.5287012328416104 0.8488079914748731 -5.473667850414512e-17 -4.8494917097804447e-17 -5.473667850414512e-17 -4.8494917097804447e-17 0.5287007024193018 0.84880832186141
12612956000.0 0.5355152451369753 0.8445255604336265 -5.511865617975412e-17 -4.803853376838086e-17 -5.511865617975412e-17 -4.803853376838086e-17 0.5355147174166017 0.8445258950618764
12613573333.333334 0.5422945721191358 0.840188429490653 -5.5496834274267256e-17 -4.757914796678576e-17 -5.5496834274267256e-17 -4.757914796678576e-17 0.5422940471346109 0.8401887683385266
12614190666.666666 0.5490387746913011 0.8357968795618467 -5.58711892393768e-17 -4.711679128096816e-17 -5.58711892393768e-17 -4.711679128096816e-17 0.5490382524763595 0.835797222606986
12614808000.0 0.5557474160316659 0.8313511950878355 -5.624169778901617e-17 -4.665149548313552e-17 -5.624169778901617e-17 -4.665149548313552e-17 0.555746896619858 0.8313515423076108
12615425333.333334 0.562420061621653 0.826851664015585 -5.660833690080746e-17 -4.6183292527568505e-17 -5.660833690080746e-17 -4.6183292527568505e-17 0.5624195450463453 0.8268520153870997
12616042666.666666 0.5690562792742252 0.8222985777796414 -5.697108381747731e-17 -4.571221454844012e-17 -5.697108381747731e-17 -4.571221454844012e-17 0.5690557655685968 0.8222989332797318
12616660000.0 0.5756556391616884 0.8176922312833812 -5.732991604825494e-17 -4.5238293857624036e-17 -5.732991604825494e-17 -4.5238293857624036e-17 0.5756551283587295 0.8176925908886185
12617277333.333334 0.582217713843719 0.8130329228797816 -5.768481137026498e-17 -4.4761562942475855e-17 -5.768481137026498e-17 -4.4761562942475855e-17 0.5822172059762283 0.8130332865664731
12617894666.666666 0.5887420782948628 0.8083209543522252 -5.803574782988266e-17 -4.4282054463627926e-17 -5.803574782988266e-17 -4.4282054463627926e-17 0.5887415733954466 0.8083213220964175
12618512000.0 0.5952283099322506 0.8035566308948259 -5.838270374409115e-17 -4.3799801252747476e-17 -5.838270374409115e-17 -4.3799801252747476e-17 0.595227808033319 0.8035570026723037
12619129333.333334 0.6016759886427824 0.798740261092789 -5.872565770180015e-17 -4.3314836310310585e-17 -5.872565770180015e-17 -4.3314836310310585e-17 0.6016754897765482 0.7987406368790796
12619746666.666666 0.6080846968105 0.7938721569023115 -5.906458856516482e-17 -4.2827192803341064e-17 -5.906458856516482e-17 -4.2827192803341064e-17 0.6080842010089765 0.7938725366726838
12620364000.0 0.6144540193435671 0.788952633630424 -5.93994754708735e-17 -4.233690406315571e-17 -5.93994754708735e-17 -4.233690406315571e-17 0.6144535266385653 0.7889530173598909
12620981333.333334 0.6207835437011082 0.7839820099146029 -5.973029783141745e-17 -4.1844003583099946e-17 -5.973029783141745e-17 -4.1844003583099946e-17 0.6207830541242368 0.7839823975779248
12621598666.666666 0.6270728599199779 0.7789606077021014 -6.005703533635306e-17 -4.1348525016256386e-17 -6.005703533635306e-17 -4.1348525016256386e-17 0.6270723735026387 0.7789609992737854
12622216000.0 0.633321560641353 0.7738887522290564 -6.037966795352785e-17 -4.0850502173169284e-17 -6.037966795352785e-17 -4.0850502173169284e-17 0.6333210774147413 0.77388914768336
12622833333.333334 0.6395292411371019 0.7687667719994464 -6.069817593030646e-17 -4.034996901953231e-17 -6.069817593030646e-17 -4.034996901953231e-17 0.6395287611322017 0.7687671713103768
12623450666.666666 0.6456954993358363 0.7635949987639332 -6.101253979475999e-17 -3.984695967389252e-17 -6.101253979475999e-17 -3.984695967389252e-17 0.6456950225834213 0.7635954019052511
12624068000.0 0.6518199358492244 0.758373767498164 -6.132274035684676e-17 -3.934150840532972e-17 -6.132274035684676e-17 -3.934150840532972e-17 0.6518194623798539 0.7583741744433844
12624685333.333334 0.6579021539977008 0.7531034163811974 -6.162875870958066e-17 -3.883364963111615e-17 -6.162875870958066e-17 -3.883364963111615e-17 0.6579016838417193 0.753103827103592
12625302666.666666 0.663941759836099 0.7477842867736594 -6.193057623015165e-17 -3.832341791441306e-17 -6.193057623015165e-17 -3.832341791441306e-17 0.6639412930236321 0.747784701246257
12625920000.0 0.6699383621794198 0.7424167231954045 -6.222817458107045e-17 -3.781084796188785e-17 -6.222817458107045e-17 -3.781084796188785e-17 0.6699378987403753 0.7424171413909952
12626537333.333334 0.6758915726278112 0.7370010733035273 -6.252153571125193e-17 -3.7295974621391805e-17 -6.252153571125193e-17 -3.7295974621391805e-17 0.6758911125918738 0.7370014951946605
12627154666.666666 0.681801005591976 0.7315376878696116 -6.281064185710093e-17 -3.6778832879593906e-17 -6.281064185710093e-17 -3.6778832879593906e-17 0.6818005489886084 0.7315381134286022
12627772000.0 0.6876662783182098 0.7260269207569571 -6.309547554358727e-17 -3.625945785959016e-17 -6.309547554358727e-17 -3.625945785959016e-17 0.6876658251766495 0.7260273499558846
12628389333.333334 0.6934870109128387 0.7204691288979859 -6.337601958527176e-17 -3.57378848185569e-17 -6.337601958527176e-17 -3.57378848185569e-17 0.6934865612620951 0.720469561708696
12629006666.666666 0.6992628263672792 0.7148646722706972 -6.365225708734196e-17 -3.521414914534393e-17 -6.365225708734196e-17 -3.521414914534393e-17 0.6992623802361336 0.7148651086648051
12629624000.0 0.7049933505820658 0.7092139138757214 -6.392417144661165e-17 -3.4688286358090673e-17 -6.392417144661165e-17 -3.4688286358090673e-17 0.7049929079990686 0.7092143538246128
12630241333.333334 0.7106782123913487 0.7035172197125557 -6.419174635250806e-17 -3.4160332101820146e-17 -6.419174635250806e-17 -3.4160332101820146e-17 0.7106777733848175 0.7035176631873891
12630858666.666666 0.7163170435867503 0.6977749587560339 -6.445496578802785e-17 -3.3630322146047283e-17 -6.445496578802785e-17 -3.3630322146047283e-17 0.7163166081847686 0.697775405727742
12631476000.0 0.721909478941376 0.6919875029322701 -6.471381403069835e-17 -3.3098292382332525e-17 -6.471381403069835e-17 -3.3098292382332525e-17 0.7219090471717912 0.6919879533715622
12632093333.333334 0.7274551562333281 0.6861552270947072 -6.496827565348751e-17 -3.25642788218887e-17 -6.496827565348751e-17 -3.25642788218887e-17 0.7274547281237499 0.6861556809720715
12632710666.666666 0.7329537162692323 0.6802785089997837 -6.521833552571228e-17 -3.2028317593146367e-17 -6.521833552571228e-17 -3.2028317593146367e-17 0.7329532918470292 0.6802789662854867
12633328000.0 0.7384048029075329 0.674357729282415 -6.546397881393411e-17 -3.149044493929491e-17 -6.546397881393411e-17 -3.149044493929491e-17 0.738404382199833 0.6743581899465069
12633945333.333334 0.7438080630815268 0.6683932714313884 -6.570519098280934e-17 -3.095069721587161e-17 -6.570519098280934e-17 -3.095069721587161e-17 0.743807646115216 0.6683937354437042
12634562666.666666 0.7491631468221751 0.662385521764587 -6.594195779594486e-17 -3.040911088828979e-17 -6.594195779594486e-17 -3.040911088828979e-17 0.7491627336238917 0.6623859890947451
12635180000.0 0.7544697072808983 0.6563348694038151 -6.617426531671985e-17 -2.9865722529390756e-17 -6.617426531671985e-17 -2.9865722529390756e-17 0.7544692978770372 0.6563353400212253
12635797333.333334 0.7597274007519154 0.6502417062497494 -6.640209990908845e-17 -2.932056881698555e-17 -6.640209990908845e-17 -2.932056881698555e-17 0.7597269951686206 0.6502421801236097
12636414666.666666 0.7649358866945587 0.644106426956489 -6.662544823836698e-17 -2.87736865313837e-17 -6.662544823836698e-17 -2.87736865313837e-17 0.7649354849577263 0.6441069040557903
12637032000.0 0.770094827755388 0.6379294289059295 -6.684429727200026e-17 -2.822511255291375e-17 -6.684429727200026e-17 -2.822511255291375e-17 0.77009442989066 0.6379299091994551
12637649333.333334 0.7752038897899098 0.6317111121821746 -6.705863428030032e-17 -2.7674883859457357e-17 -6.705863428030032e-17 -2.7674883859457357e-17 0.7752034958226769 0.6317115956385062
12638266666.666666 0.7802627418843495 0.6254518795454718 -6.72684468371758e-17 -2.712303752395123e-17 -6.72684468371758e-17 -2.712303752395123e-17 0.7802623518397463 0.6254523661329883
12638884000.0 0.78527105637703 0.6191521364061915 -6.747372282083319e-17 -2.6569610711902882e-17 -6.747372282083319e-17 -2.6569610711902882e-17 0.7852706702799355 0.6191526260930719
12639501333.333334 0.7902285088795563 0.6128122907986102 -6.767445041445825e-17 -2.601464067889915e-17 -6.767445041445825e-17 -2.601464067889915e-17 0.7902281267545911 0.6128127835528366
12640118666.666666 0.7951347782978494 0.606432753354465 -6.787061810687987e-17 -2.5458164768104337e-17 -6.787061810687987e-17 -2.5458164768104337e-17 0.795134400169375 0.6064332491438236
12640736000.0 0.7999895468530775 0.6000139372761722 -6.806221469321717e-17 -2.4900220407739435e-17 -6.806221469321717e-17 -2.4900220407739435e-17 0.7999891727451933 0.6000144360682559
12641353333.333334 0.8047925001019479 0.5935562583104511 -6.824922927549009e-17 -2.434084510860572e-17 -6.824922927549009e-17 -2.434084510860572e-17 0.8047921300384911 0.5935567600726614
12641970666.666666 0.8095433269573802 0.5870601347209863 -6.843165126323187e-17 -2.378007646153753e-17 -6.843165126323187e-17 -2.378007646153753e-17 0.8095429609619232 0.5870606394205353
12642588000.0 0.8142417197084371 0.5805259872616344 -6.860947037406399e-17 -2.3217952134899316e-17 -6.860947037406399e-17 -2.3217952134899316e-17 0.8142413578042865 0.5805264948655473
12643205333.333334 0.8188873740403836 0.5739542391489858 -6.878267663425451e-17 -2.2654509872069035e-17 -6.878267663425451e-17 -2.2654509872069035e-17 0.8188870162505805 0.5739547496241035
12643822666.666666 0.8234799890543407 0.5673453160350498 -6.895126037926424e-17 -2.2089787488890034e-17 -6.895126037926424e-17 -2.2089787488890034e-17 0.823479635401655 0.5673458293480297
12644440000.0 0.8280192672867958 0.5606996459796326 -6.911521225425722e-17 -2.1523822871166154e-17 -6.911521225425722e-17 -2.1523822871166154e-17 0.8280189177937287 0.560700162096952
12645057333.333334 0.8325049147288449 0.5540176594226629 -6.927452321460377e-17 -2.0956653972112124e-17 -6.927452321460377e-17 -2.0956653972112124e-17 0.8325045694176263 0.5540181783106208
12645674666.666666 0.836936640845187 0.5472997891563836 -6.9429184526356e-17 -2.0388318809821943e-17 -6.9429184526356e-17 -2.0388318809821943e-17 0.8369362997377727 0.5473003107811024
12646292000.0 0.8413141585931447 0.5405464702970088 -6.957918776670614e-17 -1.9818855464720132e-17 -6.957918776670614e-17 -1.9818855464720132e-17 0.8413138217112174 0.5405469946244379
12646909333.333334 0.8456371844410081 0.5337581402569245 -6.972452482441908e-17 -1.9248302077031862e-17 -6.972452482441908e-17 -1.9248302077031862e-17 0.8456368518059734 0.5337586672528407
12647526666.666666 0.8499054383865061 0.5269352387161892 -6.986518790025066e-17 -1.867669684422212e-17 -6.986518790025066e-17 -1.867669684422212e-17 0.8499051100194928 0.5269357683461997
12648144000.0 0.8541186439750342 0.520078207593912 -7.00011695073399e-17 -1.810407801845399e-17 -7.00011695073399e-17 -1.810407801845399e-17 0.8541183198968927 0.5200787398234573
12648761333.333334 0.8582765283173769 0.5131874910199168 -7.013246247158321e-17 -1.7530483904032414e-17 -7.013246247158321e-17 -1.7530483904032414e-17 0.8582762085486788 0.5131880258142727
12649378666.666666 0.8623788221074937 0.5062635353058115 -7.025905993198586e-17 -1.6955952854855517e-17 -7.025905993198586e-17 -1.6955952854855517e-17 0.8623785066685286 0.5062640726300904
12649996000.0 0.8664252596399845 0.49930678891602603 -7.038095534099416e-17 -1.6380523271853528e-17 -7.038095534099416e-17 -1.6380523271853528e-17 0.8664249485507594 0.49930732873518036
12650613333.333334 0.8704155788272142 0.4923177024389155 -7.049814246480795e-17 -1.5804233600423703e-17 -7.049814246480795e-17 -1.5804233600423703e-17 0.8704152721074531 0.4923182447177394
12651230666.666666 0.8743495212163348 0.4852967285575018 -7.061061538366753e-17 -1.5227122327883317e-17 -7.061061538366753e-17 -1.5227122327883317e-17 0.8743492188854757 0.4852972732606331
12651848000.0 0.8782268320060485 0.47824432202010214 -7.071836849212522e-17 -1.4649227980892685e-17 -7.071836849212522e-17 -1.4649227980892685e-17 0.8782265340832447 0.4782448691120259
12652465333.333334 0.8820472600630853 0.4711609396109258 -7.082139649929281e-17 -1.4070589122896866e-17 -7.082139649929281e-17 -1.4070589122896866e-17 0.8820469665672018 0.47116148905597544
12653082666.666666 0.8858105579384294 0.46404704012056325 -7.091969442906742e-17 -1.3491244351565774e-17 -7.091969442906742e-17 -1.3491244351565774e-17 0.8858102688880428 0.464047591882923
12653700000.0 0.8895164818834366 0.45690308431609356 -7.101325762034037e-17 -1.2911232296212934e-17 -7.101325762034037e-17 -1.2911232296212934e-17 0.8895161972968353 0.456903638359802
12654317333.333334 0.8931647918655229 0.4497295349114444 -7.110208172718048e-17 -1.2330591615241448e-17 -7.110208172718048e-17 -1.2330591615241448e-17 0.8931645117607012 0.44973009120039464
12654934666.666666 0.8967552515837944 0.44252685653724216 -7.118616271899898e-17 -1.1749360993570778e-17 -7.118616271899898e-17 -1.1749360993570778e-17 0.8967549759784573 0.44252741503518617
12655552000.0 0.900287628484319 0.43529551571079544 -7.126549688069527e-17 -1.1167579140052646e-17 -7.126549688069527e-17 -1.1167579140052646e-17 0.9002873573958777 0.4352960763813459
12656169333.333334 0.9037616937751631 0.4280359808059303 -7.13400808127763e-17 -1.0585284784924941e-17 -7.13400808127763e-17 -1.0585284784924941e-17 0.903761427220734 0.428036543612562
12656786666.666666 0.9071772224412352 0.42074872202260166 -7.140991143145991e-17 -1.0002516677226609e-17 -7.140991143145991e-17 -1.0002516677226609e-17 0.90717696043764 0.42074928692865493
12657404000.0 0.910533993258884 0.41343421135638736 -7.147498596875634e-17 -9.419313582224489e-18 -7.147498596875634e-17 -9.419313582224489e-18 0.9105337358226476 0.4134347783250704
12658021333.333334 0.9138317888102137 0.4060929225679421 -7.153530197252755e-17 -8.835714278844161e-18 -7.153530197252755e-17 -8.835714278844161e-18 0.913831535957564 0.4060934915623328
12658638666.666666 0.9170703954970749 0.3987253311525202 -7.159085730652437e-17 -8.251757557115119e-18 -7.159085730652437e-17 -8.251757557115119e-18 0.9170701472439411 0.39872590213556913
12659256000.0 0.9202496035550942 0.3913319143087358 -7.164165015040861e-17 -7.667482215565354e-18 -7.164165015040861e-17 -7.667482215565354e-18 0.9202493599171067 0.3913324872432682
12659873333.333334 0.9233692070670676 0.38391315090809724 -7.168767899974636e-17 -7.082927058685572e-18 -7.168767899974636e-17 -7.082927058685572e-18 0.9233689680595553 0.38391372575681554
12660490666.666666 0.9264290039763752 0.37646952146380763 -7.172894266598595e-17 -6.498130894345179e-18 -7.172894266598595e-17 -6.498130894345179e-18 0.9264287696143672 0.37647009818929444
12661108000.0 0.9294287961001487 0.36900150809946014 -7.176544027641414e-17 -5.913132531211017e-18 -7.176544027641414e-17 -5.913132531211017e-18 0.9294285663983698 0.36900208666417916
12661725333.333334 0.932368389141918 0.36150959451825476 -7.179717127408879e-17 -5.327970776203819e-18 -7.179717127408879e-17 -5.327970776203819e-18 0.9323681641147908 0.36151017488455495
12662342666.666666 0.9352475927043923 0.3539942659711969 -7.182413541775365e-17 -4.7426844319169845e-18 -7.182413541775365e-17 -4.7426844319169845e-18 0.935247372366036 0.3539948481013144
12662960000.0 0.9380662203016558 0.3464560092260109 -7.184633278173136e-17 -4.157312294046853e-18 -7.184633278173136e-17 -4.157312294046853e-18 0.9380660046658825 0.34645659308207044
12663577333.333334 0.940824089371324 0.33889531253539856 -7.186376375579451e-17 -3.571893148842807e-18 -7.186376375579451e-17 -3.571893148842807e-18 0.9408238784516428 0.338895898079418
12664194666.666666 0.943521021286345 0.331312665605497 -7.187642904501784e-17 -2.9864657705304244e-18 -7.187642904501784e-17 -2.9864657705304244e-18 0.9435208150959556 0.33131325279938756
12664812000.0 0.9461568413665326 0.32370855956423816 -7.188432966960801e-17 -2.4010689187568278e-18 -7.188432966960801e-17 -2.4010689187568278e-18 0.9461566399183281 0.32370914836980824
12665429333.333334 0.9487313788899515 0.3160834869293525 -7.188746696471305e-17 -1.815741336035968e-18 -7.188746696471305e-17 -1.815741336035968e-18 0.9487311821965173 0.31608407730831006
12666046666.666666 0.9512444671039018 0.3084379415766837 -7.188584258021178e-17 -1.23052174518992e-18 -7.188584258021178e-17 -1.23052174518992e-18 0.9512442751775125 0.3084385334906382
12666664000.0 0.9536959432357871 0.30077241870798377 -7.187945848048145e-17 -6.454488467781424e-19 -7.187945848048145e-17 -6.454488467781424e-19 0.9536957560884092 0.3007730121184492
12667281333.333334 0.9560856485035982 0.2930874148190281 -7.186831694414524e-17 -6.056131658032579e-20 -7.186831694414524e-17 -6.056131658032579e-20 0.9560854661468874 0.2930880096874255
12667898666.666666 0.9584134281262188 0.2853834276674049 -7.185242056379914e-17 5.241021969876225e-19 -7.185242056379914e-17 5.241021969876225e-19 0.9584132505715174 0.2853840239550641
12668516000.0 0.9606791313335012 0.2776609562400831 -7.183177224571757e-17 1.108503075403694e-18 -7.183177224571757e-17 1.108503075403694e-18 0.9606789585918417 0.2776615539082463
12669133333.333334 0.9628826113759382 0.2699205007214206 -7.180637520953937e-17 1.692602732579201e-18 -7.180637520953937e-17 1.692602732579201e-18 0.9628824434580384 0.269921099731244
12669750666.666666 0.9650237255342234 0.26216256246057656 -7.177623298793207e-17 2.2763626174134222e-18 -7.177623298793207e-17 2.2763626174134222e-18 0.96502356245049 0.2621631627731338
12670368000.0 0.9671023351285116 0.2543876439389844 -7.17413494262363e-17 2.859744216316368e-18 -7.17413494262363e-17 2.859744216316368e-18 0.9671021768890352 0.2543882455152679
