! Parameters = {f0=12700.012000; bw=77.238000; Q=6100.000000; N=10; m_0_1=1.239134; m_1_1=-0.177734; m_1_2=1.073946; m_2_2=-0.178383; m_2_3=0.710909; m_2_8=-0.000980; m_2_9=0.035724; m_3_3=-0.180320; m_3_4=0.599438; m_3_7=-0.000380; m_3_8=-0.097468; m_3_9=-0.000980; m_4_4=-0.183245; m_4_5=0.435773; m_4_6=0.003137; m_4_7=-0.118017; m_4_8=-0.000380; m_5_5=-0.182863; m_5_6=0.843128; m_5_7=0.003137; m_6_6=-0.182864; m_6_7=0.436115; m_7_7=-0.183231; m_7_8=0.599556; m_8_8=-0.180322; m_8_9=0.711222; m_9_9=-0.178388; m_9_10=1.075024; m_10_10=-0.177744; m_10_11=1.239929}
!
! Created with skrf (http://scikit-rf.org).
# Hz S RI R 50.0 
!freq ReS11 ImS11 ReS21 ImS21 ReS12 ImS12 ReS22 ImS22
12607400000.0 0.8452950973442689 0.5342997271247428 -9.180291662598314e-17 -2.59684851191742e-17 -9.180291662598314e-17 -2.59684851191742e-17 0.8452947484972954 0.5343002790217564
12608017333.333334 0.850390854348777 0.5261514941913489 -9.203243934036486e-17 -2.5071955358748954e-17 -9.203243934036486e-17 -2.5071955358748954e-17 0.8503905108386426 0.5261520493882211
12608634666.666666 0.8554080688790646 0.5179546656768543 -9.225321344943509e-17 -2.417341786707678e-17 -9.225321344943509e-17 -2.417341786707678e-17 0.8554077307369717 0.5179552241219862
12609252000.0 0.8603462775430534 0.5097099986439781 -9.246522161279453e-17 -2.327295795065192e-17 -9.246522161279453e-17 -2.327295795065192e-17 0.8603459447997056 0.509710560285476
12609869333.333334 0.8652050242456959 0.5014182545738004 -9.266844732122904e-17 -2.2370661063348664e-17 -9.266844732122904e-17 -2.2370661063348664e-17 0.8652046969312965 0.5014188193594808
12610486666.666666 0.8699838602310319 0.4930801992955549 -9.286287489793334e-17 -2.1466612798341968e-17 -9.286287489793334e-17 -2.1466612798341968e-17 0.8699835383752781 0.49308076717294846
12611104000.0 0.8746823441237879 0.48469660291562516 -9.304848949966546e-17 -2.0560898879975817e-17 -9.304848949966546e-17 -2.0560898879975817e-17 0.8746820277558706 0.4846971738319823
12611721333.333334 0.8793000419699479 0.4762682397467627 -9.32252771178081e-17 -1.9653605155688692e-17 -9.32252771178081e-17 -1.9653605155688692e-17 0.8792997311185482 0.4762688136490583
12612338666.666666 0.8838365272769736 0.46779588823632445 -9.339322457936381e-17 -1.8744817587869564e-17 -9.339322457936381e-17 -1.8744817587869564e-17 0.88383622197026 0.4677964650712628
12612956000.0 0.8882913810531916 0.45928033089437315 -9.355231954786854e-17 -1.7834622245719637e-17 -9.355231954786854e-17 -1.7834622245719637e-17 0.8882910813188193 0.4592809106083935
12613573333.333334 0.892664191846375 0.45072235422163126 -9.370255052421641e-17 -1.6923105297157646e-17 -9.370255052421641e-17 -1.6923105297157646e-17 0.8926638977114799 0.4507229367609115
12614190666.666666 0.8969545557818748 0.4421227486365872 -9.384390684741983e-17 -1.6010353000641935e-17 -9.384390684741983e-17 -1.6010353000641935e-17 0.8969542672730744 0.4421233339470499
12614808000.0 0.9011620765998583 0.4334823084026186 -9.397637869528112e-17 -1.5096451697040504e-17 -9.397637869528112e-17 -1.5096451697040504e-17 0.9011617937432469 0.4334828964299355
12615425333.333334 0.9052863656919191 0.4248018315546077 -9.409995708498802e-17 -1.4181487801477798e-17 -9.409995708498802e-17 -1.4181487801477798e-17 0.9052860885130667 0.4248024222442049
12616042666.666666 0.90932704213697 0.416082119825235 -9.421463387362972e-17 -1.3265547795180383e-17 -9.421463387362972e-17 -1.3265547795180383e-17 0.909326770660921 0.4160827131222987
12616660000.0 0.9132837327364263 0.40732397857093156 -9.432040175863373e-17 -1.2348718217319596e-17 -9.432040175863373e-17 -1.2348718217319596e-17 0.9132834669876941 0.4073245744204117
12617277333.333334 0.9171560720486829 0.3985282166974681 -9.44172542781239e-17 -1.1431085656849298e-17 -9.44172542781239e-17 -1.1431085656849298e-17 0.917155812051251 0.3985288150440848
12617894666.666666 0.9209437024228015 0.3896956465854021 -9.450518581119736e-17 -1.0512736744358173e-17 -9.450518581119736e-17 -1.0512736744358173e-17 0.9209434482001198 0.3896962473736505
12618512000.0 0.9246462740317124 0.3808270840146546 -9.458419157812712e-17 -9.593758143878402e-18 -9.458419157812712e-17 -9.593758143878402e-18 0.9246460256066941 0.380827687188809
12619129333.333334 0.928263444904296 0.3719233480896846 -9.46542676404784e-17 -8.67423654476153e-18 -9.46542676404784e-17 -8.67423654476153e-18 0.9282632022993182 0.3719239535938053
12619746666.666666 0.9317948809571321 0.36298526116347407 -9.471541090115257e-17 -7.754258653490666e-18 -9.471541090115257e-17 -7.754258653490666e-18 0.9317946441940314 0.36298586894141105
12620364000.0 0.9352402560253344 0.35401364876159663 -9.476761910434825e-17 -6.833911185521052e-18 -9.476761910434825e-17 -6.833911185521052e-18 0.9352400251254047 0.3540142587569953
12620981333.333334 0.938599251892585 0.3450093395062114 -9.481089083544321e-17 -5.913280857147367e-18 -9.481089083544321e-17 -5.913280857147367e-18 0.938599026876578 0.3450099516625183
12621598666.666666 0.9418715583206287 0.33597316503926633 -9.484522552079983e-17 -4.992454377322864e-18 -9.484522552079983e-17 -4.992454377322864e-18 0.9418713392087512 0.3359737792997339
12622216000.0 0.9450568730778768 0.32690595994581995 -9.487062342748875e-17 -4.0715184395228166e-18 -9.487062342748875e-17 -4.0715184395228166e-18 0.9450566598897863 0.32690657625351155
12622833333.333334 0.9481549019673365 0.317808561676905 -9.488708566293576e-17 -3.1505597135937923e-18 -9.488708566293576e-17 -3.1505597135937923e-18 0.9481546947221434 0.3178091799747008
12623450666.666666 0.9511653588537499 0.30868181047228826 -9.489461417448781e-17 -2.2296648376244434e-18 -9.489461417448781e-17 -2.2296648376244434e-18 0.9511651575700131 0.3086824307028902
12624068000.0 0.9540879656900672 0.29952654928273276 -9.48932117489024e-17 -1.3089204097982558e-18 -9.48932117489024e-17 -1.3089204097982558e-18 0.9540877703857935 0.2995271713886698
12624685333.333334 0.9569224525431331 0.29034362369211303 -9.488288201175643e-17 -3.884129802639804e-19 -9.488288201175643e-17 -3.884129802639804e-19 0.9569222632357754 0.29034424761574656
12625302666.666666 0.9596685576185336 0.2811338818395887 -9.486362942677759e-17 5.31770956953858e-19 -9.486362942677759e-17 5.31770956953858e-19 0.9596683743249884 0.2811345075231179
12625920000.0 0.9623260272849005 0.27189817434086283 -9.483545929509637e-17 1.4515449721169122e-18 -9.483545929509637e-17 1.4515449721169122e-18 0.9623258500215083 0.27189880172633
12626537333.333334 0.9648946160972214 0.26263735420999845 -9.479837775442046e-17 2.3708227078205756e-18 -9.479837775442046e-17 2.3708227078205756e-18 0.9648944448797642 0.26263798323929455
12627154666.666666 0.967374086819563 0.25335227678047273 -9.475239177813075e-17 3.2895178871124943e-18 -9.475239177813075e-17 3.2895178871124943e-18 0.9673739216632621 0.25335290739534233
12627772000.0 0.9697642104470199 0.24404379962601097 -9.469750917429726e-17 4.2075443215867965e-18 -9.469750917429726e-17 4.2075443215867965e-18 0.9697640513665361 0.24404443176805812
12628389333.333334 0.9720647662267671 0.2347127824817666 -9.463373858462102e-17 5.124815919415746e-18 -9.463373858462102e-17 5.124815919415746e-18 0.9720646132361984 0.23471341609245983
12629006666.666666 0.974275541678554 0.22536008716450207 -9.456108948329288e-17 6.041246693447165e-18 -9.456108948329288e-17 6.041246693447165e-18 0.974275394791435 0.22536072218518025
12629624000.0 0.9763963326142547 0.21598657749329517 -9.447957217577909e-17 6.956750769218946e-18 -9.447957217577909e-17 6.956750769218946e-18 0.9763961918435531 0.21598721386517217
12630241333.333334 0.978426943156762 0.20659311920958917 -9.438919779752625e-17 7.87124239300554e-18 -9.438919779752625e-17 7.87124239300554e-18 0.9784268085148821 0.20659375687376041
12630858666.666666 0.9803671857580492 0.19718057989740073 -9.428997831259095e-17 8.78463593981771e-18 -9.428997831259095e-17 8.78463593981771e-18 0.980367057256827 0.19718121879484798
12631476000.0 0.9822168812165523 0.18774982890288275 -9.418192651218827e-17 9.69684592143264e-18 -9.418192651218827e-17 9.69684592143264e-18 0.9822167588672552 0.18775046897447933
12632093333.333334 0.9839758586936461 0.17830173725439266 -9.406505601316877e-17 1.0607786994343743e-17 -9.406505601316877e-17 1.0607786994343743e-17 0.983975742506972 0.17830237844090938
12632710666.666666 0.9856439557294598 0.16883717758187775 -9.393938125641447e-17 1.1517373967744704e-17 -9.393938125641447e-17 1.1517373967744704e-17 0.9856438457155378 0.16883781982398835
12633328000.0 0.9872210182579065 0.15935702403613822 -9.38049175051565e-17 1.2425521811493198e-17 -9.38049175051565e-17 1.2425521811493198e-17 0.9872209144262929 0.15935766727442457
12633945333.333334 0.9887069006208647 0.1498621522083419 -9.36616808432218e-17 1.3332145664019134e-17 -9.36616808432218e-17 1.3332145664019134e-17 0.988706802980545 0.14986279638329983
12634562666.666666 0.990101465581658 0.1403534390490144 -9.350968817319815e-17 1.4237160840251262e-17 -9.350968817319815e-17 1.4237160840251262e-17 0.9901013741410449 0.14035408410105904
12635180000.0 0.9914045843377263 0.13083176278707198 -9.334895721452553e-17 1.5140482839508145e-17 -9.334895721452553e-17 1.5140482839508145e-17 0.9914044991046591 0.13083240865654316
12635797333.333334 0.9926161365325247 0.12129800284867917 -9.317950650151008e-17 1.604202735337396e-17 -9.317950650151008e-17 1.604202735337396e-17 0.9926160575142675 0.12129864947584706
12636414666.666666 0.9937360102666231 0.11175303977613753 -9.300135538126458e-17 1.694171027353993e-17 -9.300135538126458e-17 1.694171027353993e-17 0.993735937469868 0.11175368710120843
12637032000.0 0.9947641021080682 0.10219775514638955 -9.281452401156945e-17 1.783944769965041e-17 -9.281452401156945e-17 1.783944769965041e-17 0.9947640355389301 0.10219840310951094
12637649333.333334 0.9957003171019178 0.09263303148970832 -9.26190333586618e-17 1.8735155947099794e-17 -9.26190333586618e-17 1.8735155947099794e-17 0.9957002567659369 0.09263368003097461
12638266666.666666 0.9965445687790148 0.08305975220815824 -9.241490519494785e-17 1.962875155481933e-17 -9.241490519494785e-17 1.962875155481933e-17 0.9965445146811536 0.08306040126761631
12638884000.0 0.9972967791639744 0.07347880149400404 -9.220216209664172e-17 2.052015129303479e-17 -9.220216209664172e-17 2.052015129303479e-17 0.9972967313086205 0.07347945101165877
12639501333.333334 0.9979568787823893 0.06389106424801783 -9.198082744132501e-17 2.1409272171014792e-17 -9.198082744132501e-17 2.1409272171014792e-17 0.9979568371733517 0.06389171416383763
12640118666.666666 0.9985248066672321 0.05429742599791935 -9.175092540544347e-17 2.2296031444749425e-17 -9.175092540544347e-17 2.2296031444749425e-17 0.9985247713077438 0.05429807625184174
12640736000.0 0.9990005103645165 0.044698772816134574 -9.151248096170852e-17 2.318034662468601e-17 -9.151248096170852e-17 2.318034662468601e-17 0.9990004812572328 0.04469942334807178
12641353333.333334 0.9993839459381015 0.035095991238638505 -9.126551987645463e-17 2.4062135483320822e-17 -9.126551987645463e-17 2.4062135483320822e-17 0.9993839230851 0.03509664198848286
12641970666.666666 0.9996750779737829 0.025489968182478416 -9.101006870689262e-17 2.4941316062882805e-17 -9.101006870689262e-17 2.4941316062882805e-17 0.9996750613765634 0.025490619090108052
12642588000.0 0.9998738795825489 0.015881590864141634 -9.074615479831054e-17 2.5817806682908462e-17 -9.074615479831054e-17 2.5817806682908462e-17 0.9998738692420328 0.015882241869425943
12643205333.333334 0.9999803324030648 0.006271746717583418 -9.047380628119351e-17 2.669152594781606e-17 -9.047380628119351e-17 2.669152594781606e-17 0.9999803283195967 0.006272397760388684
12643822666.666666 0.9999944266033719 -0.0033386766878503995 -9.019305206826944e-17 2.756239275445809e-17 -9.019305206826944e-17 2.756239275445809e-17 0.9999944287767183 -0.0033380256676555082
12644440000.0 0.9999161608817935 -0.012948791729257685 -8.99039218514885e-17 2.8430326299619884e-17 -8.99039218514885e-17 2.8430326299619884e-17 0.9999161693111419 -0.012948140791796533
12645057333.333334 0.9997455424670555 -0.02255771081218964 -8.960644609892653e-17 2.929524608750277e-17 -8.960644609892653e-17 2.929524608750277e-17 0.9997455571510167 -0.022557060017572083
12645674666.666666 0.9994825871176192 -0.0321645464526294 -8.930065605161707e-17 3.015707193717269e-17 -8.930065605161707e-17 3.015707193717269e-17 0.9994826080542267 -0.03216389586094624
12646292000.0 0.9991273191202239 -0.041768411359159395 -8.898658372030575e-17 3.101572398999396e-17 -8.898658372030575e-17 3.101572398999396e-17 0.9991273463069328 -0.041767761030476795
12646909333.333334 0.9986797712876474 -0.051368418514542505 -8.866426188215146e-17 3.1871122716979423e-17 -8.866426188215146e-17 3.1871122716979423e-17 0.9986798047213378 -0.05136776850889652
12647526666.666666 0.9981399849556747 -0.06096368125793166 -8.83337240773363e-17 3.272318892616472e-17 -8.83337240773363e-17 3.272318892616472e-17 0.9981400246326483 -0.06096303163532262
12648144000.0 0.9975080099792727 -0.07055331336673351 -8.799500460561464e-17 3.357184376992021e-17 -8.799500460561464e-17 3.357184376992021e-17 0.9975080558952554 -0.0705526641871205
12648761333.333334 0.9967839047279948 -0.08013642913834691 -8.764813852279528e-17 3.441700875222027e-17 -8.764813852279528e-17 3.441700875222027e-17 0.9967839568781374 -0.08013578046164231
12649378666.666666 0.9959677360805912 -0.08971214347196689 -8.729316163715022e-17 3.525860573588665e-17 -8.729316163715022e-17 3.525860573588665e-17 0.9959677944594688 -0.08971149535803075
12649996000.0 0.9950595794188228 -0.09927957195047485 -8.693011050574912e-17 3.6096556949807835e-17 -8.693011050574912e-17 3.6096556949807835e-17 0.995059644020435 -0.09927892445910932
12650613333.333334 0.9940595186204997 -0.10883783092203807 -8.655902243073242e-17 3.693078499610107e-17 -8.655902243073242e-17 3.693078499610107e-17 0.9940595894382742 -0.10883718411298218
12651230666.666666 0.9929676460517525 -0.11838603758161186 -8.617993545551738e-17 3.776121285723428e-17 -8.617993545551738e-17 3.776121285723428e-17 0.9929677230785412 -0.11838539151453559
12651848000.0 0.9917840625584677 -0.12792331005275798 -8.579288836092119e-17 3.858776390314383e-17 -8.579288836092119e-17 3.858776390314383e-17 0.9917841457865516 -0.12792266478725714
12652465333.333334 0.9905088774570014 -0.1374487674688409 -8.539792066123611e-17 3.941036189826636e-17 -8.539792066123611e-17 3.941036189826636e-17 0.9905089668780883 -0.1374481230644313
12653082666.666666 0.9891422085240864 -0.1469615300543854 -8.499507260022938e-17 4.022893100855069e-17 -8.499507260022938e-17 4.022893100855069e-17 0.9891423041293128 -0.1469608865704975
12653700000.0 0.9876841819859132 -0.15646071920661447 -8.458438514705822e-17 4.1043395808465217e-17 -8.458438514705822e-17 4.1043395808465217e-17 0.9876842837658465 -0.1564600767025881
12654317333.333334 0.9861349325065298 -0.16594545757620352 -8.416589999215789e-17 4.185368128788226e-17 -8.416589999215789e-17 4.185368128788226e-17 0.9861350404511676 -0.1659448161112821
12654934666.666666 0.984494603175363 -0.17541486914859414 -8.373965954302388e-17 4.265971285900253e-17 -8.373965954302388e-17 4.265971285900253e-17 0.9844947172741342 -0.17541422878191937
12655552000.0 0.9827633454939981 -0.18486807932490246 -8.330570691994547e-17 4.3461416363200984e-17 -8.330570691994547e-17 4.3461416363200984e-17 0.9827634657357648 -0.18486744011550887
12656169333.333334 0.9809413193622318 -0.19430421500244582 -8.28640859516845e-17 4.4258718077810914e-17 -8.28640859516845e-17 4.4258718077810914e-17 0.9809414457352904 -0.1943035770092554
12656786666.666666 0.9790286930632566 -0.20372240465566302 -8.24148411710653e-17 4.50515447229093e-17 -8.24148411710653e-17 4.50515447229093e-17 0.979028825555336 -0.20372176793747931
12657404000.0 0.9770256432481371 -0.21312177841646807 -8.195801781051898e-17 4.583982346802246e-17 -8.195801781051898e-17 4.583982346802246e-17 0.9770257818464051 -0.21312114303197155
12658021333.333334 0.9749323549194888 -0.22250146815464802 -8.149366179755496e-17 4.6623481938803337e-17 -8.149366179755496e-17 4.6623481938803337e-17 0.9749324996105492 -0.22250083416239014
12658638666.666666 0.9727490214144209 -0.23186060755790536 -8.102181975017797e-17 4.7402448223647106e-17 -8.102181975017797e-17 4.7402448223647106e-17 0.9727491721843159 -0.23185997501630312
12659256000.0 0.970475844386614 -0.24119833221214712 -8.054253897222197e-17 4.817665088029515e-17 -8.054253897222197e-17 4.817665088029515e-17 0.9704760012208276 -0.2411977011794783
12659873333.333334 0.9681130337877568 -0.25051377968107447 -8.005586744864682e-17 4.8946018942348757e-17 -8.005586744864682e-17 4.8946018942348757e-17 0.9681131966712122 -0.25051315021547144
12660490666.666666 0.9656608078481538 -0.2598060895858375 -7.956185384076125e-17 4.971048192575632e-17 -7.956185384076125e-17 4.971048192575632e-17 0.9656609767652172 -0.25980546174528213
12661108000.0 0.963119393056497 -0.2690744036847748 -7.90605474813689e-17 5.0469969835274943e-17 -7.90605474813689e-17 5.0469969835274943e-17 0.9631195679909806 -0.2690737775270937
12661725333.333334 0.9604890241390539 -0.27831786595229796 -7.855199836988835e-17 5.122441317082985e-17 -7.855199836988835e-17 5.122441317082985e-17 0.9604892050742133 -0.278317241535156
12662342666.666666 0.9577699440379006 -0.28753562265825433 -7.803625716737567e-17 5.1973742933880623e-17 -7.803625716737567e-17 5.1973742933880623e-17 0.9577701309564413 -0.28753500003915067
12662960000.0 0.9549624038885255 -0.29672682244664206 -7.751337519151034e-17 5.271789063370206e-17 -7.751337519151034e-17 5.271789063370206e-17 0.954962596772601 -0.296726201682904
12663577333.333334 0.9520666629966263 -0.3058906164142694 -7.698340441151238e-17 5.3456788293628284e-17 -7.698340441151238e-17 5.3456788293628284e-17 0.9520668618278401 -0.30588999756304697
12664194666.666666 0.9490829888141661 -0.3150261581891314 -7.644639744300179e-17 5.419036845724386e-17 -7.644639744300179e-17 5.419036845724386e-17 0.9490831935735753 -0.3150255413073928
12664812000.0 0.9460116569146381 -0.32413260400869015 -7.590240754279942e-17 5.491856419452359e-17 -7.590240754279942e-17 5.491856419452359e-17 0.9460118675827549 -0.3241319891532163
12665429333.333334 0.9428529509676593 -0.3332091127976703 -7.535148860366759e-17 5.56413091079225e-17 -7.535148860366759e-17 5.56413091079225e-17 0.9428531675244506 -0.333208500025049
12666046666.666666 0.9396071627127779 -0.3422548462457135 -7.479369514900464e-17 5.635853733839871e-17 -7.479369514900464e-17 5.635853733839871e-17 0.9396073851376698 -0.34225423561233514
12666664000.0 0.9362745919324368 -0.351268968885075 -7.422908232744789e-17 5.707018357142738e-17 -7.422908232744789e-17 5.707018357142738e-17 0.9362748202043139 -0.35126836044712617
12667281333.333334 0.9328555464244147 -0.36025064816741 -7.365770590747729e-17 5.777618304288788e-17 -7.365770590747729e-17 5.777618304288788e-17 0.9328557805216271 -0.36025004198087046
12667898666.666666 0.9293503419733106 -0.36919905454094054 -7.307962227190701e-17 5.84764715449679e-17 -7.307962227190701e-17 5.84764715449679e-17 0.9293505818736681 -0.36919845066157503
12668516000.0 0.925759302321362 -0.37811336152706637 -7.249488841234589e-17 5.91709854319815e-17 -7.249488841234589e-17 5.91709854319815e-17 0.9257595480021438 -0.3781127600104221
12669133333.333334 0.9220827591386499 -0.3869927457964656 -7.190356192361689e-17 5.985966162611616e-17 -7.190356192361689e-17 5.985966162611616e-17 0.9220830105766021 -0.3869921466978658
12669750666.666666 0.9183210519923538 -0.39583638724539943 -7.130570099808945e-17 6.054243762316262e-17 -7.130570099808945e-17 6.054243762316262e-17 0.9183213091636938 -0.3958357906199389
12670368000.0 0.9144745283154331 -0.4046434690713526 -7.07013644199816e-17 6.121925149816015e-17 -7.07013644199816e-17 6.121925149816015e-17 0.9144747911958513 -0.4046428749738924
