! Parameters = {f0=12700.012000; bw=77.238000; Q=6100.000000; N=10; m_0_1=1.312608; m_1_1=0.924368; m_1_2=1.147420; m_2_2=0.923719; m_2_3=0.784383; m_2_8=0.002694; m_2_9=0.039398; m_3_3=0.921782; m_3_4=0.672912; m_3_7=0.003294; m_3_8=-0.093794; m_3_9=0.002694; m_4_4=0.918857; m_4_5=0.509247; m_4_6=0.006811; m_4_7=-0.114343; m_4_8=0.003294; m_5_5=0.919239; m_5_6=0.916602; m_5_7=0.006811; m_6_6=0.919238; m_6_7=0.509589; m_7_7=0.918871; m_7_8=0.673030; m_8_8=0.921780; m_8_9=0.784696; m_9_9=0.923714; m_9_10=1.148498; m_10_10=0.924358; m_10_11=1.313403}
!
! Created with skrf (http://scikit-rf.org).
# Hz S RI R 50.0 
!freq ReS11 ImS11 ReS21 ImS21 ReS12 ImS12 ReS22 ImS22
12607400000.0 0.9875528062460518 0.15728780904876216 -1.3351790045696738e-16 1.746465074775009e-17 -1.3351790045696738e-16 1.746465074775009e-17 0.987552697484512 0.15728849192129568
12608017333.333334 0.9893374639603598 0.14564127987729147 -1.3327506894489819e-16 1.904467449522366e-17 -1.3327506894489819e-16 1.904467449522366e-17 0.9893373632570868 0.1456419639503909
12608634666.666666 0.9909847752735066 0.13397453181828722 -1.330135506549907e-16 2.0621395670956375e-17 -1.330135506549907e-16 2.0621395670956375e-17 0.9909846826416909 0.13397521699687212
12609252000.0 0.992494511494885 0.12228918452725171 -1.327333897542342e-16 2.2194593398075248e-17 -1.327333897542342e-16 2.2194593398075248e-17 0.9924944269465956 0.12228987071609743
12609869333.333334 0.993866463032984 0.11058686024169788 -1.3243463301882792e-16 2.3764047382614433e-17 -1.3243463301882792e-16 2.3764047382614433e-17 0.9938663865791669 0.11058754734544889
12610486666.666666 0.9951004394244523 0.09886918355622189 -1.3211732982657625e-16 2.532953794428172e-17 -1.3211732982657625e-16 2.532953794428172e-17 0.9951003710749272 0.09886987147940489
12611104000.0 0.9961962693606057 0.08713778119634441 -1.3178153214889913e-16 2.6890846047246797e-17 -1.3178153214889913e-16 2.6890846047246797e-17 0.996196209124069 0.08713846984338193
12611721333.333334 0.9971538007111327 0.07539428179346971 -1.3142729454251589e-16 2.844775333063909e-17 -1.3142729454251589e-16 2.844775333063909e-17 0.9971537485951515 0.07539497106869296
12612338666.666666 0.9979729005452684 0.06364031565819392 -1.310546741407326e-16 3.00000421391224e-17 -1.310546741407326e-16 3.00000421391224e-17 0.9979728565562824 0.06364100546585631
12612956000.0 0.9986534551502332 0.05187751455411578 -1.3066373064438722e-16 3.1547495553260235e-17 -1.3066373064438722e-16 3.1547495553260235e-17 0.9986534192935537 0.0518782047984062
12613573333.333334 0.9991953700470062 0.040107511471531396 -1.302545263124433e-16 3.308989741975547e-17 -1.302545263124433e-16 3.308989741975547e-17 0.9991953423268145 0.04010820205658751
12614190666.666666 0.9995985700034582 0.028331940400419565 -1.2982712595220795e-16 3.462703238163632e-17 -1.2982712595220795e-16 3.462703238163632e-17 0.9995985504228071 0.028332631230341132
12614808000.0 0.9998629990447884 0.016552436103856042 -1.2938159690921083e-16 3.6158685908263257e-17 -1.2938159690921083e-16 3.6158685908263257e-17 0.9998629876055993 0.016553127082718187
12615425333.333334 0.9999886204612985 0.004770633890865925 -1.2891800905672223e-16 3.768464432522975e-17 -1.2891800905672223e-16 3.768464432522975e-17 0.9999886171643623 0.004771324922732476
12616042666.666666 0.9999754168134846 -0.007011830610487204 -1.2843643478491959e-16 3.920469484413052e-17 -1.2843643478491959e-16 3.920469484413052e-17 0.9999754216584622 -0.0070111396215503646
12616660000.0 0.9998233899344608 -0.01879332168019834 -1.2793694898970988e-16 4.071862559217555e-17 -1.2793694898970988e-16 4.071862559217555e-17 0.9998234029198831 -0.01879263083010999
12617277333.333334 0.999532560929705 -0.030572203733431034 -1.2741962906119052e-16 4.222622564170322e-17 -1.2741962906119052e-16 4.222622564170322e-17 0.9995325820529729 -0.030571513118081293
12617894666.666666 0.9991029701741296 -0.04234684154743809 -1.2688455487178195e-16 4.372728503949084e-17 -1.2688455487178195e-16 4.372728503949084e-17 0.9991029994315151 -0.04234615126267512
12618512000.0 0.9985346773064697 -0.05411560048891494 -1.2633180876399002e-16 4.52215948359923e-17 -1.2633180876399002e-16 4.52215948359923e-17 0.9985347146931154 -0.05411491063053166
12619129333.333334 0.9978277612210195 -0.06587684674041912 -1.2576147553785804e-16 4.6708947114329414e-17 -1.2576147553785804e-16 4.6708947114329414e-17 0.9978278067309393 -0.06587615740413978
12619746666.666666 0.9969823200566615 -0.07762894752764193 -1.2517364243804644e-16 4.818913501921252e-17 -1.2517364243804644e-16 4.818913501921252e-17 0.9969823736827437 -0.07762825880910906
12620364000.0 0.9959984711832449 -0.08937027134596726 -1.245683991405842e-16 4.9661952785667755e-17 -1.245683991405842e-16 4.9661952785667755e-17 0.9959985329172512 -0.08936958334072824
12620981333.333334 0.994876351185309 -0.10109918818674121 -1.2394583773930441e-16 5.11271957675505e-17 -1.2394583773930441e-16 5.11271957675505e-17 0.9948764210178765 -0.1010985009902351
12621598666.666666 0.9936161158431009 -0.11281406976384438 -1.2330605273190193e-16 5.2584660465992125e-17 -1.2330605273190193e-16 5.2584660465992125e-17 0.9936161937637435 -0.11281338347138857
12622216000.0 0.9922179401109555 -0.12451328973962747 -1.226491410056943e-16 5.4034144557586e-17 -1.226491410056943e-16 5.4034144557586e-17 0.9922180261080652 -0.12451260444640455
12622833333.333334 0.9906820180930151 -0.13619522395063421 -1.219752018230341e-16 5.547544692243901e-17 -1.219752018230341e-16 5.547544692243901e-17 0.9906821121538636 -0.13619453975167875
12623450666.666666 0.9890085630162772 -0.1478582506331349 -1.212843368064034e-16 5.690836767201844e-17 -1.212843368064034e-16 5.690836767201844e-17 0.9890086651270185 -0.14785756762332034
12624068000.0 0.987197807200989 -0.15950075064829894 -1.2057664992316758e-16 5.833270817684559e-17 -1.2057664992316758e-16 5.833270817684559e-17 0.9871979173466614 -0.15950006892232432
12624685333.333334 0.9852500020283843 -0.17112110770702982 -1.1985224747000845e-16 5.974827109399052e-17 -1.1985224747000845e-16 5.974827109399052e-17 0.9852501201929112 -0.17112042735940666
12625302666.666666 0.9831654179058302 -0.18271770859406897 -1.191112380570652e-16 6.115486039431707e-17 -1.191112380570652e-16 6.115486039431707e-17 0.9831655440720236 -0.18271702971910814
12625920000.0 0.9809443442292116 -0.19428894339240105 -1.183537325916852e-16 6.255228138967183e-17 -1.183537325916852e-16 6.255228138967183e-17 0.9809444783787751 -0.19428826608420002
12626537333.333334 0.9785870893428448 -0.20583320570624972 -1.17579844261951e-16 6.394034075969011e-17 -1.17579844261951e-16 6.394034075969011e-17 0.978587231456376 -0.20583253005867921
12627154666.666666 0.9760939804966152 -0.21734889288442477 -1.1678968851981448e-16 6.531884657855149e-17 -1.1678968851981448e-16 6.531884657855149e-17 0.976094130553607 -0.21734821899111575
12627772000.0 0.9734653638005246 -0.22883440624286655 -1.1598338306394512e-16 6.668760834147338e-17 -1.1598338306394512e-16 6.668760834147338e-17 0.9734655217793685 -0.228833734197197
12628389333.333334 0.9707016041767217 -0.24028815128622474 -1.1516104782229644e-16 6.804643699094883e-17 -1.1516104782229644e-16 6.804643699094883e-17 0.9707017700547136 -0.24028748118130758
12629006666.666666 0.9678030853087514 -0.251708537929634 -1.1432280493431157e-16 6.939514494286204e-17 -1.1432280493431157e-16 6.939514494286204e-17 0.9678032590620925 -0.25170786985830346
12629624000.0 0.9647702095883568 -0.26309398071915463 -1.1346877873287415e-16 7.073354611230082e-17 -1.1346877873287415e-16 7.073354611230082e-17 0.9647703911921558 -0.2630933147739532
12630241333.333334 0.9616033980595683 -0.2744428990520686 -1.1259909572592278e-16 7.206145593920693e-17 -1.1259909572592278e-16 7.206145593920693e-17 0.9616035874878484 -0.27444223532523515
12630858666.666666 0.9583030903603296 -0.2857537173960364 -1.1171388457780025e-16 7.337869141374642e-17 -1.1171388457780025e-16 7.337869141374642e-17 0.9583032875860297 -0.2857530559794925
12631476000.0 0.9548697446613313 -0.29702486550828716 -1.1081327609025013e-16 7.468507110153797e-17 -1.1081327609025013e-16 7.468507110153797e-17 0.9548699496563101 -0.2970242064936248
12632093333.333334 0.9513038376025271 -0.30825477865317247 -1.0989740318319152e-16 7.598041516854159e-17 -1.0989740318319152e-16 7.598041516854159e-17 0.9513040503375685 -0.3082541221316414
12632710666.666666 0.9476058642269584 -0.31944189781945087 -1.0896640087515226e-16 7.726454540578832e-17 -1.0896640087515226e-16 7.726454540578832e-17 0.9476060846717732 -0.31944124388194534
12633328000.0 0.943776337911879 -0.33058466993715 -1.0802040626341749e-16 7.853728525386405e-17 -1.0802040626341749e-16 7.853728525386405e-17 0.943776566035113 -0.3305840186741974
12633945333.333334 0.9398157902976976 -0.3416815480925558 -1.0705955850392446e-16 7.979845982710898e-17 -1.0705955850392446e-16 7.979845982710898e-17 0.9398160260669316 -0.34168089959430276
12634562666.666666 0.9357247712140223 -0.35273099174339473 -1.0608399879084224e-16 8.104789593761762e-17 -1.0608399879084224e-16 8.104789593761762e-17 0.9357250145957793 -0.35273034609959525
12635180000.0 0.9315038486033834 -0.36373146693254016 -1.050938703358961e-16 8.228542211895657e-17 -1.050938703358961e-16 8.228542211895657e-17 0.9315040995631342 -0.36373082423254394
12635797333.333334 0.9271536084423735 -0.3746814465010222 -1.040893183473902e-16 8.351086864966772e-17 -1.040893183473902e-16 8.351086864966772e-17 0.9271538669445402 -0.3746808068337615
12636414666.666666 0.9226746546603254 -0.38557941029995635 -1.0307049000898943e-16 8.472406757647007e-17 -1.0307049000898943e-16 8.472406757647007e-17 0.9226749206682848 -0.38557877375393296
12637032000.0 0.9180676090554514 -0.39642384540163517 -1.0203753445819865e-16 8.592485273724947e-17 -1.0203753445819865e-16 8.592485273724947e-17 0.9180678825315438 -0.39642321206490955
12637649333.333334 0.9133331112084997 -0.40721324630961475 -1.0099060276459922e-16 8.711305978375341e-17 -1.0099060276459922e-16 8.711305978375341e-17 0.9133333921140311 -0.4072126162697929
12638266666.666666 0.9084718183939947 -0.41794611516763847 -9.992984790781161e-17 8.828852620403732e-17 -9.992984790781161e-17 8.828852620403732e-17 0.9084721066892448 -0.41794548851186075
12638884000.0 0.9034844054889799 -0.4286209619676067 -9.88554247551959e-17 8.945109134464211e-17 -9.88554247551959e-17 8.945109134464211e-17 0.9034847011332054 -0.4286203387825347
12639501333.333334 0.8983715648793148 -0.4392363047564544 -9.776749003930669e-17 9.060059643249122e-17 -9.776749003930669e-17 9.060059643249122e-17 0.8983718678307558 -0.4392356851282593
12640118666.666666 0.8931340063636245 -0.4497906698417317 -9.666620233508824e-17 9.173688459651921e-17 -9.666620233508824e-17 9.173688459651921e-17 0.8931343165795134 -0.44979005385608334
12640736000.0 0.8877724570545538 -0.4602825919966271 -9.555172203677212e-17 9.285980088907356e-17 -9.555172203677212e-17 9.285980088907356e-17 0.8877727744911157 -0.46028197973868035
12641353333.333334 0.8822876612781732 -0.4707106146626655 -9.442421133465898e-17 9.396919230690058e-17 -9.442421133465898e-17 9.396919230690058e-17 0.882287985890637 -0.4707100062170501
12641970666.666666 0.8766803804703062 -0.4810732901526051 -9.328383419148765e-17 9.506490781202347e-17 -9.328383419148765e-17 9.506490781202347e-17 0.8766807122129081 -0.48107268560341293
12642588000.0 0.8709513930709979 -0.4913691798510574 -9.213075631868542e-17 9.614679835221051e-17 -9.213075631868542e-17 9.614679835221051e-17 0.8709517318969902 -0.49136857928183186
12643205333.333334 0.8651014944164258 -0.5015968544142593 -9.096514515233668e-17 9.721471688120204e-17 -9.096514515233668e-17 9.721471688120204e-17 0.8651018402780805 -0.5015962579079825
12643822666.666666 0.8591314966284266 -0.5117548939686005 -8.97871698289113e-17 9.826851837865104e-17 -8.97871698289113e-17 9.826851837865104e-17 0.8591318494770437 -0.5117543016076823
12644440000.0 0.8530422285018068 -0.5218418883076413 -8.85970011607862e-17 9.930805986975074e-17 -8.85970011607862e-17 9.930805986975074e-17 0.8530425882877224 -0.521841300173909
12645057333.333334 0.8468345353893327 -0.5318564370878152 -8.739481161153727e-17 1.0033320044456902e-16 -8.739481161153727e-17 1.0033320044456902e-16 0.8468349020619248 -0.5318558532625008
12645674666.666666 0.8405092790842872 -0.5417971500229818 -8.618077527098337e-17 1.0134380127710729e-16 -8.618077527098337e-17 1.0134380127710729e-16 0.8405096525919807 -0.5417965705867108
12646292000.0 0.834067337700774 -0.5516626470775018 -8.495506783001818e-17 1.0233972564404939e-16 -8.495506783001818e-17 1.0233972564404939e-16 0.8340677179910521 -0.5516620721102832
12646909333.333334 0.8275096055520037 -0.56145155865754 -8.371786655527104e-17 1.0332083894317206e-16 -8.371786655527104e-17 1.0332083894317206e-16 0.827509992571412 -0.5614509882387543
12647526666.666666 0.8208369930259819 -0.571162525801438 -8.246935026349133e-17 1.0428700871150214e-16 -8.246935026349133e-17 1.0428700871150214e-16 0.8208373867201381 -0.5711619600098268
12648144000.0 0.8140504264591372 -0.5807942003683494 -8.120969929575629e-17 1.0523810464313814e-16 -8.120969929575629e-17 1.0523810464313814e-16 0.8140508267727374 -0.5807936392820046
12648761333.333334 0.8071508480077693 -0.5903452452253279 -7.993909549148074e-17 1.0617399860675773e-16 -7.993909549148074e-17 1.0617399860675773e-16 0.8071512548845957 -0.5903446889216799
12649378666.666666 0.8001392155173196 -0.5998143344328651 -7.865772216222884e-17 1.0709456466280923e-16 -7.865772216222884e-17 1.0709456466280923e-16 0.8001396289002496 -0.5998137829886733
12649996000.0 0.7930165023892165 -0.6092001534292203 -7.736576406528358e-17 1.0799967908042218e-16 -7.736576406528358e-17 1.0799967908042218e-16 0.7930169222202292 -0.609199606920562
12650613333.333334 0.7857836974458363 -0.6185013992127774 -7.60634073770768e-17 1.0888922035395866e-16 -7.60634073770768e-17 1.0888922035395866e-16 0.785784123666021 -0.6185008577150365
12651230666.666666 0.7784418047933702 -0.6277167805227555 -7.475083966641884e-17 1.0976306921925525e-16 -7.475083966641884e-17 1.0976306921925525e-16 0.7784422373429363 -0.6277162441106143
12651848000.0 0.770991843682061 -0.6368450180189441 -7.342824986750105e-17 1.1062110866956981e-16 -7.342824986750105e-17 1.1062110866956981e-16 0.7709922825003439 -0.636844486766371
12652465333.333334 0.7634348483651071 -0.6458848444587931 -7.209582825277312e-17 1.1146322397116593e-16 -7.209582825277312e-17 1.1146322397116593e-16 0.7634352933905784 -0.6458843184390326
12653082666.666666 0.7557718679548885 -0.654835004873587 -7.075376640563392e-17 1.122893026785788e-16 -7.075376640563392e-17 1.122893026785788e-16 0.7557723191251651 -0.6548344841591514
12653700000.0 0.7480039662772295 -0.6636942567427759 -6.94022571928643e-17 1.1309923464960415e-16 -6.94022571928643e-17 1.1309923464960415e-16 0.7480044235290798 -0.6636937414054326
12654317333.333334 0.7401322217239477 -0.6724613701661869 -6.804149473704751e-17 1.138929120598593e-16 -6.804149473704751e-17 1.138929120598593e-16 0.7401326849933031 -0.6724608602769505
12654934666.666666 0.7321577271029631 -0.6811351280349852 -6.667167438866603e-17 1.1467022941710945e-16 -6.667167438866603e-17 1.1467022941710945e-16 0.7321581963249252 -0.6811346236641069
12655552000.0 0.7240815894865618 -0.6897143262006571 -6.529299269811947e-17 1.15431083575208e-16 -6.529299269811947e-17 1.15431083575208e-16 0.7240820645954132 -0.6897138274176159
12656169333.333334 0.7159049300579597 -0.6981977736419103 -6.390564738759517e-17 1.1617537374769657e-16 -6.390564738759517e-17 1.1617537374769657e-16 0.7159054109871714 -0.6981972805154013
12656786666.666666 0.7076288839553411 -0.7065842926303496 -6.250983732272531e-17 1.1690300152110032e-16 -6.250983732272531e-17 1.1690300152110032e-16 0.7076293706375821 -0.7065838052282768
12657404000.0 0.6992546001144445 -0.7148727188937912 -6.110576248414346e-17 1.176138708678568e-16 -6.110576248414346e-17 1.176138708678568e-16 0.6992550924815935 -0.714872237283258
12658021333.333334 0.6907832411090028 -0.7230619017779562 -5.969362393886866e-17 1.183078881589172e-16 -5.969362393886866e-17 1.183078881589172e-16 0.6907837390921546 -0.7230614260252544
12658638666.666666 0.6822159829894479 -0.7311507044061119 -5.827362381158797e-17 1.1898496217598537e-16 -5.827362381158797e-17 1.1898496217598537e-16 0.6822164865189256 -0.7311502345767151
12659256000.0 0.6735540151194402 -0.7391380038371009 -5.6845965255717e-17 1.1964500412345392e-16 -5.6845965255717e-17 1.1964500412345392e-16 0.673554524124802 -0.7391375399956521
12659873333.333334 0.6647985400109122 -0.7470226912210709 -5.5410852424424516e-17 1.202879276399457e-16 -5.5410852424424516e-17 1.202879276399457e-16 0.664799054420965 -0.7470222334313772
12660490666.666666 0.6559507731572218 -0.7548036719533466 -5.396849044148092e-17 1.2091364880953303e-16 -5.396849044148092e-17 1.2091364880953303e-16 0.6559512929000277 -0.754803220278368
12661108000.0 0.6470119428640635 -0.7624798658266869 -5.2519085371949506e-17 1.2152208617261922e-16 -5.2519085371949506e-17 1.2152208617261922e-16 0.6470124678669519 -0.7624794203285284
12661725333.333334 0.6379832900793337 -0.7700502071809101 -5.106284419283983e-17 1.221131607364355e-16 -5.106284419283983e-17 1.221131607364355e-16 0.6379838202689109 -0.7700497679208137
12662342666.666666 0.6288660682205944 -0.7775136450510584 -4.9599974763553845e-17 1.226867959852236e-16 -4.9599974763553845e-17 1.226867959852236e-16 0.6288666035227545 -0.7775132120893944
12662960000.0 0.6196615430011554 -0.7848691433132278 -4.813068579629257e-17 1.232429178900366e-16 -4.813068579629257e-17 1.232429178900366e-16 0.6196620833410889 -0.7848687167094854
12663577333.333334 0.6103709922544207 -0.7921156808283539 -4.6655186826297867e-17 1.2378145491820624e-16 -4.6655186826297867e-17 1.2378145491820624e-16 0.6103715375566264 -0.7921152606411344
12664194666.666666 0.6009957057563634 -0.799252251584082 -4.5173688182028854e-17 1.243023380424418e-16 -4.5173688182028854e-17 1.243023380424418e-16 0.6009962559446589 -0.79925183787109
12664812000.0 0.5915369850465546 -0.8062778648343543 -4.368640095522037e-17 1.2480550074957768e-16 -4.368640095522037e-17 1.2480550074957768e-16 0.5915375400440869 -0.8062774576523911
12665429333.333334 0.5819961432474346 -0.8131915452369913 -4.219353697084575e-17 1.252908790489645e-16 -4.219353697084575e-17 1.252908790489645e-16 0.5819967029766899 -0.8131911446419446
12666046666.666666 0.5723745048821272 -0.8199923329890066 -4.069530875700939e-17 1.25758411480494e-16 -4.069530875700939e-17 1.25758411480494e-16 0.572375069264943 -0.8199919390358453
12666664000.0 0.562673405690285 -0.8266792839600544 -3.9191929514691076e-17 1.262080391222838e-16 -3.9191929514691076e-17 1.262080391222838e-16 0.5626739746478605 -0.8266788967028201
12667281333.333334 0.5528941924430735 -0.833251469823206 -3.768361308751514e-17 1.2663970559796862e-16 -3.768361308751514e-17 1.2663970559796862e-16 0.5528947658959802 -0.8332510893150052
12667898666.666666 0.5430382227558276 -0.8397079781840863 -3.61705739313186e-17 1.2705335708366695e-16 -3.61705739313186e-17 1.2705335708366695e-16 0.54303880062402 -0.8397076044770818
12668516000.0 0.5331068648996692 -0.8460479127074658 -3.465302708371671e-17 1.2744894231456355e-16 -3.465302708371671e-17 1.2744894231456355e-16 0.5331074471024979 -0.8460475458528739
12669133333.333334 0.5231014976117495 -0.8522703932415803 -3.313118813361332e-17 1.2782641259112613e-16 -3.313118813361332e-17 1.2782641259112613e-16 0.523102084067971 -0.8522700332896603
12669750666.666666 0.5130235099036029 -0.8583745559404707 -3.160527319058003e-17 1.2818572178497546e-16 -3.160527319058003e-17 1.2818572178497546e-16 0.513024100531391 -0.8583742029405186
12670368000.0 0.502874300868386 -0.8643595533838598 -3.0075498854221114e-17 1.2852682634437818e-16 -3.0075498854221114e-17 1.2852682634437818e-16 0.5028748955853428 -0.8643592073842006
