! Parameters = {f0=12700.012000; bw=77.238000; Q=6100.000000; N=10; m_0_1=1.236131; m_1_1=-0.222779; m_1_2=1.070943; m_2_2=-0.223428; m_2_3=0.707906; m_2_8=-0.001130; m_2_9=0.035574; m_3_3=-0.225365; m_3_4=0.596435; m_3_7=-0.000530; m_3_8=-0.097618; m_3_9=-0.001130; m_4_4=-0.228290; m_4_5=0.432770; m_4_6=0.002987; m_4_7=-0.118167; m_4_8=-0.000530; m_5_5=-0.227908; m_5_6=0.840125; m_5_7=0.002987; m_6_6=-0.227909; m_6_7=0.433112; m_7_7=-0.228276; m_7_8=0.596553; m_8_8=-0.225367; m_8_9=0.708219; m_9_9=-0.223433; m_9_10=1.072021; m_10_10=-0.222789; m_10_11=1.236926}
!
! Created with skrf (http://scikit-rf.org).
# Hz S RI R 50.0 
!freq ReS11 ImS11 ReS21 ImS21 ReS12 ImS12 ReS22 ImS22
12607400000.0 -0.7222898472775677 0.6915904687888501 4.6642864747896036e-17 -8.163402962007009e-17 4.6642864747896036e-17 -8.163402962007009e-17 -0.7222902977294806 0.6915899983412797
12608017333.333334 -0.7156720917146232 0.6984364374376884 4.584720786209291e-17 -8.206243379438002e-17 4.584720786209291e-17 -8.206243379438002e-17 -0.715672546603232 0.6984359713232687
12608634666.666666 -0.7089894519077937 0.7052190844576732 4.504762771354156e-17 -8.248309012685685e-17 4.504762771354156e-17 -8.248309012685685e-17 -0.7089899111914251 0.7052186227182374
12609252000.0 -0.7022425337184754 0.7119377949206583 4.4244199680282047e-17 -8.289596280437205e-17 4.4244199680282047e-17 -8.289596280437205e-17 -0.702242997355061 0.7119373375976374
12609869333.333334 -0.6954319488355859 0.7185919596951893 4.343699946610804e-17 -8.33010167464984e-17 4.343699946610804e-17 -8.33010167464984e-17 -0.6954324167826678 0.7185915068296113
12610486666.666666 -0.688558314720333 0.7251809755015142 4.26261030934628e-17 -8.369821760845531e-17 4.26261030934628e-17 -8.369821760845531e-17 -0.6885587869350659 0.7251805271339979
12611104000.0 -0.6816222545499293 0.7317042449665749 4.1811586896270426e-17 -8.408753178400442e-17 4.1811586896270426e-17 -8.408753178400442e-17 -0.6816227309890852 0.7317038011373277
12611721333.333334 -0.6746243971613978 0.7381611766778677 4.099352751280067e-17 -8.446892640824577e-17 4.099352751280067e-17 -8.446892640824577e-17 -0.6746248777813709 0.7381607374266822
12612338666.666666 -0.6675653769943585 0.7445511852372625 4.017200187845379e-17 -8.484236936037232e-17 4.017200187845379e-17 -8.484236936037232e-17 -0.667565861751168 0.7445507506035121
12612956000.0 -0.6604458340335059 0.7508736913140713 3.934708721853234e-17 -8.520782926634794e-17 3.934708721853234e-17 -8.520782926634794e-17 -0.6604463228827997 0.7508732613367066
12613573333.333334 -0.6532664137507752 0.7571281216974008 3.8518861041035e-17 -8.556527550149404e-17 3.8518861041035e-17 -8.556527550149404e-17 -0.6532669066478344 0.7571276964149461
12614190666.666666 -0.6460277670466117 0.7633139093483103 3.7687401129357254e-17 -8.591467819303929e-17 3.7687401129357254e-17 -8.591467819303929e-17 -0.646028263946356 0.7633134887988622
12614808000.0 -0.6387305501910684 0.7694304934511295 3.685278553501773e-17 -8.625600822257607e-17 3.685278553501773e-17 -8.625600822257607e-17 -0.6387310510480572 0.7694300776723493
12615425333.333334 -0.631375424764279 0.7754773194643148 3.601509257034568e-17 -8.658923722845402e-17 3.601509257034568e-17 -8.658923722845402e-17 -0.6313759295327193 0.77547690849343
12616042666.666666 -0.6239630575964853 0.7814538391707335 3.51744008011498e-17 -8.691433760810222e-17 3.51744008011498e-17 -8.691433760810222e-17 -0.6239635662302329 0.7814534330445306
12616660000.0 -0.6164941207075753 0.7873595107273594 3.4330789039366316e-17 -8.723128252027977e-17 3.4330789039366316e-17 -8.723128252027977e-17 -0.6164946331601404 0.7873591094821832
12617277333.333334 -0.608969291246137 0.793193798714419 3.3484336335684986e-17 -8.754004588725671e-17 3.3484336335684986e-17 -8.754004588725671e-17 -0.6089698074706887 0.7931934023861678
12617894666.666666 -0.6013892514281791 0.7989561741838455 3.263512197217074e-17 -8.784060239691769e-17 3.263512197217074e-17 -8.784060239691769e-17 -0.6013897713775485 0.7989557828079683
12618512000.0 -0.5937546884750307 0.8046461147074234 3.178322545482693e-17 -8.813292750480901e-17 3.178322545482693e-17 -8.813292750480901e-17 -0.5937552121017159 0.8046457283189167
12619129333.333334 -0.5860662945513536 0.8102631044239139 3.0928726506206004e-17 -8.84169974360905e-17 3.0928726506206004e-17 -8.84169974360905e-17 -0.5860668218075239 0.8102627230573185
12619746666.666666 -0.5783247667021869 0.8158066340859784 3.0071705057930194e-17 -8.869278918744147e-17 3.0071705057930194e-17 -8.869278918744147e-17 -0.5783252975396876 0.8158062577753769
12620364000.0 -0.5705308067896555 0.8212762011064102 2.921224124324597e-17 -8.896028052887637e-17 2.921224124324597e-17 -8.896028052887637e-17 -0.5705313411600119 0.8212758298854234
12620981333.333334 -0.5626851214296869 0.8266713096034551 2.8350415389560895e-17 -8.921945000549114e-17 2.8350415389560895e-17 -8.921945000549114e-17 -0.5626856592841083 0.8266709435052387
12621598666.666666 -0.5547884219276219 0.8319914704459976 2.7486308010929385e-17 -8.947027693914706e-17 2.7486308010929385e-17 -8.947027693914706e-17 -0.5547889632170069 0.8319911095032396
12622216000.0 -0.5468414242138664 0.8372362012978074 2.6619999800560055e-17 -8.971274143007193e-17 2.6619999800560055e-17 -8.971274143007193e-17 -0.5468419688888078 0.8372358455427271
12622833333.333334 -0.5388448487789385 0.8424050266613056 2.5751571623291593e-17 -8.994682435839401e-17 2.5751571623291593e-17 -8.994682435839401e-17 -0.5388453967897258 0.8424046761256468
12623450666.666666 -0.5307994206082398 0.8474974779206074 2.4881104508071028e-17 -9.0172507385599e-17 2.4881104508071028e-17 -9.0172507385599e-17 -0.5307999719048649 0.8474971326356376
12624068000.0 -0.5227058691162086 0.8525130933840853 2.4008679640396805e-17 -9.038977295592078e-17 2.4008679640396805e-17 -9.038977295592078e-17 -0.5227064236483716 0.8525127533805946
12624685333.333334 -0.5145649280801655 0.8574514183262439 2.3134378354760472e-17 -9.059860429765623e-17 2.3134378354760472e-17 -9.059860429765623e-17 -0.514565485797277 0.857451083634539
12625302666.666666 -0.5063773355740292 0.862312005028795 2.2258282127106148e-17 -9.079898542440055e-17 2.2258282127106148e-17 -9.079898542440055e-17 -0.5063778964252166 0.8623116756786988
12625920000.0 -0.49814383390103667 0.8670944128214696 2.1380472567217704e-17 -9.099090113622424e-17 2.1380472567217704e-17 -9.099090113622424e-17 -0.4981443978351485 0.8670940888423186
12626537333.333334 -0.4898651695267872 0.8717982081217681 2.050103141115883e-17 -9.117433702076286e-17 2.050103141115883e-17 -9.117433702076286e-17 -0.4898657364923965 0.8717978895424071
12627154666.666666 -0.4815420930114185 0.8764229644743553 1.9620040513678372e-17 -9.134927945423929e-17 1.9620040513678372e-17 -9.134927945423929e-17 -0.4815426629568292 0.876422651323138
12627772000.0 -0.47317535894141083 0.880968262589806 1.8737581840581753e-17 -9.151571560241849e-17 1.8737581840581753e-17 -9.151571560241849e-17 -0.47317593181466205 0.8809679548945919
12628389333.333334 -0.464765725861523 0.8854336903824275 1.785373746116021e-17 -9.167363342147563e-17 1.785373746116021e-17 -9.167363342147563e-17 -0.4647663016103933 0.8854333881705782
12629006666.666666 -0.45631395620564763 0.8898188430078244 1.696858954053519e-17 -9.182302165880629e-17 1.696858954053519e-17 -9.182302165880629e-17 -0.45631453477765965 0.8898185463062013
12629624000.0 -0.4478208162279861 0.894123322899439 1.608222033206474e-17 -9.196386985375027e-17 1.608222033206474e-17 -9.196386985375027e-17 -0.44782139757041156 0.8941230317344008
12630241333.333334 -0.43928707593332683 0.8983467398047272 1.5194712169700416e-17 -9.209616833825058e-17 1.5194712169700416e-17 -9.209616833825058e-17 -0.43928765999319225 0.8983464542021297
12630858666.666666 -0.43071350900754046 0.9024887108203873 1.430614746037101e-17 -9.221990823743343e-17 1.430614746037101e-17 -9.221990823743343e-17 -0.43071409573163105 0.9024884308055793
12631476000.0 -0.4221008927470545 0.9065488604272647 1.3416608676318074e-17 -9.233508147012166e-17 1.3416608676318074e-17 -9.233508147012166e-17 -0.4221014820819186 0.9065485860250849
12632093333.333334 -0.413450007988738 0.910526820524221 1.2526178347491288e-17 -9.244168074926547e-17 1.2526178347491288e-17 -9.244168074926547e-17 -0.4134505998806924 0.9105265517589968
12632710666.666666 -0.4047616390389564 0.9144222304615803 1.1634939053894272e-17 -9.253969958230655e-17 1.1634939053894272e-17 -9.253969958230655e-17 -0.4047622334340919 0.9144219673571269
12633328000.0 -0.39603657360233646 0.9182347370738891 1.0742973417918256e-17 -9.262913227146995e-17 1.0742973417918256e-17 -9.262913227146995e-17 -0.39603717044652237 0.9182344796535062
12633945333.333334 -0.3872756027105834 0.9219639947118259 9.850364096737842e-18 -9.270997391397386e-17 9.850364096737842e-18 -9.270997391397386e-17 -0.3872762019494717 0.9219637429982946
12634562666.666666 -0.37847952065063467 0.9256096652735967 8.957193774643577e-18 -9.278222040217515e-17 8.957193774643577e-18 -9.278222040217515e-17 -0.37848012222966565 0.9256094192891786
12635180000.0 -0.3696491248926742 0.9291714182355773 8.063545155403797e-18 -9.284586842363648e-17 8.063545155403797e-18 -9.284586842363648e-17 -0.36964972875708163 0.9291711780020132
12635797333.333334 -0.36078521601780644 0.9326489306822896 7.169500954619838e-18 -9.290091546112173e-17 7.169500954619838e-18 -9.290091546112173e-17 -0.36078582211262217 0.9326486962207968
12636414666.666666 -0.35188859764557945 0.9360418873356369 6.275143892096336e-18 -9.294735979251678e-17 6.275143892096336e-18 -9.294735979251678e-17 -0.35188920591563844 0.9360416586669068
12637032000.0 -0.34296007636096837 0.9393499805835482 5.380556684187691e-18 -9.29852004906788e-17 5.380556684187691e-18 -9.29852004906788e-17 -0.3429606867509139 0.9393497577277456
12637649333.333334 -0.334000461641355 0.942572910507827 4.485822036174279e-18 -9.30144374232105e-17 4.485822036174279e-18 -9.30144374232105e-17 -0.33400107409564334 0.9425726934845872
12638266666.666666 -0.32501056578311177 0.9457103849113507 3.591022634629422e-18 -9.303507125216174e-17 3.591022634629422e-18 -9.303507125216174e-17 -0.32501118024601783 0.9457101737397794
12638884000.0 -0.31599120382795853 0.9487621193445659 2.6962411397937594e-18 -9.304710343365829e-17 2.6962411397937594e-18 -9.304710343365829e-17 -0.31599182024358013 0.9487619140432344
12639501333.333334 -0.30694319348904076 0.9517278371312795 1.8015601779523354e-18 -9.305053621745697e-17 1.8015601779523354e-18 -9.305053621745697e-17 -0.30694381180130476 0.9517276377182279
12640118666.666666 -0.29786735507698503 0.9546072693936888 9.070623338389806e-19 -9.304537264642761e-17 9.070623338389806e-19 -9.304537264642761e-17 -0.29786797522965136 0.9546070758864198
12640736000.0 -0.2887645114249853 0.9574001550769263 1.2830142976095024e-20 -9.303161655596283e-17 1.2830142976095024e-20 -9.303161655596283e-17 -0.2887651333616528 0.9573999674924063
12641353333.333334 -0.2796354878150166 0.9601062409724722 -8.810539158458259e-19 -9.300927257331391e-17 -8.810539158458259e-19 -9.300927257331391e-17 -0.27963611147912754 0.9601060593271281
12641970666.666666 -0.2704811119023356 0.9627252817413233 -1.7745074282259157e-18 -9.29783461168544e-17 -1.7745074282259157e-18 -9.29783461168544e-17 -0.2704817372371812 0.9627251060510421
12642588000.0 -0.261302213640741 0.9652570399361411 -2.6674480517065458e-18 -9.293884339527104e-17 -2.6674480517065458e-18 -9.293884339527104e-17 -0.2613028405894674 0.9652568702162702
12643205333.333334 -0.25209962520730417 0.967701286022794 -3.559793523349074e-18 -9.289077140668184e-17 -3.559793523349074e-18 -9.289077140668184e-17 -0.25210025371291567 0.967701122288136
12643822666.666666 -0.24287418092680943 0.9700577984011906 -4.451461667307198e-18 -9.283413793768106e-17 -4.451461667307198e-18 -9.283413793768106e-17 -0.24287481093217525 0.970057640666004
12644440000.0 -0.23362671719625136 0.972326363425335 -5.342370402365563e-18 -9.27689515623134e-17 -5.342370402365563e-18 -9.27689515623134e-17 -0.23362734864411036 0.9723262117033344
12645057333.333334 -0.22435807240897776 0.9745067754227065 -6.232437749482545e-18 -9.269522164097469e-17 -6.232437749482545e-18 -9.269522164097469e-17 -0.2243587052419436 0.9745066297270597
12645674666.666666 -0.21506908687868018 0.9765988367129074 -7.121581839318006e-18 -9.261295831924092e-17 -7.121581839318006e-18 -9.261295831924092e-17 -0.21506972103924651 0.9765986970562343
12646292000.0 -0.20576060276301433 0.9786023576256266 -8.00972091976375e-18 -9.252217252662342e-17 -8.00972091976375e-18 -9.252217252662342e-17 -0.20576123819356007 0.9786022240199985
12646909333.333334 -0.19643346398760897 0.9805171565177538 -8.896773363420808e-18 -9.24228759752562e-17 -8.896773363420808e-18 -9.24228759752562e-17 -0.19643410063040367 0.9805170289746931
12647526666.666666 -0.18708851616927746 0.9823430597899139 -9.782657675096417e-18 -9.231508115850775e-17 -9.782657675096417e-18 -9.231508115850775e-17 -0.18708915396648615 0.9823429383203902
12648144000.0 -0.17772660653937894 0.9840799019021935 -1.0667292499283283e-17 -9.219880134952228e-17 -1.0667292499283283e-17 -9.219880134952228e-17 -0.17772724543306775 0.9840797865166259
12648761333.333334 -0.16834858386711796 0.9857275253891258 -1.1550596627601999e-17 -9.2074050599691e-17 -1.1550596627601999e-17 -9.2074050599691e-17 -0.16834922379925946 0.9857274160973819
12649378666.666666 -0.15895529838259492 0.987285780873975 -1.2432489006240162e-17 -9.194084373705167e-17 -1.2432489006240162e-17 -9.194084373705167e-17 -0.15895593929507298 0.9872856776853676
12649996000.0 -0.14954760169958145 0.9887545270822974 -1.3312888743387338e-17 -9.179919636461453e-17 -1.3312888743387338e-17 -9.179919636461453e-17 -0.14954824353419688 0.9887544300055857
12650613333.333334 -0.1401263467383958 0.9901336308547366 -1.4191715116631235e-17 -9.164912485862054e-17 -1.4191715116631235e-17 -9.164912485862054e-17 -0.14012698943687152 0.9901335398981254
12651230666.666666 -0.13069238764871635 0.991422967159079 -1.5068887580332887e-17 -9.149064636672961e-17 -1.5068887580332887e-17 -9.149064636672961e-17 -0.13069303115270245 0.9914228823302159
12651848000.0 -0.12124657973174786 0.9926224191016376 -1.5944325773018897e-17 -9.132377880613182e-17 -1.5944325773018897e-17 -9.132377880613182e-17 -0.12124722398282729 0.9926223404076155
12652465333.333334 -0.11178977936310121 0.9937318779377984 -1.681794952470458e-17 -9.114854086159745e-17 -1.681794952470458e-17 -9.114854086159745e-17 -0.11179042430279484 0.9937318053851527
12653082666.666666 -0.10232284391504012 0.9947512430818933 -1.7689678864217325e-17 -9.096495198345309e-17 -1.7689678864217325e-17 -9.096495198345309e-17 -0.10232348948481215 0.9947511766766026
12653700000.0 -0.09284663167849588 0.9956804221163497 -1.8559434026537437e-17 -9.077303238548013e-17 -1.8559434026537437e-17 -9.077303238548013e-17 -0.09284727781975899 0.9956803618638337
12654317333.333334 -0.0833620017856483 0.996519330800022 -1.942713546002933e-17 -9.05728030427611e-17 -1.942713546002933e-17 -9.05728030427611e-17 -0.08336264843976918 0.9965192767051433
12654934666.666666 -0.07386981413175282 0.9972678930758649 -2.029270383373802e-17 -9.036428568943927e-17 -2.029270383373802e-17 -9.036428568943927e-17 -0.07387046124005728 0.997267845142926
12655552000.0 -0.06437092929718007 0.9979260410778199 -2.1156060044623448e-17 -9.01475028164159e-17 -2.1156060044623448e-17 -9.01475028164159e-17 -0.06437157680095866 0.9979259993105664
12656169333.333334 -0.0548662084696495 0.9984937151369555 -2.2017125224750818e-17 -8.992247766898472e-17 -2.2017125224750818e-17 -8.992247766898472e-17 -0.05486685631016243 0.9984936795385706
12656786666.666666 -0.04535651336586841 0.9989708637868899 -2.2875820748504805e-17 -8.968923424438523e-17 -2.2875820748504805e-17 -8.968923424438523e-17 -0.045357161484351295 0.9989708343600012
12657404000.0 -0.03584270615354936 0.9993574437684568 -2.3732068239740342e-17 -8.944779728929728e-17 -2.3732068239740342e-17 -8.944779728929728e-17 -0.03584335449121818 0.9993574205151284
12658021333.333334 -0.026325649373187075 0.9996534200336205 -2.4585789578925477e-17 -8.919819229726294e-17 -2.4585789578925477e-17 -8.919819229726294e-17 -0.026326297871243746 0.9996534029553585
12658638666.666666 -0.016806205860001144 0.9998587657486562 -2.5436906910239963e-17 -8.894044550604536e-17 -2.5436906910239963e-17 -8.894044550604536e-17 -0.016806854459638792 0.9998587548464065
12659256000.0 -0.007285238665425507 0.9999734622965855 -2.6285342648684684e-17 -8.867458389490901e-17 -2.6285342648684684e-17 -8.867458389490901e-17 -0.007285887307833781 0.9999734575707354
12659873333.333334 0.002236389020881772 0.9999974992788638 -2.7131019487112796e-17 -8.840063518184717e-17 -2.7131019487112796e-17 -8.840063518184717e-17 0.0022357403945113905 0.9999975007292381
12660490666.666666 0.011757813949297001 0.9999308745163173 -2.7973860403267824e-17 -8.811862782073228e-17 -2.7973860403267824e-17 -8.811862782073228e-17 0.011757165397765827 0.9999308821421828
12661108000.0 0.021278172888778934 0.9997735940493471 -2.881378866679267e-17 -8.782859099839897e-17 -2.881378866679267e-17 -8.782859099839897e-17 0.02127752447087576 0.9997736078494099
12661725333.333334 0.03079660270470474 0.999525672137381 -2.9650727846173763e-17 -8.753055463167166e-17 -2.9650727846173763e-17 -8.753055463167166e-17 0.030795954479200485 0.9995256921097871
12662342666.666666 0.04031224043754967 0.9991871312575736 -3.048460181570521e-17 -8.722454936431045e-17 -3.048460181570521e-17 -8.722454936431045e-17 0.04031159246319216 0.9991871573999117
12662960000.0 0.04982422338081227 0.9987580021027792 -3.1315334762384284e-17 -8.691060656390266e-17 -3.1315334762384284e-17 -8.691060656390266e-17 0.049823575716320706 0.9987580344120761
12663577333.333334 0.05933168915937083 0.9982383235787587 -3.214285119279038e-17 -8.658875831868392e-17 -3.214285119279038e-17 -8.658875831868392e-17 0.05933104186343076 0.9982383620514862
12664194666.666666 0.06883377580764 0.9976281428006623 -3.2967075939929475e-17 -8.625903743429543e-17 -3.2967075939929475e-17 -8.625903743429543e-17 0.0688331289388977 0.9976281874327303
12664812000.0 0.07832962184771787 0.9969275150887491 -3.378793417004551e-17 -8.592147743047535e-17 -3.378793417004551e-17 -8.592147743047535e-17 0.07832897546477528 0.9969275658755116
12665429333.333334 0.08781836636751793 0.9961365039633748 -3.4605351389401055e-17 -8.557611253768543e-17 -3.4605351389401055e-17 -8.557611253768543e-17 0.08781772052892718 0.9961365608996273
12666046666.666666 0.09729914909867932 0.9952551811392434 -3.541925345100928e-17 -8.522297769367889e-17 -3.541925345100928e-17 -8.522297769367889e-17 0.09729850386293742 0.9952552442192243
12666664000.0 0.10677111049487158 0.9942836265188751 -3.6229566561367525e-17 -8.486210853998917e-17 -3.6229566561367525e-17 -8.486210853998917e-17 0.10677046592041536 0.9942836957362677
12667281333.333334 0.11623339180932728 0.9932219281854048 -3.703621728710753e-17 -8.4493541418376e-17 -3.703621728710753e-17 -8.4493541418376e-17 0.11623274795452779 0.9932220035333355
12667898666.666666 0.12568513517298 0.9920701823945637 -3.783913256164329e-17 -8.411731336719297e-17 -3.783913256164329e-17 -8.411731336719297e-17 0.12568449209613744 0.9920702638656044
12668516000.0 0.1351254836722405 0.9908284935659534 -3.863823969178265e-17 -8.373346211769286e-17 -3.863823969178265e-17 -8.373346211769286e-17 0.13512484143157874 0.9908285811521205
12669133333.333334 0.14455358142643218 0.9894969742736084 -3.9433466364268424e-17 -8.334202609028545e-17 -3.9433466364268424e-17 -8.334202609028545e-17 0.14455294008009367 0.9894970679663657
12669750666.666666 0.15396857366566896 0.9880757452357556 -4.0224740652329384e-17 -8.294304439071093e-17 -4.0224740652329384e-17 -8.294304439071093e-17 0.15396793327170946 0.9880758450260141
12670368000.0 0.16336960680823764 0.986564935303884 -4.1011991022159756e-17 -8.253655680616724e-17 -4.1011991022159756e-17 -8.253655680616724e-17 0.16336896742462087 0.9865650411820028
