! Parameters = {f0=12700.012000; bw=77.238000; Q=6100.000000; N=10; m_0_1=1.264760; m_1_1=0.206651; m_1_2=1.099572; m_2_2=0.206002; m_2_3=0.736535; m_2_8=0.000302; m_2_9=0.037006; m_3_3=0.204065; m_3_4=0.625064; m_3_7=0.000902; m_3_8=-0.096186; m_3_9=0.000302; m_4_4=0.201140; m_4_5=0.461399; m_4_6=0.004419; m_4_7=-0.116735; m_4_8=0.000902; m_5_5=0.201522; m_5_6=0.868754; m_5_7=0.004419; m_6_6=0.201521; m_6_7=0.461741; m_7_7=0.201154; m_7_8=0.625182; m_8_8=0.204063; m_8_9=0.736848; m_9_9=0.205997; m_9_10=1.100650; m_10_10=0.206641; m_10_11=1.265555}
!
! Created with skrf (http://scikit-rf.org).
# Hz S RI R 50.0 
!freq ReS11 ImS11 ReS21 ImS21 ReS12 ImS12 ReS22 ImS22
12607400000.0 -0.7036625174924942 -0.7105343492583245 9.45714055889825e-17 5.19410085831909e-17 9.45714055889825e-17 5.19410085831909e-17 -0.7036620440205366 -0.7105348181508532
12608017333.333334 -0.7109914080757168 -0.7032006951378343 9.50907323841556e-17 5.093930271889341e-17 9.50907323841556e-17 5.093930271889341e-17 -0.710990939513556 -0.7032011688908492
12608634666.666666 -0.7182438705505054 -0.6957914503760841 9.559945769282018e-17 4.993241896202421e-17 9.559945769282018e-17 4.993241896202421e-17 -0.7182434069480251 -0.6957919289381841
12609252000.0 -0.7254191253125519 -0.6883074114308212 9.609753004786103e-17 4.89204694232076e-17 9.609753004786103e-17 4.89204694232076e-17 -0.7254186667190997 -0.6883078947500956
12609869333.333334 -0.7325164010570825 -0.6807493827997227 9.658489916681002e-17 4.7903566722896387e-17 9.658489916681002e-17 4.7903566722896387e-17 -0.7325159475214632 -0.6807498708237547
12610486666.666666 -0.7395349348616114 -0.673118176934078 9.706151595686518e-17 4.688182397888827e-17 9.706151595686518e-17 4.688182397888827e-17 -0.7395344864320788 -0.6731186696099482
12611104000.0 -0.7464739722681025 -0.6654146141512857 9.752733251980731e-17 4.5855354793732317e-17 9.752733251980731e-17 4.5855354793732317e-17 -0.746473528992359 -0.6654151114255813
12611721333.333334 -0.7533327673639207 -0.657639522546844 9.798230215674388e-17 4.4824273242173234e-17 9.798230215674388e-17 4.4824273242173234e-17 -0.7533323292891096 -0.6576400243656634
12612338666.666666 -0.7601105828621272 -0.6497937379052079 9.842637937276379e-17 4.3788693858454643e-17 9.842637937276379e-17 4.3788693858454643e-17 -0.760110150034827 -0.6497942442141649
12612956000.0 -0.7668066901807676 -0.6418781036099 9.885951988143406e-17 4.274873162362966e-17 9.885951988143406e-17 4.274873162362966e-17 -0.7668062626469897 -0.6418786143541325
12613573333.333334 -0.7734203695209539 -0.633893470553134 9.928168060915238e-17 4.1704501952853294e-17 9.928168060915238e-17 4.1704501952853294e-17 -0.7734199473261358 -0.6338939856773078
12614190666.666666 -0.7799509099445328 -0.6258406970440005 9.969281969939909e-17 4.0656120682553473e-17 9.969281969939909e-17 4.0656120682553473e-17 -0.7799504931335338 -0.6258412164923167
12614808000.0 -0.7863976094503619 -0.6177206487163773 1.0009289651682467e-16 3.96037040576316e-17 1.0009289651682467e-16 3.96037040576316e-17 -0.7863971980674573 -0.6177211724325766
12615425333.333334 -0.7927597750497337 -0.6095341984359215 1.0048187165121608e-16 3.85473687185894e-17 1.0048187165121608e-16 3.85473687185894e-17 -0.7927593691386127 -0.6095347263632926
12616042666.666666 -0.7990367228409788 -0.6012822262061084 1.0085970692132018e-16 3.748723168863778e-17 1.0085970692132018e-16 3.748723168863778e-17 -0.7990363224447369 -0.6012827582874924
12616660000.0 -0.8052277780829266 -0.5929656190737024 1.0122636537854222e-16 3.642341036074011e-17 1.0122636537854222e-16 3.642341036074011e-17 -0.8052273832440622 -0.592966155251499
12617277333.333334 -0.8113322752674003 -0.5845852710334468 1.0158181131049879e-16 3.5356022484643015e-17 1.0158181131049879e-16 3.5356022484643015e-17 -0.8113318860278118 -0.5845858112496221
12617894666.666666 -0.8173495581907805 -0.5761420829319459 1.0192601024442964e-16 3.4285186153890915e-17 1.0192601024442964e-16 3.4285186153890915e-17 -0.8173491745917587 -0.5761426271280368
12618512000.0 -0.8232789800246683 -0.5676369623706398 1.022589289504967e-16 3.321101979273556e-17 1.022589289504967e-16 3.321101979273556e-17 -0.8232786021068942 -0.5676375104877609
12619129333.333334 -0.8291199033851412 -0.5590708236086366 1.0258053544491188e-16 3.2133642143115975e-17 1.0258053544491188e-16 3.2133642143115975e-17 -0.8291195311886816 -0.5590713755874875
12619746666.666666 -0.8348717004015305 -0.5504445874640632 1.0289079899295665e-16 3.1053172251521766e-17 1.0289079899295665e-16 3.1053172251521766e-17 -0.8348713339658326 -0.5504451432449339
12620364000.0 -0.8405337527838589 -0.5417591812151482 1.03189690111848e-16 2.996972945587465e-17 1.03189690111848e-16 2.996972945587465e-17 -0.8405333921477478 -0.5417597407379263
12620981333.333334 -0.8461054518891222 -0.5330155385008312 1.0347718057346911e-16 2.888343337238079e-17 1.0347718057346911e-16 2.888343337238079e-17 -0.8461050970907942 -0.5330161017050068
12621598666.666666 -0.8515861987869585 -0.5242145992200178 1.0375324340696792e-16 2.779440388233102e-17 1.0375324340696792e-16 2.779440388233102e-17 -0.8515858498639814 -0.5242151660446932
12622216000.0 -0.8569754043238983 -0.5153573094307642 1.0401785290121068e-16 2.6702761118903958e-17 1.0401785290121068e-16 2.6702761118903958e-17 -0.8569750613132021 -0.5153578798146566
12622833333.333334 -0.8622724891867479 -0.506444621248479 1.0427098460709742e-16 2.5608625453943758e-17 1.0427098460709742e-16 2.5608625453943758e-17 -0.8622721521246247 -0.50644519512993
12623450666.666666 -0.8674768839647512 -0.4974774927437737 1.0451261533974225e-16 2.4512117484705236e-17 1.0451261533974225e-16 2.4512117484705236e-17 -0.8674765528868499 -0.4974780700607548
12624068000.0 -0.8725880292109578 -0.488456887839206 1.0474272318051318e-16 2.3413358020582387e-17 1.0474272318051318e-16 2.3413358020582387e-17 -0.8725877041522804 -0.4884574685293252
12624685333.333334 -0.8776053755023272 -0.47938377620570877 1.0496128747893404e-16 2.2312468069812904e-17 1.0496128747893404e-16 2.2312468069812904e-17 -0.8776050564972264 -0.4793843602062184
12625302666.666666 -0.8825283834986122 -0.47025913315867934 1.051682888544366e-16 2.1209568826216974e-17 1.051682888544366e-16 2.1209568826216974e-17 -0.882528070580785 -0.47025972040648123
12625920000.0 -0.8873565240006213 -0.4610839395526151 1.0536370919799506e-16 2.0104781655816475e-17 1.0536370919799506e-16 2.0104781655816475e-17 -0.8873562172031089 -0.46108452998426885
12626537333.333334 -0.8920892780068762 -0.4518591816761006 1.0554753167359758e-16 1.899822808355415e-17 1.0554753167359758e-16 1.899822808355415e-17 -0.8920889773620568 -0.45185977522782905
12627154666.666666 -0.8967261367694432 -0.4425858511457125 1.0571974071959071e-16 1.7890029779940786e-17 1.0571974071959071e-16 1.7890029779940786e-17 -0.896725842309032 -0.44258644775341
12627772000.0 -0.9012666018487756 -0.4332649447991211 1.0588032204988742e-16 1.6780308547664618e-17 1.0588032204988742e-16 1.6780308547664618e-17 -0.9012663136038194 -0.4332655443983596
12628389333.333334 -0.9057101851670641 -0.423897464588393 1.0602926265502117e-16 1.566918630828175e-17 1.0602926265502117e-16 1.566918630828175e-17 -0.9057099031679381 -0.4238980671144289
12629006666.666666 -0.9100564090609139 -0.41448441747185105 1.061665508030761e-16 1.455678508879339e-17 1.061665508030761e-16 1.455678508879339e-17 -0.9100561333373203 -0.4144850228596332
12629624000.0 -0.9143048063325101 -0.40502681530621726 1.0629217604046323e-16 1.3443227008313304e-17 1.0629217604046323e-16 1.3443227008313304e-17 -0.9143045369134725 -0.4050274234903926
12630241333.333334 -0.9184549202999809 -0.39552567473753353 1.0640612919256818e-16 1.2328634264648957e-17 1.0640612919256818e-16 1.2328634264648957e-17 -0.9184546572138429 -0.395526285652455
12630858666.666666 -0.922506304846385 -0.38598201709210966 1.0650840236425015e-16 1.1213129120945731e-17 1.0650840236425015e-16 1.1213129120945731e-17 -0.922506048120807 -0.3859826306718435
12631476000.0 -0.9264585244677576 -0.3763968682665289 1.065989889402085e-16 1.009683389225962e-17 1.065989889402085e-16 1.009683389225962e-17 -0.9264582741297128 -0.3763974844448608
12632093333.333334 -0.930311154319846 -0.3667712586175505 1.0667788358520039e-16 8.979870932220407e-18 1.0667788358520039e-16 8.979870932220407e-18 -0.9303109103956182 -0.3667718773279932
12632710666.666666 -0.9340637802638118 -0.35710622285127325 1.0674508224412756e-16 7.862362619607987e-18 1.0674508224412756e-16 7.862362619607987e-18 -0.9340635427789955 -0.357106844027075
12633328000.0 -0.9377159989107723 -0.3474027999118581 1.0680058214197814e-16 6.744431344961351e-18 1.0680058214197814e-16 6.744431344961351e-18 -0.937715767890264 -0.3474034234860073
12633945333.333334 -0.9412674176651263 -0.33766203286992374 1.068443817836281e-16 5.626199497234187e-18 1.068443817836281e-16 5.626199497234187e-18 -0.9412671931331276 -0.3376626587751584
12634562666.666666 -0.9447176547667818 -0.32788496881037044 1.0687648095350606e-16 4.507789450385946e-18 1.0687648095350606e-16 4.507789450385946e-18 -0.9447174367467925 -0.3278855969791841
12635180000.0 -0.9480663393321493 -0.3180726587199289 1.0689688071511592e-16 3.389323550028388e-18 1.0689688071511592e-16 3.389323550028388e-18 -0.9480661278469683 -0.3180732890845785
12635797333.333334 -0.9513131113940804 -0.30822615737399756 1.0690558341042082e-16 2.270924100056156e-18 1.0690558341042082e-16 2.270924100056156e-18 -0.9513129064658017 -0.30822678986651086
12636414666.666666 -0.9544576219404963 -0.29834652322344773 1.069025926590876e-16 1.1527133493205683e-18 1.069025926590876e-16 1.1527133493205683e-18 -0.954457423590507 -0.29834715777563026
12637032000.0 -0.9574995329519322 -0.28843481828076384 1.0688791335759198e-16 3.481347825382876e-20 1.0688791335759198e-16 3.481347825382876e-20 -0.9574993412009112 -0.2884354548242067
12637649333.333334 -0.960438517437892 -0.2784921080058292 1.0686155167818446e-16 -1.0826534144362996e-18 1.0686155167818446e-16 -1.0826534144362996e-18 -0.9604383323058047 -0.2784927464719156
12638266666.666666 -0.9632742594719674 -0.26851946119147374 1.0682351506771695e-16 -2.1995653250729016e-18 1.0682351506771695e-16 -2.1995653250729016e-18 -0.9632740809780671 -0.26852010151138717
12638884000.0 -0.9660064542258179 -0.2585179498485308 1.0677381224633121e-16 -3.315800358325025e-18 1.0677381224633121e-16 -3.315800358325025e-18 -0.9660062823886436 -0.25851859195326266
12639501333.333334 -0.9686348080019185 -0.24848864909068386 1.067124532060078e-16 -4.43123674048145e-18 1.067124532060078e-16 -4.43123674048145e-18 -0.9686346428392892 -0.2484892929110396
12640118666.666666 -0.9711590382651244 -0.2384326370188954 1.0663944920897876e-16 -5.545752832684788e-18 1.0663944920897876e-16 -5.545752832684788e-18 -0.9711588797941426 -0.2384332824855036
12640736000.0 -0.97357887367314 -0.2283509946051603 1.0655481278599664e-16 -6.65922714423961e-18 1.0655481278599664e-16 -6.65922714423961e-18 -0.9735787219101855 -0.2283516416484789
12641353333.333334 -0.9758940541054962 -0.21824480557704962 1.0645855773447498e-16 -7.771538345747744e-18 1.0645855773447498e-16 -7.771538345747744e-18 -0.9758939090662274 -0.21824545412737406
12641970666.666666 -0.9781043306916988 -0.20811515630047078 1.063506991164804e-16 -8.882565282375192e-18 1.063506991164804e-16 -8.882565282375192e-18 -0.9781041923910491 -0.20811580628794135
12642588000.0 -0.9802094658378898 -0.19796313566324714 1.0623125325659584e-16 -9.992186986982874e-18 1.0623125325659584e-16 -9.992186986982874e-18 -0.9802093342900661 -0.19796378701785616
12643205333.333334 -0.9822092332523797 -0.18778983495812382 1.0610023773964175e-16 -1.110028269329522e-17 1.0610023773964175e-16 -1.110028269329522e-17 -0.9822091084708633 -0.187790487609724
12643822666.666666 -0.9841034179700295 -0.17759634776518093 1.059576714082613e-16 -1.2206731849020458e-17 1.059576714082613e-16 -1.2206731849020458e-17 -0.9841032999675732 -0.17759700164349226
12644440000.0 -0.9858918163753142 -0.16738376983450198 1.0580357436037097e-16 -1.3311414128933402e-17 1.0580357436037097e-16 -1.3311414128933402e-17 -0.9858917051639394 -0.16738442486911925
12645057333.333334 -0.9875742362241997 -0.15715319896844182 1.0563796794647518e-16 -1.4414209447928394e-17 1.0563796794647518e-16 -1.4414209447928394e-17 -0.9875741318151974 -0.15715385508884255
12645674666.666666 -0.9891504966648418 -0.14690573490345119 1.0546087476684153e-16 -1.5514997974067922e-17 1.0546087476684153e-16 -1.5514997974067922e-17 -0.9891503990687707 -0.14690639203900305
12646292000.0 -0.9906204282570389 -0.13664247919174702 1.0527231866854016e-16 -1.661366014159232e-17 1.0527231866854016e-16 -1.661366014159232e-17 -0.9906203374837249 -0.13664313727171556
12646909333.333334 -0.9919838729903804 -0.126364535083351 1.050723247423584e-16 -1.771007666383557e-17 1.050723247423584e-16 -1.771007666383557e-17 -0.9919837890489145 -0.12636519403690713
12647526666.666666 -0.9932406843012975 -0.11607300740704579 1.048609193195655e-16 -1.880412854620128e-17 1.048609193195655e-16 -1.880412854620128e-17 -0.9932406072000355 -0.11607366716327334
12648144000.0 -0.9943907270887976 -0.10576900245175154 1.046381299685524e-16 -1.9895697099038825e-17 1.046381299685524e-16 -1.9895697099038825e-17 -0.9943906568353595 -0.10576966293965506
12648761333.333334 -0.9954338777289757 -0.09545362784766148 1.0440398549133668e-16 -2.0984663950490095e-17 1.0440398549133668e-16 -2.0984663950490095e-17 -0.9954338143302452 -0.09545428899617384
12649378666.666666 -0.9963700240882999 -0.08512799244729095 1.041585159199363e-16 -2.2070911059290824e-17 1.041585159199363e-16 -2.2070911059290824e-17 -0.996369967550422 -0.0851286541852808
12649996000.0 -0.9971990655356918 -0.07479320620596959 1.0390175251259991e-16 -2.3154320727575022e-17 1.0390175251259991e-16 -2.3154320727575022e-17 -0.997199015864074 -0.07479386846224934
12650613333.333334 -0.9979209129533262 -0.06445038006269634 1.0363372774991556e-16 -2.4234775613586567e-17 1.0363372774991556e-16 -2.4234775613586567e-17 -0.9979208701526375 -0.0644510427660295
12651230666.666666 -0.9985354887461994 -0.054100625820917375 1.033544753307888e-16 -2.5312158744344174e-17 1.033544753307888e-16 -2.5312158744344174e-17 -0.9985354528203703 -0.05410128890002647
12651848000.0 -0.9990427268505004 -0.04374505602855918 1.0306403016827268e-16 -2.6386353528328686e-17 1.0306403016827268e-16 -2.6386353528328686e-17 -0.9990426978027218 -0.04374571941213324
12652465333.333334 -0.9994425727406896 -0.033384783858775115 1.0276242838528744e-16 -2.7457243768038528e-17 1.0276242838528744e-16 -2.7457243768038528e-17 -0.9994425505734124 -0.03338544747547742
12653082666.666666 -0.9997349834353585 -0.02302092299037023 1.0244970731020006e-16 -2.852471367253843e-17 1.0244970731020006e-16 -2.852471367253843e-17 -0.9997349681502947 -0.02302158676884597
12653700000.0 -0.9999199275018692 -0.012654587487631812 1.0212590547226463e-16 -2.9588647869987684e-17 1.0212590547226463e-16 -2.9588647869987684e-17 -0.9999199190999891 -0.012655251356515702
12654317333.333334 -0.9999973850597138 -0.0022868916810841015 1.0179106259695844e-16 -3.0648931420033697e-17 1.0179106259695844e-16 -3.0648931420033697e-17 -0.9999973835412495 -0.0022875555690081636
12654934666.666666 -0.9999673477826608 0.008081049952637602 1.0144521960115956e-16 -3.1705449826251975e-17 1.0144521960115956e-16 -3.1705449826251975e-17 -0.9999673531471045 0.008080386117036457
12655552000.0 -0.9998298188996493 0.01844812291047414 1.0108841858821203e-16 -3.2758089048477646e-17 1.0108841858821203e-16 -3.2758089048477646e-17 -0.9998298311457523 0.018447459198546415
12656169333.333334 -0.9995848131944411 0.028813212782660858 1.0072070284287313e-16 -3.380673551505673e-17 1.0072070284287313e-16 -3.380673551505673e-17 -0.9995848323202164 0.02881254926573681
12656786666.666666 -0.9992323570040312 0.03917520537272021 1.0034211682610654e-16 -3.485127613512177e-17 1.0034211682610654e-16 -3.485127613512177e-17 -0.9992323830067504 0.039174542122102106
12657404000.0 -0.9987724882158163 0.04953298681700491 9.995270616977236e-17 -3.5891598310738186e-17 9.995270616977236e-17 -3.5891598310738186e-17 -0.9987725210920146 0.04953232390395954
12658021333.333334 -0.9982052562635213 0.05988544370466033 9.955251767117959e-17 -3.6927589949029675e-17 9.955251767117959e-17 -3.6927589949029675e-17 -0.9982052960089948 0.059884781200411234
12658638666.666666 -0.9975307221218914 0.07023146319708343 9.914159928752611e-17 -3.7959139474206456e-17 9.914159928752611e-17 -3.7959139474206456e-17 -0.9975307687316981 0.07023080117280325
12659256000.0 -0.9967489583001299 0.08056993314774634 9.872000013018774e-17 -3.898613583960304e-17 9.872000013018774e-17 -3.898613583960304e-17 -0.9967490117685888 0.0805692716745491
12659873333.333334 -0.995860048834103 0.09089974222166108 9.828777045891364e-17 -4.0008468539574614e-17 9.828777045891364e-17 -4.0008468539574614e-17 -0.9958601091547988 0.09089908137059473
12660490666.666666 -0.9948640892773221 0.10121978001472992 9.784496167588877e-17 -4.1026027621355026e-17 9.784496167588877e-17 -4.1026027621355026e-17 -0.9948641564431032 0.10121911985676867
12661108000.0 -0.9937611866906384 0.11152893717344767 9.739162631965201e-17 -4.2038703696902716e-17 9.739162631965201e-17 -4.2038703696902716e-17 -0.9937612606936176 0.11152827777948421
12661725333.333334 -0.9925514596307861 0.1218261055136429 9.692781805893215e-17 -4.304638795458576e-17 9.692781805893215e-17 -4.304638795458576e-17 -0.9925515404623412 0.12182544695448082
12662342666.666666 -0.9912350381375858 0.13211017814008275 9.645359168632587e-17 -4.404897217088519e-17 9.645359168632587e-17 -4.404897217088519e-17 -0.9912351257883628 0.13210952048642907
12662960000.0 -0.9898120637199911 0.14238004956523242 9.596900311188188e-17 -4.504634872196885e-17 9.596900311188188e-17 -4.504634872196885e-17 -0.9898121581799038 0.14237939288769005
12663577333.333334 -0.9882826893408861 0.15263461582803398 9.547410935654628e-17 -4.60384105952393e-17 9.547410935654628e-17 -4.60384105952393e-17 -0.9882827905991168 0.15263396019709388
12664194666.666666 -0.9866470794006196 0.1628727746127454 9.496896854550211e-17 -4.7025051400779947e-17 9.496896854550211e-17 -4.7025051400779947e-17 -0.9866471874456213 0.1628721200987793
12664812000.0 -0.9849054097193416 0.17309342536734956 9.445363990138358e-17 -4.800616538274537e-17 9.445363990138358e-17 -4.800616538274537e-17 -0.9849055245388398 0.17309277204060222
12665429333.333334 -0.9830578675181166 0.18329546942180225 9.392818373737979e-17 -4.898164743066429e-17 9.392818373737979e-17 -4.898164743066429e-17 -0.9830579890991088 0.18329481735238398
12666046666.666666 -0.9811046513987943 0.1934778101061625 9.339266145021656e-17 -4.9951393090678516e-17 9.339266145021656e-17 -4.9951393090678516e-17 -0.981104779727552 0.19347715936404145
12666664000.0 -0.9790459713226147 0.20363935286870155 9.284713551301197e-17 -5.0915298576723836e-17 9.284713551301197e-17 -5.0915298576723836e-17 -0.9790461063846863 0.2036387035236966
12667281333.333334 -0.976882048587734 0.21377900539308847 9.229166946805379e-17 -5.187326078156809e-17 9.229166946805379e-17 -5.187326078156809e-17 -0.9768821903679457 0.21377835751486154
12667898666.666666 -0.974613115805346 0.22389567771625463 9.172632791941464e-17 -5.282517728785734e-17 9.172632791941464e-17 -5.282517728785734e-17 -0.9746132642878026 0.22389503137430294
12668516000.0 -0.9722394168746918 0.23398828234547464 9.115117652548279e-17 -5.3770946379029657e-17 9.115117652548279e-17 -5.3770946379029657e-17 -0.9722395720427803 0.23398763760912386
12669133333.333334 -0.9697612069569177 0.2440557343749349 9.056628199138626e-17 -5.4710467050140835e-17 9.056628199138626e-17 -5.4710467050140835e-17 -0.9697613687933072 0.24405509131333114
12669750666.666666 -0.9671787524475459 0.25409695160279855 8.997171206128503e-17 -5.564363901864137e-17 8.997171206128503e-17 -5.564363901864137e-17 -0.9671789209341911 0.2540963102849012
