! Parameters = {f0=12700.012000; bw=77.238000; Q=6100.000000; N=10; m_0_1=1.268964; m_1_1=0.269714; m_1_2=1.103776; m_2_2=0.269065; m_2_3=0.740739; m_2_8=0.000512; m_2_9=0.037216; m_3_3=0.267128; m_3_4=0.629268; m_3_7=0.001112; m_3_8=-0.095976; m_3_9=0.000512; m_4_4=0.264203; m_4_5=0.465603; m_4_6=0.004629; m_4_7=-0.116525; m_4_8=0.001112; m_5_5=0.264585; m_5_6=0.872958; m_5_7=0.004629; m_6_6=0.264584; m_6_7=0.465945; m_7_7=0.264217; m_7_8=0.629386; m_8_8=0.267126; m_8_9=0.741052; m_9_9=0.269060; m_9_10=1.104854; m_10_10=0.269704; m_10_11=1.269759}
!
! Created with skrf (http://scikit-rf.org).
# Hz S RI R 50.0 
!freq ReS11 ImS11 ReS21 ImS21 ReS12 ImS12 ReS22 ImS22
12607400000.0 0.17790892557248053 0.9840469573152851 -4.953879887927719e-17 -9.828450731349983e-17 -4.953879887927719e-17 -9.828450731349983e-17 0.17790826767056095 0.9840470762592017
12608017333.333334 0.18822387803255483 0.9821261485869367 -5.0566051088936226e-17 -9.773570149683223e-17 -5.0566051088936226e-17 -9.773570149683223e-17 0.1882232214469724 0.9821262744209357
12608634666.666666 0.19851810934684203 0.9800972198007601 -5.158723946002362e-17 -9.717616776909034e-17 -5.158723946002362e-17 -9.717616776909034e-17 0.19851745414974625 0.980097352510314
12609252000.0 0.20879048624653493 0.9779603943170502 -5.2602252051073984e-17 -9.660597296827623e-17 -5.2602252051073984e-17 -9.660597296827623e-17 0.20878983250991542 0.9779605338868768
12609869333.333334 0.21903987786887033 0.9757159073741782 -5.3610977655681114e-17 -9.602518509946156e-17 -5.3610977655681114e-17 -9.602518509946156e-17 0.21903922566454895 0.9757160537882411
12610486666.666666 0.22926515588128932 0.9733640060627641 -5.461330581464967e-17 -9.543387332672375e-17 -5.461330581464967e-17 -9.543387332672375e-17 0.22926450528091258 0.9733641593042773
12611104000.0 0.2394651946060422 0.9709049492983933 -5.560912682810125e-17 -9.483210796493005e-17 -5.560912682810125e-17 -9.483210796493005e-17 0.23946454568107234 0.9709051093498178
12611721333.333334 0.24963887114380534 0.968339007793175 -5.659833176739668e-17 -9.421996047145166e-17 -5.659833176739668e-17 -9.421996047145166e-17 0.24963822396551383 0.9683391746362265
12612338666.666666 0.25978506549738384 0.9656664640259309 -5.758081248707207e-17 -9.35975034376911e-17 -5.758081248707207e-17 -9.35975034376911e-17 0.2597844201368425 0.9656666376415772
12612956000.0 0.2699026606952278 0.9628876122110308 -5.855646163661281e-17 -9.296481058052738e-17 -5.855646163661281e-17 -9.296481058052738e-17 0.2699020172233014 0.9628877925794973
12613573333.333334 0.2799905429139584 0.9600027582661265 -5.952517267215301e-17 -9.232195673362808e-17 -5.952517267215301e-17 -9.232195673362808e-17 0.2799899014012971 0.9600029453668965
12614190666.666666 0.290047601601343 0.9570122197783747 -6.048683986808792e-17 -9.166901783863438e-17 -6.048683986808792e-17 -9.166901783863438e-17 0.2900469621183742 0.9570124135901932
12614808000.0 0.3000727295984983 0.9539163259694902 -6.144135832859262e-17 -9.10060709362237e-17 -6.144135832859262e-17 -9.10060709362237e-17 0.3000720922154191 0.9539165264703642
12615425333.333334 0.31006482326161067 0.9507154176595484 -6.238862399901742e-17 -9.033319415707027e-17 -6.238862399901742e-17 -9.033319415707027e-17 0.3100641880483803 0.9507156248267526
12616042666.666666 0.3200227825836526 0.9474098472294032 -6.332853367722395e-17 -8.965046671266146e-17 -6.332853367722395e-17 -8.965046671266146e-17 0.32002214960998426 0.9474100610394788
12616660000.0 0.3299455113152613 0.9439999785819562 -6.426098502477939e-17 -8.895796888602412e-17 -6.426098502477939e-17 -8.895796888602412e-17 0.3299448806506156 0.944000199010718
12617277333.333334 0.33983191708566807 0.9404861871020238 -6.518587657809401e-17 -8.825578202230539e-17 -6.518587657809401e-17 -8.825578202230539e-17 0.33983128879924374 0.9404864141245577
12617894666.666666 0.3496809115226029 0.9368688596151257 -6.610310775940024e-17 -8.754398851927755e-17 -6.610310775940024e-17 -8.754398851927755e-17 0.34968028568333026 0.9368690932057949
12618512000.0 0.3594914103726205 0.9331483943447196 -6.701257888770866e-17 -8.682267181766977e-17 -6.701257888770866e-17 -8.682267181766977e-17 0.3594907870491545 0.9331486344771681
12619129333.333334 0.36926233361990357 0.9293252008685697 -6.791419118956e-17 -8.609191639146227e-17 -6.791419118956e-17 -8.609191639146227e-17 0.36926171288061477 0.9293254475157232
12619746666.666666 0.378992605605505 0.9253997000735276 -6.880784680975537e-17 -8.535180773800405e-17 -6.880784680975537e-17 -8.535180773800405e-17 0.37899198751847285 0.9253999532075966
12620364000.0 0.38868115514584284 0.9213723241091616 -6.969344882195464e-17 -8.460243236803862e-17 -6.969344882195464e-17 -8.460243236803862e-17 0.3886805397788486 0.9213725837016462
12620981333.333334 0.3983269156502036 0.9172435163403561 -7.057090123912111e-17 -8.384387779565804e-17 -7.057090123912111e-17 -8.384387779565804e-17 0.39832630307072214 0.9172437823620478
12621598666.666666 0.40792882523863305 0.9130137312983045 -7.144010902393861e-17 -8.307623252808122e-17 -7.144010902393861e-17 -8.307623252808122e-17 0.407928215513826 0.913014003719291
12622216000.0 0.41748582685849733 0.90868343463062 -7.23009780990444e-17 -8.229958605538697e-17 -7.23009780990444e-17 -8.229958605538697e-17 0.4174852200552056 0.9086837134202863
12622833333.333334 0.42699686840111 0.904253103049953 -7.315341535720468e-17 -8.151402884009445e-17 -7.315341535720468e-17 -8.151402884009445e-17 0.4269962645858458 0.9042533881769858
12623450666.666666 0.43646090281727234 0.899723224281643 -7.39973286713267e-17 -8.071965230668459e-17 -7.39973286713267e-17 -8.071965230668459e-17 0.43646030205621283 0.8997235157140351
12624068000.0 0.445876888232748 0.8950942970099331 -7.483262690441492e-17 -7.991654883096546e-17 -7.483262690441492e-17 -7.991654883096546e-17 0.44587629059172784 0.8950945947149862
12624685333.333334 0.4552437880630608 0.8903668308230155 -7.565921991936828e-17 -7.91048117293751e-17 -7.565921991936828e-17 -7.91048117293751e-17 0.45524319360756454 0.8903671347673443
12625302666.666666 0.46456057112717736 0.885541346157149 -7.647701858866078e-17 -7.828453524818645e-17 -7.647701858866078e-17 -7.828453524818645e-17 0.4645599799223327 0.8855416563066846
12625920000.0 0.47382621176161227 0.8806183742390715 -7.728593480396056e-17 -7.745581455255773e-17 -7.728593480396056e-17 -7.745581455255773e-17 0.4738256238721823 0.8806186905590648
12626537333.333334 0.4830396899328075 0.8755984570277875 -7.808588148554423e-17 -7.661874571556904e-17 -7.808588148554423e-17 -7.661874571556904e-17 0.4830391054231846 0.8755987794828144
12627154666.666666 0.49219999134965736 0.8704821471547952 -7.887677259167095e-17 -7.57734257070861e-17 -7.887677259167095e-17 -7.57734257070861e-17 0.49219941028385505 0.8704824757087587
12627772000.0 0.5013061075753884 0.865270007863116 -7.965852312779976e-17 -7.491995238256151e-17 -7.965852312779976e-17 -7.491995238256151e-17 0.5013055300170356 0.8652703424792527
12628389333.333334 0.5103570361380593 0.8599626129455862 -8.043104915567934e-17 -7.405842447175202e-17 -8.043104915567934e-17 -7.405842447175202e-17 0.5103564621503912 0.859962953586467
12629006666.666666 0.5193517806414839 0.8545605466813601 -8.119426780234254e-17 -7.318894156731185e-17 -8.119426780234254e-17 -7.318894156731185e-17 0.5193512102873379 0.8545608933088977
12629624000.0 0.5282893508744588 0.8490644037718617 -8.194809726895763e-17 -7.231160411331719e-17 -8.194809726895763e-17 -7.231160411331719e-17 0.5282887842162658 0.8490647563473139
12630241333.333334 0.5371687629201148 0.8434747892751139 -8.269245683955813e-17 -7.142651339369783e-17 -8.269245683955813e-17 -7.142651339369783e-17 0.5371682000198924 0.8434751477590866
12630858666.666666 0.5459890392638944 0.8377923185393349 -8.342726688965615e-17 -7.05337715205698e-17 -8.342726688965615e-17 -7.05337715205698e-17 0.5459884801832405 0.8377926828917875
12631476000.0 0.5547492089016214 0.8320176171349081 -8.41524488947318e-17 -6.963348142247718e-17 -8.41524488947318e-17 -6.963348142247718e-17 0.5547486537017077 0.8320179873151583
12632093333.333334 0.5634483074459168 0.8261513207858205 -8.486792543858103e-17 -6.872574683256695e-17 -8.486792543858103e-17 -6.872574683256695e-17 0.5634477561874819 0.8261516967525493
12632710666.666666 0.5720853772325852 0.820194075299545 -8.557362022154179e-17 -6.781067227667083e-17 -8.557362022154179e-17 -6.781067227667083e-17 0.5720848299759275 0.8201944570107984
12633328000.0 0.5806594674262241 0.8141465364958065 -8.626945806862072e-17 -6.688836306126645e-17 -8.626945806862072e-17 -6.688836306126645e-17 0.5806589242311959 0.8141469239090041
12633945333.333334 0.5891696341245285 0.80800937013465 -8.695536493743577e-17 -6.595892526142716e-17 -8.695536493743577e-17 -6.595892526142716e-17 0.589169095050529 0.8080097632065867
12634562666.666666 0.5976149404625024 0.801783251842931 -8.763126792607445e-17 -6.502246570863149e-17 -8.763126792607445e-17 -6.502246570863149e-17 0.5976144055684715 0.8017836505297838
12635180000.0 0.6059944567153911 0.7954688670400891 -8.829709528080992e-17 -6.407909197850732e-17 -8.829709528080992e-17 -6.407909197850732e-17 0.6059939260598028 0.7954692712974213
12635797333.333334 0.6143072604012366 0.7890669108625405 -8.895277640367065e-17 -6.312891237851759e-17 -8.895277640367065e-17 -6.312891237851759e-17 0.6143067340420925 0.7890673206453057
12636414666.666666 0.6225524363821822 0.7825780880873381 -8.959824185989688e-17 -6.21720359355443e-17 -8.959824185989688e-17 -6.21720359355443e-17 0.6225519143770059 0.7825785033498872
12637032000.0 0.630729076965424 0.7760031130544319 -9.02334233852522e-17 -6.120857238341137e-17 -9.02334233852522e-17 -6.120857238341137e-17 0.6307285593712529 0.7760035337505158
12637649333.333334 0.6388362820031079 0.7693427095880412 -9.085825389321251e-17 -6.023863215031827e-17 -9.085825389321251e-17 -6.023863215031827e-17 0.63883576887649 0.7693431356708186
12638266666.666666 0.6468731589912987 0.7625976109170829 -9.147266748200116e-17 -5.926232634622927e-17 -9.147266748200116e-17 -5.926232634622927e-17 0.6468726503882828 0.7625980423391225
12638884000.0 0.6548388231684035 0.7557685595943012 -9.207659944151432e-17 -5.82797667501523e-17 -9.207659944151432e-17 -5.82797667501523e-17 0.6548383191445365 0.7557689963075903
12639501333.333334 0.6627323976124455 0.748856307414636 -9.266998626008678e-17 -5.729106579738442e-17 -9.266998626008678e-17 -5.729106579738442e-17 0.6627318982227641 0.748856749370583
12640118666.666666 0.6705530133375398 0.7418616153325157 -9.325276563112662e-17 -5.629633656668137e-17 -9.325276563112662e-17 -5.629633656668137e-17 0.6705525186365654 0.7418620624819566
12640736000.0 0.6782998093899602 0.7347852533777253 -9.382487645964687e-17 -5.5295692767301357e-17 -9.382487645964687e-17 -5.5295692767301357e-17 0.6782993194316927 0.7347857056709302
12641353333.333334 0.6859719329422639 0.7276280005712256 -9.438625886858035e-17 -5.42892487261166e-17 -9.438625886858035e-17 -5.42892487261166e-17 0.6859714477801756 0.7276284579579018
12641970666.666666 0.6935685393877875 0.7203906448388362 -9.493685420504979e-17 -5.327711937450074e-17 -9.493685420504979e-17 -5.327711937450074e-17 0.6935680590748187 0.720391107268137
12642588000.0 0.701088792433255 0.7130739829248463 -9.547660504642543e-17 -5.2259420235279414e-17 -9.547660504642543e-17 -5.2259420235279414e-17 0.7010883170218055 0.7130744503453739
12643205333.333334 0.7085318641910244 0.7056788203041215 -9.600545520628435e-17 -5.123626740954734e-17 -9.600545520628435e-17 -5.123626740954734e-17 0.7085313937329498 0.705679292663933
12643822666.666666 0.7158969352701483 0.698205971093512 -9.652334974020848e-17 -5.0207777563460525e-17 -9.652334974020848e-17 -5.0207777563460525e-17 0.7158964698167539 0.6982064483401267
12644440000.0 0.7231831948666396 0.6906562579621688 -9.703023495145356e-17 -4.917406791495219e-17 -9.703023495145356e-17 -4.917406791495219e-17 0.7231827344686753 0.6906567400425733
12645057333.333334 0.7303898408526103 0.6830305120410977 -9.752605839646003e-17 -4.813525622041868e-17 -9.752605839646003e-17 -4.813525622041868e-17 0.7303893855602642 0.6830309989017516
12645674666.666666 0.73751607986464 0.6753295728316062 -9.801076889024468e-17 -4.709146076131002e-17 -9.801076889024468e-17 -4.709146076131002e-17 0.737515629727533 0.6753300644184478
12646292000.0 0.7445611273913038 0.6675542881126709 -9.848431651163426e-17 -4.6042800330690423e-17 -9.848431651163426e-17 -4.6042800330690423e-17 0.744560682458486 0.6675547843711245
12646909333.333334 0.7515242078591565 0.6597055138480294 -9.89466526083529e-17 -4.498939421975942e-17 -9.89466526083529e-17 -4.498939421975942e-17 0.7515237681790978 0.6597060147230086
12647526666.666666 0.7584045547184535 0.6517841140915667 -9.939772980197343e-17 -4.393136220430205e-17 -9.939772980197343e-17 -4.393136220430205e-17 0.758404120339043 0.6517846195274843
12648144000.0 0.7652014105273721 0.6437909608923886 -9.983750199273072e-17 -4.286882453107631e-17 -9.983750199273072e-17 -4.286882453107631e-17 0.7652009814959089 0.6437914708331589
12648761333.333334 0.7719140270354662 0.6357269341987284 -1.0026592436416743e-16 -4.180190190420394e-17 -1.0026592436416743e-16 -4.180190190420394e-17 0.771913603398658 0.635727448587777
12649378666.666666 0.7785416652659154 0.6275929217612318 -1.0068295338765255e-16 -4.0730715471476006e-17 -1.0068295338765255e-16 -4.0730715471476006e-17 0.77854124706987 0.6275934405414988
12649996000.0 0.7850835955970238 0.6193898190350526 -1.0108854682675893e-16 -3.965538681059966e-17 -1.0108854682675893e-16 -3.965538681059966e-17 0.7850831828872462 0.6193903421490006
12650613333.333334 0.7915390978425345 0.611118529081267 -1.0148266374147347e-16 -3.857603791545343e-17 -1.0148266374147347e-16 -3.857603791545343e-17 0.7915386906639221 0.6111190564708883
12651230666.666666 0.7979074613307295 0.6027799624677115 -1.0186526449227758e-16 -3.749279118226165e-17 -1.0186526449227758e-16 -3.749279118226165e-17 0.797907059727565 0.6027804940745318
12651848000.0 0.8041879849829705 0.5943750371683291 -1.0223631074407715e-16 -3.640576939573453e-17 -1.0223631074407715e-16 -3.640576939573453e-17 0.8041875889989204 0.5943755729334176
12652465333.333334 0.8103799773906099 0.5859046784624784 -1.0259576546998259e-16 -3.5315095715179215e-17 -1.0259576546998259e-16 -3.5315095715179215e-17 0.8103795870687147 0.5859052183264493
12653082666.666666 0.8164827568911517 0.5773698188329985 -1.0294359295493346e-16 -3.4220893660594404e-17 -1.0294359295493346e-16 -3.4220893660594404e-17 0.8164823722738278 0.5773703627360233
12653700000.0 0.8224956516435187 0.5687713978632617 -1.0327975879920117e-16 -3.312328709865451e-17 -1.0327975879920117e-16 -3.312328709865451e-17 0.822495272772549 0.5687719457450718
12654317333.333334 0.8284179997016614 0.5601103621342167 -1.0360422992170408e-16 -3.202240022877726e-17 -1.0360422992170408e-16 -3.202240022877726e-17 0.8284176266181924 0.5601109139341123
12654934666.666666 0.8342491490877273 0.5513876651197671 -1.0391697456321158e-16 -3.0918357569042325e-17 -1.0391697456321158e-16 -3.0918357569042325e-17 0.8342487818322637 0.5513882207766219
12655552000.0 0.8399884578637036 0.5426042670819896 -1.0421796228937507e-16 -2.9811283942156127e-17 -1.0421796228937507e-16 -2.9811283942156127e-17 0.8399880964761056 0.5426048265342596
12656169333.333334 0.8456352942020722 0.5337611349654456 -1.0450716399361605e-16 -2.8701304461367526e-17 -1.0450716399361605e-16 -2.8701304461367526e-17 0.8456349387215497 0.5337616981511747
12656786666.666666 0.8511890364553998 0.5248592422906866 -1.0478455189986696e-16 -2.758854451634764e-17 -1.0478455189986696e-16 -2.758854451634764e-17 0.8511886869205089 0.5248598091475138
12657404000.0 0.8566490732248163 0.5158995690470077 -1.0505009956516273e-16 -2.647312975904105e-17 -1.0505009956516273e-16 -2.647312975904105e-17 0.856648729673455 0.5159001395121743
12658021333.333334 0.8620148034272475 0.5068831015846834 -1.0530378188207571e-16 -2.5355186089517205e-17 -1.0530378188207571e-16 -2.5355186089517205e-17 0.8620144658966508 0.506883675595039
12658638666.666666 0.8672856363615605 0.497810832506433 -1.055455750810035e-16 -2.4234839641790643e-17 -1.055455750810035e-16 -2.4234839641790643e-17 0.867285304888297 0.49781140999844326
12659256000.0 0.8724609917737786 0.488683760557828 -1.0577545673231568e-16 -2.3112216769575562e-17 -1.0577545673231568e-16 -2.3112216769575562e-17 0.8724606663937469 0.4886843414675815
12659873333.333334 0.877540299920729 0.4795028905177338 -1.0599340574833007e-16 -2.1987444032108248e-17 -1.0599340574833007e-16 -2.1987444032108248e-17 0.8775399806691545 0.4795034747809501
12660490666.666666 0.8825230016328851 0.4702692330875034 -1.0619940238515544e-16 -2.0860648179880352e-17 -1.0619940238515544e-16 -2.0860648179880352e-17 0.8825226885443129 0.47026982063953765
12661108000.0 0.8874085483759554 0.4609838047796307 -1.0639342824437631e-16 -1.9731956140373733e-17 -1.0639342824437631e-16 -1.9731956140373733e-17 0.887408241484251 0.46098439555548343
12661725333.333334 0.8921964023111305 0.4516476278061253 -1.0657546627458543e-16 -1.8601495003805883e-17 -1.0657546627458543e-16 -1.8601495003805883e-17 0.8921961016494727 0.45164822174044816
12662342666.666666 0.8968860363544745 0.44226172996562496 -1.067455007727668e-16 -1.7469392008834963e-17 -1.067455007727668e-16 -1.7469392008834963e-17 0.8968857419553523 0.44226232699272766
12662960000.0 0.90147693423479 0.4328271445305493 -1.0690351738552954e-16 -1.633577452825414e-17 -1.0690351738552954e-16 -1.633577452825414e-17 0.9014766461300031 0.43282774458440915
12663577333.333334 0.905968590550578 0.423344910133125 -1.0704950311018391e-16 -1.5200770054706643e-17 -1.0704950311018391e-16 -1.5200770054706643e-17 0.905968308771227 0.42334551314739105
12664194666.666666 0.9103605108255676 0.41381607065124476 -1.0718344629567357e-16 -1.4064506186347497e-17 -1.0718344629567357e-16 -1.4064506186347497e-17 0.9103602354020546 0.4138166765592472
12664812000.0 0.9146522115632529 0.40424167509334685 -1.0730533664334891e-16 -1.2927110612547694e-17 -1.0730533664334891e-16 -1.2927110612547694e-17 0.9146519425252776 0.40424228382810357
12665429333.333334 0.9188432203000471 0.3946227774830843 -1.0741516520759545e-16 -1.1788711099541919e-17 -1.0741516520759545e-16 -1.1788711099541919e-17 0.9188429576766035 0.3946233889773091
12666046666.666666 0.922933075657275 0.3849604367433449 -1.0751292439630337e-16 -1.0649435476140457e-17 -1.0751292439630337e-16 -1.0649435476140457e-17 0.9229328194766483 0.384961050929454
12666664000.0 0.9269213273921223 0.3752557165793101 -1.0759860797119499e-16 -9.509411619341855e-18 -1.0759860797119499e-16 -9.509411619341855e-18 0.9269210776818844 0.3752563333894297
12667281333.333334 0.9308075364469657 0.365509685361903 -1.0767221104798903e-16 -8.368767440068107e-18 -1.0767221104798903e-16 -8.368767440068107e-18 0.9308072932339749 0.3655103047278775
12667898666.666666 0.9345912749979071 0.355723416009702 -1.0773373009642328e-16 -7.227630868797633e-18 -1.0773373009642328e-16 -7.227630868797633e-18 0.9345910383083053 0.3557240378631016
12668516000.0 0.9382721265017869 0.345897985871037 -1.0778316294012175e-16 -6.086129841232212e-18 -1.0778316294012175e-16 -6.086129841232212e-18 0.9382718963609925 0.3458986101431638
12669133333.333334 0.9418496857420257 0.33603447660541125 -1.078205087563076e-16 -4.944392284027132e-18 -1.078205087563076e-16 -4.944392284027132e-18 0.941849462174735 0.33603510322730823
12669750666.666666 0.9453235588732593 0.3261339740643727 -1.0784576807537093e-16 -3.8025461004237915e-18 -1.0784576807537093e-16 -3.8025461004237915e-18 0.9453233419034426 0.32613460296683083
12670368000.0 0.9486933634647301 0.31619756817186667 -1.0785894278027992e-16 -2.6607191559823874e-18 -1.0785894278027992e-16 -2.6607191559823874e-18 0.9486931531156294 0.3161981992854327
