! Parameters = {f0=12700.012000; bw=77.238000; Q=6100.000000; N=10; m_0_1=1.215711; m_1_1=-0.529085; m_1_2=1.050523; m_2_2=-0.529734; m_2_3=0.687486; m_2_8=-0.002151; m_2_9=0.034553; m_3_3=-0.531671; m_3_4=0.576015; m_3_7=-0.001551; m_3_8=-0.098639; m_3_9=-0.002151; m_4_4=-0.534596; m_4_5=0.412350; m_4_6=0.001966; m_4_7=-0.119188; m_4_8=-0.001551; m_5_5=-0.534214; m_5_6=0.819705; m_5_7=0.001966; m_6_6=-0.534215; m_6_7=0.412692; m_7_7=-0.534582; m_7_8=0.576133; m_8_8=-0.531673; m_8_9=0.687799; m_9_9=-0.529739; m_9_10=1.051601; m_10_10=-0.529095; m_10_11=1.216506}
!
! Created with skrf (http://scikit-rf.org).
# Hz S RI R 50.0 
!freq ReS11 ImS11 ReS21 ImS21 ReS12 ImS12 ReS22 ImS22
12607400000.0 -0.5459026361267744 0.8378486210943343 2.4265379371983566e-17 -8.147624783587519e-17 2.4265379371983566e-17 -8.147624783587519e-17 -0.5459031728558507 0.8378482713867431
12608017333.333334 -0.5384090824508494 0.8426836060671128 2.352596426997742e-17 -8.167549130098612e-17 2.352596426997742e-17 -8.167549130098612e-17 -0.5384096222508039 0.8426832611768108
12608634666.666666 -0.5308727088730196 0.84745157205215 2.2784930041169856e-17 -8.18680301520601e-17 2.2784930041169856e-17 -8.18680301520601e-17 -0.5308732517006232 0.8474512320060932
12609252000.0 -0.523294114764322 0.8521521398511317 2.204233742787925e-17 -8.205385139768819e-17 2.204233742787925e-17 -8.205385139768819e-17 -0.5232946605761088 0.8521518046758884
12609869333.333334 -0.5156739028535609 0.8567849356259796 2.1298247275008036e-17 -8.223294259631184e-17 2.1298247275008036e-17 -8.223294259631184e-17 -0.5156744516058326 0.8567846053477285
12610486666.666666 -0.5080126791795918 0.8613495909284521 2.055272052507899e-17 -8.240529185701413e-17 2.055272052507899e-17 -8.240529185701413e-17 -0.5080132308284194 0.8613492655729783
12611104000.0 -0.5003110530427084 0.8658457427296937 1.9805818213227812e-17 -8.257088784027488e-17 1.9805818213227812e-17 -8.257088784027488e-17 -0.5003116075439378 0.8658454223223904
12611721333.333334 -0.49256963695662465 0.870273033448847 1.9057601462260707e-17 -8.272971975866398e-17 1.9057601462260707e-17 -8.272971975866398e-17 -0.49257019426587934 0.8702727180147106
12612338666.666666 -0.4847890465994671 0.8746311109816635 1.830813147762693e-17 -8.288177737750881e-17 1.830813147762693e-17 -8.288177737750881e-17 -0.48478960667215104 0.8746308005452927
12612956000.0 -0.476969900764907 0.8789196287284481 1.755746954243345e-17 -8.302705101550485e-17 1.755746954243345e-17 -8.302705101550485e-17 -0.4769704635562092 0.8789193233140415
12613573333.333334 -0.4691128213130243 0.8831382456215862 1.6805677012464983e-17 -8.316553154528046e-17 1.6805677012464983e-17 -8.316553154528046e-17 -0.46911338677792164 0.8831379452529406
12614190666.666666 -0.4612184331206991 0.8872866261527477 1.605281531115504e-17 -8.3297210393925e-17 1.605281531115504e-17 -8.3297210393925e-17 -0.4612190012139605 0.8872863308532565
12614808000.0 -0.4532873640319908 0.8913644403995307 1.5298945924600755e-17 -8.342207954346257e-17 1.5298945924600755e-17 -8.342207954346257e-17 -0.4532879347081803 0.8913641501921816
12615425333.333334 -0.4453202448082805 0.8953713640516605 1.4544130396536866e-17 -8.354013153128822e-17 1.4544130396536866e-17 -8.354013153128822e-17 -0.44532081802176193 0.8953710789590354
12616042666.666666 -0.4373177090779564 0.8993070784368635 1.3788430323332834e-17 -8.365135945055356e-17 1.3788430323332834e-17 -8.365135945055356e-17 -0.4373182847828951 0.8993067984811328
12616660000.0 -0.42928039328611994 0.903171270546154 1.3031907348975978e-17 -8.375575695050967e-17 1.3031907348975978e-17 -8.375575695050967e-17 -0.4292809714364883 0.9031709957490789
12617277333.333334 -0.42120893664391906 0.9069636330587563 1.2274623160050216e-17 -8.3853318236805e-17 1.2274623160050216e-17 -8.3853318236805e-17 -0.4212095171934998 0.9069633634416866
12617894666.666666 -0.413103981077815 0.9106838643664983 1.1516639480739594e-17 -8.394403807173428e-17 1.1516639480739594e-17 -8.394403807173428e-17 -0.41310456398020434 0.910683599950369
12618512000.0 -0.4049661711783488 0.914331668597882 1.0758018067768689e-17 -8.40279117744509e-17 1.0758018067768689e-17 -8.40279117744509e-17 -0.40496675638696006 0.9143314094032116
12619129333.333334 -0.39679615414908254 0.9179067556415172 9.998820705425892e-18 -8.410493522112277e-17 9.998820705425892e-18 -8.410493522112277e-17 -0.39679674161715056 0.9179065016884077
12619746666.666666 -0.3885945797549735 0.9214088411692688 9.239109200517144e-18 -8.417510484505202e-17 9.239109200517144e-18 -8.417510484505202e-17 -0.3885951694355576 0.9214085924774029
12620364000.0 -0.38036210027064277 0.9248376466588853 8.478945377343685e-18 -8.423841763674601e-17 8.478945377343685e-18 -8.423841763674601e-17 -0.3803626921166314 0.9248374032475261
12620981333.333334 -0.372099370428842 0.9281928994160102 7.718391072713926e-18 -8.429487114394052e-17 7.718391072713926e-18 -8.429487114394052e-17 -0.3720999643929556 0.9281926613039985
12621598666.666666 -0.3638070473679619 0.931474332596044 6.957508130886758e-18 -8.434446347158384e-17 6.957508130886758e-18 -8.434446347158384e-17 -0.3638076434027577 0.9314740998017979
12622216000.0 -0.35548579058000634 0.9346816852252676 6.196358398576162e-18 -8.438719328177076e-17 6.196358398576162e-18 -8.438719328177076e-17 -0.3554863886378814 0.9346814577667811
12622833333.333334 -0.34713626185803703 0.9378147022216416 5.435003719928773e-18 -8.442305979363311e-17 5.435003719928773e-18 -8.442305979363311e-17 -0.3471368618912318 0.9378144801164813
12623450666.666666 -0.3387591252437529 0.9408731344150104 4.673505931518079e-18 -8.445206278318527e-17 4.673505931518079e-18 -8.445206278318527e-17 -0.3387597272043554 0.9408729176803152
12624068000.0 -0.33035504697438656 0.9438567385670295 3.911926857331502e-18 -8.447420258312405e-17 3.911926857331502e-18 -8.447420258312405e-17 -0.3303556508143363 0.9438565272195102
12624685333.333334 -0.3219246954297973 0.9467652773904794 3.1503283037461406e-18 -8.44894800825851e-17 3.1503283037461406e-18 -8.44894800825851e-17 -0.3219253011008894 0.9467650714464172
12625302666.666666 -0.31346874107952916 0.9495985195680623 2.38877205455828e-18 -8.44978967268517e-17 2.38877205455828e-18 -8.44978967268517e-17 -0.3134693485334175 0.9495983190433065
12625920000.0 -0.3049878564291923 0.9523562397708988 1.6273198659446305e-18 -8.449945451702086e-17 1.6273198659446305e-18 -8.449945451702086e-17 -0.30498846561739407 0.9523560446808671
12626537333.333334 -0.2964827159671954 0.9550382186763813 8.66033461497461e-19 -8.449415600962344e-17 8.66033461497461e-19 -8.449415600962344e-17 -0.29648332684109396 0.9550380290360563
12627154666.666666 -0.2879539961110474 0.9576442429856288 1.049745272282495e-19 -8.448200431619962e-17 1.049745272282495e-19 -8.448200431619962e-17 -0.28795460862189776 0.95764405880956
12627772000.0 -0.2794023751533736 0.9601741054405145 -6.557952934476527e-19 -8.446300310282953e-17 -6.557952934476527e-19 -8.446300310282953e-17 -0.27940298925230467 0.9601739267428141
12628389333.333334 -0.2708285332083227 0.9626276048400374 -1.4162144046489218e-18 -8.443715658961935e-17 -1.4162144046489218e-18 -8.443715658961935e-17 -0.27082914884634185 0.9626274316343808
12629006666.666666 -0.26223315215717796 0.965004546056416 -2.1762212630419967e-18 -8.440446955014193e-17 -2.1762212630419967e-18 -8.440446955014193e-17 -0.26223376928517506 0.9650043783560401
12629624000.0 -0.2536169155942634 0.9673047400505655 -2.9357543827861915e-18 -8.436494731083389e-17 -2.9357543827861915e-18 -8.436494731083389e-17 -0.2536175341630149 0.9673045778682693
12630241333.333334 -0.24498050877252217 0.9695280038871468 -3.6947523405010015e-18 -8.431859575034719e-17 -3.6947523405010015e-18 -8.431859575034719e-17 -0.24498112873269465 0.9695278472352886
12630858666.666666 -0.23632461854912878 0.9716741607490897 -4.4531537802216536e-18 -8.426542129885741e-17 -4.4531537802216536e-18 -8.426542129885741e-17 -0.23632523985128276 0.9716740096395867
12631476000.0 -0.22764993333066938 0.9737430399517014 -5.210897418363929e-18 -8.420543093732484e-17 -5.210897418363929e-18 -8.420543093732484e-17 -0.22765055592526384 0.9737428943960293
12632093333.333334 -0.21895714301858624 0.9757344769561943 -5.967922048635769e-18 -8.413863219671538e-17 -5.967922048635769e-18 -8.413863219671538e-17 -0.21895776685598184 0.9757343369653851
12632710666.666666 -0.21024693895425406 0.9776483133827852 -6.724166546986139e-18 -8.406503315717392e-17 -6.724166546986139e-18 -8.406503315717392e-17 -0.21024756398471797 0.9776481789674292
12633328000.0 -0.20152001386380378 0.9794843970233374 -7.479569876530925e-18 -8.398464244715406e-17 -7.479569876530925e-18 -8.398464244715406e-17 -0.2015206400375127 0.9794842681935783
12633945333.333334 -0.19277706180338958 0.9812425818533818 -8.234071092460279e-18 -8.389746924250476e-17 -8.234071092460279e-18 -8.389746924250476e-17 -0.19277768907043435 0.9812424586189191
12634562666.666666 -0.18401877810368553 0.9829227280437997 -8.987609346946186e-18 -8.380352326551255e-17 -8.987609346946186e-18 -8.380352326551255e-17 -0.1840194064140749 0.9829226104138868
12635180000.0 -0.17524585931472436 0.9845247019719123 -9.740123894037767e-18 -8.370281478389911e-17 -9.740123894037767e-18 -8.370281478389911e-17 -0.17524648861838907 0.9845245899553564
12635797333.333334 -0.1664590031504447 0.9860483762321195 -1.0491554094551295e-17 -8.359535460977568e-17 -1.0491554094551295e-17 -8.359535460977568e-17 -0.16645963339724135 0.9860482698372804
12636414666.666666 -0.1576589084332855 0.9874936296460162 -1.1241839420925763e-17 -8.348115409855558e-17 -1.1241839420925763e-17 -8.348115409855558e-17 -0.1576595395730006 0.9874935288808064
12637032000.0 -0.14884627503855305 0.9888603472720439 -1.1990919462115071e-17 -8.336022514781765e-17 -1.1990919462115071e-17 -8.336022514781765e-17 -0.14884690702090692 0.9888602521439258
12637649333.333334 -0.14002180383870236 0.9901484204146342 -1.2738733928421404e-17 -8.323258019613254e-17 -1.2738733928421404e-17 -8.323258019613254e-17 -0.14002243661335337 0.990148330930623
12638266666.666666 -0.13118619664768166 0.991357746632846 -1.3485222656340507e-17 -8.309823222184165e-17 -1.3485222656340507e-17 -8.309823222184165e-17 -0.13118683016423008 0.9913576627995068
12638884000.0 -0.12234015616506018 0.9924882297485182 -1.4230325613392567e-17 -8.295719474179405e-17 -1.4230325613392567e-17 -8.295719474179405e-17 -0.12234079037305198 0.992488151571965
12639501333.333334 -0.11348438592022639 0.993539779853906 -1.4973982902931095e-17 -8.280948181004105e-17 -1.4973982902931095e-17 -8.280948181004105e-17 -0.11348502076915779 0.9935397073398039
12640118666.666666 -0.10461959021643677 0.9945123133188364 -1.5716134768946066e-17 -8.265510801648725e-17 -1.5716134768946066e-17 -8.265510801648725e-17 -0.10462022565575775 0.9945122464723988
12640736000.0 -0.09574647407446286 0.9954057527973937 -1.6456721600881798e-17 -8.24940884854924e-17 -1.6456721600881798e-17 -8.24940884854924e-17 -0.09574711005358152 0.9954056916233837
12641353333.333334 -0.08686574317714245 0.9962200272340053 -1.7195683938359244e-17 -8.232643887444744e-17 -1.7195683938359244e-17 -8.232643887444744e-17 -0.0868663796454287 0.9962199717367319
12641970666.666666 -0.0779781038127756 0.9969550718691406 -1.7932962475989566e-17 -8.215217537228601e-17 -1.7932962475989566e-17 -8.215217537228601e-17 -0.07797874071956565 0.9969550220524643
12642588000.0 -0.06908426281906671 0.9976108282444546 -1.866849806808911e-17 -8.197131469797137e-17 -1.866849806808911e-17 -8.197131469797137e-17 -0.0690849001136667 0.9976107841117815
12643205333.333334 -0.06018492752699392 0.9981872442074232 -1.940223173342862e-17 -8.178387409893023e-17 -1.940223173342862e-17 -8.178387409893023e-17 -0.06018556515868422 0.9981872057617095
12643822666.666666 -0.05128080570441343 0.9986842739155084 -2.0134104659950913e-17 -8.158987134944782e-17 -2.0134104659950913e-17 -8.158987134944782e-17 -0.05128144362245241 0.9986842411592548
12644440000.0 -0.04237260549988339 0.9991018778397875 -2.0864058209463665e-17 -8.138932474902308e-17 -2.0864058209463665e-17 -8.138932474902308e-17 -0.042373243653511715 0.9991018507750443
12645057333.333334 -0.03346103538643029 0.9994400227681037 -2.1592033922330443e-17 -8.118225312067928e-17 -2.1592033922330443e-17 -8.118225312067928e-17 -0.033461673724874755 0.9994400013964666
12645674666.666666 -0.02454680410503304 0.9996986818077078 -2.231797352213124e-17 -8.09686758092354e-17 -2.231797352213124e-17 -8.09686758092354e-17 -0.024547442577510778 0.9996986661303211
12646292000.0 -0.015630620608171508 0.9998778343874031 -2.3041818920345705e-17 -8.074861267952604e-17 -2.3041818920345705e-17 -8.074861267952604e-17 -0.01563125916389392 0.9998778244049573
12646909333.333334 -0.006713194003755571 0.9999774662591696 -2.3763512220950275e-17 -8.052208411459865e-17 -2.3763512220950275e-17 -8.052208411459865e-17 -0.006713832591932397 0.9999774619719021
12647526666.666666 0.002204766501440932 0.9999975694993032 -2.448299572506215e-17 -8.028911101385128e-17 -2.448299572506215e-17 -8.028911101385128e-17 0.002204127931597563 0.9999975709069998
12648144000.0 0.01112255165832581 0.9999381425090484 -2.5200211935540274e-17 -8.004971479113656e-17 -2.5200211935540274e-17 -8.004971479113656e-17 0.011121913157597373 0.9999381496110419
12648761333.333334 0.020039452231668097 0.9997991900147216 -2.5915103561549888e-17 -7.980391737282987e-17 -2.5915103561549888e-17 -7.980391737282987e-17 0.020038813850825583 0.9997992028098898
12649378666.666666 0.02895475905656061 0.9995807230673353 -2.6627613523140668e-17 -7.955174119584805e-17 -2.6627613523140668e-17 -7.955174119584805e-17 0.028954120846360534 0.9995807415541046
12649996000.0 0.03786776309484858 0.9992827590417201 -2.7337684955794344e-17 -7.929320920562958e-17 -2.7337684955794344e-17 -7.929320920562958e-17 0.037867125106028944 0.9992827832180659
12650613333.333334 0.04677775549160498 0.9989053216351421 -2.8045261214946316e-17 -7.902834485407719e-17 -2.8045261214946316e-17 -7.902834485407719e-17 0.04677711777488125 0.9989053514985863
12651230666.666666 0.05568402763127892 0.9984484408654254 -2.8750285880485734e-17 -7.875717209746166e-17 -2.8750285880485734e-17 -7.875717209746166e-17 0.05568339023733989 0.9984484764130371
12651848000.0 0.06458587119436429 0.9979121530685477 -2.9452702761255426e-17 -7.847971539427719e-17 -2.9452702761255426e-17 -7.847971539427719e-17 0.06458523417386822 0.9979121942969459
12652465333.333334 0.07348257821350569 0.9972965008957647 -3.0152455899511653e-17 -7.819599970306521e-17 -3.0152455899511653e-17 -7.819599970306521e-17 0.07348194161707616 0.9972965478011162
12653082666.666666 0.08237344112969004 0.9966015333102259 -3.08494895753609e-17 -7.790605048019891e-17 -3.08494895753609e-17 -7.790605048019891e-17 0.08237280500791203 0.9966015858882464
12653700000.0 0.09125775284897268 0.9958273055830494 -3.154374831120897e-17 -7.760989367761566e-17 -3.154374831120897e-17 -7.760989367761566e-17 0.09125711725238835 0.9958273638290035
12654317333.333334 0.10013480679820255 0.9949738792889621 -3.223517687613549e-17 -7.730755574053064e-17 -3.223517687613549e-17 -7.730755574053064e-17 0.10013417177730753 0.9949739431976655
12654934666.666666 0.10900389698155646 0.9940413223013788 -3.292372029028887e-17 -7.699906360509531e-17 -3.292372029028887e-17 -7.699906360509531e-17 0.10900326258679563 0.9940413918671966
12655552000.0 0.11786431803657371 0.9930297087870097 -3.360932382925883e-17 -7.66844446960159e-17 -3.360932382925883e-17 -7.66844446960159e-17 0.1178636843183371 0.9930297840038569
12656169333.333334 0.12671536529016905 0.9919391191999731 -3.429193302838528e-17 -7.636372692415203e-17 -3.429193302838528e-17 -7.636372692415203e-17 0.1267147322987881 0.991939200061317
12656786666.666666 0.1355563348148456 0.9907696402753798 -3.497149368709664e-17 -7.60369386840532e-17 -3.497149368709664e-17 -7.60369386840532e-17 0.13555570260058902 0.9907697267742389
12657404000.0 0.14438652348459288 0.9895213650224397 -3.564795187319231e-17 -7.570410885147172e-17 -3.564795187319231e-17 -7.570410885147172e-17 0.14438589209766278 0.9895214571513856
12658021333.333334 0.1532052290307515 0.9881943927170781 -3.632125392710638e-17 -7.536526678083621e-17 -3.632125392710638e-17 -7.536526678083621e-17 0.15320459852127905 0.9881944904682342
12658638666.666666 0.16201175009789223 0.9867888288940331 -3.699134646615398e-17 -7.502044230268383e-17 -3.699134646615398e-17 -7.502044230268383e-17 0.16201112051593416 0.9867889322590776
12659256000.0 0.17080538629976427 0.9853047853384392 -3.765817638876389e-17 -7.466966572104942e-17 -3.765817638876389e-17 -7.466966572104942e-17 0.1708047576952985 0.985304894308604
12659873333.333334 0.17958543827477189 0.9837423800769683 -3.8321690878657136e-17 -7.431296781083245e-17 -3.8321690878657136e-17 -7.431296781083245e-17 0.17958481069769383 0.9837424946430405
12660490666.666666 0.18835120774162373 0.9821017373684416 -3.8981837409020095e-17 -7.395037981511735e-17 -3.8981837409020095e-17 -7.395037981511735e-17 0.18835058124174237 0.9821018575207652
12661108000.0 0.1971019975550353 0.980382987693919 -3.963856374666259e-17 -7.358193344245087e-17 -3.963856374666259e-17 -7.358193344245087e-17 0.19710137218206875 0.9803831134223928
12661725333.333334 0.20583711176094927 0.9785862677463596 -4.0291817956121856e-17 -7.320766086409923e-17 -4.0291817956121856e-17 -7.320766086409923e-17 0.20583648756452158 0.9785863990404422
12662342666.666666 0.21455585565208074 0.9767117204197162 -4.094154840377122e-17 -7.282759471125067e-17 -4.094154840377122e-17 -7.282759471125067e-17 0.21455523268171742 0.9767118572684237
12662960000.0 0.22325753582308383 0.9747594947975853 -4.158770376188063e-17 -7.244176807219556e-17 -4.158770376188063e-17 -7.244176807219556e-17 0.22325691412820775 0.9747596371894915
12663577333.333334 0.23194146022561468 0.9727297461413674 -4.223023301266273e-17 -7.205021448946281e-17 -4.223023301266273e-17 -7.205021448946281e-17 0.23194083985554284 0.9727298940646089
12664194666.666666 0.24060693822353763 0.9706226358778852 -4.286908545228019e-17 -7.165296795692823e-17 -4.286908545228019e-17 -7.165296795692823e-17 0.24060631922747666 0.9706227893201583
12664812000.0 0.24925328064774055 0.9684383315865694 -4.350421069484637e-17 -7.125006291687506e-17 -4.350421069484637e-17 -7.125006291687506e-17 0.24925266307478322 0.9684384905351334
12665429333.333334 0.2578797998510273 0.9661770069861076 -4.4135558676380196e-17 -7.084153425703029e-17 -4.4135558676380196e-17 -7.084153425703029e-17 0.25787918375014834 0.9661771714277856
12666046666.666666 0.26648580976255964 0.9638388419206979 -4.476307965873169e-17 -7.042741730756763e-17 -4.476307965873169e-17 -7.042741730756763e-17 0.2664851951826117 0.9638390118418761
12666664000.0 0.2750706259428871 0.9614240223456179 -4.5386724233511406e-17 -7.000774783805504e-17 -4.5386724233511406e-17 -7.000774783805504e-17 0.2750700129325977 0.9614241977322496
12667281333.333334 0.28363356563788755 0.9589327403125714 -4.6006443325931797e-17 -6.95825620544066e-17 -4.6006443325931797e-17 -6.95825620544066e-17 0.2836329542458539 0.9589329211501753
12667898666.666666 0.29217394783339484 0.9563651939543217 -4.662218819868783e-17 -6.915189659575643e-17 -4.662218819868783e-17 -6.915189659575643e-17 0.2921733381080814 0.9563653802279859
12668516000.0 0.3006910933092516 0.9537215874689667 -4.72339104557687e-17 -6.871578853132401e-17 -4.72339104557687e-17 -6.871578853132401e-17 0.30069048529898507 0.953721779163347
12669133333.333334 0.3091843246932456 0.9510021311037222 -4.784156204623288e-17 -6.827427535725205e-17 -4.784156204623288e-17 -6.827427535725205e-17 0.30918371844621173 0.9510023282030453
12669750666.666666 0.3176529665151446 0.9482070411381514 -4.844509526799098e-17 -6.782739499338519e-17 -4.844509526799098e-17 -6.782739499338519e-17 0.3176523620793846 0.9482072436262167
