! Parameters = {f0=12700.012000; bw=77.238000; Q=6100.000000; N=10; m_0_1=1.267963; m_1_1=0.254699; m_1_2=1.102775; m_2_2=0.254050; m_2_3=0.739738; m_2_8=0.000462; m_2_9=0.037166; m_3_3=0.252113; m_3_4=0.628267; m_3_7=0.001062; m_3_8=-0.096026; m_3_9=0.000462; m_4_4=0.249188; m_4_5=0.464602; m_4_6=0.004579; m_4_7=-0.116575; m_4_8=0.001062; m_5_5=0.249570; m_5_6=0.871957; m_5_7=0.004579; m_6_6=0.249569; m_6_7=0.464944; m_7_7=0.249202; m_7_8=0.628385; m_8_8=0.252111; m_8_9=0.740051; m_9_9=0.254045; m_9_10=1.103853; m_10_10=0.254689; m_10_11=1.268758}
!
! Created with skrf (http://scikit-rf.org).
# Hz S RI R 50.0 
!freq ReS11 ImS11 ReS21 ImS21 ReS12 ImS12 ReS22 ImS22
12607400000.0 -0.4131228150675822 0.9106753206661863 1.505522926568151e-17 -1.085048004966926e-16 1.505522926568151e-17 -1.085048004966926e-16 -0.4131234234368561 0.9106750446825894
12608017333.333334 -0.4035722299468882 0.9149477882456021 1.390680938165121e-17 -1.0863633294941013e-16 1.390680938165121e-17 -1.0863633294941013e-16 -0.4035728411404261 0.9149475186553975
12608634666.666666 -0.3939774667227325 0.9191200986348638 1.2757290876046809e-17 -1.0875571850970415e-16 1.2757290876046809e-17 -1.0875571850970415e-16 -0.3939780806733546 0.919119835466934
12609252000.0 -0.3843395757114319 0.9231917951009851 1.160680214250444e-17 -1.0886294864478388e-16 1.160680214250444e-17 -1.0886294864478388e-16 -0.38434019235166395 0.923191538383509
12609869333.333334 -0.37465961195029573 0.9271624319249983 1.0455471632357427e-17 -1.0895801617809866e-16 1.0455471632357427e-17 -1.0895801617809866e-16 -0.3746602312123753 0.9271621816854444
12610486666.666666 -0.3649386350823684 0.9310315744506422 9.303427840347476e-18 -1.0904091528960345e-16 9.303427840347476e-18 -1.0904091528960345e-16 -0.36493925689825296 0.9310313307157684
12611104000.0 -0.3551777092401171 0.9347987991320741 8.150799290255967e-18 -1.0911164151587953e-16 8.150799290255967e-18 -1.0911164151587953e-16 -0.35517833354149125 0.9347985619279231
12611721333.333334 -0.345377902929286 0.9384636935800941 6.997714520646147e-18 -1.091701917500953e-16 6.997714520646147e-18 -1.091701917500953e-16 -0.34537852964756943 0.9384634629319925
12612338666.666666 -0.33554028891177384 0.9420258566073585 5.844302070519413e-18 -1.0921656424182414e-16 5.844302070519413e-18 -1.0921656424182414e-16 -0.3355409179781276 0.942025632539911
12612956000.0 -0.32566594408803756 0.9454848982723477 4.690690465011136e-18 -1.0925075859670675e-16 4.690690465011136e-18 -1.0925075859670675e-16 -0.3256665754333726 0.9454846808094369
12613573333.333334 -0.3157559493795554 0.9488404399219293 3.537008201118614e-18 -1.0927277577596401e-16 3.537008201118614e-18 -1.0927277577596401e-16 -0.3157565829345403 0.9488402290867132
12614190666.666666 -0.30581138961017956 0.9520921142329221 2.383383733394169e-18 -1.0928261809575946e-16 2.383383733394169e-18 -1.0928261809575946e-16 -0.3058120253052478 0.9520919100478307
12614808000.0 -0.295833353387625 0.9552395652522238 1.2299454596641659e-18 -1.0928028922641173e-16 1.2299454596641659e-18 -1.0928028922641173e-16 -0.29583399115298237 0.9552393677389565
12615425333.333334 -0.2858229329841128 0.9582824484358378 7.682170677229832e-20 -1.0926579419145516e-16 7.682170677229832e-20 -1.0926579419145516e-16 -0.28582357274974546 0.958282257615362
12616042666.666666 -0.27578122421691037 0.961220430686555 -1.0758592836760307e-18 -1.092391393665516e-16 -1.0758592836760307e-18 -1.092391393665516e-16 -0.27578186591259235 0.9612202465791039
12616660000.0 -0.2657093263283477 0.9640531903904274 -2.227969369551181e-18 -1.0920033247825159e-16 -2.227969369551181e-18 -1.0920033247825159e-16 -0.26570996988364837 0.9640530130154954
12617277333.333334 -0.25560834186542974 0.9667804174519826 -3.3793805224262973e-18 -1.091493826026052e-16 -3.3793805224262973e-18 -1.091493826026052e-16 -0.25560898720972264 0.9667802468283285
12617894666.666666 -0.24547937655939306 0.969401813328114 -4.529964841752006e-18 -1.0908630016362543e-16 -4.529964841752006e-18 -1.0908630016362543e-16 -0.24548002362186197 0.9694016494737535
12618512000.0 -0.23532353920419433 0.9719170910608768 -5.679594569091963e-18 -1.0901109693159837e-16 -5.679594569091963e-18 -1.0901109693159837e-16 -0.23532418791384208 0.9719169339930829
12619129333.333334 -0.2251419415356293 0.9743259753087734 -6.8281421022285e-18 -1.0892378602124896e-16 -6.8281421022285e-18 -1.0892378602124896e-16 -0.22514259182128557 0.9743258250440753
12619746666.666666 -0.21493569810933105 0.9766282023769742 -7.97548000933526e-18 -1.0882438188975379e-16 -7.97548000933526e-18 -1.0882438188975379e-16 -0.21493634989965993 0.9766280589311548
12620364000.0 -0.20470592617873334 0.9788235202461842 -9.121481043094294e-18 -1.0871290033460633e-16 -9.121481043094294e-18 -1.0871290033460633e-16 -0.20470657940224113 0.9788233836342782
12620981333.333334 -0.19445374557312867 0.9809116886001547 -1.0266018154743916e-17 -1.085893584913383e-16 -1.0266018154743916e-17 -1.085893584913383e-16 -0.19445440015817184 0.9809115588364474
12621598666.666666 -0.18418027857463892 0.9828924788520839 -1.1408964508188493e-17 -1.084537748310845e-16 -1.1408964508188493e-17 -1.084537748310845e-16 -0.18418093444943198 0.9828923559501104
12622216000.0 -0.17388664979561158 0.9847656741695886 -1.2550193494001915e-17 -1.0830616915800773e-16 -1.2550193494001915e-17 -1.0830616915800773e-16 -0.1738873068882347 0.9847655581421297
12622833333.333334 -0.16357398605539936 0.9865310694984585 -1.3689578743440393e-17 -1.0814656260657168e-16 -1.3689578743440393e-17 -1.0814656260657168e-16 -0.1635746442938068 0.9865309603575444
12623450666.666666 -0.15324341625723473 0.9881884715850698 -1.4826994142386176e-17 -1.079749776386721e-16 -1.4826994142386176e-17 -1.079749776386721e-16 -0.1532440755692619 0.9881883693419723
12624068000.0 -0.14289607126434253 0.9897376989975881 -1.5962313845315845e-17 -1.0779143804061354e-16 -1.5962313845315845e-17 -1.0779143804061354e-16 -0.1428967315777147 0.9897376036628246
12624685333.333334 -0.13253308377623116 0.9911785821458142 -1.7095412289190106e-17 -1.0759596891994503e-16 -1.7095412289190106e-17 -1.0759596891994503e-16 -0.13253374501857101 0.991178493729145
12625302666.666666 -0.12215558820495184 0.9925109632997142 -1.822616420728864e-17 -1.0738859670215414e-16 -1.822616420728864e-17 -1.0738859670215414e-16 -0.12215625030378734 0.9925108818101407
12625920000.0 -0.11176472055046657 0.9937346966067454 -1.9354444643079724e-17 -1.0716934912720256e-16 -1.9354444643079724e-17 -1.0716934912720256e-16 -0.11176538343323911 0.9937346220525103
12626537333.333334 -0.10136161827680042 0.9948496481077592 -2.0480128963964617e-17 -1.0693825524593291e-16 -2.0480128963964617e-17 -1.0693825524593291e-16 -0.10136228187087265 0.9948495804963448
12627154666.666666 -0.09094742018718766 0.9958556957517081 -2.1603092875026175e-17 -1.0669534541632158e-16 -2.1603092875026175e-17 -1.0669534541632158e-16 -0.09094808441985161 0.9958556350898377
12627772000.0 -0.08052326629932437 0.9967527294090107 -2.2723212432764843e-17 -1.0644065129958228e-16 -2.2723212432764843e-17 -1.0644065129958228e-16 -0.08052393109780905 0.9967526757026436
12628389333.333334 -0.07009029772105434 0.9975406508835614 -2.384036405869928e-17 -1.0617420585614444e-16 -2.384036405869928e-17 -1.0617420585614444e-16 -0.07009096301253406 0.9975406041378965
12629006666.666666 -0.05964965652486028 0.9982193739235335 -2.495442455302381e-17 -1.0589604334146652e-16 -2.495442455302381e-17 -1.0589604334146652e-16 -0.05965032223646254 0.9982193341430078
12629624000.0 -0.04920248562326871 0.998788824230787 -2.6065271108137077e-17 -1.0560619930172542e-16 -2.6065271108137077e-17 -1.0560619930172542e-16 -0.049203151682082114 0.9987887914190737
12630241333.333334 -0.03874992864353944 0.9992489394690122 -2.7172781322175757e-17 -1.0530471056935095e-16 -2.7172781322175757e-17 -1.0530471056935095e-16 -0.03875059497662175 0.9992489136290225
12630858666.666666 -0.028293129802645943 0.9995996692705508 -2.8276833212447164e-17 -1.0499161525843238e-16 -2.8276833212447164e-17 -1.0499161525843238e-16 -0.028293796337031996 0.9995996504044319
12631476000.0 -0.017833233781679617 0.9998409752419193 -2.937730522889023e-17 -1.046669527599617e-16 -2.937730522889023e-17 -1.046669527599617e-16 -0.017833900444389317 0.9998409633510539
12632093333.333334 -0.007371385601027133 0.9999728309679953 -3.0474076267382086e-17 -1.0433076373696543e-16 -3.0474076267382086e-17 -1.0433076373696543e-16 -0.0073720523190735025 0.9999728260530029
12632710666.666666 0.0030912695053130672 0.9999952220149206 -3.1567025683061186e-17 -1.0398309011947655e-16 -3.1567025683061186e-17 -1.0398309011947655e-16 0.0030906028049159217 0.999995224075659
12633328000.0 0.01355358621512534 0.9999081459316816 -3.265603330359079e-17 -1.0362397509936737e-16 -3.265603330359079e-17 -1.0362397509936737e-16 0.013552919605354265 0.9999081549672428
12633945333.333334 0.024014419243153673 0.9997116122503723 -3.3740979442308894e-17 -1.0325346312506194e-16 -3.3740979442308894e-17 -1.0325346312506194e-16 0.024013752796968445 0.9997116282590851
12634562666.666666 0.03447262346650175 0.999405642485153 -3.482174491138963e-17 -1.0287159989608848e-16 -3.482174491138963e-17 -1.0287159989608848e-16 0.03447195725683713 0.9994056654645839
12635180000.0 0.04492705405012899 0.9989902701298955 -3.5898211034896955e-17 -1.0247843235750967e-16 -3.5898211034896955e-17 -1.0247843235750967e-16 0.04492638814988671 0.998990300076848
12635797333.333334 0.05537656657208764 0.9984655406545144 -3.6970259661796695e-17 -1.0207400869420947e-16 -3.6970259661796695e-17 -1.0207400869420947e-16 0.05537590105412845 0.9984655775650297
12636414666.666666 0.0658200171487432 0.9978315114999943 -3.803777317889075e-17 -1.0165837832504992e-16 -3.803777317889075e-17 -1.0165837832504992e-16 0.06581935208587887 0.9978315553693518
12637032000.0 0.07625626256004964 0.9970882520721013 -3.910063452370077e-17 -1.0123159189688741e-16 -3.910063452370077e-17 -1.0123159189688741e-16 0.07625559802503497 0.9970883028948183
12637649333.333334 0.08668416037475137 0.9962358437337766 -4.0158727197285656e-17 -1.0079370127845474e-16 -4.0158727197285656e-17 -1.0079370127845474e-16 0.08668349644027638 0.9962359015036116
12638266666.666666 0.09710256907535779 0.9952743797962403 -4.121193527697663e-17 -1.0034475955411458e-16 -4.121193527697663e-17 -1.0034475955411458e-16 0.09710190581403963 0.9952744445061907
12638884000.0 0.10751034818313066 0.9942039655087718 -4.226014342905513e-17 -9.988482101747651e-17 -4.226014342905513e-17 -9.988482101747651e-17 0.10750968566750567 0.9942040371510765
12639501333.333334 0.11790635838298619 0.9930247180471834 -4.330323692136253e-17 -9.941394116487977e-17 -4.330323692136253e-17 -9.941394116487977e-17 0.117905696685502 0.993024796613323
12640118666.666666 0.12828946164793084 0.9917367665010254 -4.434110163580477e-17 -9.893217668876069e-17 -4.434110163580477e-17 -9.893217668876069e-17 0.12828880084093852 0.9917368519817235
12640736000.0 0.13865852136425932 0.9903402518593815 -4.537362408087311e-17 -9.84395854708483e-17 -4.537362408087311e-17 -9.84395854708483e-17 0.1386578615200053 0.9903403442446058
12641353333.333334 0.1490124024551873 0.9888353269955311 -4.6400691403950654e-17 -9.793622657529493e-17 -4.6400691403950654e-17 -9.793622657529493e-17 0.14901174364580563 0.9888354262744948
12641970666.666666 0.15934997150575372 0.9872221566501334 -4.742219140368237e-17 -9.742216024161271e-17 -4.742219140368237e-17 -9.742216024161271e-17 0.1593493138032582 0.987222262811296
12642588000.0 0.1696700968864993 0.985500917413247 -4.8438012542181556e-17 -9.689744787752286e-17 -4.8438012542181556e-17 -9.689744787752286e-17 0.16966944036277537 0.9855010304443154
12643205333.333334 0.17997164887753983 0.9836717977049688 -4.944804395717449e-17 -9.636215205167004e-17 -4.944804395717449e-17 -9.636215205167004e-17 0.17997099360433708 0.9836719175929
12643822666.666666 0.19025349979223374 0.9817349977548081 -5.0452175474100876e-17 -9.581633648619229e-17 -5.0452175474100876e-17 -9.581633648619229e-17 0.19025284584115756 0.9817351244858082
12644440000.0 0.20051452410051496 0.9796907295797839 -5.145029761808087e-17 -9.526006604919202e-17 -5.145029761808087e-17 -9.526006604919202e-17 0.2005138715430196 0.9796908631393143
12645057333.333334 0.21075359855215914 0.9775392169612128 -5.244230162582998e-17 -9.469340674706745e-17 -5.244230162582998e-17 -9.469340674706745e-17 0.21075294745953876 0.977539357333986
12645674666.666666 0.2209696022996308 0.9752806954202298 -5.3428079457484357e-17 -9.41164257167226e-17 -5.3428079457484357e-17 -9.41164257167226e-17 0.2209689527430127 0.975280842590216
12646292000.0 0.23116141702114254 0.9729154121919347 -5.440752380836239e-17 -9.352919121764246e-17 -5.440752380836239e-17 -9.352919121764246e-17 0.23116076907147845 0.9729155661423592
12646909333.333334 0.24132792704260142 0.9704436261984238 -5.5380528120573353e-17 -9.293177262388497e-17 -5.5380528120573353e-17 -9.293177262388497e-17 0.24132728077066054 0.9704437869117734
12647526666.666666 0.2514680194600731 0.9678656080203774 -5.634698659462643e-17 -9.23242404159012e-17 -5.634698659462643e-17 -9.23242404159012e-17 0.251467374936434 0.9678657754783997
12648144000.0 0.2615805842614694 0.9651816398674673 -5.730679420089428e-17 -9.17066661722674e-17 -5.730679420089428e-17 -9.17066661722674e-17 0.26157994155651293 0.9651818140511746
12648761333.333334 0.27166451444811557 0.9623920155474562 -5.825984669099267e-17 -9.107912256129595e-17 -5.825984669099267e-17 -9.107912256129595e-17 0.2716638736320157 0.9623921964371246
12649378666.666666 0.28171870615581873 0.9594970404340578 -5.920604060907917e-17 -9.044168333252226e-17 -5.920604060907917e-17 -9.044168333252226e-17 0.2817180672985367 0.9594972280092328
12649996000.0 0.29174205877587217 0.9564970314334702 -6.014527330305876e-17 -8.979442330807352e-17 -6.014527330305876e-17 -8.979442330807352e-17 0.2917414219471475 0.9564972256729666
12650613333.333334 0.3017334750754788 0.9533923169496915 -6.107744293570102e-17 -8.913741837391879e-17 -6.107744293570102e-17 -8.913741837391879e-17 0.3017328403448221 0.9533925178315967
12651230666.666666 0.31169186131764753 0.9501832368486434 -6.200244849563439e-17 -8.847074547102294e-17 -6.200244849563439e-17 -8.847074547102294e-17 0.3116912287543333 0.9501834443503208
12651848000.0 0.32161612738135564 0.9468701424208309 -6.292018980829204e-17 -8.779448258635343e-17 -6.292018980829204e-17 -8.779448258635343e-17 0.3216154970544141 0.9468703565189205
12652465333.333334 0.3315051868805285 0.9434533963429942 -6.383056754671267e-17 -8.710870874380751e-17 -6.383056754671267e-17 -8.710870874380751e-17 0.3315045588587384 0.9434536170134165
12653082666.666666 0.3413579572830191 0.9399333726383957 -6.473348324225327e-17 -8.641350399502142e-17 -6.473348324225327e-17 -8.641350399502142e-17 0.3413573316349005 0.9399335998563548
12653700000.0 0.35117336002927185 0.9363104566358197 -6.562883929525109e-17 -8.57089494100314e-17 -6.562883929525109e-17 -8.57089494100314e-17 0.35117273682307765 0.9363106903758041
12654317333.333334 0.36095032065017424 0.932585044927465 -6.651653898550143e-17 -8.499512706788825e-17 -6.651653898550143e-17 -8.499512706788825e-17 0.360949699953884 0.932585285163253
12654934666.666666 0.3706877688848387 0.9287575453254773 -6.739648648270448e-17 -8.427212004710903e-17 -6.739648648270448e-17 -8.427212004710903e-17 0.37068715076615033 0.9287577920301386
12655552000.0 0.3803846387977852 0.92482837681729 -6.826858685678427e-17 -8.354001241603993e-17 -6.826858685678427e-17 -8.354001241603993e-17 0.3803840233241083 0.9248286299631893
12656169333.333334 0.39003986889541736 0.9207979695198459 -6.913274608807035e-17 -8.279888922313996e-17 -6.913274608807035e-17 -8.279888922313996e-17 0.3900392561338647 0.920798229078644
12656786666.666666 0.3996524022423784 0.9166667646324482 -6.998887107744339e-17 -8.204883648710331e-17 -6.998887107744339e-17 -8.204883648710331e-17 0.39965179225976 0.9166670305751082
12657404000.0 0.40922118657727996 0.9124352143884563 -7.083686965631468e-17 -8.1289941186926e-17 -7.083686965631468e-17 -8.1289941186926e-17 0.4092205794400945 0.9124354866852441
12658021333.333334 0.41874517442783415 0.9081037820057942 -7.167665059652666e-17 -8.052229125184594e-17 -7.167665059652666e-17 -8.052229125184594e-17 0.41874457020226297 0.9081040606262846
12658638666.666666 0.42822332322544426 0.9036729416362881 -7.2508123620127e-17 -7.974597555119826e-17 -7.2508123620127e-17 -7.974597555119826e-17 0.4282227219773431 0.903673226549365
12659256000.0 0.4376545954194849 0.8991431783136836 -7.333119940906855e-17 -7.89610838841356e-17 -7.333119940906855e-17 -7.89610838841356e-17 0.43765399721437764 0.8991434694875468
12659873333.333334 0.44703795859080375 0.8945149879005904 -7.414578961474523e-17 -7.816770696929986e-17 -7.414578961474523e-17 -7.816770696929986e-17 0.4470373634938741 0.8945152853027558
12660490666.666666 0.4563723855646351 0.8897888770342484 -7.495180686745915e-17 -7.736593643435594e-17 -7.495180686745915e-17 -7.736593643435594e-17 0.45637179364072156 0.8897891806315561
12661108000.0 0.4656568545233505 0.8849653630709206 -7.574916478577412e-17 -7.655586480542762e-17 -7.574916478577412e-17 -7.655586480542762e-17 0.4656562658369357 0.8849656728295318
12661725333.333334 0.4748903491178527 0.8800449740294813 -7.653777798571486e-17 -7.573758549647881e-17 -7.653777798571486e-17 -7.573758549647881e-17 0.47488976373306113 0.8800452899148901
12662342666.666666 0.4840718585792691 0.8750282485334041 -7.731756208990503e-17 -7.491119279854586e-17 -7.731756208990503e-17 -7.491119279854586e-17 0.4840712765598561 0.8750285705104354
12662960000.0 0.49320037782936804 0.8699157357519142 -7.808843373654552e-17 -7.407678186892275e-17 -7.808843373654552e-17 -7.407678186892275e-17 0.49319979923871443 0.8699160637847289
12663577333.333334 0.502274907590632 0.8647079953398423 -7.885031058830964e-17 -7.323444872021833e-17 -7.885031058830964e-17 -7.323444872021833e-17 0.5022743324917373 0.864708329391943
12664194666.666666 0.511294454495671 0.8594055973763487 -7.960311134109767e-17 -7.238429020934736e-17 -7.960311134109767e-17 -7.238429020934736e-17 0.5112938829511472 0.8594059374105835
12664812000.0 0.5202580311958693 0.8540091223025801 -8.034675573268391e-17 -7.152640402642083e-17 -8.034675573268391e-17 -7.152640402642083e-17 0.5202574632679322 0.8540094682811442
12665429333.333334 0.5291646564696346 0.8485191608580201 -8.108116455124583e-17 -7.066088868354509e-17 -8.108116455124583e-17 -7.066088868354509e-17 0.5291640922200981 0.8485195127424624
12666046666.666666 0.5380133553295948 0.8429363140159624 -8.180625964375152e-17 -6.978784350355999e-17 -8.180625964375152e-17 -6.978784350355999e-17 0.5380127948198641 0.8429366717671883
12666664000.0 0.5468031591296387 0.8372611929175225 -8.252196392427781e-17 -6.890736860863052e-17 -8.252196392427781e-17 -6.890736860863052e-17 0.5468026024207042 0.8372615564958008
12667281333.333334 0.5555331056705213 0.8314944188050158 -8.322820138213643e-17 -6.80195649088352e-17 -8.322820138213643e-17 -6.80195649088352e-17 0.5555325528229516 0.8314947881699805
12667898666.666666 0.5642022393055763 0.8256366229537055 -8.392489708993557e-17 -6.712453409060417e-17 -8.392489708993557e-17 -6.712453409060417e-17 0.5642016903795106 0.8256369980643606
12668516000.0 0.5728096110452296 0.8196884466027555 -8.461197721149658e-17 -6.622237860509769e-17 -8.461197721149658e-17 -6.622237860509769e-17 0.5728090661003726 0.8196888274174808
12669133333.333334 0.5813542786606983 0.8136505408851666 -8.528936900962139e-17 -6.531320165653899e-17 -8.528936900962139e-17 -6.531320165653899e-17 0.581353737756313 0.8136509273617217
12669750666.666666 0.5898353067873895 0.8075235667563218 -8.595700085378817e-17 -6.439710719039718e-17 -8.595700085378817e-17 -6.439710719039718e-17 0.5898347699822909 0.80752395885185
