! Parameters = {f0=12700.012000; bw=77.238000; Q=6100.000000; N=10; m_0_1=1.341236; m_1_1=1.353798; m_1_2=1.176048; m_2_2=1.353149; m_2_3=0.813011; m_2_8=0.004126; m_2_9=0.040830; m_3_3=1.351212; m_3_4=0.701540; m_3_7=0.004726; m_3_8=-0.092362; m_3_9=0.004126; m_4_4=1.348287; m_4_5=0.537875; m_4_6=0.008243; m_4_7=-0.112911; m_4_8=0.004726; m_5_5=1.348669; m_5_6=0.945230; m_5_7=0.008243; m_6_6=1.348668; m_6_7=0.538217; m_7_7=1.348301; m_7_8=0.701658; m_8_8=1.351210; m_8_9=0.813324; m_9_9=1.353144; m_9_10=1.177126; m_10_10=1.353788; m_10_11=1.342031}
!
! Created with skrf (http://scikit-rf.org).
# Hz S RI R 50.0 
!freq ReS11 ImS11 ReS21 ImS21 ReS12 ImS12 ReS22 ImS22
12607400000.0 -0.14062712733519592 0.9900626298660369 -2.2398877695530077e-17 -1.5136378197757185e-16 -2.2398877695530077e-17 -1.5136378197757185e-16 -0.14062782682062125 0.9900625305118421
12608017333.333334 -0.12811286572530206 0.9917595946777901 -2.4317231173176198e-17 -1.5103711206082059e-16 -2.4317231173176198e-17 -1.5103711206082059e-16 -0.12811356637534638 0.9917595041694294
12608634666.666666 -0.11557817185418454 0.9932983872888584 -2.6230900676459416e-17 -1.5068614260862868e-16 -2.6230900676459416e-17 -1.5068614260862868e-16 -0.11557887355699527 0.9932983056399014
12609252000.0 -0.10302504483558522 0.9946787622827928 -2.813957857566646e-17 -1.5031093989151987e-16 -2.813957857566646e-17 -1.5031093989151987e-16 -0.10302574747915258 0.9946786895053923
12609869333.333334 -0.0904554867228544 0.9959004995086276 -3.0042958168617384e-17 -1.4991157407242453e-16 -3.0042958168617384e-17 -1.4991157407242453e-16 -0.09045619019502973 0.9959004356135222
12610486666.666666 -0.07787150219015981 0.9969634041159439 -3.1940733729922404e-17 -1.4948811919380704e-16 -3.1940733729922404e-17 -1.4948811919380704e-16 -0.0778722063786732 0.9969633491124538
12611104000.0 -0.06527509821208864 0.997867306586004 -3.3832600560018686e-17 -1.4904065316417674e-16 -3.3832600560018686e-17 -1.4904065316417674e-16 -0.06527580300456694 0.9978672604820303
12611721333.333334 -0.05266828374429864 0.9986120627587239 -3.571825503403084e-17 -1.4856925774397972e-16 -3.571825503403084e-17 -1.4856925774397972e-16 -0.052668989028283424 0.9986120255607488
12612338666.666666 -0.04005306940277765 0.9991975538557029 -3.759739465042985e-17 -1.4807401853087345e-16 -3.759739465042985e-17 -1.4807401853087345e-16 -0.04005377506574307 0.9991975255687865
12612956000.0 -0.027431467142836265 0.9996236864991715 -3.9469718079533686e-17 -1.4755502494437787e-16 -3.9469718079533686e-17 -1.4755502494437787e-16 -0.027432173072207102 0.9996236671269538
12613573333.333334 -0.01480548993896677 0.9998903927268582 -4.1334925211715296e-17 -1.4701237020993557e-16 -4.1334925211715296e-17 -1.4701237020993557e-16 -0.014806196022136281 0.9998903822715551
12614190666.666666 -0.0021771514631760682 0.9999976300028471 -4.319271720547843e-17 -1.4644615134234036e-16 -4.319271720547843e-17 -1.4644615134234036e-16 -0.0021778575875240364 0.9999976284652534
12614808000.0 0.010451534235940356 0.9999453812243537 -4.504279653525968e-17 -1.4585646912857515e-16 -4.504279653525968e-17 -1.4585646912857515e-16 0.010450828183029703 0.9999453886038432
12615425333.333334 0.023078553054241367 0.9997336547244596 -4.68848670390487e-17 -1.4524342811003064e-16 -4.68848670390487e-17 -1.4524342811003064e-16 0.02307784718536141 0.9997336710189834
12616042666.666666 0.03570189115360354 0.9993624842707776 -4.871863396568633e-17 -1.4460713656414889e-16 -4.871863396568633e-17 -1.4460713656414889e-16 0.03570118558130725 0.9993625094768629
12616660000.0 0.04831953528287354 0.9988319290600653 -5.054380402199941e-17 -1.4394770648544623e-16 -5.054380402199941e-17 -1.4394770648544623e-16 0.04831883011965561 0.998831963172821
12617277333.333334 0.06092947309906806 0.998142073708785 -5.2360085419639636e-17 -1.4326525356595422e-16 -5.2360085419639636e-17 -1.4326525356595422e-16 0.06092876845734693 0.9981421167218997
12617894666.666666 0.07352969348808822 0.9972930282396203 -5.416718792166148e-17 -1.4255989717507195e-16 -5.416718792166148e-17 -1.4255989717507195e-16 0.07352898948018817 0.9972930801453636
12618512000.0 0.08611818688586205 0.9962849280639032 -5.596482288887095e-17 -1.4183176033881535e-16 -5.596482288887095e-17 -1.4183176033881535e-16 0.08611748362399524 0.9962849888531263
12619129333.333334 0.09869294559838905 0.9951179339600493 -5.775270332581753e-17 -1.4108096971851517e-16 -5.775270332581753e-17 -1.4108096971851517e-16 0.0986922431946379 0.9951180036221908
12619746666.666666 0.11125196412233711 0.9937922320478891 -5.953054392657508e-17 -1.4030765558890795e-16 -5.953054392657508e-17 -1.4030765558890795e-16 0.111251262688636 0.9937923105709704
12620364000.0 0.12379323946472261 0.9923080337589905 -6.129806112023903e-17 -1.395119518156459e-16 -6.129806112023903e-17 -1.395119518156459e-16 0.12379253911284024 0.9923081211296213
12620981333.333334 0.13631477146219134 0.9906655758029618 -6.305497311600649e-17 -1.3869399583228823e-16 -6.305497311600649e-17 -1.3869399583228823e-16 0.13631407230371317 0.990665672006344
12621598666.666666 0.14881456310035665 0.9888651201296637 -6.480099994814903e-17 -1.378539286166368e-16 -6.480099994814903e-17 -1.378539286166368e-16 0.14881386524666676 0.9888652251495905
12622216000.0 0.16129062083206971 0.986906953887452 -6.653586352047461e-17 -1.369918946665955e-16 -6.653586352047461e-17 -1.369918946665955e-16 0.16128992439433334 0.9869070677063135
12622833333.333334 0.17374095489547622 0.9847913893773705 -6.825928765059719e-17 -1.3610804197541498e-16 -6.825928765059719e-17 -1.3610804197541498e-16 0.1737402599846217 0.9847915119761539
12623450666.666666 0.18616357963118785 0.9825187640033681 -6.997099811383156e-17 -1.3520252200640196e-16 -6.997099811383156e-17 -1.3520252200640196e-16 0.18616288635788938 0.9825188953616633
12624068000.0 0.19855651379902498 0.9800894402184842 -7.167072268675517e-17 -1.3427548966707864e-16 -7.167072268675517e-17 -1.3427548966707864e-16 0.1985558222736848 0.9800895803144858
12624685333.333334 0.2109177808943877 0.9775038054669617 -7.335819119046694e-17 -1.333271032827742e-16 -7.335819119046694e-17 -1.333271032827742e-16 0.21091709122711821 0.9775039542774725
12625302666.666666 0.22324540946275603 0.9747622721225977 -7.503313553341613e-17 -1.3235752456972117e-16 -7.503313553341613e-17 -1.3235752456972117e-16 0.2232447217633631 0.974762429623035
12625920000.0 0.23553743341477976 0.9718652774228442 -7.669528975399676e-17 -1.313669186075448e-16 -7.669528975399676e-17 -1.313669186075448e-16 0.23553674779274403 0.9718654435872393
12626537333.333334 0.24779189233934149 0.9688132833991757 -7.834439006263173e-17 -1.3035545381130716e-16 -7.834439006263173e-17 -1.3035545381130716e-16 0.24779120890380205 0.968813458200182
12627154666.666666 0.2600068318166047 0.9656067768033192 -7.998017488363881e-17 -1.2932330190293534e-16 -7.998017488363881e-17 -1.2932330190293534e-16 0.26000615067634136 0.9656069602122158
12627772000.0 0.2721803037295504 0.9622462690296562 -8.160238489665415e-17 -1.2827063788216435e-16 -8.160238489665415e-17 -1.2827063788216435e-16 0.27217962499296566 0.962246461016351
12628389333.333334 0.28431036657451036 0.9587322960337114 -8.321076307760313e-17 -1.2719763999700916e-16 -8.321076307760313e-17 -1.2719763999700916e-16 0.28430969034961356 0.9587324965667489
12629006666.666666 0.2963950857711408 0.9550654182465834 -8.480505473945847e-17 -1.2610448971361132e-16 -8.480505473945847e-17 -1.2610448971361132e-16 0.29639441216553 0.9550656272931477
12629624000.0 0.30843253397074255 0.9512462204856279 -8.638500757241612e-17 -1.249913716856994e-16 -8.638500757241612e-17 -1.249913716856994e-16 0.308431863091587 0.9512464380115474
12630241333.333334 0.3204207913637534 0.9472753118611452 -8.795037168382947e-17 -1.2385847372344062e-16 -8.795037168382947e-17 -1.2385847372344062e-16 0.32042012331777797 0.9472755378309018
12630858666.666666 0.33235794598571927 0.943153325679318 -8.95008996375807e-17 -1.2270598676190252e-16 -8.95008996375807e-17 -1.2270598676190252e-16 0.33235728087918603 0.9431535600560483
12631476000.0 0.34424209402254824 0.9388809193410931 -9.103634649322294e-17 -1.2153410482889193e-16 -9.103634649322294e-17 -1.2153410482889193e-16 0.3442414319612399 0.9388811620865969
12632093333.333334 0.3560713401139801 0.9344587742373864 -9.255646984453524e-17 -1.2034302501242734e-16 -9.255646984453524e-17 -1.2034302501242734e-16 0.356070681203184 0.9344590253121343
12632710666.666666 0.36784379765571307 0.9298875956404768 -9.406102985772374e-17 -1.1913294742767998e-16 -9.406102985772374e-17 -1.1913294742767998e-16 0.3678431420002037 0.9298878550036138
12633328000.0 0.3795575891006103 0.9251681125914019 -9.55497893092453e-17 -1.1790407518339427e-16 -9.55497893092453e-17 -1.1790407518339427e-16 0.3795569368046323 0.9251683802007545
12633945333.333334 0.3912108462579297 0.9203010777837644 -9.70225136230996e-17 -1.1665661434791264e-16 -9.70225136230996e-17 -1.1665661434791264e-16 0.39121019742518237 0.92030135359585
12634562666.666666 0.4028017105913813 0.9152872674436486 -9.84789709077126e-17 -1.1539077391470846e-16 -9.84789709077126e-17 -1.1539077391470846e-16 0.40280106532500115 0.915287551413679
12635180000.0 0.414328333515329 0.9101274812059104 -9.991893199239226e-17 -1.1410676576744361e-16 -9.991893199239226e-17 -1.1410676576744361e-16 0.4143276919178738 0.9101277732878011
12635797333.333334 0.4257888766899804 0.9048225419864879 -1.0134217046334205e-16 -1.1280480464456035e-16 -1.0134217046334205e-16 -1.1280480464456035e-16 0.42578823886341277 0.9048228421328661
12636414666.666666 0.4371815123141608 0.899373295851343 -1.0274846269912395e-16 -1.1148510810350468e-16 -1.0274846269912395e-16 -1.1148510810350468e-16 0.4371808783598324 0.8993736040135544
12637032000.0 0.44850442341718655 0.8937806118813622 -1.0413758790578013e-16 -1.1014789648440099e-16 -1.0413758790578013e-16 -1.1014789648440099e-16 0.44850379343582086 0.8937809280094775
12637649333.333334 0.45975580414848816 0.8880453820338134 -1.0550932815141714e-16 -1.0879339287334592e-16 -1.0550932815141714e-16 -1.0879339287334592e-16 0.4597551782401659 0.8880457060766395
12638266666.666666 0.47093386006547105 0.882168521000177 -1.068634684002909e-16 -1.0742182306529847e-16 -1.068634684002909e-16 -1.0742182306529847e-16 0.4709332383296136 0.8821688529052629
12638884000.0 0.48203680842000746 0.8761509660601062 -1.0819979654646624e-16 -1.0603341552649299e-16 -1.0819979654646624e-16 -1.0603341552649299e-16 0.4820361909553606 0.8761513057737523
12639501333.333334 0.4930628784426068 0.8699936769320198 -1.0951810344695764e-16 -1.0462840135646413e-16 -1.0951810344695764e-16 -1.0462840135646413e-16 0.49306226534722597 0.8699940243992861
12640118666.666666 0.5040103116246337 0.8636976356201539 -1.1081818295437401e-16 -1.0320701424966877e-16 -1.1081818295437401e-16 -1.0320701424966877e-16 0.5040097029958677 0.8636979907848696
12640736000.0 0.5148773619993576 0.8572638462576072 -1.1209983194912888e-16 -1.0176949045663231e-16 -1.1209983194912888e-16 -1.0176949045663231e-16 0.5148767579338338 0.85726420906238
12641353333.333334 0.5256622964195263 0.8506933349467096 -1.133628503710045e-16 -1.003160687448568e-16 -1.133628503710045e-16 -1.003160687448568e-16 0.5256616970131345 0.8506937053329335
12641970666.666666 0.5363633948346124 0.8439871495948821 -1.1460704125038254e-16 -9.884699035914612e-17 -1.1460704125038254e-16 -9.884699035914612e-17 0.53636280018249 0.843987527502748
12642588000.0 0.5469789505646983 0.8371463597477715 -1.1583221073884742e-16 -9.736249898167389e-17 -1.1583221073884742e-16 -9.736249898167389e-17 0.5469783607612158 0.8371467451162771
12643205333.333334 0.5575072705727651 0.8301720564186138 -1.1703816813930802e-16 -9.58628406916348e-17 -1.1703816813930802e-16 -9.58628406916348e-17 0.5575066857115099 0.8301724491855722
12643822666.666666 0.5679466757347092 0.8230653519142308 -1.1822472593561407e-16 -9.43482639245038e-17 -1.1822472593561407e-16 -9.43482639245038e-17 0.5679460959084721 0.8230657520162826
12644440000.0 0.578295501107188 0.8158273796576031 -1.1939169982162476e-16 -9.281901943095685e-17 -1.1939169982162476e-16 -9.281901943095685e-17 0.5782949264079469 0.8158277870302236
12645057333.333334 0.5885520961930127 0.8084592940071974 -1.205389087297214e-16 -9.127536023546798e-17 -1.205389087297214e-16 -9.127536023546798e-17 0.5885515267119193 0.8084597085847096
12645674666.666666 0.5987148252044321 0.8009622700728366 -1.2166617485885956e-16 -8.971754159445978e-17 -1.2166617485885956e-16 -8.971754159445978e-17 0.598714261031797 0.8009626917884212
12646292000.0 0.6087820673243355 0.793337503528046 -1.227733237020383e-16 -8.814582095416297e-17 -1.227733237020383e-16 -8.814582095416297e-17 0.6087815085496149 0.7933379323137523
12646909333.333334 0.6187522169642041 0.7855862104197652 -1.2386018407317723e-16 -8.656045790820862e-17 -1.2386018407317723e-16 -8.656045790820862e-17 0.618751663675983 0.7855866462065201
12647526666.666666 0.628623684020455 0.7777096269742043 -1.2492658813356201e-16 -8.496171415472997e-17 -1.2492658813356201e-16 -8.496171415472997e-17 0.6286231363064357 0.777710069691826
12648144000.0 0.6383948941282633 0.7697090093995054 -1.2597237141763678e-16 -8.334985345327929e-17 -1.2597237141763678e-16 -8.334985345327929e-17 0.6383943520752506 0.7697094589767135
12648761333.333334 0.648064288912294 0.7615856336856726 -1.2699737285827853e-16 -8.172514158138073e-17 -1.2699737285827853e-16 -8.172514158138073e-17 0.6480637526061811 0.7615860900500998
12649378666.666666 0.6576303262353316 0.7533407954010032 -1.2800143481150149e-16 -8.008784629078788e-17 -1.2800143481150149e-16 -8.008784629078788e-17 0.6576297957610872 0.7533412584792065
12649996000.0 0.6670914804442771 0.7449758094854262 -1.289844030806501e-16 -7.843823726335973e-17 -1.289844030806501e-16 -7.843823726335973e-17 0.6670909558859321 0.7449762792029004
12650613333.333334 0.6764462426135956 0.7364920100406742 -1.2994612693994041e-16 -7.67765860667711e-17 -1.2994612693994041e-16 -7.67765860667711e-17 0.6764457240542279 0.7364924863218607
12651230666.666666 0.6856931207856273 0.7278907501178125 -1.3088645915747657e-16 -7.51031661098729e-17 -1.3088645915747657e-16 -7.51031661098729e-17 0.6856926083073506 0.7278912328861138
12651848000.0 0.6948306402090402 0.7191734015009872 -1.318052560177242e-16 -7.341825259771028e-17 -1.318052560177242e-16 -7.341825259771028e-17 0.6948301338929905 0.7191738906787795
12652465333.333334 0.7038573435734901 0.7103413544891458 -1.3270237734335173e-16 -7.172212248636534e-17 -1.3270237734335173e-16 -7.172212248636534e-17 0.7038568434998133 0.7103418499977908
12653082666.666666 0.7127717912422962 0.7013960176740766 -1.335776865164887e-16 -7.001505443754255e-17 -1.335776865164887e-16 -7.001505443754255e-17 0.7127712974901338 0.701396519433933
12653700000.0 0.7215725614822781 0.6923388177155088 -1.3443105049947683e-16 -6.829732877275253e-17 -1.3443105049947683e-16 -6.829732877275253e-17 0.7215720741297572 0.6923393256459474
12654317333.333334 0.7302582506899857 0.6831711991141067 -1.3526233985493856e-16 -6.656922742742742e-17 -1.3526233985493856e-16 -6.656922742742742e-17 0.7302577698142036 0.683171713133521
12654934666.666666 0.7388274736159919 0.673894623980646 -1.360714287653143e-16 -6.483103390467873e-17 -1.360714287653143e-16 -6.483103390467873e-17 0.738826999293006 0.6738951440064669
12655552000.0 0.7472788635856593 0.6645105718029855 -1.3685819505180292e-16 -6.308303322882764e-17 -1.3685819505180292e-16 -6.308303322882764e-17 0.7472783958904757 0.6645110977516947
12656169333.333334 0.7556110727169963 0.6550205392102401 -1.376225201926733e-16 -6.13255118987767e-17 -1.376225201926733e-16 -6.13255118987767e-17 0.755610611723556 0.6550210709973823
12656786666.666666 0.7638227721358554 0.6454260397338359 -1.3836428934101406e-16 -5.955875784108424e-17 -1.3836428934101406e-16 -5.955875784108424e-17 0.763822317917022 0.6454265772740319
12657404000.0 0.771912652187747 0.6357286035662417 -1.3908339134186444e-16 -5.778306036286486e-17 -1.3908339134186444e-16 -5.778306036286486e-17 0.7719122048152995 0.6357291467732055
12658021333.333334 0.7798794226466135 0.6259297773170639 -1.397797187487448e-16 -5.599871010447741e-17 -1.397797187487448e-16 -5.599871010447741e-17 0.7798789821912303 0.6259303261036125
12658638666.666666 0.787721812920817 0.6160311237661177 -1.4045316783957932e-16 -5.4205998992024236e-17 -1.4045316783957932e-16 -5.4205998992024236e-17 0.7877213794520667 0.6160316780441875
12659256000.0 0.7954385722556343 0.6060342216143593 -1.4110363863202344e-16 -5.2405220189620186e-17 -1.4110363863202344e-16 -5.2405220189620186e-17 0.7954381458419649 0.6060347812950192
12659873333.333334 0.803028469932808 0.5959406652320156 -1.417310348981523e-16 -5.05966680515611e-17 -1.417310348981523e-16 -5.05966680515611e-17 0.803028050641535 0.5959412302254816
12660490666.666666 0.8104902954666925 0.5857520644044871 -1.4233526417856417e-16 -4.8780638074246313e-17 -1.4233526417856417e-16 -4.8780638074246313e-17 0.8104898833639896 0.5857526346201368
12661108000.0 0.8178228587975465 0.5754700440752877 -1.4291623779586842e-16 -4.6957426847926254e-17 -1.4291623779586842e-16 -4.6957426847926254e-17 0.8178224539484342 0.5754706194216747
12661725333.333334 0.8250249904810646 0.5650962440872567 -1.4347387086751907e-16 -4.512733200841449e-17 -1.4347387086751907e-16 -4.512733200841449e-17 0.8250245929494011 0.5650968244721255
12662342666.666666 0.8320955418751194 0.5546323189207032 -1.4400808231809535e-16 -4.329065218844608e-17 -1.4400808231809535e-16 -4.329065218844608e-17 0.8320951517235887 0.5546329042510034
12662960000.0 0.8390333853228213 0.5440799374297226 -1.4451879489089568e-16 -4.1447686969097095e-17 -1.4451879489089568e-16 -4.1447686969097095e-17 0.8390330026129252 0.5440805276116246
12663577333.333334 0.845837414332429 0.533440782575944 -1.450059351589529e-16 -3.959873683093973e-17 -1.450059351589529e-16 -3.959873683093973e-17 0.845837039124476 0.5334413775148535
12664194666.666666 0.8525065437536967 0.5227165511603116 -1.454694335354071e-16 -3.77441031051279e-17 -1.454694335354071e-16 -3.77441031051279e-17 0.8525061761067935 0.5227171507608848
12664812000.0 0.8590397099511267 0.5119089535521817 -1.4590922428326825e-16 -3.588408792431528e-17 -1.4590922428326825e-16 -3.588408792431528e-17 0.8590393499231671 0.5119095577183405
12665429333.333334 0.8654358709735055 0.501019713416682 -1.4632524552452937e-16 -3.40189941735451e-17 -1.4632524552452937e-16 -3.40189941735451e-17 0.8654355186211653 0.5010203220516304
12666046666.666666 0.8716940067200051 0.49005056743996234 -1.4671743924867464e-16 -3.214912544096383e-17 -1.4671743924867464e-16 -3.214912544096383e-17 0.8716936620987277 0.49005118044619994
12666664000.0 0.8778131191030665 0.4790032650518691 -1.4708575132055583e-16 -3.027478596843074e-17 -1.4708575132055583e-16 -3.027478596843074e-17 0.8778127822670584 0.4790038823312086
12667281333.333334 0.8837922322073618 0.4678795681473326 -1.4743013148761754e-16 -2.839628060215893e-17 -1.4743013148761754e-16 -2.839628060215893e-17 0.8837919032095827 0.4678801896009149
12667898666.666666 0.889630392445605 0.4566812508050708 -1.477505333865242e-16 -2.6513914743118677e-17 -1.477505333865242e-16 -2.6513914743118677e-17 0.8896300713377596 0.4566818763333807
12668516000.0 0.8953266687106569 0.4454100990045944 -1.4804691454913678e-16 -2.4627994297453913e-17 -1.4804691454913678e-16 -2.4627994297453913e-17 0.8953263555431863 0.4454107285074764
12669133333.333334 0.9008801525238156 0.4340679103417713 -1.4831923640785457e-16 -2.273882562687032e-17 -1.4831923640785457e-16 -2.273882562687032e-17 0.900879847345889 0.43406854371844567
12669750666.666666 0.9062899581798661 0.42265649374183345 -1.4856746430033535e-16 -2.084671549889326e-17 -1.4856746430033535e-16 -2.084671549889326e-17 0.9062896610393757 0.42265713089091317
