! Parameters = {f0=12700.012000; bw=77.238000; Q=6100.000000; N=10; m_0_1=1.189084; m_1_1=-0.928484; m_1_2=1.023896; m_2_2=-0.929133; m_2_3=0.660859; m_2_8=-0.003482; m_2_9=0.033222; m_3_3=-0.931070; m_3_4=0.549388; m_3_7=-0.002882; m_3_8=-0.099970; m_3_9=-0.003482; m_4_4=-0.933995; m_4_5=0.385723; m_4_6=0.000635; m_4_7=-0.120519; m_4_8=-0.002882; m_5_5=-0.933613; m_5_6=0.793078; m_5_7=0.000635; m_6_6=-0.933614; m_6_7=0.386065; m_7_7=-0.933981; m_7_8=0.549506; m_8_8=-0.931072; m_8_9=0.661172; m_9_9=-0.929138; m_9_10=1.024974; m_10_10=-0.928494; m_10_11=1.189879}
!
! Created with skrf (http://scikit-rf.org).
# Hz S RI R 50.0 
!freq ReS11 ImS11 ReS21 ImS21 ReS12 ImS12 ReS22 ImS22
12607400000.0 0.8166776615654185 -0.577094097266542 -4.600417981105102e-17 5.835208647710074e-17 -4.600417981105102e-17 5.835208647710074e-17 0.8166780231836502 -0.5770935855203128
12608017333.333334 0.8119584465933858 -0.5837152396550065 -4.5514086786983174e-17 5.871674144795819e-17 -4.5514086786983174e-17 5.871674144795819e-17 0.8119588123426428 -0.5837147308908437
12608634666.666666 0.8071855526304306 -0.5902977923256628 -4.502111006416835e-17 5.907728573579396e-17 -4.502111006416835e-17 5.907728573579396e-17 0.8071859224861303 -0.5902972865769079
12609252000.0 0.8023592952150498 -0.5968413201026339 -4.452528407623945e-17 5.943369659359723e-17 -4.452528407623945e-17 5.943369659359723e-17 0.802359669152339 -0.5968408174024246
12609869333.333334 0.7974799934136729 -0.6033453903899282 -4.402664343576514e-17 5.978595156243679e-17 -4.402664343576514e-17 5.978595156243679e-17 0.7974803714074324 -0.6033448907711985
12610486666.666666 0.792547969799522 -0.6098095732001109 -4.352522293186324e-17 6.013402847284974e-17 -4.352522293186324e-17 6.013402847284974e-17 0.7925483518243669 -0.6098090766955876
12611104000.0 0.7875635504312173 -0.6162334411828204 -4.302105752775862e-17 6.047790544624212e-17 -4.302105752775862e-17 6.047790544624212e-17 0.7875639364614978 -0.616232947825021
12611721333.333334 0.7825270648314092 -0.6226165696527719 -4.2514182358375116e-17 6.081756089623773e-17 -4.2514182358375116e-17 6.081756089623773e-17 0.7825274548412136 -0.6226160794740027
12612338666.666666 0.7774388459647686 -0.6289585366181255 -4.200463272788214e-17 6.115297353003072e-17 -4.200463272788214e-17 6.115297353003072e-17 0.777439239927925 -0.6289580496504797
12612956000.0 0.7722992302160968 -0.6352589228082287 -4.149244410724802e-17 6.148412234970567e-17 -4.149244410724802e-17 6.148412234970567e-17 0.7722996281061736 -0.6352584390835837
12613573333.333334 0.767108557368102 -0.6415173117013092 -4.097765213179211e-17 6.181098665353186e-17 -4.097765213179211e-17 6.181098665353186e-17 0.7671089591584123 -0.641516831251326
12614190666.666666 0.7618671705789075 -0.6477332895520622 -4.0460292598691736e-17 6.213354603726037e-17 -4.0460292598691736e-17 6.213354603726037e-17 0.7618675762425079 -0.6477328124081809
12614808000.0 0.7565754163593034 -0.653906445419062 -3.994040146452264e-17 6.245178039537102e-17 -3.994040146452264e-17 6.245178039537102e-17 0.7565758258689972 -0.6539059716125019
12615425333.333334 0.7512336445499513 -0.6600363711918027 -3.9418014842753097e-17 6.276566992232323e-17 -3.9418014842753097e-17 6.276566992232323e-17 0.751234057878291 -0.6600359007535592
12616042666.666666 0.7458422082982026 -0.6661226616177428 -3.889316900125841e-17 6.307519511376716e-17 -3.889316900125841e-17 6.307519511376716e-17 0.74584262541749 -0.6661221945785857
12616660000.0 0.740401464034693 -0.6721649143291616 -3.8365900359797314e-17 6.33803367677512e-17 -3.8365900359797314e-17 6.33803367677512e-17 0.7404018849169822 -0.6721644507196323
12617277333.333334 0.7349117714498916 -0.6781627298696291 -3.783624548750604e-17 6.368107598589241e-17 -3.783624548750604e-17 6.368107598589241e-17 0.7349121960669917 -0.6781622697200407
12617894666.666666 0.7293734934702679 -0.6841157117204828 -3.7304241100365515e-17 6.397739417453729e-17 -3.7304241100365515e-17 6.397739417453729e-17 0.7293739217937423 -0.6841152550609152
12618512000.0 0.7237869962342369 -0.6900234663271001 -3.67699240586592e-17 6.426927304590059e-17 -3.67699240586592e-17 6.426927304590059e-17 0.7237874282354078 -0.6900230131874008
12619129333.333334 0.7181526490680712 -0.6958856031247932 -3.623333136443895e-17 6.455669461917454e-17 -3.623333136443895e-17 6.455669461917454e-17 0.7181530847180205 -0.6958851535345735
12619746666.666666 0.712470824461428 -0.7017017345646928 -3.569450015896563e-17 6.483964122162552e-17 -3.569450015896563e-17 6.483964122162552e-17 0.7124712637309991 -0.7017012885533265
12620364000.0 0.7067418980426619 -0.7074714761394285 -3.51534677201413e-17 6.51180954896697e-17 -3.51534677201413e-17 6.51180954896697e-17 0.7067423409024611 -0.7074710337360497
12620981333.333334 0.7009662485541108 -0.7131944464084272 -3.461027145995005e-17 6.539204036991876e-17 -3.461027145995005e-17 6.539204036991876e-17 0.7009666949745111 -0.7131940076419293
12621598666.666666 0.6951442578270001 -0.7188702670231925 -3.4064948921873823e-17 6.566145912021256e-17 -3.4064948921873823e-17 6.566145912021256e-17 0.6951447077781413 -0.7188698319222251
12622216000.0 0.6892763107561357 -0.7244985627523749 -3.351753777830052e-17 6.59263353106308e-17 -3.351753777830052e-17 6.59263353106308e-17 0.6892767642079277 -0.7244981313453431
12622833333.333334 0.683362795274583 -0.7300789615064626 -3.2968075827941165e-17 6.618665282447432e-17 -3.2968075827941165e-17 6.618665282447432e-17 0.6833632521967064 -0.730078533821524
12623450666.666666 0.6774041023279359 -0.7356110943624559 -3.241660099322088e-17 6.644239585923463e-17 -3.241660099322088e-17 6.644239585923463e-17 0.6774045626898455 -0.7356106704275193
12624068000.0 0.6714006258485156 -0.7410945955882203 -3.186315131767569e-17 6.66935489275351e-17 -3.186315131767569e-17 6.66935489275351e-17 0.6714010896194418 -0.7410941754309445
12624685333.333334 0.6653527627292418 -0.7465291026667427 -3.130776496331935e-17 6.694009685806143e-17 -3.130776496331935e-17 6.694009685806143e-17 0.6653532298781922 -0.7465286863145331
12625302666.666666 0.6592609127975415 -0.7519142563199609 -3.075048020805459e-17 6.718202479644632e-17 -3.075048020805459e-17 6.718202479644632e-17 0.6592613832933039 -0.7519138437999693
12625920000.0 0.6531254787887465 -0.7572497005326694 -3.0191335442999494e-17 6.741931820616864e-17 -3.0191335442999494e-17 6.741931820616864e-17 0.6531259525998906 -0.757249291871792
12626537333.333334 0.6469468663195973 -0.7625350825759427 -2.9630369169893054e-17 6.765196286939141e-17 -2.9630369169893054e-17 6.765196286939141e-17 0.6469473434144764 -0.7625346778008176
12627154666.666666 0.6407254838614704 -0.7677700530304182 -2.906761999842573e-17 6.787994488780957e-17 -2.906761999842573e-17 6.787994488780957e-17 0.6407259642082239 -0.7677696521674239
12627772000.0 0.634461742713071 -0.7729542658096537 -2.8503126643593754e-17 6.810325068346076e-17 -2.8503126643593754e-17 6.810325068346076e-17 0.6344622262796263 -0.772953868884907
12628389333.333334 0.6281560569737188 -0.7780873781826019 -2.793692792305597e-17 6.832186699951279e-17 -2.793692792305597e-17 6.832186699951279e-17 0.6281565437277947 -0.7780869852219588
12629006666.666666 0.621808843515473 -0.7831690507966943 -2.7369062754458956e-17 6.853578090103819e-17 -2.7369062754458956e-17 6.853578090103819e-17 0.6218093334245791 -0.7831686618257436
12629624000.0 0.6154205219559632 -0.7881989476999417 -2.6799570152776087e-17 6.874497977575938e-17 -2.6799570152776087e-17 6.874497977575938e-17 0.6154210149874042 -0.7881985627440071
12630241333.333334 0.6089915146304519 -0.7931767363633111 -2.6228489227639194e-17 6.894945133477254e-17 -2.6228489227639194e-17 6.894945133477254e-17 0.6089920107513298 -0.7931763554474487
12630858666.666666 0.6025222465639812 -0.7981020877026558 -2.5655859180657075e-17 6.914918361325269e-17 -2.5655859180657075e-17 6.914918361325269e-17 0.602522745741197 -0.798101710851652
12631476000.0 0.5960131454431837 -0.8029746761005403 -2.5081719302726608e-17 6.934416497113644e-17 -2.5081719302726608e-17 6.934416497113644e-17 0.5960136476434391 -0.8029743033389102
12632093333.333334 0.5894646415881188 -0.8077941794276783 -2.4506108971354926e-17 6.953438409377767e-17 -2.4506108971354926e-17 6.953438409377767e-17 0.5894651467779191 -0.807793810779664
12632710666.666666 0.5828771679238733 -0.8125602790641999 -2.3929067647968883e-17 6.971982999258377e-17 -2.3929067647968883e-17 6.971982999258377e-17 0.5828776760695297 -0.8125599145537702
12633328000.0 0.5762511599516406 -0.8172726599209316 -2.3350634875201822e-17 6.990049200563494e-17 -2.3350634875201822e-17 6.990049200563494e-17 0.5762516710192715 -0.8172722995717782
12633945333.333334 0.5695870557203203 -0.8219310104599425 -2.2770850274204056e-17 7.007635979827296e-17 -2.2770850274204056e-17 7.007635979827296e-17 0.5695875696758556 -0.821930654295481
12634562666.666666 0.5628852957972598 -0.8265350227153577 -2.2189753541940828e-17 7.024742336366924e-17 -2.2189753541940828e-17 7.024742336366924e-17 0.5628858126064408 -0.8265346707587241
12635180000.0 0.5561463232393122 -0.8310843923135852 -2.1607384448468543e-17 7.041367302337709e-17 -2.1607384448468543e-17 7.041367302337709e-17 0.5561468428676946 -0.8310840445876343
12635797333.333334 0.5493705835634526 -0.8355788184935028 -2.1023782834234866e-17 7.057509942785224e-17 -2.1023782834234866e-17 7.057509942785224e-17 0.5493711059764104 -0.8355784750208094
12636414666.666666 0.5425585247173496 -0.8400180041263278 -2.043898860735329e-17 7.073169355695811e-17 -2.043898860735329e-17 7.073169355695811e-17 0.5425590498800752 -0.8400176649291822
12637032000.0 0.5357105970497739 -0.8444016557352434 -1.9853041740886136e-17 7.088344672044498e-17 -1.9853041740886136e-17 7.088344672044498e-17 0.5357111249272815 -0.844401320835651
12637649333.333334 0.5288272532807299 -0.8487294835148621 -1.9265982270112176e-17 7.103035055840986e-17 -1.9265982270112176e-17 7.103035055840986e-17 0.5288277838378577 -0.8487291529345421
12638266666.666666 0.521908948471694 -0.8530012013502772 -1.86778502898133e-17 7.11723970417281e-17 -1.86778502898133e-17 7.11723970417281e-17 0.5219094816731065 -0.8530008751106619
12638884000.0 0.514956139995338 -0.8572165268361008 -1.8088685951527948e-17 7.13095784724704e-17 -1.8088685951527948e-17 7.13095784724704e-17 0.5149566758055281 -0.8572162049583322
12639501333.333334 0.5079692875054606 -0.8613751812950269 -1.7498529460832122e-17 7.144188748428964e-17 -1.7498529460832122e-17 7.144188748428964e-17 0.5079698258887527 -0.8613748637999578
12640118666.666666 0.5009488529065523 -0.8654768897962878 -1.690742107459962e-17 7.156931704278976e-17 -1.690742107459962e-17 7.156931704278976e-17 0.5009493938271039 -0.8654765767044784
12640736000.0 0.49389530032303636 -0.8695213811739556 -1.6315401098247507e-17 7.169186044587431e-17 -1.6315401098247507e-17 7.169186044587431e-17 0.49389584374484086 -0.8695210725056739
12641353333.333334 0.48680909606910294 -0.8735083880445729 -1.5722509883028544e-17 7.180951132406244e-17 -1.5722509883028544e-17 7.180951132406244e-17 0.48680964195599197 -0.8735080838197918
12641970666.666666 0.4796907086172892 -0.8774376468251688 -1.5128787823262144e-17 7.192226364079429e-17 -1.5128787823262144e-17 7.192226364079429e-17 0.47969125693293435 -0.877437347063565
12642588000.0 0.47254060856792696 -0.8813088977504425 -1.4534275353594325e-17 7.203011169270783e-17 -1.4534275353594325e-17 7.203011169270783e-17 0.47254115927584395 -0.8813086024713976
12643205333.333334 0.46535926861780963 -0.8851218848900662 -1.3939012946264133e-17 7.213305010989129e-17 -1.3939012946264133e-17 7.213305010989129e-17 0.46535982168135887 -0.8851215941126622
12643822666.666666 0.4581471635290156 -0.8888763561655599 -1.3343041108341932e-17 7.22310738561181e-17 -1.3343041108341932e-17 7.22310738561181e-17 0.4581477189114055 -0.8888760699085799
12644440000.0 0.45090477009757185 -0.8925720633669316 -1.2746400378984962e-17 7.232417822905591e-17 -1.2746400378984962e-17 7.232417822905591e-17 0.450905327761861 -0.8925717816488572
12645057333.333334 0.4436325671218576 -0.8962087621691259 -1.2149131326699949e-17 7.241235886045146e-17 -1.2149131326699949e-17 7.241235886045146e-17 0.44363312703095725 -0.8962084850081372
12645674666.666666 0.43633103537100126 -0.899786212148151 -1.1551274546576092e-17 7.249561171629803e-17 -1.1551274546576092e-17 7.249561171629803e-17 0.4363315974876783 -0.8997859395621258
12646292000.0 0.4290006575529678 -0.9033041767970336 -1.0952870657535726e-17 7.257393309697634e-17 -1.0952870657535726e-17 7.257393309697634e-17 0.4290012218398471 -0.9033039088035458
12646909333.333334 0.42164191828293135 -0.9067624235413244 -1.0353960299592863e-17 7.26473196373728e-17 -1.0353960299592863e-17 7.26473196373728e-17 0.42164248470249693 -0.9067621601576407
12647526666.666666 0.4142553040508996 -0.9101607237546252 -9.754584131096836e-18 7.271576830697642e-17 -9.754584131096836e-18 7.271576830697642e-17 0.4142558725654991 -0.9101604649977076
12648144000.0 0.40684130318975964 -0.913498852773611 -9.15478282596543e-18 7.277927640995441e-17 -9.15478282596543e-18 7.277927640995441e-17 0.40684187376160574 -0.9134985986601142
12648761333.333334 0.3994004058428908 -0.9167765899129305 -8.554597070957434e-18 7.283784158520084e-17 -8.554597070957434e-18 7.283784158520084e-17 0.3994009784340629 -0.9167763404591981
12649378666.666666 0.39193310393196634 -0.9199937184796978 -7.954067562903902e-18 7.289146180636706e-17 -7.954067562903902e-18 7.289146180636706e-17 0.3919336785044155 -0.919993473701767
12649996000.0 0.3844398911240979 -0.9231500257879751 -7.35323500596264e-18 7.29401353818671e-17 -7.35323500596264e-18 7.29401353818671e-17 0.3844404676396472 -0.9231497857015708
12650613333.333334 0.3769212627994558 -0.9262453031727126 -6.7521401088567e-18 7.298386095486231e-17 -6.7521401088567e-18 7.298386095486231e-17 0.3769218412198038 -0.9262450677932487
12651230666.666666 0.36937771601854896 -0.9292793460035397 -6.1508235821488644e-18 7.302263750321989e-17 -6.1508235821488644e-18 7.302263750321989e-17 0.3693782963052719 -0.9292791153461166
12651848000.0 0.3618097494890206 -0.9322519536984301 -5.549326135454863e-18 7.305646433945453e-17 -5.549326135454863e-18 7.305646433945453e-17 0.3618103316035748 -0.9322517277778345
12652465333.333334 0.3542178635330985 -0.9351629297367889 -4.9476884747303475e-18 7.308534111064112e-17 -4.9476884747303475e-18 7.308534111064112e-17 0.3542184474368238 -0.9351627085674943
12653082666.666666 0.34660256005431084 -0.9380120816725369 -4.345951299507316e-18 7.310926779830962e-17 -4.345951299507316e-18 7.310926779830962e-17 0.3466031457084322 -0.9380118652686998
12653700000.0 0.33896434250424834 -0.9407992211468443 -3.744155300142379e-18 7.312824471831561e-17 -3.744155300142379e-18 7.312824471831561e-17 0.33896492986987947 -0.9407990095223073
12654317333.333334 0.3313037158494432 -0.943524163900532 -3.142341155095848e-18 7.314227252068764e-17 -3.142341155095848e-18 7.314227252068764e-17 0.3313043048875874 -0.9435239570688168
12654934666.666666 0.3236211865379038 -0.9461867297862752 -2.5405495281627986e-18 7.315135218945411e-17 -2.5405495281627986e-18 7.315135218945411e-17 0.32362177720945834 -0.9461865277605882
12655552000.0 0.31591726246555324 -0.9487867427805455 -1.9388210657477575e-18 7.315548504244541e-17 -1.9388210657477575e-18 7.315548504244541e-17 0.31591785473131107 -0.9487865455737728
12656169333.333334 0.3081924529428134 -0.9513240309951909 -1.3371963941291938e-18 7.315467273107534e-17 -1.3371963941291938e-18 7.315467273107534e-17 0.3081930467634656 -0.9513238386198986
12656786666.666666 0.30044726866085286 -0.953798426688826 -7.357161167201568e-19 7.314891724009887e-17 -7.357161167201568e-19 7.314891724009887e-17 0.30044786399699225 -0.9537982391572609
12657404000.0 0.2926822216577451 -0.9562097662779512 -1.344208113294806e-19 7.313822088734866e-17 -1.344208113294806e-19 7.313822088734866e-17 0.29268281846986743 -0.9562095836020371
12658021333.333334 0.2848978252847778 -0.9585578903477094 4.666489725555252e-19 7.312258632344795e-17 4.666489725555252e-19 7.312258632344795e-17 0.28489842353328565 -0.9585577125390495
12658638666.666666 0.2770945941724353 -0.9608426436624566 1.067452716502115e-18 7.310201653150249e-17 1.067452716502115e-18 7.310201653150249e-17 0.2770951938176402 -0.9608424707323311
12659256000.0 0.2692730441962945 -0.9630638751760479 1.6679499358598992e-18 7.307651482676838e-17 1.6679499358598992e-18 7.307651482676838e-17 0.2692736451984189 -0.963063707135412
12659873333.333334 0.2614336924430817 -0.9652214380417704 2.268100182479061e-18 7.304608485629939e-17 2.268100182479061e-18 7.304608485629939e-17 0.26143429476226254 -0.9652212749012553
12660490666.666666 0.25357705717640755 -0.9673151896220795 2.8678630474126022e-18 7.301073059857142e-17 2.8678630474126022e-18 7.301073059857142e-17 0.25357766077269894 -0.967315031391993
12661108000.0 0.24570365780242198 -0.9693449914980511 3.4671981636563887e-18 7.297045636308365e-17 3.4671981636563887e-18 7.297045636308365e-17 0.24570426263579723 -0.9693448381883742
12661725333.333334 0.2378140148356403 -0.9713107094784863 4.066065208833432e-18 7.292526678993946e-17 4.066065208833432e-18 7.292526678993946e-17 0.23781462086599478 -0.9713105610988741
12662342666.666666 0.22990864986444914 -0.9732122136088062 4.664423907917662e-18 7.28751668494033e-17 4.664423907917662e-18 7.28751668494033e-17 0.22990925705160317 -0.9732120701685868
12662960000.0 0.22198808551654184 -0.9750493781796635 5.262234035920268e-18 7.282016184143703e-17 5.262234035920268e-18 7.282016184143703e-17 0.22198869382024292 -0.975049239687837
12663577333.333334 0.21405284542455946 -0.9768220817352037 5.859455420592345e-18 7.276025739521307e-17 5.859455420592345e-18 7.276025739521307e-17 0.21405345480448562 -0.9768219482004438
12664194666.666666 0.20610345419125328 -0.9785302070811511 6.45604794512293e-18 7.269545946860581e-17 6.45604794512293e-18 7.269545946860581e-17 0.20610406460701514 -0.9785300785118023
12664812000.0 0.19814043735499595 -0.9801736412925097 7.051971550811517e-18 7.262577434766175e-17 7.051971550811517e-18 7.262577434766175e-17 0.19814104876613944 -0.9801735176965866
12665429333.333334 0.1901643213549271 -0.9817522757210524 7.647186239768719e-18 7.255120864604564e-17 7.647186239768719e-18 7.255120864604564e-17 0.19016493372093665 -0.9817521571062414
12666046666.666666 0.18217563349620655 -0.9832660060024969 8.24165207756636e-18 7.24717693044692e-17 8.24165207756636e-18 7.24717693044692e-17 0.1821762467765069 -0.9832658923761526
12666664000.0 0.174174901915041 -0.98471473206342 8.835329195948184e-18 7.238746359009011e-17 8.835329195948184e-18 7.238746359009011e-17 0.1741755160690009 -0.9847146234325679
12667281333.333334 0.16616265554393714 -0.9860983581278459 9.428177795450636e-18 7.229829909589969e-17 9.428177795450636e-18 7.229829909589969e-17 0.16616327053087135 -0.9860982544991806
12667898666.666666 0.15813942407664985 -0.9874167927235953 1.0020158148100288e-17 7.220428374007862e-17 1.0020158148100288e-17 7.220428374007862e-17 0.1581400398558221 -0.9874166941034802
12668516000.0 0.15010573793307935 -0.9886699486883433 1.0611230600051852e-17 7.210542576533722e-17 1.0611230600051852e-17 7.210542576533722e-17 0.15010635446370488 -0.9886698550828092
12669133333.333334 0.1420621282243735 -0.9898577431753559 1.1201355574234705e-17 7.200173373823332e-17 1.1201355574234705e-17 7.200173373823332e-17 0.14206274546562178 -0.9898576545901014
12669750666.666666 0.13400912671773113 -0.9909800976589785 1.1790493572999182e-17 7.18932165484665e-17 1.1790493572999182e-17 7.18932165484665e-17 0.13400974462872878 -0.990980014099371
12670368000.0 0.12594726580113447 -0.9920369379398458 1.2378605180760664e-17 7.177988340815076e-17 1.2378605180760664e-17 7.177988340815076e-17 0.12594788434096793 -0.9920368594109197
12670985333.333334 0.11787707844846247 -0.9930281941497441 1.2965651066606402e-17 7.166174385107058e-17 1.2965651066606402e-17 7.166174385107058e-17 0.11787769757618044 -0.9930281206562002
