! Parameters = {f0=12700.012000; bw=77.238000; Q=6100.000000; N=10; m_0_1=1.332628; m_1_1=1.224669; m_1_2=1.167440; m_2_2=1.224020; m_2_3=0.804403; m_2_8=0.003695; m_2_9=0.040399; m_3_3=1.222083; m_3_4=0.692932; m_3_7=0.004295; m_3_8=-0.092793; m_3_9=0.003695; m_4_4=1.219158; m_4_5=0.529267; m_4_6=0.007812; m_4_7=-0.113342; m_4_8=0.004295; m_5_5=1.219540; m_5_6=0.936622; m_5_7=0.007812; m_6_6=1.219539; m_6_7=0.529609; m_7_7=1.219172; m_7_8=0.693050; m_8_8=1.222081; m_8_9=0.804716; m_9_9=1.224015; m_9_10=1.168518; m_10_10=1.224659; m_10_11=1.333423}
!
! Created with skrf (http://scikit-rf.org).
# Hz S RI R 50.0 
!freq ReS11 ImS11 ReS21 ImS21 ReS12 ImS12 ReS22 ImS22
12607400000.0 0.8083319057214361 0.588727042178764 -1.3879167850610368e-16 -4.932604774600709e-17 -1.3879167850610368e-16 -4.932604774600709e-17 0.8083314924419337 0.588727609617896
12608017333.333334 0.8155549673608904 0.5786796136142891 -1.3936834418830121e-16 -4.758317241854579e-17 -1.3936834418830121e-16 -4.758317241854579e-17 0.8155545611544458 0.5786801860958992
12608634666.666666 0.8226531484164623 0.5685435756389192 -1.3992313675815512e-16 -4.5833588681616414e-17 -1.3992313675815512e-16 -4.5833588681616414e-17 0.8226527493445808 0.5685441530748583
12609252000.0 0.8296253619903367 0.5583204803177189 -1.4045597861803444e-16 -4.4077570881655e-17 -1.4045597861803444e-16 -4.4077570881655e-17 0.8296249701134236 0.5583210626190869
12609869333.333334 0.8364705404732878 0.5480118930462462 -1.4096679560933101e-16 -4.2315394256804496e-17 -1.4096679560933101e-16 -4.2315394256804496e-17 0.8364701558506421 0.5480124801234076
12610486666.666666 0.8431876357080808 0.5376193923109753 -1.414555170226295e-16 -4.05473348938265e-17 -1.414555170226295e-16 -4.05473348938265e-17 0.8431872583978834 0.5376199840735713
12611104000.0 0.8497756191501508 0.5271445694473044 -1.4192207560734321e-16 -3.8773669684873504e-17 -1.4192207560734321e-16 -3.8773669684873504e-17 0.8497752492094581 0.527145165804268
12611721333.333334 0.856233482024824 0.5165890283963175 -1.4236640758078709e-16 -3.699467628423372e-17 -1.4236640758078709e-16 -3.699467628423372e-17 0.8562331195095589 0.5165896292558875
12612338666.666666 0.8625602354820293 0.5059543854588001 -1.427884526367349e-16 -3.5210633064881933e-17 -1.427884526367349e-16 -3.5210633064881933e-17 0.8625598804469718 0.5059549907285346
12612956000.0 0.8687549107476482 0.49524226904783863 -1.4318815395342112e-16 -3.3421819074975855e-17 -1.4318815395342112e-16 -3.3421819074975855e-17 0.8687545632464276 0.49524287863462946
12613573333.333334 0.8748165592717437 0.48445431943966905 -1.435654582009909e-16 -3.162851399430138e-17 -1.435654582009909e-16 -3.162851399430138e-17 0.8748162193568314 0.48445493324975664
12614190666.666666 0.8807442528739512 0.47359218852226836 -1.4392031554842362e-16 -2.983099809055984e-17 -1.4392031554842362e-16 -2.983099809055984e-17 0.8807439205966501 0.47359280646125473
12614808000.0 0.8865370838855283 0.4626575395425319 -1.4425267966989488e-16 -2.8029552175641636e-17 -1.4425267966989488e-16 -2.8029552175641636e-17 0.8865367592959689 0.4626581615153972
12615425333.333334 0.8921941652883602 0.4516520468515696 -1.4456250775060035e-16 -2.6224457561804447e-17 -1.4456250775060035e-16 -2.6224457561804447e-17 0.8921938484354894 0.4516526727626849
12616042666.666666 0.8977146308507781 0.4405773956483215 -1.4484976049202526e-16 -2.4415996017815205e-17 -1.4484976049202526e-16 -2.4415996017815205e-17 0.8977143217823542 0.4405780254014643
12616660000.0 0.9030976352602144 0.4294352817214892 -1.4511440211667533e-16 -2.260444972499738e-17 -1.4511440211667533e-16 -2.260444972499738e-17 0.9030973340227996 0.42943591521985874
12617277333.333334 0.9083423542526022 0.41822741118994805 -1.453564003722512e-16 -2.079010123326846e-17 -1.453564003722512e-16 -2.079010123326846e-17 0.9083420608915541 0.418228048336179
12617894666.666666 0.9134479847386039 0.4069555002414756 -1.455757265352751e-16 -1.8973233417141534e-17 -1.455757265352751e-16 -1.8973233417141534e-17 0.9134476992980702 0.4069561409376538
12618512000.0 0.9184137449266623 0.39562127486978027 -1.4577235541417477e-16 -1.7154129431631595e-17 -1.4577235541417477e-16 -1.7154129431631595e-17 0.9184134674495739 0.39562191901745764
12619129333.333334 0.9232388744425611 0.3842264706105489 -1.4594626535180693e-16 -1.5333072668239252e-17 -1.4594626535180693e-16 -1.5333072668239252e-17 0.923238604970625 0.38422711811075866
12619746666.666666 0.927922634445973 0.3727728322754367 -1.4609743822744157e-16 -1.3510346710815334e-17 -1.4609743822744157e-16 -1.3510346710815334e-17 0.9279223730196672 0.37277348302870844
12620364000.0 0.9324643077435987 0.36126211368486705 -1.4622585945819092e-16 -1.168623529145433e-17 -1.4622585945819092e-16 -1.168623529145433e-17 0.9324640544021646 0.36126276759124176
12620981333.333334 0.9368631988988485 0.3496960773998232 -1.4633151799988772e-16 -9.861022246415438e-18 -1.4633151799988772e-16 -9.861022246415438e-18 0.9368629536802854 0.34969673435886883
12621598666.666666 0.9411186343385012 0.33807649445153776 -1.4641440634741726e-16 -8.034991471986436e-18 -1.4641440634741726e-16 -8.034991471986436e-18 0.941118397279562 0.338077154362365
12622216000.0 0.9452299624557481 0.3264051440705436 -1.4647452053449903e-16 -6.208426880376319e-18 -1.4647452053449903e-16 -6.208426880376319e-18 0.945229733591932 0.3264058068318208
12622833333.333334 0.9491965537099962 0.3146838134141508 -1.4651186013291673e-16 -4.381612355635093e-18 -1.4651186013291673e-16 -4.381612355635093e-18 0.9491963330755453 0.31468447892412016
12623450666.666666 0.953017800723236 0.30291429729290126 -1.4652642825120154e-16 -2.554831709599503e-18 -1.4652642825120154e-16 -2.554831709599503e-18 0.9530175883511275 0.30291496544939345
12624068000.0 0.9566931183730853 0.29109839789560427 -1.4651823153276649e-16 -7.283686378337767e-19 -1.4651823153276649e-16 -7.283686378337767e-19 0.956692914295029 0.29109906859605517
12624685333.333334 0.9602219438824012 0.27923792451332513 -1.4648728015349169e-16 1.097493324377645e-18 -1.4648728015349169e-16 1.097493324377645e-18 0.960221748128833 0.279238597654791
12625302666.666666 0.9636037369053319 0.26733469326274845 -1.4643358781876384e-16 2.9224708459494956e-18 -1.4643358781876384e-16 2.9224708459494956e-18 0.9636035495054107 0.2673353687419218
12625920000.0 0.9668379796102636 0.2553905268073788 -1.4635717175996667e-16 4.746280843970262e-18 -1.4635717175996667e-16 4.746280843970262e-18 0.9668378005918679 0.25539120452060476
12626537333.333334 0.9699241767588969 0.2434072540792139 -1.4625805273042789e-16 6.568640527504502e-18 -1.4625805273042789e-16 6.568640527504502e-18 0.9699240061486177 0.24340793392250532
12627154666.666666 0.9728618557822092 0.23138670999822744 -1.4613625500082022e-16 8.38926744139518e-18 -1.4613625500082022e-16 8.38926744139518e-18 0.972861693605347 0.23138739186728108
12627772000.0 0.9756505668528154 0.21933073519136984 -1.459918063540143e-16 1.0207879510038174e-17 -1.459918063540143e-16 1.0207879510038174e-17 0.9756504131333783 0.21933141898158282
12628389333.333334 0.9782898829537664 0.20724117571108594 -1.4582473807939714e-16 1.202419508095627e-17 -1.4582473807939714e-16 1.202419508095627e-17 0.9782897377144638 0.20724186131757102
12629006666.666666 0.9807793999440262 0.19511988275222433 -1.4563508496663713e-16 1.3837932968431428e-17 -1.4563508496663713e-16 1.3837932968431428e-17 0.9807792632062693 0.19512057006982708
12629624000.0 0.983118736620292 0.18296871236888268 -1.4542288529891818e-16 1.5648812496935615e-17 -1.4542288529891818e-16 1.5648812496935615e-17 0.9831186084041851 0.18296940129219627
12630241333.333334 0.985307534775401 0.17078952519000606 -1.4518818084562774e-16 1.7456553544535916e-17 -1.4518818084562774e-16 1.7456553544535916e-17 0.9853074150997436 0.17079021561338845
12630858666.666666 0.9873454592531336 0.15858418613476172 -1.4493101685451125e-16 1.9260876586147098e-17 -1.4493101685451125e-16 1.9260876586147098e-17 0.987345348135415 0.15858487795235143
12631476000.0 0.9892321979996147 0.14635456412649986 -1.4465144204328124e-16 2.1061502736744662e-17 -1.4465144204328124e-16 2.1061502736744662e-17 0.9892320954560124 0.14635525723223233
12632093333.333334 0.9909674621110142 0.1341025318070539 -1.443495085907031e-16 2.2858153794366927e-17 -1.443495085907031e-16 2.2858153794366927e-17 0.9909673681563919 0.13410322609467776
12632710666.666666 0.9925509858778233 0.1218299652497996 -1.4402527212714148e-16 2.4650552283048004e-17 -1.4402527212714148e-16 2.4650552283048004e-17 0.9925509005257275 0.12183066061289285
12633328000.0 0.9939825268255541 0.10953874367224258 -1.436787917245617e-16 2.643842149568234e-17 -1.436787917245617e-16 2.643842149568234e-17 0.9939824500882126 0.10953944000422888
12633945333.333334 0.9952618657518355 0.0972307491485198 -1.4331012988602928e-16 2.822148553659364e-17 -1.4331012988602928e-16 2.822148553659364e-17 0.9952617976401568 0.09723144634268505
12634562666.666666 0.9963888067599963 0.08490786632106914 -1.429193525346527e-16 2.9999469364120755e-17 -1.429193525346527e-16 2.9999469364120755e-17 0.9963887472835666 0.08490856427057751
12635180000.0 0.9973631772890633 0.07257198211204642 -1.4250652900201656e-16 3.177209883296455e-17 -1.4250652900201656e-16 3.177209883296455e-17 0.9973631264561454 0.07257268070995689
12635797333.333334 0.9981848281401717 0.060224985434477914 -1.420717320160816e-16 3.3539100736411184e-17 -1.420717320160816e-16 3.3539100736411184e-17 0.9981847859577047 0.06022568457376063
12636414666.666666 0.9988536334994207 0.04786876690296729 -1.4161503768857025e-16 3.530020284836954e-17 -1.4161503768857025e-16 3.530020284836954e-17 0.998853599973019 0.047869466476520045
12637032000.0 0.999369490957143 0.035505218544141494 -1.4113652550182104e-16 3.705513396528003e-17 -1.4113652550182104e-16 3.705513396528003e-17 0.9993694660910937 0.035505918444805946
12637649333.333334 0.9997323215235743 0.023136233507021826 -1.4063627829513396e-16 3.880362394780787e-17 -1.4063627829513396e-16 3.880362394780787e-17 0.9997323053208388 0.023136933627600068
12638266666.666666 0.9999420696409551 0.010763705773110395 -1.401143822505962e-16 4.054540376237515e-17 -1.401143822505962e-16 4.054540376237515e-17 0.999942062103168 0.010764406006381311
12638884000.0 0.9999987031920369 -0.0016104701336513631 -1.395709268783951e-16 4.2280205522501047e-17 -1.395709268783951e-16 4.2280205522501047e-17 0.9999987043195063 -0.0016097698949156572
12639501333.333334 0.9999022135049989 -0.013984399436893414 -1.3900600500161718e-16 4.4007762529955466e-17 -1.3900600500161718e-16 4.4007762529955466e-17 0.9999022232967064 -0.013983699299911178
12640118666.666666 0.9996526153547803 -0.02635618739792341 -1.3841971274055598e-16 4.572780931566111e-17 -1.3841971274055598e-16 4.572780931566111e-17 0.9996526338083798 -0.02635548746988685
12640736000.0 0.9992499469608054 -0.03872393960633861 -1.3781214949646478e-16 4.744008168053821e-17 -1.3781214949646478e-16 4.744008168053821e-17 0.9992499740726256 -0.03872323999439747
12641353333.333334 0.9986942699811509 -0.05108576226916684 -1.3718341793489125e-16 4.914431673588067e-17 -1.3718341793489125e-16 4.914431673588067e-17 0.9986943057461963 -0.051085063080412066
12641970666.666666 0.9979856695030904 -0.06343976250173158 -1.365336239684194e-16 5.084025294378786e-17 -1.365336239684194e-16 5.084025294378786e-17 0.9979857139150379 -0.06343906384317871
12642588000.0 0.9971242540300641 -0.07578404861707033 -1.358628767389766e-16 5.252763015718634e-17 -1.358628767389766e-16 5.252763015718634e-17 0.9971243070812705 -0.07578335059564345
12643205333.333334 0.9961101554650784 -0.08811673041565375 -1.351712885996246e-16 5.420618965968737e-17 -1.351712885996246e-16 5.420618965968737e-17 0.9961102171465761 -0.08811603313816879
12643822666.666666 0.9949435290904864 -0.10043591947493212 -1.344589750958533e-16 5.587567420521318e-17 -1.344589750958533e-16 5.587567420521318e-17 0.9949435993919901 -0.10043522304808086
12644440000.0 0.9936245535442284 -0.11273972943838424 -1.3372605494640247e-16 5.753582805734593e-17 -1.3372605494640247e-16 5.753582805734593e-17 0.9936246324541309 -0.11273903396871764
12645057333.333334 0.9921534307924825 -0.12502627630427784 -1.3297265002358597e-16 5.918639702845318e-17 -1.3297265002358597e-16 5.918639702845318e-17 0.9921535182978615 -0.12502558189819
12645674666.666666 0.990530386098728 -0.13729367871432457 -1.3219888533314492e-16 6.082712851853536e-17 -1.3219888533314492e-16 6.082712851853536e-17 0.9905304821853459 -0.13729298547803626
12646292000.0 0.9887556679892323 -0.14954005824184355 -1.3140488899359224e-16 6.245777155387512e-17 -1.3140488899359224e-16 6.245777155387512e-17 0.9887557726415397 -0.14953936628138625
12646909333.333334 0.9868295482150401 -0.16176353967908316 -1.3059079221513468e-16 6.407807682530663e-17 -1.3059079221513468e-16 6.407807682530663e-17 0.9868296614161769 -0.1617628491002825
12647526666.666666 0.9847523217103473 -0.17396225132450066 -1.297567292780735e-16 6.568779672631657e-17 -1.297567292780735e-16 6.568779672631657e-17 0.9847524434421447 -0.17396156223296025
12648144000.0 0.9825243065472892 -0.18613432526961451 -1.289028375107584e-16 6.728668539082067e-17 -1.289028375107584e-16 6.728668539082067e-17 0.9825244367902773 -0.18613363777070038
12648761333.333334 0.9801458438873052 -0.19827789768466206 -1.2802925726708228e-16 6.887449873064447e-17 -1.2802925726708228e-16 6.887449873064447e-17 0.9801459826207105 -0.19827721188348568
12649378666.666666 0.9776172979288913 -0.21039110910402278 -1.271361319035087e-16 7.045099447272868e-17 -1.271361319035087e-16 7.045099447272868e-17 0.9776174451306429 -0.21039042510542563
12649996000.0 0.9749390558517819 -0.22247210471122594 -1.262236077556309e-16 7.201593219605559e-17 -1.262236077556309e-16 7.201593219605559e-17 0.9749392114985147 -0.22247142261976327
12650613333.333334 0.9721115277577006 -0.2345190346227707 -1.25291834114292e-16 7.356907336824855e-17 -1.25291834114292e-16 7.356907336824855e-17 0.9721116918247584 -0.23451835454269546
12651230666.666666 0.9691351466075825 -0.2465300541713038 -1.2434096320127064e-16 7.511018138183922e-17 -1.2434096320127064e-16 7.511018138183922e-17 0.9691353190690227 -0.2465293762065509
12651848000.0 0.9660103681552157 -0.2585033241883584 -1.2337115014445758e-16 7.663902159032813e-17 -1.2337115014445758e-16 7.663902159032813e-17 0.9660105489838118 -0.2585026484425285
12652465333.333334 0.9627376708775017 -0.2704370112857513 -1.2238255295268397e-16 7.815536134377088e-17 -1.2238255295268397e-16 7.815536134377088e-17 0.9627378600447505 -0.27043633786209564
12653082666.666666 0.9593175559012292 -0.2823292881362108 -1.2137533249004119e-16 7.965897002416146e-17 -1.2137533249004119e-16 7.965897002416146e-17 0.9593177533773519 -0.2823286171376145
12653700000.0 0.955750546926211 -0.2941783337536191 -1.2034965244977671e-16 8.114961908046303e-17 -1.2034965244977671e-16 8.114961908046303e-17 0.9557507526801611 -0.2941776652825864
12654317333.333334 0.9520371901452385 -0.30598233377135775 -1.1930567932780497e-16 8.262708206324395e-17 -1.1930567932780497e-16 8.262708206324395e-17 0.9520374041447035 -0.3059816679299954
12654934666.666666 0.9481780541603566 -0.31773948072042896 -1.1824358239573886e-16 8.409113465905203e-17 -1.1824358239573886e-16 8.409113465905203e-17 0.9481782763717658 -0.3177388176104315
12655552000.0 0.9441737298957932 -0.3294479743062199 -1.1716353367352392e-16 8.55415547244092e-17 -1.1716353367352392e-16 8.55415547244092e-17 0.9441739602843222 -0.329447314028854
12656169333.333334 0.9400248305075619 -0.3411060216839298 -1.1606570790167953e-16 8.697812231942705e-17 -1.1606570790167953e-16 8.697812231942705e-17 0.9400250690371356 -0.3411053643400176
12656786666.666666 0.935731991289473 -0.3527118377333621 -1.149502825130812e-16 8.84006197411296e-17 -1.149502825130812e-16 8.84006197411296e-17 0.9357322379227753 -0.3527111834232677
12657404000.0 0.9312958695758988 -0.3642636453321633 -1.1381743760437311e-16 8.980883155636622e-17 -1.1381743760437311e-16 8.980883155636622e-17 0.9312961242743772 -0.36426299415577656
12658021333.333334 0.9267171446411419 -0.37575967562788937 -1.1266735590695868e-16 9.120254463438611e-17 -1.1266735590695868e-16 9.120254463438611e-17 0.9267174073650093 -0.3757590276846092
12658638666.666666 0.9219965175954045 -0.3871981683088819 -1.1150022275762345e-16 9.258154817900321e-17 -1.1150022275762345e-16 9.258154817900321e-17 0.921996788303653 -0.3871975236976044
12659256000.0 0.917134711277379 -0.3985773718739759 -1.1031622606870107e-16 9.394563376046687e-17 -1.1031622606870107e-16 9.394563376046687e-17 0.9171349899277788 -0.39857673069307586
12659873333.333334 0.9121324701436391 -0.4098955439004801 -1.0911555629792532e-16 9.529459534685934e-17 -1.0911555629792532e-16 9.529459534685934e-17 0.9121327566927503 -0.4098949062477982
12660490666.666666 0.9069905601546566 -0.4211509513109877 -1.0789840641786439e-16 9.662822933515493e-17 -1.0789840641786439e-16 9.662822933515493e-17 0.9069908545578338 -0.4211503172838146
12661108000.0 0.9017097686573938 -0.4323418706390076 -1.066649718849492e-16 9.794633458191548e-17 -1.066649718849492e-16 9.794633458191548e-17 0.901710070868794 -0.4323412403340699
12661725333.333334 0.8962909042648977 -0.44346658829253294 -1.0541545060819622e-16 9.924871243352009e-17 -1.0541545060819622e-16 9.924871243352009e-17 0.8962912142374859 -0.44346596180597736
12662342666.666666 0.8907347967323996 -0.45452340081661313 -1.0415004291749159e-16 1.0053516675607202e-16 -1.0415004291749159e-16 1.0053516675607202e-16 0.8907351144179565 -0.45452277824399195
12662960000.0 0.8850422968302425 -0.4655106151542152 -1.0286895153155624e-16 1.0180550396485403e-16 -1.0286895153155624e-16 1.0180550396485403e-16 0.8850426221793752 -0.46550999659047365
12663577333.333334 0.8792142762136532 -0.47642654890539826 -1.0157238152553328e-16 1.0305953305339795e-16 -1.0157238152553328e-16 1.0305953305339795e-16 0.8792146091757983 -0.4764259344448575
12664194666.666666 0.8732516272892538 -0.4872695305849509 -1.0026054029823953e-16 1.0429706562212486e-16 -1.0026054029823953e-16 1.0429706562212486e-16 0.8732519678126858 -0.4872689203212937
12664812000.0 0.8671552630784102 -0.4980378998783334 -9.89336375390397e-17 1.0551791590659849e-16 -9.89336375390397e-17 1.0551791590659849e-16 0.8671556111102536 -0.49803729390459245
12665429333.333334 0.8609261170774068 -0.508730007895964 -9.759188519440425e-17 1.0672190080533226e-16 -9.759188519440425e-17 1.0672190080533226e-16 0.8609264725636403 -0.5087294063045052
12666046666.666666 0.8545651431146435 -0.5193442174254536 -9.62354974341336e-17 1.0790883990717016e-16 -9.62354974341336e-17 1.0790883990717016e-16 0.8545655060001107 -0.5193436203079635
12666664000.0 0.848073315204267 -0.5298789031828419 -9.486469061720367e-17 1.0907855551827973e-16 -9.486469061720367e-17 1.0907855551827973e-16 0.8480736854326829 -0.5298783106303128
12667281333.333334 0.8414516273974337 -0.5403324520607827 -9.347968325736289e-17 1.1023087268864536e-16 -9.347968325736289e-17 1.1023087268864536e-16 0.8414520049113947 -0.5403318641634985
12667898666.666666 0.8347010936297894 -0.5507032633760588 -9.208069598833298e-17 1.113656192381898e-16 -9.208069598833298e-17 1.113656192381898e-16 0.8347014783707823 -0.5507026802235827
12668516000.0 0.8278227475662823 -0.5609897491145618 -9.066795152872502e-17 1.1248262578242775e-16 -9.066795152872502e-17 1.1248262578242775e-16 0.8278231394746924 -0.5609891707957212
12669133333.333334 0.8208176424430095 -0.5711903341742638 -8.924167464667514e-17 1.1358172575765364e-16 -8.924167464667514e-17 1.1358172575765364e-16 0.8208180414581316 -0.5711897607771378
12669750666.666666 0.8136868509057884 -0.5813034566066413 -8.780209212411094e-17 1.1466275544573207e-16 -8.780209212411094e-17 1.1466275544573207e-16 0.8136872569658339 -0.5813028882185463
