! Parameters = {f0=12700.012000; bw=77.238000; Q=6100.000000; N=10; m_0_1=1.242137; m_1_1=-0.132689; m_1_2=1.076949; m_2_2=-0.133338; m_2_3=0.713912; m_2_8=-0.000829; m_2_9=0.035875; m_3_3=-0.135275; m_3_4=0.602441; m_3_7=-0.000229; m_3_8=-0.097317; m_3_9=-0.000829; m_4_4=-0.138200; m_4_5=0.438776; m_4_6=0.003288; m_4_7=-0.117866; m_4_8=-0.000229; m_5_5=-0.137818; m_5_6=0.846131; m_5_7=0.003288; m_6_6=-0.137819; m_6_7=0.439118; m_7_7=-0.138186; m_7_8=0.602559; m_8_8=-0.135277; m_8_9=0.714225; m_9_9=-0.133343; m_9_10=1.078027; m_10_10=-0.132699; m_10_11=1.242932}
!
! Created with skrf (http://scikit-rf.org).
# Hz S RI R 50.0 
!freq ReS11 ImS11 ReS21 ImS21 ReS12 ImS12 ReS22 ImS22
12607400000.0 0.3148044164858888 -0.9491565620912128 -3.1206566951027815e-18 9.675646979228611e-17 -3.1206566951027815e-18 9.675646979228611e-17 0.3148050376913154 -0.9491563560573152
12608017333.333334 0.3055836488256819 -0.9521652343843544 -2.1730506013978834e-18 9.676342502651043e-17 -2.1730506013978834e-18 9.676342502651043e-17 0.30558427196971766 -0.952165034395072
12608634666.666666 0.2963341334883589 -0.9550843320511206 -1.225607422900834e-18 9.67611063508342e-17 -1.225607422900834e-18 9.67611063508342e-17 0.29633475851219454 -0.9550841381246739
12609252000.0 0.28705674061899855 -0.9579135804784423 -2.784178549393922e-19 9.674951761960487e-17 -2.784178549393922e-19 9.674951761960487e-17 0.287057367463654 -0.9579133926324804
12609869333.333334 0.27775234298522145 -0.9606527135057976 6.684274669727989e-19 9.67286635734958e-17 6.684274669727989e-19 9.67286635734958e-17 0.27775297159155116 -0.9606525317573956
12610486666.666666 0.2684218158952203 -0.9633014734502086 1.6148379757778851e-18 9.669854983870577e-17 1.6148379757778851e-18 9.669854983870577e-17 0.2684224462039191 -0.963301297815868
12611104000.0 0.2590660371151157 -0.9658596111305725 2.5607231815495093e-18 9.665918292607239e-17 2.5607231815495093e-18 9.665918292607239e-17 0.2590666690667233 -0.9658594416262153
12611721333.333334 0.24968588678676223 -0.9683268858909884 3.505992680089033e-18 9.661057023010328e-17 3.505992680089033e-18 9.661057023010328e-17 0.2496865203216702 -0.9683267225319601
12612338666.666666 0.24028224734467696 -0.9707030656234801 4.4505561615761445e-18 9.655272002792164e-17 4.4505561615761445e-18 9.655272002792164e-17 0.24028288240313375 -0.9707029084245465
12612956000.0 0.23085600343302357 -0.9729879267898255 5.394323419179512e-18 9.648564147812691e-17 5.394323419179512e-18 9.648564147812691e-17 0.23085663995513983 -0.9729877757651707
12613573333.333334 0.2214080418226376 -0.9751812544425242 6.337204357629612e-18 9.64093446195752e-17 6.337204357629612e-18 9.64093446195752e-17 0.2214086797483927 -0.9751811096057519
12614190666.666666 0.21193925132732902 -0.9772828422450907 7.279109001829549e-18 9.63238403700708e-17 7.279109001829549e-18 9.63238403700708e-17 0.21193989059657548 -0.9772827036092184
12614808000.0 0.2024505227204038 -0.9792924924914247 8.219947505409895e-18 9.622914052497789e-17 8.219947505409895e-18 9.622914052497789e-17 0.20245116327287419 -0.9792923600688876
12615425333.333334 0.1929427486508384 -0.981210016124423 9.159630159284353e-18 9.61252577557475e-17 9.159630159284353e-18 9.61252577557475e-17 0.1929433904261503 -0.9812098899270704
12616042666.666666 0.18341682355930386 -0.9830352327537639 1.0098067400186106e-17 9.601220560836072e-17 1.0098067400186106e-17 9.601220560836072e-17 0.1834174664969657 -0.9830351127928572
12616660000.0 0.1738736435940209 -0.9847679706728741 1.103516981918694e-17 9.588999850168986e-17 1.103516981918694e-17 9.588999850168986e-17 0.17387428763343793 -0.9847678569590887
12617277333.333334 0.16431410652642797 -0.9864080668750905 1.1970848170200883e-17 9.575865172577494e-17 1.1970848170200883e-17 9.575865172577494e-17 0.16431475160690737 -0.9864079594185114
12617894666.666666 0.15473911166686302 -0.9879553670689687 1.2905013378452753e-17 9.561818144002132e-17 1.2905013378452753e-17 9.561818144002132e-17 0.15473975772762025 -0.9879552658790925
12618512000.0 0.1451495597796537 -0.9894097256928517 1.3837576548970324e-17 9.546860467130729e-17 1.3837576548970324e-17 9.546860467130729e-17 0.1451502067598178 -0.9894096307785838
12619129333.333334 0.1355463529987699 -0.9907710059284965 1.4768448974988156e-17 9.530993931201985e-17 1.4768448974988156e-17 9.530993931201985e-17 0.1355470008373894 -0.9907709172981511
12619746666.666666 0.1259303947426759 -0.9920390797139923 1.5697542146395222e-17 9.514220411799877e-17 1.5697542146395222e-17 9.514220411799877e-17 0.1259310433787248 -0.9920389973752932
12620364000.0 0.11630258962934127 -0.9932138277558061 1.662476775813322e-17 9.496541870640219e-17 1.662476775813322e-17 9.496541870640219e-17 0.11630323900172417 -0.9932137517158828
12620981333.333334 0.10666384339136409 -0.9942951395399726 1.7550037718547753e-17 9.477960355349579e-17 1.7550037718547753e-17 9.477960355349579e-17 0.10666449343892247 -0.9942950698053616
12621598666.666666 0.09701506279059605 -0.9952829133425171 1.847326415776706e-17 9.458477999235089e-17 1.847326415776706e-17 9.458477999235089e-17 0.0970157134521138 -0.9952828499191614
12622216000.0 0.0873571555328104 -0.9961770562390247 1.9394359436015766e-17 9.438097021046888e-17 1.9394359436015766e-17 9.438097021046888e-17 0.08735780674701975 -0.9961769991322735
12622833333.333334 0.07769103018236627 -0.9969774841133744 2.0313236151922178e-17 9.416819724732121e-17 2.0313236151922178e-17 9.416819724732121e-17 0.07769168188795345 -0.9969774333279825
12623450666.666666 0.06801759607682119 -0.9976841216656505 2.12298071507836e-17 9.394648499181264e-17 2.12298071507836e-17 9.394648499181264e-17 0.06801824821243212 -0.9976840772057771
12624068000.0 0.05833776324124349 -0.998296902419235 2.2143985532828584e-17 9.371585817965801e-17 2.2143985532828584e-17 9.371585817965801e-17 0.05833841574548963 -0.9982968642884429
12624685333.333334 0.0486524423025735 -0.9988157687270597 2.3055684661441046e-17 9.347634239068179e-17 2.3055684661441046e-17 9.347634239068179e-17 0.04865309511403766 -0.9988157369283164
12625302666.666666 0.03896254440424044 -0.9992406717770141 2.396481817132665e-17 9.322796404604502e-17 2.396481817132665e-17 9.322796404604502e-17 0.03896319746148265 -0.9992406463126932
12625920000.0 0.0292689811200215 -0.9995715715965655 2.4871299976716442e-17 9.297075040537627e-17 2.4871299976716442e-17 9.297075040537627e-17 0.0292696343615845 -0.9995715524684412
12626537333.333334 0.019572664368682744 -0.9998084370564904 2.577504427946364e-17 9.270472956384298e-17 2.577504427946364e-17 9.270472956384298e-17 0.019573317733098092 -0.9998084242657441
12627154666.666666 0.009874506328020807 -0.9999512458738227 2.667596557716266e-17 9.24299304491303e-17 2.667596557716266e-17 9.24299304491303e-17 0.009875159753814432 -0.9999512394210367
12627772000.0 0.00017541934887926061 -0.9999999846139412 2.7573978671236475e-17 9.214638281834075e-17 2.7573978671236475e-17 9.214638281834075e-17 0.00017607277457737028 -0.9999999844991042
12628389333.333334 -0.009523684130282511 -0.9999546486918388 2.846899867493938e-17 9.18541172548315e-17 2.846899867493938e-17 9.18541172548315e-17 -0.009523030766147708 -0.9999546549143404
12629006666.666666 -0.01922189166965299 -0.9998152423725456 2.936094102140261e-17 9.155316516495062e-17 2.936094102140261e-17 9.155316516495062e-17 -0.01922123842853749 -0.999815254931182
12629624000.0 -0.028918290913593356 -0.999581778770736 3.0249721471578276e-17 9.124355877471682e-17 3.0249721471578276e-17 9.124355877471682e-17 -0.028917637856935567 -0.9995817976637063
12630241333.333334 -0.03861196967663754 -0.9992542798494896 3.1135256122193116e-17 9.092533112640815e-17 3.1135256122193116e-17 9.092533112640815e-17 -0.038611316865852514 -0.9992543050743969
12630858666.666666 -0.04830201602913537 -0.9988327764182315 3.201746141363612e-17 9.059851607508459e-17 3.201746141363612e-17 9.059851607508459e-17 -0.04830136352560901 -0.9988328079720841
12631476000.0 -0.05798751838335431 -0.9983173081298203 3.2896254137853367e-17 9.026314828501751e-17 3.2896254137853367e-17 9.026314828501751e-17 -0.05798686624843768 -0.9983173460090319
12632093333.333334 -0.06766756557886781 -0.9977079234768361 3.377155144614523e-17 8.9919263226067e-17 3.377155144614523e-17 8.9919263226067e-17 -0.0676669138738712 -0.9977079676772241
12632710666.666666 -0.07734124696844281 -0.99700467978701 3.4643270856974284e-17 8.956689716996438e-17 3.4643270856974284e-17 8.956689716996438e-17 -0.07734059575463012 -0.9970047303037987
12633328000.0 -0.08700765250384997 -0.9962076432178184 3.551133026373257e-17 8.92060871865206e-17 3.551133026373257e-17 8.92060871865206e-17 -0.08700700184243298 -0.9962077000456391
12633945333.333334 -0.0966658728212215 -0.9953168887502826 3.637564794243432e-17 8.883687113977355e-17 3.637564794243432e-17 8.883687113977355e-17 -0.09666522277335397 -0.9953169518831723
12634562666.666666 -0.10631499932674054 -0.9943325001818991 3.723614255940463e-17 8.8459287684047e-17 3.723614255940463e-17 8.8459287684047e-17 -0.1063143499535126 -0.9943325696133031
12635180000.0 -0.11595412428208876 -0.9932545701187612 3.809273317891241e-17 8.807337625994109e-17 3.809273317891241e-17 8.807337625994109e-17 -0.11595347564452099 -0.993254645841532
12635797333.333334 -0.12558234088986958 -0.9920831999668438 3.894533927076765e-17 8.767917709024781e-17 3.894533927076765e-17 8.767917709024781e-17 -0.1255816930489075 -0.9920832819732436
12636414666.666666 -0.135198743378802 -0.9908184999224754 3.979388071786381e-17 8.727673117579741e-17 3.979388071786381e-17 8.727673117579741e-17 -0.13519809639531022 -0.990818588204176
12637032000.0 -0.14480242708910013 -0.9894605889619543 4.063827782370322e-17 8.686608029122215e-17 4.063827782370322e-17 8.686608029122215e-17 -0.14480178102385668 -0.9894606835100379
12637649333.333334 -0.15439248855746587 -0.9880095948303663 4.147845131985411e-17 8.644726698065814e-17 4.147845131985411e-17 8.644726698065814e-17 -0.15439184347115642 -0.9880096956353264
12638266666.666666 -0.16396802560210993 -0.9864656540295652 4.231432237337601e-17 8.602033455336922e-17 4.231432237337601e-17 8.602033455336922e-17 -0.16396738155532206 -0.9864657610813075
12638884000.0 -0.1735281374076244 -0.9848289118053308 4.314581259419861e-17 8.558532707930162e-17 4.314581259419861e-17 8.558532707930162e-17 -0.17352749446084226 -0.9848290250931756
12639501333.333334 -0.18307192460978272 -0.9830995221336961 4.3972844042457043e-17 8.514228938456475e-17 4.3972844042457043e-17 8.514228938456475e-17 -0.1830712828233808 -0.9830996416463765
12640118666.666666 -0.19259848937983948 -0.981277647706517 4.4795339235765116e-17 8.46912670468519e-17 4.4795339235765116e-17 8.46912670468519e-17 -0.19259784881407735 -0.9812777734321828
12640736000.0 -0.2021069355097474 -0.9793634599160267 4.561322115649379e-17 8.423230639076055e-17 4.561322115649379e-17 8.423230639076055e-17 -0.20210629622476387 -0.9793635918422435
12641353333.333334 -0.2115963684954072 -0.9773571388389134 4.642641325890761e-17 8.3765454483097e-17 4.642641325890761e-17 8.3765454483097e-17 -0.2115957305512148 -0.9773572769526657
12641970666.666666 -0.22106589562171075 -0.9752588732192091 4.7234839476359865e-17 8.329075912805152e-17 4.7234839476359865e-17 8.329075912805152e-17 -0.22106525907819 -0.9752590175069002
12642588000.0 -0.23051462604610448 -0.973068860450614 4.8038424228365475e-17 8.280826886234593e-17 4.8038424228365475e-17 8.280826886234593e-17 -0.23051399096299816 -0.9730690108980674
12643205333.333334 -0.23994167088245028 -0.9707873065579137 4.883709242765074e-17 8.231803295029861e-17 4.883709242765074e-17 8.231803295029861e-17 -0.23994103731935829 -0.9707874631503761
12643822666.666666 -0.24934614328475949 -0.9684144261775783 4.963076948715994e-17 8.18201013788172e-17 4.963076948715994e-17 8.18201013788172e-17 -0.2493455113011324 -0.9684145888997172
12644440000.0 -0.2587271585304824 -0.965950442537595 5.0419381326990644e-17 8.13145248523371e-17 5.0419381326990644e-17 8.13145248523371e-17 -0.25872652818561676 -0.9659506113735056
12645057333.333334 -0.26808383410376685 -0.9633955874364671 5.120285438129142e-17 8.080135478768454e-17 5.120285438129142e-17 8.080135478768454e-17 -0.26808320545679964 -0.9633957623696707
12645674666.666666 -0.27741528977848257 -0.9607501012214115 5.198111560510556e-17 8.028064330887497e-17 5.198111560510556e-17 8.028064330887497e-17 -0.27741466288838457 -0.9607502822348565
12646292000.0 -0.2867206477012165 -0.9580142327656866 5.275409248117785e-17 7.975244324183522e-17 5.275409248117785e-17 7.975244324183522e-17 -0.2867200226267878 -0.9580144198417511
12646909333.333334 -0.2959990324735031 -0.9551882394452849 5.3521713026663014e-17 7.92168081090904e-17 5.3521713026663014e-17 7.92168081090904e-17 -0.29599840927336707 -0.9551884325657781
12647526666.666666 -0.30524957123445007 -0.9522723871146411 5.428390579983255e-17 7.867379212435204e-17 5.428390579983255e-17 7.867379212435204e-17 -0.3052489499670485 -0.952272586260807
12648144000.0 -0.3144713937428242 -0.949266950081629 5.5040599906701796e-17 7.812345018705794e-17 5.5040599906701796e-17 7.812345018705794e-17 -0.31447077446641103 -0.949267155234146
12648761333.333334 -0.32366363245881075 -0.9461722110817883 5.579172500759587e-17 7.756583787685398e-17 5.579172500759587e-17 7.756583787685398e-17 -0.32366301523144697 -0.9461724222207707
12649378666.666666 -0.33282542262562775 -0.9429884612517296 5.65372113236686e-17 7.70010114480066e-17 5.65372113236686e-17 7.70010114480066e-17 -0.332824807505176 -0.9429886783567313
12649996000.0 -0.3419559023510122 -0.9397160001017001 5.727698964337642e-17 7.642902782374455e-17 5.727698964337642e-17 7.642902782374455e-17 -0.3419552893951311 -0.9397162231517154
12650613333.333334 -0.35105421268822035 -0.9363551354874317 5.80109913288774e-17 7.58499445905519e-17 5.80109913288774e-17 7.58499445905519e-17 -0.35105360195435953 -0.9363553644608983
12651230666.666666 -0.3601194977167282 -0.9329061835812235 5.873914832237151e-17 7.526381999240165e-17 5.873914832237151e-17 7.526381999240165e-17 -0.3601188892621228 -0.9329064184560245
12651848000.0 -0.36915090462301703 -0.9293694688420961 5.946139315241226e-17 7.467071292490501e-17 5.946139315241226e-17 7.467071292490501e-17 -0.36915029850468184 -0.9293697095955604
12652465333.333334 -0.37814758378056207 -0.9257453239853585 6.017765894011952e-17 7.407068292943261e-17 6.017765894011952e-17 7.407068292943261e-17 -0.37814698005528635 -0.9257455705942635
12653082666.666666 -0.3871086888297615 -0.922034089951308 6.088787940535232e-17 7.346379018716118e-17 6.088787940535232e-17 7.346379018716118e-17 -0.3871080875541045 -0.9220343423918849
12653700000.0 -0.396033376757821 -0.9182361158730529 6.159198887284268e-17 7.285009551304379e-17 6.159198887284268e-17 7.285009551304379e-17 -0.396032777988106 -0.918236374120986
12654317333.333334 -0.4049208079776927 -0.9143517590438184 6.228992227821942e-17 7.222966034976359e-17 6.228992227821942e-17 7.222966034976359e-17 -0.4049202117700014 -0.9143520230742477
12654934666.666666 -0.41377014640732046 -0.9103813848832245 6.298161517402054e-17 7.160254676158785e-17 6.298161517402054e-17 7.160254676158785e-17 -0.4137695528174878 -0.9103816546707475
12655552000.0 -0.42258055954829227 -0.9063253669029047 6.366700373562346e-17 7.096881742818187e-17 6.366700373562346e-17 7.096881742818187e-17 -0.4225799686319022 -0.9063256424215813
12656169333.333334 -0.4313512185639262 -0.9021840866714776 6.434602476709567e-17 7.03285356383837e-17 6.434602476709567e-17 7.03285356383837e-17 -0.43135063037630567 -0.9021843678948313
12656786666.666666 -0.4400812983575002 -0.8979579337785312 6.50186157070207e-17 6.968176528388774e-17 6.50186157070207e-17 6.968176528388774e-17 -0.4400807129537135 -0.8979582206795497
12657404000.0 -0.4487699776497442 -0.8936473057980318 6.568471463423112e-17 6.902857085290063e-17 6.568471463423112e-17 6.902857085290063e-17 -0.44876939508458874 -0.8936475983491727
12658021333.333334 -0.4574164390561521 -0.889252608250896 6.634426027349204e-17 6.836901742372968e-17 6.634426027349204e-17 6.836901742372968e-17 -0.45741585938415324 -0.8892529064240886
12658638666.666666 -0.4660198691637519 -0.8847742545669111 6.699719200110698e-17 6.770317065833075e-17 6.699719200110698e-17 6.770317065833075e-17 -0.46601929243915674 -0.8847745583335564
12659256000.0 -0.4745794586078779 -0.8802126660457044 6.764344985048769e-17 6.703109679577353e-17 6.764344985048769e-17 6.703109679577353e-17 -0.47457888488465183 -0.8802129753766824
12659873333.333334 -0.4830944021481102 -0.875568271817219 6.828297451762294e-17 6.635286264569123e-17 6.828297451762294e-17 6.635286264569123e-17 -0.48309383147993107 -0.875568586682889
12660490666.666666 -0.4915638987439305 -0.8708415088014004 6.891570736649888e-17 6.566853558166065e-17 6.891570736649888e-17 6.566853558166065e-17 -0.4915633311841825 -0.8708418291716021
12661108000.0 -0.49998715163047397 -0.866032821666869 6.954159043447164e-17 6.497818353451099e-17 6.954159043447164e-17 6.497818353451099e-17 -0.4999865872322445 -0.8660331475109284
12661725333.333334 -0.5083633683930405 -0.8611426627893402 7.016056643752923e-17 6.428187498562951e-17 7.016056643752923e-17 6.428187498562951e-17 -0.5083628072091143 -0.8611429940760714
12662342666.666666 -0.5166917610419374 -0.8561714922088995 7.077257877553218e-17 6.357967896016743e-17 7.077257877553218e-17 6.357967896016743e-17 -0.5166912031247921 -0.8561718289066088
12662960000.0 -0.5249715460864861 -0.851119777586796 7.137757153735754e-17 6.287166502022831e-17 7.137757153735754e-17 6.287166502022831e-17 -0.524970991488286 -0.8511201196632814
12663577333.333334 -0.533201944608752 -0.8459879941614297 7.197548950598573e-17 6.215790325799556e-17 7.197548950598573e-17 6.215790325799556e-17 -0.5332013933813444 -0.8459883415839873
12664194666.666666 -0.5413821823368213 -0.8407766247036447 7.256627816351729e-17 6.14384642888141e-17 7.256627816351729e-17 6.14384642888141e-17 -0.5413816345317323 -0.8407769774390724
12664812000.0 -0.5495114897176427 -0.8354861594713163 7.314988369612059e-17 6.071341924422447e-17 7.314988369612059e-17 6.071341924422447e-17 -0.54951094538607 -0.8354865174859134
12665429333.333334 -0.5575891019894431 -0.8301170961632094 7.372625299891189e-17 5.998283976494815e-17 7.372625299891189e-17 5.998283976494815e-17 -0.5575885611822539 -0.8301174594227834
12666046666.666666 -0.5656142592535568 -0.8246699398722402 7.429533368075581e-17 5.924679799383978e-17 7.429533368075581e-17 5.924679799383978e-17 -0.5656137220212806 -0.8246703083421069
12666664000.0 -0.573586206546169 -0.8191452030377815 7.485707406902184e-17 5.850536656875957e-17 7.485707406902184e-17 5.850536656875957e-17 -0.5735856729389956 -0.8191455766827722
12667281333.333334 -0.581504193909014 -0.8135434053976838 7.541142321422924e-17 5.775861861545502e-17 7.541142321422924e-17 5.775861861545502e-17 -0.5815036639767864 -0.8135437841821451
12667898666.666666 -0.5893674764601591 -0.8078650739392175 7.595833089466019e-17 5.700662774034692e-17 7.595833089466019e-17 5.700662774034692e-17 -0.5893669502523695 -0.8078654578270155
12668516000.0 -0.5971753144640759 -0.8021107428494926 7.649774762088488e-17 5.624946802329364e-17 7.649774762088488e-17 5.624946802329364e-17 -0.5971747920298625 -0.8021111318040187
12669133333.333334 -0.6049269734010285 -0.796280953465361 7.702962464020062e-17 5.5487214010332634e-17 7.702962464020062e-17 5.5487214010332634e-17 -0.6049264547891682 -0.7962813474495315
12669750666.666666 -0.6126217240363989 -0.790376254222319 7.755391394102894e-17 5.4719940706338644e-17 7.755391394102894e-17 5.4719940706338644e-17 -0.6126212092953052 -0.7903766531985819
12670368000.0 -0.620258842489198 -0.7843972006029802 7.807056825721765e-17 5.394772356767146e-17 7.807056825721765e-17 5.394772356767146e-17 -0.620258331666916 -0.7843976045333177
12670985333.333334 -0.6278376103001018 -0.7783443550848762 7.857954107227209e-17 5.317063849478137e-17 7.857954107227209e-17 5.317063849478137e-17 -0.6278371034443013 -0.7783447639308065
