! Parameters = {f0=12700.012000; bw=77.238000; Q=6100.000000; N=10; m_0_1=1.320215; m_1_1=1.038483; m_1_2=1.155027; m_2_2=1.037834; m_2_3=0.791990; m_2_8=0.003074; m_2_9=0.039778; m_3_3=1.035897; m_3_4=0.680519; m_3_7=0.003674; m_3_8=-0.093414; m_3_9=0.003074; m_4_4=1.032972; m_4_5=0.516854; m_4_6=0.007191; m_4_7=-0.113963; m_4_8=0.003674; m_5_5=1.033354; m_5_6=0.924209; m_5_7=0.007191; m_6_6=1.033353; m_6_7=0.517196; m_7_7=1.032986; m_7_8=0.680637; m_8_8=1.035895; m_8_9=0.792303; m_9_9=1.037829; m_9_10=1.156105; m_10_10=1.038473; m_10_11=1.321010}
!
! Created with skrf (http://scikit-rf.org).
# Hz S RI R 50.0 
!freq ReS11 ImS11 ReS21 ImS21 ReS12 ImS12 ReS22 ImS22
12607400000.0 -0.2708700792823314 0.9626159151756177 -1.9107912775180694e-18 -1.393403432370275e-16 -1.9107912775180694e-18 -1.393403432370275e-16 -0.270870748755524 0.9626157267925923
12608017333.333334 -0.25929227661584303 0.9657989000238002 -3.595384991902588e-18 -1.3927975982548842e-16 -3.595384991902588e-18 -1.3927975982548842e-16 -0.25929294826983534 0.9657987197016497
12608634666.666666 -0.24767708999357801 0.9688426389729765 -5.278793024802864e-18 -1.3919882146638552e-16 -5.278793024802864e-18 -1.3919882146638552e-16 -0.24767776373132455 0.9688424667369094
12609252000.0 -0.23602619405721662 0.9717466931863854 -6.960769565493894e-18 -1.3909754797107894e-16 -6.960769565493894e-18 -1.3909754797107894e-16 -0.23602686978138038 0.9717465290604399
12609869333.333334 -0.22434126859689404 0.9745106439665733 -8.641069108900152e-18 -1.3897596211771956e-16 -8.641069108900152e-18 -1.3897596211771956e-16 -0.2243419462098618 0.9745104879736187
12610486666.666666 -0.21262399830912687 0.9771340928157453 -1.031944649136308e-17 -1.3883408964675823e-16 -1.031944649136308e-17 -1.3883408964675823e-16 -0.21262467771302232 0.9771339449774749
12611104000.0 -0.20087607255358453 0.9796166614932884 -1.1995656926411634e-17 -1.3867195925601656e-16 -1.1995656926411634e-17 -1.3867195925601656e-16 -0.20087675365028276 0.9796165218302174
12611721333.333334 -0.18909918511002288 0.9819579920701976 -1.3669456040345477e-17 -1.3848960259533848e-16 -1.3669456040345477e-17 -1.3848960259533848e-16 -0.1890998678011645 0.9819578606016609
12612338666.666666 -0.17729503393363572 0.9841577469807772 -1.5340599907877825e-17 -1.3828705426079975e-16 -1.5340599907877825e-17 -1.3828705426079975e-16 -0.1772957181206414 0.9841576237249272
12612956000.0 -0.16546532091035962 0.9862156090712826 -1.7008845087619893e-17 -1.3806435178849548e-16 -1.7008845087619893e-17 -1.3806435178849548e-16 -0.16546600649444365 0.9862154940450846
12613573333.333334 -0.1536117516116964 0.9881312816456094 -1.8673948657465168e-17 -1.3782153564790372e-16 -1.8673948657465168e-17 -1.3782153564790372e-16 -0.1536124384938816 0.9881311748648418
12614190666.666666 -0.14173603504864285 0.9899044885081083 -2.033566824995835e-17 -1.3755864923481215e-16 -2.033566824995835e-17 -1.3755864923481215e-16 -0.14173672312977428 0.9899043899873575
12614808000.0 -0.12983988342526098 0.9915349740034002 -2.199376208749103e-17 -1.3727573886383114e-16 -2.199376208749103e-17 -1.3727573886383114e-16 -0.12984057260602094 0.9915348837560631
12615425333.333334 -0.11792501189190314 0.9930225030532303 -2.3647989017459902e-17 -1.369728537604733e-16 -2.3647989017459902e-17 -1.369728537604733e-16 -0.11792570207282495 0.993022421091508
12616042666.666666 -0.10599313829789835 0.9943668611903618 -2.5298108547276775e-17 -1.3665004605281685e-16 -2.5298108547276775e-17 -1.3665004605281685e-16 -0.10599382937938075 0.9943667875252591
12616660000.0 -0.09404598294384958 0.9955678545894973 -2.6943880879287982e-17 -1.3630737076274492e-16 -2.6943880879287982e-17 -1.3630737076274492e-16 -0.09404667482617146 0.9955677892308237
12617277333.333334 -0.08208526833369155 0.9966253100952208 -2.8585066945582294e-17 -1.3594488579676448e-16 -2.8585066945582294e-17 -1.3594488579676448e-16 -0.0820859609170259 0.996625253051586
12617894666.666666 -0.07011271892631692 0.9975390752469643 -3.022142844263212e-17 -1.3556265193641597e-16 -3.022142844263212e-17 -1.3556265193641597e-16 -0.07011341211074555 0.9975390265257787
12618512000.0 -0.05813006088675072 0.9983090183010024 -3.185272786593286e-17 -1.3516073282824042e-16 -3.185272786593286e-17 -1.3516073282824042e-16 -0.05813075457227854 0.9983089779084764
12619129333.333334 -0.046139021837617485 0.9989350282494245 -3.3478728544319216e-17 -1.3473919497337392e-16 -3.3478728544319216e-17 -1.3473919497337392e-16 -0.04613971592418689 0.9989349961905657
12619746666.666666 -0.03414133060991611 0.9994170148361468 -3.5099194674334666e-17 -1.3429810771668533e-16 -3.5099194674334666e-17 -1.3429810771668533e-16 -0.034142024997421534 0.9994169911147623
12620364000.0 -0.022138716993450193 0.9997549085699425 -3.671389135436076e-17 -1.338375432355263e-16 -3.671389135436076e-17 -1.338375432355263e-16 -0.022139411581752467 0.9997548931886377
12620981333.333334 -0.010132911488085287 0.9999486607344324 -3.8322584618589804e-17 -1.3335757652807448e-16 -3.8322584618589804e-17 -1.3335757652807448e-16 -0.010133606177026062 0.9999486536946078
12621598666.666666 0.0018743549463456199 0.9999982433951301 -3.9925041470919814e-17 -1.3285828540124956e-16 -3.9925041470919814e-17 -1.3285828540124956e-16 0.0018736602569293815 0.9999982446969854
12622216000.0 0.013881351139322472 0.9999036494034601 -4.152102991861846e-17 -1.3233975045824466e-16 -4.152102991861846e-17 -1.3233975045824466e-16 0.013880656549584095 0.9999036590459918
12622833333.333334 0.025886345959346625 0.9996648923977897 -4.311031900589132e-17 -1.3180205508563437e-16 -4.311031900589132e-17 -1.3180205508563437e-16 0.025885651569415243 0.9996649103787912
12623450666.666666 0.037887608563302644 0.9992820068014657 -4.469267884722536e-17 -1.3124528544010007e-16 -4.469267884722536e-17 -1.3124528544010007e-16 0.03788691447326885 0.9992820331175306
12624068000.0 0.0498834086463186 0.9987550478178492 -4.626788066061492e-17 -1.3066953043473747e-16 -4.626788066061492e-17 -1.3066953043473747e-16 0.049882714956219924 0.9987550824643681
12624685333.333334 0.06187201669115064 0.998084091422351 -4.783569680059868e-17 -1.3007488172497177e-16 -4.783569680059868e-17 -1.3007488172497177e-16 0.06187132350095715 0.9980841343935137
12625302666.666666 0.07385170421728404 0.9972692343514934 -4.939590079105814e-17 -1.2946143369409897e-16 -4.939590079105814e-17 -1.2946143369409897e-16 0.07385101162688397 0.9972692856402906
12625920000.0 0.08582074403059395 0.9963105940889346 -5.0948267357961587e-17 -1.288292834383857e-16 -5.0948267357961587e-17 -1.288292834383857e-16 0.08582005213977938 0.9963106536871597
12626537333.333334 0.09777741047185684 0.9952083088485691 -5.2492572461775593e-17 -1.2817853075183228e-16 -5.2492572461775593e-17 -1.2817853075183228e-16 0.09777671938030909 0.9952083767468167
12627154666.666666 0.10971997966589069 0.9939625375545733 -5.402859332977586e-17 -1.275092781105134e-16 -5.402859332977586e-17 -1.275092781105134e-16 0.10971928947316628 0.9939626137422438
12627772000.0 0.12164672977018252 0.992573459818481 -5.555610848815882e-17 -1.2682163065652933e-16 -5.555610848815882e-17 -1.2682163065652933e-16 0.12164604057569861 0.9925735442837803
12628389333.333334 0.13355594122265815 0.9910412759133399 -5.707489779386113e-17 -1.2611569618161451e-16 -5.707489779386113e-17 -1.2611569618161451e-16 0.13355525312567806 0.9910413686432801
12629006666.666666 0.14544589699019575 0.9893662067447662 -5.858474246631252e-17 -1.253915851103028e-16 -5.858474246631252e-17 -1.253915851103028e-16 0.14544521008981523 0.9893663077251719
12629624000.0 0.15731488281575998 0.9875484938191513 -6.00854251188475e-17 -1.2464941048277207e-16 -6.00854251188475e-17 -1.2464941048277207e-16 0.1573141972108922 0.9875486030346567
12630241333.333334 0.16916118746575445 0.9855883992088105 -6.15767297899796e-17 -1.238892879372765e-16 -6.15767297899796e-17 -1.238892879372765e-16 0.16916050325511653 0.9855885166428661
12630858666.666666 0.18098310297657483 0.9834862055142306 -6.305844197440956e-17 -1.2311133569222966e-16 -6.305844197440956e-17 -1.2311133569222966e-16 0.1809824202586731 0.9834863311491028
12631476000.0 0.19277892490119314 0.9812422158232647 -6.453034865387036e-17 -1.2231567452788272e-16 -6.453034865387036e-17 -1.2231567452788272e-16 0.19277824377430886 0.9812423496400384
12632093333.333334 0.20454695255442362 0.9788567536675159 -6.599223832764272e-17 -1.2150242776769002e-16 -6.599223832764272e-17 -1.2150242776769002e-16 0.20454627311659948 0.9788568956460999
12632710666.666666 0.21628548925845956 0.9763301629756393 -6.744390104293713e-17 -1.206717212592559e-16 -6.744390104293713e-17 -1.206717212592559e-16 0.21628481160748475 0.9763303130947663
12633328000.0 0.22799284258752042 0.9736628080237388 -6.88851284249991e-17 -1.1982368335493951e-16 -6.88851284249991e-17 -1.1982368335493951e-16 0.22799216682091722 0.9736629662609708
12633945333.333334 0.23966732461166648 0.9708550733828895 -7.031571370694144e-17 -1.1895844489211898e-16 -7.031571370694144e-17 -1.1895844489211898e-16 0.2396666508266761 0.9708552397146206
12634562666.666666 0.2513072521401881 0.9679073638636903 -7.173545175937397e-17 -1.180761391730745e-16 -7.173545175937397e-17 -1.180761391730745e-16 0.2513065804337563 0.9679075382651496
12635180000.0 0.26291094696442047 0.9648201044578629 -7.31441391197655e-17 -1.1717690194452872e-16 -7.31441391197655e-17 -1.1717690194452872e-16 0.262910277433184 0.9648202869031185
12635797333.333334 0.2744767360996197 0.9615937402769996 -7.454157402154017e-17 -1.1626087137684383e-16 -7.454157402154017e-17 -1.1626087137684383e-16 0.27447606883989234 0.9615939307389625
12636414666.666666 0.28600295202611353 0.9582287364884017 -7.592755642293133e-17 -1.1532818804286178e-16 -7.592755642293133e-17 -1.1532818804286178e-16 0.286002287133872 0.9582289349388297
12637032000.0 0.2974879329297753 0.9547255782480015 -7.730188803557197e-17 -1.143789948964018e-16 -7.730188803557197e-17 -1.143789948964018e-16 0.2974872705006456 0.9547257846575032
12637649333.333334 0.30893002294167154 0.9510847706303934 -7.866437235280037e-17 -1.1341343725042795e-16 -7.866437235280037e-17 -1.1341343725042795e-16 0.3089293630709159 0.9510849849684349
12638266666.666666 0.3203275723767207 0.947306838556044 -8.001481467771152e-17 -1.124316627548704e-16 -8.001481467771152e-17 -1.124316627548704e-16 0.32032691515922246 0.9473070607909488
12638884000.0 0.33167893797156456 0.9433923267155955 -8.135302215091276e-17 -1.114338213741261e-16 -8.135302215091276e-17 -1.114338213741261e-16 0.3316782835018156 0.943392556814553
12639501333.333334 0.34298248312154417 0.9393417994913204 -8.267880377803575e-17 -1.104200653642059e-16 -8.267880377803575e-17 -1.104200653642059e-16 0.3429818314936304 0.9393420374203875
12640118666.666666 0.3542365781163643 0.9351558408758507 -8.399197045691059e-17 -1.0939054924959377e-16 -8.399197045691059e-17 -1.0939054924959377e-16 0.354235929423954 0.9351560865999631
12640736000.0 0.3654396003757833 0.9308350543877246 -8.529233500453691e-17 -1.0834542979971962e-16 -8.529233500453691e-17 -1.0834542979971962e-16 0.3654389547121113 0.9308353078706936
12641353333.333334 0.3765899346825371 0.9263800629847407 -8.657971218364048e-17 -1.0728486600520954e-16 -8.657971218364048e-17 -1.0728486600520954e-16 0.3765892921403932 0.9263803241892647
12641970666.666666 0.38768597341606886 0.921791508973827 -8.785391872905755e-17 -1.0620901905372328e-16 -8.785391872905755e-17 -1.0620901905372328e-16 0.3876853340877832 0.9217917778614938
12642588000.0 0.39872611678393716 0.917070053918572 -8.911477337375656e-17 -1.0511805230553118e-16 -8.911477337375656e-17 -1.0511805230553118e-16 0.39872548076136777 0.9170703304498656
12643205333.333334 0.40970877305241876 0.9122163785438694 -9.036209687456e-17 -1.040121312687803e-16 -9.036209687456e-17 -1.040121312687803e-16 0.4097081404269383 0.9122166626781766
12643822666.666666 0.42063235877626104 0.9072311826376618 -9.159571203758475e-17 -1.0289142357443617e-16 -9.159571203758475e-17 -1.0289142357443617e-16 0.42063172963874307 0.9072314743332759
12644440000.0 0.43149529902674194 0.9021151849501445 -9.281544374334271e-17 -1.0175609895094928e-16 -9.281544374334271e-17 -1.0175609895094928e-16 0.43149467346754905 0.9021154841642743
12645057333.333334 0.44229602761881864 0.8968691230901104 -9.402111897154964e-17 -1.0060632919860716e-16 -9.402111897154964e-17 -1.0060632919860716e-16 0.4422954057277881 0.8968694297788843
12645674666.666666 0.45303298733683284 0.8914937534186518 -9.521256682559962e-17 -9.944228816360918e-17 -9.521256682559962e-17 -9.944228816360918e-17 0.4530323692032646 0.8914940675371246
12646292000.0 0.4637046301593554 0.8859898509399454 -9.638961855676702e-17 -9.826415171180582e-17 -9.638961855676702e-17 -9.826415171180582e-17 0.46370401587199855 0.885990172442105
12646909333.333334 0.4743094174819432 0.880358209189731 -9.755210758800135e-17 -9.707209770223507e-17 -9.755210758800135e-17 -9.707209770223507e-17 0.47430880712898466 0.8803585380285067
12647526666.666666 0.4848458203392514 0.8745996401207634 -9.869986953747312e-17 -9.586630596030093e-17 -9.869986953747312e-17 -9.586630596030093e-17 0.4848452140083012 0.87459997624803
12648144000.0 0.49531231962544575 0.8687149739857554 -9.983274224175577e-17 -9.46469582507073e-17 -9.983274224175577e-17 -9.46469582507073e-17 0.495311717403526 0.8687153173523418
12648761333.333334 0.5057074063131483 0.8627050592177142 -1.009505657786695e-16 -9.341423825012526e-17 -1.009505657786695e-16 -9.341423825012526e-17 0.5057068082866804 0.8627054097734113
12649378666.666666 0.5160295816709073 0.8565707623076789 -1.020531824897852e-16 -9.216833151959385e-17 -1.020531824897852e-16 -9.216833151959385e-17 0.5160289879256995 0.8565711200012459
12649996000.0 0.5262773574795518 0.8503129676796366 -1.0314043700262933e-16 -9.090942547661381e-17 -1.0314043700262933e-16 -9.090942547661381e-17 0.526276768100786 0.8503133324588072
12650613333.333334 0.5364492562466059 0.8439325775630857 -1.0421217625249692e-16 -8.963770936703134e-17 -1.0421217625249692e-16 -8.963770936703134e-17 0.5364486713188271 0.8439329493745794
12651230666.666666 0.5465438114191453 0.8374305118630707 -1.0526824950393063e-16 -8.835337423665531e-17 -1.0526824950393063e-16 -8.835337423665531e-17 0.5465432310262476 0.8374308906525965
12651848000.0 0.5565595675956221 0.8308077080273051 -1.0630850837188272e-16 -8.705661290258271e-17 -1.0630850837188272e-16 -8.705661290258271e-17 0.5565589918208386 0.8308080937395724
12652465333.333334 0.5664950807353905 0.824065120911214 -1.0733280684248048e-16 -8.574761992433068e-17 -1.0733280684248048e-16 -8.574761992433068e-17 0.5664945096612798 0.8240655134899391
12653082666.666666 0.5763489183669275 0.8172037226402504 -1.0834100129344695e-16 -8.442659157471326e-17 -1.0834100129344695e-16 -8.442659157471326e-17 0.5763483520753626 0.8172041220281655
12653700000.0 0.5861196597946208 0.8102245024695622 -1.0933295051421179e-16 -8.309372581041687e-17 -1.0933295051421179e-16 -8.309372581041687e-17 0.5861190983667773 0.8102249086084229
12654317333.333334 0.5958058963031798 0.8031284666416545 -1.1030851572558071e-16 -8.174922224244674e-17 -1.1030851572558071e-16 -8.174922224244674e-17 0.5958053398195244 0.8031288794722499
12654934666.666666 0.605406231361114 0.7959166382410555 -1.112675605991101e-16 -8.03932821062523e-17 -1.112675605991101e-16 -8.03932821062523e-17 0.6054056799013928 0.795917057703215
12655552000.0 0.6149192808219834 0.7885900570468698 -1.1220995127609196e-16 -7.902610823165803e-17 -1.1220995127609196e-16 -7.902610823165803e-17 0.6149187344652097 0.7885904830794723
12656169333.333334 0.6243436731237795 0.781149779383005 -1.1313555638613872e-16 -7.764790501261731e-17 -1.1313555638613872e-16 -7.764790501261731e-17 0.6243431319482244 0.7811502119239893
12656786666.666666 0.633678049486902 0.7735968779657053 -1.1404424706546253e-16 -7.625887837665715e-17 -1.1404424706546253e-16 -7.625887837665715e-17 0.6336775135700807 0.7735973169520765
12657404000.0 0.6429210641099687 0.7659324417489543 -1.1493589697472452e-16 -7.485923575419021e-17 -1.1493589697472452e-16 -7.485923575419021e-17 0.6429205335286321 0.7659328871167959
12658021333.333334 0.6520713843638097 0.758157575767515 -1.1581038231653677e-16 -7.344918604757736e-17 -1.1581038231653677e-16 -7.344918604757736e-17 0.6520708591939306 0.758158027451995
12658638666.666666 0.6611276909836213 0.7502734009775875 -1.166675818525564e-16 -7.202893960003297e-17 -1.166675818525564e-16 -7.202893960003297e-17 0.6611271713003858 0.7502738589129713
12659256000.0 0.670088678259304 0.7422810540950846 -1.1750737692026254e-16 -7.05987081642291e-17 -1.1750737692026254e-16 -7.05987081642291e-17 0.6700881641370997 0.7422815182147419
12659873333.333334 0.6789530542235622 0.7341816874318693 -1.1832965144925964e-16 -6.915870487085161e-17 -1.1832965144925964e-16 -6.915870487085161e-17 0.6789525457359682 0.7341821576682855
12660490666.666666 0.6877195408380979 0.7259764687297013 -1.1913429197726627e-16 -6.770914419685466e-17 -1.1913429197726627e-16 -6.770914419685466e-17 0.6877190380578729 0.7259769450144854
12661108000.0 0.6963868741782049 0.7176665809915636 -1.1992118766570087e-16 -6.625024193354922e-17 -1.1992118766570087e-16 -6.625024193354922e-17 0.6963863771772785 0.7176670632554601
12661725333.333334 0.7049538046146251 0.7092532223114512 -1.2069023031484526e-16 -6.478221515457383e-17 -1.2069023031484526e-16 -6.478221515457383e-17 0.704953313464086 0.7092537104843493
12662342666.666666 0.7134190969939636 0.7007376057013991 -1.2144131437866341e-16 -6.330528218360511e-17 -1.2144131437866341e-16 -6.330528218360511e-17 0.7134186117640506 0.7007380997123429
12662960000.0 0.7217815308166861 0.6921209589166716 -1.2217433697918647e-16 -6.18196625619693e-17 -1.2217433697918647e-16 -6.18196625619693e-17 0.721781051576778 0.6921214586938707
12663577333.333334 0.7300399004130281 0.6834045242788097 -1.2288919792053244e-16 -6.03255770160343e-17 -1.2288919792053244e-16 -6.03255770160343e-17 0.7300394272316334 0.6834050297496498
12664194666.666666 0.7381930151169454 0.6745895584963979 -1.2358579970250724e-16 -5.882324742447827e-17 -1.2358579970250724e-16 -5.882324742447827e-17 0.7381925480616907 0.6745900695874488
12664812000.0 0.7462396994376963 0.6656773324839508 -1.2426404753381552e-16 -5.731289678538542e-17 -1.2426404753381552e-16 -5.731289678538542e-17 0.7462392385753206 0.6656778491209816
12665429333.333334 0.7541787932293825 0.6566691311786194 -1.2492384934487204e-16 -5.579474918318752e-17 -1.2492384934487204e-16 -5.579474918318752e-17 0.7541783386257253 0.6566696532866065
12666046666.666666 0.7620091518580459 0.6475662533551236 -1.2556511580019233e-16 -5.426902975549835e-17 -1.2556511580019233e-16 -5.426902975549835e-17 0.7620087035780362 0.6475667808582611
12666664000.0 0.7697296463670139 0.6383700114381342 -1.261877603104191e-16 -5.2735964659714434e-17 -1.261877603104191e-16 -5.2735964659714434e-17 0.7697292044746639 0.6383705442598457
12667281333.333334 0.7773391636393344 0.6290817313134369 -1.2679169904388873e-16 -5.1195781039604683e-17 -1.2679169904388873e-16 -5.1195781039604683e-17 0.7773387281977299 0.6290822693763881
12667898666.666666 0.7848366065584688 0.6197027521365377 -1.2737685093783414e-16 -4.9648706991665066e-17 -1.2737685093783414e-16 -4.9648706991665066e-17 0.7848361776297584 0.619703295362645
12668516000.0 0.7922208941664804 0.6102344261395573 -1.2794313770916086e-16 -4.809497153138616e-17 -1.2794313770916086e-16 -4.809497153138616e-17 0.7922204718118677 0.6102349744500006
12669133333.333334 0.7994909618196574 0.6006781184365637 -1.2849048386480222e-16 -4.653480455942886e-17 -1.2849048386480222e-16 -4.653480455942886e-17 0.7994905460993935 0.6006786717517983
12669750666.666666 0.8066457613422933 0.5910352068263984 -1.290188167116822e-16 -4.4968436827633e-17 -1.290188167116822e-16 -4.4968436827633e-17 0.8066453523156656 0.5910357650661648
