! Parameters = {f0=12700.012000; bw=77.238000; Q=6100.000000; N=10; m_0_1=1.157252; m_1_1=-1.405962; m_1_2=0.992064; m_2_2=-1.406611; m_2_3=0.629027; m_2_8=-0.005074; m_2_9=0.031630; m_3_3=-1.408548; m_3_4=0.517556; m_3_7=-0.004474; m_3_8=-0.101562; m_3_9=-0.005074; m_4_4=-1.411473; m_4_5=0.353891; m_4_6=-0.000957; m_4_7=-0.122111; m_4_8=-0.004474; m_5_5=-1.411091; m_5_6=0.761246; m_5_7=-0.000957; m_6_6=-1.411092; m_6_7=0.354233; m_7_7=-1.411459; m_7_8=0.517674; m_8_8=-1.408550; m_8_9=0.629340; m_9_9=-1.406616; m_9_10=0.993142; m_10_10=-1.405972; m_10_11=1.158047}
!
! Created with skrf (http://scikit-rf.org).
# Hz S RI R 50.0 
!freq ReS11 ImS11 ReS21 ImS21 ReS12 ImS12 ReS22 ImS22
12607400000.0 0.9727612429225244 -0.23180932739576848 -5.4551810617363704e-17 3.137542700389286e-17 -5.4551810617363704e-17 3.137542700389286e-17 0.9727613843025416 -0.23180873410994765
12608017333.333334 0.9710694456185437 -0.23879726084264005 -5.431136015723744e-17 3.176542493064087e-17 -5.431136015723744e-17 3.176542493064087e-17 0.9710695912533592 -0.23879666861764842
12608634666.666666 0.969327450441598 -0.24577285004704078 -5.4068125660303474e-17 3.215358667786515e-17 -5.4068125660303474e-17 3.215358667786515e-17 0.9693276003232674 -0.2457722589133871
12609252000.0 0.9675353474413642 -0.252735734417143 -5.382212110280244e-17 3.253989240175677e-17 -5.382212110280244e-17 3.253989240175677e-17 0.9675355015617242 -0.25273514440527656
12609869333.333334 0.9656932292577765 -0.25968555401782 -5.357336060219218e-17 3.2924322364569776e-17 -5.357336060219218e-17 3.2924322364569776e-17 0.9656933876084451 -0.2596849651581292
12610486666.666666 0.9638011911162305 -0.266621949589281 -5.332185841634816e-17 3.330685693562008e-17 -5.332185841634816e-17 3.330685693562008e-17 0.9638013536886091 -0.26662136191209185
12611104000.0 0.9618593308226103 -0.27354456256583365 -5.306762894274685e-17 3.3687476592293264e-17 -5.306762894274685e-17 3.3687476592293264e-17 0.9618594976078814 -0.2735439761014078
12611721333.333334 0.9598677487583201 -0.2804530350940911 -5.2810686717656887e-17 3.40661619210238e-17 -5.2810686717656887e-17 3.40661619210238e-17 0.9598679197474497 -0.2804524498726245
12612338666.666666 0.9578265478750522 -0.2873470100516345 -5.2551046415308016e-17 3.4442893618290324e-17 -5.2551046415308016e-17 3.4442893618290324e-17 0.9578267230587898 -0.28734642610325606
12612956000.0 0.9557358336894145 -0.2942261310656379 -5.228872284706332e-17 3.481765249159002e-17 -5.228872284706332e-17 3.481765249159002e-17 0.9557360130582944 -0.29422554842040777
12613573333.333334 0.9535957142775745 -0.3010900425309632 -5.20237309605845e-17 3.519041946040673e-17 -5.20237309605845e-17 3.519041946040673e-17 0.9535958978219146 -0.30108946121887115
12614190666.666666 0.9514063002696148 -0.30793838962873293 -5.1756085838981206e-17 3.55611755571861e-17 -5.1756085838981206e-17 3.55611755571861e-17 0.9514064879795197 -0.3079378096796972
12614808000.0 0.9491677048438076 -0.31477081834470017 -5.148580269996341e-17 3.592990192828939e-17 -5.148580269996341e-17 3.592990192828939e-17 0.9491678967091663 -0.31477023978856533
12615425333.333334 0.9468800437207865 -0.32158697548746584 -5.1212896894981126e-17 3.629657983494986e-17 -5.1212896894981126e-17 3.629657983494986e-17 0.9468802397312742 -0.32158639835400155
12616042666.666666 0.944543435157546 -0.3283865087067908 -5.093738390836357e-17 3.666119065421406e-17 -5.093738390836357e-17 3.666119065421406e-17 0.9445436353026259 -0.3283859330256906
12616660000.0 0.9421579999413724 -0.33516906651170436 -5.065927935644125e-17 3.702371587989109e-17 -5.065927935644125e-17 3.702371587989109e-17 0.9421582042102927 -0.335168492312583
12617277333.333334 0.9397238613835235 -0.3419342982888582 -5.037859898667049e-17 3.7384137123481957e-17 -5.037859898667049e-17 3.7384137123481957e-17 0.9397240697653227 -0.3419337256012517
12617894666.666666 0.9372411453129414 -0.3486818543204403 -5.0095358676751887e-17 3.7742436115102884e-17 -5.0095358676751887e-17 3.7742436115102884e-17 0.9372413577964447 -0.3486812831738033
12618512000.0 0.934709980069661 -0.35541138580246406 -4.980957443373112e-17 3.809859470441586e-17 -4.980957443373112e-17 3.809859470441586e-17 0.9347101966434844 -0.3554108162261691
12619129333.333334 0.9321304964982624 -0.3621225448625881 -4.952126239310985e-17 3.845259486153151e-17 -4.952126239310985e-17 3.845259486153151e-17 0.9321307171508104 -0.36212197688592324
12619746666.666666 0.9295028279410315 -0.36881498457828304 -4.923043881793333e-17 3.8804418677926096e-17 -4.923043881793333e-17 3.8804418677926096e-17 0.9295030526604996 -0.36881441823045114
12620364000.0 0.9268271102311005 -0.3754883589946873 -4.893712009788295e-17 3.9154048367337833e-17 -4.893712009788295e-17 3.9154048367337833e-17 0.9268273390054734 -0.37548779430480345
12620981333.333334 0.9241034816854533 -0.382142323142409 -4.864132274836245e-17 3.9501466266656516e-17 -4.864132274836245e-17 3.9501466266656516e-17 0.9241037145025104 -0.38214176013950085
12621598666.666666 0.9213320830977197 -0.3887765330555204 -4.834306340956774e-17 3.9846654836818693e-17 -4.834306340956774e-17 3.9846654836818693e-17 0.921332319945031 -0.38877597176852496
12622216000.0 0.9185130577309222 -0.3953906457892562 -4.804235884556145e-17 4.018959666368192e-17 -4.804235884556145e-17 4.018959666368192e-17 0.9185132985958495 -0.39539008624701877
12622833333.333334 0.9156465513100946 -0.401984319437691 -4.773922594333496e-17 4.053027445890055e-17 -4.773922594333496e-17 4.053027445890055e-17 0.9156467961797948 -0.40198376166896427
12623450666.666666 0.9127327120147288 -0.4085572131514659 -4.743368171186976e-17 4.086867106078775e-17 -4.743368171186976e-17 4.086867106078775e-17 0.9127329608761522 -0.40855665718490775
12624068000.0 0.909771690471089 -0.41510898715545946 -4.7125743281188e-17 4.120476943517555e-17 -4.7125743281188e-17 4.120476943517555e-17 0.9097719433109812 -0.41510843301963185
12624685333.333334 0.9067636397444496 -0.4216393027662998 -4.6815427901390214e-17 4.153855267627623e-17 -4.6815427901390214e-17 4.153855267627623e-17 0.9067638965493526 -0.4216387504896678
12625302666.666666 0.9037087153312318 -0.4281478224097703 -4.6502752941710573e-17 4.187000400750976e-17 -4.6502752941710573e-17 4.187000400750976e-17 0.9037089760874829 -0.42814727202069947
12625920000.0 0.9006070751508309 -0.4346342096385421 -4.6187735889536246e-17 4.2199106782356947e-17 -4.6187735889536246e-17 4.2199106782356947e-17 0.9006073398445645 -0.4346336611652978
12626537333.333334 0.8974588795376104 -0.4410981291492316 -4.587039434944537e-17 4.25258444851797e-17 -4.587039434944537e-17 4.25258444851797e-17 0.8974591481547589 -0.4410975826199772
12627154666.666666 0.8942642912325299 -0.44753924679991397 -4.5550746042226675e-17 4.2850200732046425e-17 -4.5550746042226675e-17 4.2850200732046425e-17 0.8942645637588262 -0.44753870224271103
12627772000.0 0.8910234753747099 -0.4539572296274488 -4.522880880388736e-17 4.3172159271556953e-17 -4.522880880388736e-17 4.3172159271556953e-17 0.8910237517956829 -0.45395668707025205
12628389333.333334 0.8877365994929887 -0.4603517458644839 -4.490460058467975e-17 4.3491703985634256e-17 -4.490460058467975e-17 4.3491703985634256e-17 0.8877368797939702 -0.4603512053351436
12629006666.666666 0.8844038334971168 -0.4667224649569149 -4.457813944809295e-17 4.38088188903397e-17 -4.457813944809295e-17 4.38088188903397e-17 0.8844041176632375 -0.4667219264831727
12629624000.0 0.8810253496691476 -0.4730690575806138 -4.4249443569858404e-17 4.4123488136660273e-17 -4.4249443569858404e-17 4.4123488136660273e-17 0.8810256376853416 -0.4730685211901033
12630241333.333334 0.8776013226543806 -0.47939119565875965 -4.391853123694119e-17 4.443569601129731e-17 -4.391853123694119e-17 4.443569601129731e-17 0.8776016145053831 -0.4793906613790035
12630858666.666666 0.87413192945245 -0.4856885523785699 -4.3585420846533936e-17 4.4745426937440526e-17 -4.3585420846533936e-17 4.4745426937440526e-17 0.8741322251228002 -0.4856880202369791
12631476000.0 0.8706173494080667 -0.49196080220839394 -4.325013090503027e-17 4.5052665475547393e-17 -4.325013090503027e-17 4.5052665475547393e-17 0.8706176488821072 -0.4919602722322662
12632093333.333334 0.8670577642018437 -0.498207620914368 -4.2912680027011986e-17 4.535739632409871e-17 -4.2912680027011986e-17 4.535739632409871e-17 0.867058067463723 -0.49820709313088646
12632710666.666666 0.863453357840878 -0.504428685577225 -4.257308693421711e-17 4.565960432035799e-17 -4.257308693421711e-17 4.565960432035799e-17 0.8634536648745502 -0.5044281600134572
12633328000.0 0.8598043166491384 -0.5106236746091598 -4.2231370454504445e-17 4.5959274441122395e-17 -4.2231370454504445e-17 4.5959274441122395e-17 0.8598046274383639 -0.5106231512920555
12633945333.333334 0.8561108292580207 -0.5167922677701348 -4.1887549520819285e-17 4.6256391803459864e-17 -4.1887549520819285e-17 4.6256391803459864e-17 0.8561111437863669 -0.5167917467265247
12634562666.666666 0.8523730865964338 -0.5229341461847004 -4.1541643170148635e-17 4.655094166544321e-17 -4.1541643170148635e-17 4.655094166544321e-17 0.8523734048472779 -0.5229336274412961
12635180000.0 0.8485912818809956 -0.5290489923583855 -4.119367054247168e-17 4.6842909426876843e-17 -4.119367054247168e-17 4.6842909426876843e-17 0.8485916038375219 -0.529048475941776
12635797333.333334 0.844765610606066 -0.5351364901940576 -4.084365087970993e-17 4.7132280630010293e-17 -4.084365087970993e-17 4.7132280630010293e-17 0.8447659362512707 -0.5351359761307096
12636414666.666666 0.8408962705336192 -0.541196325008314 -4.0491603524666487e-17 4.7419040960250744e-17 -4.0491603524666487e-17 4.7419040960250744e-17 0.840896599850309 -0.5411958133245702
12637032000.0 0.8369834616829855 -0.5472281835477958 -4.013754791995965e-17 4.7703176246866754e-17 -4.013754791995965e-17 4.7703176246866754e-17 0.836983794653779 -0.5472276742698727
12637649333.333334 0.833027386320544 -0.5532317540053329 -3.9781503606957464e-17 4.7984672463680063e-17 -3.9781503606957464e-17 4.7984672463680063e-17 0.833027722927873 -0.5532312471593208
12638266666.666666 0.8290282489493125 -0.5592067260359905 -3.942349022470869e-17 4.826351572974808e-17 -3.942349022470869e-17 4.826351572974808e-17 0.8290285891754212 -0.5592062216478506
12638884000.0 0.8249862562982823 -0.565152790773256 -3.906352750885688e-17 4.85396923100489e-17 -3.906352750885688e-17 4.85396923100489e-17 0.8249866001252308 -0.5651522888688206
12639501333.333334 0.820901617311779 -0.5710696408449324 -3.8701635290561846e-17 4.881318861614778e-17 -3.8701635290561846e-17 4.881318861614778e-17 0.8209019647214431 -0.5710691414499028
12640118666.666666 0.8167745431387265 -0.5769569703889349 -3.833783349541824e-17 4.9083991206855025e-17 -3.833783349541824e-17 4.9083991206855025e-17 0.8167748941127985 -0.5769564735288802
12640736000.0 0.8126052471215376 -0.5828144750693822 -3.7972142142346754e-17 4.935208678889267e-17 -3.7972142142346754e-17 4.935208678889267e-17 0.8126056016415262 -0.5828139807697377
12641353333.333334 0.8083939447853761 -0.5886418520919082 -3.760458134252359e-17 4.9617462217521446e-17 -3.760458134252359e-17 4.9617462217521446e-17 0.8083943028326102 -0.5886413603779747
12641970666.666666 0.804140853826743 -0.5944388002197121 -3.7235171298255573e-17 4.988010449719655e-17 -3.7235171298255573e-17 4.988010449719655e-17 0.8041412153823696 -0.5944383111166537
12642588000.0 0.7998461941023477 -0.6002050197889411 -3.6863932301887774e-17 5.014000078218764e-17 -3.6863932301887774e-17 5.014000078218764e-17 0.7998465591473355 -0.6002045333217852
12643205333.333334 0.7955101876177993 -0.6059402127241162 -3.649088473469141e-17 5.039713837720267e-17 -3.649088473469141e-17 5.039713837720267e-17 0.795510556132938 -0.6059397289177514
12643822666.666666 0.791133058515941 -0.6116440825537894 -3.6116049065750007e-17 5.0651504738000855e-17 -3.6116049065750007e-17 5.0651504738000855e-17 0.7911334304818424 -0.6116436014329638
12644440000.0 0.7867150330654852 -0.6173163344255743 -3.573944585084016e-17 5.090308747199905e-17 -3.573944585084016e-17 5.090308747199905e-17 0.786715408462585 -0.6173158560148951
12645057333.333334 0.7822563396491804 -0.6229566751215693 -3.5361095731313813e-17 5.1151874338865226e-17 -3.5361095731313813e-17 5.1151874338865226e-17 0.7822567184577394 -0.6229561994455017
12645674666.666666 0.7777572087520771 -0.6285648130734273 -3.498101943296932e-17 5.1397853251109343e-17 -3.498101943296932e-17 5.1397853251109343e-17 0.7777575909521806 -0.6285643401562919
12646292000.0 0.773217872949468 -0.6341404583776026 -3.459923776491665e-17 5.164101227466603e-17 -3.459923776491665e-17 5.164101227466603e-17 0.7732182585210287 -0.6341399882435758
12646909333.333334 0.7686385668950789 -0.6396833228100712 -3.421577161845379e-17 5.18813396294599e-17 -3.421577161845379e-17 5.18813396294599e-17 0.7686389558178374 -0.6396828554831829
12647526666.666666 0.7640195273088364 -0.6451931198413666 -3.3830641965918303e-17 5.211882368997576e-17 -3.3830641965918303e-17 5.211882368997576e-17 0.7640199195623618 -0.6451926553454994
12648144000.0 0.759360992964536 -0.6506695646514972 -3.3443869859551236e-17 5.235345298580953e-17 -3.3443869859551236e-17 5.235345298580953e-17 0.7593613885282267 -0.6506691030103844
12648761333.333334 0.7546632046776246 -0.6561123741445154 -3.305547643034865e-17 5.258521620221714e-17 -3.305547643034865e-17 5.258521620221714e-17 0.7546636035307104 -0.656111915381741
12649378666.666666 0.7499264052928132 -0.6615212669630921 -3.2665482886918194e-17 5.281410218064884e-17 -3.2665482886918194e-17 5.281410218064884e-17 0.7499268074143561 -0.661520811102089
12649996000.0 0.7451508396713158 -0.6668959635032946 -3.227391051431549e-17 5.3040099919285325e-17 -3.227391051431549e-17 5.3040099919285325e-17 0.745151245040211 -0.6668955105673438
12650613333.333334 0.7403367546783235 -0.6722361859288911 -3.188078067289808e-17 5.326319857355253e-17 -3.188078067289808e-17 5.326319857355253e-17 0.7403371632732998 -0.6722357359411191
12651230666.666666 0.7354843991702797 -0.6775416581856694 -3.1486114797162295e-17 5.3483387456636355e-17 -3.1486114797162295e-17 5.3483387456636355e-17 0.7354848109699018 -0.6775412111690493
12651848000.0 0.7305940239819047 -0.6828121060158368 -3.1089934394570366e-17 5.370065603999184e-17 -3.1089934394570366e-17 5.370065603999184e-17 0.7305944389645732 -0.6828116619931849
12652465333.333334 0.7256658819132825 -0.6880472569721309 -3.069226104439566e-17 5.391499395383177e-17 -3.069226104439566e-17 5.391499395383177e-17 0.7256663000572354 -0.6880468159661062
12653082666.666666 0.720700227716853 -0.6932468404318414 -3.0293116396550796e-17 5.4126390987614645e-17 -3.0293116396550796e-17 5.4126390987614645e-17 0.7207006490001684 -0.6932464024649462
12653700000.0 0.7156973180841083 -0.6984105876109479 -2.989252217040463e-17 5.433483709052801e-17 -2.989252217040463e-17 5.433483709052801e-17 0.7156977424847031 -0.6984101527055245
12654317333.333334 0.7106574116324774 -0.7035382315778455 -2.949050015361787e-17 5.4540322371951566e-17 -2.949050015361787e-17 5.4540322371951566e-17 0.7106578391281098 -0.7035377997560759
12654934666.666666 0.7055807688918214 -0.7086295072672895 -2.908707220095202e-17 5.474283710192387e-17 -2.908707220095202e-17 5.474283710192387e-17 0.7055811994600915 -0.7086290785511935
12655552000.0 0.7004676522910227 -0.7136841514940333 -2.8682260233091016e-17 5.494237171159231e-17 -2.8682260233091016e-17 5.494237171159231e-17 0.7004680859093743 -0.7136837259054689
12656169333.333334 0.6953183261444823 -0.7187019029663765 -2.827608623545975e-17 5.513891679365445e-17 -2.827608623545975e-17 5.513891679365445e-17 0.6953187627902034 -0.7187014805270372
12656786666.666666 0.690133056638334 -0.7236825022997895 -2.786857225702553e-17 5.53324631027977e-17 -2.786857225702553e-17 5.53324631027977e-17 0.6901334962885592 -0.723682083031205
12657404000.0 0.6849121118167452 -0.7286256920302634 -2.745974040911071e-17 5.552300155612301e-17 -2.745974040911071e-17 5.552300155612301e-17 0.6849125544484554 -0.7286252759537964
12658021333.333334 0.6796557615681026 -0.7335312166275803 -2.7049612864201027e-17 5.571052323356083e-17 -2.7049612864201027e-17 5.571052323356083e-17 0.6796562071581261 -0.7335308037644258
12658638666.666666 0.6743642776110377 -0.7383988225085394 -2.663821185474648e-17 5.589501937828079e-17 -2.663821185474648e-17 5.589501937828079e-17 0.674364726136054 -0.7383984128797266
12659256000.0 0.6690379334802405 -0.7432282580502068 -2.6225559671951383e-17 5.607648139709582e-17 -2.6225559671951383e-17 5.607648139709582e-17 0.6690383849167778 -0.743227851676593
12659873333.333334 0.6636770045125627 -0.7480192736026832 -2.5811678664584052e-17 5.625490086084717e-17 -2.5811678664584052e-17 5.625490086084717e-17 0.6636774588370027 -0.748018870504958
12660490666.666666 0.6582817678326672 -0.7527716215021343 -2.5396591237769853e-17 5.643026950478765e-17 -2.5396591237769853e-17 5.643026950478765e-17 0.6582822250212431 -0.7527712217008137
12661108000.0 0.6528525023385685 -0.7574850560836985 -2.4980319851773306e-17 5.660257922895902e-17 -2.4980319851773306e-17 5.660257922895902e-17 0.6528529623673686 -0.7574846595991273
12661725333.333334 0.6473894886874737 -0.7621593336939633 -2.4562887020800643e-17 5.677182209855109e-17 -2.4562887020800643e-17 5.677182209855109e-17 0.6473899515324416 -0.7621589405463124
12662342666.666666 0.6418930092811251 -0.7667942127036926 -2.4144315311773877e-17 5.693799034426278e-17 -2.4144315311773877e-17 5.693799034426278e-17 0.6418934749180616 -0.7667938229129587
12662960000.0 0.6363633482511806 -0.7713894535203351 -2.372462734312858e-17 5.710107636264334e-17 -2.372462734312858e-17 5.710107636264334e-17 0.6363638166557438 -0.7713890671063397
12663577333.333334 0.6308007914445884 -0.7759448186003535 -2.3303845783585055e-17 5.72610727164349e-17 -2.3303845783585055e-17 5.72610727164349e-17 0.6308012625922965 -0.7759444355827412
12664194666.666666 0.6252056264087693 -0.7804600724615404 -2.2881993350935218e-17 5.74179721348987e-17 -2.2881993350935218e-17 5.74179721348987e-17 0.6252061002750008 -0.7804596928597788
12664812000.0 0.6195781423768397 -0.7849349816951205 -2.2459092810817516e-17 5.757176751413636e-17 -2.2459092810817516e-17 5.757176751413636e-17 0.619578618936835 -0.7849346055284984
12665429333.333334 0.6139186302525053 -0.7893693149779406 -2.2035166975498055e-17 5.772245191739885e-17 -2.2035166975498055e-17 5.772245191739885e-17 0.6139191094813672 -0.7893689422655668
12666046666.666666 0.6082273825952006 -0.7937628430842848 -2.161023870264316e-17 5.787001857538931e-17 -2.161023870264316e-17 5.787001857538931e-17 0.6082278644678977 -0.7937624738450886
12666664000.0 0.6025046936047879 -0.7981153388978658 -2.118433089408008e-17 5.801446088656027e-17 -2.118433089408008e-17 5.801446088656027e-17 0.6025051780961542 -0.7981149731505954
12667281333.333334 0.5967508591065286 -0.8024265774234263 -2.0757466494588848e-17 5.815577241738987e-17 -2.0757466494588848e-17 5.815577241738987e-17 0.596751346191265 -0.802426215186647
12667898666.666666 0.5909661765356327 -0.8066963357984904 -2.032966849065275e-17 5.829394690266355e-17 -2.032966849065275e-17 5.829394690266355e-17 0.590966666188308 -0.8066959770905836
12668516000.0 0.5851509449219491 -0.8109243933048287 -1.9900959909231692e-17 5.84289782457374e-17 -1.9900959909231692e-17 5.84289782457374e-17 0.5851514371170031 -0.8109240381439932
12669133333.333334 0.5793054648745813 -0.8151105313798251 -1.94713638165326e-17 5.856086051879396e-17 -1.94713638165326e-17 5.856086051879396e-17 0.5793059595863236 -0.8151101797840729
12669750666.666666 0.573430038566205 -0.8192545336278674 -1.904090331676126e-17 5.86895879630937e-17 -1.904090331676126e-17 5.86895879630937e-17 0.5734305357688189 -0.8192541856150262
12670368000.0 0.5675249697175212 -0.8233561858314912 -1.8609601550896124e-17 5.881515498921035e-17 -1.8609601550896124e-17 5.881515498921035e-17 0.5675254693850623 -0.8233558414191999
