! Parameters = {f0=12700.012000; bw=77.238000; Q=6100.000000; N=10; m_0_1=1.312407; m_1_1=0.921365; m_1_2=1.147219; m_2_2=0.920716; m_2_3=0.784182; m_2_8=0.002684; m_2_9=0.039388; m_3_3=0.918779; m_3_4=0.672711; m_3_7=0.003284; m_3_8=-0.093804; m_3_9=0.002684; m_4_4=0.915854; m_4_5=0.509046; m_4_6=0.006801; m_4_7=-0.114353; m_4_8=0.003284; m_5_5=0.916236; m_5_6=0.916401; m_5_7=0.006801; m_6_6=0.916235; m_6_7=0.509388; m_7_7=0.915868; m_7_8=0.672829; m_8_8=0.918777; m_8_9=0.784495; m_9_9=0.920711; m_9_10=1.148297; m_10_10=0.921355; m_10_11=1.313202}
!
! Created with skrf (http://scikit-rf.org).
# Hz S RI R 50.0 
!freq ReS11 ImS11 ReS21 ImS21 ReS12 ImS12 ReS22 ImS22
12607400000.0 0.9613610542993619 0.2752906160337304 -1.345277644155285e-16 1.2265325149928696e-18 -1.345277644155285e-16 1.2265325149928696e-18 0.9613608639702309 0.275291280694146
12608017333.333334 0.9645363085462137 0.2639502026819718 -1.3447740484055543e-16 2.8220695804027885e-18 -1.3447740484055543e-16 2.8220695804027885e-18 0.9645361260664884 0.2639508695050332
12608634666.666666 0.9675777939384387 0.252573182814477 -1.3440813256930172e-16 4.4165845752076405e-18 -1.3440813256930172e-16 4.4165845752076405e-18 0.9675776193326565 0.2525738517074971
12609252000.0 0.9704850886609999 0.24116113427843702 -1.3431996475880333e-16 6.0098534462281e-18 -1.3431996475880333e-16 6.0098534462281e-18 0.9704849219526045 0.24116180514845076
12609869333.333334 0.9732577895093766 0.2297156397791247 -1.3421292121886347e-16 7.601652403411046e-18 -1.3421292121886347e-16 7.601652403411046e-18 0.9732576307207141 0.22971631253290198
12610486666.666666 0.9758955119454946 0.21823828666036676 -1.3408702440822886e-16 9.191757951189498e-18 -1.3408702440822886e-16 9.191757951189498e-18 0.97589536109781 0.2182389612044253
12611104000.0 0.9783978901511015 0.20673066668417667 -1.3394229943038673e-16 1.0779946919884067e-17 -1.3394229943038673e-16 1.0779946919884067e-17 0.9783977472645378 0.20673134292479534
12611721333.333334 0.9807645770783997 0.1951943758104701 -1.3377877402900255e-16 1.2365996496912979e-17 -1.3377877402900255e-16 1.2365996496912979e-17 0.980764442171993 0.19519505365370146
12612338666.666666 0.9829952444982742 0.18363101397528125 -1.3359647858297782e-16 1.394968425804998e-17 -1.3359647858297782e-16 1.394968425804998e-17 0.982995117589952 0.1836316933269647
12612956000.0 0.9850895830457852 0.17204218486898226 -1.3339544610114324e-16 1.553078819857731e-17 -1.3339544610114324e-16 1.553078819857731e-17 0.9850894641523644 0.1720428656347575
12613573333.333334 0.9870473022630384 0.16042949571406806 -1.331757122165892e-16 1.7109086764314384e-17 -1.331757122165892e-16 1.7109086764314384e-17 0.9870471914002232 0.16043017779938787
12614190666.666666 0.9888681306395007 0.14879455704208766 -1.32937315180617e-16 1.8684358882680873e-17 -1.32937315180617e-16 1.8684358882680873e-17 0.9888680278218795 0.14879524035223093
12614808000.0 0.9905518156496583 0.13713898247025572 -1.3268029585633515e-16 2.0256383993585132e-17 -1.3268029585633515e-16 2.0256383993585132e-17 0.9905517208907029 0.13713966691034088
12615425333.333334 0.9920981237880275 0.12546438847772015 -1.3240469771188455e-16 2.182494208027376e-17 -1.3240469771188455e-16 2.182494208027376e-17 0.9920980371000894 0.12546507395271808
12616042666.666666 0.9935068406015282 0.11377239418146193 -1.321105668133047e-16 2.3389813700066444e-17 -1.321105668133047e-16 2.3389813700066444e-17 0.9935067619958406 0.11377308059620957
12616660000.0 0.9947777707192511 0.10206462111157552 -1.3179795181703052e-16 2.4950780015035475e-17 -1.3179795181703052e-16 2.4950780015035475e-17 0.9947777002059245 0.10206530837078859
12617277333.333334 0.9959107378795405 0.09034269298643909 -1.314669039620315e-16 2.650762282255794e-17 -1.314669039620315e-16 2.650762282255794e-17 0.9959106754675612 0.0903433809947255
12617894666.666666 0.99690558495442 0.07860823548775207 -1.3111747706159759e-16 2.80601245857446e-17 -1.3111747706159759e-16 2.80601245857446e-17 0.9969055306516513 0.07860892414962531
12618512000.0 0.9977621739714307 0.06686287603459311 -1.307497274947449e-16 2.96080684638561e-17 -1.307497274947449e-16 2.96080684638561e-17 0.9977621277846092 0.06686356525448525
12619129333.333334 0.9984803861327171 0.055108243558227 -1.303637141972923e-16 3.115123834247904e-17 -1.303637141972923e-16 3.115123834247904e-17 0.998480348067455 0.05510893324050221
12619746666.666666 0.999060121831533 0.043345968275881545 -1.299594986525581e-16 3.268941886369605e-17 -1.299594986525581e-16 3.268941886369605e-17 0.999060091892315 0.043346658324849144
12620364000.0 0.9995013006660524 0.031577681464628526 -1.2953714488170945e-16 3.422239545610013e-17 -1.2953714488170945e-16 3.422239545610013e-17 0.9995012788562346 0.03157837178455632
12620981333.333334 0.9998038614505016 0.01980501523551547 -1.2909671943377235e-16 3.5749954364635154e-17 -1.2909671943377235e-16 3.5749954364635154e-17 0.9998038477723132 0.019805705730643098
12621598666.666666 0.9999677622236666 0.00802960230675857 -1.2863829137526223e-16 3.727188268041678e-17 -1.2863829137526223e-16 3.727188268041678e-17 0.99996775667821 0.008030292881310751
12622216000.0 0.9999929802547031 -0.0037469242224673744 -1.2816193227948697e-16 3.878796837033407e-17 -1.2816193227948697e-16 3.878796837033407e-17 0.9999929828419518 -0.0037462336642675896
12622833333.333334 0.9998795120462883 -0.015522931098490487 -1.276677162154951e-16 4.0298000306542164e-17 -1.276677162154951e-16 4.0298000306542164e-17 0.999879522765088 -0.015522240652408408
12623450666.666666 0.9996273733351085 -0.027296785139738464 -1.2715571973667454e-16 4.180176829582724e-17 -1.2715571973667454e-16 4.180176829582724e-17 0.9996273921831772 -0.027296094901514474
12624068000.0 0.9992365990896752 -0.039066853463154666 -1.266260218690059e-16 4.329906310882438e-17 -1.266260218690059e-16 4.329906310882438e-17 0.9992366260636051 -0.03906616352849101
12624685333.333334 0.9987072435054742 -0.05083150371088554 -1.2607870409897023e-16 4.4789676509095657e-17 -1.2607870409897023e-16 4.4789676509095657e-17 0.9987072786007292 -0.05083081417543295
12625302666.666666 0.9980393799974571 -0.06258910427627003 -1.2551385036113768e-16 4.627340128199638e-17 -1.2551385036113768e-16 4.627340128199638e-17 0.9980394232083752 -0.06258841523561448
12625920000.0 0.9972331011898374 -0.074338024530605 -1.2493154702537053e-16 4.7750031263511357e-17 -1.2493154702537053e-16 4.7750031263511357e-17 0.997233152509634 -0.07433733608025463
12626537333.333334 0.9962885189032799 -0.08607663504878219 -1.2433188288373867e-16 4.921936136879626e-17 -1.2433188288373867e-16 4.921936136879626e-17 0.9962885783240454 -0.08607594728415395
12627154666.666666 0.9952057641393696 -0.09780330783560912 -1.2371494913707382e-16 5.0681187620628006e-17 -1.2371494913707382e-16 5.0681187620628006e-17 0.9952058316520704 -0.09780262085201537
12627772000.0 0.9939849870624269 -0.10951641655167528 -1.2308083938117465e-16 5.2135307177718386e-17 -1.2308083938117465e-16 5.2135307177718386e-17 0.9939850626569097 -0.10951573044431087
12628389333.333334 0.9926263569787357 -0.12121433673842441 -1.2242964959272658e-16 5.358151836275288e-17 -1.2242964959272658e-16 5.358151836275288e-17 0.9926264406437273 -0.12121365160235341
12629006666.666666 0.9911300623129986 -0.13289544604403944 -1.2176147811483901e-16 5.5019620690372477e-17 -1.2176147811483901e-16 5.5019620690372477e-17 0.991130154036107 -0.1328947619741818
12629624000.0 0.9894963105822497 -0.14455812444801816 -1.2107642564229648e-16 5.644941489488695e-17 -1.2107642564229648e-16 5.644941489488695e-17 0.9894964103499673 -0.14455744153913674
12630241333.333334 0.9877253283670481 -0.15620075448607482 -1.203745952064653e-16 5.787070295784708e-17 -1.203745952064653e-16 5.787070295784708e-17 0.9877254361647527 -0.15620007283276235
12630858666.666666 0.9858173612800973 -0.16782172147418126 -1.1965609215988175e-16 5.928328813542415e-17 -1.1965609215988175e-16 5.928328813542415e-17 0.9858174770920551 -0.167821041170847
12631476000.0 0.9837726739321058 -0.17941941373297965 -1.1892102416050414e-16 6.068697498562582e-17 -1.1892102416050414e-16 6.068697498562582e-17 0.9837727977414721 -0.17941873487383642
12632093333.333334 0.9815915498951598 -0.19099222281085304 -1.1816950115568842e-16 6.208156939523694e-17 -1.1816950115568842e-16 6.208156939523694e-17 0.9815916816839829 -0.19099154548990407
12632710666.666666 0.9792742916633858 -0.20253854370708155 -1.1740163536580133e-16 6.346687860665875e-17 -1.1740163536580133e-16 6.346687860665875e-17 0.9792744314126104 -0.20253786801810794
12633328000.0 0.9768212206109422 -0.21405677509474316 -1.166175412675359e-16 6.484271124450753e-17 -1.166175412675359e-16 6.484271124450753e-17 0.9768213683004089 -0.21405610113129
12633945333.333334 0.9742326769475111 -0.2255453195424329 -1.1581733557693292e-16 6.620887734198347e-17 -1.1581733557693292e-16 6.620887734198347e-17 0.9742328325559635 -0.2255446473977974
12634562666.666666 0.9715090196710846 -0.23700258373600291 -1.1500113723207886e-16 6.756518836705704e-17 -1.1500113723207886e-16 6.756518836705704e-17 0.9715091831761677 -0.23700191350322036
12635180000.0 0.9686506265182007 -0.24842697869939462 -1.1416906737549015e-16 6.89114572484564e-17 -1.1416906737549015e-16 6.89114572484564e-17 0.9686507978964692 -0.24842631047122668
12635797333.333334 0.9656578939115161 -0.2598169200152043 -1.1332124933620716e-16 7.024749840141602e-17 -1.1332124933620716e-16 7.024749840141602e-17 0.9656580731384334 -0.2598162538841252
12636414666.666666 0.9625312369048702 -0.2711708280442274 -1.1245780861159806e-16 7.157312775319036e-17 -1.1245780861159806e-16 7.157312775319036e-17 0.962531423954815 -0.27117016410241174
12637032000.0 0.9592710891257062 -0.28248712814461774 -1.1157887284882676e-16 7.288816276840568e-17 -1.1157887284882676e-16 7.288816276840568e-17 0.959271283971973 -0.28248646648392706
12637649333.333334 0.9558779027149125 -0.2937642508903239 -1.10684571826065e-16 7.419242247412138e-17 -1.10684571826065e-16 7.419242247412138e-17 0.9558781053297187 -0.2937635916022949
12638266666.666666 0.9523521482641332 -0.3050006322886944 -1.0977503743339292e-16 7.548572748469416e-17 -1.0977503743339292e-16 7.548572748469416e-17 0.9523523586186212 -0.3049999754645256
12638884000.0 0.9486943147505295 -0.3161947139973019 -1.088504036534108e-16 7.67679000264052e-17 -1.088504036534108e-16 7.67679000264052e-17 0.9486945328147721 -0.31619405972784176
12639501333.333334 0.9449049094689045 -0.32734494354025545 -1.0791080654157317e-16 7.803876396183916e-17 -1.0791080654157317e-16 7.803876396183916e-17 0.9449051352119071 -0.32734429191598857
12640118666.666666 0.940984457961438 -0.33844977452323893 -1.0695638420623269e-16 7.929814481403243e-17 -1.0695638420623269e-16 7.929814481403243e-17 0.9409846913511439 -0.33844912563427426
12640736000.0 0.9369335039446288 -0.3495076668484588 -1.0598727678837252e-16 8.054586979041745e-17 -1.0598727678837252e-16 8.054586979041745e-17 0.9369337449479251 -0.3495070207845176
12641353333.333334 0.932752609234159 -0.360517086927487 -1.0500362644115268e-16 8.17817678064002e-17 -1.0500362644115268e-16 8.17817678064002e-17 0.9327528578168796 -0.3605164437778899
12641970666.666666 0.9284423536667167 -0.37147650789467246 -1.0400557730905714e-16 8.300566950885076e-17 -1.0400557730905714e-16 8.300566950885076e-17 0.9284426097936481 -0.371475867748327
12642588000.0 0.9240033350197023 -0.3823844098185481 -1.029932755068632e-16 8.421740729921747e-17 -1.029932755068632e-16 8.421740729921747e-17 0.9240035986545887 -0.38238377276393726
12643205333.333334 0.9194361689283546 -0.3932392799125776 -1.0196686909830474e-16 8.541681535643356e-17 -1.0196686909830474e-16 8.541681535643356e-17 0.9194364400339006 -0.3932386460377459
12643822666.666666 0.9147414888002546 -0.40403961274521943 -1.0092650807446276e-16 8.660372965957336e-17 -1.0092650807446276e-16 8.660372965957336e-17 0.9147417673381342 -0.4040389821377626
12644440000.0 0.9099199457275812 -0.4147839104484749 -9.987234433192633e-17 8.777798801020528e-17 -9.987234433192633e-17 8.777798801020528e-17 0.9099202316584416 -0.41478328319552715
12645057333.333334 0.9049722083967814 -0.42547068292570384 -9.880453165065316e-17 8.893943005452935e-17 -9.880453165065316e-17 8.893943005452935e-17 0.9049725016802476 -0.42547005911392527
12645674666.666666 0.8998989629958808 -0.4360984480581783 -9.772322567161299e-17 9.008789730520045e-17 -9.772322567161299e-17 9.008789730520045e-17 0.8998992635905618 -0.4360978277737432
12646292000.0 0.894700913119145 -0.4466657319109922 -9.662858387412222e-17 9.122323316294201e-17 -9.662858387412222e-17 9.122323316294201e-17 0.8947012209826402 -0.44666511523957747
12646909333.333334 0.8893787796697589 -0.45717106893693965 -9.552076555300814e-17 9.234528293779987e-17 -9.552076555300814e-17 9.234528293779987e-17 0.8893790947586653 -0.4571704559637134
12647526666.666666 0.8839333007596388 -0.4676130021802032 -9.439993179545449e-17 9.345389387019618e-17 -9.439993179545449e-17 9.345389387019618e-17 0.8839336230295542 -0.4676123929898118
12648144000.0 0.8783652316071227 -0.4779900834782849 -9.326624545763191e-17 9.45489151516731e-17 -9.326624545763191e-17 9.45489151516731e-17 0.8783655610126538 -0.47798947815484194
12648761333.333334 0.8726753444322585 -0.4883008736627985 -9.211987114111027e-17 9.563019794533252e-17 -9.211987114111027e-17 9.563019794533252e-17 0.8726756809270261 -0.48830027228987266
12649378666.666666 0.8668644283497624 -0.49854394275896363 -9.096097516899793e-17 9.669759540602868e-17 -9.096097516899793e-17 9.669759540602868e-17 0.86686477188641 -0.49854334541956835
12649996000.0 0.8609332892594316 -0.5087178701842009 -8.9789725561857e-17 9.77509627002601e-17 -8.9789725561857e-17 9.77509627002601e-17 0.8609336397896296 -0.5087172769607817
12650613333.333334 0.8548827497344513 -0.5188212449449963 -8.86062920134127e-17 9.879015702575159e-17 -8.86062920134127e-17 9.879015702575159e-17 0.8548831072089068 -0.5188206559194205
12651230666.666666 0.848713648907425 -0.52885266583242 -8.741084586601421e-17 9.981503763076293e-17 -8.741084586601421e-17 9.981503763076293e-17 0.8487140132758844 -0.5288520810859637
12651848000.0 0.8424268423537561 -0.5388107416168435 -8.620356008586132e-17 1.0082546583311095e-16 -8.620356008586132e-17 1.0082546583311095e-16 0.8424272135650159 -0.5388101612301822
12652465333.333334 0.8360232019731852 -0.548694091240571 -8.498460923804943e-17 1.0182130503886085e-16 -8.498460923804943e-17 1.0182130503886085e-16 0.8360235799750987 -0.5486935152937678
12653082666.666666 0.8295036158688565 -0.5585013440093992 -8.37541694613914e-17 1.0280242076072474e-16 -8.37541694613914e-17 1.0280242076072474e-16 0.8295040006083398 -0.5585007725818938
12653700000.0 0.8228689882239776 -0.5682311397829775 -8.251241844296889e-17 1.0376868063620361e-16 -8.251241844296889e-17 1.0376868063620361e-16 0.8228693796470166 -0.5682305729535739
12654317333.333334 0.8161202391767008 -0.5778821291630135 -8.125953539257554e-17 1.047199544453428e-16 -8.125953539257554e-17 1.047199544453428e-16 0.8161206372283618 -0.577881567009872
12654934666.666666 0.8092583046922649 -0.5874529736807991 -7.999570101687087e-17 1.0565611412824761e-16 -7.999570101687087e-17 1.0565611412824761e-16 0.8092587093166992 -0.5874524162814232
12655552000.0 0.8022841364332272 -0.5969423459827622 -7.872109749336201e-17 1.0657703380226369e-16 -7.872109749336201e-17 1.0657703380226369e-16 0.8022845475736796 -0.5969417934139883
12656169333.333334 0.7951987016276819 -0.6063489300142785 -7.743590844423204e-17 1.0748258977881378e-16 -7.743590844423204e-17 1.0748258977881378e-16 0.7951991192265003 -0.6063483823522664
12656786666.666666 0.7880029829348552 -0.6156714212025632 -7.614031890988732e-17 1.0837266057998427e-16 -7.614031890988732e-17 1.0837266057998427e-16 0.788003406933496 -0.6156708785227835
12657404000.0 0.7806979783089478 -0.6249085266374069 -7.483451532238767e-17 1.0924712695473975e-16 -7.483451532238767e-17 1.0924712695473975e-16 0.7806984086479873 -0.6249079890146334
12658021333.333334 0.7732847008607594 -0.6340589652504723 -7.351868547867081e-17 1.101058718948345e-16 -7.351868547867081e-17 1.101058718948345e-16 0.7732851374798989 -0.6340584327587688
12658638666.666666 0.7657641787171606 -0.6431214679929798 -7.219301851358857e-17 1.1094878065040632e-16 -7.219301851358857e-17 1.1094878065040632e-16 0.7657646215552382 -0.643120940705693
12659256000.0 0.7581374548784007 -0.652094778011843 -7.08577048727497e-17 1.1177574074525649e-16 -7.08577048727497e-17 1.1177574074525649e-16 0.7581379038733956 -0.6520942560015892
12659873333.333334 0.7504055870735751 -0.6609776508238201 -6.951293628522919e-17 1.1258664199177652e-16 -6.951293628522919e-17 1.1258664199177652e-16 0.7504060421626216 -0.6609771341624782
12660490666.666666 0.742569647614018 -0.6697688544880284 -6.815890573609957e-17 1.1338137650555514e-16 -6.815890573609957e-17 1.1338137650555514e-16 0.7425701087334093 -0.6697683432467271
12661108000.0 0.7346307232442608 -0.6784671697771584 -6.679580743873091e-17 1.1415983871969314e-16 -6.679580743873091e-17 1.1415983871969314e-16 0.7346311903294602 -0.6784666640262681
12661725333.333334 0.7265899149917325 -0.6870713903460984 -6.542383680703553e-17 1.1492192539872319e-16 -6.542383680703553e-17 1.1492192539872319e-16 0.726590387977383 -0.6870708901552217
12662342666.666666 0.7184483380137184 -0.6955803228996201 -6.404319042747375e-17 1.1566753565224402e-16 -6.404319042747375e-17 1.1566753565224402e-16 0.7184488168336508 -0.6955798283375817
12662960000.0 0.7102071214428742 -0.7039927873576831 -6.265406603092809e-17 1.163965709482059e-16 -6.265406603092809e-17 1.163965709482059e-16 0.7102076060301175 -0.7039922984925208
12663577333.333334 0.7018674082305711 -0.7123076170191597 -6.125666246444071e-17 1.171089351258519e-16 -6.125666246444071e-17 1.171089351258519e-16 0.7018678985173603 -0.7123071339181142
12664194666.666666 0.6934303549884646 -0.7205236587235607 -5.985117966279133e-17 1.1780453440832704e-16 -5.985117966279133e-17 1.1780453440832704e-16 0.6934308509062496 -0.7205231814530658
12664812000.0 0.6848971318279633 -0.7286397730110838 -5.843781861993376e-17 1.1848327741494843e-16 -5.843781861993376e-17 1.1848327741494843e-16 0.6848976333074221 -0.72863930163676
12665429333.333334 0.6762689221979918 -0.7366548342806011 -5.701678136030722e-17 1.191450751731252e-16 -5.701678136030722e-17 1.191450751731252e-16 0.6762694291690373 -0.7366543688672444
12666046666.666666 0.6675469227210284 -0.7445677309456128 -5.558827091000111e-17 1.1978984112994306e-16 -5.558827091000111e-17 1.1978984112994306e-16 0.667547435112818 -0.7445672715571857
12666664000.0 0.6587323430267918 -0.7523773655887362 -5.4152491267765533e-17 1.2041749116341312e-16 -5.4152491267765533e-17 1.2041749116341312e-16 0.658732860767738 -0.7523769122883593
12667281333.333334 0.6498264055848589 -0.7600826551135572 -5.270964737598213e-17 1.2102794359333722e-16 -5.270964737598213e-17 1.2102794359333722e-16 0.6498269286026407 -0.7600822079635019
12667898666.666666 0.6408303455348956 -0.7676825308950563 -5.125994509140019e-17 1.2162111919187466e-16 -5.125994509140019e-17 1.2162111919187466e-16 0.6408308737564659 -0.7676820899567336
12668516000.0 0.6317454105153294 -0.7751759389278233 -4.980359115582414e-17 1.2219694119372991e-16 -4.980359115582414e-17 1.2219694119372991e-16 0.6317459438669264 -0.7751755042617767
12669133333.333334 0.6225728604906039 -0.7825618399719992 -4.8340793166698416e-17 1.2275533530598566e-16 -4.8340793166698416e-17 1.2275533530598566e-16 0.6225733988977631 -0.7825614116378982
12669750666.666666 0.6133139675760684 -0.7898392096977179 -4.68717595475386e-17 1.232962297176032e-16 -4.68717595475386e-17 1.232962297176032e-16 0.6133145109636307 -0.789838787754347
12670368000.0 0.6039700158618113 -0.7970070388269461 -4.539669951827132e-17 1.238195551085636e-16 -4.539669951827132e-17 1.238195551085636e-16 0.6039705641539344 -0.7970066233321981
