! Parameters = {f0=12700.012000; bw=77.238000; Q=6100.000000; N=10; m_0_1=1.164059; m_1_1=-1.303860; m_1_2=0.998871; m_2_2=-1.304509; m_2_3=0.635834; m_2_8=-0.004733; m_2_9=0.031971; m_3_3=-1.306446; m_3_4=0.524363; m_3_7=-0.004133; m_3_8=-0.101221; m_3_9=-0.004733; m_4_4=-1.309371; m_4_5=0.360698; m_4_6=-0.000616; m_4_7=-0.121770; m_4_8=-0.004133; m_5_5=-1.308989; m_5_6=0.768053; m_5_7=-0.000616; m_6_6=-1.308990; m_6_7=0.361040; m_7_7=-1.309357; m_7_8=0.524481; m_8_8=-1.306448; m_8_9=0.636147; m_9_9=-1.304514; m_9_10=0.999949; m_10_10=-1.303870; m_10_11=1.164854}
!
! Created with skrf (http://scikit-rf.org).
# Hz S RI R 50.0 
!freq ReS11 ImS11 ReS21 ImS21 ReS12 ImS12 ReS22 ImS22
12607400000.0 -0.358077829877681 0.933691741288281 5.09648948691847e-18 -6.504017310833839e-17 5.09648948691847e-18 -6.504017310833839e-17 -0.3580784026735932 0.9336915216165238
12608017333.333334 -0.3511671459482306 0.9363127872705923 4.608964742907948e-18 -6.506372638343593e-17 4.608964742907948e-18 -6.506372638343593e-17 -0.3511677203239578 0.9363125718489133
12608634666.666666 -0.3442372786605952 0.9388826848867751 4.121373035368687e-18 -6.508362919947558e-17 4.121373035368687e-18 -6.508362919947558e-17 -0.3442378545846075 0.9388824737265246
12609252000.0 -0.3372886065756085 0.94140129374998 3.633741668819572e-18 -6.509988187310311e-17 3.633741668819572e-18 -6.509988187310311e-17 -0.3372891840162943 0.9414010868622755
12609869333.333334 -0.33032150928141385 0.9438684762751112 3.1460979393003873e-18 -6.511248492497718e-17 3.1460979393003873e-18 -6.511248492497718e-17 -0.33032208820708253 0.9438682736708357
12610486666.666666 -0.323336367372758 0.946284097686335 2.6584691328509633e-18 -6.512143907966031e-17 2.6584691328509633e-18 -6.512143907966031e-17 -0.3233369477516401 0.946283899376136
12611104000.0 -0.31633356242992855 0.9486480260245321 2.1708825239803618e-18 -6.512674526549851e-17 2.1708825239803618e-18 -6.512674526549851e-17 -0.31633414423017897 0.9486478320188223
12611721333.333334 -0.30931347699828854 0.9509601321543829 1.6833653741650986e-18 -6.512840461448956e-17 1.6833653741650986e-18 -6.512840461448956e-17 -0.30931406018798707 0.9509599424633373
12612338666.666666 -0.3022764945671074 0.9532202897715057 1.1959449303134724e-18 -6.512641846213986e-17 1.1959449303134724e-18 -6.512641846213986e-17 -0.30227707911426166 0.9532201044050645
12612956000.0 -0.2952229995486403 0.9554283754093531 7.086484232480022e-19 -6.512078834731025e-17 7.086484232480022e-19 -6.512078834731025e-17 -0.29522358542118643 0.9554281943772179
12613573333.333334 -0.2881533772572626 0.9575842684459082 2.215030662078519e-19 -6.511151601205015e-17 2.215030662078519e-19 -6.511151601205015e-17 -0.288153964423068 0.9575840917575444
12614190666.666666 -0.2810680138883142 0.9596878511103126 -2.654639466915941e-19 -6.509860340142079e-17 -2.654639466915941e-19 -6.509860340142079e-17 -0.2810686023151784 0.9596876787749462
12614808000.0 -0.27396729649702867 0.9617390084892884 -7.522254419512153e-19 -6.508205266330676e-17 -7.522254419512153e-19 -6.508205266330676e-17 -0.27396788615268547 0.9617388405159067
12615425333.333334 -0.26685161297739046 0.9637376285334178 -1.2387542682085114e-18 -6.506186614821662e-17 -1.2387542682085114e-18 -6.506186614821662e-17 -0.2668522038295097 0.9637374649307694
12616042666.666666 -0.2597213520409438 0.9656836020632615 -1.7250232977450246e-18 -6.503804640907216e-17 -1.7250232977450246e-18 -6.503804640907216e-17 -0.25972194405713317 0.965683442839855
12616660000.0 -0.2525769031955597 0.9675768227753244 -2.211005427993694e-18 -6.501059620098627e-17 -2.211005427993694e-18 -6.501059620098627e-17 -0.2525774963433666 0.9675766679394292
12617277333.333334 -0.24541865672415789 0.9694171872478649 -2.6966735830442317e-18 -6.497951848103001e-17 -2.6966735830442317e-18 -6.497951848103001e-17 -0.24541925097107078 0.9694170368075083
12617894666.666666 -0.23824700366341334 0.9712045949465319 -3.182000715144557e-18 -6.494481640798823e-17 -3.182000715144557e-18 -6.494481640798823e-17 -0.23824759897686437 0.9712044489095029
12618512000.0 -0.23106233578225832 0.9729389482298973 -3.666959806211131e-18 -6.490649334210308e-17 -3.666959806211131e-18 -6.490649334210308e-17 -0.2310629321296241 0.9729388066037414
12619129333.333334 -0.22386504556075587 0.9746201523547171 -4.151523869309416e-18 -6.486455284480913e-17 -4.151523869309416e-18 -6.486455284480913e-17 -0.2238656429093599 0.9746200151467392
12619746666.666666 -0.2166555261684124 0.9762481154811725 -4.635665950167008e-18 -6.481899867845395e-17 -4.635665950167008e-18 -6.481899867845395e-17 -0.21665612448552665 0.9762479826984349
12620364000.0 -0.20943417144269788 0.977822748677879 -5.119359128667756e-18 -6.476983480600899e-17 -5.119359128667756e-18 -6.476983480600899e-17 -0.20943477069554475 0.9778226203272022
12620981333.333334 -0.2022013758678106 0.9793439659266895 -5.602576520325017e-18 -6.471706539077133e-17 -5.602576520325017e-18 -6.471706539077133e-17 -0.20220197602356435 0.9793438420146509
12621598666.666666 -0.19495753455273745 0.980811684127473 -6.085291277796493e-18 -6.466069479605024e-17 -6.085291277796493e-18 -6.466069479605024e-17 -0.1949581355785266 0.9808115646604074
12622216000.0 -0.18770304320997697 0.9822258231025928 -6.5674765923503914e-18 -6.46007275848466e-17 -6.5674765923503914e-18 -6.46007275848466e-17 -0.18770364507288534 0.9822257080865906
12622833333.333334 -0.1804382981337545 0.9835863056013163 -7.049105695360112e-18 -6.45371685195185e-17 -7.049105695360112e-18 -6.45371685195185e-17 -0.18043890080082362 0.9835861950422252
12623450666.666666 -0.1731636961785141 0.9848930573040137 -7.530151859775989e-18 -6.447002256143857e-17 -7.530151859775989e-18 -6.447002256143857e-17 -0.17316429961674473 0.9848929512074367
12624068000.0 -0.16587963473709944 0.98614600682624 -8.010588401612328e-18 -6.439929487063697e-17 -8.010588401612328e-18 -6.439929487063697e-17 -0.16588023891345344 0.986145905197536
12624685333.333334 -0.15858651171901686 0.9873450857226401 -8.490388681422397e-18 -6.432499080543552e-17 -8.490388681422397e-18 -6.432499080543552e-17 -0.15858711660041896 0.9873449885669228
12625302666.666666 -0.1512847255289788 0.9884902284906384 -8.969526105759366e-18 -6.424711592207199e-17 -8.969526105759366e-18 -6.424711592207199e-17 -0.15128533108231867 0.9884901358127782
12625920000.0 -0.1439746750447479 0.9895813725740852 -9.447974128661437e-18 -6.416567597430941e-17 -9.447974128661437e-18 -6.416567597430941e-17 -0.14397528123688175 0.9895812843787075
12626537333.333334 -0.13665675959562773 0.990618458366628 -9.925706253099199e-18 -6.408067691304031e-17 -9.925706253099199e-18 -6.408067691304031e-17 -0.13665736639337978 0.990618374658111
12627154666.666666 -0.12933137894064808 0.9916014292149654 -1.0402696032446918e-17 -6.399212488587524e-17 -1.0402696032446918e-17 -6.399212488587524e-17 -0.12933198631081297 0.9916013499974429
12627772000.0 -0.12199893324644653 0.992530231421986 -1.0878917071950431e-17 -6.390002623672051e-17 -1.0878917071950431e-17 -6.390002623672051e-17 -0.12199954115579083 0.9925301566993462
12628389333.333334 -0.11465982306583028 0.9934048142496419 -1.1354343030164394e-17 -6.380438750535017e-17 -1.1354343030164394e-17 -6.380438750535017e-17 -0.11466043148109424 0.9934047440255259
12629006666.666666 -0.10731444931547231 0.9942251299217746 -1.1828947620420327e-17 -6.370521542696043e-17 -1.1828947620420327e-17 -6.370521542696043e-17 -0.10731505820337207 0.9942250641995798
12629624000.0 -0.09996321325434898 0.9949911336266862 -1.2302704612262187e-17 -6.360251693171937e-17 -1.2302704612262187e-17 -6.360251693171937e-17 -0.09996382258157795 0.9949910724095624
12630241333.333334 -0.09260651646153764 0.9957027835196158 -1.2775587832899817e-17 -6.349629914430125e-17 -1.2775587832899817e-17 -6.349629914430125e-17 -0.0926071261947685 0.9957027268104663
12630858666.666666 -0.08524476081461896 0.9963600407249936 -1.3247571168638915e-17 -6.338656938341477e-17 -1.3247571168638915e-17 -6.338656938341477e-17 -0.08524537092050545 0.9963599885264751
12631476000.0 -0.07787834846729859 0.9969628693386013 -1.3718628566335689e-17 -6.327333516131356e-17 -1.3718628566335689e-17 -6.327333516131356e-17 -0.07787895891247744 0.9969628216531248
12632093333.333334 -0.07050768182783541 0.997511236429504 -1.41887340348137e-17 -6.315660418330463e-17 -1.41887340348137e-17 -6.315660418330463e-17 -0.07050829257892792 0.9975111932592318
12632710666.666666 -0.06313316353688843 0.998005112041856 -1.4657861646292612e-17 -6.303638434724169e-17 -1.4657861646292612e-17 -6.303638434724169e-17 -0.06313377456050265 0.9980050733887056
12633328000.0 -0.055755196445380496 0.9984444691965547 -1.5125985537829102e-17 -6.291268374300481e-17 -1.5125985537829102e-17 -6.291268374300481e-17 -0.05575580770811274 0.998444435062196
12633945333.333334 -0.048374183592774594 0.9988292838926905 -1.5593079912719528e-17 -6.278551065197717e-17 -1.5593079912719528e-17 -6.278551065197717e-17 -0.04837479506121143 0.9988292542785465
12634562666.666666 -0.040990528184801873 0.9991595351088756 -1.6059119041923365e-17 -6.265487354650559e-17 -1.6059119041923365e-17 -6.265487354650559e-17 -0.04099113982552185 0.9991595100161218
12635180000.0 -0.033604633571633874 0.9994352048043778 -1.6524077265480522e-17 -6.25207810893507e-17 -1.6524077265480522e-17 -6.25207810893507e-17 -0.03360524535120947 0.9994351842339441
12635797333.333334 -0.02621690322570701 0.9996562779201196 -1.6987928993910057e-17 -6.238324213313068e-17 -1.6987928993910057e-17 -6.238324213313068e-17 -0.026217515110706285 0.9996562618726862
12636414666.666666 -0.018827740719823502 0.9998227423794874 -1.7450648709613156e-17 -6.224226571975191e-17 -1.7450648709613156e-17 -6.224226571975191e-17 -0.018828352676812113 0.9998227308554904
12637032000.0 -0.011437549704935131 0.9999345890890056 -1.7912210968280576e-17 -6.209786107982726e-17 -1.7912210968280576e-17 -6.209786107982726e-17 -0.011438161700478018 0.9999345820886315
12637649333.333334 -0.004046733888234674 0.9999918119388227 -1.8372590400277655e-17 -6.195003763208865e-17 -1.8372590400277655e-17 -6.195003763208865e-17 -0.004047345888897951 0.9999918094620116
12638266666.666666 0.003344302989039632 0.9999944078030486 -1.8831761712042213e-17 -6.179880498278437e-17 -1.8831761712042213e-17 -6.179880498278437e-17 0.0033436910166868496 0.9999944098494938
12638884000.0 0.01073515717348888 0.9999423765399243 -1.9289699687458384e-17 -6.164417292507187e-17 -1.9289699687458384e-17 -6.164417292507187e-17 0.010734545262872675 0.9999423831090729
12639501333.333334 0.01812542492175163 0.9998357209918326 -1.9746379189244854e-17 -6.148615143839447e-17 -1.9746379189244854e-17 -6.148615143839447e-17 0.018124813106291444 0.9998357320828828
12640118666.666666 0.025514702522360443 0.9996744469851403 -2.0201775160317242e-17 -6.132475068785491e-17 -2.0201775160317242e-17 -6.132475068785491e-17 0.02551409083546727 0.9996744625970458
12640736000.0 0.032902586318250285 0.999458563329877 -2.065586262518359e-17 -6.115998102356527e-17 -2.065586262518359e-17 -6.115998102356527e-17 0.03290197479332479 0.9994585834613421
12641353333.333334 0.04028867272809887 0.9991880818192647 -2.1108616691274174e-17 -6.099185298000828e-17 -2.1108616691274174e-17 -6.099185298000828e-17 0.040288061398529605 0.9991881064687473
12641970666.666666 0.04767255826908353 0.9988630172290558 -2.156001255032668e-17 -6.082037727536714e-17 -2.156001255032668e-17 -6.082037727536714e-17 0.047671947168245216 0.9988630463947702
12642588000.0 0.05505383957846806 0.9984833873167444 -2.2010025479729872e-17 -6.064556481085818e-17 -2.2010025479729872e-17 -6.064556481085818e-17 0.05505322873971958 0.9984834209966557
12643205333.333334 0.062432113435779396 0.9980492128205877 -2.2458630843872265e-17 -6.046742667004995e-17 -2.2458630843872265e-17 -6.046742667004995e-17 0.062431502892462014 0.9980492510124142
12643822666.666666 0.06980697678491933 0.9975605174584654 -2.290580409549231e-17 -6.028597411816967e-17 -2.290580409549231e-17 -6.028597411816967e-17 0.06980636657035508 0.9975605601596816
12644440000.0 0.07717802675604107 0.9970173279265993 -2.3351520777005913e-17 -6.010121860140641e-17 -2.3351520777005913e-17 -6.010121860140641e-17 0.07717741690353055 0.9970173751344311
12645057333.333334 0.08454486068755653 0.9964196738980889 -2.3795756521847418e-17 -5.991317174619735e-17 -2.3795756521847418e-17 -5.991317174619735e-17 0.08454425123037751 0.9964197256095183
12645674666.666666 0.09190707614827485 0.9957675880212852 -2.4238487055785924e-17 -5.97218453585111e-17 -2.4238487055785924e-17 -5.97218453585111e-17 0.09190646711968015 0.995767644233047
12646292000.0 0.0992642709592724 0.9950611059180113 -2.4679688198265092e-17 -5.95272514231102e-17 -2.4679688198265092e-17 -5.95272514231102e-17 0.09926366239248827 0.9950611666265964
12646909333.333334 0.1066160432158916 0.9943002661816194 -2.5119335863694634e-17 -5.932940210282085e-17 -2.5119335863694634e-17 -5.932940210282085e-17 0.10661543514411569 0.9943003313832713
12647526666.666666 0.11396199130966728 0.9934851103748801 -2.5557406062776808e-17 -5.912830973777666e-17 -2.5557406062776808e-17 -5.912830973777666e-17 0.11396138376606706 0.9934851800655993
12648144000.0 0.12130171395037853 0.9926156830277023 -2.5993874903806335e-17 -5.892398684466037e-17 -2.5993874903806335e-17 -5.892398684466037e-17 0.1213011069680894 0.9926157572032437
12648761333.333334 0.12863481018782924 0.9916920316347168 -2.642871859396824e-17 -5.871644611593557e-17 -2.642871859396824e-17 -5.871644611593557e-17 0.12863420379995266 0.9916921102905908
12649378666.666666 0.13596087943375088 0.9907142066526823 -2.6861913440619216e-17 -5.850570041907273e-17 -2.6861913440619216e-17 -5.850570041907273e-17 0.13596027367335242 0.9907142897841534
12649996000.0 0.1432795214837981 0.9896822614977121 -2.729343585258822e-17 -5.82917627957548e-17 -2.729343585258822e-17 -5.82917627957548e-17 0.14327891638390627 0.9896823490998041
12650613333.333334 0.15059033653943965 0.9885962525423565 -2.7723262341447323e-17 -5.807464646108372e-17 -2.7723262341447323e-17 -5.807464646108372e-17 0.15058973213304327 0.9885963446098468
12651230666.666666 0.15789292522951623 0.9874562391125589 -2.815136952278489e-17 -5.785436480277424e-17 -2.815136952278489e-17 -5.785436480277424e-17 0.1578923215495632 0.9874563356399826
12651848000.0 0.1651868886324511 0.9862622834843586 -2.857773411747872e-17 -5.763093138033433e-17 -2.857773411747872e-17 -5.763093138033433e-17 0.16518628571184651 0.9862623844660088
12652465333.333334 0.1724718282977614 0.9850144508805339 -2.900233295294833e-17 -5.740435992424453e-17 -2.900233295294833e-17 -5.740435992424453e-17 0.1724712261693653 0.9850145563104579
12653082666.666666 0.17974734626782396 0.983712809467035 -2.942514296440724e-17 -5.717466433512425e-17 -2.942514296440724e-17 -5.717466433512425e-17 0.17974674496445028 0.9837129193390403
12653700000.0 0.18701304509986758 0.9823574303492223 -2.9846141196126506e-17 -5.694185868287984e-17 -2.9846141196126506e-17 -5.694185868287984e-17 0.18701244465428193 0.9823575446568741
12654317333.333334 0.19426852788740398 0.980948387568028 -3.02653048026514e-17 -5.67059572058646e-17 -3.02653048026514e-17 -5.67059572058646e-17 0.1942679283323216 0.9809485063046481
12654934666.666666 0.20151339828202142 0.9794857580958918 -3.0682611050058136e-17 -5.646697431000528e-17 -3.0682611050058136e-17 -5.646697431000528e-17 0.2015127996501062 0.9794858812545635
12655552000.0 0.20874726051514841 0.977969621832536 -3.1098037317171364e-17 -5.622492456793567e-17 -3.1098037317171364e-17 -5.622492456793567e-17 0.20874666283901036 0.9779697494060994
12656169333.333334 0.2159697194193943 0.9764000616006536 -3.1511561096777323e-17 -5.597982271812224e-17 -3.1511561096777323e-17 -5.597982271812224e-17 0.21596912273158808 0.9764001935817099
12656786666.666666 0.22318038045041502 0.9747771631413307 -3.192315999685168e-17 -5.573168366396676e-17 -3.192315999685168e-17 -5.573168366396676e-17 0.22317978478343808 0.97477729952224
12657404000.0 0.23037884970832678 0.973101015109388 -3.233281174175866e-17 -5.548052247291353e-17 -3.233281174175866e-17 -5.548052247291353e-17 0.23037825509461768 0.973101155882271
12658021333.333334 0.2375647339592513 0.9713717090685329 -3.274049417345239e-17 -5.52263543755418e-17 -3.274049417345239e-17 -5.52263543755418e-17 0.23756414043118806 0.9713718542252724
12658638666.666666 0.24473764065677048 0.9695893394863673 -3.314618525266852e-17 -5.4969194764651964e-17 -3.314618525266852e-17 -5.4969194764651964e-17 0.24473704824666836 0.9695894890186058
12659256000.0 0.2518971779634795 0.9677540037291961 -3.354986306011592e-17 -5.470905919433745e-17 -3.354986306011592e-17 -5.470905919433745e-17 0.2518965867035896 0.9677541576283379
12659873333.333334 0.25904295477225414 0.9658658020567419 -3.39515057976477e-17 -5.444596337905723e-17 -3.39515057976477e-17 -5.444596337905723e-17 0.25904236469476194 0.9658659603139553
12660490666.666666 0.26617458072758954 0.9639248376166808 -3.435109178943116e-17 -5.417992319269571e-17 -3.435109178943116e-17 -5.417992319269571e-17 0.2661739918646125 0.9639250002228958
12661108000.0 0.27329166624719836 0.961931216438932 -3.474859948312553e-17 -5.391095466760413e-17 -3.474859948312553e-17 -5.391095466760413e-17 0.27329107863078445 0.9619313833848419
12661725333.333334 0.2803938225429081 0.9598850474299667 -3.5144007451023616e-17 -5.363907399365248e-17 -3.5144007451023616e-17 -5.363907399365248e-17 0.2803932362050342 0.9598852187060288
12662342666.666666 0.28748066164217456 0.9577864423667888 -3.553729439120851e-17 -5.336429751725761e-17 -3.553729439120851e-17 -5.336429751725761e-17 0.2874800766147446 0.9577866179632255
12662960000.0 0.2945517964092477 0.9556355158908322 -3.59284391286941e-17 -5.3086641740409635e-17 -3.59284391286941e-17 -5.3086641740409635e-17 0.29455121272409085 0.9556356957976297
12663577333.333334 0.30160684056618353 0.9534323855017391 -3.6317420616559355e-17 -5.280612331968849e-17 -3.6317420616559355e-17 -5.280612331968849e-17 0.3016062582550525 0.9534325697086499
12664194666.666666 0.3086454087140543 0.9511771715509086 -3.6704217937075006e-17 -5.252275906527249e-17 -3.6704217937075006e-17 -5.252275906527249e-17 0.3086448278086236 0.9511773600474507
12664812000.0 0.31566711635397526 0.9488699972349315 -3.7088810302822594e-17 -5.223656593993855e-17 -3.7088810302822594e-17 -5.223656593993855e-17 0.3156665368858398 0.94887019001039
12665429333.333334 0.322671579908135 0.9465109885888497 -3.7471177057805757e-17 -5.1947561058054254e-17 -3.7471177057805757e-17 -5.1947561058054254e-17 0.3226710019088078 0.9465111856322772
12666046666.666666 0.32965841674061536 0.9441002744793182 -3.785129767855252e-17 -5.1655761684563317e-17 -3.785129767855252e-17 -5.1655761684563317e-17 0.32965784024152645 0.9441004757795355
12666664000.0 0.33662724517856263 0.9416379865974741 -3.8229151775218007e-17 -5.136118523395577e-17 -3.8229151775218007e-17 -5.136118523395577e-17 0.3366266702110568 0.9416381921430701
12667281333.333334 0.3435776845327683 0.9391242594518333 -3.860471909265793e-17 -5.106384926924729e-17 -3.860471909265793e-17 -5.106384926924729e-17 0.34357711112810385 0.939124469231166
12667898666.666666 0.3505093551185736 0.9365592303609075 -3.897797951152155e-17 -5.0763771500929465e-17 -3.897797951152155e-17 -5.0763771500929465e-17 0.35050878330792 0.9365594443621047
12668516000.0 0.35742187827671534 0.9339430394456599 -3.934891304932176e-17 -5.046096978592295e-17 -3.934891304932176e-17 -5.046096978592295e-17 0.3574213080911525 0.9339432576566213
12669133333.333334 0.364314876393747 0.9312758296219552 -3.971749986149218e-17 -5.01554621265281e-17 -3.971749986149218e-17 -5.01554621265281e-17 0.36431430786426267 0.9312760520303502
12669750666.666666 0.37118797292293154 0.9285577465926488 -4.008372024244806e-17 -4.984726666935692e-17 -4.008372024244806e-17 -4.984726666935692e-17 0.37118740608042006 0.9285579731859191
