! Parameters = {f0=12700.012000; bw=77.238000; Q=6100.000000; N=10; m_0_1=1.188083; m_1_1=-0.943499; m_1_2=1.022895; m_2_2=-0.944148; m_2_3=0.659858; m_2_8=-0.003532; m_2_9=0.033172; m_3_3=-0.946085; m_3_4=0.548387; m_3_7=-0.002932; m_3_8=-0.100020; m_3_9=-0.003532; m_4_4=-0.949010; m_4_5=0.384722; m_4_6=0.000585; m_4_7=-0.120569; m_4_8=-0.002932; m_5_5=-0.948628; m_5_6=0.792077; m_5_7=0.000585; m_6_6=-0.948629; m_6_7=0.385064; m_7_7=-0.948996; m_7_8=0.548505; m_8_8=-0.946087; m_8_9=0.660171; m_9_9=-0.944153; m_9_10=1.023973; m_10_10=-0.943509; m_10_11=1.188878}
!
! Created with skrf (http://scikit-rf.org).
# Hz S RI R 50.0 
!freq ReS11 ImS11 ReS21 ImS21 ReS12 ImS12 ReS22 ImS22
12607400000.0 0.9999456669293296 -0.010424163712463708 -7.065748763585534e-17 2.17356997289411e-17 -7.065748763585534e-17 2.17356997289411e-17 0.9999456734556365 -0.010423537652789545
12608017333.333334 0.9998284056082072 -0.01852456042110499 -7.046330107807752e-17 2.2309275357831396e-17 -7.046330107807752e-17 2.2309275357831396e-17 0.9998284172055539 -0.01852393446550116
12608634666.666666 0.9996455253718602 -0.02662374135735217 -7.026446315510799e-17 2.2881129576417034e-17 -7.026446315510799e-17 2.2881129576417034e-17 0.9996455420389881 -0.026623115546888034
12609252000.0 0.9993970382228057 -0.03472117497047144 -7.006098902536893e-17 2.345122470392459e-17 -7.006098902536893e-17 2.345122470392459e-17 0.9993970599581246 -0.03472054934620281
12609869333.333334 0.9990829604693514 -0.04281632982452041 -6.985289415221154e-17 2.4019523192296553e-17 -6.985289415221154e-17 2.4019523192296553e-17 0.999082987270939 -0.04281570442748691
12610486666.666666 0.9987033127245346 -0.05090867463297093 -6.96401943027659e-17 2.4585987628638384e-17 -6.96401943027659e-17 2.4585987628638384e-17 0.9987033445901361 -0.05090804950419321
12611104000.0 0.9982581199047537 -0.05899767829391805 -6.942290554675344e-17 2.5150580737707164e-17 -6.942290554675344e-17 2.5150580737707164e-17 0.9982581568317811 -0.058997053474395114
12611721333.333334 0.9977474112281481 -0.06708280992456729 -6.920104425530387e-17 2.571326538432077e-17 -6.920104425530387e-17 2.571326538432077e-17 0.9977474532136827 -0.06708218545527388
12612338666.666666 0.9971712202126762 -0.07516353889624697 -6.897462709973169e-17 2.6274004575813982e-17 -6.897462709973169e-17 2.6274004575813982e-17 0.9971712672534684 -0.07516291481813088
12612956000.0 0.9965295846739044 -0.08323933486940373 -6.874367105030128e-17 2.683276146446241e-17 -6.874367105030128e-17 2.683276146446241e-17 0.996529636766371 -0.08323871122338294
12613573333.333334 0.995822546722547 -0.09130966782803995 -6.850819337497813e-17 2.738949934988009e-17 -6.850819337497813e-17 2.738949934988009e-17 0.9958226038627744 -0.09130904465500014
12614190666.666666 0.9950501527616775 -0.0993740081148389 -6.826821163815022e-17 2.7944181681433603e-17 -6.826821163815022e-17 2.7944181681433603e-17 0.9950502149454229 -0.0993733854556308
12614808000.0 0.994212453483709 -0.10743182646567169 -6.80237436993338e-17 2.8496772060635595e-17 -6.80237436993338e-17 2.8496772060635595e-17 0.994212520706397 -0.10743120436110817
12615425333.333334 0.9933095038670433 -0.11548259404453065 -6.777480771186294e-17 2.9047234243519127e-17 -6.777480771186294e-17 2.9047234243519127e-17 0.9933095761237694 -0.1154819725353843
12616042666.666666 0.9923413631724781 -0.12352578247812411 -6.752142212155678e-17 2.959553214300877e-17 -6.752142212155678e-17 2.959553214300877e-17 0.9923414404580078 -0.12352516160512443
12616660000.0 0.9913080949393093 -0.13156086389061 -6.726360566536789e-17 3.0141629831280085e-17 -6.726360566536789e-17 3.0141629831280085e-17 0.9913081772480771 -0.1315602436944406
12617277333.333334 0.9902097669811685 -0.13958731093815546 -6.700137737001447e-17 3.068549154209986e-17 -6.700137737001447e-17 3.068549154209986e-17 0.9902098543072825 -0.1395866914594519
12617894666.666666 0.9890464513815775 -0.14760459684357574 -6.673475655059141e-17 3.122708167316246e-17 -6.673475655059141e-17 3.122708167316246e-17 0.989046543718815 -0.1476039781229221
12618512000.0 0.9878182244891807 -0.15561219543110233 -6.646376280915532e-17 3.176636478842515e-17 -6.646376280915532e-17 3.176636478842515e-17 0.9878183218309916 -0.15561157750902935
12619129333.333334 0.9865251669127936 -0.1636095811605518 -6.618841603331098e-17 3.2303305620394167e-17 -6.618841603331098e-17 3.2303305620394167e-17 0.9865252692522992 -0.16360896407753345
12619746666.666666 0.9851673635160605 -0.1715962291621246 -6.590873639475574e-17 3.283786907244333e-17 -6.590873639475574e-17 3.283786907244333e-17 0.9851674708460567 -0.1715956129585763
12620364000.0 0.983744903411907 -0.17957161527074145 -6.562474434781995e-17 3.337002022109228e-17 -6.562474434781995e-17 3.337002022109228e-17 0.9837450157248617 -0.17957099998701667
12620981333.333334 0.9822578799567047 -0.1875352160603597 -6.533646062798837e-17 3.3899724318274375e-17 -6.533646062798837e-17 3.3899724318274375e-17 0.9822579972447588 -0.18753460173674757
12621598666.666666 0.9807063907441127 -0.1954865088784938 -6.504390625039409e-17 3.442694679360821e-17 -6.504390625039409e-17 3.442694679360821e-17 0.9807065129990827 -0.19548589555521664
12622216000.0 0.9790905375986954 -0.20342497188040545 -6.474710250830447e-17 3.495165325663823e-17 -6.474710250830447e-17 3.495165325663823e-17 0.9790906648120723 -0.20342435959761598
12622833333.333334 0.9774104265692203 -0.21135008406343558 -6.444607097158277e-17 3.547380949907311e-17 -6.444607097158277e-17 3.547380949907311e-17 0.9774105587321696 -0.21134947286121408
12623450666.666666 0.9756661679217461 -0.21926132530097553 -6.414083348513716e-17 3.5993381497002193e-17 -6.414083348513716e-17 3.5993381497002193e-17 0.9756663050251116 -0.219260715219328
12624068000.0 0.973857876132325 -0.22715817637690977 -6.38314121673479e-17 3.6510335413106003e-17 -6.38314121673479e-17 3.6510335413106003e-17 0.9738580181666243 -0.227157567455764
12624685333.333334 0.9719856698794971 -0.23504011901960645 -6.351782940847007e-17 3.702463759886389e-17 -6.351782940847007e-17 3.702463759886389e-17 0.9719858168349279 -0.23503951129881093
12625302666.666666 0.9700496720365617 -0.24290663593571227 -6.320010786904136e-17 3.7536254596710693e-17 -6.320010786904136e-17 3.7536254596710693e-17 0.9700498239029973 -0.2429060294550322
12625920000.0 0.9680500096634369 -0.2507572108444056 -6.287827047824006e-17 3.804515314223343e-17 -6.287827047824006e-17 3.804515314223343e-17 0.9680501664304311 -0.25075660564352137
12626537333.333334 0.9659868139983749 -0.2585913285110596 -6.255234043225795e-17 3.855130016630044e-17 -6.255234043225795e-17 3.855130016630044e-17 0.96598697565516 -0.25859072462956334
12627154666.666666 0.963860220449339 -0.2664084747811126 -6.222234119263383e-17 3.905466279721448e-17 -6.222234119263383e-17 3.905466279721448e-17 0.9638603869848271 -0.2664078722585062
12627772000.0 0.961670368585058 -0.2742081366140035 -6.188829648457403e-17 3.9555208362842126e-17 -6.188829648457403e-17 3.9555208362842126e-17 0.9616705399878447 -0.2742075354896962
12628389333.333334 0.9594174021259732 -0.28198980211648783 -6.155023029526862e-17 4.005290439271213e-17 -6.155023029526862e-17 4.005290439271213e-17 0.9594175783843317 -0.28198920242979236
12629006666.666666 0.9571014689347107 -0.2897529605765323 -6.120816687216797e-17 4.05477186201321e-17 -6.120816687216797e-17 4.05477186201321e-17 0.9571016500366002 -0.2897523623666639
12629624000.0 0.9547227210064264 -0.29749710249669825 -6.086213072126725e-17 4.1039618984254475e-17 -6.086213072126725e-17 4.1039618984254475e-17 0.9547229069394882 -0.29749650580277137
12630241333.333334 0.9522813144588084 -0.3052217196276337 -6.051214660535445e-17 4.1528573632157177e-17 -6.051214660535445e-17 4.1528573632157177e-17 0.9522815052103679 -0.3052211244886593
12630858666.666666 0.9497774095218663 -0.31292630500132124 -6.015823954226189e-17 4.201455092088049e-17 -6.015823954226189e-17 4.201455092088049e-17 0.9497776050789334 -0.3129257114562042
12631476000.0 0.9472111705273535 -0.3206103529645396 -5.980043480306905e-17 4.2497519419494914e-17 -5.980043480306905e-17 4.2497519419494914e-17 0.9472113708766251 -0.32060976105207695
12632093333.333334 0.9445827658980479 -0.32827335921186196 -5.943875791033015e-17 4.2977447911096466e-17 -5.943875791033015e-17 4.2977447911096466e-17 0.9445829710259073 -0.3282727689707395
12632710666.666666 0.9418923681366763 -0.3359148208188065 -5.907323463625643e-17 4.345430539482731e-17 -5.907323463625643e-17 4.345430539482731e-17 0.9418925780291939 -0.3359142322875964
12633328000.0 0.9391401538145391 -0.3435342362750049 -5.87038910008835e-17 4.392806108787947e-17 -5.87038910008835e-17 4.392806108787947e-17 0.939140368457475 -0.3435336494921637
12633945333.333334 0.9363263035599955 -0.35113110551690146 -5.833075327024616e-17 4.439868442745115e-17 -5.833075327024616e-17 4.439868442745115e-17 0.936326522938799 -0.35113052052076704
12634562666.666666 0.9334510020466027 -0.3587049299606003 -5.795384795450832e-17 4.4866145072728064e-17 -5.795384795450832e-17 4.4866145072728064e-17 0.933451226146414 -0.3587043467893896
12635180000.0 0.9305144379809447 -0.36625521253472043 -5.757320180609627e-17 4.533041290682198e-17 -5.757320180609627e-17 4.533041290682198e-17 0.9305146667865946 -0.3662546312265267
12635797333.333334 0.9275168040902754 -0.37378145771293775 -5.718884181780831e-17 4.579145803870529e-17 -5.718884181780831e-17 4.579145803870529e-17 0.9275170375862886 -0.37378087830572837
12636414666.666666 0.924458297109904 -0.3812831715464284 -5.680079522091666e-17 4.6249250805120055e-17 -5.680079522091666e-17 4.6249250805120055e-17 0.9244585352804985 -0.38128259407804244
12637032000.0 0.9213391177702085 -0.3887598616964709 -5.640908948323951e-17 4.670376177248863e-17 -5.640908948323951e-17 4.670376177248863e-17 0.921339360599298 -0.3887592862046168
12637649333.333334 0.9181594707835489 -0.3962110374665491 -5.601375230721794e-17 4.715496173878397e-17 -5.601375230721794e-17 4.715496173878397e-17 0.918159718254741 -0.396210463988801
12638266666.666666 0.9149195648307529 -0.4036362098347385 -5.561481162795803e-17 4.760282173540812e-17 -5.561481162795803e-17 4.760282173540812e-17 0.9149198169273528 -0.4036356384085352
12638884000.0 0.9116196125474637 -0.41103489148569633 -5.5212295611272465e-17 4.804731302903605e-17 -5.5212295611272465e-17 4.804731302903605e-17 0.9116198692524764 -0.4110343221483387
12639501333.333334 0.9082598305101677 -0.4184065968426983 -5.4806232651699786e-17 4.848840712345329e-17 -5.4806232651699786e-17 4.848840712345329e-17 0.9082600918062953 -0.4184060296313459
12640118666.666666 0.9048404392220321 -0.42575084209937514 -5.4396651370518557e-17 4.892607576136559e-17 -5.4396651370518557e-17 4.892607576136559e-17 0.9048407050916784 -0.42575027705104457
12640736000.0 0.9013616630982952 -0.433067145251776 -5.398358061372324e-17 4.936029092621813e-17 -5.398358061372324e-17 4.936029092621813e-17 0.9013619335235646 -0.4330665824033383
12641353333.333334 0.8978237304517518 -0.44035502612953825 -5.356704945002834e-17 4.979102484395211e-17 -5.356704945002834e-17 4.979102484395211e-17 0.8978240054144531 -0.440354465517717
12641970666.666666 0.8942268734775666 -0.44761400642783983 -5.314708716880851e-17 5.021824998479754e-17 -5.314708716880851e-17 5.021824998479754e-17 0.8942271529592114 -0.44761344808920767
12642588000.0 0.8905713282381403 -0.4548436097385569 -5.272372327806197e-17 5.0641939065009666e-17 -5.272372327806197e-17 5.0641939065009666e-17 0.8905716122199453 -0.4548430537095338
12643205333.333334 0.8868573346475951 -0.4620433615815839 -5.229698750234416e-17 5.1062065048604755e-17 -5.229698750234416e-17 5.1062065048604755e-17 0.8868576231104837 -0.4620428078984344
12643822666.666666 0.8830851364560272 -0.4692127894359716 -5.186690978069028e-17 5.147860114907533e-17 -5.186690978069028e-17 5.147860114907533e-17 0.8830854293806316 -0.46921223813480384
12644440000.0 0.8792549812334998 -0.4763514227709674 -5.143352026452374e-17 5.1891520831090325e-17 -5.143352026452374e-17 5.1891520831090325e-17 0.8792552786001596 -0.4763508738877284
12645057333.333334 0.8753671203538288 -0.4834587930768163 -5.099684931555585e-17 5.2300797812170754e-17 -5.099684931555585e-17 5.2300797812170754e-17 0.8753674221425956 -0.4834582466472917
12645674666.666666 0.8714218089780662 -0.49053443389556417 -5.055692750366754e-17 5.2706406064354785e-17 -5.055692750366754e-17 5.2706406064354785e-17 0.871422115168702 -0.4905338899553747
12646292000.0 0.8674193060377057 -0.49757788085174276 -5.0113785604767836e-17 5.310831981585256e-17 -5.0113785604767836e-17 5.310831981585256e-17 0.8674196166096871 -0.49757733943634286
12646909333.333334 0.8633598742177909 -0.5045886716826751 -4.966745459867029e-17 5.350651355265549e-17 -4.966745459867029e-17 5.350651355265549e-17 0.8633601891503082 -0.5045881328273496
12647526666.666666 0.8592437799395883 -0.5115663462689611 -4.9217965666919925e-17 5.3900962020161454e-17 -4.9217965666919925e-17 5.3900962020161454e-17 0.8592440992115473 -0.5115658100088234
12648144000.0 0.8550712933430875 -0.5185104466646993 -4.876535019063174e-17 5.4291640224759103e-17 -4.876535019063174e-17 5.4291640224759103e-17 0.8550716169331115 -0.518509913034689
12648761333.333334 0.850842688269387 -0.5254205171273465 -4.830963974830624e-17 5.4678523435404344e-17 -4.830963974830624e-17 5.4678523435404344e-17 0.8508430161558188 -0.5254199861622277
12649378666.666666 0.8465582422426392 -0.5322961041477764 -4.7850866113641826e-17 5.5061587185170135e-17 -4.7850866113641826e-17 5.5061587185170135e-17 0.8465585744035398 -0.5322955758821338
12649996000.0 0.8422182364518134 -0.5391367564800643 -4.738906125331909e-17 5.544080727279143e-17 -4.738906125331909e-17 5.544080727279143e-17 0.8422185728649683 -0.5391362309483037
12650613333.333334 0.8378229557322789 -0.5459420251710565 -4.6924257324787575e-17 5.581615976417991e-17 -4.6924257324787575e-17 5.581615976417991e-17 0.8378232963751949 -0.5459415024074
12651230666.666666 0.8333726885471517 -0.552711463589763 -4.645648667404019e-17 5.618762099391982e-17 -4.645648667404019e-17 5.618762099391982e-17 0.8333730333970606 -0.5527109436282475
12651848000.0 0.8288677269682752 -0.5594446274568132 -4.598578183336204e-17 5.65551675667576e-17 -4.598578183336204e-17 5.65551675667576e-17 0.8288680760021341 -0.5594441103312886
12652465333.333334 0.8243083666570895 -0.5661410748735399 -4.5512175519081435e-17 5.691877635906051e-17 -4.5512175519081435e-17 5.691877635906051e-17 0.8243087198515856 -0.5661405606176675
12653082666.666666 0.8196949068453029 -0.5728003663508929 -4.503570062931184e-17 5.727842452025576e-17 -4.503570062931184e-17 5.727842452025576e-17 0.8196952641768495 -0.572799854998141
12653700000.0 0.815027650315065 -0.5794220648385346 -4.4556390241657277e-17 5.763408947426943e-17 -4.4556390241657277e-17 5.763408947426943e-17 0.8150280117598084 -0.5794215564221785
12654317333.333334 0.8103069033793123 -0.5860057357532235 -4.407427761094657e-17 5.798574892091636e-17 -4.407427761094657e-17 5.798574892091636e-17 0.8103072689131308 -0.5860052303063423
12654934666.666666 0.8055329758615669 -0.5925509470074749 -4.3589396166925065e-17 5.833338083729495e-17 -4.3589396166925065e-17 5.833338083729495e-17 0.8055333454600723 -0.5925504445629504
12655552000.0 0.8007061810754995 -0.5990572690380573 -4.3101779511935314e-17 5.867696347916239e-17 -4.3101779511935314e-17 5.867696347916239e-17 0.8007065547140402 -0.5990567696285706
12656169333.333334 0.7958268358045878 -0.6055242748338866 -4.261146141861915e-17 5.901647538226771e-17 -4.261146141861915e-17 5.901647538226771e-17 0.7958272134582483 -0.6055237784919157
12656786666.666666 0.7908952602811377 -0.6119515399643004 -4.211847582756875e-17 5.935189536369469e-17 -4.211847582756875e-17 5.935189536369469e-17 0.7908956419247417 -0.6119510467221194
12657404000.0 0.7859117781653344 -0.6183386426068241 -4.16228568449927e-17 5.968320252316714e-17 -4.16228568449927e-17 5.968320252316714e-17 0.7859121637734469 -0.6183381524965007
12658021333.333334 0.7808767165240361 -0.6246851635748091 -4.112463874036843e-17 6.001037624433714e-17 -4.112463874036843e-17 6.001037624433714e-17 0.7808771060709645 -0.6246846766282026
12658638666.666666 0.7757904058092946 -0.6309906863449697 -4.0623855944079855e-17 6.033339619605783e-17 -4.0623855944079855e-17 6.033339619605783e-17 0.7757907992690893 -0.6309902025937281
12659256000.0 0.7706531798365556 -0.6372547970848497 -4.012054304503604e-17 6.065224233364149e-17 -4.012054304503604e-17 6.065224233364149e-17 0.7706535771830126 -0.6372543165604078
12659873333.333334 0.7654653757628935 -0.6434770846798036 -3.961473478830459e-17 6.096689490008232e-17 -3.961473478830459e-17 6.096689490008232e-17 0.7654657769695582 -0.6434766074133826
12660490666.666666 0.7602273340648713 -0.6496571407600057 -3.9106466072720094e-17 6.12773344272701e-17 -3.9106466072720094e-17 6.12773344272701e-17 0.760227739105037 -0.6496566667826095
12661108000.0 0.7549393985160807 -0.6557945597273785 -3.859577194847395e-17 6.15835417371886e-17 -3.859577194847395e-17 6.15835417371886e-17 0.7549398073627915 -0.6557940890697918
12661725333.333334 0.7496019161647285 -0.6618889387820395 -3.808268761472015e-17 6.188549794307967e-17 -3.808268761472015e-17 6.188549794307967e-17 0.7496023287907825 -0.6618884714748264
12662342666.666666 0.7442152373107326 -0.6679398779488891 -3.756724841714516e-17 6.21831844506031e-17 -3.756724841714516e-17 6.21831844506031e-17 0.7442156536886814 -0.6679394140223909
12662960000.0 0.7387797154827835 -0.6739469801037951 -3.704948984554851e-17 6.247658295896462e-17 -3.704948984554851e-17 6.247658295896462e-17 0.7387801355849353 -0.6739465195881277
12663577333.333334 0.7332957074152004 -0.6799098509995917 -3.652944753140573e-17 6.276567546202921e-17 -3.652944753140573e-17 6.276567546202921e-17 0.733296131213623 -0.6799093939246459
12664194666.666666 0.7277635730244079 -0.6858280992920849 -3.600715724542297e-17 6.305044424941443e-17 -3.600715724542297e-17 6.305044424941443e-17 0.7277640004909276 -0.685827645687521
12664812000.0 0.7221836753853855 -0.6917013365656473 -3.548265489509182e-17 6.333087190755777e-17 -3.548265489509182e-17 6.333087190755777e-17 0.7221841064915914 -0.6917008864608954
12665429333.333334 0.7165563807078037 -0.6975291773587534 -3.495597652221659e-17 6.360694132077571e-17 -3.495597652221659e-17 6.360694132077571e-17 0.7165568154250487 -0.6975287307830116
12666046666.666666 0.7108820583120681 -0.7033112391891974 -3.442715830046213e-17 6.387863567228579e-17 -3.442715830046213e-17 6.387863567228579e-17 0.7108824966114706 -0.7033107961714286
12666664000.0 0.7051610806049406 -0.7090471425793347 -3.389623653285558e-17 6.414593844522865e-17 -3.389623653285558e-17 6.414593844522865e-17 0.7051615224573877 -0.7090467031482665
12667281333.333334 0.6993938230552599 -0.7147365110808284 -3.336324764932819e-17 6.440883342364537e-17 -3.336324764932819e-17 6.440883342364537e-17 0.6993942684314074 -0.7147360752649493
12667898666.666666 0.693580664169178 -0.720378971299475 -3.2828228204203595e-17 6.466730469345727e-17 -3.2828228204203595e-17 6.466730469345727e-17 0.6935811130394535 -0.7203785391270336
12668516000.0 0.687721985465276 -0.7259741529197482 -3.229121487370617e-17 6.492133664341118e-17 -3.229121487370617e-17 6.492133664341118e-17 0.687722437799882 -0.7259737244187524
12669133333.333334 0.6818181714497945 -0.7315216887288487 -3.175224445346076e-17 6.517091396600534e-17 -3.175224445346076e-17 6.517091396600534e-17 0.681818627218707 -0.7315212639270614
12669750666.666666 0.6758696095910658 -0.7370212146411174 -3.121135385596822e-17 6.541602165840229e-17 -3.121135385596822e-17 6.541602165840229e-17 0.6758700687640399 -0.7370207935660564
12670368000.0 0.6698766902942522 -0.7424723697217728 -3.066858010809123e-17 6.56566450233132e-17 -3.066858010809123e-17 6.56566450233132e-17 0.6698771528408218 -0.7424719524007093
