! Parameters = {f0=12700.012000; bw=77.238000; Q=6100.000000; N=10; m_0_1=1.184079; m_1_1=-1.003560; m_1_2=1.018891; m_2_2=-1.004209; m_2_3=0.655854; m_2_8=-0.003732; m_2_9=0.032972; m_3_3=-1.006146; m_3_4=0.544383; m_3_7=-0.003132; m_3_8=-0.100220; m_3_9=-0.003732; m_4_4=-1.009071; m_4_5=0.380718; m_4_6=0.000385; m_4_7=-0.120769; m_4_8=-0.003132; m_5_5=-1.008689; m_5_6=0.788073; m_5_7=0.000385; m_6_6=-1.008690; m_6_7=0.381060; m_7_7=-1.009057; m_7_8=0.544501; m_8_8=-1.006148; m_8_9=0.656167; m_9_9=-1.004214; m_9_10=1.019969; m_10_10=-1.003570; m_10_11=1.184874}
!
! Created with skrf (http://scikit-rf.org).
# Hz S RI R 50.0 
!freq ReS11 ImS11 ReS21 ImS21 ReS12 ImS12 ReS22 ImS22
12607400000.0 -0.7431367082985203 0.6691396212892253 3.7835555577522395e-17 -6.174782109539324e-17 3.7835555577522395e-17 -6.174782109539324e-17 -0.743137125835195 0.6691391575787897
12608017333.333334 -0.7377714125503287 0.6750506224153408 3.7328612494525057e-17 -6.203904510553678e-17 3.7328612494525057e-17 -6.203904510553678e-17 -0.7377718337547857 0.675050162075343
12608634666.666666 -0.7323591013371046 0.6809186050392186 3.681943541828939e-17 -6.23261121965935e-17 3.681943541828939e-17 -6.23261121965935e-17 -0.7323595261821435 0.6809181480986627
12609252000.0 -0.7269001195656308 0.6867431952158818 3.630805839530693e-17 -6.260900529540769e-17 3.630805839530693e-17 -6.260900529540769e-17 -0.726900548023823 0.6867427417035522
12609869333.333334 -0.7213948151168152 0.6925240217656154 3.57945156020025e-17 -6.288770760735904e-17 3.57945156020025e-17 -6.288770760735904e-17 -0.721395247160504 0.6925235717100762
12610486666.666666 -0.7158435388236182 0.6982607162975195 3.527884134247772e-17 -6.316220261733567e-17 3.527884134247772e-17 -6.316220261733567e-17 -0.7158439744249218 0.6982602697271114
12611104000.0 -0.7102466444484984 0.7039529132331893 3.476107004620074e-17 -6.343247409071519e-17 3.476107004620074e-17 -6.343247409071519e-17 -0.71024708357931 0.7039524701760276
12611721333.333334 -0.7046044886610663 0.7096002498298069 3.4241236265742295e-17 -6.36985060742968e-17 3.4241236265742295e-17 -6.36985060742968e-17 -0.7046049312930569 0.7095998103137799
12612338666.666666 -0.6989174310152745 0.715202366203339 3.3719374674461705e-17 -6.39602828972387e-17 3.3719374674461705e-17 -6.39602828972387e-17 -0.6989178771198964 0.7152019302561085
12612956000.0 -0.6931858339264274 0.7207589053515542 3.319552006419475e-17 -6.421778917197165e-17 3.319552006419475e-17 -6.421778917197165e-17 -0.6931862834749127 0.7207584730005498
12613573333.333334 -0.6874100626482833 0.7262695131765686 3.266970734296922e-17 -6.447100979507537e-17 3.266970734296922e-17 -6.447100979507537e-17 -0.6874105156116487 0.7262690844489897
12614190666.666666 -0.6815904852495795 0.731733838507615 3.214197153266113e-17 -6.471992994816413e-17 3.214197153266113e-17 -6.471992994816413e-17 -0.6815909415986263 0.731733413430427
12614808000.0 -0.6757274725906977 0.7371515331233016 3.1612347766681e-17 -6.496453509873436e-17 3.1612347766681e-17 -6.496453509873436e-17 -0.6757279322960141 0.7371511117232338
12615425333.333334 -0.6698213982999252 0.742522251773898 3.108087128764245e-17 -6.52048110009986e-17 3.108087128764245e-17 -6.52048110009986e-17 -0.6698218613318886 0.7425218340774431
12616042666.666666 -0.6638726387497711 0.7478456522032222 3.054757744501768e-17 -6.544074369670463e-17 3.054757744501768e-17 -6.544074369670463e-17 -0.6638731050785504 0.7478452382366353
12616660000.0 -0.6578815730328987 0.7531213951705296 3.001250169280504e-17 -6.567231951592626e-17 3.001250169280504e-17 -6.567231951592626e-17 -0.6578820426284556 0.7531209849598252
12617277333.333334 -0.6518485829379669 0.7583491444721301 2.9475679587170484e-17 -6.589952507784474e-17 2.9475679587170484e-17 -6.589952507784474e-17 -0.6518490557700569 0.7583487380430798
12617894666.666666 -0.645774052925405 0.7635285669627188 2.89371467841039e-17 -6.612234729150209e-17 2.89371467841039e-17 -6.612234729150209e-17 -0.6457745289635812 0.7635281643408518
12618512000.0 -0.6396583701027012 0.7686593325767943 2.83969390370396e-17 -6.634077335654783e-17 2.83969390370396e-17 -6.634077335654783e-17 -0.6396588493163151 0.7686589337873941
12619129333.333334 -0.6335019241999452 0.7737411143495048 2.785509219450921e-17 -6.655479076395077e-17 2.785509219450921e-17 -6.655479076395077e-17 -0.6335024065581494 0.7737407194176092
12619746666.666666 -0.6273051075449098 0.778773588437561 2.731164219776279e-17 -6.676438729670233e-17 2.731164219776279e-17 -6.676438729670233e-17 -0.6273055930166588 0.7787731973879587
12620364000.0 -0.6210683150379579 0.7837564341399431 2.6766625078384932e-17 -6.696955103050112e-17 2.6766625078384932e-17 -6.696955103050112e-17 -0.621068803592011 0.7837560469971725
12620981333.333334 -0.6147919441270991 0.788689333918159 2.6220076955934305e-17 -6.71702703344061e-17 2.6220076955934305e-17 -6.71702703344061e-17 -0.6147924357320228 0.788688950706508
12621598666.666666 -0.6084763947824632 0.7935719734166423 2.5672034035530944e-17 -6.736653387148984e-17 2.5672034035530944e-17 -6.736653387148984e-17 -0.6084768894066322 0.793571594160146
12622216000.0 -0.602122069470831 0.7984040414827637 2.5122532605486285e-17 -6.75583305994529e-17 2.5122532605486285e-17 -6.75583305994529e-17 -0.6021225670824314 0.798403666205203
12622833333.333334 -0.5957293731300797 0.8031852301865929 2.45716090348967e-17 -6.774564977123258e-17 2.45716090348967e-17 -6.774564977123258e-17 -0.595729873697109 0.8031848589114915
12623450666.666666 -0.5892987131433737 0.8079152348405187 2.4019299771253396e-17 -6.792848093558306e-17 2.4019299771253396e-17 -6.792848093558306e-17 -0.5892992166336458 0.8079148675911448
12624068000.0 -0.5828304993131185 0.8125937540187396 2.346564133803105e-17 -6.810681393764316e-17 2.346564133803105e-17 -6.810681393764316e-17 -0.5828310056942633 0.8125933908181016
12624685333.333334 -0.5763251438348392 0.8172204895764656 2.2910670332270295e-17 -6.828063891948454e-17 2.2910670332270295e-17 -6.828063891948454e-17 -0.5763256530743058 0.8172201304473117
12625302666.666666 -0.5697830612710549 0.8217951466688223 2.235442342219733e-17 -6.844994632062731e-17 2.235442342219733e-17 -6.844994632062731e-17 -0.5697835733361133 0.8217947916336392
12625920000.0 -0.5632046685246505 0.8263174337697872 2.179693734477158e-17 -6.861472687855789e-17 2.179693734477158e-17 -6.861472687855789e-17 -0.5632051833823932 0.8263170828507977
12626537333.333334 -0.5565903848125388 0.8307870626906012 2.123824890329814e-17 -6.877497162920566e-17 2.123824890329814e-17 -6.877497162920566e-17 -0.556590902429885 0.8307867159097654
12627154666.666666 -0.5499406316388362 0.8352037485982235 2.0678394964986184e-17 -6.893067190741632e-17 2.0678394964986184e-17 -6.893067190741632e-17 -0.5499411519825318 0.8352034059772346
12627772000.0 -0.5432558327678768 0.8395672100335548 2.0117412458523368e-17 -6.908181934739846e-17 2.0117412458523368e-17 -6.908181934739846e-17 -0.5432563558044968 0.8395668715938385
12628389333.333334 -0.5365364141974471 0.8438771689292183 1.9555338371667205e-17 -6.922840588314584e-17 1.9555338371667205e-17 -6.922840588314584e-17 -0.5365369398933987 0.843876834691932
12629006666.666666 -0.5297828041314238 0.84813335062742 1.899220974878615e-17 -6.93704237488531e-17 1.899220974878615e-17 -6.93704237488531e-17 -0.5297833324529475 0.8481330206134511
12629624000.0 -0.5229954329526517 0.8523354838973414 1.842806368844714e-17 -6.950786547929767e-17 1.842806368844714e-17 -6.950786547929767e-17 -0.5229959638658255 0.8523351581273079
12630241333.333334 -0.5161747331954021 0.8564833009525068 1.7862937340969228e-17 -6.964072391021133e-17 1.7862937340969228e-17 -6.964072391021133e-17 -0.5161752666661404 0.8564829794467523
12630858666.666666 -0.509321139517948 0.8605765374677525 1.729686790598843e-17 -6.97689921786278e-17 1.729686790598843e-17 -6.97689921786278e-17 -0.5093216755120066 0.8605762202463472
12631476000.0 -0.5024350886746262 0.8646149325962211 1.6729892630006398e-17 -6.989266372321387e-17 1.6729892630006398e-17 -6.989266372321387e-17 -0.5024356271576028 0.8646146196789605
12632093333.333334 -0.49551701948822097 0.8685982289858518 1.6162048803967073e-17 -7.001173228457442e-17 1.6162048803967073e-17 -7.001173228457442e-17 -0.4955175604255584 0.8685979203922549
12632710666.666666 -0.48856737282200213 0.8725261727957822 1.5593373760793316e-17 -7.012619190554587e-17 1.5593373760793316e-17 -7.012619190554587e-17 -0.48856791617899037 0.8725258685450914
12633328000.0 -0.4815865915514074 0.8763985137126517 1.5023904872941796e-17 -7.023603693146513e-17 1.5023904872941796e-17 -7.023603693146513e-17 -0.48158713729318575 0.8763982138238309
12633945333.333334 -0.47457512053606743 0.8802150049664131 1.4453679549964248e-17 -7.03412620104177e-17 1.4453679549964248e-17 -7.03412620104177e-17 -0.47457566862762646 0.8802147094581458
12634562666.666666 -0.4675334065913329 0.8839754033461288 1.388273523604931e-17 -7.044186209346925e-17 1.388273523604931e-17 -7.044186209346925e-17 -0.46753395699751615 0.8839751122368164
12635180000.0 -0.4604618984598477 0.8876794692154372 1.3311109407572979e-17 -7.053783243487548e-17 1.3311109407572979e-17 -7.053783243487548e-17 -0.46046245114535567 0.887679182523201
12635797333.333334 -0.45336104678283057 0.8913269665278971 1.2738839570646038e-17 -7.062916859227263e-17 1.2738839570646038e-17 -7.062916859227263e-17 -0.45336160171222145 0.8913266842705744
12636414666.666666 -0.44623130407160677 0.8949176628418957 1.21659632586605e-17 -7.071586642684841e-17 1.21659632586605e-17 -7.071586642684841e-17 -0.4462318612092994 0.8949173850370389
12637032000.0 -0.43907312467851933 0.8984513293355896 1.1592518029835055e-17 -7.079792210349217e-17 1.1592518029835055e-17 -7.079792210349217e-17 -0.43907368398879554 0.8984510560004669
12637649333.333334 -0.43188696476810234 0.9019277408214277 1.1018541464760119e-17 -7.08753320909265e-17 1.1018541464760119e-17 -7.08753320909265e-17 -0.43188752621510823 0.901927471973019
12638266666.666666 -0.42467328228798307 0.905346675760506 1.0444071163944233e-17 -7.094809316181776e-17 1.0444071163944233e-17 -7.094809316181776e-17 -0.4246738458357333 0.9053464114155063
12638884000.0 -0.41743253693972815 0.9087079162766821 9.869144745350073e-18 -7.101620239286868e-17 9.869144745350073e-18 -7.101620239286868e-17 -0.4174331025521063 0.9087076564514959
12639501333.333334 -0.41016519014941716 0.9120112481705146 9.293799841948486e-18 -7.107965716488845e-17 9.293799841948486e-18 -7.107965716488845e-17 -0.41016575779017866 0.912010992881257
12640118666.666666 -0.40287170503854763 0.9152564609327711 8.718074099266428e-18 -7.113845516284399e-17 8.718074099266428e-18 -7.113845516284399e-17 -0.4028722746713224 0.9152562101952666
12640736000.0 -0.3955525463940044 0.9184433477580775 8.142005172900634e-18 -7.11925943758952e-17 8.142005172900634e-18 -7.11925943758952e-17 -0.3955531179822994 0.9184431015878599
12641353333.333334 -0.38820818063909124 0.9215717055578115 7.56563072611264e-18 -7.124207309740183e-17 7.56563072611264e-18 -7.124207309740183e-17 -0.38820875414629163 0.9215714639701208
12641970666.666666 -0.38083907580328397 0.9246413349732681 6.98898842732287e-18 -7.128688992492051e-17 6.98898842732287e-18 -7.128688992492051e-17 -0.3808396511926565 0.9246410979830513
12642588000.0 -0.3734457014925631 0.9276520403882987 6.412115947688543e-18 -7.132704376017438e-17 6.412115947688543e-18 -7.132704376017438e-17 -0.3734462787272585 0.927651808010209
12643205333.333334 -0.3660285288596181 0.9306036299417229 5.835050958639748e-18 -7.136253380900667e-17 5.835050958639748e-18 -7.136253380900667e-17 -0.36602910790267273 0.9306034021901171
12643822666.666666 -0.3585880305736116 0.933495915539637 5.257831129420457e-18 -7.139335958131373e-17 5.257831129420457e-18 -7.139335958131373e-17 -0.3585886113879506 0.9334956924285772
12644440000.0 -0.35112468079021714 0.9363287128673425 4.680494124649009e-18 -7.14195208909576e-17 4.680494124649009e-18 -7.14195208909576e-17 -0.35112526333865585 0.9363284944105922
12645057333.333334 -0.34363895512140263 0.93910184140109 4.103077601857453e-18 -7.144101785566007e-17 4.103077601857453e-18 -7.144101785566007e-17 -0.3436395393666499 0.9391016276121152
12645674666.666666 -0.33613133060501516 0.9418151244196225 3.525619209054658e-18 -7.145785089687549e-17 3.525619209054658e-18 -7.145785089687549e-17 -0.33613191650967544 0.9418149153115913
12646292000.0 -0.3286022856743545 0.9444683890154488 2.9481565822564655e-18 -7.147002073964574e-17 2.9481565822564655e-18 -7.147002073964574e-17 -0.32860287320092985 0.9444681846012287
12646909333.333334 -0.32105230012792446 0.9470614661057736 2.370727343070427e-18 -7.147752841243337e-17 2.370727343070427e-18 -7.147752841243337e-17 -0.3210528892388175 0.947061266397932
12647526666.666666 -0.3134818550986163 0.9495941904433584 1.7933690962234757e-18 -7.148037524693703e-17 1.7933690962234757e-18 -7.148037524693703e-17 -0.31348244575613254 0.949593995454163
12648144000.0 -0.3058914330230753 0.9520664006270454 1.2161194271343458e-18 -7.147856287788576e-17 1.2161194271343458e-18 -7.147856287788576e-17 -0.3058920251894247 0.9520662103684596
12648761333.333334 -0.29828151761108945 0.9544779391119909 6.390158994739703e-19 -7.147209324281441e-17 6.390158994739703e-19 -7.147209324281441e-17 -0.29828211124839016 0.954477753595677
12649378666.666666 -0.2906525938146589 0.9568286522197473 6.209605273027612e-20 -7.146096858181921e-17 6.209605273027612e-20 -7.146096858181921e-17 -0.2906531888849389 0.9568284714570647
12649996000.0 -0.28300514779711744 0.9591183901480461 -5.146026002346497e-19 -7.144519143729382e-17 -5.146026002346497e-19 -7.144519143729382e-17 -0.283005744262317 0.9591182141500489
12650613333.333334 -0.27533966690212375 0.9613470069803487 -1.0910425756186098e-18 -7.142476465364563e-17 -1.0910425756186098e-18 -7.142476465364563e-17 -0.27534026472409817 0.9613468357577875
12651230666.666666 -0.2676566396227423 0.9635143606951111 -1.6671864210881786e-18 -7.139969137699304e-17 -1.6671864210881786e-18 -7.139969137699304e-17 -0.26765723876326386 0.9635141942584303
12651848000.0 -0.25995655557003905 0.9656203131749089 -2.242996718233311e-18 -7.136997505484215e-17 -2.242996718233311e-18 -7.136997505484215e-17 -0.2599571559907998 0.9656201515342469
12652465333.333334 -0.2522399054421542 0.9676647302151608 -2.818436084970064e-18 -7.1335619435745e-17 -2.818436084970064e-18 -7.1335619435745e-17 -0.25224050710476875 0.9676645733803507
12653082666.666666 -0.24450718099292318 0.9696474815327172 -3.3934671779583235e-18 -7.12966285689387e-17 -3.3934671779583235e-18 -7.12966285689387e-17 -0.24450778385893027 0.9696473295132835
12653700000.0 -0.23675887500042758 0.971568440774184 -3.968052695046403e-18 -7.125300680396235e-17 -3.968052695046403e-18 -7.125300680396235e-17 -0.23675947903129316 0.9715682935793439
12654317333.333334 -0.22899548123586821 0.9734274855239093 -4.542155377643174e-18 -7.120475879025922e-17 -4.542155377643174e-18 -7.120475879025922e-17 -0.2289960863929878 0.9734273431625713
12654934666.666666 -0.2212174944318511 0.9752244973118449 -5.115738013155268e-18 -7.11518894767553e-17 -5.115738013155268e-18 -7.11518894767553e-17 -0.22121810067655234 0.9752243597926098
12655552000.0 -0.21342541025088718 0.9769593616210901 -5.6887634373899575e-18 -7.109440411141998e-17 -5.6887634373899575e-18 -7.109440411141998e-17 -0.21342601754443202 0.9769592289522482
12656169333.333334 -0.2056197252539433 0.9786319678951529 -6.2611945369357755e-18 -7.10323082408094e-17 -6.2611945369357755e-18 -7.10323082408094e-17 -0.2056203335575308 0.9786318400846853
12656786666.666666 -0.1978009368686887 0.980242209545027 -6.8329942515874076e-18 -7.096560770958659e-17 -6.8329942515874076e-18 -7.096560770958659e-17 -0.19780154614345705 0.9802420866006037
12657404000.0 -0.18996954335782218 0.9817899839559727 -7.404125576715629e-18 -7.089430866002613e-17 -7.404125576715629e-18 -7.089430866002613e-17 -0.1899701535648517 0.9817898658849531
12658021333.333334 -0.18212604378729239 0.9832751924940631 -7.974551565667092e-18 -7.08184175314974e-17 -7.974551565667092e-18 -7.08184175314974e-17 -0.18212665488760799 0.9832750793034967
12658638666.666666 -0.1742709379946344 0.9846977405124475 -8.544235332135148e-18 -7.07379410599304e-17 -8.544235332135148e-18 -7.07379410599304e-17 -0.17427154994920735 0.9846976322090697
12659256000.0 -0.16640472655686395 0.9860575373574217 -9.113140052556055e-18 -7.065288627725953e-17 -9.113140052556055e-18 -7.065288627725953e-17 -0.16640533932661553 0.9860574339476588
12659873333.333334 -0.15852791075871864 0.9873544963741864 -9.68122896847195e-18 -7.056326051085123e-17 -9.68122896847195e-18 -7.056326051085123e-17 -0.1585285243045215 0.9873543978641498
12660490666.666666 -0.1506409925608803 0.9885885349123372 -1.024846538888675e-17 -7.046907138291357e-17 -1.024846538888675e-17 -7.046907138291357e-17 -0.15064160684356157 0.988588441307826
12661108000.0 -0.14274447456759418 0.9897595743311958 -1.081481269265677e-17 -7.037032680988067e-17 -1.081481269265677e-17 -7.037032680988067e-17 -0.14274508954793808 0.9897594856376971
12661725333.333334 -0.13483885999506148 0.9908675400047574 -1.1380234330815835e-17 -7.026703500178748e-17 -1.1380234330815835e-17 -7.026703500178748e-17 -0.13483947563381138 0.9908674562274442
12662342666.666666 -0.12692465263906194 0.9919123613264942 -1.1944693828956763e-17 -7.015920446161605e-17 -1.1944693828956763e-17 -7.015920446161605e-17 -0.12692526889692313 0.9919122824702247
12662960000.0 -0.11900235684301734 0.9928939717138254 -1.2508154789555126e-17 -7.004684398463099e-17 -1.2508154789555126e-17 -7.004684398463099e-17 -0.11900297368065961 0.9928938977831462
12663577333.333334 -0.11107247746571078 0.9938123086123843 -1.3070580894319023e-17 -6.992996265769124e-17 -1.3070580894319023e-17 -6.992996265769124e-17 -0.11107309484377055 0.9938122396115247
12664194666.666666 -0.10313551984928304 0.9946673134999792 -1.3631935906520822e-17 -6.980856985854496e-17 -1.3631935906520822e-17 -6.980856985854496e-17 -0.10313613772836641 0.9946672494328563
12664812000.0 -0.09519198978691629 0.9954589318903396 -1.4192183673322757e-17 -6.968267525510615e-17 -1.4192183673322757e-17 -6.968267525510615e-17 -0.09519260812760105 0.9954588727605543
12665429333.333334 -0.08724239349060137 0.996187113336585 -1.47512881281079e-17 -6.955228880470967e-17 -1.47512881281079e-17 -6.955228880470967e-17 -0.08724301225343994 0.9961870591474247
12666046666.666666 -0.07928723755902073 0.9968518114344314 -1.5309213292773122e-17 -6.94174207533549e-17 -1.5309213292773122e-17 -6.94174207533549e-17 -0.07928785670454233 0.9968517621888663
12666664000.0 -0.0713270289449812 0.9974529838251673 -1.5865923280066592e-17 -6.927808163491929e-17 -1.5865923280066592e-17 -6.927808163491929e-17 -0.07132764843369462 0.997452939525854
12667281333.333334 -0.06336227492339122 0.997990592198334 -1.642138229585752e-17 -6.913428227036788e-17 -1.642138229585752e-17 -6.913428227036788e-17 -0.06336289471578714 0.9979905528476133
12667898666.666666 -0.05539348305882059 0.998464602294173 -1.6975554641457794e-17 -6.898603376692984e-17 -1.6975554641457794e-17 -6.898603376692984e-17 -0.055394103115374224 0.9984645678940698
12668516000.0 -0.04742116117304184 0.9988749839058179 -1.7528404715897303e-17 -6.883334751726665e-17 -1.7528404715897303e-17 -6.883334751726665e-17 -0.04742178145421552 0.9988749544580425
12669133333.333334 -0.03944581731295251 0.9992217108812043 -1.807989701819405e-17 -6.867623519862179e-17 -1.807989701819405e-17 -6.867623519862179e-17 -0.039446437779197985 0.99922168638715
12669750666.666666 -0.031467959717943514 0.9995047611247467 -1.862999614964414e-17 -6.851470877194464e-17 -1.862999614964414e-17 -6.851470877194464e-17 -0.03146858032970464 0.9995047415854922
12670368000.0 -0.02348809678751098 0.9997241165987492 -1.917866681607693e-17 -6.834878048100377e-17 -1.917866681607693e-17 -6.834878048100377e-17 -0.02348871750522616 0.9997241020150547
