! Parameters = {f0=12700.012000; bw=77.238000; Q=6100.000000; N=10; m_0_1=1.244339; m_1_1=-0.099656; m_1_2=1.079151; m_2_2=-0.100305; m_2_3=0.716114; m_2_8=-0.000719; m_2_9=0.035985; m_3_3=-0.102242; m_3_4=0.604643; m_3_7=-0.000119; m_3_8=-0.097207; m_3_9=-0.000719; m_4_4=-0.105167; m_4_5=0.440978; m_4_6=0.003398; m_4_7=-0.117756; m_4_8=-0.000119; m_5_5=-0.104785; m_5_6=0.848333; m_5_7=0.003398; m_6_6=-0.104786; m_6_7=0.441320; m_7_7=-0.105153; m_7_8=0.604761; m_8_8=-0.102244; m_8_9=0.716427; m_9_9=-0.100310; m_9_10=1.080229; m_10_10=-0.099666; m_10_11=1.245134}
!
! Created with skrf (http://scikit-rf.org).
# Hz S RI R 50.0 
!freq ReS11 ImS11 ReS21 ImS21 ReS12 ImS12 ReS22 ImS22
12607400000.0 -0.846928073396291 -0.531707474550694 9.423177556223769e-17 2.6344009985049178e-17 9.423177556223769e-17 2.6344009985049178e-17 -0.8469277247884995 -0.5317080298287828
12608017333.333334 -0.8520793951859081 -0.5234125564976897 9.446826121422806e-17 2.5409299747684866e-17 9.446826121422806e-17 2.5409299747684866e-17 -0.8520790520333819 -0.5234131151258283
12608634666.666666 -0.8571494782065976 -0.5150677353610759 9.469548220017681e-17 2.447248855654052e-17 9.469548220017681e-17 2.447248855654052e-17 -0.8571491405415177 -0.5150682972856782
12609252000.0 -0.8621378390676442 -0.5066738067510527 9.491342009184092e-17 2.3533668172756924e-17 9.491342009184092e-17 2.3533668172756924e-17 -0.8621375069216651 -0.5066743719182235
12609869333.333334 -0.867044002169941 -0.4982315709596914 9.512205736914538e-17 2.259293051653921e-17 9.512205736914538e-17 2.259293051653921e-17 -0.8670436755741879 -0.49823213931523175
12610486666.666666 -0.8718674997511626 -0.48974183288492645 9.532137742152719e-17 2.165036765818085e-17 9.532137742152719e-17 2.165036765818085e-17 -0.8718671787362291 -0.4897424043743389
12611104000.0 -0.8766078719305616 -0.4812054019534716 9.551136454919857e-17 2.0706071809032752e-17 9.551136454919857e-17 2.0706071809032752e-17 -0.8766075565265062 -0.4812059765219655
12611721333.333334 -0.8812646667526594 -0.4726230920439188 9.569200396430195e-17 1.9760135312557556e-17 9.569200396430195e-17 1.9760135312557556e-17 -0.881264356989002 -0.47262366963641456
12612338666.666666 -0.8858374402303785 -0.4639957214090673 9.586328179199786e-17 1.8812650635268505e-17 9.586328179199786e-17 1.8812650635268505e-17 -0.8858371361360995 -0.46399630197020325
12612956000.0 -0.8903257563874802 -0.4553241125977099 9.602518507144905e-17 1.7863710357730575e-17 9.602518507144905e-17 1.7863710357730575e-17 -0.8903254579910156 -0.455324696071846
12613573333.333334 -0.8947291872999178 -0.4466090923766102 9.617770175672015e-17 1.6913407165535197e-17 9.617770175672015e-17 1.6913407165535197e-17 -0.8947288946291583 -0.44660967870783486
12614190666.666666 -0.8990473131368093 -0.43785149165135234 9.63208207175893e-17 1.596183384026003e-17 9.63208207175893e-17 1.596183384026003e-17 -0.8990470262190968 -0.43785208078348675
12614808000.0 -0.9032797222004364 -0.4290521453871695 9.645453174027091e-17 1.5009083250420192e-17 9.645453174027091e-17 1.5009083250420192e-17 -0.9032794410625615 -0.4290527372637732
12615425333.333334 -0.9074260109654204 -0.42021189252948915 9.657882552804515e-17 1.405524834243925e-17 9.657882552804515e-17 1.405524834243925e-17 -0.9074257356336207 -0.42021248709386594
12616042666.666666 -0.9114857841172954 -0.41133157592374353 9.669369370180284e-17 1.3100422131591624e-17 9.669369370180284e-17 1.3100422131591624e-17 -0.9114855146172515 -0.411332173118946
12616660000.0 -0.9154586545901107 -0.40241204223518884 9.679912880049977e-17 1.2144697692941671e-17 9.679912880049977e-17 1.2144697692941671e-17 -0.9154583909469455 -0.4024126420040248
12617277333.333334 -0.919344243603386 -0.39345414186808186 9.689512428151968e-17 1.1188168152305417e-17 9.689512428151968e-17 1.1188168152305417e-17 -0.919343985841662 -0.39345474415311965
12617894666.666666 -0.9231421806982002 -0.38445872888465227 9.698167452095061e-17 1.0230926677186068e-17 9.698167452095061e-17 1.0230926677186068e-17 -0.923141928841915 -0.3844593336282248
12618512000.0 -0.9268521037725546 -0.3754266609235686 9.705877481377143e-17 9.273066467708981e-18 9.705877481377143e-17 9.273066467708981e-18 -0.9268518578451426 -0.37542726806778143
12619129333.333334 -0.9304736591158328 -0.36635879911832886 9.712642137394786e-17 8.314680747581937e-18 9.712642137394786e-17 8.314680747581937e-18 -0.9304734191401595 -0.36635940860506355
12619746666.666666 -0.9340065014425548 -0.3572560080150784 9.718461133444032e-17 7.355862755031728e-18 9.718461133444032e-17 7.355862755031728e-18 -0.9340062674409164 -0.357256619785999
12620364000.0 -0.937450293925331 -0.34811915549010414 9.723334274712328e-17 6.396705733742932e-18 9.723334274712328e-17 6.396705733742932e-18 -0.9374500659194513 -0.34811976948666234
12620981333.333334 -0.9408047082269078 -0.3389491126672465 9.727261458261395e-17 5.437302923824605e-18 9.727261458261395e-17 5.437302923824605e-18 -0.9408044862379392 -0.3389497288306885
12621598666.666666 -0.9440694245315133 -0.32974675383476915 9.730242673001263e-17 4.477747552755872e-18 9.730242673001263e-17 4.477747552755872e-18 -0.9440692085800308 -0.3297473721061397
12622216000.0 -0.9472441315753679 -0.3205129563619192 9.732277999655505e-17 3.518132826336409e-18 9.732277999655505e-17 3.518132826336409e-18 -0.9472439216813685 -0.32051357668206765
12622833333.333334 -0.9503285266763164 -0.31124860061541176 9.733367610717337e-17 2.5585519196673473e-18 9.733367610717337e-17 2.5585519196673473e-18 -0.9503283228592188 -0.3112492229249983
12623450666.666666 -0.9533223157626801 -0.3019545698755229 9.733511770397086e-17 1.599097968111114e-18 9.733511770397086e-17 1.599097968111114e-18 -0.9533221180413202 -0.3019551941150234
12624068000.0 -0.9562252134013626 -0.29263175025165866 9.732710834560652e-17 6.398640582752146e-19 9.732710834560652e-17 6.398640582752146e-19 -0.9562250217939958 -0.2926323763613718
12624685333.333334 -0.9590369428250131 -0.28328103059803494 9.730965250659064e-17 -3.190567810123219e-19 9.730965250659064e-17 -3.190567810123219e-19 -0.9590367573493072 -0.28328165851808573
12625302666.666666 -0.961757235958392 -0.27390330242898553 9.728275557649326e-17 -1.2775715876879208e-18 9.728275557649326e-17 -1.2775715876879208e-18 -0.961757056631432 -0.2739039320993333
12625920000.0 -0.964385833444004 -0.2644994598337479 9.724642385906222e-17 -2.2355874754689405e-18 9.724642385906222e-17 -2.2355874754689405e-18 -0.9643856602822836 -0.2645000911941902
12626537333.333334 -0.9669224846667305 -0.2550703993915177 9.720066457125493e-17 -3.1930116428205676e-18 9.720066457125493e-17 -3.1930116428205676e-18 -0.9669223176861556 -0.2550710323816972
12627154666.666666 -0.9693669477777963 -0.24561702008572148 9.714548584218055e-17 -4.149751381922038e-18 9.714548584218055e-17 -4.149751381922038e-18 -0.969366786993683 -0.24561765464513158
12627772000.0 -0.971718989717823 -0.2361402232183344 9.708089671195345e-17 -5.105714087664456e-18 9.708089671195345e-17 -5.105714087664456e-18 -0.9717188351448931 -0.23614085928632436
12628389333.333334 -0.9739783862389996 -0.22664091232411165 9.700690713046211e-17 -6.060807266535729e-18 9.700690713046211e-17 -6.060807266535729e-18 -0.9739782378913823 -0.22664154983989315
12629006666.666666 -0.976144921926523 -0.21711999308422478 9.692352795604469e-17 -7.01493854561539e-18 9.692352795604469e-17 -7.01493854561539e-18 -0.9761447798177535 -0.2171206319868774
12629624000.0 -0.9782183902190824 -0.2075783732401329 9.683077095408286e-17 -7.968015681441093e-18 9.683077095408286e-17 -7.968015681441093e-18 -0.978218254362098 -0.20757901346860977
12630241333.333334 -0.9801985934286053 -0.19801696250678716 9.67286487955042e-17 -8.919946568933574e-18 9.67286487955042e-17 -8.919946568933574e-18 -0.9801984638357487 -0.19801760399992147
12630858666.666666 -0.982085342759038 -0.1884366724862599 9.661717505519935e-17 -9.870639250271607e-18 9.661717505519935e-17 -9.870639250271607e-18 -0.9820852194420508 -0.18843731518276968
12631476000.0 -0.9838784583244434 -0.17883841658029964 9.649636421034968e-17 -1.0820001923768394e-17 9.649636421034968e-17 -1.0820001923768394e-17 -0.9838783412944683 -0.17883906041879438
12632093333.333334 -0.9855777691660441 -0.16922310990380426 9.636623163867151e-17 -1.1767942952704691e-17 9.636623163867151e-17 -1.1767942952704691e-17 -0.985577658433625 -0.1692237548227908
12632710666.666666 -0.9871831132685787 -0.1595916691973224 9.622679361657314e-17 -1.2714370874150808e-17 9.622679361657314e-17 -1.2714370874150808e-17 -0.9871830088436565 -0.15959231513521036
12633328000.0 -0.9886943375757775 -0.1499450127394241 9.607806731721859e-17 -1.3659194407809104e-17 9.607806731721859e-17 -1.3659194407809104e-17 -0.9886942394676913 -0.14994565963453194
12633945333.333334 -0.9901112980048818 -0.14028406025959905 9.592007080851709e-17 -1.4602322464756213e-17 9.592007080851709e-17 -1.4602322464756213e-17 -0.9901112062223679 -0.14028470805016025
12634562666.666666 -0.9914338594604428 -0.1306097328502041 9.575282305101732e-17 -1.554366415622885e-17 9.575282305101732e-17 -1.554366415622885e-17 -0.9914337740116334 -0.13061038147437262
12635180000.0 -0.9926618958471645 -0.12092295287886859 9.557634389571722e-17 -1.648312880237022e-17 9.557634389571722e-17 -1.648312880237022e-17 -0.9926618167395863 -0.12092360227472493
12635797333.333334 -0.9937952900819417 -0.1112246439004418 9.539065408179274e-17 -1.7420625940931113e-17 9.539065408179274e-17 -1.7420625940931113e-17 -0.9937952173225176 -0.11122529400599913
12636414666.666666 -0.994833934105024 -0.10151573056896841 9.519577523423651e-17 -1.8356065335973672e-17 9.519577523423651e-17 -1.8356065335973672e-17 -0.9948338677000707 -0.10151638132217813
12637032000.0 -0.9957777288903096 -0.09179713854955769 9.499172986141403e-17 -1.92893569865334e-17 9.499172986141403e-17 -1.92893569865334e-17 -0.9957776688455369 -0.09179778988831565
12637649333.333334 -0.9966265844548029 -0.08206979443001658 9.477854135253249e-17 -2.022041113527137e-17 9.477854135253249e-17 -2.022041113527137e-17 -0.9966265307753127 -0.08207044629216866
12638266666.666666 -0.9973804198671699 -0.07233462563267609 9.455623397503002e-17 -2.1149138277072242e-17 9.455623397503002e-17 -2.1149138277072242e-17 -0.9973803725574591 -0.07233527795602461
12638884000.0 -0.9980391632554715 -0.06259256032588514 9.432483287187638e-17 -2.2075449167638943e-17 9.432483287187638e-17 -2.2075449167638943e-17 -0.9980391223194284 -0.06259321304819442
12639501333.333334 -0.9986027518140179 -0.05284452733540349 9.408436405878833e-17 -2.2999254832061118e-17 9.408436405878833e-17 -2.2999254832061118e-17 -0.9986027172549221 -0.05284518039440585
12640118666.666666 -0.9990711318093353 -0.04309145605621464 9.383485442137308e-17 -2.3920466573308776e-17 9.383485442137308e-17 -2.3920466573308776e-17 -0.9990711036298591 -0.04309210938961644
12640736000.0 -0.9994442585853254 -0.03333427636323456 9.357633171216271e-17 -2.4838995980794242e-17 9.357633171216271e-17 -2.4838995980794242e-17 -0.9994442367875318 -0.033334929908722076
12641353333.333334 -0.9997220965674799 -0.023573918523535815 9.33088245476056e-17 -2.575475493875407e-17 9.33088245476056e-17 -2.575475493875407e-17 -0.9997220811528238 -0.023574572218781176
12641970666.666666 -0.9999046192663045 -0.013811313106972797 9.30323624049309e-17 -2.6667655634760996e-17 9.30323624049309e-17 -2.6667655634760996e-17 -0.9999046102356317 -0.013811966889639956
12642588000.0 -0.9999918092798321 -0.004047390897658301 9.27469756189646e-17 -2.7577610568081234e-17 9.27469756189646e-17 -2.7577610568081234e-17 -0.9999918066333817 -0.004048044705408973
12643205333.333334 -0.9999836582952849 0.005716917194608593 9.245269537884807e-17 -2.848453255805381e-17 9.245269537884807e-17 -2.848453255805381e-17 -0.9999836620326844 0.0057162634241090205
12643822666.666666 -0.9998801670898627 0.015480680223438173 9.214955372467247e-17 -2.938833475244354e-17 9.214955372467247e-17 -2.938833475244354e-17 -0.9998801772101317 0.015480026552514646
12644440000.0 -0.9996813455306708 0.02524296729426705 9.183758354404666e-17 -3.028893063570865e-17 9.183758354404666e-17 -3.028893063570865e-17 -0.9996813620322225 0.025242313785228968
12645057333.333334 -0.9993872125737837 0.03500284765322509 9.151681856856812e-17 -3.118623403728804e-17 9.151681856856812e-17 -3.118623403728804e-17 -0.9993872354544211 0.03500219436836031
12645674666.666666 -0.998997796262432 0.044759390775960334 9.118729337022704e-17 -3.208015913980712e-17 9.118729337022704e-17 -3.208015913980712e-17 -0.9989978255193519 0.04475873777752929
12646292000.0 -0.9985131337243306 0.054511666456356904 9.084904335770962e-17 -3.2970620487305896e-17 9.084904335770962e-17 -3.2970620487305896e-17 -0.9985131693541198 0.05451101380658657
12646909333.333334 -0.997933271168138 0.06425874489508021 9.050210477265408e-17 -3.38575329933383e-17 9.050210477265408e-17 -3.38575329933383e-17 -0.9979333131667786 0.06425809265615835
12647526666.666666 -0.9972582638790564 0.07399969678831138 9.01465146857967e-17 -3.4740811949117753e-17 9.01465146857967e-17 -3.4740811949117753e-17 -0.9972583122419221 0.07399904502238044
12648144000.0 -0.9964881762135508 0.08373359341640503 8.978231099304878e-17 -3.5620373031594414e-17 8.978231099304878e-17 -3.5620373031594414e-17 -0.9964882309354095 0.08373294218555634
12648761333.333334 -0.9956230815932132 0.09345950673240662 8.94095324115079e-17 -3.6496132311458535e-17 8.94095324115079e-17 -3.6496132311458535e-17 -0.9956231426682282 0.0934588560986745
12649378666.666666 -0.9946630624977869 0.10317650945033637 8.902821847537286e-17 -3.736800626115128e-17 8.902821847537286e-17 -3.736800626115128e-17 -0.9946631299195137 0.10317585947569195
12649996000.0 -0.9936082104572617 0.11288367513396583 8.863840953179145e-17 -3.823591176280525e-17 8.863840953179145e-17 -3.823591176280525e-17 -0.9936082842186534 0.11288302588031152
12650613333.333334 -0.9924586260431761 0.12258007828486295 8.824014673662214e-17 -3.9099766116162237e-17 8.824014673662214e-17 -3.9099766116162237e-17 -0.9924587061365824 0.1225794298140264
12651230666.666666 -0.9912144188590396 0.1322647944306036 8.783347205013912e-17 -3.995948704640519e-17 8.783347205013912e-17 -3.995948704640519e-17 -0.9912145052762061 0.13226414680433168
12651848000.0 -0.9898757075298281 0.1419369002132777 8.741842823262534e-17 -4.0814992712020117e-17 8.741842823262534e-17 -4.0814992712020117e-17 -0.9898758002619001 0.14193625349323102
12652465333.333334 -0.9884426196907403 0.15159547347707422 8.699505883992999e-17 -4.166620171252887e-17 8.699505883992999e-17 -4.166620171252887e-17 -0.9884427187282595 0.15159482772482064
12653082666.666666 -0.9869152919749936 0.16123959335642551 8.656340821892813e-17 -4.251303309622297e-17 8.656340821892813e-17 -4.251303309622297e-17 -0.9869153973079031 0.16123894863343474
12653700000.0 -0.9852938700007844 0.17086834036388868 8.612352150289296e-17 -4.3355406367875576e-17 8.612352150289296e-17 -4.3355406367875576e-17 -0.9852939816184276 0.17086769673152633
12654317333.333334 -0.9835785083574561 0.1804807964775028 8.567544460683523e-17 -4.4193241496322556e-17 8.567544460683523e-17 -4.4193241496322556e-17 -0.9835786262485788 0.18048015399702452
12654934666.666666 -0.981769370590699 0.19007604522867896 8.521922422272042e-17 -4.50264589220911e-17 8.521922422272042e-17 -4.50264589220911e-17 -0.9817694947434498 0.19007540396122466
12655552000.0 -0.9798666291869886 0.19965317178938183 8.475490781464486e-17 -4.585497956491618e-17 8.475490781464486e-17 -4.585497956491618e-17 -0.9798667595889203 0.19965253179596976
12656169333.333334 -0.9778704655571488 0.20921126305932314 8.428254361393016e-17 -4.667872483122456e-17 8.428254361393016e-17 -4.667872483122456e-17 -0.9778706021952189 0.20921062440084404
12656786666.666666 -0.9757810700190385 0.21874940775310225 8.380218061413988e-17 -4.749761662157851e-17 8.380218061413988e-17 -4.749761662157851e-17 -0.9757812128796122 0.21874877049031374
12657404000.0 -0.9735986417794182 0.22826669648703374 8.331386856603067e-17 -4.831157733805638e-17 8.331386856603067e-17 -4.831157733805638e-17 -0.9735987908482703 0.22826606068055488
12658021333.333334 -0.9713233889149281 0.2377622218659888 8.28176579724223e-17 -4.9120529891598427e-17 8.28176579724223e-17 -4.9120529891598427e-17 -0.9713235441772391 0.23776158757629307
12658638666.666666 -0.9689555283523217 0.24723507856957505 8.231360008302096e-17 -4.992439770926043e-17 8.231360008302096e-17 -4.992439770926043e-17 -0.9689556897926866 0.24723444585698617
12659256000.0 -0.9664952858476711 0.25668436343894957 8.180174688912893e-17 -5.072310474148454e-17 8.180174688912893e-17 -5.072310474148454e-17 -0.9664954534500956 0.25668373236363456
12659873333.333334 -0.9639428959649456 0.2661091755624854 8.128215111833481e-17 -5.151657546923482e-17 8.128215111833481e-17 -5.151657546923482e-17 -0.9639430697128495 0.26610854618444946
12660490666.666666 -0.9612986020536312 0.2755086163617493 8.075486622909873e-17 -5.2304734911137055e-17 8.075486622909873e-17 -5.2304734911137055e-17 -0.961298781929851 0.27550798874083
12661108000.0 -0.9585626562254332 0.2848817896775307 8.021994640527473e-17 -5.308750863055127e-17 8.021994640527473e-17 -5.308750863055127e-17 -0.9585628422122223 0.2848811638733924
12661725333.333334 -0.9557353193303981 0.29422780185470815 7.967744655058761e-17 -5.386482274255739e-17 7.967744655058761e-17 -5.386482274255739e-17 -0.9557355114094287 0.2942271779268357
12662342666.666666 -0.9528168609318944 0.30354576182797016 7.912742228300248e-17 -5.463660392094099e-17 7.912742228300248e-17 -5.463660392094099e-17 -0.9528170590842604 0.3035451398356643
12662960000.0 -0.9498075592810095 0.3128347812064447 7.85699299290683e-17 -5.540277940506342e-17 7.85699299290683e-17 -5.540277940506342e-17 -0.9498077634872273 0.3128341612088157
12663577333.333334 -0.9467077012899874 0.3220939743585089 7.800502651816184e-17 -5.616327700672186e-17 7.800502651816184e-17 -5.616327700672186e-17 -0.9467079115299991 0.3220933564144711
12664194666.666666 -0.9435175825048491 0.33132245849630737 7.743276977669222e-17 -5.691802511691275e-17 7.743276977669222e-17 -5.691802511691275e-17 -0.9435177987580222 0.33132184266457354
12664812000.0 -0.9402375070772747 0.34051935375973 7.68532181222151e-17 -5.766695271257237e-17 7.68532181222151e-17 -5.766695271257237e-17 -0.9402377293224058 0.3405187400988057
12665429333.333334 -0.9368677877355217 0.3496837833005407 7.626643065750414e-17 -5.840998936322648e-17 7.626643065750414e-17 -5.840998936322648e-17 -0.9368680159508401 0.3496831718687196
12666046666.666666 -0.9334087457547292 0.35881487336565854 7.56724671645527e-17 -5.914706523758973e-17 7.56724671645527e-17 -5.914706523758973e-17 -0.933408979917894 0.358814264221015
12666664000.0 -0.9298607109261433 0.36791175338083426 7.507138809848396e-17 -5.987811111013754e-17 7.507138809848396e-17 -5.987811111013754e-17 -0.9298609510142496 0.36791114658121904
12667281333.333334 -0.9262240215257836 0.3769735560333593 7.446325458145836e-17 -6.060305836754267e-17 7.446325458145836e-17 -6.060305836754267e-17 -0.9262242675153658 0.3769729516363949
12667898666.666666 -0.9224990242821705 0.3859994173548401 7.384812839645176e-17 -6.132183901513253e-17 7.384812839645176e-17 -6.132183901513253e-17 -0.9224992761492008 0.3859988154179136
12668516000.0 -0.9186860743431697 0.3949884768037768 7.322607198101603e-17 -6.20343856832286e-17 7.322607198101603e-17 -6.20343856832286e-17 -0.9186863320630637 0.3949878773840355
12669133333.333334 -0.9147855352423148 0.40393987734719156 7.259714842096786e-17 -6.274063163343845e-17 7.259714842096786e-17 -6.274063163343845e-17 -0.9147857987899314 0.4039392805015371
12669750666.666666 -0.9107977788639994 0.4128527655426789 7.196142144401052e-17 -6.344051076488923e-17 7.196142144401052e-17 -6.344051076488923e-17 -0.9107980482136447 0.41285217132776186
12670368000.0 -0.906723185408032 0.4217262916197477 7.131895541329291e-17 -6.413395762040165e-17 7.131895541329291e-17 -6.413395762040165e-17 -0.9067234605334619 0.4217257000919626
