! Parameters = {f0=12700.012000; bw=77.238000; Q=6100.000000; N=10; m_0_1=1.253348; m_1_1=0.035480; m_1_2=1.088160; m_2_2=0.034831; m_2_3=0.725123; m_2_8=-0.000269; m_2_9=0.036435; m_3_3=0.032894; m_3_4=0.613652; m_3_7=0.000331; m_3_8=-0.096757; m_3_9=-0.000269; m_4_4=0.029969; m_4_5=0.449987; m_4_6=0.003848; m_4_7=-0.117306; m_4_8=0.000331; m_5_5=0.030351; m_5_6=0.857342; m_5_7=0.003848; m_6_6=0.030350; m_6_7=0.450329; m_7_7=0.029983; m_7_8=0.613770; m_8_8=0.032892; m_8_9=0.725436; m_9_9=0.034826; m_9_10=1.089238; m_10_10=0.035470; m_10_11=1.254143}
!
! Created with skrf (http://scikit-rf.org).
# Hz S RI R 50.0 
!freq ReS11 ImS11 ReS21 ImS21 ReS12 ImS12 ReS22 ImS22
12607400000.0 -0.16885719663710208 -0.9856405263298015 4.515171470478225e-17 9.166715076156966e-17 4.515171470478225e-17 9.166715076156966e-17 -0.16885654575111525 -0.9856406378375584
12608017333.333334 -0.17873518131225238 -0.9838972176813509 4.6067977077405207e-17 9.118769675587379e-17 4.6067977077405207e-17 9.118769675587379e-17 -0.1787345316093028 -0.9838973357064398
12608634666.666666 -0.18859518277591703 -0.9820549154876961 4.697916281815127e-17 9.06990920368635e-17 4.697916281815127e-17 9.06990920368635e-17 -0.18859453432125456 -0.9820550400176036
12609252000.0 -0.19843620897681924 -0.9801138051097615 4.7885180618712845e-17 9.020139021677291e-17 4.7885180618712845e-17 9.020139021677291e-17 -0.19843556183556185 -0.9801139361313217
12609869333.333334 -0.20825726977285525 -0.9780740818499305 4.878593973558575e-17 8.969464581812203e-17 4.878593973558575e-17 8.969464581812203e-17 -0.20825662400998238 -0.9780742193493255
12610486666.666666 -0.21805737703068778 -0.9759359509323978 4.9681349999133286e-17 8.917891426778134e-17 4.9681349999133286e-17 8.917891426778134e-17 -0.21805673271103407 -0.9759360948951606
12611104000.0 -0.22783554472530557 -0.973699627482496 5.057132182261342e-17 8.865425189093189e-17 5.057132182261342e-17 8.865425189093189e-17 -0.2278349019135537 -0.9736997778935089
12611721333.333334 -0.23759078903895225 -0.9713653365051057 5.145576621109449e-17 8.812071590496265e-17 5.145576621109449e-17 8.812071590496265e-17 -0.2375901477996272 -0.971365493348605
12612338666.666666 -0.24732212846033486 -0.9689333128619726 5.233459477034244e-17 8.757836441325921e-17 5.233459477034244e-17 8.757836441325921e-17 -0.24732148885779723 -0.9689334761215498
12612956000.0 -0.2570285838834873 -0.9664038012480485 5.320771971564038e-17 8.702725639890527e-17 5.320771971564038e-17 8.702725639890527e-17 -0.2570279459819262 -0.9664039709066489
12613573333.333334 -0.26670917870586697 -0.963777056166969 5.407505388052001e-17 8.646745171831035e-17 5.407505388052001e-17 8.646745171831035e-17 -0.26670854256929477 -0.9637772322068987
12614190666.666666 -0.27636293892700214 -0.9610533419053584 5.493651072545109e-17 8.589901109473528e-17 5.493651072545109e-17 8.589901109473528e-17 -0.2763623046192467 -0.9610535243082803
12614808000.0 -0.28598889324629545 -0.9582329325062813 5.579200434644858e-17 8.532199611174075e-17 5.579200434644858e-17 8.532199611174075e-17 -0.2859882608309947 -0.9582331212532214
12615425333.333334 -0.29558607316088725 -0.955316111741634 5.66414494836261e-17 8.473646920654122e-17 5.66414494836261e-17 8.473646920654122e-17 -0.2955854427014826 -0.9553163068129823
12616042666.666666 -0.30515351306293753 -0.9523031730836437 5.74847615296555e-17 8.414249366328933e-17 5.74847615296555e-17 8.414249366328933e-17 -0.3051528846226674 -0.9523033744591549
12616660000.0 -0.3146902503368599 -0.9491944196753122 5.832185653818113e-17 8.354013360626105e-17 5.832185653818113e-17 8.354013360626105e-17 -0.3146896239787532 -0.9491946273341099
12617277333.333334 -0.3241953254562824 -0.9459901642998847 5.915265123215063e-17 8.292945399296509e-17 5.915265123215063e-17 8.292945399296509e-17 -0.32419470124315264 -0.9459903782204614
12617894666.666666 -0.3336677820802929 -0.9426907293494763 5.99770630120743e-17 8.231052060717012e-17 5.99770630120743e-17 8.231052060717012e-17 -0.3336671600747312 -0.9426909495096962
12618512000.0 -0.34310666715006194 -0.9392964467924938 6.079500996422552e-17 8.168340005183918e-17 6.079500996422552e-17 8.168340005183918e-17 -0.34310604741443196 -0.9392966731695976
12619129333.333334 -0.3525110309843071 -0.9358076581403942 6.160641086873124e-17 8.104815974201188e-17 6.160641086873124e-17 8.104815974201188e-17 -0.35251041358073726 -0.9358078907109972
12619746666.666666 -0.36187992737521557 -0.9322247144131809 6.241118520764329e-17 8.040486789756341e-17 6.241118520764329e-17 8.040486789756341e-17 -0.36187931236559406 -0.9322249531532791
12620364000.0 -0.3712124136834866 -0.9285479761041472 6.320925317289095e-17 7.975359353591763e-17 6.320925317289095e-17 7.975359353591763e-17 -0.3712118011294546 -0.9285482209891174
12620981333.333334 -0.38050755093304167 -0.9247778131436584 6.400053567416059e-17 7.90944064646801e-17 6.400053567416059e-17 7.90944064646801e-17 -0.3805069408959871 -0.9247780641482617
12621598666.666666 -0.3897644039057098 -0.9209146048618486 6.478495434672784e-17 7.842737727416951e-17 6.478495434672784e-17 7.842737727416951e-17 -0.3897637964467616 -0.9209148619602332
12622216000.0 -0.398982041235297 -0.9169587399504648 6.556243155919226e-17 7.775257732988816e-17 6.556243155919226e-17 7.775257732988816e-17 -0.3989814364153189 -0.9169590031161685
12622833333.333334 -0.4081595355011883 -0.9129106164238001 6.633289042112702e-17 7.707007876492129e-17 6.633289042112702e-17 7.707007876492129e-17 -0.40815893338077214 -0.9129108856297522
12623450666.666666 -0.4172959633216608 -0.9087706415786527 6.709625479065715e-17 7.637995447225636e-17 6.709625479065715e-17 7.637995447225636e-17 -0.4172953639611212 -0.9087709167971783
12624068000.0 -0.4263904054468661 -0.9045392319533104 6.78524492819772e-17 7.568227809700947e-17 6.78524492819772e-17 7.568227809700947e-17 -0.42638980890623446 -0.9045395131561326
12624685333.333334 -0.4354419468514484 -0.9002168132855817 6.860139927276028e-17 7.497712402860277e-17 6.860139927276028e-17 7.497712402860277e-17 -0.4354413531904659 -0.9002171004438234
12625302666.666666 -0.44444967682619546 -0.8958038204701507 6.934303091148273e-17 7.426456739287361e-17 6.934303091148273e-17 7.426456739287361e-17 -0.44444908610430783 -0.8958041135543385
12625920000.0 -0.45341268907015736 -0.8913006975145915 7.007727112471924e-17 7.354468404406136e-17 7.007727112471924e-17 7.354468404406136e-17 -0.45341210134650894 -0.8913009964946588
12626537333.333334 -0.46233008178142304 -0.8867078974948922 7.080404762427554e-17 7.281755055679826e-17 7.080404762427554e-17 7.281755055679826e-17 -0.4623294971148506 -0.8867082023401823
12627154666.666666 -0.4712009577481094 -0.8820258825097443 7.152328891430177e-17 7.208324421797086e-17 7.152328891430177e-17 7.208324421797086e-17 -0.47120037619713717 -0.8820261931890144
12627772000.0 -0.480024424438632 -0.8772551236340479 7.223492429830755e-17 7.134184301852191e-17 7.223492429830755e-17 7.134184301852191e-17 -0.48002384606146437 -0.8772554401154705
12628389333.333334 -0.4887995940912301 -0.8723961008716613 7.293888388606586e-17 7.059342564521376e-17 7.293888388606586e-17 7.059342564521376e-17 -0.48879901894574657 -0.8723964231228281
12629006666.666666 -0.49752558380373674 -0.8674493031068617 7.363509860046841e-17 6.98380714722832e-17 7.363509860046841e-17 6.98380714722832e-17 -0.4975250119474861 -0.8674496310947873
12629624000.0 -0.5062015156219886 -0.8624152280553906 7.43235001842625e-17 6.907586055306558e-17 7.43235001842625e-17 6.907586055306558e-17 -0.5062009471121826 -0.8624155617465152
12630241333.333334 -0.5148265166284061 -0.8572943822142366 7.500402120673422e-17 6.830687361151672e-17 7.500402120673422e-17 6.830687361151672e-17 -0.5148259515219158 -0.857294721574432
12630858666.666666 -0.5233997190296297 -0.8520872808107949 7.567659507026377e-17 6.753119203371389e-17 7.567659507026377e-17 6.753119203371389e-17 -0.5233991573829758 -0.8520876258053627
12631476000.0 -0.5319202602441903 -0.8467944477508 7.63411560168428e-17 6.674889785923676e-17 7.63411560168428e-17 6.674889785923676e-17 -0.5319197021135418 -0.8467947983444805
12632093333.333334 -0.5403872829888396 -0.8414164155659005 7.699763913445791e-17 6.596007377253678e-17 7.699763913445791e-17 6.596007377253678e-17 -0.540386728430006 -0.841416771722874
12632710666.666666 -0.5487999353650481 -0.8359537253599314 7.764598036340363e-17 6.516480309422219e-17 7.764598036340363e-17 6.516480309422219e-17 -0.5487993844334734 -0.8359540870438212
12633328000.0 -0.557157370944786 -0.830406926754421 7.828611650252254e-17 6.436316977226123e-17 7.828611650252254e-17 6.436316977226123e-17 -0.5571568236955445 -0.8304072939282992
12633945333.333334 -0.565458748855567 -0.8247765778333705 7.891798521531846e-17 6.355525837316936e-17 7.891798521531846e-17 6.355525837316936e-17 -0.5654582053433566 -0.8247769504597585
12634562666.666666 -0.5737032338650273 -0.8190632450871167 7.954152503601477e-17 6.274115407309154e-17 7.954152503601477e-17 6.274115407309154e-17 -0.5737026941441653 -0.8190636231279931
12635180000.0 -0.5818899964650349 -0.8132675033552923 8.015667537549275e-17 6.192094264886187e-17 8.015667537549275e-17 6.192094264886187e-17 -0.5818894605894511 -0.8132678867720929
12635797333.333334 -0.5900182129551229 -0.8073899357690009 8.076337652715764e-17 6.109471046898032e-17 8.076337652715764e-17 6.109471046898032e-17 -0.5900176809783557 -0.8073903245226262
12636414666.666666 -0.5980870655253678 -0.801431133692149 8.136156967270305e-17 6.026254448454387e-17 8.136156967270305e-17 6.026254448454387e-17 -0.5980865375005575 -0.8014315277429649
12637032000.0 -0.6060957423386693 -0.7953916966619438 8.195119688778368e-17 5.942453222011893e-17 8.195119688778368e-17 5.942453222011893e-17 -0.6060952183185538 -0.7953920959697881
12637649333.333334 -0.6140434376124353 -0.7892722323285749 8.253220114759504e-17 5.858076176455923e-17 8.253220114759504e-17 5.858076176455923e-17 -0.6140429176493445 -0.78927263685276
12638266666.666666 -0.6219293516996299 -0.7830733563940905 8.310452633235659e-17 5.773132176177135e-17 8.310452633235659e-17 5.773132176177135e-17 -0.6219288358454805 -0.7830737660934083
12638884000.0 -0.6297526911693204 -0.7767956925503819 8.366811723270892e-17 5.687630140141568e-17 8.366811723270892e-17 5.687630140141568e-17 -0.6297521794756099 -0.776796107383107
12639501333.333334 -0.6375126688863927 -0.7704398724165166 8.422291955500018e-17 5.601579040957592e-17 8.422291955500018e-17 5.601579040957592e-17 -0.6375121614041955 -0.7704402923404118
12640118666.666666 -0.6452085040906855 -0.7640065354752463 8.476887992648155e-17 5.514987903937372e-17 8.476887992648155e-17 5.514987903937372e-17 -0.6452080008706482 -0.764006960447567
12640736000.0 -0.6528394224759605 -0.7574963290083211 8.5305945900439e-17 5.427865806147869e-17 8.5305945900439e-17 5.427865806147869e-17 -0.6528389235682951 -0.757496758985818
12641353333.333334 -0.6604046562671536 -0.75090990803191 8.583406596115381e-17 5.340221875468869e-17 8.583406596115381e-17 5.340221875468869e-17 -0.660404161721633 -0.7509103429708344
12641970666.666666 -0.6679034442981667 -0.7442479352302395 8.63531895288481e-17 5.25206528963303e-17 8.63531895288481e-17 5.25206528963303e-17 -0.6679029541641202 -0.744248375086348
12642588000.0 -0.6753350320881923 -0.7375110808891407 8.686326696448572e-17 5.163405275268754e-17 8.686326696448572e-17 5.163405275268754e-17 -0.6753345464145017 -0.7375115256177005
12643205333.333334 -0.6826986719177323 -0.7307000228285154 8.736424957447766e-17 5.074251106937946e-17 8.736424957447766e-17 5.074251106937946e-17 -0.6826981907528243 -0.7307004723843062
12643822666.666666 -0.6899936229037836 -0.7238154463341738 8.785608961530732e-17 4.984612106166302e-17 8.785608961530732e-17 4.984612106166302e-17 -0.6899931462956281 -0.7238159006714957
12644440000.0 -0.6972191510743627 -0.7168580440889071 8.833874029804275e-17 4.894497640471364e-17 8.833874029804275e-17 4.894497640471364e-17 -0.6972186790704651 -0.7168585031615823
12645057333.333334 -0.7043745294423324 -0.7098285161028134 8.881215579274612e-17 4.803917122387047e-17 8.881215579274612e-17 4.803917122387047e-17 -0.7043740620897307 -0.7098289798641929
12645674666.666666 -0.7114590380786292 -0.7027275696427887 8.927629123279546e-17 4.712880008481652e-17 8.927629123279546e-17 4.712880008481652e-17 -0.7114585754238896 -0.7027280380457565
12646292000.0 -0.7184719641847166 -0.6955559191613453 8.973110271910733e-17 4.621395798371498e-17 8.973110271910733e-17 4.621395798371498e-17 -0.7184715062739275 -0.6955563921583224
12646909333.333334 -0.7254126021641226 -0.6883142862249083 9.017654732424032e-17 4.529474033734108e-17 9.017654732424032e-17 4.529474033734108e-17 -0.7254121490428906 -0.6883147637678589
12647526666.666666 -0.7322802536935934 -0.681003399441057 9.061258309641443e-17 4.4371242973141316e-17 9.061258309641443e-17 4.4371242973141316e-17 -0.7322798054070389 -0.6810038814814922
12648144000.0 -0.7390742277934085 -0.6736239943851514 9.103916906342643e-17 4.3443562119259917e-17 9.103916906342643e-17 4.3443562119259917e-17 -0.7390737843861611 -0.6736244808741345
12648761333.333334 -0.7457938408967099 -0.6661768135265298 9.145626523645993e-17 4.251179439453579e-17 9.145626523645993e-17 4.251179439453579e-17 -0.7457934024129047 -0.6661773044146824
12649378666.666666 -0.7524384169183406 -0.6586626061537502 9.186383261378698e-17 4.157603679847647e-17 9.186383261378698e-17 4.157603679847647e-17 -0.7524379834016116 -0.6586631013912543
12649996000.0 -0.7590072873230146 -0.6510821282990253 9.226183318438546e-17 4.063638670115785e-17 9.226183318438546e-17 4.063638670115785e-17 -0.7590068588164925 -0.651082627835631
12650613333.333334 -0.7654997911924116 -0.6434361426623494 9.265022993143677e-17 3.969294183312663e-17 9.265022993143677e-17 3.969294183312663e-17 -0.7654993677387195 -0.6434366464473801
12651230666.666666 -0.7719152752916795 -0.635725418534763 9.302898683572694e-17 3.874580027525674e-17 9.302898683572694e-17 3.874580027525674e-17 -0.7719148569329269 -0.6357259265171183
12651848000.0 -0.7782530941353015 -0.6279507317207758 9.339806887894775e-17 3.779506044856304e-17 9.339806887894775e-17 3.779506044856304e-17 -0.7782526809130823 -0.627951243848939
12652465333.333334 -0.7845126100519508 -0.6201128644604186 9.375744204688375e-17 3.6840821104010854e-17 9.375744204688375e-17 3.6840821104010854e-17 -0.7845122020073367 -0.6201133806824598
12653082666.666666 -0.790693193248539 -0.6122126053506711 9.41070733325057e-17 3.588318131227215e-17 9.41070733325057e-17 3.588318131227215e-17 -0.7906927904220787 -0.6122131256142553
12653700000.0 -0.7967942218738375 -0.604250749265812 9.444693073895893e-17 3.492224045344957e-17 9.444693073895893e-17 3.492224045344957e-17 -0.7967938243055488 -0.604251273518201
12654317333.333334 -0.8028150820807546 -0.5962280972777951 9.477698328243366e-17 3.395809820681362e-17 9.477698328243366e-17 3.395809820681362e-17 -0.8028146898101242 -0.596228625465856
12654934666.666666 -0.8087551680883482 -0.588145456575342 9.509720099495374e-17 3.2990854540448594e-17 9.509720099495374e-17 3.2990854540448594e-17 -0.808754781154324 -0.5881459886455496
12655552000.0 -0.8146138822426637 -0.580003640382856 9.540755492704102e-17 3.202060970092385e-17 9.540755492704102e-17 3.202060970092385e-17 -0.8146135006836547 -0.5800041762813011
12656169333.333334 -0.8203906350767892 -0.5718034678787214 9.570801715027702e-17 3.1047464202938474e-17 9.570801715027702e-17 3.1047464202938474e-17 -0.8203902589306594 -0.5718040075511147
12656786666.666666 -0.8260848453702957 -0.563545764112697 9.599856075977032e-17 3.007151881890697e-17 9.599856075977032e-17 3.007151881890697e-17 -0.8260844746743607 -0.5635463075043743
12657404000.0 -0.8316959402076975 -0.5552313599229269 9.627915987650958e-17 2.909287456854708e-17 9.627915987650958e-17 2.909287456854708e-17 -0.8316955749987208 -0.5552319069788555
12658021333.333334 -0.8372233550360303 -0.54686109185244 9.654978964960888e-17 2.8111632708454625e-17 9.654978964960888e-17 2.8111632708454625e-17 -0.8372229953502195 -0.5468616425172237
12658638666.666666 -0.8426665337216233 -0.5384358020650309 9.681042625844883e-17 2.7127894721652885e-17 9.681042625844883e-17 2.7127894721652885e-17 -0.8426661795946279 -0.5384363562829162
12659256000.0 -0.8480249286062587 -0.5299563382602193 9.706104691472277e-17 2.6141762307081392e-17 9.706104691472277e-17 2.6141762307081392e-17 -0.8480245800731641 -0.5299568959750999
12659873333.333334 -0.8532980005620348 -0.5214235535883123 9.73016298643545e-17 2.5153337369143842e-17 9.73016298643545e-17 2.5153337369143842e-17 -0.8532976576573617 -0.5214241147437367
12660490666.666666 -0.85848521904568 -0.5128383065644772 9.753215438932484e-17 2.4162722007189755e-17 9.753215438932484e-17 2.4162722007189755e-17 -0.8584848818033786 -0.5128388711036528
12661108000.0 -0.8635860621520468 -0.5042014609821647 9.775260080939619e-17 2.3170018504952158e-17 9.775260080939619e-17 2.3170018504952158e-17 -0.8635857306054949 -0.5042020288479642
12661725333.333334 -0.8686000166664777 -0.49551388582644534 9.796295048370887e-17 2.2175329320062232e-17 9.796295048370887e-17 2.2175329320062232e-17 -0.8685996908484753 -0.49551445696141116
12662342666.666666 -0.8735265781165109 -0.4867764551864528 9.81631858122935e-17 2.1178757073453046e-17 9.81631858122935e-17 2.1178757073453046e-17 -0.8735262580592801 -0.4867770295328053
12662960000.0 -0.8783652508226257 -0.4779900481674646 9.835329023746202e-17 2.0180404538811882e-17 9.835329023746202e-17 2.0180404538811882e-17 -0.8783649365578055 -0.4779906256671065
12663577333.333334 -0.8831155479481014 -0.469155548802478 9.853324824509882e-17 1.9180374631987555e-17 9.853324824509882e-17 1.9180374631987555e-17 -0.8831152395067446 -0.4691561293970002
12664194666.666666 -0.8877769915480516 -0.46027384596316234 9.870304536583836e-17 1.81787704004181e-17 9.870304536583836e-17 1.81787704004181e-17 -0.8877766889606222 -0.4602744295938502
12664812000.0 -0.8923491126174317 -0.45134583327057703 9.886266817614021e-17 1.717569501252391e-17 9.886266817614021e-17 1.717569501252391e-17 -0.8923488159138024 -0.4513464198784163
12665429333.333334 -0.8968314511382953 -0.442372409005136 9.901210429925763e-17 1.617125174708986e-17 9.901210429925763e-17 1.617125174708986e-17 -0.8968311603477442 -0.44237299853081885
12666046666.666666 -0.9012235561259896 -0.43335447601640686 9.915134240609036e-17 1.516554398268231e-17 9.915134240609036e-17 1.516554398268231e-17 -0.9012232712771953 -0.43335506840033683
12666664000.0 -0.9055249856747137 -0.4242929416318866 9.928037221594281e-17 1.4158675186986957e-17 9.928037221594281e-17 1.4158675186986957e-17 -0.9055247067957553 -0.424293536814186
12667281333.333334 -0.9097353070017364 -0.4151887175662253 9.93991844971608e-17 1.3150748906229095e-17 9.93991844971608e-17 1.3150748906229095e-17 -0.9097350341200898 -0.41518931548674104
12667898666.666666 -0.9138540964911007 -0.4060427198291624 9.950777106767319e-17 1.214186875450526e-17 9.950777106767319e-17 1.214186875450526e-17 -0.9138538296336365 -0.4060433204274718
12668516000.0 -0.9178809397362773 -0.39685586863328487 9.960612479541712e-17 1.113213840316852e-17 9.960612479541712e-17 1.113213840316852e-17 -0.9178806789292554 -0.396856471848701
12669133333.333334 -0.9218154315816823 -0.38762908830182835 9.969423959865766e-17 1.0121661570212225e-17 9.969423959865766e-17 1.0121661570212225e-17 -0.9218151768507536 -0.38762969407340775
12669750666.666666 -0.9256571761636092 -0.3783633071753169 9.977211044620453e-17 9.110542009599216e-18 9.977211044620453e-17 9.110542009599216e-18 -0.9256569275338089 -0.3783639154418642
12670368000.0 -0.9294057869499945 -0.36905945751828667 9.983973335751443e-17 8.098883500656644e-18 9.983973335751443e-17 8.098883500656644e-18 -0.9294055444457429 -0.369060068218362
12670985333.333334 -0.9330608867792689 -0.3597184754255939 9.989710540268936e-17 7.086789837444073e-18 9.989710540268936e-17 7.086789837444073e-18 -0.9330606504243677 -0.35971908849751855
