! Parameters = {f0=12700.012000; bw=77.238000; Q=6100.000000; N=10; m_0_1=1.338233; m_1_1=1.308753; m_1_2=1.173045; m_2_2=1.308104; m_2_3=0.810008; m_2_8=0.003975; m_2_9=0.040679; m_3_3=1.306167; m_3_4=0.698537; m_3_7=0.004575; m_3_8=-0.092513; m_3_9=0.003975; m_4_4=1.303242; m_4_5=0.534872; m_4_6=0.008092; m_4_7=-0.113062; m_4_8=0.004575; m_5_5=1.303624; m_5_6=0.942227; m_5_7=0.008092; m_6_6=1.303623; m_6_7=0.535214; m_7_7=1.303256; m_7_8=0.698655; m_8_8=1.306165; m_8_9=0.810321; m_9_9=1.308099; m_9_10=1.174123; m_10_10=1.308743; m_10_11=1.339028}
!
! Created with skrf (http://scikit-rf.org).
# Hz S RI R 50.0 
!freq ReS11 ImS11 ReS21 ImS21 ReS12 ImS12 ReS22 ImS22
12607400000.0 -0.9269774240666159 -0.3751171220707276 1.5029590963747739e-16 1.4550879011685167e-17 1.5029590963747739e-16 1.4550879011685167e-17 -0.9269771596350179 -0.37511777552496456
12608017333.333334 -0.9316084228392455 -0.36346354218102533 1.5043821883353328e-16 1.2649236681962432e-17 1.5043821883353328e-16 1.2649236681962432e-17 -0.9316081666351488 -0.3634641988676474
12608634666.666666 -0.9360929242543418 -0.35175280689819716 1.5055648016421724e-16 1.0746321607959712e-17 1.5055648016421724e-16 1.0746321607959712e-17 -0.936092676317227 -0.35175346671362756
12609252000.0 -0.9404302231148765 -0.3399867577596363 1.5065068418728985e-16 8.842437731729194e-18 1.5065068418728985e-16 8.842437731729194e-18 -0.9404299834829211 -0.33998742059981646
12609869333.333334 -0.944619637371688 -0.32816724500105876 1.5072082529998796e-16 6.937889030775159e-18 1.5072082529998796e-16 6.937889030775159e-18 -0.9446194060817612 -0.32816791076146523
12610486666.666666 -0.9486605082307638 -0.31629612726549944 1.507669017384146e-16 5.032979469591608e-18 1.507669017384146e-16 5.032979469591608e-18 -0.9486602853184167 -0.3162967958411587
12611104000.0 -0.9525522002569558 -0.30437527131065645 1.5078891557631659e-16 3.1280129511822662e-18 1.5078891557631659e-16 3.1280129511822662e-18 -0.9525519857564209 -0.30437594259616346
12611721333.333334 -0.9562941014736727 -0.2924065517160419 1.5078687272325102e-16 1.22329326870378e-18 1.5078687272325102e-16 1.22329326870378e-18 -0.9562938954178544 -0.29240722560557525
12612338666.666666 -0.9598856234593073 -0.28039185058760535 1.5076078292214313e-16 -6.808759430175764e-19 1.5076078292214313e-16 -6.808759430175764e-19 -0.9598854258797809 -0.280392526974945
12612956000.0 -0.9633262014396994 -0.2683330572619862 1.5071065974623027e-16 -2.5841912557835227e-18 1.5071065974623027e-16 -2.5841912557835227e-18 -0.9633260123667039 -0.2683337360405297
12613573333.333334 -0.9666152943769003 -0.2562320680095747 1.50636520595401e-16 -4.486349496265306e-18 1.50636520595401e-16 -4.486349496265306e-18 -0.9666151138393334 -0.2562327490723537
12614190666.666666 -0.9697523850543452 -0.244090785735992 1.505383866919212e-16 -6.387047794348484e-18 1.505383866919212e-16 -6.387047794348484e-18 -0.9697522130797608 -0.2440914689756899
12614808000.0 -0.9727369801581247 -0.23191111968307268 1.5041628307555587e-16 -8.285983631204854e-18 1.5041628307555587e-16 -8.285983631204854e-18 -0.9727368167727269 -0.23191180499204087
12615425333.333334 -0.9755686103545882 -0.21969498512852295 1.502702385980834e-16 -1.0182854887418112e-17 1.502702385980834e-16 -1.0182854887418112e-17 -0.975568455583228 -0.21969567239879795
12616042666.666666 -0.9782468303640957 -0.20744430308496015 1.5010028591720168e-16 -1.2077359891018275e-17 1.5010028591720168e-16 -1.2077359891018275e-17 -0.9782466842302665 -0.20744499220828053
12616660000.0 -0.9807712190311161 -0.19516099999749786 1.4990646148983556e-16 -1.3969197465349182e-17 1.4990646148983556e-16 -1.3969197465349182e-17 -0.980771081556952 -0.19516169086532162
12617277333.333334 -0.9831413793904138 -0.18284700744097362 1.4968880556483574e-16 -1.5858066976923667e-17 1.4968880556483574e-16 -1.5858066976923667e-17 -0.9831412505966843 -0.1828476999444949
12617894666.666666 -0.9853569387294429 -0.17050426181637274 1.4944736217508052e-16 -1.7743668383122337e-17 1.4944736217508052e-16 -1.7743668383122337e-17 -0.9853568186355514 -0.1705049558465394
12618512000.0 -0.9874175486470211 -0.1581347040459908 1.4918217912896887e-16 -1.9625702279838768e-17 1.4918217912896887e-16 -1.9625702279838768e-17 -0.987417437271 -0.158135399493521
12619129333.333334 -0.9893228851080809 -0.14574027926838595 1.4889330800133413e-16 -2.1503869948868712e-17 1.4889330800133413e-16 -2.1503869948868712e-17 -0.9893227824665914 -0.14574097602378602
12619746666.666666 -0.991072648494597 -0.13332293653272778 1.485808041237341e-16 -2.337787340537503e-17 1.485808041237341e-16 -2.337787340537503e-17 -0.9910725546029243 -0.13332363448630877
12620364000.0 -0.9926665636527867 -0.12088462849168591 1.4824472657416445e-16 -2.524741544505551e-17 1.4824472657416445e-16 -2.524741544505551e-17 -0.9926664785248384 -0.12088532753358132
12620981333.333334 -0.9941043799362711 -0.10842731109515977 1.478851381661843e-16 -2.7112199691177395e-17 1.478851381661843e-16 -2.7112199691177395e-17 -0.9941043035845765 -0.10842801111534284
12621598666.666666 -0.9953858712455792 -0.09595294328202524 1.4750210543742857e-16 -2.897193064157057e-17 1.4750210543742857e-16 -2.897193064157057e-17 -0.9953858036812857 -0.09595364417032601
12622216000.0 -0.9965108360636417 -0.08346348667259526 1.4709569863754487e-16 -3.0826313715387204e-17 1.4709569863754487e-16 -3.0826313715387204e-17 -0.9965107772965139 -0.0834641883187181
12622833333.333334 -0.9974790974875254 -0.07096090525969877 1.466659917155496e-16 -3.267505529966271e-17 1.466659917155496e-16 -3.267505529966271e-17 -0.9974790475259443 -0.07096160755323966
12623450666.666666 -0.9982905032562132 -0.058447165100291576 1.4621306230658573e-16 -3.451786279577989e-17 1.4621306230658573e-16 -3.451786279577989e-17 -0.9982904621071733 -0.05844786793075546
12624068000.0 -0.998944925774575 -0.04592423400595008 1.4573699171810802e-16 -3.635444466570284e-17 1.4573699171810802e-16 -3.635444466570284e-17 -0.9989448934436851 -0.045924937262768306
12624685333.333334 -0.9994422621334283 -0.03339408123337152 1.4523786491547536e-16 -3.8184510478073405e-17 1.4523786491547536e-16 -3.8184510478073405e-17 -0.9994422386249097 -0.03339478480591923
12625302666.666666 -0.9997824341256971 -0.02085867717521543 1.4471577050699017e-16 -4.0007770954022485e-17 1.4471577050699017e-16 -4.0007770954022485e-17 -0.9997824194423851 -0.02085938095282894
12625920000.0 -0.9999653882587434 -0.008319993049630787 1.441708007283275e-16 -4.1823938012911587e-17 1.441708007283275e-16 -4.1823938012911587e-17 -0.9999653824020825 -0.008320696921624952
12626537333.333334 -0.9999910957627527 0.0042199994092679055 1.4360305142643702e-16 -4.363272481770086e-17 1.4360305142643702e-16 -4.363272481770086e-17 -0.9999910987328019 0.004219295553582224
12627154666.666666 -0.9998595525952756 0.01675932826157332 1.4301262204283023e-16 -4.54338458202657e-17 1.4301262204283023e-16 -4.54338458202657e-17 -0.9998595643907053 0.01675862453287189
12627772000.0 -0.9995707794418534 0.029296021672074946 1.4239961559631985e-16 -4.722701680641557e-17 1.4239961559631985e-16 -4.722701680641557e-17 -0.9995708000599448 0.029295318181002724
12628389333.333334 -0.9991248217127705 0.04182810821959529 1.4176413866522455e-16 -4.9011954940602225e-17 1.4176413866522455e-16 -4.9011954940602225e-17 -0.9991248511494198 0.04182740507674907
12629006666.666666 -0.9985217495359081 0.05435361720762515 1.4110630136895097e-16 -5.0788378810576756e-17 1.4110630136895097e-16 -5.0788378810576756e-17 -0.9985217877856256 0.05435291452353622
12629624000.0 -0.997761657745724 0.06687057897393571 1.40426217349073e-16 -5.255600847164057e-17 1.40426217349073e-16 -5.255600847164057e-17 -0.9977617048016326 0.06686987685905231
12630241333.333334 -0.9968446658683263 0.07937702520042515 1.397240037498368e-16 -5.431456549070151e-17 1.397240037498368e-16 -5.431456549070151e-17 -0.9968447217221663 0.07937632376509526
12630858666.666666 -0.9957709181027026 0.09187098922241439 1.38999781198124e-16 -5.606377299005673e-17 1.38999781198124e-16 -5.606377299005673e-17 -0.9957709827448316 0.0918702885768684
12631476000.0 -0.994540583298009 0.10435050633830568 1.3825367378282996e-16 -5.780335569099659e-17 1.3825367378282996e-16 -5.780335569099659e-17 -0.994540656717403 0.10434980659263893
12632093333.333334 -0.9931538549270581 0.11681361411808287 1.3748580903376045e-16 -5.953303995698707e-17 1.3748580903376045e-16 -5.953303995698707e-17 -0.9931539371113154 0.11681291538223858
12632710666.666666 -0.9916109510558596 0.12925835271230413 1.366963178999423e-16 -6.125255383668373e-17 1.366963178999423e-16 -6.125255383668373e-17 -0.9916110419912001 0.12925765509605583
12633328000.0 -0.9899121143093474 0.14168276516006534 1.358853347273998e-16 -6.29616271066519e-17 1.358853347273998e-16 -6.29616271066519e-17 -0.9899122139806171 0.14168206877299994
12633945333.333334 -0.9880576118332236 0.15408489769679348 1.3505299723643028e-16 -6.465999131372517e-17 1.3505299723643028e-16 -6.465999131372517e-17 -0.9880577202238965 0.15408420264829384
12634562666.666666 -0.9860477352519387 0.16646280006153585 1.3419944649831975e-16 -6.63473798171352e-17 1.3419944649831975e-16 -6.63473798171352e-17 -0.9860478523441191 0.16646210646076368
12635180000.0 -0.9838828006228708 0.17881452580341853 1.3332482691153058e-16 -6.802352783033465e-17 1.3332482691153058e-16 -6.802352783033465e-17 -0.9838829263972961 0.17881383375929713
12635797333.333334 -0.9815631483865573 0.19113813258812168 1.3242928617740021e-16 -6.968817246244838e-17 1.3242928617740021e-16 -6.968817246244838e-17 -0.9815632828226019 0.19113744220931905
12636414666.666666 -0.9790891433132415 0.20343168250286875 1.3151297527530844e-16 -7.134105275943693e-17 1.3151297527530844e-16 -7.134105275943693e-17 -0.9790892863889207 0.20343099389778052
12637032000.0 -0.9764611744454375 0.21569324236155757 1.305760484372897e-16 -7.298190974500916e-17 1.305760484372897e-16 -7.298190974500916e-17 -0.9764613261374091 0.21569255563828973
12637649333.333334 -0.9736796550367952 0.2279208840085352 1.2961866312221502e-16 -7.461048646106225e-17 1.2961866312221502e-16 -7.461048646106225e-17 -0.9736798153203651 0.2279201992748873
12638266666.666666 -0.9707450224870909 0.2401126846219149 1.2864097998941226e-16 -7.622652800788849e-17 1.2864097998941226e-16 -7.622652800788849e-17 -0.9707451913362154 0.240112001985363
12638884000.0 -0.9676577382734973 0.2522667270157228 1.276431628717897e-16 -7.782978158403023e-17 1.276431628717897e-16 -7.782978158403023e-17 -0.9676579156607903 0.25226604658340307
12639501333.333334 -0.9644182878779244 0.26438109994176656 1.2662537874850303e-16 -7.941999652571897e-17 1.2662537874850303e-16 -7.941999652571897e-17 -0.9644184737746581 0.2643804218204577
12640118666.666666 -0.961027180710801 0.276453898389687 1.2558779771709392e-16 -8.099692434602477e-17 1.2558779771709392e-16 -8.099692434602477e-17 -0.9610273750869137 0.27645322268579425
12640736000.0 -0.9574849500307893 0.2884832238871832 1.245305929651342e-16 -8.256031877364843e-17 1.245305929651342e-16 -8.256031877364843e-17 -0.957485152854888 0.288482550706721
12641353333.333334 -0.9537921528611449 0.300467184797785 1.2345394074145642e-16 -8.410993579124757e-17 1.2345394074145642e-16 -8.410993579124757e-17 -0.9537923641005129 0.30046651424636117
12641970666.666666 -0.949949369901937 0.31240389661897255 1.2235802032681732e-16 -8.564553367352209e-17 1.2235802032681732e-16 -8.564553367352209e-17 -0.949949589522535 0.31240322880177046
12642588000.0 -0.9459572054388738 0.3242914822780277 1.21243014004136e-16 -8.716687302484845e-17 1.21243014004136e-16 -8.716687302484845e-17 -0.9459574334053503 0.3242908172997911
12643205333.333334 -0.9418162872481841 0.3361280724275343 1.2010910702829101e-16 -8.8673716816494e-17 1.2010910702829101e-16 -8.8673716816494e-17 -0.9418165235238776 0.33612741039255006
12643822666.666666 -0.9375272664978673 0.34791180573938785 1.1895648759538561e-16 -9.01658304235359e-17 1.1895648759538561e-16 -9.01658304235359e-17 -0.9375275110448127 0.3479111467514697
12644440000.0 -0.9330908176454488 0.3596408291970642 1.1778534681163153e-16 -9.164298166127957e-17 1.1778534681163153e-16 -9.164298166127957e-17 -0.9330910704243864 0.3596401733595373
12645057333.333334 -0.9285076383318143 0.37131329838733484 1.165958786617204e-16 -9.310494082135575e-17 1.165958786617204e-16 -9.310494082135575e-17 -0.9285078993021911 0.37131264580301787
12645674666.666666 -0.9237784492714735 0.38292737779035385 1.1538827997680517e-16 -9.455148070733487e-17 1.1538827997680517e-16 -9.455148070733487e-17 -0.9237787183914544 0.38292672856154475
12646292000.0 -0.9189039941392702 0.3944812410681923 1.1416275040195603e-16 -9.598237667003286e-17 1.1416275040195603e-16 -9.598237667003286e-17 -0.9189042713657418 0.3944805952966511
12646909333.333334 -0.9138850394535024 0.4059730713518758 1.1291949236328716e-16 -9.739740664226573e-17 1.1291949236328716e-16 -9.739740664226573e-17 -0.9138853247420815 0.40597242913880904
12647526666.666666 -0.9087223744552568 0.4174010615274067 1.116587110345777e-16 -9.879635117327057e-17 1.116587110345777e-16 -9.879635117327057e-17 -0.9087226677602962 0.41740042297345126
12648144000.0 -0.9034168109843825 0.4287634145197246 1.1038061430347815e-16 -1.0017899346268282e-16 1.1038061430347815e-16 -1.0017899346268282e-16 -0.9034171122589799 0.42876277972493293
12648761333.333334 -0.8979691833517867 0.4400583435754072 1.0908541273731425e-16 -1.0154511939405836e-16 1.0908541273731425e-16 -1.0154511939405836e-16 -0.8979694925477895 0.4400577126392297
12649378666.666666 -0.8923803482083296 0.45128407254343206 1.0777331954851132e-16 -1.0289451756791763e-16 1.0777331954851132e-16 -1.0289451756791763e-16 -0.8923806652763461 0.45128344556470373
12649996000.0 -0.8866511844099735 0.4624388361547914 1.0644455055949616e-16 -1.0422697933446851e-16 1.0644455055949616e-16 -1.0422697933446851e-16 -0.8866515092993776 0.4624382132317145
12650613333.333334 -0.8807825928796446 0.47352088029992506 1.0509932416732825e-16 -1.0554229882573457e-16 1.0509932416732825e-16 -1.0554229882573457e-16 -0.8807829255385877 0.4735202615300559
12651230666.666666 -0.874775496465651 0.48452846230441304 1.0373786130787823e-16 -1.0684027298729109e-16 1.0373786130787823e-16 -1.0684027298729109e-16 -0.8747758368410653 0.4845278477846439
12651848000.0 -0.8686308397963984 0.4954598512033128 1.0236038541956643e-16 -1.081207016095863e-16 1.0236038541956643e-16 -1.081207016095863e-16 -0.8686311878340088 0.4954592410298589
12652465333.333334 -0.8623495891319236 0.5063133280132058 1.0096712240679391e-16 -1.0938338735871906e-16 1.0096712240679391e-16 -1.0938338735871906e-16 -0.8623499447762559 0.5063127222815894
12653082666.666666 -0.8559327322120659 0.5170871860023167 9.955830060300369e-17 -1.1062813580674297e-16 9.955830060300369e-17 -1.1062813580674297e-16 -0.8559330954064545 0.5170865848073523
12653700000.0 -0.8493812781008233 0.5277797309594379 9.813415073324975e-17 -1.1185475546160323e-16 9.813415073324975e-17 -1.1185475546160323e-16 -0.8493816487874223 0.5277791343952181
12654317333.333334 -0.8426962570280568 0.5383892814597147 9.66949058765494e-17 -1.13063057796457e-16 9.66949058765494e-17 -1.13063057796457e-16 -0.8426966351478462 0.5383886896195934
12654934666.666666 -0.8358787202273099 0.5489141691293457 9.524080142778177e-17 -1.142528572785955e-16 9.524080142778177e-17 -1.142528572785955e-16 -0.8358791057201074 0.5489135821059259
12655552000.0 -0.8289297397703108 0.5593527389082225 9.377207505923644e-17 -1.154239713978699e-16 9.377207505923644e-17 -1.154239713978699e-16 -0.828930132574781 0.5593521567933408
12656169333.333334 -0.8218504083987913 0.569703349309573 9.228896668187327e-17 -1.165762206945763e-16 9.228896668187327e-17 -1.165762206945763e-16 -0.8218508084524543 0.5697027721942843
12656786666.666666 -0.8146418393523079 0.5799643726786099 9.07917184061758e-17 -1.177094287868982e-16 9.07917184061758e-17 -1.177094287868982e-16 -0.8146422465915509 0.5799638006531754
12657404000.0 -0.8073051661933056 0.5901341954482934 8.928057450270761e-17 -1.1882342239781448e-16 8.928057450270761e-17 -1.1882342239781448e-16 -0.8073055805533917 0.5901336286021642
12658021333.333334 -0.7998415426289299 0.6002112183929746 8.775578136229358e-17 -1.1991803138153838e-16 8.775578136229358e-17 -1.1991803138153838e-16 -0.7998419640440085 0.6002106568147788
12658638666.666666 -0.7922521423295765 0.6101938568799283 8.62175874559866e-17 -1.2099308874936633e-16 8.62175874559866e-17 -1.2099308874936633e-16 -0.7922525707326946 0.6101933006574577
12659256000.0 -0.7845381587441193 0.6200805411188082 8.466624329454847e-17 -1.220484306951383e-16 8.466624329454847e-17 -1.220484306951383e-16 -0.7845385940672311 0.6200799903390026
12659873333.333334 -0.7767008049125098 0.6298697164081354 8.310200138779208e-17 -1.2308389662005717e-16 8.310200138779208e-17 -1.2308389662005717e-16 -0.7767012470864897 0.6298691711570723
12660490666.666666 -0.7687413132750003 0.6395598433798312 8.152511620351849e-17 -1.2409932915706128e-16 8.152511620351849e-17 -1.2409932915706128e-16 -0.7687417622296496 0.6395593037427083
12661108000.0 -0.7606609354781176 0.6491493982415458 7.993584412616325e-17 -1.2509457419466565e-16 7.993584412616325e-17 -1.2509457419466565e-16 -0.7606613911421806 0.6491488643026713
12661725333.333334 -0.7524609421781332 0.6586368730159301 7.833444341521757e-17 -1.2606948090023398e-16 7.833444341521757e-17 -1.2606948090023398e-16 -0.7524614044793049 0.6586363448587069
12662342666.666666 -0.7441426228409918 0.6680207757780708 7.672117416329614e-17 -1.2702390174276522e-16 7.672117416329614e-17 -1.2702390174276522e-16 -0.7441430917059308 0.6680202534849856
12662960000.0 -0.7357072855396869 0.6772996308899267 7.509629825397111e-17 -1.2795769251511693e-16 7.509629825397111e-17 -1.2795769251511693e-16 -0.7357077608940273 0.6772991145425353
12663577333.333334 -0.7271562567484893 0.6864719792324595 7.346007931929482e-17 -1.2887071235571757e-16 7.346007931929482e-17 -1.2887071235571757e-16 -0.7271567385168515 0.6864714689113751
12664194666.666666 -0.7184908811345097 0.6955363784349177 7.181278269713137e-17 -1.297628237696919e-16 7.181278269713137e-17 -1.297628237696919e-16 -0.7184913692405132 0.6955358742197978
12664812000.0 -0.7097125213460165 0.7044914031019017 7.015467538816186e-17 -1.306338926494868e-16 7.015467538816186e-17 -1.306338926494868e-16 -0.7097130157122912 0.7044909050714361
12665429333.333334 -0.7008225577982684 0.713335645037383 6.848602601267654e-17 -1.3148378829492587e-16 6.848602601267654e-17 -1.3148378829492587e-16 -0.7008230583464679 0.7133351532692813
12666046666.666666 -0.6918223884566068 0.7220677134659886 6.680710476712667e-17 -1.323123834327147e-16 6.680710476712667e-17 -1.323123834327147e-16 -0.6918228951074208 0.7220672280369691
12666664000.0 -0.682713428616177 0.7306862352521426 6.511818338040368e-17 -1.3311955423541036e-16 6.511818338040368e-17 -1.3311955423541036e-16 -0.6827139412893423 0.7306857562379178
12667281333.333334 -0.6734971106798967 0.7391898551154752 6.341953506996701e-17 -1.339051803397967e-16 6.341953506996701e-17 -1.339051803397967e-16 -0.6734976292942114 0.7391893825907424
12667898666.666666 -0.664174883932968 0.7475772358441869 6.171143449768371e-17 -1.3466914486473477e-16 6.171143449768371e-17 -1.3466914486473477e-16 -0.6641754084063041 0.7475767698826155
12668516000.0 -0.654748214314717 0.7558470585055521 5.999415772545455e-17 -1.3541133442844946e-16 5.999415772545455e-17 -1.3541133442844946e-16 -0.6547487445640331 0.7558465991797728
12669133333.333334 -0.6452185841886228 0.7639980226528308 5.82679821707036e-17 -1.3613163916522118e-16 5.82679821707036e-17 -1.3613163916522118e-16 -0.6452191201299774 0.7639975700344231
12669750666.666666 -0.6355874921087009 0.772028846530218 5.653318656159164e-17 -1.3682995274154401e-16 5.653318656159164e-17 -1.3682995274154401e-16 -0.6355880336572655 0.7720284006897001
