! Parameters = {f0=12700.012000; bw=77.238000; Q=6100.000000; N=10; m_0_1=1.238934; m_1_1=-0.180737; m_1_2=1.073746; m_2_2=-0.181386; m_2_3=0.710709; m_2_8=-0.000990; m_2_9=0.035714; m_3_3=-0.183323; m_3_4=0.599238; m_3_7=-0.000390; m_3_8=-0.097478; m_3_9=-0.000990; m_4_4=-0.186248; m_4_5=0.435573; m_4_6=0.003127; m_4_7=-0.118027; m_4_8=-0.000390; m_5_5=-0.185866; m_5_6=0.842928; m_5_7=0.003127; m_6_6=-0.185867; m_6_7=0.435915; m_7_7=-0.186234; m_7_8=0.599356; m_8_8=-0.183325; m_8_9=0.711022; m_9_9=-0.181391; m_9_10=1.074824; m_10_10=-0.180747; m_10_11=1.239729}
!
! Created with skrf (http://scikit-rf.org).
# Hz S RI R 50.0 
!freq ReS11 ImS11 ReS21 ImS21 ReS12 ImS12 ReS22 ImS22
12607400000.0 0.7746547168416964 0.6323844318725308 -8.791341087950195e-17 -3.6819257832134247e-17 -8.791341087950195e-17 -3.6819257832134247e-17 0.7746543040212559 0.6323849375666503
12608017333.333334 0.7806926632093093 0.6249151667314443 -8.824888653057282e-17 -3.595833195686108e-17 -8.824888653057282e-17 -3.595833195686108e-17 0.7806922552847751 0.6249156763421793
12608634666.666666 0.7866585932394017 0.6173882552190619 -8.857593817592047e-17 -3.5094364306568656e-17 -8.857593817592047e-17 -3.5094364306568656e-17 0.7866581902479232 0.6173887686990223
12609252000.0 0.7925519565945638 0.6098043916683121 -8.889453838863721e-17 -3.4227437241835016e-17 -8.889453838863721e-17 -3.4227437241835016e-17 0.7925515585728303 0.6098049089697539
12609869333.333334 0.7983722096314416 0.6021642756657373 -8.920466054640648e-17 -3.335763336894874e-17 -8.920466054640648e-17 -3.335763336894874e-17 0.7983718166156804 0.6021647967405688
12610486666.666666 0.8041188154507987 0.5944686119870732 -8.950627883367887e-17 -3.248503553207772e-17 -8.950627883367887e-17 -3.248503553207772e-17 0.8041184274767726 0.5944691367868604
12611104000.0 0.8097912439472501 0.5867181105319635 -8.97993682437914e-17 -3.160972680536543e-17 -8.97993682437914e-17 -3.160972680536543e-17 0.8097908610502533 0.5867186390079331
12611721333.333334 0.8153889718578579 0.5789134862588855 -9.008390458098715e-17 -3.0731790485075205e-17 -9.008390458098715e-17 -3.0731790485075205e-17 0.8153885940727129 0.5789140183619301
12612338666.666666 0.8209114828106703 0.5710554591188305 -9.03598644623783e-17 -2.98513100816551e-17 -9.03598644623783e-17 -2.98513100816551e-17 0.8209111101717239 0.571055994799512
12612956000.0 0.826358267372284 0.5631447539889797 -9.062722531982376e-17 -2.896836931181146e-17 -9.062722531982376e-17 -2.896836931181146e-17 0.8263578999134056 0.5631452931975357
12613573333.333334 0.8317288230947103 0.5551821006060256 -9.088596540172228e-17 -2.80830520905895e-17 -9.088596540172228e-17 -2.80830520905895e-17 0.8317284608492882 0.5551826432923732
12614190666.666666 0.8370226545618877 0.5471682334986234 -9.11360637747435e-17 -2.7195442523389215e-17 -9.11360637747435e-17 -2.7195442523389215e-17 0.8370222975628246 0.5471687796123627
12614808000.0 0.8422392734352964 0.5391038919197458 -9.137750032546935e-17 -2.6305624898005374e-17 -9.137750032546935e-17 -2.6305624898005374e-17 0.8422389217150106 0.5391044414101674
12615425333.333334 0.8473781984990284 0.5309898197784716 -9.161025576196291e-17 -2.5413683676637987e-17 -9.161025576196291e-17 -2.5413683676637987e-17 0.8473778520894464 0.5309903725945588
12616042666.666666 0.8524389557041747 0.5228267655713589 -9.18343116152591e-17 -2.451970348788949e-17 -9.18343116152591e-17 -2.451970348788949e-17 0.8524386146367303 0.5228273216617931
12616660000.0 0.8574210782125696 0.5146154823133747 -9.204965024077429e-17 -2.362376911876247e-17 -9.204965024077429e-17 -2.362376911876247e-17 0.8574207425182008 0.5146160416265407
12617277333.333334 0.8623241064398098 0.5063567274685055 -9.225625481964522e-17 -2.27259655066169e-17 -9.225625481964522e-17 -2.27259655066169e-17 0.8623237761489569 0.5063572899524961
12617894666.666666 0.8671475880976709 0.49805126287986173 -9.245410935997981e-17 -2.182637773115842e-17 -9.245410935997981e-17 -2.182637773115842e-17 0.8671472632402699 0.49805182848248036
12618512000.0 0.8718910782359186 0.4896998546992221 -9.264319869804211e-17 -2.0925091006361013e-17 -9.264319869804211e-17 -2.0925091006361013e-17 0.8718907588414052 0.4897004233679926
12619129333.333334 0.8765541392831794 0.4813032733166854 -9.282350849934454e-17 -2.0022190672448932e-17 -9.282350849934454e-17 -2.0022190672448932e-17 0.8765538253804802 0.48130384499885204
12619746666.666666 0.8811363410874415 0.4728622932893544 -9.299502525967483e-17 -1.911776218780641e-17 -9.299502525967483e-17 -1.911776218780641e-17 0.8811360327049743 0.47286286793188903
12620364000.0 0.8856372609557334 0.46437769326988443 -9.31577363060393e-17 -1.821189112090597e-17 -9.31577363060393e-17 -1.821189112090597e-17 0.885636958121403 0.46437827081949085
12620981333.333334 0.890056483692994 0.4558502559348812 -9.331162979752328e-17 -1.7304663142253368e-17 -9.331162979752328e-17 -1.7304663142253368e-17 0.8900561864341922 0.4558508363380007
12621598666.666666 0.8943936016405092 0.44728076791245075 -9.345669472608214e-17 -1.639616401627568e-17 -9.345669472608214e-17 -1.639616401627568e-17 0.8943933099841107 0.4472813511152666
12622216000.0 0.8986482147134619 0.43867001970973574 -9.359292091724719e-17 -1.548647959324369e-17 -9.359292091724719e-17 -1.548647959324369e-17 0.8986479286858227 0.4386706056581788
12622833333.333334 0.9028199304378153 0.4300188056400456 -9.372029903075588e-17 -1.457569580116791e-17 -9.372029903075588e-17 -1.457569580116791e-17 0.9028196500647672 0.43001939427979735
12623450666.666666 0.9069083639865393 0.42132792374953115 -9.383882056109985e-17 -1.3663898637720026e-17 -9.383882056109985e-17 -1.3663898637720026e-17 0.9069080892933925 0.42132851502603136
12624068000.0 0.9109131382151274 0.4125981757435441 -9.394847783800119e-17 -1.2751174162100075e-17 -9.394847783800119e-17 -1.2751174162100075e-17 0.9109128692266637 0.41259876960199393
12624685333.333334 0.9148338836964035 0.40383036691262836 -9.40492640268045e-17 -1.1837608486938476e-17 -9.40492640268045e-17 -1.1837608486938476e-17 0.9148336204368774 0.4038309632979965
12625302666.666666 0.9186702387544872 0.39502530605849423 -9.414117312878923e-17 -1.0923287770212281e-17 -9.414117312878923e-17 -1.0923287770212281e-17 0.9186699812476216 0.39502590491552153
12625920000.0 0.9224218494983285 0.3861838054190194 -9.42241999814108e-17 -1.0008298207096113e-17 -9.42241999814108e-17 -1.0008298207096113e-17 0.9224215977673151 0.3861844066922248
12626537333.333334 0.9260883698541971 0.37730668059368866 -9.429834025845379e-17 -9.092726021890384e-18 -9.429834025845379e-17 -9.092726021890384e-18 0.9260881239216907 0.3773072842273728
12627154666.666666 0.9296694615976826 0.36839475046817344 -9.436359047011352e-17 -8.176657459896469e-18 -9.436359047011352e-17 -8.176657459896469e-18 0.9296692214858011 0.3683953564064248
12627772000.0 0.9331647943849152 0.3594488371387393 -9.441994796299738e-17 -7.260178779292955e-18 -9.441994796299738e-17 -7.260178779292955e-18 0.9331645601152384 0.35944944532543965
12628389333.333334 0.9365740457829562 0.35046976583662254 -9.446741092004404e-17 -6.343376243067578e-18 -9.446741092004404e-17 -6.343376243067578e-18 0.9365738173765228 0.35047037621545163
12629006666.666666 0.9398969012996554 0.34145836485161346 -9.450597836037013e-17 -5.426336110874038e-18 -9.450597836037013e-17 -5.426336110874038e-18 0.9398966787769603 0.3414589773660543
12629624000.0 0.943133054412558 0.3324154654559147 -9.453565013903337e-17 -4.5091446309620976e-18 -9.453565013903337e-17 -4.5091446309620976e-18 0.9431328377935515 0.33241608004925854
12630241333.333334 0.9462822065972383 0.32334190182729816 -9.455642694671998e-17 -3.591888032063546e-18 -9.455642694671998e-17 -3.591888032063546e-18 0.9462819959013258 0.3233425184426508
12630858666.666666 0.949344067354788 0.3142385109723187 -9.456831030935276e-17 -2.6746525153289015e-18 -9.456831030935276e-17 -2.6746525153289015e-18 0.9493438626008248 0.3142391295526041
12631476000.0 0.9523183542387084 0.3051061326488041 -9.457130258762188e-17 -1.7575242461972184e-18 -9.457130258762188e-17 -1.7575242461972184e-18 0.9523181554450013 0.3051067531367713
12632093333.333334 0.9552047928808585 0.29594560928871533 -9.456540697643603e-17 -8.40589346363878e-19 -9.456540697643603e-17 -8.40589346363878e-19 0.9552046000651611 0.2959462316269422
12632710666.666666 0.9580031170167843 0.2867577859203806 -9.455062750429698e-17 7.60661143089249e-20 -9.455062750429698e-17 7.60661143089249e-20 0.9580029301962986 0.2867584100512807
12633328000.0 0.960713068510374 0.2775435100902461 -9.452696903259459e-17 9.923561258682769e-19 -9.452696903259459e-17 9.923561258682769e-19 0.9607128877017469 0.27754413595607313
12633945333.333334 0.9633343973775604 0.26830363178504585 -9.449443725482515e-17 1.9081947463002253e-18 -9.449443725482515e-17 1.9081947463002253e-18 0.9633342225968826 0.26830425932789903
12634562666.666666 0.9658668618094309 0.2590390033532296 -9.44530386957316e-17 2.8234961095875806e-18 -9.44530386957316e-17 2.8234961095875806e-18 0.9658666930722356 0.259039632515059
12635180000.0 0.9683102281945256 0.2497504794263639 -9.440278071036533e-17 3.7381744337412884e-18 -9.440278071036533e-17 3.7381744337412884e-18 0.9683100655157862 0.249751110148976
12635797333.333334 0.9706642711403936 0.24043891684026755 -9.434367148307111e-17 4.652144028826162e-18 -9.434367148307111e-17 4.652144028826162e-18 0.9706641145345251 0.24043954906533085
12636414666.666666 0.9729287734943579 0.2311051745560819 -9.42757200263951e-17 5.565319304961426e-18 -9.42757200263951e-17 5.565319304961426e-18 0.9729286229752117 0.23110580822513146
12637032000.0 0.9751035263635883 0.22175011358086852 -9.41989361799135e-17 6.4776147803355315e-18 -9.41989361799135e-17 6.4776147803355315e-18 0.9751033819444538 0.22175074863531224
12637649333.333334 0.9771883291343478 0.21237459688826685 -9.411333060898583e-17 7.38894508918357e-18 -9.411333060898583e-17 7.38894508918357e-18 0.9771881908279514 0.21237523326939073
12638266666.666666 0.9791829894904845 0.20297948933897172 -9.401891480343165e-17 8.299224989750725e-18 -9.401891480343165e-17 8.299224989750725e-18 0.9791828573089864 0.20298012698794488
12638884000.0 0.9810873234312066 0.19356565760078556 -9.391570107612765e-17 9.208369372265e-18 -9.391570107612765e-17 9.208369372265e-18 0.9810871973862003 0.19356629645866583
12639501333.333334 0.9829011552880338 0.18413397006875404 -9.380370256153035e-17 1.0116293266870348e-17 -9.380370256153035e-17 1.0116293266870348e-17 0.9829010353905475 0.18413461007649384
12640118666.666666 0.9846243177409846 0.17468529678520062 -9.368293321412373e-17 1.10229118515384e-17 -9.368293321412373e-17 1.10229118515384e-17 0.9846242040014765 0.17468593788365178
12640736000.0 0.9862566518340846 0.1652205093590191 -9.355340780678234e-17 1.1928140460018905e-17 -9.355340780678234e-17 1.1928140460018905e-17 0.9862565442624461 0.1652211514889389
12641353333.333334 0.9877980069899154 0.15574048088594317 -9.341514192907305e-17 1.2831894589666247e-17 -9.341514192907305e-17 1.2831894589666247e-17 0.9877979055954653 0.1557411239879992
12641970666.666666 0.9892482410236034 0.14624608586741758 -9.326815198546434e-17 1.3734089909367059e-17 -9.326815198546434e-17 1.3734089909367059e-17 0.9892481458150922 0.14624672988219384
12642588000.0 0.9906072201558922 0.13673820013020893 -9.31124551934709e-17 1.4634642267366268e-17 -9.31124551934709e-17 1.4634642267366268e-17 0.9906071311414975 0.13673884499821093
12643205333.333334 0.9918748190254894 0.1272177007455571 -9.294806958171921e-17 1.5533467699102543e-17 -9.294806958171921e-17 1.5533467699102543e-17 0.9918747362128174 0.1272183464072175
12643822666.666666 0.9930509207006314 0.11768546594826834 -9.277501398793505e-17 1.6430482435030854e-17 -9.277501398793505e-17 1.6430482435030854e-17 0.9930508440967156 0.11768611234395233
12644440000.0 0.9941354166898755 0.10814237505567303 -9.259330805686152e-17 1.73256029084001e-17 -9.259330805686152e-17 1.73256029084001e-17 0.994135346301175 0.10814302212568391
12645057333.333334 0.995128206952092 0.09858930838659558 -9.24029722380974e-17 1.8218745763026957e-17 -9.24029722380974e-17 1.8218745763026957e-17 0.9951281427844938 0.09858995607118046
12645674666.666666 0.9960291999057069 0.08902714718012084 -9.220402778386515e-17 1.910982786103134e-17 -9.220402778386515e-17 1.910982786103134e-17 0.9960291419645215 0.08902779541947578
12646292000.0 0.9968383124371579 0.07945677351410357 -9.199649674669392e-17 1.9998766290592685e-17 -9.199649674669392e-17 1.9998766290592685e-17 0.9968382607271232 0.07945742224837944
12646909333.333334 0.9975554699085357 0.06987907022416827 -9.178040197704591e-17 2.0885478373603557e-17 -9.178040197704591e-17 2.0885478373603557e-17 0.9975554244338115 0.06987971939347595
12647526666.666666 0.9981806061644872 0.0602949208219868 -9.155576712085251e-17 2.1769881673371575e-17 -9.155576712085251e-17 2.1769881673371575e-17 0.9981805669286611 0.06029557036640311
12648144000.0 0.9987136635383214 0.05070520941380617 -9.132261661698335e-17 2.265189400226418e-17 -9.132261661698335e-17 2.265189400226418e-17 0.9987136305444023 0.05070585927337902
12648761333.333334 0.9991545928573158 0.04111082061897713 -9.108097569464427e-17 2.353143342931936e-17 -9.108097569464427e-17 2.353143342931936e-17 0.999154566107738 0.04111147073373127
12649378666.666666 0.9995033534472522 0.031512639488464896 -9.08308703706995e-17 2.4408418287839697e-17 -9.08308703706995e-17 2.4408418287839697e-17 0.9995033329438746 0.03151328979840744
12649996000.0 0.9997599131361867 0.021911551422893867 -9.057232744691774e-17 2.5282767182971614e-17 -9.057232744691774e-17 2.5282767182971614e-17 0.99975989888029 0.021912201868019697
12650613333.333334 0.9999242482573988 0.012308442091070737 -9.030537450715015e-17 2.6154398999235198e-17 -9.030537450715015e-17 2.6154398999235198e-17 0.9999242402496888 0.012309092611368186
12651230666.666666 0.9999963436515822 0.002704197348370031 -9.003003991443828e-17 2.702323290802276e-17 -9.003003991443828e-17 2.702323290802276e-17 0.9999963418921882 0.002704847883826321
12651848000.0 0.9999761926682454 -0.006900296845267458 -8.974635280803827e-17 2.7889188375103e-17 -8.974635280803827e-17 2.7889188375103e-17 0.9999761971567188 -0.006899646354660641
12652465333.333334 0.9998637971663185 -0.016504154506805774 -8.945434310038746e-17 2.8752185168048764e-17 -8.945434310038746e-17 2.8752185168048764e-17 0.999863807901636 -0.016503504121046748
12653082666.666666 0.9996591675139878 -0.026106489711842797 -8.91540414739974e-17 2.9612143363643907e-17 -8.91540414739974e-17 2.9612143363643907e-17 0.9996591844945494 -0.026105839490914346
12653700000.0 0.9993623225877325 -0.03570641667664646 -8.884547937825772e-17 3.046898335530873e-17 -8.884547937825772e-17 3.046898335530873e-17 0.9993623458113627 -0.03570576668051032
12654317333.333334 0.9989732897705954 -0.04530304983935391 -8.852868902619954e-17 3.1322625860407e-17 -8.852868902619954e-17 3.1322625860407e-17 0.998973319234543 -0.045302400127945244
12654934666.666666 0.998492104949646 -0.054895503942116425 -8.820370339116203e-17 3.217299192759268e-17 -8.820370339116203e-17 3.217299192759268e-17 0.9984921406505839 -0.054894854575338235
12655552000.0 0.9979188125126663 -0.06448289411264745 -8.78705562033993e-17 3.3020002944095025e-17 -8.78705562033993e-17 3.3020002944095025e-17 0.9979188544466936 -0.0644822451503652
12656169333.333334 0.9972534653440757 -0.07406433594562259 -8.752928194662572e-17 3.3863580642946616e-17 -8.752928194662572e-17 3.3863580642946616e-17 0.9972535135067153 -0.07406368744765848
12656786666.666666 0.9964961248200309 -0.08363894558454651 -8.717991585447426e-17 3.4703647110223616e-17 -8.717991585447426e-17 3.4703647110223616e-17 0.9964961792062333 -0.08363829761067418
12657404000.0 0.9956468608027766 -0.0932058398031441 -8.682249390689945e-17 3.5540124792212376e-17 -8.682249390689945e-17 3.5540124792212376e-17 0.9956469214069178 -0.09320519241308298
12658021333.333334 0.9947057516341948 -0.10276413608689194 -8.645705282650544e-17 3.637293650255711e-17 -8.645705282650544e-17 3.637293650255711e-17 0.9947058184500776 -0.10276348934030169
12658638666.666666 0.993672884128591 -0.1123129527142856 -8.608363007481297e-17 3.720200542935304e-17 -8.608363007481297e-17 3.720200542935304e-17 0.9936729571494465 -0.11231230667076085
12659256000.0 0.9925483535646561 -0.12185140883848695 -8.570226384844219e-17 3.802725514223814e-17 -8.570226384844219e-17 3.802725514223814e-17 0.9925484327831436 -0.12185076355755163
12659873333.333334 0.9913322636767138 -0.13137862456821167 -8.531299307524736e-17 3.8848609599402464e-17 -8.531299307524736e-17 3.8848609599402464e-17 0.9913323490849221 -0.1313779801093136
12660490666.666666 0.9900247266451386 -0.1408937210490665 -8.491585741038063e-17 3.9665993154568213e-17 -8.491585741038063e-17 3.9665993154568213e-17 0.9900248182345845 -0.14089307747157165
12661108000.0 0.9886258630859774 -0.15039582054478864 -8.451089723226587e-17 4.0479330563978e-17 -8.451089723226587e-17 4.0479330563978e-17 0.9886259608476106 -0.15039517790797619
12661725333.333334 0.9871358020398775 -0.1598840465178488 -8.409815363854544e-17 4.128854699326084e-17 -8.409815363854544e-17 4.128854699326084e-17 0.9871359059640781 -0.15988340488090524
12662342666.666666 0.9855546809601385 -0.1693575237106182 -8.367766844192616e-17 4.2093568024329024e-17 -8.367766844192616e-17 4.2093568024329024e-17 0.9855547910367202 -0.16935688313263217
12662960000.0 0.983882645700054 -0.17881537822596763 -8.324948416597926e-17 4.2894319662192416e-17 -8.324948416597926e-17 4.2894319662192416e-17 0.9838827619182621 -0.17881473876592405
12663577333.333334 0.9821198504994495 -0.1882567376079093 -8.281364404086902e-17 4.3690728341744956e-17 -8.281364404086902e-17 4.3690728341744956e-17 0.9821199728479652 -0.18825609932468443
12664194666.666666 0.9802664579704519 -0.19768073092210656 -8.237019199901707e-17 4.4482720934505515e-17 -8.237019199901707e-17 4.4482720934505515e-17 0.9802665864373921 -0.19768009387446234
12664812000.0 0.9783226390825104 -0.2070864888361026 -8.191917267070275e-17 4.527022475531514e-17 -8.191917267070275e-17 4.527022475531514e-17 0.9783227736554284 -0.20708585308268126
12665429333.333334 0.9762885731465871 -0.21647314369970935 -8.146063137959877e-17 4.605316756899267e-17 -8.146063137959877e-17 4.605316756899267e-17 0.9762887138124743 -0.21647250929902792
12666046666.666666 0.9741644477986647 -0.22583982962479382 -8.099461413825062e-17 4.6831477596931265e-17 -8.099461413825062e-17 4.6831477596931265e-17 0.9741645945439523 -0.2258391966352392
12666664000.0 0.9719504589823696 -0.23518568256548789 -8.052116764347095e-17 4.760508352368881e-17 -8.052116764347095e-17 4.760508352368881e-17 0.9719506117929284 -0.2351850510453107
12667281333.333334 0.9696468109309805 -0.24450984039750454 -8.004033927171178e-17 4.837391450346351e-17 -8.004033927171178e-17 4.837391450346351e-17 0.9696469697921235 -0.24450921040481435
12667898666.666666 0.9672537161485272 -0.2538114429979435 -7.955217707432872e-17 4.9137900166600556e-17 -7.955217707432872e-17 4.9137900166600556e-17 0.967253881045011 -0.2538108145907034
12668516000.0 0.9647713953901842 -0.2630896323246343 -7.90567297728103e-17 4.989697062600574e-17 -7.90567297728103e-17 4.989697062600574e-17 0.9647715663062102 -0.26308900556065534
12669133333.333334 0.9622000776419718 -0.27234355249503944 -7.855404675395276e-17 5.065105648350254e-17 -7.855404675395276e-17 5.065105648350254e-17 0.9622002545611882 -0.27234292743197575
12669750666.666666 0.9595400000995518 -0.2815723498655099 -7.804417806494864e-17 5.140008883618141e-17 -7.804417806494864e-17 5.140008883618141e-17 0.9595401830050548 -0.28157172656085316
12670368000.0 0.9567914081464113 -0.290775173109812 -7.75271744084347e-17 5.214399928266833e-17 -7.75271744084347e-17 5.214399928266833e-17 0.9567915970207447 -0.2907745516208855
