! Parameters = {f0=12700.012000; bw=77.238000; Q=6100.000000; N=10; m_0_1=1.193288; m_1_1=-0.865421; m_1_2=1.028100; m_2_2=-0.866070; m_2_3=0.665063; m_2_8=-0.003272; m_2_9=0.033432; m_3_3=-0.868007; m_3_4=0.553592; m_3_7=-0.002672; m_3_8=-0.099760; m_3_9=-0.003272; m_4_4=-0.870932; m_4_5=0.389927; m_4_6=0.000845; m_4_7=-0.120309; m_4_8=-0.002672; m_5_5=-0.870550; m_5_6=0.797282; m_5_7=0.000845; m_6_6=-0.870551; m_6_7=0.390269; m_7_7=-0.870918; m_7_8=0.553710; m_8_8=-0.868009; m_8_9=0.665376; m_9_9=-0.866075; m_9_10=1.029178; m_10_10=-0.865431; m_10_11=1.194083}
!
! Created with skrf (http://scikit-rf.org).
# Hz S RI R 50.0 
!freq ReS11 ImS11 ReS21 ImS21 ReS12 ImS12 ReS22 ImS22
12607400000.0 -0.9999090349436276 0.013487840373723808 7.249696775285399e-17 -2.2544934619204673e-17 7.249696775285399e-17 -2.2544934619204673e-17 -0.9999090434249573 0.013487211603251602
12608017333.333334 -0.999763621667994 0.02174168321772155 7.229217256651145e-17 -2.314451136982244e-17 7.229217256651145e-17 -2.314451136982244e-17 -0.999763635338899 0.021741054569474418
12608634666.666666 -0.9995500774342042 0.029994044427520967 7.208242358065363e-17 -2.3742241619910565e-17 7.208242358065363e-17 -2.3742241619910565e-17 -0.9995500962932443 0.02999341594432536
12609252000.0 -0.9992684167947274 0.03824436162891424 7.186773733749619e-17 -2.433808448170837e-17 7.186773733749619e-17 -2.433808448170837e-17 -0.9992684408401096 0.03824373335358119
12609869333.333334 -0.998918658943965 0.046492072586987454 7.164813071638927e-17 -2.493199921482244e-17 7.164813071638927e-17 -2.493199921482244e-17 -0.9989186881735437 0.046491444562309664
12610486666.666666 -0.998500827716948 0.054736615244407046 7.142362093251193e-17 -2.5523945229001607e-17 7.142362093251193e-17 -2.5523945229001607e-17 -0.9985008621282225 0.05473598751315585
12611104000.0 -0.9980149515876978 0.06297742775986392 7.119422553553538e-17 -2.611388208692243e-17 7.119422553553538e-17 -2.611388208692243e-17 -0.9980149911778169 0.0629768003647866
12611721333.333334 -0.9974610636673095 0.07121394854607795 7.095996240828239e-17 -2.6701769506912615e-17 7.095996240828239e-17 -2.6701769506912615e-17 -0.9974611084330672 0.07121332152989458
12612338666.666666 -0.9968392017016762 0.07944561630832357 7.072084976534165e-17 -2.7287567365720814e-17 7.072084976534165e-17 -2.7287567365720814e-17 -0.9968392516395156 0.07944498971372428
12612956000.0 -0.9961494080689147 0.08767187008268025 7.047690615167507e-17 -2.787123570123416e-17 7.047690615167507e-17 -2.787123570123416e-17 -0.9961494631749276 0.08767124395232234
12613573333.333334 -0.9953917297765044 0.09589214927397753 7.022815044120243e-17 -2.845273471518569e-17 7.022815044120243e-17 -2.845273471518569e-17 -0.9953917900464281 0.09589152365048229
12614190666.666666 -0.9945662184580448 0.10410589369439399 6.997460183535197e-17 -2.9032024775877165e-17 6.997460183535197e-17 -2.9032024775877165e-17 -0.9945662838872681 0.10410526862034422
12614808000.0 -0.9936729303697699 0.1123125436013214 6.971627986160093e-17 -2.960906642085927e-17 6.971627986160093e-17 -2.960906642085927e-17 -0.9936730009533286 0.11231191911925817
12615425333.333334 -0.992711926386697 0.12051153973565076 6.945320437198546e-17 -3.018382035962109e-17 6.945320437198546e-17 -3.018382035962109e-17 -0.9927120021192768 0.12051091588807067
12616042666.666666 -0.9916832719984842 0.12870232335985607 6.91853955415968e-17 -3.075624747624441e-17 6.91853955415968e-17 -3.075624747624441e-17 -0.99168335287442 0.12870170018920823
12616660000.0 -0.9905870373049652 0.13688433629607044 6.891287386704825e-17 -3.132630883206506e-17 6.891287386704825e-17 -3.132630883206506e-17 -0.9905871233182431 0.1368837138447539
12617277333.333334 -0.9894232970113733 0.1450570209641245 6.86356601649235e-17 -3.189396566831049e-17 6.86356601649235e-17 -3.189396566831049e-17 -0.9894233881556296 0.14505639927448505
12617894666.666666 -0.9881921304232573 0.1532198204195159 6.835377557020468e-17 -3.245917940872453e-17 6.835377557020468e-17 -3.245917940872453e-17 -0.9881922266917775 0.153219199533843
12618512000.0 -0.9868936214410478 0.161372178391503 6.806724153467164e-17 -3.302191166218916e-17 6.806724153467164e-17 -3.302191166218916e-17 -0.9868937228267709 0.1613715583520276
12619129333.333334 -0.98552785855439 0.1695135393207333 6.777607982529555e-17 -3.3582124225304184e-17 6.777607982529555e-17 -3.3582124225304184e-17 -0.9855279650499073 0.1695129201696245
12619746666.666666 -0.9840949348360758 0.17764334839735588 6.748031252259226e-17 -3.413977908498914e-17 6.748031252259226e-17 -3.413977908498914e-17 -0.9840950464336288 0.17764273017671775
12620364000.0 -0.9825949479356899 0.18576105159882847 6.717996201896408e-17 -3.469483842105155e-17 6.717996201896408e-17 -3.469483842105155e-17 -0.9825950646271764 0.18576043435069814
12620981333.333334 -0.9810280000730159 0.1938660957273946 6.687505101702478e-17 -3.524726460873338e-17 6.687505101702478e-17 -3.524726460873338e-17 -0.9810281218499842 0.19386547949373825
12621598666.666666 -0.9793941980309908 0.20195792844817212 6.656560252789462e-17 -3.5797020221260007e-17 6.656560252789462e-17 -3.5797020221260007e-17 -0.9793943248846457 0.2019573132708831
12622216000.0 -0.9776936531484898 0.21003599832648678 6.625163986947958e-17 -3.634406803236484e-17 6.625163986947958e-17 -3.634406803236484e-17 -0.9776937850696908 0.21003538424738227
12622833333.333334 -0.9759264813127074 0.21809975486561864 6.593318666472779e-17 -3.688837101880279e-17 6.593318666472779e-17 -3.688837101880279e-17 -0.9759266182919681 0.21809914192643662
12623450666.666666 -0.9740928029512832 0.22614864854417624 6.561026683987205e-17 -3.7429892362837556e-17 6.561026683987205e-17 -3.7429892362837556e-17 -0.9740929449787753 0.22614803678657336
12624068000.0 -0.9721927430240735 0.2341821308536858 6.528290462263667e-17 -3.796859545473957e-17 6.528290462263667e-17 -3.796859545473957e-17 -0.9721928900896244 0.23418152031923378
12624685333.333334 -0.9702264310146277 0.2421996543359686 6.495112454043914e-17 -3.850444389524243e-17 6.495112454043914e-17 -3.850444389524243e-17 -0.9702265831077236 0.24219904506615203
12625302666.666666 -0.9681940009214075 0.25020067262028356 6.461495141857315e-17 -3.9037401497982155e-17 6.461495141857315e-17 -3.9037401497982155e-17 -0.9681941580311926 0.2502000646564967
12625920000.0 -0.9660955912485928 0.2581846404608088 6.427441037834898e-17 -3.9567432291957295e-17 6.427441037834898e-17 -3.9567432291957295e-17 -0.9660957533638694 0.2581840338443527
12626537333.333334 -0.9639313449967122 0.2661510137735232 6.392952683524693e-17 -4.009450052392003e-17 6.392952683524693e-17 -4.009450052392003e-17 -0.9639315121059444 0.2661504085456033
12627154666.666666 -0.9617014096528668 0.2740992496734223 6.358032649702254e-17 -4.061857066079687e-17 6.358032649702254e-17 -4.061857066079687e-17 -0.9617015817441792 0.27409864587514543
12627772000.0 -0.9594059371806383 0.282028806511651 6.322683536180337e-17 -4.113960739207456e-17 6.322683536180337e-17 -4.113960739207456e-17 -0.9594061142418158 0.28202820418402214
12628389333.333334 -0.9570450840098071 0.2899391439121406 6.286907971617832e-17 -4.165757563215203e-17 6.286907971617832e-17 -4.165757563215203e-17 -0.9570452660282991 0.2899385430960611
12629006666.666666 -0.9546190110256282 0.29782972280868164 6.250708613323948e-17 -4.217244052271857e-17 6.250708613323948e-17 -4.217244052271857e-17 -0.9546191979885458 0.2978291235449453
12629624000.0 -0.9521278835579163 0.3057000054814668 6.21408814706354e-17 -4.268416743506898e-17 6.21408814706354e-17 -4.268416743506898e-17 -0.9521280754520353 0.30569940781075783
12630241333.333334 -0.9495718713697409 0.3135494555938718 6.177049286857887e-17 -4.319272197244058e-17 6.177049286857887e-17 -4.319272197244058e-17 -0.949572068181504 0.31354885955676226
12630858666.666666 -0.9469511486459128 0.32137753822884374 6.139594774786325e-17 -4.369806997229497e-17 6.139594774786325e-17 -4.369806997229497e-17 -0.9469513503614269 0.32137694386578997
12631476000.0 -0.9442658939810197 0.32918371992562245 6.101727380782581e-17 -4.420017750862928e-17 6.101727380782581e-17 -4.420017750862928e-17 -0.9442661005860602 0.3291831272769629
12632093333.333334 -0.9415162903673391 0.33696746871585254 6.063449902433068e-17 -4.4699010894218275e-17 6.063449902433068e-17 -4.4699010894218275e-17 -0.9415165018473491 0.33696687782180507
12632710666.666666 -0.9387025251823691 0.3447282541598358 6.024765164770165e-17 -4.519453668288211e-17 6.024765164770165e-17 -4.519453668288211e-17 -0.9387027415224609 0.3447276650604945
12633328000.0 -0.9358247901759734 0.35246554738292035 5.985676020065017e-17 -4.568672167171729e-17 5.985676020065017e-17 -4.568672167171729e-17 -0.9358250113609292 0.35246496011825296
12633945333.333334 -0.9328832814574066 0.3601788211112725 5.946185347619105e-17 -4.61755329033032e-17 5.946185347619105e-17 -4.61755329033032e-17 -0.9328835074716818 0.3601782357211186
12634562666.666666 -0.9298781994819084 0.3678675497079457 5.90629605355284e-17 -4.66609376679062e-17 5.90629605355284e-17 -4.66609376679062e-17 -0.9298784303096291 0.3678669662320127
12635180000.0 -0.926809749037059 0.3755312092086463 5.866011070592974e-17 -4.7142903505656733e-17 5.866011070592974e-17 -4.7142903505656733e-17 -0.9268099846620248 0.3755306276865071
12635797333.333334 -0.9236781392287692 0.38316927735757106 5.825333357858175e-17 -4.762139820871015e-17 5.825333357858175e-17 -4.762139820871015e-17 -0.9236783796344549 0.3831686978286618
12636414666.666666 -0.920483583467139 0.3907812336427354 5.784265900642827e-17 -4.80963898233893e-17 5.784265900642827e-17 -4.80963898233893e-17 -0.9204838286366961 0.39078065614635293
12637032000.0 -0.9172262994518099 0.39836655933170845 5.742811710199078e-17 -4.856784665230818e-17 5.742811710199078e-17 -4.856784665230818e-17 -0.9172265493680649 0.39836598390700634
12637649333.333334 -0.9139065091571763 0.405924737506829 5.700973823517163e-17 -4.903573725647714e-17 5.700973823517163e-17 -4.903573725647714e-17 -0.9139067638026365 0.40592416419281696
12638266666.666666 -0.9105244388172549 0.41345525310046155 5.658755303104089e-17 -4.950003045738967e-17 5.658755303104089e-17 -4.950003045738967e-17 -0.9105246981741052 0.413454681936001
12638884000.0 -0.9070803189102755 0.4209575929300687 5.616159236760679e-17 -4.996069533908787e-17 5.616159236760679e-17 -4.996069533908787e-17 -0.9070805829603814 0.4209570239538705
12639501333.333334 -0.9035743841429147 0.42843124573331204 5.573188737356156e-17 -5.041770125021918e-17 5.573188737356156e-17 -5.041770125021918e-17 -0.9035746528678245 0.4284306789839348
12640118666.666666 -0.9000068734344465 0.4358757022025847 5.529846942603485e-17 -5.087101780604642e-17 5.529846942603485e-17 -5.087101780604642e-17 -0.9000071468153924 0.4358751377184315
12640736000.0 -0.8963780299002198 0.44329045502023384 5.4861370148284427e-17 -5.132061489048911e-17 5.4861370148284427e-17 -5.132061489048911e-17 -0.8963783079181163 0.4432898928395489
12641353333.333334 -0.892688100835392 0.4506749988924895 5.4420621407437825e-17 -5.176646265807338e-17 5.4420621407437825e-17 -5.176646265807338e-17 -0.8926883834708428 0.4506744390533577
12641970666.666666 -0.8889373376978368 0.4580288305844143 5.3976255312143176e-17 -5.220853153594164e-17 5.3976255312143176e-17 -5.220853153594164e-17 -0.8889376249311303 0.45802827312475597
12642588000.0 -0.8851259960910758 0.4653514489540403 5.3528304210264366e-17 -5.264679222577888e-17 5.3528304210264366e-17 -5.264679222577888e-17 -0.8851262879021895 0.46535089391161055
12643205333.333334 -0.8812543357469275 0.4726423549863961 5.3076800686529426e-17 -5.30812157057515e-17 5.3076800686529426e-17 -5.30812157057515e-17 -0.8812546321155288 0.4726418023987812
12643822666.666666 -0.8773226205077007 0.4799010518277133 5.262177756016637e-17 -5.351177323242314e-17 5.262177756016637e-17 -5.351177323242314e-17 -0.8773229214131495 0.47990050173232923
12644440000.0 -0.8733311183082968 0.48712704481913666 5.2163267882537305e-17 -5.3938436342636884e-17 5.2163267882537305e-17 -5.3938436342636884e-17 -0.8733314237296447 0.4871264972532252
12645057333.333334 -0.8692801011579345 0.49431984153045716 5.1701304934740434e-17 -5.436117685539347e-17 5.1701304934740434e-17 -5.436117685539347e-17 -0.8692804110739286 0.4943192965310849
12645674666.666666 -0.8651698451216321 0.5014789517936474 5.123592222521398e-17 -5.4779966873693116e-17 5.123592222521398e-17 -5.4779966873693116e-17 -0.8651701595107147 0.5014784093977022
12646292000.0 -0.8610006303012365 0.508603887736535 5.0767153487298864e-17 -5.519477878638148e-17 5.0767153487298864e-17 -5.519477878638148e-17 -0.8610009491415466 0.508603347980723
12646909333.333334 -0.8567727408166027 0.5156941638155812 5.029503267682576e-17 -5.560558526993904e-17 5.029503267682576e-17 -5.560558526993904e-17 -0.8567730640859788 0.5156936267364257
12647526666.666666 -0.8524864647860354 0.5227492968493145 4.9819593969651454e-17 -5.601235929028264e-17 4.9819593969651454e-17 -5.601235929028264e-17 -0.8524867924620162 0.5227487624831528
12648144000.0 -0.8481420943066807 0.5297688060512077 4.9340871759190247e-17 -5.641507410453766e-17 4.9340871759190247e-17 -5.641507410453766e-17 -0.8481424263665075 0.529768274434189
12648761333.333334 -0.8437399254346799 0.5367522130623453 4.885890065395192e-17 -5.681370326277075e-17 4.885890065395192e-17 -5.681370326277075e-17 -0.8437402618552965 0.5367516842304272
12649378666.666666 -0.8392802581650101 0.5436990419839988 4.8373715475043576e-17 -5.720822060972175e-17 4.8373715475043576e-17 -5.720822060972175e-17 -0.8392805989230662 0.5436985159729462
12649996000.0 -0.834763396410905 0.5506088194102742 4.7885351253657214e-17 -5.759860028651354e-17 4.7885351253657214e-17 -5.759860028651354e-17 -0.8347637414827558 0.5506082962556555
12650613333.333334 -0.8301896479832764 0.557481074460155 4.7393843228556954e-17 -5.798481673233026e-17 4.7393843228556954e-17 -5.798481673233026e-17 -0.8301899973449873 0.5574805541973418
12651230666.666666 -0.8255593245697462 0.5643153388095961 4.6899226843546217e-17 -5.836684468607944e-17 4.6899226843546217e-17 -5.836684468607944e-17 -0.8255596781970914 0.5643148214737587
12651848000.0 -0.8208727417132592 0.571111146723649 4.640153774491472e-17 -5.874465918803752e-17 4.640153774491472e-17 -5.874465918803752e-17 -0.820873099581725 0.5711106323497551
12652465333.333334 -0.8161302187907393 0.5778680350879648 4.590081177888786e-17 -5.911823558146259e-17 4.590081177888786e-17 -5.911823558146259e-17 -0.8161305808755246 0.5778675237107758
12653082666.666666 -0.8113320789912608 0.5845855434404479 4.539708498905625e-17 -5.948754951419028e-17 4.539708498905625e-17 -5.948754951419028e-17 -0.811332445267281 0.5845850350945193
12653700000.0 -0.8064786492939593 0.5912632140027286 4.4890393613775577e-17 -5.985257694022078e-17 4.4890393613775577e-17 -5.985257694022078e-17 -0.8064790197358453 0.5912627087224048
12654317333.333334 -0.8015702604459126 0.5979005917111275 4.438077408358622e-17 -6.02132941212596e-17 4.438077408358622e-17 -6.02132941212596e-17 -0.8015706350280154 0.5979000895305413
12654934666.666666 -0.7966072469394553 0.6044972242478756 4.386826301859675e-17 -6.056967762825426e-17 4.386826301859675e-17 -6.056967762825426e-17 -0.7966076256358452 0.6044967252009449
12655552000.0 -0.7915899469893783 0.6110526620719354 4.335289722585498e-17 -6.092170434290845e-17 4.335289722585498e-17 -6.092170434290845e-17 -0.7915903297738476 0.6110521661923611
12656169333.333334 -0.7865187025100362 0.6175664584494324 4.2834713696731514e-17 -6.126935145915711e-17 4.2834713696731514e-17 -6.126935145915711e-17 -0.7865190893561019 0.6175659657706969
12656786666.666666 -0.7813938590918947 0.6240381694843042 4.231374960425849e-17 -6.161259648464253e-17 4.231374960425849e-17 -6.161259648464253e-17 -0.7813942499727997 0.6240376800396682
12657404000.0 -0.7762157659779936 0.6304673541485258 4.1790042300473845e-17 -6.195141724215523e-17 4.1790042300473845e-17 -6.195141724215523e-17 -0.7762161608667075 0.6304668679710258
12658021333.333334 -0.7709847760402158 0.6368535743120739 4.1263629313759653e-17 -6.228579187104946e-17 4.1263629313759653e-17 -6.228579187104946e-17 -0.7709851749094391 0.6368530914345217
12658638666.666666 -0.7657012457552632 0.6431963947727665 4.073454834616423e-17 -6.261569882863963e-17 4.073454834616423e-17 -6.261569882863963e-17 -0.7657016485774268 0.6431959152277448
12659256000.0 -0.7603655351801977 0.6494953832861137 4.020283727069483e-17 -6.294111689158524e-17 4.020283727069483e-17 -6.294111689158524e-17 -0.7603659419274673 0.6494949071059766
12659873333.333334 -0.7549780079280896 0.6557501105945608 3.966853412863398e-17 -6.326202515723183e-17 3.966853412863398e-17 -6.326202515723183e-17 -0.7549784185723637 0.6557496378114276
12660490666.666666 -0.7495390311431601 0.6619601504568221 3.91316771268198e-17 -6.35784030449446e-17 3.91316771268198e-17 -6.35784030449446e-17 -0.7495394456560759 0.6619596811025789
12661108000.0 -0.7440489754756913 0.6681250796770168 3.8592304634915617e-17 -6.389023029741887e-17 3.8592304634915617e-17 -6.389023029741887e-17 -0.7440493938286251 0.6681246137833128
12661725333.333334 -0.738508215056953 0.6742444781332955 3.8050455182695337e-17 -6.419748698195297e-17 3.8050455182695337e-17 -6.419748698195297e-17 -0.7385086372210224 0.6742440157315408
12662342666.666666 -0.732917127473518 0.6803179288066805 3.750616745728343e-17 -6.45001534917177e-17 3.750616745728343e-17 -6.45001534917177e-17 -0.732917553419584 0.680317469928045
12662960000.0 -0.7272760937416294 0.686345017809383 3.695948030040409e-17 -6.479821054699288e-17 3.695948030040409e-17 -6.479821054699288e-17 -0.727276523440297 0.6863445624847921
12663577333.333334 -0.7215854982812294 0.6923253344130031 3.6410432705626997e-17 -6.509163919637517e-17 3.6410432705626997e-17 -6.509163919637517e-17 -0.721585931702851 0.6923248826731375
12664194666.666666 -0.7158457288896868 0.6982584710766045 3.585906381558825e-17 -6.53804208179735e-17 3.585906381558825e-17 -6.53804208179735e-17 -0.7158461660043659 0.6982580229518996
12664812000.0 -0.7100571767154912 0.7041440234743678 3.5305412919210276e-17 -6.566453712057464e-17 3.5305412919210276e-17 -6.566453712057464e-17 -0.7100576174930797 0.7041435789950063
12665429333.333334 -0.7042202362314912 0.7099815905232385 3.474951944891138e-17 -6.59439701447873e-17 3.474951944891138e-17 -6.59439701447873e-17 -0.7042206806415964 0.7099811497191542
12666046666.666666 -0.6983353052081398 0.715770774410145 3.419142297780794e-17 -6.621870226416095e-17 3.419142297780794e-17 -6.621870226416095e-17 -0.6983357532201236 0.7157703373110179
12666664000.0 -0.6924027846861603 0.721511180619327 3.363116321689678e-17 -6.648871618628746e-17 3.363116321689678e-17 -6.648871618628746e-17 -0.6924032362691425 0.7215107472545809
12667281333.333334 -0.6864230789495246 0.7272024179589207 3.3068780012257325e-17 -6.675399495386428e-17 3.3068780012257325e-17 -6.675399495386428e-17 -0.6864235340723837 0.7272019883577222
12667898666.666666 -0.680396595497613 0.7328440985878949 3.2504313342209576e-17 -6.701452194575232e-17 3.2504313342209576e-17 -6.701452194575232e-17 -0.6803970541289905 0.7328436727791522
12668516000.0 -0.6743237450175689 0.738435838042362 3.1937803314482697e-17 -6.727028087800018e-17 3.1937803314482697e-17 -6.727028087800018e-17 -0.6743242071258706 0.7384354160547222
12669133333.333334 -0.6682049413564186 0.7439772552616856 3.1369290163383666e-17 -6.752125580484114e-17 3.1369290163383666e-17 -6.752125580484114e-17 -0.668205406909815 0.7439768371235312
12669750666.666666 -0.6620406014926751 0.7494679726146158 3.0798814246940826e-17 -6.776743111967443e-17 3.0798814246940826e-17 -6.776743111967443e-17 -0.6620410704591067 0.7494675583540659
12670368000.0 -0.6558311455080331 0.7549076159249338 3.022641604404764e-17 -6.800879155601878e-17 3.022641604404764e-17 -6.800879155601878e-17 -0.6558316178552097 0.7549072055698393
