! Parameters = {f0=12700.012000; bw=77.238000; Q=6100.000000; N=10; m_0_1=1.256151; m_1_1=0.077522; m_1_2=1.090963; m_2_2=0.076873; m_2_3=0.727926; m_2_8=-0.000129; m_2_9=0.036575; m_3_3=0.074936; m_3_4=0.616455; m_3_7=0.000471; m_3_8=-0.096617; m_3_9=-0.000129; m_4_4=0.072011; m_4_5=0.452790; m_4_6=0.003988; m_4_7=-0.117166; m_4_8=0.000471; m_5_5=0.072393; m_5_6=0.860145; m_5_7=0.003988; m_6_6=0.072392; m_6_7=0.453132; m_7_7=0.072025; m_7_8=0.616573; m_8_8=0.074934; m_8_9=0.728239; m_9_9=0.076868; m_9_10=1.092041; m_10_10=0.077512; m_10_11=1.256946}
!
! Created with skrf (http://scikit-rf.org).
# Hz S RI R 50.0 
!freq ReS11 ImS11 ReS21 ImS21 ReS12 ImS12 ReS22 ImS22
12607400000.0 -0.9576267890094152 0.2880120361570741 8.661859980973987e-17 -5.676950028952345e-17 8.661859980973987e-17 -5.676950028952345e-17 -0.9576269796271402 0.2880114023611349
12608017333.333334 -0.9546650434331352 0.2976821372649672 8.601807787872094e-17 -5.763894304583607e-17 8.601807787872094e-17 -5.763894304583607e-17 -0.9546652404412747 0.2976815054601645
12608634666.666666 -0.9516056520512831 0.307321790610232 8.540883725700226e-17 -5.850204550001949e-17 8.540883725700226e-17 -5.850204550001949e-17 -0.9516058554290633 0.30732116086099065
12609252000.0 -0.9484489277870102 0.31693001022228645 8.479094476516323e-17 -5.935872030892408e-17 8.479094476516323e-17 -5.935872030892408e-17 -0.9484491375130054 0.31692938259281433
12609869333.333334 -0.9451951935189576 0.3265058133456237 8.416446809787823e-17 -6.02088808324359e-17 8.416446809787823e-17 -6.02088808324359e-17 -0.945195409571097 0.3265051878999061
12610486666.666666 -0.9418447820482525 0.33604822054030814 8.352947581654004e-17 -6.105244114220307e-17 8.352947581654004e-17 -6.105244114220307e-17 -0.9418450044038182 0.3360475973421001
12611104000.0 -0.9383980360643668 0.34555625578242066 8.288603734176883e-17 -6.18893160303228e-17 8.288603734176883e-17 -6.18893160303228e-17 -0.9383982647000009 0.34555563489524205
12611721333.333334 -0.9348553081102058 0.35502894656351675 8.223422294587966e-17 -6.271942101788857e-17 8.223422294587966e-17 -6.271942101788857e-17 -0.9348555430019079 0.3550283280506437
12612338666.666666 -0.9312169605459446 0.36446532399036186 8.157410374521332e-17 -6.354267236352619e-17 8.157410374521332e-17 -6.354267236352619e-17 -0.9312172016690793 0.3644647079148225
12612956000.0 -0.9274833655119722 0.3738644228840348 8.090575169241782e-17 -6.435898707180293e-17 8.090575169241782e-17 -6.435898707180293e-17 -0.9274836128412669 0.3738638093086011
12613573333.333334 -0.9236549048909128 0.38322528187840815 8.022923956864471e-17 -6.51682829015588e-17 8.022923956864471e-17 -6.51682829015588e-17 -0.9236551584004643 0.38322467086559064
12614190666.666666 -0.919731970268468 0.3925469435187457 7.954464097563636e-17 -6.59704783741876e-17 7.954464097563636e-17 -6.59704783741876e-17 -0.9197322299317425 0.39254633513078646
12614808000.0 -0.9157149628934121 0.4018284543595005 7.885203032775656e-17 -6.67654927818037e-17 7.885203032775656e-17 -6.67654927818037e-17 -0.9157152286832495 0.40182784865836707
12615425333.333334 -0.9116042936365549 0.41106886506183643 7.815148284392895e-17 -6.755324619533912e-17 7.815148284392895e-17 -6.755324619533912e-17 -0.9116045655251716 0.4110682621092159
12616042666.666666 -0.9074003829486695 0.4202672304908338 7.744307453949862e-17 -6.833365947255181e-17 7.744307453949862e-17 -6.833365947255181e-17 -0.9074006609076606 0.4202666303481259
12616660000.0 -0.9031036608175584 0.42942260981200436 7.672688221800425e-17 -6.910665426596023e-17 7.672688221800425e-17 -6.910665426596023e-17 -0.9031039448179004 0.4294220125403151
12617277333.333334 -0.8987145667240103 0.4385340665876504 7.600298346288884e-17 -6.987215303067193e-17 7.600298346288884e-17 -6.987215303067193e-17 -0.898714856736066 0.43853347224778694
12617894666.666666 -0.8942335495969286 0.44760066887249533 7.527145662912559e-17 -7.063007903213505e-17 7.527145662912559e-17 -7.063007903213505e-17 -0.8942338455904469 0.44760007752495823
12618512000.0 -0.8896610677672705 0.4566214893092838 7.453238083474368e-17 -7.138035635382553e-17 7.453238083474368e-17 -7.138035635382553e-17 -0.8896613697113926 0.4566209010142618
12619129333.333334 -0.8849975889213462 0.46559560522327836 7.378583595232713e-17 -7.212290990479517e-17 7.378583595232713e-17 -7.212290990479517e-17 -0.8849978967846085 0.46559502004064285
12619746666.666666 -0.8802435900528597 0.4745220987168901 7.303190260038978e-17 -7.28576654271821e-17 7.303190260038978e-17 -7.28576654271821e-17 -0.8802439038031944 0.474521516706187
12620364000.0 -0.8753995574141091 0.48340005676355724 7.227066213469544e-17 -7.358454950360953e-17 7.227066213469544e-17 -7.358454950360953e-17 -0.8753998770188517 0.4833994779840037
12620981333.333334 -0.8704659864663817 0.4922285713009121 7.150219663952496e-17 -7.430348956447694e-17 7.150219663952496e-17 -7.430348956447694e-17 -0.8704663118922705 0.49222799581138793
12621598666.666666 -0.8654433818291373 0.5010067393239076 7.072658891883247e-17 -7.501441389519642e-17 7.072658891883247e-17 -7.501441389519642e-17 -0.8654437130423195 0.5010061671829512
12622216000.0 -0.8603322572284774 0.5097336629770307 6.994392248735111e-17 -7.571725164331673e-17 6.994392248735111e-17 -7.571725164331673e-17 -0.8603325941945106 0.5097330942428314
12622833333.333334 -0.8551331354445135 0.5184084496462836 6.915428156163504e-17 -7.641193282554919e-17 6.915428156163504e-17 -7.641193282554919e-17 -0.8551334781283713 0.5184078843766773
12623450666.666666 -0.8498465482580407 0.5270302120502398 6.835775105102367e-17 -7.709838833470872e-17 6.835775105102367e-17 -7.709838833470872e-17 -0.849846896624115 0.5270296503027022
12624068000.0 -0.8444730363960179 0.5355980683310182 6.755441654852817e-17 -7.777654994656836e-17 6.755441654852817e-17 -7.777654994656836e-17 -0.8444733904081221 0.5355975101626588
12624685333.333334 -0.8390131494762522 0.5441111421444768 6.674436432165695e-17 -7.844635032661328e-17 6.674436432165695e-17 -7.844635032661328e-17 -0.8390135090976273 0.5441105876120342
12625302666.666666 -0.8334674459513427 0.5525685627496134 6.592768130319938e-17 -7.910772303667925e-17 6.592768130319938e-17 -7.910772303667925e-17 -0.8334678111446582 0.5525680119094479
12625920000.0 -0.8278364930513228 0.5609694650979808 6.510445508188762e-17 -7.976060254154176e-17 6.510445508188762e-17 -7.976060254154176e-17 -0.8278368637786833 0.5609689180060706
12626537333.333334 -0.8221208667258642 0.5693129899218368 6.427477389305962e-17 -8.04049242153553e-17 6.427477389305962e-17 -8.04049242153553e-17 -0.8221212429488111 0.5693124466337703
12627154666.666666 -0.8163211515852737 0.5775982838221738 6.343872660921528e-17 -8.104062434803013e-17 6.343872660921528e-17 -8.104062434803013e-17 -0.8163215332647904 0.5775977443931456
12627772000.0 -0.810437940840598 0.5858244993561469 6.259640273049796e-17 -8.166764015152005e-17 6.259640273049796e-17 -8.166764015152005e-17 -0.8104383279371131 0.5858239638409509
12628389333.333334 -0.8044718362431772 0.5939907951234257 6.17478923751846e-17 -8.228590976595854e-17 6.17478923751846e-17 -8.228590976595854e-17 -0.8044722287165702 0.593990263576451
12629006666.666666 -0.7984234480228666 0.6020963358525815 6.089328627002393e-17 -8.289537226576482e-17 6.089328627002393e-17 -8.289537226576482e-17 -0.7984238458324713 0.602095808327806
12629624000.0 -0.7922933948257359 0.6101402924863583 6.003267574058789e-17 -8.349596766559609e-17 6.003267574058789e-17 -8.349596766559609e-17 -0.7922937979303425 0.6101397690373421
12630241333.333334 -0.7860823036507903 0.6181218422664694 5.916615270152238e-17 -8.40876369262307e-17 5.916615270152238e-17 -8.40876369262307e-17 -0.7860827120086535 0.6181213229463519
12630858666.666666 -0.7797908097858804 0.6260401688177114 5.829380964676883e-17 -8.467032196033056e-17 5.829380964676883e-17 -8.467032196033056e-17 -0.7797912233547198 0.6260396536792034
12631476000.0 -0.7734195567425423 0.6338944622316852 5.74157396396908e-17 -8.524396563812827e-17 5.74157396396908e-17 -8.524396563812827e-17 -0.77341997547955 0.6338939513270654
12632093333.333334 -0.7669691961904088 0.6416839191493469 5.653203630319155e-17 -8.5808511792982e-17 5.653203630319155e-17 -8.5808511792982e-17 -0.7669696200522527 0.6416834125304559
12632710666.666666 -0.7604403878904519 0.649407742843314 5.564279380975491e-17 -8.636390522684192e-17 5.564279380975491e-17 -8.636390522684192e-17 -0.7604408168332784 0.6494072405615483
12633328000.0 -0.7538337996274026 0.657065143299461 5.4748106871411334e-17 -8.691009171562877e-17 5.4748106871411334e-17 -8.691009171562877e-17 -0.7538342336068442 0.657064645405769
12633945333.333334 -0.7471501071416187 0.6646553372975316 5.384807072969802e-17 -8.744701801447841e-17 5.384807072969802e-17 -8.744701801447841e-17 -0.7471505461127973 0.6646548438424085
12634562666.666666 -0.7403899940598724 0.6721775484913558 5.2942781145531177e-17 -8.79746318629062e-17 5.2942781145531177e-17 -8.79746318629062e-17 -0.7403904379774032 0.6721770595248375
12635180000.0 -0.7335541518254481 0.6796310074882366 5.203233438904294e-17 -8.849288198985788e-17 5.203233438904294e-17 -8.849288198985788e-17 -0.733554600643444 0.6796305230598938
12635797333.333334 -0.726643279627397 0.6870149519276628 5.1116827229364285e-17 -8.900171811865799e-17 5.1116827229364285e-17 -8.900171811865799e-17 -0.7266437332994754 0.6870144720865989
12636414666.666666 -0.7196580843291224 0.6943286265591858 5.0196356924372706e-17 -8.950109097184635e-17 5.0196356924372706e-17 -8.950109097184635e-17 -0.7196585428084089 0.6943281513540303
12637032000.0 -0.7125992803958844 0.7015712833198747 4.927102121037034e-17 -8.999095227592123e-17 4.927102121037034e-17 -8.999095227592123e-17 -0.7125997436350167 0.7015708127987771
12637649333.333334 -0.7054675898219155 0.7087421814106211 4.834091829172878e-17 -9.0471254765969e-17 4.834091829172878e-17 -9.0471254765969e-17 -0.7054680577730497 0.7087417156212475
12638266666.666666 -0.6982637420564777 0.7158405873720161 4.740614683050232e-17 -9.094195219018042e-17 4.740614683050232e-17 -9.094195219018042e-17 -0.698264214671292 0.7158401263615441
12638884000.0 -0.6909884739292709 0.7228657751593489 4.646680593597442e-17 -9.1402999314272e-17 4.646680593597442e-17 -9.1402999314272e-17 -0.6909889511589717 0.7228653189744628
12639501333.333334 -0.6836425295750463 0.7298170262168876 4.552299515417215e-17 -9.18543519257945e-17 4.552299515417215e-17 -9.18543519257945e-17 -0.6836430113703732 0.7298165749037737
12640118666.666666 -0.6762266603576201 0.7366936295512594 4.457481445735484e-17 -9.229596683832567e-17 4.457481445735484e-17 -9.229596683832567e-17 -0.6762271466688504 0.7366931831556014
12640736000.0 -0.6687416247926898 0.7434948818044832 4.362236423340487e-17 -9.272780189558224e-17 4.362236423340487e-17 -9.272780189558224e-17 -0.6687421155696429 0.7434944403714567
12641353333.333334 -0.661188188470748 0.750220087325445 4.266574527528466e-17 -9.314981597537372e-17 4.266574527528466e-17 -9.314981597537372e-17 -0.6611886836627933 0.7502196508997151
12641970666.666666 -0.6535671239783419 0.7568685582414604 4.1705058770339533e-17 -9.356196899350106e-17 4.1705058770339533e-17 -9.356196899350106e-17 -0.6535676235344 0.7568681268671739
12642588000.0 -0.6458792108192554 0.763439614528434 4.074040628963239e-17 -9.39642219075138e-17 4.074040628963239e-17 -9.39642219075138e-17 -0.6458797146878071 0.7634391882492177
12643205333.333334 -0.6381252353347845 0.7699325840804211 3.977188977724019e-17 -9.435653672035946e-17 3.977188977724019e-17 -9.435653672035946e-17 -0.6381257434638739 0.7699321629393764
12643822666.666666 -0.6303059906231309 0.776346802778514 3.879961153948098e-17 -9.473887648393704e-17 3.879961153948098e-17 -9.473887648393704e-17 -0.6303065029603725 0.7763463868182134
12644440000.0 -0.6224222764585248 0.782681614558574 3.782367423414511e-17 -9.51112053025248e-17 3.782367423414511e-17 -9.51112053025248e-17 -0.6224227929511055 0.7826812038210537
12645057333.333334 -0.6144748992093086 0.7889363714784221 3.68441808596752e-17 -9.547348833610484e-17 3.68441808596752e-17 -9.547348833610484e-17 -0.6144754198039977 0.7889359660051821
12645674666.666666 -0.6064646717554864 0.7951104337840992 3.5861234744317625e-17 -9.58256918035754e-17 3.5861234744317625e-17 -9.58256918035754e-17 -0.6064651963986379 0.7951100336160963
12646292000.0 -0.5983924134054204 0.8012031699754217 3.48749395352248e-17 -9.616778298585883e-17 3.48749395352248e-17 -9.616778298585883e-17 -0.5983929420429801 0.8012027751530666
12646909333.333334 -0.5902589498123225 0.8072139568703469 3.388539918758588e-17 -9.649973022887681e-17 3.388539918758588e-17 -9.649973022887681e-17 -0.5902594823898323 0.8072135674334989
12647526666.666666 -0.5820651128895793 0.8131421796688881 3.289271795365315e-17 -9.682150294644156e-17 3.289271795365315e-17 -9.682150294644156e-17 -0.5820656493521835 0.8131417956568522
12648144000.0 -0.5738117407256821 0.8189872320159778 3.1897000371799206e-17 -9.71330716230137e-17 3.1897000371799206e-17 -9.71330716230137e-17 -0.5738122810181329 0.8189868534674997
12648761333.333334 -0.5654996774985963 0.8247485160634195 3.0898351255529565e-17 -9.743440781635528e-17 3.0898351255529565e-17 -9.743440781635528e-17 -0.565500221565261 0.8247481430166844
12649378666.666666 -0.5571297733894213 0.8304254425310437 2.9896875682473784e-17 -9.772548416006903e-17 2.9896875682473784e-17 -9.772548416006903e-17 -0.5571303211742854 0.8304250750236692
12649996000.0 -0.5487028844953349 0.8360174307670429 2.8892678983336574e-17 -9.800627436602947e-17 2.8892678983336574e-17 -9.800627436602947e-17 -0.5487034359420089 0.836017068836075
12650613333.333334 -0.5402198727420044 0.8415239088073739 2.788586673084915e-17 -9.827675322669435e-17 2.788586673084915e-17 -9.827675322669435e-17 -0.54022042779373 0.841523552489286
12651230666.666666 -0.5316816057956649 0.8469443134341069 2.6876544728702718e-17 -9.853689661730234e-17 2.6876544728702718e-17 -9.853689661730234e-17 -0.5316821643953213 0.8469439627647952
12651848000.0 -0.5230889569740405 0.8522780902332519 2.5864819000425735e-17 -9.878668149796714e-17 2.5864819000425735e-17 -9.878668149796714e-17 -0.5230895190641485 0.8522777452480301
12652465333.333334 -0.5144428051572526 0.8575246936513051 2.485079577828176e-17 -9.902608591564665e-17 2.485079577828176e-17 -9.902608591564665e-17 -0.5144433706799829 0.8575243543849038
12653082666.666666 -0.5057440346979333 0.8626835870510604 2.383458149215319e-17 -9.925508900599943e-17 2.383458149215319e-17 -9.925508900599943e-17 -0.5057446035951102 0.8626832535376203
12653700000.0 -0.49699353533052193 0.8677542427666356 2.2816282758351867e-17 -9.947367099513898e-17 2.2816282758351867e-17 -9.947367099513898e-17 -0.4969941075436309 0.867753915039707
12654317333.333334 -0.488192202080607 0.8727361421572482 2.1796006368497002e-17 -9.968181320125623e-17 2.1796006368497002e-17 -9.968181320125623e-17 -0.48819277755079926 0.8727358202497846
12654934666.666666 -0.47934093517313203 0.8776287756604008 2.0773859278308294e-17 -9.987949803614299e-17 2.0773859278308294e-17 -9.987949803614299e-17 -0.4793415138412327 0.8776284596047599
12655552000.0 -0.4704406399403207 0.8824316428440057 1.9749948596414625e-17 -1.0006670900659507e-16 1.9749948596414625e-17 -1.0006670900659507e-16 -0.47044122174683195 0.8824313326719404
12656169333.333334 -0.4614922267292956 0.8871442524574371 1.8724381573176834e-17 -1.0024343071569527e-16 1.8724381573176834e-17 -1.0024343071569527e-16 -0.46149281161440614 0.8871439482000985
12656786666.666666 -0.45249661080874726 0.8917661224819126 1.769726558944904e-17 -1.0040964886399315e-16 1.769726558944904e-17 -1.0040964886399315e-16 -0.4524971987123358 0.8917658241698421
12657404000.0 -0.4434547122753382 0.8962967801797717 1.6668708145359048e-17 -1.0056535025056337e-16 1.6668708145359048e-17 -1.0056535025056337e-16 -0.4434553031369807 0.8962964878428997
12658021333.333334 -0.4343674559596941 0.9007357621427781 1.5638816849089343e-17 -1.0071052277394829e-16 1.5638816849089343e-17 -1.0071052277394829e-16 -0.4343680497186703 0.9007354758104221
12658638666.666666 -0.42523577133183815 0.9050826143395116 1.460769940564289e-17 -1.0084515543298856e-16 1.460769940564289e-17 -1.0084515543298856e-16 -0.4252363679271368 0.9050823340403709
12659256000.0 -0.41606059240588966 0.9093368921619145 1.3575463605574235e-17 -1.0096923832754121e-16 1.3575463605574235e-17 -1.0096923832754121e-16 -0.41606119177621576 0.9093366179240688
12659873333.333334 -0.4068428576447613 0.9134981604706566 1.2542217313767931e-17 -1.0108276265907676e-16 1.2542217313767931e-17 -1.0108276265907676e-16 -0.406843459728542 0.9134978923215636
12660490666.666666 -0.3975835098641726 0.9175659936396473 1.1508068458187829e-17 -1.0118572073116552e-16 1.1508068458187829e-17 -1.0118572073116552e-16 -0.3975841145995637 0.9175657316061394
12661108000.0 -0.388283496135956 0.9215399755996847 1.047312501859525e-17 -1.0127810594985092e-16 1.047312501859525e-17 -1.0127810594985092e-16 -0.3882841034608476 0.9215397197079651
12661725333.333334 -0.37894376769155064 0.9254196998808492 9.437495015335384e-18 -1.0135991282390162e-16 9.437495015335384e-18 -1.0135991282390162e-16 -0.3789443775435744 0.925419450156491
12662342666.666666 -0.36956527982442267 0.9292047696542054 8.401286498054695e-18 -1.0143113696495565e-16 8.401286498054695e-18 -1.0143113696495565e-16 -0.3695658921409579 0.9292045261221488
12662960000.0 -0.36014899179248483 0.9328947977723349 7.364607534451312e-18 -1.0149177508754622e-16 7.364607534451312e-18 -1.0149177508754622e-16 -0.36014960651066485 0.9328945604568836
12663577333.333334 -0.3506958667199551 0.9364894068089445 6.327566199039537e-18 -1.0154182500901233e-16 6.327566199039537e-18 -1.0154182500901233e-16 -0.3506964837766735 0.9364891757337643
12664194666.666666 -0.3412068714988718 0.9399882290974616 5.290270561892043e-18 -1.0158128564929701e-16 5.290270561892043e-18 -1.0158128564929701e-16 -0.34120749083078955 0.9399880042855786
12664812000.0 -0.331682976690091 0.9433909067686785 4.252828677401313e-18 -1.0161015703062889e-16 4.252828677401313e-18 -1.0161015703062889e-16 -0.3316835982336427 0.9433906882424758
12665429333.333334 -0.32212515642414796 0.9466970917873084 3.2153485730413804e-18 -1.0162844027709058e-16 3.2153485730413804e-18 -1.0162844027709058e-16 -0.3221257801155476 0.946696879568523
12666046666.666666 -0.3125343883016476 0.9499064459875738 2.1779382381540536e-18 -1.0163613761407195e-16 2.1779382381540536e-18 -1.0163613761407195e-16 -0.3125350140768961 0.9499062400972963
12666664000.0 -0.3029116532930042 0.9530186411078887 1.1407056126972334e-18 -1.0163325236760931e-16 1.1407056126972334e-18 -1.0163325236760931e-16 -0.30291228108789575 0.9530184415665609
12667281333.333334 -0.2932579356384818 0.9560333588243061 1.0375857607790355e-19 -1.0161978896361005e-16 1.0375857607790355e-19 -1.0161978896361005e-16 -0.29325856538860984 0.9560331656517169
12667898666.666666 -0.28357422274725375 0.9589502907831668 -9.327950640880232e-19 -1.0159575292696376e-16 -9.327950640880232e-19 -1.0159575292696376e-16 -0.28357485438801805 0.9589501039984523
12668516000.0 -0.2738615050964062 0.9617691386326346 -1.968847583146225e-18 -1.0156115088053826e-16 -1.968847583146225e-18 -1.0156115088053826e-16 -0.27386213856302 0.9617689582542773
12669133333.333334 -0.264120776129876 0.9644896140531432 -3.00429135056442e-18 -1.0151599054406379e-16 -3.00429135056442e-18 -1.0151599054406379e-16 -0.26412141135737166 0.9644894400989671
12669750666.666666 -0.25435303215656485 0.9671114387869638 -4.039018841119079e-18 -1.0146028073290128e-16 -4.039018841119079e-18 -1.0146028073290128e-16 -0.25435366907980095 0.9671112712741339
12670368000.0 -0.24455927224854299 0.9696343446666345 -5.0729226460292854e-18 -1.0139403135669841e-16 -5.0729226460292854e-18 -1.0139403135669841e-16 -0.24455991080221123 0.969634183611656
