! Parameters = {f0=12700.012000; bw=77.238000; Q=6100.000000; N=10; m_0_1=1.348644; m_1_1=1.464909; m_1_2=1.183456; m_2_2=1.464260; m_2_3=0.820419; m_2_8=0.004496; m_2_9=0.041200; m_3_3=1.462323; m_3_4=0.708948; m_3_7=0.005096; m_3_8=-0.091992; m_3_9=0.004496; m_4_4=1.459398; m_4_5=0.545283; m_4_6=0.008613; m_4_7=-0.112541; m_4_8=0.005096; m_5_5=1.459780; m_5_6=0.952638; m_5_7=0.008613; m_6_6=1.459779; m_6_7=0.545625; m_7_7=1.459412; m_7_8=0.709066; m_8_8=1.462321; m_8_9=0.820732; m_9_9=1.464255; m_9_10=1.184534; m_10_10=1.464899; m_10_11=1.349439}
!
! Created with skrf (http://scikit-rf.org).
# Hz S RI R 50.0 
!freq ReS11 ImS11 ReS21 ImS21 ReS12 ImS12 ReS22 ImS22
12607400000.0 -0.9292582593783644 -0.369430761275902 1.5742428420728513e-16 1.4268037971277588e-17 1.5742428420728513e-16 1.4268037971277588e-17 -0.9292579969367488 -0.36943142141526397
12608017333.333334 -0.9339278294589642 -0.357461619424897 1.5756482978831628e-16 1.2227979477896563e-17 1.5756482978831628e-16 1.2227979477896563e-17 -0.9339275755325831 -0.35746228284901854
12608634666.666666 -0.9384432405159382 -0.34543347308815703 1.5767895219365548e-16 1.0186673409951973e-17 1.5767895219365548e-16 1.0186673409951973e-17 -0.938442995145872 -0.3454341396872143
12609252000.0 -0.942803747212016 -0.3333483076944922 1.5776664267311825e-16 8.144461825145127e-18 1.5776664267311825e-16 8.144461825145127e-18 -0.9428035104379271 -0.33334897735814745
12609869333.333334 -0.9470086297792113 -0.32120811808468075 1.5782789690226173e-16 6.101686798732387e-18 1.5782789690226173e-16 6.101686798732387e-18 -0.9470084016393384 -0.3212087907021008
12610486666.666666 -0.9510571941376186 -0.30901490818224536 1.578627149813726e-16 4.058690366373112e-18 1.578627149813726e-16 4.058690366373112e-18 -0.9510569746687735 -0.309015583642121
12611104000.0 -0.9549487720101467 -0.2967706906621916 1.578711014337227e-16 2.0158144667733612e-18 1.578711014337227e-16 2.0158144667733612e-18 -0.9549485612477053 -0.2967713688527552
12611721333.333334 -0.9586827210326441 -0.2844774866193226 1.5785306520307704e-16 -2.6599115317733413e-20 1.5785306520307704e-16 -2.6599115317733413e-20 -0.9586825190105426 -0.2844781674283667
12612338666.666666 -0.962258424860007 -0.2721373252344123 1.578086196504684e-16 -2.0682088063327058e-18 1.578086196504684e-16 -2.0682088063327058e-18 -0.9622582316107344 -0.272138008549308
12612956000.0 -0.965675293267974 -0.25975224343903824 1.5773778255023262e-16 -4.1086733009091716e-18 1.5773778255023262e-16 -4.1086733009091716e-18 -0.9656751088225697 -0.2597529291467544
12613573333.333334 -0.9689327622504007 -0.24732428557990266 1.57640576085309e-16 -6.147651618855101e-18 1.57640576085309e-16 -6.147651618855101e-18 -0.9689325866384471 -0.2473249735670243
12614190666.666666 -0.9720302941125089 -0.23485550308083453 1.5751702684180127e-16 -8.184803162127014e-18 1.5751702684180127e-16 -8.184803162127014e-18 -0.9720301273621264 -0.23485619323358098
12614808000.0 -0.9749673775595497 -0.22234795410449895 1.5736716580280952e-16 -1.0219787771587526e-17 1.5736716580280952e-16 -1.0219787771587526e-17 -0.9749672196973957 -0.222348646308744
12615425333.333334 -0.9777435277812726 -0.20980370321239114 1.571910283415238e-16 -1.2252265783801693e-17 1.571910283415238e-16 -1.2252265783801693e-17 -0.9777433788325338 -0.2098043973536808
12616042666.666666 -0.9803582865318691 -0.1972248210243805 1.5698865421358871e-16 -1.4281898087638526e-17 1.5698865421358871e-16 -1.4281898087638526e-17 -0.9803581465202581 -0.1972255169879521
12616660000.0 -0.9828112222056662 -0.18461338387670168 1.567600875487407e-16 -1.6308346180758205e-17 1.567600875487407e-16 -1.6308346180758205e-17 -0.9828110911534182 -0.1846140815475032
12617277333.333334 -0.9851019299083558 -0.17197147347927938 1.5650537684170814e-16 -1.8331272226064497e-17 1.5650537684170814e-16 -1.8331272226064497e-17 -0.9851018078362261 -0.1719721727419883
12617894666.666666 -0.9872300315238306 -0.1593011765721104 1.5622457494239828e-16 -2.035033910789016e-17 1.5622457494239828e-16 -2.035033910789016e-17 -0.9872299184510889 -0.1593018773111525
12618512000.0 -0.9891951757765943 -0.14660458458081482 1.5591773904534266e-16 -2.2365210488181952e-17 1.5591773904534266e-16 -2.2365210488181952e-17 -0.9891950717210246 -0.14660528668038392
12619129333.333334 -0.9909970382897506 -0.13388379327141542 1.555849306784396e-16 -2.4375550862391664e-17 1.555849306784396e-16 -2.4375550862391664e-17 -0.9909969432676455 -0.13388449661549176
12619746666.666666 -0.9926353216385337 -0.1211409024044548 1.5522621569095654e-16 -2.6381025615338744e-17 1.5522621569095654e-16 -2.6381025615338744e-17 -0.9926352356646936 -0.12114160687682464
12620364000.0 -0.99410975539944 -0.10837801538811637 1.548416642408261e-16 -2.8381301076813525e-17 1.548416642408261e-16 -2.8381301076813525e-17 -0.9941096784871705 -0.10837872087239113
12620981333.333334 -0.995420096194791 -0.09559723893164554 1.5443135078123097e-16 -3.0376044577001366e-17 1.5443135078123097e-16 -3.0376044577001366e-17 -0.9954200283559007 -0.09559794531128103
12621598666.666666 -0.9965661277329982 -0.08280068269681469 1.5399535404645675e-16 -3.2364924501796354e-17 1.5399535404645675e-16 -3.2364924501796354e-17 -0.9965660689777972 -0.08280138985513034
12622216000.0 -0.9975476608441947 -0.06999045895031279 1.535337570370516e-16 -3.434761034783793e-17 1.535337570370516e-16 -3.434761034783793e-17 -0.9975476111814934 -0.06999116677051094
12622833333.333334 -0.9983645335114982 -0.05716868221474436 1.5304664700427545e-16 -3.6323772777348946e-17 1.5304664700427545e-16 -3.6323772777348946e-17 -0.9983644929486027 -0.057169390579929376
12623450666.666666 -0.9990166108977264 -0.0443374689198784 1.525341154338391e-16 -3.8293083672792724e-17 1.525341154338391e-16 -3.8293083672792724e-17 -0.9990165794404441 -0.04433817771307634
12624068000.0 -0.9995037853676845 -0.031498937053016395 1.5199625802893754e-16 -4.025521619130377e-17 1.5199625802893754e-16 -4.025521619130377e-17 -0.9995037630203161 -0.03149964615719395
12624685333.333334 -0.9998259765059171 -0.018655205809385445 1.5143317469259444e-16 -4.2209844818849584e-17 1.5143317469259444e-16 -4.2209844818849584e-17 -0.9998259632712603 -0.01865591510746949
12625302666.666666 -0.9999831311299738 -0.005808395242673884 1.508449695093177e-16 -4.415664542413227e-17 1.508449695093177e-16 -4.415664542413227e-17 -0.9999831270093225 -0.0058091046175707374
12625920000.0 -0.9999752232992014 0.007039374085427244 1.5023175072602432e-16 -4.609529531236628e-17 1.5023175072602432e-16 -4.609529531236628e-17 -0.9999752282923448 0.007038664750812504
12626537333.333334 -0.9998022543190173 0.019885981454630067 1.4959363073233613e-16 -4.802547327858886e-17 1.4959363073233613e-16 -4.802547327858886e-17 -0.9998022684242398 0.019885272277374254
12627154666.666666 -0.9994642527406981 0.03272930633667543 1.4893072604014215e-16 -4.994685966087253e-17 1.4893072604014215e-16 -4.994685966087253e-17 -0.9994642759547819 0.032728597433817994
12627772000.0 -0.9989612743566668 0.0455672287450743 1.4824315726248793e-16 -5.1859136393214506e-17 1.4824315726248793e-16 -5.1859136393214506e-17 -0.9989613066748897 0.0455665202335979
12628389333.333334 -0.9982934021912842 0.05839762958504382 1.4753104909181884e-16 -5.376198705805498e-17 1.4753104909181884e-16 -5.376198705805498e-17 -0.9982934436074218 0.058396921581855124
12629006666.666666 -0.997460746487134 0.07121839100352331 1.4679453027748894e-16 -5.565509693866704e-17 1.4679453027748894e-16 -5.565509693866704e-17 -0.9974607969934606 0.07121768362543361
12629624000.0 -0.9964634446868416 0.08402739673841754 1.4603373360267904e-16 -5.753815307102352e-17 1.4603373360267904e-16 -5.753815307102352e-17 -0.9964635042741323 0.08402669010212355
12630241333.333334 -0.9953016614103773 0.09682253246814514 1.4524879586056985e-16 -5.941084429556822e-17 1.4524879586056985e-16 -5.941084429556822e-17 -0.9953017300679089 0.09682182669020971
12630858666.666666 -0.9939755884278846 0.10960168616058268 1.444398578299188e-16 -6.127286130848982e-17 1.444398578299188e-16 -6.127286130848982e-17 -0.9939756661434391 0.10960098135741578
12631476000.0 -0.9924854446280277 0.1223627484216882 1.4360706424992417e-16 -6.31238967128059e-17 1.4360706424992417e-16 -6.31238967128059e-17 -0.9924855313878915 0.12236204470952725
12632093333.333334 -0.9908314759818492 0.13510361284374447 1.4275056379448816e-16 -6.496364506898507e-17 1.4275056379448816e-16 -6.496364506898507e-17 -0.9908315717708195 0.13510291033863572
12632710666.666666 -0.9890139555022123 0.14782217635277284 1.4187050904580108e-16 -6.679180294529569e-17 1.4187050904580108e-16 -6.679180294529569e-17 -0.9890140603035955 0.1478214751705518
12633328000.0 -0.9870331831986543 0.16051633955624012 1.4096705646726086e-16 -6.860806896783861e-17 1.4096705646726086e-16 -6.860806896783861e-17 -0.9870332969942714 0.16051563981251268
12633945333.333334 -0.9848894860279541 0.17318400708897658 1.4004036637583136e-16 -7.041214387005536e-17 1.4004036637583136e-16 -7.041214387005536e-17 -0.9848896087981439 0.1731833088990999
12634562666.666666 -0.9825832178400862 0.18582308795955343 1.3909060291367489e-16 -7.220373054205766e-17 1.3909060291367489e-16 -7.220373054205766e-17 -0.9825833495637075 0.185822391438617
12635180000.0 -0.980114759319876 0.19843149589504022 1.3811793401921305e-16 -7.398253407945612e-17 1.3811793401921305e-16 -7.398253407945612e-17 -0.9801148999743128 0.1984308011578468
12635797333.333334 -0.9774845179241142 0.21100714968565595 1.3712253139755694e-16 -7.574826183181728e-17 1.3712253139755694e-16 -7.574826183181728e-17 -0.9774846674852773 0.21100645684670252
12636414666.666666 -0.9746929278143659 0.22354797352796998 1.3610457049030395e-16 -7.750062345075707e-17 1.3610457049030395e-16 -7.750062345075707e-17 -0.9746930862566989 0.2235472827014292
12637032000.0 -0.971740449785189 0.23605189736810145 1.3506423044471816e-16 -7.923933093762898e-17 1.3506423044471816e-16 -7.923933093762898e-17 -0.9717406170816736 0.2360512086678028
12637649333.333334 -0.9686275711881922 0.24851685724285727 1.3400169408232176e-16 -8.096409869076987e-17 1.3400169408232176e-16 -8.096409869076987e-17 -0.968627747310349 0.24851617078226776
12638266666.666666 -0.9653548058515274 0.260940795620698 1.3291714786688924e-16 -8.267464355231927e-17 1.3291714786688924e-16 -8.267464355231927e-17 -0.9653549907694243 0.26094011151290414
12638884000.0 -0.9619226939950892 0.2733216617413097 1.3181078187180358e-16 -8.43706848546804e-17 1.3181078187180358e-16 -8.43706848546804e-17 -0.9619228876773465 0.2733209800989991
12639501333.333334 -0.9583318021413455 0.2856574119541138 1.30682789746862e-16 -8.605194446647706e-17 1.30682789746862e-16 -8.605194446647706e-17 -0.958332004555137 0.2856567328895551
12640118666.666666 -0.9545827230218354 0.2979460100555471 1.2953336868450363e-16 -8.771814683806275e-17 1.2953336868450363e-16 -8.771814683806275e-17 -0.9545829341328986 0.297945333680573
12640736000.0 -0.9506760754792477 0.3101854276254397 1.2836271938537678e-16 -8.936901904669699e-17 1.2836271938537678e-16 -8.936901904669699e-17 -0.9506762952518889 0.3101847540514285
12641353333.333334 -0.9466125043654445 0.322373644361296 1.2717104602348496e-16 -9.10042908410454e-17 1.2717104602348496e-16 -9.10042908410454e-17 -0.9466127327625419 0.322372973699152
12641970666.666666 -0.9423926804348427 0.334508648412316 1.2595855621058197e-16 -9.2623694685478e-17 1.2595855621058197e-16 -9.2623694685478e-17 -0.9423929174178564 0.3345079807724528
12642588000.0 -0.9380173002338049 0.3465884367111595 1.2472546096016453e-16 -9.422696580367038e-17 1.2472546096016453e-16 -9.422696580367038e-17 -0.9380175457627805 0.3465877722034807
12643205333.333334 -0.9334870859855681 0.35861101530485046 1.2347197465080796e-16 -9.581384222187196e-17 1.2347197465080796e-16 -9.581384222187196e-17 -0.9334873400191442 0.3586103540387317
12643822666.666666 -0.9288027854711628 0.37057439968353384 1.2219831498898087e-16 -9.738406481164282e-17 1.2219831498898087e-16 -9.738406481164282e-17 -0.9288030479665803 0.37057374176780583
12644440000.0 -0.9239651719058046 0.38247661510853 1.2090470297137022e-16 -9.893737733203716e-17 1.2090470297137022e-16 -9.893737733203716e-17 -0.9239654428189106 0.3824759606514594
12645057333.333334 -0.918975043811466 0.3943156969377645 1.1959136284658783e-16 -1.0047352647139161e-16 1.1959136284658783e-16 -1.0047352647139161e-16 -0.9189753230967225 0.39431504604703643
12645674666.666666 -0.9138332248849722 0.4060896909503297 1.1825852207640853e-16 -1.0199226188853097e-16 1.1825852207640853e-16 -1.0199226188853097e-16 -0.9138335124954631 0.40608904373303
12646292000.0 -0.9085405638619142 0.41779665366931545 1.1690641129641652e-16 -1.0349333625354132e-16 1.1690641129641652e-16 -1.0349333625354132e-16 -0.9085408597493548 0.41779601023191326
12646909333.333334 -0.90309793437676 0.4294346526821416 1.1553526427625314e-16 -1.0497650528789037e-16 1.1553526427625314e-16 -1.0497650528789037e-16 -0.903098238491505 0.4294340131304724
12647526666.666666 -0.8975062348185596 0.44100176695974247 1.1414531787925156e-16 -1.0644152780414228e-16 1.1414531787925156e-16 -1.0644152780414228e-16 -0.8975065471096093 0.4410011313989895
12648144000.0 -0.8917663881825724 0.4524960871738126 1.1273681202156732e-16 -1.0788816574513814e-16 1.1273681202156732e-16 -1.0788816574513814e-16 -0.8917667085975834 0.45249545570849053
12648761333.333334 -0.8858793419180402 0.4639157160117163 1.1130998963092342e-16 -1.0931618422252065e-16 1.1130998963092342e-16 -1.0931618422252065e-16 -0.8858796704033318 0.4639150887456526
12649378666.666666 -0.8798460677718206 0.47525876848961646 1.0986509660475337e-16 -1.10725351554838e-16 1.0986509660475337e-16 -1.10725351554838e-16 -0.8798464042723873 0.47525814552593676
12649996000.0 -0.8736675616277573 0.48652337226407844 1.0840238176789913e-16 -1.1211543930505606e-16 1.0840238176789913e-16 -1.1211543930505606e-16 -0.8736679060872747 0.4865227537051873
12650613333.333334 -0.8673448433425217 0.4977076679406697 1.0692209682985427e-16 -1.1348622231749435e-16 1.0692209682985427e-16 -1.1348622231749435e-16 -0.8673451957033574 0.4977070538882347
12651230666.666666 -0.8608789565772809 0.5088098093808875 1.0542449634154978e-16 -1.1483747875419454e-16 1.0542449634154978e-16 -1.1483747875419454e-16 -0.8608793167805051 0.5088091999358232
12651848000.0 -0.8542709686251718 0.5198279640073367 1.0390983765162194e-16 -1.1616899013077298e-16 1.0390983765162194e-16 -1.1616899013077298e-16 -0.8542713366105652 0.5198273592697866
12652465333.333334 -0.8475219702354099 0.5307603131057302 1.0237838086228821e-16 -1.174805413516447e-16 1.0237838086228821e-16 -1.174805413516447e-16 -0.8475223459414738 0.5307597131750511
12653082666.666666 -0.8406330754331296 0.5416050521252923 1.0083038878477981e-16 -1.1877192074466668e-16 1.0083038878477981e-16 -1.1877192074466668e-16 -0.8406334587970992 0.5416044571000388
12653700000.0 -0.8336054213353796 0.5523603909768212 9.926612689427217e-17 -1.200429200952537e-16 9.926612689427217e-17 -1.200429200952537e-16 -0.8336058122932299 0.5523598009547277
12654317333.333334 -0.8264401679637253 0.5630245543276889 9.768586328448822e-17 -1.212933346798161e-16 9.768586328448822e-17 -1.212933346798161e-16 -0.826440566450185 0.5630239694056544
12654934666.666666 -0.8191384980524969 0.5735957818953193 9.608986862177919e-17 -1.225229632986855e-16 9.608986862177919e-17 -1.225229632986855e-16 -0.8191389040010588 0.5735952021693922
12655552000.0 -0.8117016168535854 0.584072328737698 9.447841609886136e-17 -1.2373160830838149e-16 9.447841609886136e-17 -1.2373160830838149e-16 -0.8117020301965179 0.5840717543030596
12656169333.333334 -0.8041307519376614 0.5944524655411685 9.28517813881493e-17 -1.2491907565327298e-16 9.28517813881493e-17 -1.2491907565327298e-16 -0.804131172606017 0.5944518964921168
12656786666.666666 -0.7964271529914145 0.6047344789060684 9.121024259462159e-17 -1.2608517489667916e-16 9.121024259462159e-17 -1.2608517489667916e-16 -0.7964275809150444 0.6047339153360038
12657404000.0 -0.7885920916113061 0.6149166716295053 8.955408020840442e-17 -1.2722971925127422e-16 8.955408020840442e-17 -1.2722971925127422e-16 -0.7885925267188713 0.6149161136309153
12658021333.333334 -0.7806268610936757 0.6249973629855076 8.78835770568605e-17 -1.2835252560895303e-16 8.78835770568605e-17 -1.2835252560895303e-16 -0.7806273033126584 0.6249968106499504
12658638666.666666 -0.7725327762212599 0.6349748890024516 8.619901825642108e-17 -1.2945341456998814e-16 8.619901825642108e-17 -1.2945341456998814e-16 -0.7725332254779745 0.6349743424205418
12659256000.0 -0.764311173046205 0.6448476027376836 8.450069116394452e-17 -1.3053221047162973e-16 8.450069116394452e-17 -1.3053221047162973e-16 -0.7643116292658125 0.6448470619990776
12659873333.333334 -0.755963408669347 0.6546138745495889 8.278888532779237e-17 -1.3158874141602033e-16 8.278888532779237e-17 -1.3158874141602033e-16 -0.7559638717758662 0.6546133397429695
12660490666.666666 -0.7474908610166071 0.6642720923661127 8.106389243856613e-17 -1.3262283929746506e-16 8.106389243856613e-17 -1.3262283929746506e-16 -0.7474913309329277 0.6642715635791758
12661108000.0 -0.7388949286109888 0.6738206619515047 7.932600627938414e-17 -1.336343398291304e-16 7.932600627938414e-17 -1.336343398291304e-16 -0.7388954052588834 0.6738201392709429
12661725333.333334 -0.7301770303423284 0.6832580071687864 7.757552267605478e-17 -1.3462308256895704e-16 7.757552267605478e-17 -1.3462308256895704e-16 -0.7301775136424666 0.6832574906802766
12662342666.666666 -0.7213386052325168 0.6925825702405521 7.581273944666208e-17 -1.355889109450781e-16 7.581273944666208e-17 -1.355889109450781e-16 -0.7213390951044785 0.6925820600287415
12662960000.0 -0.7123811121983901 0.7017928120056434 7.403795635103499e-17 -1.3653167228046244e-16 7.403795635103499e-17 -1.3653167228046244e-16 -0.7123816085606768 0.7017923081541331
12663577333.333334 -0.7033060298107161 0.7108872121734157 7.225147503982018e-17 -1.3745121781695075e-16 7.225147503982018e-17 -1.3745121781695075e-16 -0.7033065325807678 0.710886714764751
12664194666.666666 -0.6941148560501784 0.7198642695746493 7.045359900331286e-17 -1.38347402738597e-16 7.045359900331286e-17 -1.38347402738597e-16 -0.6941153651443841 0.7198637786903024
12664812000.0 -0.6848091080601062 0.7287225024093357 6.864463351992167e-17 -1.3922008619438314e-16 6.864463351992167e-17 -1.3922008619438314e-16 -0.6848096233938208 0.7287220181296955
12665429333.333334 -0.6753903218960507 0.7374604484912741 6.682488560442438e-17 -1.4006913132022325e-16 6.682488560442438e-17 -1.4006913132022325e-16 -0.6753908433836061 0.7374599708956305
12666046666.666666 -0.6658600522722762 0.7460766654893883 6.499466395595467e-17 -1.4089440526029506e-16 6.499466395595467e-17 -1.4089440526029506e-16 -0.665860579826997 0.7460761946559201
12666664000.0 -0.6562198723049179 0.7545697311659939 6.315427890564681e-17 -1.4169577918772887e-16 6.315427890564681e-17 -1.4169577918772887e-16 -0.6562204058391364 0.7545692671717568
12667281333.333334 -0.6464713732527416 0.7629382436111838 6.130404236414849e-17 -1.424731283245598e-16 6.130404236414849e-17 -1.424731283245598e-16 -0.6464719126778115 0.7629377865320969
12667898666.666666 -0.6366161642540996 0.771180821474575 5.944426776876891e-17 -1.4322633196104908e-16 5.944426776876891e-17 -1.4322633196104908e-16 -0.6366167094804109 0.7711803713854085
12668516000.0 -0.626655872061357 0.7792961041932794 5.757527003047247e-17 -1.4395527347428048e-16 5.757527003047247e-17 -1.4395527347428048e-16 -0.6266564229983512 0.7792956611676431
12669133333.333334 -0.6165921407725895 0.7872827522163034 5.56973654806479e-17 -1.4465984034606943e-16 5.56973654806479e-17 -1.4465984034606943e-16 -0.6165926973287739 0.7872823163266336
12669750666.666666 -0.6064266315600262 0.7951394472258082 5.3810871817577603e-17 -1.453399241802081e-16 5.3810871817577603e-17 -1.453399241802081e-16 -0.6064271936429892 0.795139018543356
