! Parameters = {f0=12700.012000; bw=77.238000; Q=6100.000000; N=10; m_0_1=1.260756; m_1_1=0.146591; m_1_2=1.095568; m_2_2=0.145942; m_2_3=0.732531; m_2_8=0.000101; m_2_9=0.036805; m_3_3=0.144005; m_3_4=0.621060; m_3_7=0.000701; m_3_8=-0.096387; m_3_9=0.000101; m_4_4=0.141080; m_4_5=0.457395; m_4_6=0.004218; m_4_7=-0.116936; m_4_8=0.000701; m_5_5=0.141462; m_5_6=0.864750; m_5_7=0.004218; m_6_6=0.141461; m_6_7=0.457737; m_7_7=0.141094; m_7_8=0.621178; m_8_8=0.144003; m_8_9=0.732844; m_9_9=0.145937; m_9_10=1.096646; m_10_10=0.146581; m_10_11=1.261551}
!
! Created with skrf (http://scikit-rf.org).
# Hz S RI R 50.0 
!freq ReS11 ImS11 ReS21 ImS21 ReS12 ImS12 ReS22 ImS22
12607400000.0 0.9977138931316327 0.06757948987634499 -1.0330365078557166e-16 2.3141710846757828e-17 -1.0330365078557166e-16 2.3141710846757828e-17 0.9977138482412041 0.0675801526156425
12608017333.333334 0.9983541407409154 0.05734988810184752 -1.0303870480781707e-16 2.4203703628016392e-17 -1.0303870480781707e-16 2.4203703628016392e-17 0.9983541026474453 0.05735055123396664
12608634666.666666 0.9988895065858132 0.04711426145633324 -1.0276284894914961e-16 2.5262693414554987e-17 -1.0276284894914961e-16 2.5262693414554987e-17 0.9988894752926385 0.04711492491157384
12609252000.0 0.9993199344237218 0.036873685240207746 -1.024761169628088e-16 2.6318568209063946e-17 -1.024761169628088e-16 2.6318568209063946e-17 0.9993199099334629 0.03687434894884247
12609869333.333334 0.9996453790362673 0.026629235273737194 -1.0217854375092885e-16 2.7371216390936073e-17 -1.0217854375092885e-16 2.7371216390936073e-17 0.999645361350831 0.026629899166018975
12610486666.666666 0.9998658062340468 0.016381987784340756 -1.0187016536036452e-16 2.842052672802921e-17 -1.0187016536036452e-16 2.842052672802921e-17 0.999865795354625 0.016382651790510048
12611104000.0 0.9999811928602337 0.0061330192931019125 -1.0155101897838214e-16 2.9466388388428825e-17 -1.0155101897838214e-16 2.9466388388428825e-17 0.9999811887873035 0.006133683343394033
12611721333.333334 0.9999915267930027 -0.004116593497899016 -1.0122114292825281e-16 3.0508690952091274e-17 -1.0122114292825281e-16 3.0508690952091274e-17 0.9999915295263242 -0.0041159294732465565
12612338666.666666 0.9998968069468015 -0.014365773818981596 -1.0088057666470533e-16 3.154732442250466e-17 -1.0088057666470533e-16 3.154732442250466e-17 0.9998968164854222 -0.014365109889721757
12612956000.0 0.9996970432724697 -0.02461344494598494 -1.0052936076926467e-16 3.2582179238285505e-17 -1.0052936076926467e-16 3.2582179238285505e-17 0.9996970596147214 -0.024612781181853848
12613573333.333334 0.9993922567561925 -0.03485853031312687 -1.0016753694548893e-16 3.3613146284669906e-17 -1.0016753694548893e-16 3.3613146284669906e-17 0.9993922798996927 -0.03485786678383646
12614190666.666666 0.9989824794172941 -0.04509995362638638 -9.979514801406223e-17 3.464011690503564e-17 -9.979514801406223e-17 3.464011690503564e-17 0.9989825093589458 -0.045099290401617115
12614808000.0 0.9984677543048741 -0.05533663897643116 -9.941223790778817e-17 3.566298291231348e-17 -9.941223790778817e-17 3.566298291231348e-17 0.9984677910408666 -0.05533597612582467
12615425333.333334 0.9978481354932865 -0.06556751095167543 -9.901885166646025e-17 3.668163660036402e-17 -9.901885166646025e-17 3.668163660036402e-17 0.9978481790190956 -0.06556684854482726
12616042666.666666 0.9971236880764579 -0.07579149475125693 -9.861503543161673e-17 3.7695970755295644e-17 -9.861503543161673e-17 3.7695970755295644e-17 0.9971237383868468 -0.07579083285770917
12616660000.0 0.9962944881610502 -0.08600751629792125 -9.820083644118034e-17 3.870587866672574e-17 -9.820083644118034e-17 3.870587866672574e-17 0.9962945452500706 -0.08600685498715534
12617277333.333334 0.9953606228584567 -0.09621450235100065 -9.777630302398228e-17 3.971125413898349e-17 -9.777630302398228e-17 3.971125413898349e-17 0.9953606867194473 -0.09621384169242987
12617894666.666666 0.994322190275675 -0.10641138061885116 -9.734148459417402e-17 4.071199150225075e-17 -9.734148459417402e-17 4.071199150225075e-17 0.9943222609012647 -0.10641072068181359
12618512000.0 0.9931792995049612 -0.11659707987192652 -9.68964316455168e-17 4.170798562365862e-17 -9.68964316455168e-17 4.170798562365862e-17 0.9931793768870688 -0.11659642072567762
12619129333.333334 0.9919320706124123 -0.1267705300548916 -9.644119574557734e-17 4.26991319182814e-17 -9.644119574557734e-17 4.26991319182814e-17 0.991932154742248 -0.12676987176859703
12619746666.666666 0.9905806346253244 -0.1369306623993195 -9.597582952978804e-17 4.368532636011987e-17 -9.597582952978804e-17 4.368532636011987e-17 0.99058072549339 -0.13693000504204772
12620364000.0 0.9891251335184208 -0.1470764095359699 -9.550038669540498e-17 4.466646549299539e-17 -9.550038669540498e-17 4.466646549299539e-17 0.989125231114512 -0.1470757531766852
12620981333.333334 0.9875657201989767 -0.1572067056066683 -9.501492199536812e-17 4.5642446441355085e-17 -9.501492199536812e-17 4.5642446441355085e-17 0.9875658245121829 -0.15720605031422327
12621598666.666666 0.9859025584907148 -0.1673204863765609 -9.451949123202591e-17 4.661316692106199e-17 -9.451949123202591e-17 4.661316692106199e-17 0.9859026695094202 -0.16731983221968924
12622216000.0 0.984135823116612 -0.17741668934577612 -9.401415125077098e-17 4.757852525007456e-17 -9.401415125077098e-17 4.757852525007456e-17 0.9841359408284983 -0.1774160363930857
12622833333.333334 0.9822656996805376 -0.18749425386110177 -9.349895993355107e-17 4.85384203590898e-17 -9.349895993355107e-17 4.85384203590898e-17 0.9822658240725848 -0.18749360218106714
12623450666.666666 0.9802923846477749 -0.19755212122729965 -9.297397619229381e-17 4.949275180207445e-17 -9.297397619229381e-17 4.949275180207445e-17 0.9802925157062624 -0.1975514708882551
12624068000.0 0.9782160853243631 -0.20758923481843886 -9.243925996219781e-17 5.0441419766775797e-17 -9.243925996219781e-17 5.0441419766775797e-17 0.9782162230348713 -0.20758858588857101
12624685333.333334 0.976037019835285 -0.21760454018903724 -9.189487219492896e-17 5.138432508513651e-17 -9.189487219492896e-17 5.138432508513651e-17 0.976037164182697 -0.21760389273637804
12625302666.666666 0.9737554171016468 -0.22759698518439114 -9.134087485172622e-17 5.232136924361104e-17 -9.134087485172622e-17 5.232136924361104e-17 0.9737555680701505 -0.22759633927681094
12625920000.0 0.9713715168165172 -0.23756552005163753 -9.077733089636483e-17 5.325245439347254e-17 -9.077733089636483e-17 5.325245439347254e-17 0.9713716743896054 -0.23756487575683735
12626537333.333334 0.9688855694198354 -0.24750909754961833 -9.020430428805899e-17 5.41774833609702e-17 -9.020430428805899e-17 5.41774833609702e-17 0.9688857335803097 -0.24750845493512347
12627154666.666666 0.9662978360720711 -0.25742667305906625 -8.962185997423077e-17 5.509635965746193e-17 -8.962185997423077e-17 5.509635965746193e-17 0.9662980068020411 -0.2574260321922184
12627772000.0 0.963608588626736 -0.2673172046925095 -8.903006388317545e-17 5.600898748946939e-17 -8.903006388317545e-17 5.600898748946939e-17 0.9636087659076251 -0.2673165656404608
12628389333.333334 0.9608181096019316 -0.2771796534033439 -8.842898291665888e-17 5.691527176860216e-17 -8.842898291665888e-17 5.691527176860216e-17 0.9608182934144758 -0.27717901623304897
12629006666.666666 0.957926692150556 -0.2870129830954003 -8.781868494235863e-17 5.78151181214879e-17 -8.781868494235863e-17 5.78151181214879e-17 0.9579268824748083 -0.28701234787360974
12629624000.0 0.9549346400295909 -0.2968161607314902 -8.7199238786264e-17 5.870843289953242e-17 -8.7199238786264e-17 5.870843289953242e-17 0.9549348368449204 -0.2968155275247432
12630241333.333334 0.9518422675681429 -0.30658815644209525 -8.657071422493184e-17 5.959512318866561e-17 -8.657071422493184e-17 5.959512318866561e-17 0.9518424708532398 -0.30658752531671296
12630858666.666666 0.9486498996344811 -0.3163279436333694 -8.593318197767263e-17 6.04750968189634e-17 -8.593318197767263e-17 6.04750968189634e-17 0.948650109367358 -0.3163273146554477
12631476000.0 0.9453578716017778 -0.3260344990953939 -8.528671369860765e-17 6.13482623742298e-17 -8.528671369860765e-17 6.13482623742298e-17 0.9453580877597718 -0.3260338723307966
12632093333.333334 0.9419665293130414 -0.33570680310915546 -8.463138196867157e-17 6.221452920143723e-17 -8.463138196867157e-17 6.221452920143723e-17 0.9419667518728184 -0.33570617862350804
12632710666.666666 0.938476229044703 -0.3453438395539458 -8.39672602874875e-17 6.30738074201247e-17 -8.39672602874875e-17 6.30738074201247e-17 0.9384764579822561 -0.3453432174126269
12633328000.0 0.9348873374691385 -0.3549445960142129 -8.329442306513936e-17 6.392600793171912e-17 -8.329442306513936e-17 6.392600793171912e-17 0.9348875727597953 -0.3549439762823493
12633945333.333334 0.9312002316162403 -0.3645080638856811 -8.26129456138939e-17 6.477104242871258e-17 -8.26129456138939e-17 6.477104242871258e-17 0.9312004732346632 -0.36450744662814
12634562666.666666 0.9274152988337594 -0.37403323848144315 -8.19229041397861e-17 6.560882340380845e-17 -8.19229041397861e-17 6.560882340380845e-17 0.9274155467539476 -0.37403262376282526
12635180000.0 0.9235329367466207 -0.38351911913748005 -8.122437573413224e-17 6.643926415895247e-17 -8.122437573413224e-17 6.643926415895247e-17 0.9235331909419153 -0.3835185070221135
12635797333.333334 0.9195535532151425 -0.3929647093178125 -8.051743836494624e-17 6.726227881428054e-17 -8.051743836494624e-17 6.726227881428054e-17 0.9195538136582264 -0.392964099869745
12636414666.666666 0.9154775662922294 -0.40236901671908576 -7.98021708682755e-17 6.80777823169649e-17 -7.98021708682755e-17 6.80777823169649e-17 0.9154778329551324 -0.40236841000207885
12637032000.0 0.9113054041793898 -0.41173105337497373 -7.907865293942766e-17 6.888569044999043e-17 -7.907865293942766e-17 6.888569044999043e-17 0.9113056770334926 -0.4117304494524963
12637649333.333334 0.9070375051817976 -0.4210498357598649 -7.834696512412888e-17 6.968591984081614e-17 -7.834696512412888e-17 6.968591984081614e-17 0.9070377841978302 -0.421049234695085
12638266666.666666 0.9026743176622396 -0.43032438489218483 -7.760718880958663e-17 7.047838796995203e-17 -7.760718880958663e-17 7.047838796995203e-17 0.9026746028102919 -0.43032378674796573
12638884000.0 0.8982162999939755 -0.4395537264373488 -7.68594062154584e-17 7.126301317945019e-17 -7.68594062154584e-17 7.126301317945019e-17 0.8982165912434928 -0.4395531312762397
12639501333.333334 0.8936639205126341 -0.4487368908099886 -7.610370038475247e-17 7.203971468128054e-17 -7.610370038475247e-17 7.203971468128054e-17 0.8936642178324246 -0.44873629869421927
12640118666.666666 0.8890176574670452 -0.45787291327576335 -7.534015517463949e-17 7.280841256561805e-17 -7.534015517463949e-17 7.280841256561805e-17 0.889017960825283 -0.457872324267238
12640736000.0 0.8842779989688028 -0.4669608340530898 -7.456885524714405e-17 7.356902780906767e-17 -7.456885524714405e-17 7.356902780906767e-17 0.8842783083330299 -0.46696024821337984
12641353333.333334 0.8794454429412967 -0.47599969841336337 -7.378988605983648e-17 7.432148228271013e-17 -7.378988605983648e-17 7.432148228271013e-17 0.8794457582784287 -0.4759991158037018
12641970666.666666 0.8745204970671328 -0.4849885567817894 -7.300333385634803e-17 7.506569876014277e-17 -7.300333385634803e-17 7.506569876014277e-17 0.8745208183434594 -0.4849879774630633
12642588000.0 0.8695036787349228 -0.4939264648368849 -7.220928565687141e-17 7.580160092535636e-17 -7.220928565687141e-17 7.580160092535636e-17 0.8695040059161155 -0.4939258888696305
12643205333.333334 0.8643955149849278 -0.5028124836097136 -7.140782924856144e-17 7.652911338053276e-17 -7.140782924856144e-17 7.652911338053276e-17 0.8643958480360386 -0.5028119110541085
12643822666.666666 0.8591965424536243 -0.5116456795826242 -7.05990531758393e-17 7.724816165375697e-17 -7.05990531758393e-17 7.724816165375697e-17 0.859196881339093 -0.5116451104984816
12644440000.0 0.8539073073174022 -0.5204251247871984 -6.978304673066158e-17 7.795867220658928e-17 -6.978304673066158e-17 7.795867220658928e-17 0.8539076520010602 -0.5204245592339618
12645057333.333334 0.8485283652351755 -0.5291498969017648 -6.89598999426783e-17 7.86605724415671e-17 -6.89598999426783e-17 7.86605724415671e-17 0.8485287156802471 -0.5291493349385002
12645674666.666666 0.8430602812900204 -0.5378190793482678 -6.81297035693294e-17 7.935379070959145e-17 -6.81297035693294e-17 7.935379070959145e-17 0.8430606374591298 -0.5378185210336592
12646292000.0 0.8375036299296461 -0.5464317613888248 -6.729254908584831e-17 8.003825631722374e-17 -6.729254908584831e-17 8.003825631722374e-17 0.8375039917848183 -0.5464312067811662
12646909333.333334 0.8318589949063313 -0.5549870382209433 -6.644852867523946e-17 8.071389953384067e-17 -6.644852867523946e-17 8.071389953384067e-17 0.831859362408999 -0.5549864873781344
12647526666.666666 0.8261269692153901 -0.5634840110729155 -6.559773521813061e-17 8.138065159872624e-17 -6.559773521813061e-17 8.138065159872624e-17 0.8261273423263955 -0.5634834640524543
12648144000.0 0.8203081550328982 -0.5719217872981842 -6.474026228258266e-17 8.203844472803518e-17 -6.474026228258266e-17 8.203844472803518e-17 0.8203085337124993 -0.5719212441571623
12648761333.333334 0.8144031636525004 -0.5802994804690297 -6.387620411382526e-17 8.268721212165287e-17 -6.387620411382526e-17 8.268721212165287e-17 0.8144035478603732 -0.5802989412641247
12649378666.666666 0.8084126154211891 -0.5886162104696914 -6.300565562393809e-17 8.332688796993669e-17 -6.300565562393809e-17 8.332688796993669e-17 0.808413005116433 -0.5886156752571623
12649996000.0 0.8023371396740538 -0.5968711035889449 -6.21287123814299e-17 8.395740746037622e-17 -6.21287123814299e-17 8.395740746037622e-17 0.802337534815196 -0.5968705724246259
12650613333.333334 0.796177374668215 -0.6050632926118202 -6.124547060078192e-17 8.457870678412067e-17 -6.124547060078192e-17 8.457870678412067e-17 0.7961777752132143 -0.6050627655511148
12651230666.666666 0.7899339675158383 -0.6131919169106138 -6.035602713192672e-17 8.519072314239712e-17 -6.035602713192672e-17 8.519072314239712e-17 0.7899343734220914 -0.6131913940084897
12651848000.0 0.7836075741159877 -0.6212561225355325 -5.946047944962933e-17 8.579339475284203e-17 -5.946047944962933e-17 8.579339475284203e-17 0.7836079853403299 -0.6212556038465135
12652465333.333334 0.777198859085865 -0.6292550623041955 -5.85589256428518e-17 8.638666085568962e-17 -5.85589256428518e-17 8.638666085568962e-17 0.7771992755845792 -0.629254547882359
12653082666.666666 0.7707084956910186 -0.6371878958906197 -5.76514644040374e-17 8.697046171986241e-17 -5.76514644040374e-17 8.697046171986241e-17 0.7707089174198368 -0.637187385789589
12653700000.0 0.7641371657743551 -0.6450537899138047 -5.673819501829652e-17 8.754473864897331e-17 -5.673819501829652e-17 8.754473864897331e-17 0.7641375926884649 -0.6450532841867443
12654317333.333334 0.7574855596848737 -0.6528519180248461 -5.581921735261875e-17 8.810943398716046e-17 -5.581921735261875e-17 8.810943398716046e-17 0.7574859917389217 -0.6528514167244556
12654934666.666666 0.7507543762048872 -0.660581460994054 -5.489463184494191e-17 8.866449112486313e-17 -5.489463184494191e-17 8.866449112486313e-17 0.7507548133529847 -0.6605809641725624
12655552000.0 0.7439443224766247 -0.6682416067969904 -5.396453949320142e-17 8.920985450445866e-17 -5.396453949320142e-17 8.920985450445866e-17 0.7439447646723527 -0.6682411145061521
12656169333.333334 0.7370561139281169 -0.675831550699588 -5.302904184434539e-17 8.974546962577438e-17 -5.302904184434539e-17 8.974546962577438e-17 0.7370565611245312 -0.6758310629906762
12656786666.666666 0.730090474197847 -0.6833504953429034 -5.208824098324633e-17 9.027128305151202e-17 -5.208824098324633e-17 9.027128305151202e-17 0.730090926347481 -0.6833500122667039
12657404000.0 0.7230481350588205 -0.6907976508267735 -5.114223952159808e-17 9.078724241253414e-17 -5.114223952159808e-17 9.078724241253414e-17 0.7230485921136939 -0.6907971724335824
12658021333.333334 0.7159298363416559 -0.6981722347928461 -5.019114058674322e-17 9.129329641304537e-17 -5.019114058674322e-17 9.129329641304537e-17 0.7159302982532765 -0.698171761132461
12658638666.666666 0.7087363258569569 -0.7054734725066629 -4.9235047810470234e-17 9.178939483564493e-17 -4.9235047810470234e-17 9.178939483564493e-17 0.708736792576327 -0.7054730036283801
12659256000.0 0.7014683593165739 -0.7127005969392349 -4.827406531770898e-17 9.227548854629025e-17 -4.827406531770898e-17 9.227548854629025e-17 0.7014688307941961 -0.7127001328918432
12659873333.333334 0.6941267002543117 -0.719852848847519 -4.73082977152538e-17 9.275152949910264e-17 -4.73082977152538e-17 9.275152949910264e-17 0.6941271764401936 -0.7198523896792954
12660490666.666666 0.686712119945839 -0.7269294768540613 -4.633785008038998e-17 9.32174707410814e-17 -4.633785008038998e-17 9.32174707410814e-17 0.6867126007894984 -0.7269290226127655
12661108000.0 0.6792253973273779 -0.7339297375262113 -4.5362827949460756e-17 9.367326641670533e-17 -4.5362827949460756e-17 9.367326641670533e-17 0.6792258827778479 -0.7339292882590805
12661725333.333334 0.6716673189141792 -0.7408528954539261 -4.438333730645085e-17 9.41188717723851e-17 -4.438333730645085e-17 9.41188717723851e-17 0.6716678089200147 -0.7408524512076712
12662342666.666666 0.6640386787176693 -0.7476982233272452 -4.3399484571460256e-17 9.455424316082883e-17 -4.3399484571460256e-17 9.455424316082883e-17 0.664039173226951 -0.7476977841480441
12662960000.0 0.6563402781621392 -0.7544650020126007 -4.2411376589178524e-17 9.497933804526729e-17 -4.2411376589178524e-17 9.497933804526729e-17 0.65634077712248 -0.7544645679460946
12663577333.333334 0.6485729260005292 -0.7611525206283819 -4.1419120617302087e-17 9.539411500356599e-17 -4.1419120617302087e-17 9.539411500356599e-17 0.6485734293590797 -0.7611520917196712
12664194666.666666 0.6407374382294678 -0.7677600766196212 -4.042282431491754e-17 9.579853373221495e-17 -4.042282431491754e-17 9.579853373221495e-17 0.6407379459329213 -0.7677596529132596
12664812000.0 0.632834638003545 -0.7742869758317974 -3.942259573083282e-17 9.619255505020239e-17 -3.942259573083282e-17 9.619255505020239e-17 0.6328351499981438 -0.7742865573717876
12665429333.333334 0.624865355548815 -0.7807325325837788 -3.8418543291895827e-17 9.657614090275717e-17 -3.8418543291895827e-17 9.657614090275717e-17 0.6248658717803564 -0.7807321194135688
12666046666.666666 0.616830428075711 -0.7870960697397513 -3.741077579126672e-17 9.694925436497454e-17 -3.741077579126672e-17 9.694925436497454e-17 0.6168309484895521 -0.7870956619022289
12666664000.0 0.6087306996907348 -0.7933769187806364 -3.6399402376624657e-17 9.731185964533028e-17 -3.6399402376624657e-17 9.731185964533028e-17 0.6087312242317988 -0.7933765163181247
12667281333.333334 0.6005670213083393 -0.7995744198738834 -3.538453253840818e-17 9.766392208904852e-17 -3.538453253840818e-17 9.766392208904852e-17 0.6005675499211205 -0.7995740228281368
12667898666.666666 0.592340250560996 -0.8056879219432074 -3.436627609795684e-17 9.800540818137082e-17 -3.436627609795684e-17 9.800540818137082e-17 0.5923407831895683 -0.8056875303554083
12668516000.0 0.5840512517093461 -0.8117167827367949 -3.3344743195649624e-17 9.833628555069181e-17 -3.3344743195649624e-17 9.833628555069181e-17 0.5840517882973648 -0.8117163966475472
12669133333.333334 0.5757008955514953 -0.8176603688947105 -3.232004427904234e-17 9.865652297156258e-17 -3.232004427904234e-17 9.865652297156258e-17 0.5757014360422061 -0.8176599883440363
12669750666.666666 0.567290059331328 -0.8235180560155837 -3.1292290090909397e-17 9.896609036759323e-17 -3.1292290090909397e-17 9.896609036759323e-17 0.5672906036675727 -0.8235176810429202
12670368000.0 0.5588196266464407 -0.8292892287221395 -3.026159165732573e-17 9.926495881420767e-17 -3.026159165732573e-17 9.926495881420767e-17 0.5588201747706619 -0.8292888593663338
12670985333.333334 0.5502904873553843 -0.8349732807257977 -2.9228060275693e-17 9.95531005412875e-17 -2.9228060275693e-17 9.95531005412875e-17 0.550291039209633 -0.8349729170251033
