! Parameters = {f0=12700.012000; bw=77.238000; Q=6100.000000; N=10; m_0_1=1.292187; m_1_1=0.618062; m_1_2=1.126999; m_2_2=0.617413; m_2_3=0.763962; m_2_8=0.001673; m_2_9=0.038377; m_3_3=0.615476; m_3_4=0.652491; m_3_7=0.002273; m_3_8=-0.094815; m_3_9=0.001673; m_4_4=0.612551; m_4_5=0.488826; m_4_6=0.005790; m_4_7=-0.115364; m_4_8=0.002273; m_5_5=0.612933; m_5_6=0.896181; m_5_7=0.005790; m_6_6=0.612932; m_6_7=0.489168; m_7_7=0.612565; m_7_8=0.652609; m_8_8=0.615474; m_8_9=0.764275; m_9_9=0.617408; m_9_10=1.128077; m_10_10=0.618052; m_10_11=1.292982}
!
! Created with skrf (http://scikit-rf.org).
# Hz S RI R 50.0 
!freq ReS11 ImS11 ReS21 ImS21 ReS12 ImS12 ReS22 ImS22
12607400000.0 0.9974307348535716 -0.07163748438689117 -1.1481060108852508e-16 4.317676172912666e-17 -1.1481060108852508e-16 4.317676172912666e-17 0.9974307836212656 -0.07163680537604411
12608017333.333334 0.9965676039612323 -0.08278291330211643 -1.1429444181385893e-16 4.445891974476595e-17 -1.1429444181385893e-16 4.445891974476595e-17 0.9965676603135287 -0.08278223491206635
12608634666.666666 0.9955799364198623 -0.09391799719990247 -1.137639738219114e-16 4.5734931167573267e-17 -1.137639738219114e-16 4.5734931167573267e-17 0.995580000348976 -0.09391731951535978
12609252000.0 0.9944678556540019 -0.10504134457797669 -1.1321927005416396e-16 4.700463642642433e-17 -1.1321927005416396e-16 4.700463642642433e-17 0.9944679271512029 -0.10504066768355548
12609869333.333334 0.9932315006355488 -0.11615156540087067 -1.1266040523036858e-16 4.826787681306334e-17 -1.1266040523036858e-16 4.826787681306334e-17 0.9932315796911624 -0.11615088938107797
12610486666.666666 0.9918710258664309 -0.12724727127325927 -1.1208745583836723e-16 4.952449450191233e-17 -1.1208745583836723e-16 4.952449450191233e-17 0.9918711124698381 -0.12724659621248455
12611104000.0 0.9903866013592351 -0.13832707561399868 -1.115005001236806e-16 5.077433256977909e-17 -1.115005001236806e-16 5.077433256977909e-17 0.9903866954988745 -0.13832640159650314
12611721333.333334 0.9887784126160366 -0.1493895938287805 -1.1089961807891584e-16 5.201723501536427e-17 -1.1089961807891584e-16 5.201723501536427e-17 0.9887785142794071 -0.14938892093868697
12612338666.666666 0.9870466606051618 -0.16043344348363825 -1.1028489143290579e-16 5.325304677875091e-17 -1.1028489143290579e-16 5.325304677875091e-17 0.9870467697788222 -0.1604327718049202
12612956000.0 0.9851915617360723 -0.17145724447761787 -1.0965640363966968e-16 5.448161376068822e-17 -1.0965640363966968e-16 5.448161376068822e-17 0.9851916784056466 -0.1714565740940895
12613573333.333334 0.983213347832386 -0.1824596192149075 -1.0901423986714877e-16 5.57027828417681e-17 -1.0901423986714877e-16 5.57027828417681e-17 0.9832134719825618 -0.1824589502102129
12614190666.666666 0.9811122661028245 -0.1934391927774658 -1.0835848698572421e-16 5.691640190147896e-17 -1.0835848698572421e-16 5.691640190147896e-17 0.9811123977173558 -0.19343852523506846
12614808000.0 0.9788885791103826 -0.20439459309647495 -1.076892335565235e-16 5.812231983712543e-17 -1.076892335565235e-16 5.812231983712543e-17 0.9788887181720919 -0.2043939270996474
12615425333.333334 0.9765425647394704 -0.21532445112405388 -1.0700656981952286e-16 5.932038658259899e-17 -1.0700656981952286e-16 5.932038658259899e-17 0.9765427112302516 -0.21532378675586744
12616042666.666666 0.9740745161612324 -0.22622740100411884 -1.0631058768144391e-16 6.051045312700713e-17 -1.0631058768144391e-16 6.051045312700713e-17 0.9740746700620538 -0.22622673834743345
12616660000.0 0.9714847417968652 -0.23710208024329144 -1.0560138070342587e-16 6.169237153319127e-17 -1.0560138070342587e-16 6.169237153319127e-17 0.9714849030877697 -0.23710141938074458
12617277333.333334 0.9687735652791145 -0.247947129880968 -1.0487904408851708e-16 6.2865994956059e-17 -1.0487904408851708e-16 6.2865994956059e-17 0.9687737339392255 -0.24794647089496558
12617894666.666666 0.965941325411829 -0.2587611946592008 -1.0414367466894795e-16 6.403117766079819e-17 -1.0414367466894795e-16 6.403117766079819e-17 0.965941501419348 -0.2587605376319052
12618512000.0 0.9629883761275526 -0.2695429231922756 -1.0339537089318954e-16 6.518777504095963e-17 -1.0339537089318954e-16 6.518777504095963e-17 0.962988559459768 -0.26954226820559724
12619129333.333334 0.9599150864434196 -0.28029096813515075 -1.0263423281285798e-16 6.63356436363198e-17 -1.0263423281285798e-16 6.63356436363198e-17 0.9599152770767054 -0.28029031527073683
12619746666.666666 0.956721840414951 -0.2910039863521587 -1.0186036206936808e-16 6.747464115067301e-17 -1.0186036206936808e-16 6.747464115067301e-17 0.9567220383247718 -0.2910033356913831
12620364000.0 0.9534090370880389 -0.30168063908490383 -1.01073861880408e-16 6.860462646943918e-17 -1.01073861880408e-16 6.860462646943918e-17 0.9534092422489524 -0.3016799907088575
12620981333.333334 0.9499770904491722 -0.31231959211926325 -1.0027483702624599e-16 6.97254596770778e-17 -1.0027483702624599e-16 6.97254596770778e-17 0.949977302834832 -0.31231894610874317
12621598666.666666 0.9464264293736437 -0.32291951595230717 -9.946339383580796e-17 7.083700207439455e-17 -9.946339383580796e-17 7.083700207439455e-17 0.9464266489568038 -0.3229188723878072
12622216000.0 0.942757497571939 -0.3334790859584957 -9.863964017257442e-17 7.19391161956724e-17 -9.863964017257442e-17 7.19391161956724e-17 0.9427577243244556 -0.3334784449201958
12622833333.333334 0.9389707535343369 -0.343996982555048 -9.780368542030387e-17 7.303166582561682e-17 -9.780368542030387e-17 7.303166582561682e-17 0.9389709874271743 -0.3439963441228051
12623450666.666666 0.9350666704735827 -0.3544718913669541 -9.695564046854912e-17 7.411451601616409e-17 -9.695564046854912e-17 7.411451601616409e-17 0.9350669114768162 -0.35447125562029164
12624068000.0 0.9310457362657818 -0.3649025033911463 -9.609561769800226e-17 7.518753310310257e-17 -9.609561769800226e-17 7.518753310310257e-17 0.9310459843485999 -0.36490187040924416
12624685333.333334 0.9269084533893366 -0.3752875151603171 -9.522373096563285e-17 7.625058472255474e-17 -9.522373096563285e-17 7.625058472255474e-17 0.9269087085200466 -0.3752868850220018
12625302666.666666 0.9226553388623429 -0.3856256289053323 -9.434009558968976e-17 7.73035398272305e-17 -9.434009558968976e-17 7.73035398272305e-17 0.9226556010083744 -0.3856250016890675
12625920000.0 0.9182869241777372 -0.39591555271801393 -9.344482833446939e-17 7.834626870257508e-17 -9.344482833446939e-17 7.834626870257508e-17 0.9182871933056463 -0.39591492850189036
12626537333.333334 0.9138037552371121 -0.4061560007120046 -9.253804739494743e-17 7.937864298268968e-17 -9.253804739494743e-17 7.937864298268968e-17 0.9138040313125875 -0.40615537957373127
12627154666.666666 0.9092063922823658 -0.41634569318380427 -9.161987238122576e-17 8.040053566609001e-17 -9.161987238122576e-17 8.040053566609001e-17 0.9092066752702289 -0.4163450752006971
12627772000.0 0.9044954098256418 -0.42648335677276134 -9.069042430276716e-17 8.141182113132493e-17 -9.069042430276716e-17 8.141182113132493e-17 0.9044956996898552 -0.4264827420217346
12628389333.333334 0.899671396577741 -0.43656772461976096 -8.974982555254289e-17 8.241237515232213e-17 -8.974982555254289e-17 8.241237515232213e-17 0.8996716932814108 -0.43656711317731756
12629006666.666666 0.8947349553742894 -0.4465975365261066 -8.87981998909085e-17 8.34020749136636e-17 -8.87981998909085e-17 8.34020749136636e-17 0.8947352588796714 -0.44659692846832866
12629624000.0 0.8896867031006345 -0.456571539110512 -8.783567242939618e-17 8.438079902558366e-17 -8.783567242939618e-17 8.438079902558366e-17 0.8896870133691382 -0.4565709345130516
12630241333.333334 0.8845272706145824 -0.4664884859660901 -8.68623696143028e-17 8.534842753882433e-17 -8.68623696143028e-17 8.534842753882433e-17 0.8845275876067757 -0.4664878849041591
12630858666.666666 0.879257302667743 -0.4763471378157552 -8.587841921012179e-17 8.630484195929406e-17 -8.587841921012179e-17 8.630484195929406e-17 0.8792576263433575 -0.4763465403641163
12631476000.0 0.8738774578247074 -0.48614626266756905 -8.488395028279425e-17 8.724992526255545e-17 -8.488395028279425e-17 8.724992526255545e-17 0.8738777881426427 -0.48614566890052635
12632093333.333334 0.8683884083810283 -0.4958846359681689 -8.38790931828582e-17 8.818356190806481e-17 -8.38790931828582e-17 8.818356190806481e-17 0.8683887452993594 -0.49588404595955926
12632710666.666666 0.862790840279021 -0.5055610407561473 -8.286397952838556e-17 8.91056378532747e-17 -8.286397952838556e-17 8.91056378532747e-17 0.8627911837550023 -0.5055604545793309
12633328000.0 0.8570854530220842 -0.5151742678140542 -8.183874218776551e-17 9.001604056753637e-17 -8.183874218776551e-17 9.001604056753637e-17 0.8570858030121539 -0.5151736855419047
12633945333.333334 0.8512729595873109 -0.5247231158194573 -8.080351526238255e-17 9.091465904576384e-17 -8.080351526238255e-17 9.091465904576384e-17 0.8512733160470974 -0.5247225375243534
12634562666.666666 0.845354086336363 -0.5342063914951143 -7.975843406911174e-17 9.180138382192896e-17 -7.975843406911174e-17 9.180138382192896e-17 0.8453544492206919 -0.5342058172489311
12635180000.0 0.8393295729247634 -0.5436229097579975 -7.870363512265877e-17 9.267610698236337e-17 -7.870363512265877e-17 9.267610698236337e-17 0.8393299421876611 -0.543622339632097
12635797333.333334 0.8332001722093411 -0.5529714938675789 -7.763925611777255e-17 9.353872217884115e-17 -7.763925611777255e-17 9.353872217884115e-17 0.8332005478040415 -0.5529709279328013
12636414666.666666 0.8269666501543355 -0.5622509755725955 -7.65654359113291e-17 9.438912464144803e-17 -7.65654359113291e-17 9.438912464144803e-17 0.826967032033285 -0.5622504138992496
12637032000.0 0.8206297857354574 -0.5714601952573731 -7.548231450422133e-17 9.522721119128855e-17 -7.548231450422133e-17 9.522721119128855e-17 0.8206301738503238 -0.5714596379152296
12637649333.333334 0.814190370842737 -0.5805980020864567 -7.439003302317781e-17 9.605288025293203e-17 -7.439003302317781e-17 9.605288025293203e-17 0.8141907651444114 -0.580597449144737
12638266666.666666 0.8076492101814149 -0.5896632541486325 -7.328873370238888e-17 9.68660318666954e-17 -7.328873370238888e-17 9.68660318666954e-17 0.8076496106200222 -0.5896627056760029
12638884000.0 0.8010071211715176 -0.5986548185994457 -7.217855986504626e-17 9.766656770068059e-17 -7.217855986504626e-17 9.766656770068059e-17 0.8010075276964196 -0.5986542746640061
12639501333.333334 0.7942649338455556 -0.6075715718029717 -7.105965590470424e-17 9.845439106263532e-17 -7.105965590470424e-17 9.845439106263532e-17 0.7942653464053582 -0.6075710324722486
12640118666.666666 0.7874234907450348 -0.616412399471913 -6.993216726657713e-17 9.922940691155522e-17 -6.993216726657713e-17 9.922940691155522e-17 0.7874239092875961 -0.6164118648128518
12640736000.0 0.7804836468147579 -0.6251761968073909 -6.879624042860567e-17 9.999152186914501e-17 -6.879624042860567e-17 9.999152186914501e-17 0.7804840712871921 -0.6251756668863456
12641353333.333334 0.7734462692965384 -0.6338618686362862 -6.76520228825422e-17 1.0074064423096642e-16 -6.76520228825422e-17 1.0074064423096642e-16 0.7734466996452243 -0.6338613435190127
12641970666.666666 0.7663122376203367 -0.642468329548726 -6.649966311478589e-17 1.0147668397745641e-16 -6.649966311478589e-17 1.0147668397745641e-16 0.7663126737909248 -0.6424678093003736
12642588000.0 0.75908244329459 -0.6509945040334312 -6.533931058715973e-17 1.0219955278468756e-16 -6.533931058715973e-17 1.0219955278468756e-16 0.7590828852320083 -0.6509939887185349
12643205333.333334 0.7517577897948425 -0.6594393266120778 -6.417111571758235e-17 1.0290916403490062e-16 -6.417111571758235e-17 1.0290916403490062e-16 0.7517582374433034 -0.6594388162945487
12643822666.666666 0.7443391924506397 -0.6678017419726809 -6.299522986057455e-17 1.036054328268511e-16 -6.299522986057455e-17 1.036054328268511e-16 0.7443396457536475 -0.6678012367158004
12644440000.0 0.7368275783313833 -0.6760807051011942 -6.1811805287709e-17 1.0428827598589777e-16 -6.1811805287709e-17 1.0428827598589777e-16 0.7368280372317411 -0.6760802049676042
12645057333.333334 0.7292238861303117 -0.684275181412291 -6.062099516793488e-17 1.0495761207388078e-16 -6.062099516793488e-17 1.0495761207388078e-16 0.72922435057013 -0.6842746864639888
12645674666.666666 0.7215290660473527 -0.6923841468784891 -5.942295354776914e-17 1.0561336139879049e-16 -5.942295354776914e-17 1.0561336139879049e-16 0.7215295359680538 -0.6923836571768162
12646292000.0 0.713744079670084 -0.700406588158424 -5.821783533140751e-17 1.0625544602419658e-16 -5.821783533140751e-17 1.0625544602419658e-16 0.7137445550124117 -0.700406103764061
12646909333.333334 0.7058698998539807 -0.7083415027230505 -5.700579626074694e-17 1.0688378977844476e-16 -5.700579626074694e-17 1.0688378977844476e-16 0.7058703805580079 -0.7083410236960098
12647526666.666666 0.6979075106005106 -0.7161878989812772 -5.578699289528865e-17 1.074983182636377e-16 -5.578699289528865e-17 1.074983182636377e-16 0.6979079966056454 -0.7161874253808934
12648144000.0 0.6898579069342404 -0.7239447964037915 -5.456158259193246e-17 1.0809895886439299e-16 -5.456158259193246e-17 1.0809895886439299e-16 0.6898583981792339 -0.7239443282887155
12648761333.333334 0.6817220947786364 -0.7316112256454561 -5.332972348471795e-17 1.086856407563514e-16 -5.332972348471795e-17 1.086856407563514e-16 0.6817225912015915 -0.731610763073648
12649378666.666666 0.6735010908302173 -0.7391862286665838 -5.2091574464462786e-17 1.0925829491446123e-16 -5.2091574464462786e-17 1.0925829491446123e-16 0.6735015923685959 -0.7391857716953053
12649996000.0 0.6651959224315618 -0.7466688588525988 -5.084729515826638e-17 1.0981685412105334e-16 -5.084729515826638e-17 1.0981685412105334e-16 0.665196429022193 -0.7466684075384067
12650613333.333334 0.6568076274428237 -0.7540581811324284 -4.9597045908999543e-17 1.103612529736494e-16 -4.9597045908999543e-17 1.103612529736494e-16 0.656808139021912 -0.7540577355311672
12651230666.666666 0.6483372541122884 -0.7613532720951266 -4.83409877546679e-17 1.1089142789255795e-16 -4.83409877546679e-17 1.1089142789255795e-16 0.6483377706154189 -0.7613528322619199
12651848000.0 0.6397858609449913 -0.7685532201056052 -4.707928240768215e-17 1.1140731712824063e-16 -4.707928240768215e-17 1.1140731712824063e-16 0.6397863823071419 -0.7685527860948513
12652465333.333334 0.6311545165708079 -0.7756571254182401 -4.581209223411088e-17 1.1190886076841746e-16 -4.581209223411088e-17 1.1190886076841746e-16 0.6311550427263559 -0.7756566972836053
12653082666.666666 0.6224442996107643 -0.7826641002894434 -4.4539580232799066e-17 1.123960007449635e-16 -4.4539580232799066e-17 1.123960007449635e-16 0.6224448304934932 -0.7826636780838533
12653700000.0 0.6136562985420858 -0.7895732690887182 -4.326191001442913e-17 1.1286868084055926e-16 -4.326191001442913e-17 1.1286868084055926e-16 0.6136568340851958 -0.7895728528643531
12654317333.333334 0.6047916115625332 -0.7963837684078025 -4.197924578053902e-17 1.1332684669509587e-16 -4.197924578053902e-17 1.1332684669509587e-16 0.6047921516986486 -0.7963833582160901
12654934666.666666 0.5958513464529003 -0.8030947471687788 -4.0691752302447604e-17 1.1377044581185143e-16 -4.0691752302447604e-17 1.1377044581185143e-16 0.5958518911140774 -0.8030943430603878
12655552000.0 0.5868366204385282 -0.8097053667304579 -3.939959490009961e-17 1.141994275634336e-16 -3.939959490009961e-17 1.141994275634336e-16 0.5868371695562657 -0.8097049687552927
12656169333.333334 0.5777485600499445 -0.8162148009929953 -3.8102939420910916e-17 1.1461374319746145e-16 -3.8102939420910916e-17 1.1461374319746145e-16 0.5777491135551897 -0.8162144092001873
12656786666.666666 0.5685883009819241 -0.822622236501243 -3.6801952218493563e-17 1.1501334584202876e-16 -3.6801952218493563e-17 1.1501334584202876e-16 0.568588858805084 -0.8226218509391487
12657404000.0 0.5593569879515223 -0.8289268725464388 -3.5496800131340867e-17 1.1539819051092062e-16 -3.5496800131340867e-17 1.1539819051092062e-16 0.5593575500224697 -0.828926493262629
12658021333.333334 0.5500557745551599 -0.8351279212661628 -3.418765046148562e-17 1.157682341085801e-16 -3.418765046148562e-17 1.157682341085801e-16 0.5500563408032447 -0.835127548307421
12658638666.666666 0.540685823124398 -0.8412246077428497 -3.287467095308173e-17 1.1612343543484246e-16 -3.287467095308173e-17 1.1612343543484246e-16 0.5406863934784548 -0.8412242411551634
12659256000.0 0.5312483045806367 -0.8472161701006529 -3.155802977092124e-17 1.1646375518943004e-16 -3.155802977092124e-17 1.1646375518943004e-16 0.5312488789689939 -0.8472158099292095
12659873333.333334 0.521744398288812 -0.8531018596006364 -3.0237895478965985e-17 1.1678915597618847e-16 -3.0237895478965985e-17 1.1678915597618847e-16 0.5217449766393011 -0.8531015058898173
12660490666.666666 0.5121752919102132 -0.8588809407342249 -2.891443701879433e-17 1.1709960230709254e-16 -2.891443701879433e-17 1.1709960230709254e-16 0.512175874150177 -0.858880593527599
12661108000.0 0.5025421812536248 -0.8645526913153798 -2.7587823687974495e-17 1.173950606060143e-16 -2.7587823687974495e-17 1.173950606060143e-16 0.5025427673099284 -0.8645523506557009
12661725333.333334 0.4928462701264324 -0.8701164025705302 -2.6258225118494753e-17 1.1767549921222611e-16 -2.6258225118494753e-17 1.1767549921222611e-16 0.49284685992546984 -0.8701160684997277
12662342666.666666 0.4830887701837441 -0.8755713792274022 -2.492581125507956e-17 1.1794088838367763e-16 -2.492581125507956e-17 1.1794088838367763e-16 0.4830893636514496 -0.875571051786579
12662960000.0 0.47327090077717304 -0.8809169396017891 -2.3590752333494332e-17 1.181912003000233e-16 -2.3590752333494332e-17 1.181912003000233e-16 0.47327149783902933 -0.8809166188312154
12663577333.333334 0.46339388880250965 -0.8861524156827116 -2.2253218858852014e-17 1.1842640906539846e-16 -2.2253218858852014e-17 1.1842640906539846e-16 0.46339448938355815 -0.8861521016218212
12664194666.666666 0.45345896854622936 -0.8912771532159953 -2.0913381583847006e-17 1.1864649071096035e-16 -2.0913381583847006e-17 1.1864649071096035e-16 0.4534595725710783 -0.8912768459033782
12664812000.0 0.4434673815314471 -0.8962905117859166 -1.9571411486999563e-17 1.1885142319717593e-16 -1.9571411486999563e-17 1.1885142319717593e-16 0.44346798892428246 -0.8962902112593172
12665429333.333334 0.4334203763625446 -0.9011918648953553 -1.8227479750876873e-17 1.1904118641586552e-16 -1.8227479750876873e-17 1.1904118641586552e-16 0.43342098704713855 -0.9011915711916657
12666046666.666666 0.42331920856946775 -0.9059806000439186 -1.6881757740283264e-17 1.1921576219200362e-16 -1.6881757740283264e-17 1.1921576219200362e-16 0.42331982246918826 -0.9059803131991739
12666664000.0 0.4131651404503414 -0.9106561188047154 -1.5534416980432098e-17 1.1937513428527167e-16 -1.5534416980432098e-17 1.1937513428527167e-16 0.4131657574881631 -0.9106558388540926
12667281333.333334 0.40295944091429325 -0.9152178368988771 -1.4185629135136692e-17 1.1951928839136357e-16 -1.4185629135136692e-17 1.1951928839136357e-16 0.4029600610128052 -0.9152175638766858
12667898666.666666 0.3927033853224432 -0.91966518426877 -1.2835565984964722e-17 1.1964821214304595e-16 -1.2835565984964722e-17 1.1964821214304595e-16 0.3927040084038602 -0.9196649182084524
12668516000.0 0.38239825532860544 -0.9239976051491998 -1.1484399405369527e-17 1.1976189511097587e-16 -1.1484399405369527e-17 1.1976189511097587e-16 0.3823988813147767 -0.923997346083324
12669133333.333334 0.3720453387194379 -0.9282145581367257 -1.0132301344882385e-17 1.1986032880426451e-16 -1.0132301344882385e-17 1.1986032880426451e-16 0.3720459675318574 -0.9282143060969824
12669750666.666666 0.3616459292530699 -0.9323155162575075 -8.779443803239429e-18 1.199435066708016e-16 -8.779443803239429e-18 1.199435066708016e-16 0.361646560812886 -0.9323152712747067
12670368000.0 0.35120132649773994 -0.9362999670330265 -7.425998809524172e-18 1.2001142409733187e-16 -7.425998809524172e-18 1.2001142409733187e-16 0.351201960725766 -0.9362997291370945
