! Parameters = {f0=12700.012000; bw=77.238000; Q=6100.000000; N=10; m_0_1=1.210505; m_1_1=-0.607163; m_1_2=1.045317; m_2_2=-0.607812; m_2_3=0.682280; m_2_8=-0.002411; m_2_9=0.034293; m_3_3=-0.609749; m_3_4=0.570809; m_3_7=-0.001811; m_3_8=-0.098899; m_3_9=-0.002411; m_4_4=-0.612674; m_4_5=0.407144; m_4_6=0.001706; m_4_7=-0.119448; m_4_8=-0.001811; m_5_5=-0.612292; m_5_6=0.814499; m_5_7=0.001706; m_6_6=-0.612293; m_6_7=0.407486; m_7_7=-0.612660; m_7_8=0.570927; m_8_8=-0.609751; m_8_9=0.682593; m_9_9=-0.607817; m_9_10=1.046395; m_10_10=-0.607173; m_10_11=1.211300}
!
! Created with skrf (http://scikit-rf.org).
# Hz S RI R 50.0 
!freq ReS11 ImS11 ReS21 ImS21 ReS12 ImS12 ReS22 ImS22
12607400000.0 0.548467087264853 -0.8361721438717314 -2.3885355795051133e-17 7.931114545595792e-17 -2.3885355795051133e-17 7.931114545595792e-17 0.5484676206341473 -0.836171794020676
12608017333.333334 0.5411177931853418 -0.8409468080075366 -2.317776112078504e-17 7.950391288021436e-17 -2.317776112078504e-17 7.950391288021436e-17 0.541118329573987 -0.8409464628612792
12608634666.666666 0.5337269360984126 -0.8456568794037216 -2.246862679528944e-17 7.969037286065549e-17 -2.246862679528944e-17 7.969037286065549e-17 0.533727475464915 -0.8456565389883104
12609252000.0 0.526295083692462 -0.8503019962819002 -2.1758008993798232e-17 7.987051325574824e-17 -2.1758008993798232e-17 7.987051325574824e-17 0.5262956259951032 -0.8503016606230175
12609869333.333334 0.5188228068046942 -0.8548818018528286 -2.1045963985758145e-17 8.00443224238384e-17 -2.1045963985758145e-17 8.00443224238384e-17 0.5188233520015352 -0.8548814709757899
12610486666.666666 0.5113106793773228 -0.8593959443437815 -2.0332548130411653e-17 8.021178922385957e-17 -2.0332548130411653e-17 8.021178922385957e-17 0.5113112274262059 -0.8593956182735317
12611104000.0 0.5037592784133897 -0.8638440770256285 -1.9617817872304017e-17 8.037290301602075e-17 -1.9617817872304017e-17 8.037290301602075e-17 0.5037598292719423 -0.863843755786741
12611721333.333334 0.496169183932591 -0.868225858239379 -1.8901829736878918e-17 8.052765366243102e-17 -1.8901829736878918e-17 8.052765366243102e-17 0.49616973755822863 -0.8682255418560534
12612338666.666666 0.48854097892665344 -0.8725409514224689 -1.818464032597813e-17 8.067603152770704e-17 -1.818464032597813e-17 8.067603152770704e-17 0.4885415352765838 -0.87254063991853
12612956000.0 0.4808752493144808 -0.8767890251346532 -1.7466306313394055e-17 8.08180274795269e-17 -1.7466306313394055e-17 8.08180274795269e-17 0.48087580834570615 -0.8767887185335488
12613573333.333334 0.4731725838972986 -0.8809697530833817 -1.6746884440416276e-17 8.095363288914584e-17 -1.6746884440416276e-17 8.095363288914584e-17 0.4731731455666195 -0.8809694514081802
12614190666.666666 0.46543357431332805 -0.8850828141489132 -1.6026431511330793e-17 8.108283963188114e-17 -1.6026431511330793e-17 8.108283963188114e-17 0.4654341385773471 -0.8850825174223034
12614808000.0 0.4576588149923943 -0.8891278924089583 -1.5305004388973585e-17 8.120564008754532e-17 -1.5305004388973585e-17 8.120564008754532e-17 0.457659381807519 -0.8891276006532464
12615425333.333334 0.44984890311016745 -0.8931046771629956 -1.4582659990233045e-17 8.132202714084984e-17 -1.4582659990233045e-17 8.132202714084984e-17 0.4498494724326128 -0.8931043904001025
12616042666.666666 0.44200443854244326 -0.8970128629560556 -1.3859455281586769e-17 8.143199418176149e-17 -1.3859455281586769e-17 8.143199418176149e-17 0.4420050103282369 -0.8970125812075183
12616660000.0 0.43412602381899323 -0.900852149602225 -1.3135447274613154e-17 8.153553510582364e-17 -1.3135447274613154e-17 8.153553510582364e-17 0.4341265980239777 -0.9008518728891928
12617277333.333334 0.42621426407718266 -0.9046222422077546 -1.2410693021498906e-17 8.163264431443821e-17 -1.2410693021498906e-17 8.163264431443821e-17 0.42621484065701887 -0.9046219705509875
12617894666.666666 0.4182697670157952 -0.9083228511935564 -1.1685249610582164e-17 8.172331671510156e-17 -1.1685249610582164e-17 8.172331671510156e-17 0.4182703459259661 -0.9083225846134247
12618512000.0 0.41029314284787083 -0.9119536923176843 -1.0959174161822629e-17 8.180754772161173e-17 -1.0959174161822629e-17 8.180754772161173e-17 0.41029372404368447 -0.9119534308341656
12619129333.333334 0.4022850042543726 -0.9155144866969058 -1.0232523822363937e-17 8.188533325422303e-17 -1.0232523822363937e-17 8.188533325422303e-17 0.4022855876909666 -0.9155142303295857
12619746666.666666 0.394245966336797 -0.9190049608282893 -9.50535576201656e-18 8.195666973977127e-17 -9.50535576201656e-18 8.195666973977127e-17 0.3942465519691405 -0.9190047095963569
12620364000.0 0.38617664656984374 -0.9224248466102318 -8.777727168763907e-18 8.202155411175569e-17 -8.777727168763907e-18 8.202155411175569e-17 0.3861772343527419 -0.922424600532481
12620981333.333334 0.37807766475440885 -0.9257738813628807 -8.049695244313163e-18 8.207998381037741e-17 -8.049695244313163e-18 8.207998381037741e-17 0.37807825464250616 -0.925773640457707
12621598666.666666 0.36994964296950605 -0.9290518078485044 -7.321317199567385e-18 8.213195678254551e-17 -7.321317199567385e-18 8.213195678254551e-17 0.36995023491728996 -0.9290515721339055
12622216000.0 0.3617932055248002 -0.9322583742911241 -6.592650250168753e-18 8.217747148183716e-17 -6.592650250168753e-18 8.217747148183716e-17 0.36179379948660406 -0.9322581437846961
12622833333.333334 0.3536089789125222 -0.9353933343959017 -5.8637516120034e-18 8.221652686842116e-17 -5.8637516120034e-18 8.221652686842116e-17 0.3536095748425293 -0.9353931091148391
12623450666.666666 0.34539759175937623 -0.9384564473680512 -5.134678496722114e-18 8.224912240894149e-17 -5.134678496722114e-18 8.224912240894149e-17 0.34539818961162305 -0.9384562273291458
12624068000.0 0.3371596747782801 -0.9414474779313211 -4.405488107265365e-18 8.227525807636025e-17 -4.405488107265365e-18 8.227525807636025e-17 0.33716027450666025 -0.9414472631509603
12624685333.333334 0.32889586071981497 -0.9443661963461064 -3.6762376333650865e-18 8.229493434976281e-17 -3.6762376333650865e-18 8.229493434976281e-17 0.3288964622780823 -0.9443659868402726
12625302666.666666 0.3206067843238107 -0.9472123784270268 -2.9469842471124114e-18 8.230815221412076e-17 -2.9469842471124114e-18 8.230815221412076e-17 0.32060738766558317 -0.9472121742112958
12625920000.0 0.31229308227037783 -0.949985805560224 -2.2177850984325626e-18 8.23149131600182e-17 -2.2177850984325626e-18 8.23149131600182e-17 0.31229368734914076 -0.9499856066497625
12626537333.333334 0.3039553931311641 -0.9526862647200911 -1.488697310666254e-18 8.231521918333624e-17 -1.488697310666254e-18 8.231521918333624e-17 0.30395599990027433 -0.9526860711296586
12627154666.666666 0.2955943573203359 -0.9553135484856362 -7.597779760846661e-19 8.230907278489971e-17 -7.597779760846661e-19 8.230907278489971e-17 0.29559496573302435 -0.9553133602295802
12627772000.0 0.2872106170451428 -0.9578674550564857 -3.108415140862397e-20 8.229647697008325e-17 -3.108415140862397e-20 8.229647697008325e-17 0.2872112270545193 -0.9578672721487446
12628389333.333334 0.27880481625688847 -0.9603477882682931 6.973271465975035e-19 8.227743524837913e-17 6.973271465975035e-19 8.227743524837913e-17 0.2788054278159449 -0.9603476107223925
12629006666.666666 0.27037760060122545 -0.9627543576078817 1.425398945629977e-18 8.225195163292436e-17 1.425398945629977e-18 8.225195163292436e-17 0.2703782136628386 -0.962754185436933
12629624000.0 0.26192961736877995 -0.9650869782278103 2.15307432224873e-18 8.22200306399903e-17 2.15307432224873e-18 8.22200306399903e-17 0.2619302318857164 -0.9650868114445119
12630241333.333334 0.2534615154451883 -0.9673454709606435 2.8802964063379918e-18 8.218167728843136e-17 2.8802964063379918e-18 8.218167728843136e-17 0.25346213137010754 -0.9673453095772794
12630858666.666666 0.24497394526161395 -0.9695296623326181 3.607008385532962e-18 8.213689709909631e-17 3.607008385532962e-18 8.213689709909631e-17 0.2449745625470715 -0.9695295063610552
12631476000.0 0.23646755874426428 -0.9716393845771018 4.333153509656529e-18 8.208569609419804e-17 4.333153509656529e-18 8.208569609419804e-17 0.236468177342716 -0.97163923402879
12632093333.333334 0.22794300926486744 -0.9736744756473373 5.0586750951284374e-18 8.202808079664732e-17 5.0586750951284374e-18 8.202808079664732e-17 0.22794362912867325 -0.9736743305333105
12632710666.666666 0.21940095159024026 -0.9756347792289576 5.783516529374494e-18 8.19640582293461e-17 5.783516529374494e-18 8.19640582293461e-17 0.21940157267166735 -0.9756346395598298
12633328000.0 0.21084204183177394 -0.9775201447520397 6.507621275263438e-18 8.189363591443973e-17 6.507621275263438e-18 8.189363591443973e-17 0.21084266408300048 -0.9775200105380059
12633945333.333334 0.20226693739548052 -0.9793304274025663 7.230932875468616e-18 8.181682187253557e-17 7.230932875468616e-18 8.181682187253557e-17 0.2022675607685997 -0.9793302986534016
12634562666.666666 0.1936762969311384 -0.9810654881336321 7.953394956877603e-18 8.173362462187816e-17 7.953394956877603e-18 8.173362462187816e-17 0.19367692137816192 -0.9810653648586912
12635180000.0 0.18507078028192356 -0.9827251936760752 8.674951234979523e-18 8.164405317748738e-17 8.674951234979523e-18 8.164405317748738e-17 0.18507140575478556 -0.9827250758842921
12635797333.333334 0.17645104843361664 -0.9843094165487379 9.3955455182251e-18 8.154811705025904e-17 9.3955455182251e-18 8.154811705025904e-17 0.1764516748841768 -0.9843093042486235
12636414666.666666 0.16781776346385996 -0.9858180350682514 1.0115121712401026e-17 8.144582624602564e-17 1.0115121712401026e-17 8.144582624602564e-17 0.16781839084390757 -0.9858179282678937
12637032000.0 0.15917158849130392 -0.987250933358382 1.0833623824983296e-17 8.133719126457897e-17 1.0833623824983296e-17 8.133719126457897e-17 0.1591722167525617 -0.9872508320654463
12637649333.333334 0.15051318762470123 -0.988608001358927 1.1550995969480939e-17 8.122222309865509e-17 1.1550995969480939e-17 8.122222309865509e-17 0.15051381671882916 -0.9886079055806558
12638266666.666666 0.14184322591178516 -0.9898891348341886 1.2267182369781347e-17 8.110093323287969e-17 1.2267182369781347e-17 8.110093323287969e-17 0.14184385579038378 -0.9898890445773993
12638884000.0 0.13316236928838351 -0.991094235380947 1.2982127364459729e-17 8.097333364267802e-17 1.2982127364459729e-17 8.097333364267802e-17 0.13316299990299785 -0.9910941506520328
12639501333.333334 0.12447128452701554 -0.9922232104360561 1.369577541111493e-17 8.083943679314225e-17 1.369577541111493e-17 8.083943679314225e-17 0.12447191582913884 -0.9922231312409844
12640118666.666666 0.11577063918604368 -0.9932759732835051 1.4408071090643575e-17 8.069925563786884e-17 1.4408071090643575e-17 8.069925563786884e-17 0.11577127112712109 -0.9932758996278177
12640736000.0 0.1070611015578629 -0.9942524430611456 1.5118959111576296e-17 8.055280361774506e-17 1.5118959111576296e-17 8.055280361774506e-17 0.10706173408929533 -0.9942523749499588
12641353333.333334 0.09834334061816206 -0.9951525447668318 1.5828384314310664e-17 8.040009465971468e-17 1.5828384314310664e-17 8.040009465971468e-17 0.09834397369130962 -0.9951524822048342
12641970666.666666 0.08961802597411653 -0.9959762092642287 1.6536291675412255e-17 8.024114317549145e-17 1.6536291675412255e-17 8.024114317549145e-17 0.08961865954030276 -0.9959761522556849
12642588000.0 0.08088582781315416 -0.9967233732881059 1.7242626311866702e-17 8.007596406024132e-17 1.7242626311866702e-17 8.007596406024132e-17 0.08088646182366933 -0.9967233218368516
12643205333.333334 0.07214741685136501 -0.9973939794492025 1.7947333485310062e-17 7.990457269122981e-17 1.7947333485310062e-17 7.990457269122981e-17 0.07214805125747001 -0.9973939335586464
12643822666.666666 0.06340346428206875 -0.9979879762386282 1.865035860627582e-17 7.972698492642603e-17 1.865035860627582e-17 7.972698492642603e-17 0.06340409903499895 -0.9979879359117526
12644440000.0 0.054654641724175904 -0.9985053180318277 1.9351647238407945e-17 7.954321710307323e-17 1.9351647238407945e-17 7.954321710307323e-17 0.05465527677514471 -0.9985052832711865
12645057333.333334 0.04590162117077115 -0.9989459650920745 2.0051145102651527e-17 7.935328603622573e-17 2.0051145102651527e-17 7.935328603622573e-17 0.045902256470973825 -0.9989459358997927
12645674666.666666 0.03714507493741269 -0.9993098835735261 2.0748798081460984e-17 7.915720901724069e-17 2.0748798081460984e-17 7.915720901724069e-17 0.037145710438030215 -0.9993098599513036
12646292000.0 0.02838567561020831 -0.9995970455238414 2.144455222297349e-17 7.895500381223777e-17 2.144455222297349e-17 7.895500381223777e-17 0.02838631126241096 -0.9995970274729478
12646909333.333334 0.01962409599472201 -0.999807428886298 2.2138353745159166e-17 7.874668866052572e-17 2.2138353745159166e-17 7.874668866052572e-17 0.019624731749673247 -0.9998074164075768
12647526666.666666 0.01086100906378509 -0.999941017501511 2.283014903997396e-17 7.853228227298659e-17 2.283014903997396e-17 7.853228227298659e-17 0.0108616448726452 -0.9999410105953755
12648144000.0 0.0020970879060324913 -0.9999978011086601 2.3519884677495287e-17 7.831180383042502e-17 2.3519884677495287e-17 7.831180383042502e-17 0.0020977237199624166 -0.9999977997750971
12648761333.333334 -0.006666994325768276 -0.9999777753462828 2.420750741003524e-17 7.808527298188279e-17 2.420750741003524e-17 7.808527298188279e-17 -0.006666358555603222 -0.9999777795848508
12649378666.666666 -0.01543056446650699 -0.9998809417526096 2.48929641762247e-17 7.785270984292181e-17 2.48929641762247e-17 7.785270984292181e-17 -0.015429928788933366 -0.9998809515624388
12649996000.0 -0.024192949390407798 -0.9997073077654448 2.5576202105125626e-17 7.761413499385736e-17 2.5576202105125626e-17 7.761413499385736e-17 -0.024192313854240286 -0.9997073231452385
12650613333.333334 -0.03295347606273169 -0.9994568867215953 2.6257168520275747e-17 7.736956947797145e-17 2.6257168520275747e-17 7.736956947797145e-17 -0.032952840716769335 -0.9994569076696281
12651230666.666666 -0.04171147159144357 -0.9991296978558474 2.6935810943736672e-17 7.711903479968494e-17 2.6935810943736672e-17 7.711903479968494e-17 -0.04171083648446606 -0.999129724369967
12651848000.0 -0.050466263278982 -0.9987257662994864 2.7612077100155292e-17 7.686255292268306e-17 2.7612077100155292e-17 7.686255292268306e-17 -0.05046562845974593 -0.9987257983771136
12652465333.333334 -0.05921717867390045 -0.9982451230783673 2.828591492074428e-17 7.660014626802802e-17 2.828591492074428e-17 7.660014626802802e-17 -0.059216544191135506 -0.9982451607164949
12653082666.666666 -0.06796354562231904 -0.9976878051105386 2.895727254729748e-17 7.633183771221824e-17 2.895727254729748e-17 7.633183771221824e-17 -0.06796291152472433 -0.9976878483057329
12653700000.0 -0.07670469231992164 -0.9970538552033924 2.962609833617387e-17 7.605765058521674e-17 2.962609833617387e-17 7.605765058521674e-17 -0.07670405865616195 -0.9970539039517937
12654317333.333334 -0.0854399473632445 -0.9963433220503899 3.0292340862246077e-17 7.57776086684521e-17 3.0292340862246077e-17 7.57776086684521e-17 -0.08543931418194659 -0.9963433763477128
12654934666.666666 -0.09416863980136009 -0.9955562602273176 3.095594892284953e-17 7.549173619277662e-17 3.095594892284953e-17 7.549173619277662e-17 -0.09416800715110882 -0.9955563200688498
12655552000.0 -0.10289009918749731 -0.9946927301880855 3.161687154171269e-17 7.520005783639049e-17 3.161687154171269e-17 7.520005783639049e-17 -0.10288946711683213 -0.99469279556869
12656169333.333334 -0.11160365563036859 -0.9937527982601004 3.227505797284875e-17 7.490259872273955e-17 3.227505797284875e-17 7.490259872273955e-17 -0.11160302418777947 -0.993752869174214
12656786666.666666 -0.12030863984570828 -0.992736536639161 3.2930457704447014e-17 7.4599384418371e-17 3.2930457704447014e-17 7.4599384418371e-17 -0.12030800907963263 -0.9927366130807992
12657404000.0 -0.12900438320776575 -0.9916440233839086 3.3583020462744334e-17 7.429044093075501e-17 3.3583020462744334e-17 7.429044093075501e-17 -0.12900375316658386 -0.9916441053466593
12658021333.333334 -0.13769021780051974 -0.990475342409838 3.423269621585945e-17 7.397579470608013e-17 3.423269621585945e-17 7.397579470608013e-17 -0.13768958853255187 -0.990475429886869
12658638666.666666 -0.14636547646892586 -0.9892305834828726 3.4879435177613484e-17 7.365547262701308e-17 3.4879435177613484e-17 7.365547262701308e-17 -0.14636484802242794 -0.9892306764669262
12659256000.0 -0.15502949287052556 -0.9879098422124095 3.552318781136084e-17 7.332950201040954e-17 3.552318781136084e-17 7.332950201040954e-17 -0.15502886529368579 -0.9879099406958071
12659873333.333334 -0.16368160152620562 -0.9865132200440387 3.616390483373854e-17 7.299791060502116e-17 3.616390483373854e-17 7.299791060502116e-17 -0.16368097486714064 -0.9865133240186793
12660490666.666666 -0.17232113787139777 -0.9850408242517399 3.680153721844435e-17 7.266072658914549e-17 3.680153721844435e-17 7.266072658914549e-17 -0.17232051217814925 -0.9850409337091028
12661108000.0 -0.1809474383074891 -0.9834927679295865 3.743603619998288e-17 7.231797856824809e-17 3.743603619998288e-17 7.231797856824809e-17 -0.18094681362801954 -0.9834928828607291
12661725333.333334 -0.1895598402522028 -0.9818691699831511 3.806735327736083e-17 7.196969557256694e-17 3.806735327736083e-17 7.196969557256694e-17 -0.18955921663439237 -0.9818692903787126
12662342666.666666 -0.19815768219102334 -0.9801701551202839 3.869544021781161e-17 7.16159070546579e-17 3.869544021781161e-17 7.16159070546579e-17 -0.19815705968266628 -0.9801702809704858
12662960000.0 -0.20674030372767274 -0.9783958538415989 3.9320249060444113e-17 7.125664288693598e-17 3.9320249060444113e-17 7.125664288693598e-17 -0.20673968237647275 -0.9783959851362416
12663577333.333334 -0.21530704563494452 -0.9765464024304183 3.994173211991158e-17 7.089193335916164e-17 3.994173211991158e-17 7.089193335916164e-17 -0.21530642548851237 -0.9765465391588874
12664194666.666666 -0.22385724990542477 -0.9746219429422989 4.055984199002329e-17 7.052180917591488e-17 4.055984199002329e-17 7.052180917591488e-17 -0.2238566310112736 -0.9746220850935625
12664812000.0 -0.23239025980186426 -0.9726226231941469 4.117453154736481e-17 7.014630145401893e-17 4.117453154736481e-17 7.014630145401893e-17 -0.2323896422074067 -0.9726227707567585
12665429333.333334 -0.24090541990773498 -0.9705485967528468 4.178575395486678e-17 6.97654417199491e-17 4.178575395486678e-17 6.97654417199491e-17 -0.24090480366027922 -0.9705487497149453
12666046666.666666 -0.24940207617751592 -0.9684000229234744 4.239346266535819e-17 6.93792619072063e-17 4.239346266535819e-17 6.93792619072063e-17 -0.24940146132426208 -0.9684001812727853
12666664000.0 -0.25787957598704114 -0.9661770667370368 4.299761142512673e-17 6.898779435364009e-17 4.299761142512673e-17 6.898779435364009e-17 -0.2578789625750776 -0.9661772304608728
12667281333.333334 -0.2663372681834615 -0.9638798989378351 4.359815427738611e-17 6.859107179878344e-17 4.359815427738611e-17 6.859107179878344e-17 -0.26633665625976144 -0.9638800680230976
12667898666.666666 -0.2747745031353424 -0.9615086959703306 4.419504556579526e-17 6.818912738110976e-17 4.419504556579526e-17 6.818912738110976e-17 -0.27477389274675984 -0.9615088704035097
12668516000.0 -0.28319063278264395 -0.9590636399655689 4.478823993790356e-17 6.778199463529014e-17 4.478823993790356e-17 6.778199463529014e-17 -0.2831900239759107 -0.9590638197327457
12669133333.333334 -0.2915850106863333 -0.9565449187272342 4.537769234857338e-17 6.736970748941997e-17 4.537769234857338e-17 6.736970748941997e-17 -0.29158440350805503 -0.9565451038140818
12669750666.666666 -0.29995699207812054 -0.9539527257172062 4.596335806341348e-17 6.695230026219146e-17 4.596335806341348e-17 6.695230026219146e-17 -0.29995638657477325 -0.9539529161089905
12670368000.0 -0.30830593391009004 -0.9512872600406611 4.6545192662140655e-17 6.652980766006715e-17 4.6545192662140655e-17 6.652980766006715e-17 -0.3083053301280168 -0.9512874557222416
