! Parameters = {f0=12700.012000; bw=77.238000; Q=6100.000000; N=10; m_0_1=1.288784; m_1_1=0.567011; m_1_2=1.123596; m_2_2=0.566362; m_2_3=0.760559; m_2_8=0.001503; m_2_9=0.038207; m_3_3=0.564425; m_3_4=0.649088; m_3_7=0.002103; m_3_8=-0.094985; m_3_9=0.001503; m_4_4=0.561500; m_4_5=0.485423; m_4_6=0.005620; m_4_7=-0.115534; m_4_8=0.002103; m_5_5=0.561882; m_5_6=0.892778; m_5_7=0.005620; m_6_6=0.561881; m_6_7=0.485765; m_7_7=0.561514; m_7_8=0.649206; m_8_8=0.564423; m_8_9=0.760872; m_9_9=0.566357; m_9_10=1.124674; m_10_10=0.567001; m_10_11=1.289579}
!
! Created with skrf (http://scikit-rf.org).
# Hz S RI R 50.0 
!freq ReS11 ImS11 ReS21 ImS21 ReS12 ImS12 ReS22 ImS22
12607400000.0 -0.4019323093118452 0.9156693828730242 1.512800342241884e-17 -1.197953950888922e-16 1.512800342241884e-17 -1.197953950888922e-16 -0.4019329310266925 0.9156691099715605
12608017333.333334 -0.3917638430810284 0.9200658081105947 1.378664061621597e-17 -1.199333657214748e-16 1.378664061621597e-17 -1.199333657214748e-16 -0.39176446775034796 0.9200655421262685
12608634666.666666 -0.38154729714124497 0.9243493171112471 1.2444083838509976e-17 -1.2005632622278133e-16 1.2444083838509976e-17 -1.2005632622278133e-16 -0.3815479246880882 0.9243490580760233
12609252000.0 -0.37128392533103155 0.9285193841760119 1.1100500952576975e-17 -1.2016426713965495e-16 1.1100500952576975e-17 -1.2016426713965495e-16 -0.37128455567810364 0.9285191321209979
12609869333.333334 -0.36097498723558086 0.9325754975282651 9.75605988388351e-18 -1.2025718089505785e-16 9.75605988388351e-18 -1.2025718089505785e-16 -0.36097562030525177 0.932575252483711
12610486666.666666 -0.3506217480324495 0.936517159376425 8.410928599137827e-18 -1.20335061788281e-16 8.410928599137827e-18 -1.20335061788281e-16 -0.35062238374676197 0.9365169213717158
12611104000.0 -0.3402254783359165 0.940343885975187 7.065275085289474e-18 -1.2039790599492338e-16 7.065275085289474e-18 -1.2039790599492338e-16 -0.34022611661659663 0.9403436550388418
12611721333.333334 -0.3297874540413365 0.9440552076847792 5.719267328654322e-18 -1.2044571156662917e-16 5.719267328654322e-18 -1.2044571156662917e-16 -0.3297880948098032 0.9440549838444463
12612338666.666666 -0.31930895616844907 0.9476506690286421 4.373073293914423e-18 -1.204784784306e-16 4.373073293914423e-18 -1.204784784306e-16 -0.31930959934582354 0.9476504523110975
12612956000.0 -0.30879127070408247 0.9511298287493545 3.0268609032142817e-18 -1.2049620838886757e-16 3.0268609032142817e-18 -1.2049620838886757e-16 -0.30879191621119784 0.9511296191804955
12613573333.333334 -0.2982356884444899 0.9544922598627287 1.6807980152672844e-18 -1.2049890511733558e-16 1.6807980152672844e-18 -1.2049890511733558e-16 -0.2982363362019016 0.9544920574675748
12614190666.666666 -0.28764350483682904 0.9577375497102547 3.3505240441308064e-19 -1.2048657416458833e-16 3.3505240441308064e-19 -1.2048657416458833e-16 -0.28764415476482386 0.9577373545129416
12614808000.0 -0.2770160198202296 0.9608653000097238 -1.010208260224106e-18 -1.2045922295046574e-16 -1.010208260224106e-18 -1.2045922295046574e-16 -0.2770166718388356 0.9608651120335014
12615425333.333334 -0.26635453766614736 0.9638751269041401 -2.354816435607271e-18 -1.2041686076440589e-16 -2.354816435607271e-18 -1.2041686076440589e-16 -0.266355191695144 0.9638749461713699
12616042666.666666 -0.25566036681845994 0.9667666610087817 -3.698604725631107e-18 -1.2035949876355558e-16 -3.698604725631107e-18 -1.2035949876355558e-16 -0.25566102277738806 0.9667664875409354
12616660000.0 -0.24493481973280518 0.9695395474565625 -5.0414059019057875e-18 -1.202871499706487e-16 -5.0414059019057875e-18 -1.202871499706487e-16 -0.24493547754097664 0.9695393812742173
12617277333.333334 -0.2341792127153975 0.9721934459416061 -6.383052924566454e-18 -1.2019982927165204e-16 -6.383052924566454e-18 -1.2019982927165204e-16 -0.23417987229190468 0.9721932870644422
12617894666.666666 -0.22339486576178533 0.9747280307609363 -7.723378962979281e-18 -1.2009755341318256e-16 -7.723378962979281e-18 -1.2009755341318256e-16 -0.22339552702551196 0.974727879207737
12618512000.0 -0.2125831023944673 0.9771429908545435 -9.062217416502146e-18 -1.1998034099968895e-16 -9.062217416502146e-18 -1.1998034099968895e-16 -0.2125837652640978 0.9771428466431906
12619129333.333334 -0.201745249500765 0.9794380298434883 -1.0399401935123236e-17 -1.198482124904084e-16 -1.0399401935123236e-17 -1.198482124904084e-16 -0.20174591389479476 0.979437892990961
12619746666.666666 -0.19088263716986845 0.9816128660662993 -1.1734766440111446e-17 -1.1970119019608946e-16 -1.1734766440111446e-17 -1.1970119019608946e-16 -0.19088330300661385 0.9816127365886734
12620364000.0 -0.179996598529516 0.9836672326135613 -1.3068145144621468e-17 -1.1953929827548544e-16 -1.3068145144621468e-17 -1.1953929827548544e-16 -0.17999726572712413 0.9836671105260043
12620981333.333334 -0.169088469582551 0.9856008773606327 -1.4399372574223937e-17 -1.1936256273162296e-16 -1.4399372574223937e-17 -1.1936256273162296e-16 -0.16908913805901002 0.9856007626774038
12621598666.666666 -0.158159589042848 0.9874135629986126 -1.572828358742238e-17 -1.1917101140783644e-16 -1.572828358742238e-17 -1.1917101140783644e-16 -0.15816025871599726 0.9874134557330618
12622216000.0 -0.1472112981710736 0.9891050670634572 -1.7054713396100546e-17 -1.1896467398357965e-16 -1.7054713396100546e-17 -1.1896467398357965e-16 -0.14721196895861358 0.9891049672280223
12622833333.333334 -0.13624494060993764 0.990675181963298 -1.837849758594115e-17 -1.1874358197000482e-16 -1.837849758594115e-17 -1.1874358197000482e-16 -0.13624561242944014 0.9906750895695043
12623450666.666666 -0.1252618622195743 0.9921237150038812 -1.969947213673952e-17 -1.1850776870532366e-16 -1.969947213673952e-17 -1.1850776870532366e-16 -0.12526253498849263 0.9921236300623404
12624068000.0 -0.11426341091214517 0.9934504884122513 -2.101747344272092e-17 -1.1825726934993335e-16 -2.101747344272092e-17 -1.1825726934993335e-16 -0.11426408454782401 0.9934504109326578
12624685333.333334 -0.10325093648630115 0.9946553393585751 -2.2332338332784534e-17 -1.1799212088131778e-16 -2.2332338332784534e-17 -1.1799212088131778e-16 -0.10325161090598692 0.9946552693497069
12625302666.666666 -0.09222579046197861 0.9957381199760725 -2.3643904090615212e-17 -1.1771236208873929e-16 -2.3643904090615212e-17 -1.1771236208873929e-16 -0.0922264655828298 0.9957380574457915
12625920000.0 -0.08118932591402439 0.9966986973792258 -2.4952008474864436e-17 -1.1741803356767948e-16 -2.4952008474864436e-17 -1.1741803356767948e-16 -0.08119000165312149 0.9966986423344748
12626537333.333334 -0.07014289730644858 0.997536953680051 -2.6256489739117127e-17 -1.171091777140871e-16 -2.6256489739117127e-17 -1.171091777140871e-16 -0.07014357358080418 0.9975369061268526
12627154666.666666 -0.05908786032619636 0.9982527860025688 -2.755718665188934e-17 -1.167858387183839e-16 -2.755718665188934e-17 -1.167858387183839e-16 -0.05908853705276558 0.9982527459460268
12627772000.0 -0.04802557171648631 0.9988461064954524 -2.885393851655347e-17 -1.1644806255924686e-16 -2.885393851655347e-17 -1.1644806255924686e-16 -0.04802624881217685 0.9988460739397488
12628389333.333334 -0.03695738911075596 0.9993168423427756 -3.014658519109303e-17 -1.1609589699719419e-16 -3.014658519109303e-17 -1.1609589699719419e-16 -0.0369580664924384 0.9993168172911725
12629006666.666666 -0.025884670865505582 0.9996649357729833 -3.1434967107906504e-17 -1.157293915679206e-16 -3.1434967107906504e-17 -1.157293915679206e-16 -0.025885348450023535 0.9996649182278227
12629624000.0 -0.01480877589410303 0.9998903440659568 -3.2718925293445614e-17 -1.153485975754352e-16 -3.2718925293445614e-17 -1.153485975754352e-16 -0.01480945359828329 0.9998903340286569
12630241333.333334 -0.0037310634996117597 0.9999930395582671 -3.399830138779869e-17 -1.149535680849758e-16 -3.399830138779869e-17 -1.149535680849758e-16 -0.003731741240274606 0.9999930370293257
12630858666.666666 0.007347106791661883 0.9999730096465658 -3.5272937664179814e-17 -1.145443579157087e-16 -3.5272937664179814e-17 -1.145443579157087e-16 0.0073464290976925275 0.9999730146255603
12631476000.0 0.018424375397444574 0.9998302567891383 -3.6542677048387045e-17 -1.1412102363319643e-16 -3.6542677048387045e-17 -1.1412102363319643e-16 0.018423697833330914 0.9998302692747227
12632093333.333334 0.029499382845926094 0.9995647985055939 -3.780736313806402e-17 -1.1368362354168286e-16 -3.780736313806402e-17 -1.1368362354168286e-16 0.029498705494806304 0.9995648184955035
12632710666.666666 0.04057076994288658 0.9991766673747242 -3.9066840221961887e-17 -1.1323221767613823e-16 -3.9066840221961887e-17 -1.1323221767613823e-16 0.040570092887864555 0.9991766948657723
12633328000.0 0.0516371779384767 0.9986659110304954 -4.032095329910324e-17 -1.1276686779408937e-16 -4.032095329910324e-17 -1.1276686779408937e-16 0.051636501262611836 0.9986659460185746
12633945333.333334 0.06269724869380161 0.9980325921562114 -4.156954809777364e-17 -1.1228763736726723e-16 -4.156954809777364e-17 -1.1228763736726723e-16 0.06269657248009874 0.998032634636296
12634562666.666666 0.07374962484782746 0.9972767884768126 -4.281247109450745e-17 -1.1179459157301e-16 -4.281247109450745e-17 -1.1179459157301e-16 0.07374894917922649 0.9972768384429564
12635180000.0 0.084792949983738 0.9963985927493448 -4.4049569532906096e-17 -1.1128779728548237e-16 -4.4049569532906096e-17 -1.1128779728548237e-16 0.08479227494310397 0.9963986501946858
12635797333.333334 0.095825868795658 0.9953981127515644 -4.528069144239131e-17 -1.107673230666714e-16 -4.528069144239131e-17 -1.107673230666714e-16 0.09582519446577073 0.9953981776683217
12636414666.666666 0.1068470272546731 0.9942754712687311 -4.650568565683769e-17 -1.1023323915718286e-16 -4.650568565683769e-17 -1.1023323915718286e-16 0.10684635371821706 0.9942755436482082
12637032000.0 0.11785507277528794 0.993030806078518 -4.772440183310046e-17 -1.096856174668297e-16 -4.772440183310046e-17 -1.096856174668297e-16 0.11785440011484209 0.9930308859111024
12637649333.333334 0.1288486543812538 0.9916642699341137 -4.89366904694303e-17 -1.0912453156501747e-16 -4.89366904694303e-17 -1.0912453156501747e-16 0.12884798267928185 0.9916643572092818
12638266666.666666 0.1398264228715108 0.9901760305454665 -5.0142402923792187e-17 -1.0855005667092119e-16 -5.0142402923792187e-17 -1.0855005667092119e-16 0.13982575221035035 0.9901761252517797
12638884000.0 0.15078703098560012 0.9885662705587155 -5.134139143203518e-17 -1.0796226964347394e-16 -5.134139143203518e-17 -1.0796226964347394e-16 0.15078636144745328 0.9885663726838256
12639501333.333334 0.16172913356912136 0.9868351875337639 -5.253350912599541e-17 -1.0736124897113333e-16 -5.253350912599541e-17 -1.0736124897113333e-16 0.16172846523604453 0.986835297064415
12640118666.666666 0.17265138773873503 0.9849829939200516 -5.371861005141309e-17 -1.0674707476148137e-16 -5.371861005141309e-17 -1.0674707476148137e-16 0.1726507206926282 0.9849831108420767
12640736000.0 0.18355245304724768 0.9830099170304221 -5.489654918582848e-17 -1.0611982873057555e-16 -5.489654918582848e-17 -1.0611982873057555e-16 0.18355178736984543 0.9830100413287515
12641353333.333334 0.19443099164753394 0.9809161990133384 -5.60671824562162e-17 -1.0547959419217611e-16 -5.60671824562162e-17 -1.0547959419217611e-16 0.19443032742039465 0.9809163306719979
12641970666.666666 0.20528566845739618 0.9787020968230424 -5.723036675664756e-17 -1.0482645604669748e-16 -5.723036675664756e-17 -1.0482645604669748e-16 0.20528500576189232 0.9787022358251557
12642588000.0 0.21611515132296638 0.9763678821880974 -5.838595996569948e-17 -1.0416050077003315e-16 -5.838595996569948e-17 -1.0416050077003315e-16 0.2161144902402746 0.9763680285158893
12643205333.333334 0.22691811118230984 0.9739138415780283 -5.953382096381176e-17 -1.0348181640214688e-16 -5.953382096381176e-17 -1.0348181640214688e-16 0.2269174517934009 0.973913995212826
12643822666.666666 0.2376932222287282 0.9713402761681118 -6.067380965047368e-17 -1.0279049253549449e-16 -6.067380965047368e-17 -1.0279049253549449e-16 0.2376925646143572 0.9713404370903481
12644440000.0 0.24843916207316719 0.9686475018024888 -6.180578696129814e-17 -1.0208662030324517e-16 -6.180578696129814e-17 -1.0208662030324517e-16 0.24843850631386327 0.968647669991703
12645057333.333334 0.25915461190661854 0.9658358489553747 -6.29296148849331e-17 -1.0137029236733078e-16 -6.29296148849331e-17 -1.0137029236733078e-16 0.2591539580826757 0.9658360243902178
12645674666.666666 0.26983825666205646 0.9629056626904849 -6.404515647986231e-17 -1.0064160290629428e-16 -6.404515647986231e-17 -1.0064160290629428e-16 0.26983760485352315 0.9629058453487196
12646292000.0 0.28048878517585624 0.9598573026186711 -6.515227589108454e-17 -9.990064760293943e-17 -6.515227589108454e-17 -9.990064760293943e-17 0.280488135462526 0.9598574924771774
12646909333.333334 0.2911048903484364 0.9566911428538704 -6.625083836656966e-17 -9.914752363185238e-17 -6.625083836656966e-17 -9.914752363185238e-17 0.2911042428098373 0.9566913398886444
12647526666.666666 0.3016852693050277 0.9534075719670845 -6.734071027366086e-17 -9.838232964668256e-17 -6.734071027366086e-17 -9.838232964668256e-17 0.3016846240204141 0.9534077761532471
12648144000.0 0.312228623555381 0.9500069929387529 -6.842175911530019e-17 -9.760516576726459e-17 -6.842175911530019e-17 -9.760516576726459e-17 0.312227980603722 0.9500072042505472
12648761333.333334 0.3227336591530966 0.9464898231092992 -6.94938535460721e-17 -9.681613356658493e-17 -6.94938535460721e-17 -9.681613356658493e-17 0.3227330186130679 0.9464900415200981
12649378666.666666 0.3331990868545091 0.9428564941278927 -7.055686338813462e-17 -9.601533605754923e-17 -7.055686338813462e-17 -9.601533605754923e-17 0.3331984488044824 0.9428567196101996
12649996000.0 0.3436236222768831 0.9391074518994793 -7.161065964701122e-17 -9.520287767956332e-17 -7.161065964701122e-17 -9.520287767956332e-17 0.34362298679491726 0.939107684424933
12650613333.333334 0.35400598605606814 0.9352431565300492 -7.265511452718292e-17 -9.437886428497657e-17 -7.265511452718292e-17 -9.437886428497657e-17 0.354005353219899 0.9352433960694267
12651230666.666666 0.3643449040033499 0.9312640822702278 -7.369010144754745e-17 -9.354340312533904e-17 -7.369010144754745e-17 -9.354340312533904e-17 0.36434427389038077 0.9312643287934477
12651848000.0 0.37463910726219857 0.9271707174569319 -7.471549505675732e-17 -9.269660283745904e-17 -7.471549505675732e-17 -9.269660283745904e-17 0.37463847994949184 0.9271709709330603
12652465333.333334 0.3848873324635672 0.9229635644536026 -7.573117124832462e-17 -9.18385734293531e-17 -7.573117124832462e-17 -9.18385734293531e-17 0.38488670802783326 0.9229638248508536
12653082666.666666 0.39508832188115106 0.918643139588467 -7.673700717561304e-17 -9.096942626599287e-17 -7.673700717561304e-17 -9.096942626599287e-17 0.39508770039874036 0.9186434068742099
12653700000.0 0.40524082358582325 0.9142099730911406 -7.773288126669177e-17 -9.008927405486549e-17 -7.773288126669177e-17 -9.008927405486549e-17 0.4052402051327158 0.9142102472319011
12654317333.333334 0.41534359159899054 0.9096646090276744 -7.87186732389404e-17 -8.919823083144543e-17 -7.87186732389404e-17 -8.919823083144543e-17 0.4153429762507878 0.9096648899891419
12654934666.666666 0.4253953860458475 0.9050076052336384 -7.969426411357168e-17 -8.82964119444333e-17 -7.969426411357168e-17 -8.82964119444333e-17 0.4253947738777622 0.9050078929806674
12655552000.0 0.4353949733073841 0.9002395332457257 -8.065953622996058e-17 -8.738393404085878e-17 -8.065953622996058e-17 -8.738393404085878e-17 0.43539436439423174 0.9002398277423426
12656169333.333334 0.44534112617163096 0.8953609782316874 -8.161437325975566e-17 -8.646091505107071e-17 -8.161437325975566e-17 -8.646091505107071e-17 0.44534052058781964 0.8953612794410922
12656786666.666666 0.45523262398460174 0.890372538918353 -8.255866022090429e-17 -8.552747417349588e-17 -8.255866022090429e-17 -8.552747417349588e-17 0.4552320218041244 0.8903728468029273
12657404000.0 0.4650682527998201 0.8852748275182923 -8.349228349142941e-17 -8.45837318593139e-17 -8.349228349142941e-17 -8.45837318593139e-17 0.4650676540962445 0.8852751420396009
12658021333.333334 0.47484680552745423 0.880068469654601 -8.441513082307426e-17 -8.362980979694365e-17 -8.441513082307426e-17 -8.362980979694365e-17 0.4748462103739142 0.8800687907733985
12658638666.666666 0.48456708208228355 0.8747541042842164 -8.532709135475273e-17 -8.266583089639706e-17 -8.532709135475273e-17 -8.266583089639706e-17 0.4845664905514703 0.8747544319604514
12659256000.0 0.49422788953132935 0.8693323836193082 -8.622805562583352e-17 -8.169191927347485e-17 -8.622805562583352e-17 -8.169191927347485e-17 0.4942273016954823 0.8693327178121286
12659873333.333334 0.503828042239861 0.8638039730474553 -8.711791558923575e-17 -8.07082002338284e-17 -8.711791558923575e-17 -8.07082002338284e-17 0.5038274581707592 0.8638043137152136
12660490666.666666 0.5133663620171035 0.8581695510498748 -8.799656462432892e-17 -7.97148002568939e-17 -8.799656462432892e-17 -7.97148002568939e-17 0.5133657817860572 0.8581698981501331
12661108000.0 0.5228416782609056 0.8524298091181112 -8.886389754969855e-17 -7.87118469796346e-17 -8.886389754969855e-17 -7.87118469796346e-17 0.5228411019387461 0.8524301626076456
12661725333.333334 0.5322528281011336 0.8465854516693304 -8.971981063565902e-17 -7.769946918021991e-17 -8.971981063565902e-17 -7.769946918021991e-17 0.5322522557582068 0.8465858115041383
12662342666.666666 0.5415986565427285 0.8406371959596662 -9.056420161665078e-17 -7.667779676149102e-17 -9.056420161665078e-17 -7.667779676149102e-17 0.5415980882488841 0.8406375620949693
12662960000.0 0.5508780166071864 0.8345857719963552 -9.139696970338942e-17 -7.564696073436048e-17 -9.139696970338942e-17 -7.564696073436048e-17 0.5508774524317708 0.8345861443866067
12663577333.333334 0.5600897694734193 0.8284319224480855 -9.221801559487303e-17 -7.460709320102746e-17 -9.221801559487303e-17 -7.460709320102746e-17 0.560089209485267 0.8284323010469767
12664194666.666666 0.569232784617591 0.8221764025538086 -9.3027241490164e-17 -7.35583273381039e-17 -9.3027241490164e-17 -7.35583273381039e-17 0.5692322288850155 0.8221767873142719
12664812000.0 0.578305939951718 0.815819980030141 -9.382455110000145e-17 -7.250079737958818e-17 -9.382455110000145e-17 -7.250079737958818e-17 0.578305388542504 0.8158203709043574
12665429333.333334 0.5873081219614974 0.8093634349770676 -9.46098496582217e-17 -7.143463859971013e-17 -9.46098496582217e-17 -7.143463859971013e-17 0.5873075749428928 0.8093638319164737
12666046666.666666 0.596238225842805 0.802807559782321 -9.538304393295275e-17 -7.035998729569645e-17 -9.538304393295275e-17 -7.035998729569645e-17 0.5962376832815116 0.8028079627376125
12666664000.0 0.6050951556376223 0.7961531590238784 -9.614404223767485e-17 -6.927698077033139e-17 -9.614404223767485e-17 -6.927698077033139e-17 0.6050946175997899 0.7961535679450191
12667281333.333334 0.6138778243680668 0.789401049371579 -9.689275444200516e-17 -6.818575731450777e-17 -9.689275444200516e-17 -6.818575731450777e-17 0.6138772909192817 0.7894014642078033
12667898666.666666 0.6225851541701948 0.7825520594865842 -9.76290919823509e-17 -6.708645618956874e-17 -9.76290919823509e-17 -6.708645618956874e-17 0.6225846253754755 0.7825524801864082
12668516000.0 0.6312160764261301 0.7756070299198052 -9.835296787234341e-17 -6.59792176095627e-17 -9.835296787234341e-17 -6.59792176095627e-17 0.6312155523499167 0.7756074564310284
12669133333.333334 0.6397695318950752 0.7685668130088469 -9.906429671303748e-17 -6.486418272343646e-17 -9.906429671303748e-17 -6.486418272343646e-17 0.6397690126012225 0.7685672452785612
12669750666.666666 0.6482444708435984 0.7614322727731752 -9.976299470296182e-17 -6.374149359704107e-17 -9.976299470296182e-17 -6.374149359704107e-17 0.6482439563953685 0.7614327107477716
12670368000.0 0.6566398531742397 0.7542042848082561 -1.0044897964793972e-16 -6.261129319506885e-17 -1.0044897964793972e-16 -6.261129319506885e-17 0.6566393436342934 0.7542047284334302
