! Parameters = {f0=12700.012000; bw=77.238000; Q=6100.000000; N=10; m_0_1=1.294189; m_1_1=0.648092; m_1_2=1.129001; m_2_2=0.647443; m_2_3=0.765964; m_2_8=0.001773; m_2_9=0.038477; m_3_3=0.645506; m_3_4=0.654493; m_3_7=0.002373; m_3_8=-0.094715; m_3_9=0.001773; m_4_4=0.642581; m_4_5=0.490828; m_4_6=0.005890; m_4_7=-0.115264; m_4_8=0.002373; m_5_5=0.642963; m_5_6=0.898183; m_5_7=0.005890; m_6_6=0.642962; m_6_7=0.491170; m_7_7=0.642595; m_7_8=0.654611; m_8_8=0.645504; m_8_9=0.766277; m_9_9=0.647438; m_9_10=1.130079; m_10_10=0.648082; m_10_11=1.294984}
!
! Created with skrf (http://scikit-rf.org).
# Hz S RI R 50.0 
!freq ReS11 ImS11 ReS21 ImS21 ReS12 ImS12 ReS22 ImS22
12607400000.0 0.28558258415158677 -0.9583541034654777 -1.9872266654282566e-19 1.2379788928196098e-16 -1.9872266654282566e-19 1.2379788928196098e-16 0.28558323756777393 -0.9583539087519417
12608017333.333334 0.2747947526343663 -0.9615029089526638 1.20324981705146e-18 1.237679581104099e-16 1.20324981705146e-18 1.237679581104099e-16 0.27479540816535053 -0.9615027216035609
12608634666.666666 0.2639722166625113 -0.9645302840399037 2.6045189304593735e-18 1.237221595896591e-16 2.6045189304593735e-18 1.237221595896591e-16 0.2639728742253012 -0.9645301040781724
12609252000.0 0.25311634303889513 -0.9674358463931508 4.00490519720645e-18 1.2366050580832817e-16 4.00490519720645e-18 1.2366050580832817e-16 0.25311700255025066 -0.967435673840795
12609869333.333334 0.24222850277656865 -0.9702192290624005 5.4042293243480635e-18 1.2358301088387854e-16 5.4042293243480635e-18 1.2358301088387854e-16 0.24222916415301182 -0.9702190639404848
12610486666.666666 0.23131007092585779 -0.9728800805279607 6.8023122253584076e-18 1.2348969096000994e-16 6.8023122253584076e-18 1.2348969096000994e-16 0.23131073408368338 -0.9728799228566106
12611104000.0 0.2203624264003758 -0.9754180647449363 8.198975043057742e-18 1.2338056420379415e-16 8.198975043057742e-18 1.2338056420379415e-16 0.2203630912556617 -0.9754179145433335
12611721333.333334 0.20938695180326278 -0.9778328611855688 9.594039172410114e-18 1.2325565080255657e-16 9.594039172410114e-18 1.2325565080255657e-16 0.20938761827188102 -0.9778327184719514
12612338666.666666 0.19838503325229795 -0.9801241648797876 1.0987326283363878e-17 1.231149729604937e-16 1.0987326283363878e-17 1.231149729604937e-16 0.1983857012499249 -0.9801240296714456
12612956000.0 0.18735806020481477 -0.9822916864537267 1.2378658343613008e-17 1.2295855489503557e-16 1.2378658343613008e-17 1.2295855489503557e-16 0.1873587296469418 -0.9822915587669993
12613573333.333334 0.17630742528258506 -0.9843351521661935 1.3767857641283394e-17 1.2278642283295546e-16 1.3767857641283394e-17 1.2278642283295546e-16 0.17630809608452958 -0.9843350320164699
12614190666.666666 0.16523452409549633 -0.9862543039433351 1.5154746807618024e-17 1.2259860500621718e-16 1.5154746807618024e-17 1.2259860500621718e-16 0.16523519617241242 -0.9862541913450514
12614808000.0 0.15414075506554767 -0.9880488994111783 1.653914883959191e-17 1.2239513164756964e-16 1.653914883959191e-17 1.2239513164756964e-16 0.15414142833243646 -0.9880487943778147
12615425333.333334 0.1430275192501839 -0.9897187119262502 1.792088712245721e-17 1.221760349858877e-16 1.792088712245721e-17 1.221760349858877e-16 0.14302819362190472 -0.9897186144703308
12616042666.666666 0.1318962201653531 -0.9912635306042031 1.92997854522438e-17 1.2194134924125743e-16 1.92997854522438e-17 1.2194134924125743e-16 0.13189689555663414 -0.9912634407372943
12616660000.0 0.12074826360825319 -0.9926831603464467 2.0675668058194795e-17 1.216911106198085e-16 2.0675668058194795e-17 1.216911106198085e-16 0.12074893993370209 -0.992683078079154
12617277333.333334 0.1095850574797342 -0.9939774218647932 2.204835962514123e-17 1.2142535730829295e-16 2.204835962514123e-17 1.2142535730829295e-16 0.10958573465384906 -0.9939773472067627
12617894666.666666 0.09840801160674537 -0.9951461517040726 2.3417685315788916e-17 1.2114412946841662e-16 2.3417685315788916e-17 1.2114412946841662e-16 0.0984086895439254 -0.9951460846639875
12618512000.0 0.0872185375638046 -0.9961892022628273 2.4783470792993787e-17 1.2084746923090767e-16 2.4783470792993787e-17 1.2084746923090767e-16 0.08721921617836126 -0.9961891428484099
12619129333.333334 0.0760180484952365 -0.9971064418119024 2.614554224186122e-17 1.2053542068935566e-16 2.614554224186122e-17 1.2053542068935566e-16 0.07601872770140382 -0.9971063900299089
12619746666.666666 0.06480795893639177 -0.9978977545111101 2.7503726391886668e-17 1.20208029893778e-16 2.7503726391886668e-17 1.20208029893778e-16 0.06480863864833757 -0.9978977103673331
12620364000.0 0.05358968463500215 -0.9985630404238571 2.885785053894893e-17 1.1986534484395115e-16 2.885785053894893e-17 1.1986534484395115e-16 0.0535903647668388 -0.9985630039231247
12620981333.333334 0.04236464237260931 -0.999102215529751 3.0207742567208806e-17 1.1950741548249895e-16 3.0207742567208806e-17 1.1950741548249895e-16 0.04236532283840453 -0.9991021866759247
12621598666.666666 0.03113424978546632 -0.9995152117352266 3.155323097098522e-17 1.1913429368772019e-16 3.155323097098522e-17 1.1913429368772019e-16 0.031134930499254032 -0.9995151905312012
12622216000.0 0.0198999251854723 -0.9998019768821369 3.289414487649306e-17 1.1874603326618143e-16 3.289414487649306e-17 1.1874603326618143e-16 0.01990060606126362 -0.9998019633298444
12622833333.333334 0.008663087381107772 -0.99996247475435 3.4230314063515815e-17 1.183426899450622e-16 3.4230314063515815e-17 1.183426899450622e-16 0.008663768332901663 -0.9999624688547518
12623450666.666666 -0.002574844501664975 -0.9999966850823103 3.5561568986968725e-17 1.179243213642593e-16 3.5561568986968725e-17 1.179243213642593e-16 -0.0025741635598706914 -0.9999966868354035
12624068000.0 -0.013812451198768462 -0.9999046035456074 3.6887740798377113e-17 1.1749098706824721e-16 3.6887740798377113e-17 1.1749098706824721e-16 -0.013811770352966301 -0.9999046129504225
12624685333.333334 -0.025048313487309005 -0.9996862417735168 3.8208661367296976e-17 1.1704274849768446e-16 3.8208661367296976e-17 1.1704274849768446e-16 -0.025047632823470934 -0.9996862588281172
12625302666.666666 -0.036281012364387376 -0.9993416273435393 3.9524163302515387e-17 1.1657966898081888e-16 3.9524163302515387e-17 1.1657966898081888e-16 -0.03628033196845398 -0.9993416520450229
12625920000.0 -0.04750912922704657 -0.9988708037778987 4.0834079973313644e-17 1.1610181372459895e-16 4.0834079973313644e-17 1.1610181372459895e-16 -0.047508449184916236 -0.9988708361223994
12626537333.333334 -0.05873124605063504 -0.9982738305380723 4.2138245530475846e-17 1.156092498055989e-16 4.2138245530475846e-17 1.156092498055989e-16 -0.05873056644815309 -0.9982738705207587
12627154666.666666 -0.06994594556837541 -0.9975507830172673 4.343649492727501e-17 1.1510204616067816e-16 4.343649492727501e-17 1.1510204616067816e-16 -0.06994526649132311 -0.9975508306323414
12627772000.0 -0.08115181145038199 -0.9967017525308854 4.472866394034391e-17 1.1458027357740463e-16 4.472866394034391e-17 1.1458027357740463e-16 -0.08115113298446604 -0.9967018077715893
12628389333.333334 -0.09234742848216411 -0.9957268463050236 4.601458919036793e-17 1.1404400468427217e-16 4.601458919036793e-17 1.1404400468427217e-16 -0.09234675071300559 -0.9957269091636355
12629006666.666666 -0.10353138274378183 -0.9946261874628969 4.729410816275514e-17 1.1349331394064674e-16 4.729410816275514e-17 1.1349331394064674e-16 -0.10353070575690543 -0.9946262579307334
12629624000.0 -0.11470226178812963 -0.9933999150093109 4.856705922810678e-17 1.1292827762651542e-16 4.856705922810678e-17 1.1292827762651542e-16 -0.11470158566895285 -0.9933999930767288
12630241333.333334 -0.12585865481937425 -0.9920481838131026 4.9833281662604836e-17 1.1234897383198945e-16 4.9833281662604836e-17 1.1234897383198945e-16 -0.12585797965319687 -0.9920482694695013
12630858666.666666 -0.13699915287112813 -0.9905711645875883 5.109261566826959e-17 1.1175548244658338e-16 5.109261566826959e-17 1.1175548244658338e-16 -0.13699847874312107 -0.9905712578214085
12631476000.0 -0.14812234898458745 -0.9889690438689709 5.2344902393111845e-17 1.1114788514825514e-16 5.2344902393111845e-17 1.1114788514825514e-16 -0.14812167597978215 -0.9889691446676975
12632093333.333334 -0.15922683838590995 -0.9872420239928221 5.3589983951096553e-17 1.105262653922511e-16 5.3589983951096553e-17 1.105262653922511e-16 -0.15922616658918803 -0.9872421323429875
12632710666.666666 -0.17031121866365745 -0.9853903230685384 5.4827703442031564e-17 1.0989070839970001e-16 5.4827703442031564e-17 1.0989070839970001e-16 -0.17031054815973914 -0.9853904389557196
12633328000.0 -0.18137408994635582 -0.983414174951708 5.605790497131842e-17 1.0924130114598588e-16 5.605790497131842e-17 1.0924130114598588e-16 -0.18137342081979044 -0.9834142983605355
12633945333.333334 -0.19241405507864523 -0.9813138292146961 5.728043366952326e-17 1.085781323489229e-16 5.728043366952326e-17 1.085781323489229e-16 -0.1924133874137994 -0.9813139601288489
12634562666.666666 -0.20342971979817726 -0.9790895511150416 5.84951357118553e-17 1.0790129245668788e-16 5.84951357118553e-17 1.0790129245668788e-16 -0.20342905367922487 -0.9790896895172534
12635180000.0 -0.21441969291153135 -0.9767416215619878 5.970185833746939e-17 1.072108736355528e-16 5.970185833746939e-17 1.072108736355528e-16 -0.2144190284224433 -0.9767417674340505
12635797333.333334 -0.22538258646996875 -0.9742703370810002 6.090044986866205e-17 1.0650696975738288e-16 6.090044986866205e-17 1.0650696975738288e-16 -0.22538192369450102 -0.97427049040376
12636414666.666666 -0.23631701594460675 -0.9716760097763316 6.209075972987451e-17 1.0578967638694485e-16 6.209075972987451e-17 1.0578967638694485e-16 -0.23631635496629166 -0.9716761705296998
12637032000.0 -0.24722160040147037 -0.9689589672915742 6.327263846659341e-17 1.0505909076897879e-16 6.327263846659341e-17 1.0505909076897879e-16 -0.24722094130360453 -0.9689591354545231
12637649333.333334 -0.2580949626756702 -0.966119552768322 6.444593776406643e-17 1.0431531181507763e-16 6.444593776406643e-17 1.0431531181507763e-16 -0.25809430554130497 -0.9661197283188916
12638266666.666666 -0.2689357295455224 -0.9631581248027943 6.56105104658798e-17 1.0355844009034962e-16 6.56105104658798e-17 1.0355844009034962e-16 -0.2689350744574529 -0.9631583077180932
12638884000.0 -0.27974253190586523 -0.960075057400573 6.676621059237737e-17 1.0278857779987643e-16 6.676621059237737e-17 1.0278857779987643e-16 -0.27974187894662006 -0.9600752476567823
12639501333.333334 -0.2905140049410208 -0.9568707399293523 6.79128933589266e-17 1.02005828774961e-16 6.79128933589266e-17 1.02005828774961e-16 -0.2905133541928517 -0.9568709375017282
12640118666.666666 -0.3012487882969981 -0.9535455770698159 6.905041519398747e-17 1.0121029845919914e-16 6.905041519398747e-17 1.0121029845919914e-16 -0.30124813984186966 -0.9535457819326931
12640736000.0 -0.31194552625375693 -0.9500999887643853 7.017863375712754e-17 1.0040209389427388e-16 7.017863375712754e-17 1.0040209389427388e-16 -0.31194488017333594 -0.9501002008911802
12641353333.333334 -0.3226028678956647 -0.9465344101644221 7.12974079566862e-17 9.958132370568015e-17 7.12974079566862e-17 9.958132370568015e-17 -0.3226022242713104 -0.946534629527637
12641970666.666666 -0.33321946728283963 -0.9428492915750419 7.240659796747167e-17 9.874809808811185e-17 7.240659796747167e-17 9.874809808811185e-17 -0.33321882619559295 -0.9428495181462677
12642588000.0 -0.343793983620752 -0.9390450983983634 7.350606524815459e-17 9.790252879074751e-17 7.350606524815459e-17 9.790252879074751e-17 -0.3437933451513256 -0.9390453321482832
12643205333.333334 -0.3543250814296118 -0.9351223110747157 7.459567255853922e-17 9.704472910230895e-17 7.459567255853922e-17 9.704472910230895e-17 -0.3543244456583797 -0.935122551973109
12643822666.666666 -0.3648114307131347 -0.9310814250219218 7.56752839766655e-17 9.617481383592288e-17 7.56752839766655e-17 9.617481383592288e-17 -0.364810797720123 -0.9310816730376694
12644440000.0 -0.3752517071263791 -0.9269229505727843 7.674476491571429e-17 9.52928993138109e-17 7.674476491571429e-17 9.52928993138109e-17 -0.3752510769912542 -0.9269232056738691
12645057333.333334 -0.3856445921430514 -0.9226474129106078 7.780398214073682e-17 9.439910335178928e-17 7.780398214073682e-17 9.439910335178928e-17 -0.3856439649451118 -0.9226476750641227
12645674666.666666 -0.3959887732219232 -0.9182553520029243 7.885280378522982e-17 9.349354524356461e-17 7.885280378522982e-17 9.349354524356461e-17 -0.3959881490400887 -0.918255621175075
12646292000.0 -0.40628294397293496 -0.9137473225331508 7.989109936751873e-17 9.257634574485088e-17 7.989109936751873e-17 9.257634574485088e-17 -0.40628232288573674 -0.9137475986892594
12646909333.333334 -0.416525804321738 -0.9091238938307289 8.091873980691866e-17 9.16476270573404e-17 8.091873980691866e-17 9.16476270573404e-17 -0.41652518640730835 -0.9091241769352384
12647526666.666666 -0.426716060674171 -0.9043856497990969 8.193559743976702e-17 9.070751281244552e-17 8.193559743976702e-17 9.070751281244552e-17 -0.4267154460102344 -0.9043859398155771
12648144000.0 -0.43685242607960445 -0.8995331888419583 8.294154603523883e-17 8.975612805488779e-17 8.294154603523883e-17 8.975612805488779e-17 -0.43685181474346674 -0.899533485733109
12648761333.333334 -0.4469336203933934 -0.8945671237877406 8.393646081096495e-17 8.879359922611982e-17 8.393646081096495e-17 8.879359922611982e-17 -0.44693301246193395 -0.894567427515399
12649378666.666666 -0.45695837043845255 -0.8894880818122587 8.492021844847185e-17 8.782005414756362e-17 8.492021844847185e-17 8.782005414756362e-17 -0.4569577659881117 -0.8894883923373998
12649996000.0 -0.46692541016632455 -0.8842967043593613 8.589269710842618e-17 8.683562200367676e-17 8.589269710842618e-17 8.683562200367676e-17 -0.46692480927309615 -0.8842970216421067
12650613333.333334 -0.47683348081689586 -0.8789936470600124 8.685377644569027e-17 8.584043332484724e-17 8.685377644569027e-17 8.584043332484724e-17 -0.47683288355631737 -0.8789939710596343
12651230666.666666 -0.4866813310772932 -0.8735795796495311 8.780333762415182e-17 8.483461997014805e-17 8.780333762415182e-17 8.483461997014805e-17 -0.4866807375244363 -0.8735799103244584
12651848000.0 -0.49646771724016636 -0.8680551858828776 8.87412633314014e-17 8.381831510988203e-17 8.87412633314014e-17 8.381831510988203e-17 -0.4964671274696261 -0.8680555231906977
12652465333.333334 -0.5061914033605546 -0.8624211634483987 8.96674377931598e-17 8.279165320801438e-17 8.96674377931598e-17 8.279165320801438e-17 -0.5061908174464425 -0.8624215073458685
12653082666.666666 -0.5158511614118613 -0.8566782238798015 9.058174678752552e-17 8.1754770004425e-17 9.058174678752552e-17 8.1754770004425e-17 -0.5158505794277933 -0.8566785743228481
12653700000.0 -0.5254457714414533 -0.8508270924659801 9.148407765903933e-17 8.070780249697695e-17 9.148407765903933e-17 8.070780249697695e-17 -0.5254451934605429 -0.8508274494097086
12654317333.333334 -0.5349740217240513 -0.8448685081598275 9.237431933249034e-17 7.965088892349097e-17 9.237431933249034e-17 7.965088892349097e-17 -0.5349734478188987 -0.8448688715585267
12654934666.666666 -0.5444347089152707 -0.8388032234846047 9.325236232655497e-17 7.858416874352095e-17 9.325236232655497e-17 7.858416874352095e-17 -0.5444341391579541 -0.8388035932917522
12655552000.0 -0.5538266382034721 -0.8326320044389711 9.411809876723964e-17 7.750778261996387e-17 9.411809876723964e-17 7.750778261996387e-17 -0.5538260726655402 -0.8326323806072414
12656169333.333334 -0.563148623460468 -0.8263556304003742 9.497142240103605e-17 7.642187240061275e-17 9.497142240103605e-17 7.642187240061275e-17 -0.5631480622129279 -0.8263560128816407
12656786666.666666 -0.572399487391557 -0.8199748940264586 9.581222860796154e-17 7.532658109944784e-17 9.581222860796154e-17 7.532658109944784e-17 -0.5723989305048687 -0.8199752827718046
12657404000.0 -0.5815780616841142 -0.8134906011550276 9.664041441431598e-17 7.422205287786833e-17 9.664041441431598e-17 7.422205287786833e-17 -0.581577509228179 -0.8134909961147482
12658021333.333334 -0.5906831871550916 -0.8069035707022996 9.745587850525149e-17 7.310843302574921e-17 9.745587850525149e-17 7.310843302574921e-17 -0.5906826391992456 -0.8069039718259118
12658638666.666666 -0.5997137138974412 -0.800214634559476 9.825852123710781e-17 7.19858679423833e-17 9.825852123710781e-17 7.19858679423833e-17 -0.5997131705104445 -0.8002150417957218
12659256000.0 -0.6086685014254731 -0.7934246374875734 9.90482446495587e-17 7.085450511724599e-17 9.90482446495587e-17 7.085450511724599e-17 -0.6086679626755018 -0.7934250507844279
12659873333.333334 -0.6175464188187071 -0.7865344370108711 9.982495247750192e-17 6.971449311067862e-17 9.982495247750192e-17 6.971449311067862e-17 -0.6175458847733462 -0.7865348563155503
12660490666.666666 -0.6263463448647032 -0.7795449033086196 1.0058855016273489e-16 6.856598153443065e-17 1.0058855016273489e-16 6.856598153443065e-17 -0.626345815590936 -0.7795453285675845
12661108000.0 -0.635067168200905 -0.7724569191049439 1.0133894486544682e-16 6.740912103201804e-17 1.0133894486544682e-16 6.740912103201804e-17 -0.6350666437651066 -0.7724573502639104
12661725333.333334 -0.6437077874545983 -0.7652713795576865 1.0207604547541943e-16 6.624406325905385e-17 1.0207604547541943e-16 6.624406325905385e-17 -0.6437072679225255 -0.7652718165616292
12662342666.666666 -0.6522671113823804 -0.7579891921450488 1.0279976262305894e-16 6.50709608633705e-17 1.0279976262305894e-16 6.50709608633705e-17 -0.6522665968191654 -0.7579896349382114
12662960000.0 -0.6607440590077788 -0.7506112765511478 1.0351000869016906e-16 6.388996746507197e-17 1.0351000869016906e-16 6.388996746507197e-17 -0.6607435494779187 -0.7506117250770463
12663577333.333334 -0.669137559757812 -0.7431385645498285 1.0420669782050577e-16 6.270123763645139e-17 1.0420669782050577e-16 6.270123763645139e-17 -0.6691370553251631 -0.7431390187512616
12664194666.666666 -0.6774465535981968 -0.7355719998869888 1.048897459301006e-16 6.150492688179746e-17 1.048897459301006e-16 6.150492688179746e-17 -0.6774460543259648 -0.7355724597060441
12664812000.0 -0.6856699911672208 -0.727912538161393 1.055590707173525e-16 6.030119161708926e-17 1.055590707173525e-16 6.030119161708926e-17 -0.6856694971179544 -0.7279130035394543
12665429333.333334 -0.6938068339083115 -0.7201611467039469 1.0621459167289077e-16 5.90901891495759e-17 1.0621459167289077e-16 5.90901891495759e-17 -0.6938063451438925 -0.720161617581701
12666046666.666666 -0.7018560542010103 -0.7123188044557064 1.068562300891856e-16 5.787207765728322e-17 1.068562300891856e-16 5.787207765728322e-17 -0.7018555707826483 -0.7123192807731527
12666664000.0 -0.7098166354911046 -0.7043865018439138 1.0748390906996748e-16 5.664701616833814e-17 1.0748390906996748e-16 5.664701616833814e-17 -0.7098161574793275 -0.7043869835403697
12667281333.333334 -0.7176875724186421 -0.6963652406572678 1.0809755353935252e-16 5.541516454029802e-17 1.0809755353935252e-16 5.541516454029802e-17 -0.7176870998732889 -0.6963657276713769
12667898666.666666 -0.7254678709451223 -0.6882560339191867 1.0869709025077892e-16 5.4176683439294017e-17 1.0869709025077892e-16 5.4176683439294017e-17 -0.7254674039253366 -0.6882565261889282
12668516000.0 -0.7331565484790366 -0.6800599057598714 1.0928244779568605e-16 5.2931734319111516e-17 1.0928244779568605e-16 5.2931734319111516e-17 -0.7331560870432571 -0.6800604032225654
12669133333.333334 -0.7407526339997809 -0.6717778912871468 1.0985355661194234e-16 5.168047940020651e-17 1.0985355661194234e-16 5.168047940020651e-17 -0.7407521782057369 -0.6717783938794654
12669750666.666666 -0.7482551681805077 -0.6634110364555132 1.1041034899206126e-16 5.042308164857254e-17 1.1041034899206126e-16 5.042308164857254e-17 -0.7482547180852106 -0.6634115441134864
12670368000.0 -0.7556632035091252 -0.6549603979342146 1.1095275909115644e-16 4.915970475456052e-17 1.1095275909115644e-16 4.915970475456052e-17 -0.7556627591688602 -0.6549609105932382
