! Parameters = {f0=12700.012000; bw=77.238000; Q=6100.000000; N=10; m_0_1=1.175070; m_1_1=-1.138695; m_1_2=1.009882; m_2_2=-1.139344; m_2_3=0.646845; m_2_8=-0.004183; m_2_9=0.032521; m_3_3=-1.141281; m_3_4=0.535374; m_3_7=-0.003583; m_3_8=-0.100671; m_3_9=-0.004183; m_4_4=-1.144206; m_4_5=0.371709; m_4_6=-0.000066; m_4_7=-0.121220; m_4_8=-0.003583; m_5_5=-1.143824; m_5_6=0.779064; m_5_7=-0.000066; m_6_6=-1.143825; m_6_7=0.372051; m_7_7=-1.144192; m_7_8=0.535492; m_8_8=-1.141283; m_8_9=0.647158; m_9_9=-1.139349; m_9_10=1.010960; m_10_10=-1.138705; m_10_11=1.175865}
!
! Created with skrf (http://scikit-rf.org).
# Hz S RI R 50.0 
!freq ReS11 ImS11 ReS21 ImS21 ReS12 ImS12 ReS22 ImS22
12607400000.0 0.0027645287667601316 0.9999961786829719 -1.9814667238196238e-17 -6.621321154553273e-17 -1.9814667238196238e-17 -6.621321154553273e-17 0.002763909510698562 0.9999961803947379
12608017333.333334 0.010480909077107466 0.999945073763937 -2.0326887144106948e-17 -6.604359861380069e-17 -2.0326887144106948e-17 -6.604359861380069e-17 0.01048028988301676 0.9999450802538193
12608634666.666666 0.01819666529806753 0.9998344269787267 -2.0837667717824924e-17 -6.58700275190166e-17 -2.0837667717824924e-17 -6.58700275190166e-17 0.018196046202809804 0.9998344382458698
12609252000.0 0.025911337993938723 0.9996642449158681 -2.1346978406756978e-17 -6.569251038562085e-17 -2.1346978406756978e-17 -6.569251038562085e-17 0.0259107190343666 0.9996642609591339
12609869333.333334 0.033624467793481876 0.9994345377089252 -2.185478875979711e-17 -6.551105957361811e-17 -2.185478875979711e-17 -6.551105957361811e-17 0.033623849006436314 0.9994345585268908
12610486666.666666 0.04133559541721694 0.9991453190359013 -2.236106842913699e-17 -6.532568767773375e-17 -2.236106842913699e-17 -6.532568767773375e-17 0.041334976839524966 0.9991453446268589
12611104000.0 0.049044261705168214 0.9987966061184043 -2.2865787172080413e-17 -6.51364075265524e-17 -2.2865787172080413e-17 -6.51364075265524e-17 0.049043643373640866 0.9987966364803639
12611721333.333334 0.0567500076436374 0.9983884197206497 -2.336891485283232e-17 -6.494323218164945e-17 -2.336891485283232e-17 -6.494323218164945e-17 0.05674938959506735 0.9983884548513349
12612338666.666666 0.0644523743929329 0.9979207841482015 -2.3870421444297145e-17 -6.474617493670254e-17 -2.3870421444297145e-17 -6.474617493670254e-17 0.06445175666409247 0.997920824045055
12612956000.0 0.07215090331463495 0.9973937272465326 -2.4370277029869825e-17 -6.454524931658929e-17 -2.4370277029869825e-17 -6.454524931658929e-17 0.07215028594227378 0.9973937719067116
12613573333.333334 0.07984513599876315 0.99680728039937 -2.4868451805202853e-17 -6.43404690764774e-17 -2.4868451805202853e-17 -6.43404690764774e-17 0.07984451901960603 0.9968073298197486
12614190666.666666 0.08753461429115789 0.9961614785268238 -2.5364916079984214e-17 -6.413184820089435e-17 -2.5364916079984214e-17 -6.413184820089435e-17 0.08753399774190264 0.9961615327039935
12614808000.0 0.09521888032084617 0.995456360083301 -2.5859640279696636e-17 -6.391940090278764e-17 -2.5859640279696636e-17 -6.391940090278764e-17 0.09521826423816142 0.9954564190135704
12615425333.333334 0.10289747652713528 0.9946919670552269 -2.635259494738003e-17 -6.370314162256698e-17 -2.635259494738003e-17 -6.370314162256698e-17 0.10289686094765833 0.9946920307346224
12616042666.666666 0.11056994568697236 0.9938683449585413 -2.6843750745367976e-17 -6.348308502714073e-17 -2.6843750745367976e-17 -6.348308502714073e-17 0.11056933064730687 0.9938684133828058
12616660000.0 0.11823583094211226 0.9929855428359856 -2.7333078457032463e-17 -6.325924600893165e-17 -2.7333078457032463e-17 -6.325924600893165e-17 0.11823521647882632 0.9929856160005816
12617277333.333334 0.12589467582646344 0.9920436132541754 -2.7820548988522616e-17 -6.303163968487942e-17 -2.7820548988522616e-17 -6.303163968487942e-17 0.12589406197608702 0.992043691154281
12617894666.666666 0.13354602429295662 0.9910426123004967 -2.830613337046796e-17 -6.28002813954405e-17 -2.830613337046796e-17 -6.28002813954405e-17 0.13354541109197995 0.9910426949310122
12618512000.0 0.14118942074109678 0.9899825995797318 -2.878980275971857e-17 -6.256518670355588e-17 -2.878980275971857e-17 -6.256518670355588e-17 0.14118880822596735 0.9899826869352718
12619129333.333334 0.14882441004377978 0.9888636382105324 -2.927152844103195e-17 -6.232637139362522e-17 -2.927152844103195e-17 -6.232637139362522e-17 0.14882379825090114 0.9888637302854342
12619746666.666666 0.1564505375745075 0.987685794821662 -2.975128182877836e-17 -6.208385147045602e-17 -2.975128182877836e-17 -6.208385147045602e-17 0.15644992654023646 0.9876858916099811
12620364000.0 0.1640673492345417 0.986449139548005 -3.02290344686356e-17 -6.183764315820019e-17 -3.02290344686356e-17 -6.183764315820019e-17 0.16406673899518656 0.9864492410435188
12620981333.333334 0.1716743914797762 0.985153746026426 -3.0704758039259563e-17 -6.158776289928604e-17 -3.0704758039259563e-17 -6.158776289928604e-17 0.1716737820715938 0.9851538522226284
12621598666.666666 0.17927121134785304 0.9837996913913534 -3.1178424353963196e-17 -6.133422735332778e-17 -3.1178424353963196e-17 -6.133422735332778e-17 0.17927060280704807 0.9837998022814637
12622216000.0 0.1868573564850816 0.9823870562702137 -3.1650005362376574e-17 -6.107705339602848e-17 -3.1650005362376574e-17 -6.107705339602848e-17 0.18685674884780273 0.9823871718471686
12622833333.333334 0.19443237517351086 0.98091592477859 -3.2119473152109853e-17 -6.081625811806344e-17 -3.2119473152109853e-17 -6.081625811806344e-17 0.19443176847584984 0.9809160450350489
12623450666.666666 0.20199581635754899 0.979386384515272 -3.2586799950379613e-17 -6.055185882396554e-17 -3.2586799950379613e-17 -6.055185882396554e-17 0.20199521063553805 0.9793865094436178
12624068000.0 0.20954722967107292 0.9777985265569937 -3.30519581256675e-17 -6.02838730309762e-17 -3.30519581256675e-17 -6.02838730309762e-17 0.2095466249606827 0.9777986561493305
12624685333.333334 0.2170861654642167 0.97615244545301 -3.3514920189336764e-17 -6.001231846790096e-17 -3.3514920189336764e-17 -6.001231846790096e-17 0.217085561801354 0.9761525797011653
12625302666.666666 0.2246121748299797 0.9744482392195062 -3.397565879723975e-17 -5.97372130739534e-17 -3.397565879723975e-17 -5.97372130739534e-17 0.22461157225048542 0.9744483781150307
12625920000.0 0.23212480963117865 0.9726860093337102 -3.4434146751348264e-17 -5.945857499756801e-17 -3.4434146751348264e-17 -5.945857499756801e-17 0.23212420817082585 0.97268615286788
12626537333.333334 0.2396236225269655 0.9708658607278883 -3.489035700133517e-17 -5.917642259522313e-17 -3.489035700133517e-17 -5.917642259522313e-17 0.23962302222145695 0.9708660088917028
12627154666.666666 0.24710816699943786 0.9689879017831069 -3.5344262646162005e-17 -5.889077443024327e-17 -3.5344262646162005e-17 -5.889077443024327e-17 0.24710756788440408 0.9689880545672912
12627772000.0 0.25457799738047393 0.9670522443227131 -3.579583693568152e-17 -5.86016492715735e-17 -3.579583693568152e-17 -5.86016492715735e-17 0.25457739949147135 0.9670524017177192
12628389333.333334 0.26203266887796833 0.9650590036057584 -3.6245053272172504e-17 -5.830906609257822e-17 -3.6245053272172504e-17 -5.830906609257822e-17 0.2620320722504765 0.9650591656017625
12629006666.666666 0.26947173760256293 0.9630082983200635 -3.6691885211929076e-17 -5.801304406978716e-17 -3.6691885211929076e-17 -5.801304406978716e-17 0.26947114227198316 0.9630084649069713
12629624000.0 0.27689476059388807 0.9609002505752104 -3.713630646679731e-17 -5.77136025816569e-17 -3.713630646679731e-17 -5.77136025816569e-17 0.27689416659554084 0.9609004217426538
12630241333.333334 0.2843012958470471 0.9587349858952366 -3.7578290905714796e-17 -5.741076120731214e-17 -3.7578290905714796e-17 -5.741076120731214e-17 0.28430070321617 0.9587351616325753
12630858666.666666 0.29169090233888123 0.9565126332111771 -3.8017812556235255e-17 -5.710453972527845e-17 -3.8017812556235255e-17 -5.710453972527845e-17 0.2916903111106271 0.9565128135075006
12631476000.0 0.2990631400543663 0.954233324853346 -3.845484560607041e-17 -5.679495811218496e-17 -3.845484560607041e-17 -5.679495811218496e-17 0.2990625502638014 0.9542335096974747
12632093333.333334 0.3064175700125427 0.9518971965435438 -3.888936440456652e-17 -5.648203654149247e-17 -3.888936440456652e-17 -5.648203654149247e-17 0.3064169816946437 0.9518973859240258
12632710666.666666 0.3137537542928975 0.949504387386894 -3.9321343464225414e-17 -5.61657953821731e-17 -3.9321343464225414e-17 -5.61657953821731e-17 0.3137531674825503 0.9495045812920105
12633328000.0 0.32107125606141435 0.9470550398635738 -3.9750757462189075e-17 -5.58462551973957e-17 -3.9750757462189075e-17 -5.58462551973957e-17 0.3210706707934113 0.9470552382813358
12633945333.333334 0.3283696395964216 0.9445492998203776 -4.017758124170904e-17 -5.552343674320372e-17 -4.017758124170904e-17 -5.552343674320372e-17 0.32836905590546045 0.9445495027385309
12634562666.666666 0.3356484703147542 0.9419873164619652 -4.0601789813617813e-17 -5.5197360967172815e-17 -4.0601789813617813e-17 -5.5197360967172815e-17 0.3356478882354349 0.9419875238679876
12635180000.0 0.3429073147974419 0.9393692423420396 -4.102335835778947e-17 -5.486804900705725e-17 -4.102335835778947e-17 -5.486804900705725e-17 0.34290673436426505 0.9393694542231422
12635797333.333334 0.35014574081562516 0.9366952333542257 -4.1442262224575114e-17 -5.45355221894354e-17 -4.1442262224575114e-17 -5.45355221894354e-17 0.3501451620629904 0.9366954496973557
12636414666.666666 0.35736331735626486 0.9339654487227965 -4.1858476936243266e-17 -5.4199802028333005e-17 -4.1858476936243266e-17 -5.4199802028333005e-17 0.3573627403184684 0.9339656695146371
12637032000.0 0.3645596146478086 0.9311800509931961 -4.2271978188401376e-17 -5.3860910223841344e-17 -4.2271978188401376e-17 -5.3860910223841344e-17 0.36455903935904044 0.9311802762201651
12637649333.333334 0.3717342041857526 0.9283392060223651 -4.2682741851406117e-17 -5.3518868660724425e-17 -4.2682741851406117e-17 -5.3518868660724425e-17 0.37173363068009596 0.9283394356706188
12638266666.666666 0.3788866587582647 0.9254430829688276 -4.309074397177036e-17 -5.3173699407009815e-17 -4.309074397177036e-17 -5.3173699407009815e-17 0.37888608706969334 0.9254433170242604
12638884000.0 0.38601655247146344 0.9224918542826788 -4.3495960773543265e-17 -5.282542471258039e-17 -4.3495960773543265e-17 -5.282542471258039e-17 0.3860159826338397 0.9224920927309246
12639501333.333334 0.39312346077488425 0.9194856956952772 -4.389836865969477e-17 -5.247406700774421e-17 -4.389836865969477e-17 -5.247406700774421e-17 0.3931228928219561 0.919485938521708
12640118666.666666 0.40020696048667936 0.9164247862088094 -4.4297944213477716e-17 -5.2119648901802043e-17 -4.4297944213477716e-17 -5.2119648901802043e-17 0.40020639445208034 0.9164250333985399
12640736000.0 0.40726662981907946 0.9133093080855246 -4.4694664199797546e-17 -5.176219318158796e-17 -4.4694664199797546e-17 -5.176219318158796e-17 0.4072660657363247 0.9133095596234094
12641353333.333334 0.41430204840295815 0.9101394468371116 -4.5088505566525396e-17 -5.140172281003985e-17 -4.5088505566525396e-17 -5.140172281003985e-17 0.414301486305444 0.9101397027077494
12641970666.666666 0.4213127973134914 0.9069153912133865 -4.5479445445865006e-17 -5.10382609247017e-17 -4.5479445445865006e-17 -5.10382609247017e-17 0.42131223723449257 0.9069156514011192
12642588000.0 0.42829845909468567 0.9036373331912361 -4.586746115564948e-17 -5.067183083626715e-17 -4.586746115564948e-17 -5.067183083626715e-17 0.42829790106735277 0.9036375976801485
12643205333.333334 0.4352586177843624 0.9003054679631223 -4.6252530200655806e-17 -5.0302456027087846e-17 -4.6252530200655806e-17 -5.0302456027087846e-17 0.4352580618417218 0.9003057367370474
12643822666.666666 0.44219285893898214 0.8969199939254442 -4.663463027391105e-17 -4.9930160149667264e-17 -4.663463027391105e-17 -4.9930160149667264e-17 0.4421923051139323 0.8969202669679603
12644440000.0 0.4491007696582936 0.8934811126667304 -4.701373925796126e-17 -4.9554967025168707e-17 -4.701373925796126e-17 -4.9554967025168707e-17 0.44910021798360333 0.8934813899611621
12645057333.333334 0.4559819386097926 0.8899890289556972 -4.7389835226149883e-17 -4.917690064189422e-17 -4.7389835226149883e-17 -4.917690064189422e-17 0.45598138911810027 0.8899893104851192
12645674666.666666 0.4628359560532948 0.8864439507290256 -4.776289644388223e-17 -4.879598515375459e-17 -4.776289644388223e-17 -4.879598515375459e-17 0.4628354087771044 0.8864442364762604
12646292000.0 0.46966241386558194 0.8828460890788411 -4.813290136987355e-17 -4.8412244878734074e-17 -4.813290136987355e-17 -4.8412244878734074e-17 0.46966186883726374 0.8828463790264637
12646909333.333334 0.4764609055642273 0.8791956582403978 -4.849982865737823e-17 -4.8025704297352733e-17 -4.849982865737823e-17 -4.8025704297352733e-17 0.47646036281601417 0.879195952370734
12647526666.666666 0.48323102633212683 0.875492875579151 -4.8863657155417497e-17 -4.763638805110843e-17 -4.8863657155417497e-17 -4.763638805110843e-17 0.4832304858961119 0.8754931738742782
12648144000.0 0.48997237304165125 0.8717379615777805 -4.922436590999466e-17 -4.7244320940909454e-17 -4.922436590999466e-17 -4.7244320940909454e-17 0.48997183494978813 0.8717382640195318
12648761333.333334 0.49668454427840303 0.8679311398232036 -4.9581934165285895e-17 -4.6849527925510936e-17 -4.9581934165285895e-17 -4.6849527925510936e-17 0.49668400856250217 0.8679314463931664
12649378666.666666 0.5033671403651938 0.8640726369932201 -4.993634136483183e-17 -4.645203411992789e-17 -4.993634136483183e-17 -4.645203411992789e-17 0.5033666070569208 0.8640729476727372
12649996000.0 0.5100197633860399 0.8601626828429015 -5.028756715270853e-17 -4.605186479384815e-17 -5.028756715270853e-17 -4.605186479384815e-17 0.510019232516914 0.860162997613073
12650613333.333334 0.5166420172096339 0.8562015101910355 -5.0635591374694985e-17 -4.564904537002622e-17 -5.0635591374694985e-17 -4.564904537002622e-17 0.5166414888110262 0.8562018290327207
12651230666.666666 0.5232335075129344 0.8521893549062681 -5.098039407940723e-17 -4.5243601422691705e-17 -5.098039407940723e-17 -4.5243601422691705e-17 0.5232329816160658 0.8521896778000844
12651848000.0 0.5297938418048411 0.8481264558929396 -5.1321955519450343e-17 -4.483555867591422e-17 -5.1321955519450343e-17 -4.483555867591422e-17 0.5297933184407799 0.8481267828192647
12652465333.333334 0.5363226294494401 0.8440130550769276 -5.166025615253349e-17 -4.442494300198756e-17 -5.166025615253349e-17 -4.442494300198756e-17 0.536322108649102 0.8440133860159033
12653082666.666666 0.5428194816891259 0.8398493973913419 -5.199527664257213e-17 -4.4011780419805623e-17 -5.199527664257213e-17 -4.4011780419805623e-17 0.5428189634832699 0.8398497323228709
12653700000.0 0.5492840116680572 0.8356357307617329 -5.232699786080071e-17 -4.3596097093201665e-17 -5.232699786080071e-17 -4.3596097093201665e-17 0.549283496087286 0.8356360696654842
12654317333.333334 0.5557158344549331 0.8313723060915053 -5.2655400886843147e-17 -4.317791932931556e-17 -5.2655400886843147e-17 -4.317791932931556e-17 0.5557153215296888 0.8313726489469114
12654934666.666666 0.5621145670660057 0.8270593772469098 -5.2980467009787796e-17 -4.275727357692983e-17 -5.2980467009787796e-17 -4.275727357692983e-17 0.5621140568265701 0.8270597240331712
12655552000.0 0.5684798284879589 0.8226972010418843 -5.3302177729248705e-17 -4.2334186424799873e-17 -5.3302177729248705e-17 -4.2334186424799873e-17 0.5684793209644505 0.8226975517379684
12656169333.333334 0.5748112397004513 0.8182860372228525 -5.362051475640261e-17 -4.190868459998964e-17 -5.362051475640261e-17 -4.190868459998964e-17 0.5748107349228243 0.8182863918074968
12656786666.666666 0.5811084236987822 0.8138261484531975 -5.393546001502447e-17 -4.148079496618434e-17 -5.393546001502447e-17 -4.148079496618434e-17 0.5811079216968242 0.8138265069049099
12657404000.0 0.587371005516292 0.8093178002976514 -5.424699564250262e-17 -4.1050544522004597e-17 -5.424699564250262e-17 -4.1050544522004597e-17 0.5873705063196226 0.8093181625947118
12658021333.333334 0.5935986122468051 0.8047612612064016 -5.455510399084894e-17 -4.061796039930263e-17 -5.455510399084894e-17 -4.061796039930263e-17 0.5935981158848731 0.8047616273268616
12658638666.666666 0.5997908730665806 0.8001568024992838 -5.4859767627676507e-17 -4.018306986147517e-17 -5.4859767627676507e-17 -4.018306986147517e-17 0.5997903795686653 0.8001571724209724
12659256000.0 0.6059474192566965 0.7955046983494191 -5.5160969337192014e-17 -3.9745900301732385e-17 -5.5160969337192014e-17 -3.9745900301732385e-17 0.6059469286519014 0.7955050720499383
12659873333.333334 0.612067884224858 0.7908052257669747 -5.5458692121152084e-17 -3.930647924138846e-17 -5.5458692121152084e-17 -3.930647924138846e-17 0.6120673965421133 0.7908056032237057
12660490666.666666 0.6181519035271006 0.7860586645827856 -5.575291919980716e-17 -3.886483432814601e-17 -5.575291919980716e-17 -3.886483432814601e-17 0.6181514187951586 0.7860590457728872
12661108000.0 0.6241991148897783 0.7812652974314602 -5.60436340128516e-17 -3.842099333434252e-17 -5.60436340128516e-17 -3.842099333434252e-17 0.6241986331372134 0.7812656823318713
12661725333.333334 0.6302091582308897 0.7764254097347438 -5.633082022033486e-17 -3.797498415522882e-17 -5.633082022033486e-17 -3.797498415522882e-17 0.6302086794860955 0.7764257983221845
12662342666.666666 0.63618167568163 0.771539289684435 -5.661446170357507e-17 -3.752683480721444e-17 -5.661446170357507e-17 -3.752683480721444e-17 0.6361811999728197 0.7715396819354096
12662960000.0 0.642116311607682 0.7666072282252472 -5.689454256605254e-17 -3.707657342611822e-17 -5.689454256605254e-17 -3.707657342611822e-17 0.6421158389628836 0.7666076241160417
12663577333.333334 0.648012712630365 0.761629519037495 -5.717104713429466e-17 -3.66242282654021e-17 -5.717104713429466e-17 -3.66242282654021e-17 0.6480122430774221 0.7616299185441824
12664194666.666666 0.6538705276477673 0.7566064585195396 -5.744395995873702e-17 -3.6169827694414916e-17 -5.744395995873702e-17 -3.6169827694414916e-17 0.6538700612143368 0.7566068616179802
12664812000.0 0.6596894078555218 0.751538345770248 -5.771326581457991e-17 -3.5713400196615276e-17 -5.771326581457991e-17 -3.5713400196615276e-17 0.6596889445690716 0.7515387524360896
12665429333.333334 0.6654690067676615 0.7464254825711089 -5.797894970263136e-17 -3.5254974367786185e-17 -5.797894970263136e-17 -3.5254974367786185e-17 0.6654685466554701 0.7464258927797901
12666046666.666666 0.6712089802372084 0.741268173368301 -5.824099685012141e-17 -3.4794578914268527e-17 -5.824099685012141e-17 -3.4794578914268527e-17 0.6712085233263625 0.7412685870950516
12666664000.0 0.6769089864767723 0.7360667252544696 -5.849939271152714e-17 -3.4332242651147104e-17 -5.849939271152714e-17 -3.4332242651147104e-17 0.6769085327941654 0.7360671424743126
12667281333.333334 0.6825686860786707 0.7308214479506521 -5.875412296935863e-17 -3.3867994500472105e-17 -5.875412296935863e-17 -3.3867994500472105e-17 0.6825682356510009 0.7308218686384045
12667898666.666666 0.6881877420354106 0.7255326537875837 -5.900517353494594e-17 -3.3401863489450134e-17 -5.900517353494594e-17 -3.3401863489450134e-17 0.6881872948891803 0.7255330779178589
12668516000.0 0.6937658197596301 0.7202006576872162 -5.925253054920991e-17 -3.29338787486306e-17 -5.925253054920991e-17 -3.29338787486306e-17 0.693765375921144 0.7202010852344252
12669133333.333334 0.6993025871038991 0.7148257771440836 -5.949618038341129e-17 -3.24640695101024e-17 -5.949618038341129e-17 -3.24640695101024e-17 0.6993021465992617 0.7148262080824364
12669750666.666666 0.7047977143807643 0.7094083322061426 -5.97361096398933e-17 -3.199246510566933e-17 -5.97361096398933e-17 -3.199246510566933e-17 0.7047972772358788 0.709408766509649
12670368000.0 0.710250874382173 0.7039486454559094 -5.997230515281061e-17 -3.151909496501871e-17 -5.997230515281061e-17 -3.151909496501871e-17 0.7102504406227405 0.7039490830983819
