! Parameters = {f0=12700.012000; bw=77.238000; Q=6100.000000; N=10; m_0_1=1.340636; m_1_1=1.344789; m_1_2=1.175448; m_2_2=1.344140; m_2_3=0.812411; m_2_8=0.004095; m_2_9=0.040799; m_3_3=1.342203; m_3_4=0.700940; m_3_7=0.004695; m_3_8=-0.092393; m_3_9=0.004095; m_4_4=1.339278; m_4_5=0.537275; m_4_6=0.008212; m_4_7=-0.112942; m_4_8=0.004695; m_5_5=1.339660; m_5_6=0.944630; m_5_7=0.008212; m_6_6=1.339659; m_6_7=0.537617; m_7_7=1.339292; m_7_8=0.701058; m_8_8=1.342201; m_8_9=0.812724; m_9_9=1.344135; m_9_10=1.176526; m_10_10=1.344779; m_10_11=1.341431}
!
! Created with skrf (http://scikit-rf.org).
# Hz S RI R 50.0 
!freq ReS11 ImS11 ReS21 ImS21 ReS12 ImS12 ReS22 ImS22
12607400000.0 -0.48287925197715414 0.8756869463511423 3.269721153435375e-17 -1.490637759171008e-16 3.269721153435375e-17 -1.490637759171008e-16 -0.4828798703793182 0.875686605345917
12608017333.333334 -0.4717977512848171 0.8817068004061183 3.0795513223261164e-17 -1.4943772753153093e-16 3.0795513223261164e-17 -1.4943772753153093e-16 -0.4717983739076703 0.8817064672428582
12608634666.666666 -0.460641216682447 0.8875864293087853 2.888959280111381e-17 -1.4978743138386512e-16 2.888959280111381e-17 -1.4978743138386512e-16 -0.46064184342656017 0.8875861040397055
12609252000.0 -0.44941142248649546 0.8933248979729985 2.697975927176066e-17 -1.5011284057472394e-16 2.697975927176066e-17 -1.5011284057472394e-16 -0.44941205325179395 0.8933245806490545
12609869333.333334 -0.43811015466429215 0.8989212937626045 2.5066322149017815e-17 -1.5041391214040766e-16 2.5066322149017815e-17 -1.5041391214040766e-16 -0.43811078935007125 0.8989209844334826
12610486666.666666 -0.4267392105504105 0.9043747266363744 2.314959140657669e-17 -1.5069060705828074e-16 2.314959140657669e-17 -1.5069060705828074e-16 -0.42673984905535195 0.9043744253504844
12611104000.0 -0.41530039856041767 0.9096843292897613 2.122987742780639e-17 -1.509428902515264e-16 2.122987742780639e-17 -1.509428902515264e-16 -0.4153010407826058 0.9096840360942297
12611721333.333334 -0.4037955379036752 0.9148492572926348 1.930749095563818e-17 -1.5117073059324481e-16 1.930749095563818e-17 -1.5117073059324481e-16 -0.40379618374061355 0.9148489722332972
12612338666.666666 -0.3922264582936565 0.9198686892237488 1.7382743042248788e-17 -1.5137410090993654e-16 1.7382743042248788e-17 -1.5137410090993654e-16 -0.3922271076422836 0.9198684123451423
12612956000.0 -0.3805949996571044 0.9247418268013032 1.5455944998790454e-17 -1.5155297798433404e-16 1.5455944998790454e-17 -1.5155297798433404e-16 -0.38059565241381 0.9247415581466585
12613573333.333334 -0.3689030118415188 0.9294678950098593 1.3527408345176734e-17 -1.517073425575889e-16 1.3527408345176734e-17 -1.517073425575889e-16 -0.3689036679021613 0.9294676346210962
12614190666.666666 -0.3571523543208562 0.9340461422236443 1.159744475969053e-17 -1.5183717933083593e-16 1.159744475969053e-17 -1.5183717933083593e-16 -0.3571530135807783 0.9340458901413634
12614808000.0 -0.3453448958996419 0.9384758403261476 9.666366028715578e-18 -1.5194247696610575e-16 9.666366028715578e-18 -1.5194247696610575e-16 -0.3453455582536883 0.9384755965896249
12615425333.333334 -0.3334825144161303 0.9427562848257756 7.734483996427081e-18 -1.5202322808660243e-16 7.734483996427081e-18 -1.5202322808660243e-16 -0.3334831797586636 0.9427560494729558
12616042666.666666 -0.3215670964432306 0.9468867949680537 5.802110514458201e-18 -1.5207942927634484e-16 5.802110514458201e-18 -1.5207942927634484e-16 -0.32156776466814885 0.9468865680355454
12616660000.0 -0.3096005369888976 0.9508667138437382 3.869557391671368e-18 -1.521110810791642e-16 3.869557391671368e-18 -1.521110810791642e-16 -0.3096012079896506 0.9508664953668067
12617277333.333334 -0.29758473919432243 0.9546954084934366 1.93713634386116e-18 -1.5211818799706907e-16 1.93713634386116e-18 -1.5211818799706907e-16 -0.2975854128639289 0.9546951985059989
12617894666.666666 -0.285521614031693 0.9583722700081331 5.158943586909422e-21 -1.5210075848796995e-16 5.158943586909422e-21 -1.5210075848796995e-16 -0.2855222902627576 0.9583720685427521
12618512000.0 -0.2734130799998405 0.9618967136261586 -1.9260634300989402e-18 -1.5205880496276763e-16 -1.9260634300989402e-18 -1.5205880496276763e-16 -0.2734137586845718 0.9618965207140417
12619129333.333334 -0.26126106281956313 0.9652681788260689 -3.856219641655486e-18 -1.519923437818066e-16 -3.856219641655486e-18 -1.519923437818066e-16 -0.2612617438497891 0.9652679944970571
12619746666.666666 -0.2490674951269779 0.9684861294158925 -5.7849988492066705e-18 -1.519013952506913e-16 -5.7849988492066705e-18 -1.519013952506913e-16 -0.24906817839416479 0.9684859536984607
12620364000.0 -0.2368343161663221 0.9715500536183579 -7.712090554541103e-18 -1.5178598361546725e-16 -7.712090554541103e-18 -1.5178598361546725e-16 -0.23683500156159065 0.9715498865396078
12620981333.333334 -0.2245634714816498 0.9744594641522623 -9.637184652950744e-18 -1.5164613705717578e-16 -9.637184652950744e-18 -1.5164613705717578e-16 -0.22456415889579306 0.9744593057379197
12621598666.666666 -0.21225691260730584 0.9772138983099954 -1.1559971483193678e-17 -1.5148188768576454e-16 -1.1559971483193678e-17 -1.5148188768576454e-16 -0.2122576019308067 0.9772137485844062
12622216000.0 -0.19991659675739074 0.9798129180311651 -1.3480141877150193e-17 -1.5129327153337865e-16 -1.3480141877150193e-17 -1.5129327153337865e-16 -0.1999172878804388 0.9798127770172897
12622833333.333334 -0.18754448651482075 0.9822561099721884 -1.5397387209526577e-17 -1.5108032854701462e-16 -1.5397387209526577e-17 -1.5108032854701462e-16 -0.1875451793273305 0.982255977691601
12623450666.666666 -0.17514254951903702 0.9845430855720724 -1.731139944735724e-17 -1.5084310258055242e-16 -1.731139944735724e-17 -1.5084310258055242e-16 -0.17514324391066483 0.984542962044955
12624068000.0 -0.16271275815296213 0.986673481114223 -1.9221871199477952e-17 -1.5058164138615337e-16 -1.9221871199477952e-17 -1.5058164138615337e-16 -0.16271345401312431 0.9866733663593655
12624685333.333334 -0.15025708922942851 0.9886469577842755 -2.1128495765841732e-17 -1.5029599660503432e-16 -2.1128495765841732e-17 -1.5029599660503432e-16 -0.15025778644731835 0.988646851819069
12625302666.666666 -0.1377775236769571 0.9904632017239461 -2.3030967186610122e-17 -1.4998622375763298e-16 -2.3030967186610122e-17 -1.4998622375763298e-16 -0.13777822214156282 0.9904631045643821
12625920000.0 -0.12527604622432084 0.9921219240810109 -2.4928980291319594e-17 -1.4965238223312174e-16 -2.4928980291319594e-17 -1.4965238223312174e-16 -0.12527674582444345 0.9921218357416802
12626537333.333334 -0.11275464508529065 0.9936228610551862 -2.6822230747645258e-17 -1.492945352783388e-16 -2.6822230747645258e-17 -1.492945352783388e-16 -0.1127553457095615 0.9936227815492765
12627154666.666666 -0.10021531164226505 0.9949657739401133 -2.8710415110223955e-17 -1.4891274998607087e-16 -2.8710415110223955e-17 -1.4891274998607087e-16 -0.10021601317916318 0.9949657032794035
12627772000.0 -0.08766004012939324 0.9961504491613289 -3.059323086922914e-17 -1.4850709728272956e-16 -3.059323086922914e-17 -1.4850709728272956e-16 -0.08766074246726377 0.9961503873561924
12628389333.333334 -0.07509082731581233 0.9971766983101995 -3.247037649869245e-17 -1.4807765191543594e-16 -3.247037649869245e-17 -1.4807765191543594e-16 -0.07509153034288375 0.9971766453695993
12629006666.666666 -0.06250967218768802 0.9980443581739201 -3.434155150484996e-17 -1.4762449243845137e-16 -3.434155150484996e-17 -1.4762449243845137e-16 -0.0625103757920902 0.9980443141054086
12629624000.0 -0.04991857563046887 0.9987532907614521 -3.6206456474092325e-17 -1.4714770119904344e-16 -3.6206456474092325e-17 -1.4714770119904344e-16 -0.049919279700250827 0.9987532555711706
12630241333.333334 -0.03731954011078268 0.9993033833254662 -3.8064793120865416e-17 -1.466473643227163e-16 -3.8064793120865416e-17 -1.466473643227163e-16 -0.03732024453393035 0.9993033570181435
12630858666.666666 -0.024714569357854252 0.999694548380284 -3.991626433526966e-17 -1.46123571697861e-16 -3.991626433526966e-17 -1.46123571697861e-16 -0.0247152740223083 0.9996945309592354
12631476000.0 -0.012105668044665013 0.9999267237157918 -4.176057423059287e-17 -1.4557641695976776e-16 -4.176057423059287e-17 -1.4557641695976776e-16 -0.0121063728383387 0.9999267151829193
12632093333.333334 0.0005051585305258126 0.9999998724073238 -4.3597428190419646e-17 -1.450059974740976e-16 -4.3597428190419646e-17 -1.450059974740976e-16 0.0005044537197288154 0.999999872763116
12632710666.666666 0.013115904763270814 0.9999139828215454 -4.5426532915716885e-17 -1.4441241431970388e-16 -4.5426532915716885e-17 -1.4441241431970388e-16 0.013115200047438606 0.9999139920650769
12633328000.0 0.025724565062016064 0.9996690686182981 -4.724759647159653e-17 -1.4379577227088554e-16 -4.724759647159653e-17 -1.4379577227088554e-16 0.025723860553210697 0.9996690867472308
12633945333.333334 0.0383291341668964 0.9992651687484257 -4.906032833380833e-17 -1.431561797790648e-16 -4.906032833380833e-17 -1.431561797790648e-16 0.038328429977136085 0.9992651957590091
12634562666.666666 0.05092760746876231 0.9987023474475826 -5.086443943506046e-17 -1.424937489538547e-16 -5.086443943506046e-17 -1.424937489538547e-16 0.05092690371000353 0.9987023833346528
12635180000.0 0.0635179813277622 0.9979806942260206 -5.2659642211046276e-17 -1.4180859554355745e-16 -5.2659642211046276e-17 -1.4180859554355745e-16 0.06351727811188194 0.9979807389830031
12635797333.333334 0.0760982533923954 0.9971003238543403 -5.4445650646226955e-17 -1.4110083891507867e-16 -5.4445650646226955e-17 -1.4110083891507867e-16 0.07609755083117348 0.9971003774732513
12636414666.666666 0.0886664229175655 0.9960613763452568 -5.622218031930658e-17 -1.403706020332808e-16 -5.622218031930658e-17 -1.403706020332808e-16 0.08866572112266663 0.9960614388167035
12637032000.0 0.10122049108294567 0.9948640169313249 -5.798894844851248e-17 -1.3961801143973412e-16 -5.798894844851248e-17 -1.3961801143973412e-16 0.10121979016590181 0.994864088244507
12637649333.333334 0.11375846131103746 0.9935084360386428 -5.974567393651365e-17 -1.3884319723093044e-16 -5.974567393651365e-17 -1.3884319723093044e-16 0.11375776138323003 0.9935085161813559
12638266666.666666 0.1262783395843068 0.9919948492566052 -6.149207741508198e-17 -1.3804629303592007e-16 -6.149207741508198e-17 -1.3804629303592007e-16 0.12627764075694914 0.9919949382152426
12638884000.0 0.1387781347627616 0.9903234973035696 -6.322788128948897e-17 -1.3722743599337394e-16 -6.322788128948897e-17 -1.3722743599337394e-16 0.13877743714688112 0.9903235950631228
12639501333.333334 0.15125585890022364 0.9884946459886156 -6.495280978252787e-17 -1.3638676672811945e-16 -6.495280978252787e-17 -1.3638676672811945e-16 0.15125516260664437 0.988494752532679
12640118666.666666 0.16370952756060253 0.9865085861692685 -6.666658897825857e-17 -1.3552442932711247e-16 -6.666658897825857e-17 -1.3552442932711247e-16 0.163708832699927 0.9865087014800387
12640736000.0 0.17613716013394415 0.9843656337051564 -6.836894686551848e-17 -1.3464057131481567e-16 -6.836894686551848e-17 -1.3464057131481567e-16 0.17613646681653655 0.98436575776344
12641353333.333334 0.18853678015047126 0.9820661294079428 -7.005961338092591e-17 -1.3373534362812617e-16 -7.005961338092591e-17 -1.3373534362812617e-16 0.1885360884864396 0.9820662621931567
12641970666.666666 0.20090641559592604 0.9796104389869484 -7.173832045174394e-17 -1.3280890059066543e-16 -7.173832045174394e-17 -1.3280890059066543e-16 0.20090572569510456 0.979610580477124
12642588000.0 0.21324409922446874 0.9769989529911225 -7.340480203828392e-17 -1.3186139988659519e-16 -7.340480203828392e-17 -1.3186139988659519e-16 0.21324341119640064 0.9769991031629082
12643205333.333334 0.22554786887199182 0.974232086746843 -7.505879417600387e-17 -1.3089300253388384e-16 -7.505879417600387e-17 -1.3089300253388384e-16 0.22554718282591163 0.9742322455755094
12643822666.666666 0.23781576776795524 0.9713102802919062 -7.670003501728458e-17 -1.2990387285702705e-16 -7.670003501728458e-17 -1.2990387285702705e-16 0.237815083812772 0.9713104477513503
12644440000.0 0.2500458448467006 0.9682339983055255 -7.832826487277458e-17 -1.2889417845928977e-16 -7.832826487277458e-17 -1.2889417845928977e-16 0.25004516309097957 0.9682341743682722
12645057333.333334 0.26223615505757714 0.9650037300344606 -7.994322625245204e-17 -1.2786409019438272e-16 -7.994322625245204e-17 -1.2786409019438272e-16 0.2622354756095239 0.9650039146716719
12645674666.666666 0.27438475967439335 0.9616199892151942 -8.154466390623584e-17 -1.268137821376751e-16 -8.154466390623584e-17 -1.268137821376751e-16 0.2743840826418354 0.9616201823966691
12646292000.0 0.2864897266039093 0.9580833139921714 -8.313232486434275e-17 -1.2574343155682104e-16 -8.313232486434275e-17 -1.2574343155682104e-16 0.2864890520942798 0.9580835156863547
12646909333.333334 0.29854913069278727 0.9543942668323112 -8.470595847708065e-17 -1.246532188819984e-16 -8.470595847708065e-17 -1.246532188819984e-16 0.2985484588131077 0.954394477006297
12647526666.666666 0.31056105403392875 0.950553434435508 -8.626531645442558e-17 -1.2354332767553886e-16 -8.626531645442558e-17 -1.2354332767553886e-16 0.3105603848907916 0.9505536530550432
12648144000.0 0.32252358627160316 0.9465614276412858 -8.781015290512253e-17 -1.224139446011138e-16 -8.781015290512253e-17 -1.224139446011138e-16 0.3225229199711555 0.9465616546707797
12648761333.333334 0.33443482490515763 0.9424188813316835 -8.934022437536449e-17 -1.2126525939244925e-16 -8.934022437536449e-17 -1.2126525939244925e-16 0.3344341615530843 0.9424191167342106
12649378666.666666 0.3462928755914818 0.9381264543303254 -9.085528988708527e-17 -1.2009746482154436e-16 -9.085528988708527e-17 -1.2009746482154436e-16 0.3462922152929883 0.9381266980676326
12649996000.0 0.3580958524463884 0.933684829297606 -9.235511097590584e-17 -1.1891075666635956e-16 -9.235511097590584e-17 -1.1891075666635956e-16 0.35809519530618444 0.9336850813301184
12650613333.333334 0.3698418783447004 0.9290947126220606 -9.383945172853741e-17 -1.1770533367812555e-16 -9.383945172853741e-17 -1.1770533367812555e-16 0.3698412244669831 0.929094972908888
12651230666.666666 0.38152908521841317 0.9243568343081615 -9.530807881982111e-17 -1.164813975481405e-16 -9.530807881982111e-17 -1.164813975481405e-16 0.38152843470685094 0.9243571028071051
12651848000.0 0.3931556143541609 0.9194719478600782 -9.676076154939543e-17 -1.1523915287405736e-16 -9.676076154939543e-17 -1.1523915287405736e-16 0.3931549673118765 0.9194722245276373
12652465333.333334 0.40471961668866296 0.9144408301619007 -9.819727187780575e-17 -1.1397880712581147e-16 -9.819727187780575e-17 -1.1397880712581147e-16 0.40471897321821715 0.9144411149532792
12653082666.666666 0.4162192531026403 0.909264281354154 -9.961738446223273e-17 -1.1270057061105273e-16 -9.961738446223273e-17 -1.1270057061105273e-16 0.4162186133060158 0.9092645742232685
12653700000.0 0.42765269471366923 0.9039431247063852 -1.0102087669183385e-16 -1.1140465644007428e-16 -1.0102087669183385e-16 -1.1140465644007428e-16 0.42765205869225514 0.9039434256058728
12654317333.333334 0.4390181231666818 0.898478206486395 -1.0240752872247845e-16 -1.1009128049044098e-16 -1.0240752872247845e-16 -1.1009128049044098e-16 0.43901749102125714 0.8984785153676214
12654934666.666666 0.4503137309233108 0.8928703958255834 -1.0377712351117599e-16 -1.0876066137104805e-16 -1.0377712351117599e-16 -1.0876066137104805e-16 0.4503131027540274 0.8928707126386471
12655552000.0 0.4615377215495061 0.8871205845806389 -1.0512944684996813e-16 -1.0741302038581561e-16 -1.0512944684996813e-16 -1.0741302038581561e-16 0.4615370974558748 0.8871209092743846
12656169333.333334 0.47268831000088507 0.881229687191887 -1.0646428739932804e-16 -1.0604858149698823e-16 -1.0646428739932804e-16 -1.0604858149698823e-16 0.47268769008175787 0.8812300197139089
12656786666.666666 0.4837637229070244 0.8751986405376443 -1.0778143672113795e-16 -1.0466757128796577e-16 -1.0778143672113795e-16 -1.0466757128796577e-16 0.48376310726058 0.8751989808342976
12657404000.0 0.49476219885309247 0.8690284037854329 -1.0908068931115696e-16 -1.0327021892575672e-16 -1.0908068931115696e-16 -1.0327021892575672e-16 0.4947615875768211 0.8690287518018421
12658021333.333334 0.5056819886603823 0.8627199582392223 -1.1036184263101404e-16 -1.018567561230171e-16 -1.1036184263101404e-16 -1.018567561230171e-16 0.5056813818510695 0.8627203139192897
12658638666.666666 0.5165213556641004 0.8562743071835828 -1.1162469713967654e-16 -1.0042741709973173e-16 -1.1162469713967654e-16 -1.0042741709973173e-16 0.5165207534178116 0.8562746704699966
12659256000.0 0.5272785759899083 0.8496924757239288 -1.1286905632450904e-16 -9.898243854441139e-17 -1.1286905632450904e-16 -9.898243854441139e-17 0.527277978401974 0.8496928465581737
12659873333.333334 0.5379519388279359 0.8429755106235706 -1.1409472673172268e-16 -9.752205957502704e-17 -1.1409472673172268e-16 -9.752205957502704e-17 0.5379513459929369 0.8429758889459369
12660490666.666666 0.5485397467047223 0.8361244801373316 -1.1530151799637292e-16 -9.604652169951237e-17 -1.1530151799637292e-16 -9.604652169951237e-17 0.5485391587164739 0.8361248658869245
12661108000.0 0.5590403157535164 0.8291404738414441 -1.1648924287189522e-16 -9.455606877583588e-17 -1.1648924287189522e-16 -9.455606877583588e-17 0.5590397327050538 0.8291408669561928
12661725333.333334 0.5694519759817374 0.8220246024604733 -1.1765771725902263e-16 -9.305094697183447e-17 -1.1765771725902263e-16 -9.305094697183447e-17 0.5694513979653021 0.8220250028771434
12662342666.666666 0.5797730715367181 0.8147779976905882 -1.1880676023426686e-16 -9.153140472459189e-17 -1.1880676023426686e-16 -9.153140472459189e-17 0.5797724986437416 0.814778405344789
12662960000.0 0.5900019609691821 0.807401812019471 -1.19936194077844e-16 -8.999769269950712e-17 -1.19936194077844e-16 -8.999769269950712e-17 0.590001393290272 0.8074022268456671
12663577333.333334 0.6001370174939735 0.7998972185432596 -1.2104584430107754e-16 -8.84500637490121e-17 -1.2104584430107754e-16 -8.84500637490121e-17 0.6001364551189006 0.7998976404747825
12664194666.666666 0.610176629249149 0.7922654107797159 -1.2213553967327044e-16 -8.688877287095369e-17 -1.2213553967327044e-16 -8.688877287095369e-17 0.6101760722668308 0.7922658397487728
12664812000.0 0.6201191995519565 0.7845076024786789 -1.2320511224804123e-16 -8.531407716664547e-17 -1.2320511224804123e-16 -8.531407716664547e-17 0.6201186480504447 0.7845080384163651
12665429333.333334 0.6299631471531351 0.77662502742876 -1.242543973891254e-16 -8.372623579859044e-17 -1.242543973891254e-16 -8.372623579859044e-17 0.6299626012196009 0.7766254702650683
12666046666.666666 0.6397069064880317 0.7686189392613992 -1.2528323379560456e-16 -8.212550994792964e-17 -1.2528323379560456e-16 -8.212550994792964e-17 0.6397063662087525 0.7686193889252326
12666664000.0 0.6493489279259422 0.7604906112512066 -1.262914635266588e-16 -8.051216277147596e-17 -1.262914635266588e-16 -8.051216277147596e-17 0.649348393386289 0.760491067670391
12667281333.333334 0.6588876780162136 0.7522413361137555 -1.2727893202567375e-16 -7.888645935858826e-17 -1.2727893202567375e-16 -7.888645935858826e-17 0.6588871493006336 0.7522417992150463
12667898666.666666 0.6683216397324209 0.7438724257997299 -1.282454881438631e-16 -7.724866668764392e-17 -1.282454881438631e-16 -7.724866668764392e-17 0.668321116924429 0.7438728955088287
12668516000.0 0.6776493127135041 0.7353852112863847 -1.2919098416330423e-16 -7.559905358226666e-17 -1.2919098416330423e-16 -7.559905358226666e-17 0.677648795895668 0.735385687527951
12669133333.333334 0.6868692135023008 0.7267810423659491 -1.3011527581941725e-16 -7.393789066726714e-17 -1.3011527581941725e-16 -7.393789066726714e-17 0.686868702756226 0.7267815250636087
12669750666.666666 0.6959798757815562 0.7180612874308808 -1.3101822232287741e-16 -7.226545032430962e-17 -1.3101822232287741e-16 -7.226545032430962e-17 0.6959793711878755 0.7180617765072412
