! Parameters = {f0=12700.012000; bw=77.238000; Q=6100.000000; N=10; m_0_1=1.224920; m_1_1=-0.390947; m_1_2=1.059732; m_2_2=-0.391596; m_2_3=0.696695; m_2_8=-0.001690; m_2_9=0.035014; m_3_3=-0.393533; m_3_4=0.585224; m_3_7=-0.001090; m_3_8=-0.098178; m_3_9=-0.001690; m_4_4=-0.396458; m_4_5=0.421559; m_4_6=0.002427; m_4_7=-0.118727; m_4_8=-0.001090; m_5_5=-0.396076; m_5_6=0.828914; m_5_7=0.002427; m_6_6=-0.396077; m_6_7=0.421901; m_7_7=-0.396444; m_7_8=0.585342; m_8_8=-0.393535; m_8_9=0.697008; m_9_9=-0.391601; m_9_10=1.060810; m_10_10=-0.390957; m_10_11=1.225715}
!
! Created with skrf (http://scikit-rf.org).
# Hz S RI R 50.0 
!freq ReS11 ImS11 ReS21 ImS21 ReS12 ImS12 ReS22 ImS22
12607400000.0 -0.9627590388016268 0.2703609313595505 7.530993672941554e-17 -4.7402163850379724e-17 7.530993672941554e-17 -4.7402163850379724e-17 -0.962759213303279 0.270360309955969
12608017333.333334 -0.9602337287085262 0.27919739656801257 7.485219584385932e-17 -4.808948995064908e-17 7.485219584385932e-17 -4.808948995064908e-17 -0.9602339089047662 0.27919677682471467
12608634666.666666 -0.9576273169792129 0.28801028067593315 7.438818870001445e-17 -4.87724058590096e-17 7.438818870001445e-17 -4.87724058590096e-17 -0.9576275028542637 0.2880096626450972
12609252000.0 -0.9549400237520808 0.296798839344449 7.391795769910791e-17 -4.9450854509930906e-17 7.391795769910791e-17 -4.9450854509930906e-17 -0.9549402152896881 0.29679822307810383
12609869333.333334 -0.9521720759967969 0.3055623302892313 7.344154576146021e-17 -5.012477924473498e-17 7.344154576146021e-17 -5.012477924473498e-17 -0.9521722731802309 0.3055617158392519
12610486666.666666 -0.9493237074951644 0.3143000133430993 7.295899632258799e-17 -5.079412381631505e-17 7.295899632258799e-17 -5.079412381631505e-17 -0.9493239103072174 0.3142994007612016
12611104000.0 -0.946395158821307 0.32301115051872287 7.247035332925345e-17 -5.145883239382848e-17 7.247035332925345e-17 -5.145883239382848e-17 -0.9463953672443001 0.3230105398564605
12611721333.333334 -0.9433866773214303 0.331695006070739 7.197566123550068e-17 -5.211884956731389e-17 7.197566123550068e-17 -5.211884956731389e-17 -0.9433868913372114 0.33169439737949813
12612338666.666666 -0.9402985170928707 0.3403508465580532 7.147496499862238e-17 -5.277412035230657e-17 7.147496499862238e-17 -5.277412035230657e-17 -0.9402987366828176 0.3403502398890488
12612956000.0 -0.9371309389626168 0.3489779409058405 7.096831007508513e-17 -5.3424590194415676e-17 7.096831007508513e-17 -5.3424590194415676e-17 -0.9371311641076369 0.348977336310111
12613573333.333334 -0.933884210465402 0.3575755604669431 7.045574241644217e-17 -5.407020497382417e-17 7.045574241644217e-17 -5.407020497382417e-17 -0.9338844411459378 0.35757495799534794
12614190666.666666 -0.9305586058209581 0.3661429790838417 6.993730846516821e-17 -5.471091100979779e-17 6.993730846516821e-17 -5.471091100979779e-17 -0.9305588420169849 0.3661423787870553
12614808000.0 -0.9271544059109388 0.37467947314974526 6.941305515047704e-17 -5.534665506512461e-17 6.941305515047704e-17 -5.534665506512461e-17 -0.9271546476019685 0.37467887507825326
12615425333.333334 -0.9236718982551657 0.3831843216697862 6.88830298840971e-17 -5.597738435051651e-17 6.88830298840971e-17 -5.597738435051651e-17 -0.9236721454202487 0.383183725873882
12616042666.666666 -0.9201113769873911 0.39165680632181316 6.834728055599369e-17 -5.66030465289887e-17 6.834728055599369e-17 -5.66030465289887e-17 -0.9201116296051168 0.3916562128515925
12616660000.0 -0.9164731428303869 0.4000962115172156 6.780585553006651e-17 -5.722358972017807e-17 6.780585553006651e-17 -5.722358972017807e-17 -0.9164734008788864 0.4000956204225732
12617277333.333334 -0.9127575030705789 0.4085018244612853 6.725880363979914e-17 -5.783896250463289e-17 6.725880363979914e-17 -5.783896250463289e-17 -0.9127577665275262 0.4085012357919098
12617894666.666666 -0.9089647715321263 0.4168729352133401 6.670617418387993e-17 -5.844911392804988e-17 6.670617418387993e-17 -5.844911392804988e-17 -0.9089650403747425 0.4168723490187114
12618512000.0 -0.9050952685503386 0.42520883674686916 6.614801692176557e-17 -5.905399350548962e-17 6.614801692176557e-17 -5.905399350548962e-17 -0.9050955427553916 0.42520825307625304
12619129333.333334 -0.9011493209447128 0.4335088250090407 6.558438206923258e-17 -5.965355122552269e-17 6.558438206923258e-17 -5.965355122552269e-17 -0.9011496004885184 0.4335082439114842
12619746666.666666 -0.8971272619912561 0.44177219898032094 6.501532029386712e-17 -6.024773755435883e-17 6.501532029386712e-17 -6.024773755435883e-17 -0.8971275468496834 0.44177162050464985
12620364000.0 -0.893029431394327 0.449998260733708 6.44408827105264e-17 -6.083650343992444e-17 6.44408827105264e-17 -6.083650343992444e-17 -0.8930297215427978 0.4499976849285216
12620981333.333334 -0.8888561752580401 0.45818631549347416 6.386112087677887e-17 -6.141980031588039e-17 6.386112087677887e-17 -6.141980031588039e-17 -0.888856470671532 0.45818574240714144
12621598666.666666 -0.8846078460569641 0.4663356716940012 6.327608678828405e-17 -6.199758010562239e-17 6.327608678828405e-17 -6.199758010562239e-17 -0.8846081467100129 0.46633510137465717
12622216000.0 -0.8802848026063347 0.474445641038215 6.268583287414481e-17 -6.256979522622805e-17 6.268583287414481e-17 -6.256979522622805e-17 -0.880285108473036 0.47444507353375587
12622833333.333334 -0.8758874100317756 0.48251553855566753 6.209041199222961e-17 -6.313639859235477e-17 6.209041199222961e-17 -6.313639859235477e-17 -0.875887721085786 0.48251497391374665
12623450666.666666 -0.8714160397384842 0.4905446826603394 6.148987742446169e-17 -6.369734362009171e-17 6.148987742446169e-17 -6.369734362009171e-17 -0.8714163559530271 0.4905441209283651
12624068000.0 -0.8668710693798564 0.4985323952082354 6.088428287205727e-17 -6.425258423078278e-17 6.088428287205727e-17 -6.425258423078278e-17 -0.8668713907277207 0.49853183643336463
12624685333.333334 -0.8622528828254864 0.5064780015548308 6.027368245074552e-17 -6.480207485478865e-17 6.027368245074552e-17 -6.480207485478865e-17 -0.8622532092790294 0.5064774457839659
12625302666.666666 -0.8575618701289415 0.5143808306117063 5.965813068595746e-17 -6.534577043520267e-17 5.965813068595746e-17 -6.534577043520267e-17 -0.8575622016600933 0.514380277891492
12625920000.0 -0.8527984274945801 0.522240214903648 5.903768250795289e-17 -6.588362643154588e-17 5.903768250795289e-17 -6.588362643154588e-17 -0.8527987640748441 0.5222396652804665
12626537333.333334 -0.8479629572443428 0.5300554906245803 5.841239324695941e-17 -6.641559882337595e-17 5.841239324695941e-17 -6.641559882337595e-17 -0.8479632988447999 0.5300549441445483
12627154666.666666 -0.8430558677836045 0.5378259976939275 5.778231862824177e-17 -6.694164411388393e-17 5.778231862824177e-17 -6.694164411388393e-17 -0.8430562143749131 0.5378254544028911
12627772000.0 -0.8380775735666438 0.5455510798124081 5.714751476714788e-17 -6.746171933343513e-17 5.714751476714788e-17 -6.746171933343513e-17 -0.8380779251190427 0.545550539755939
12628389333.333334 -0.8330284950618159 0.5532300845171761 5.650803816414296e-17 -6.797578204304809e-17 5.650803816414296e-17 -6.797578204304809e-17 -0.8330288515451313 0.5532295477405703
12629006666.666666 -0.8279090587158836 0.5608623632371992 5.586394569977558e-17 -6.848379033785654e-17 5.586394569977558e-17 -6.848379033785654e-17 -0.8279094200995248 0.5608618297854692
12629624000.0 -0.8227196969180655 0.5684472713479094 5.521529462965365e-17 -6.898570285049055e-17 5.521529462965365e-17 -6.898570285049055e-17 -0.8227200631710325 0.5684467412657837
12630241333.333334 -0.8174608479634886 0.5759841682257002 5.4562142579357104e-17 -6.948147875443715e-17 5.4562142579357104e-17 -6.948147875443715e-17 -0.8174612190543733 0.5759836415576182
12630858666.666666 -0.8121329560162354 0.5834724173019397 5.3904547539354187e-17 -6.997107776732681e-17 5.3904547539354187e-17 -6.997107776732681e-17 -0.8121333319132241 0.5834718940920479
12631476000.0 -0.8067364710717143 0.5909113861168971 5.324256785983469e-17 -7.045446015421284e-17 5.324256785983469e-17 -7.045446015421284e-17 -0.8067368517425905 0.5909108664090461
12632093333.333334 -0.80127184891877 0.5983004463730011 5.2576262245582106e-17 -7.093158673075103e-17 5.2576262245582106e-17 -7.093158673075103e-17 -0.8012722343309164 0.5982999302107407
12632710666.666666 -0.7957395511011512 0.6056389739879487 5.190568975076722e-17 -7.140241886636832e-17 5.190568975076722e-17 -7.140241886636832e-17 -0.7957399412215542 0.6056384614145256
12633328000.0 -0.7901400448784117 0.6129263491475774 5.123090977372768e-17 -7.186691848737193e-17 5.123090977372768e-17 -7.186691848737193e-17 -0.7901404396736634 0.6129258402059309
12633945333.333334 -0.7844738031866679 0.6201619563579186 5.055198205172821e-17 -7.232504808000378e-17 5.055198205172821e-17 -7.232504808000378e-17 -0.7844742026229685 0.620161451090677
12634562666.666666 -0.7787413045984646 0.6273451844974324 4.986896665568535e-17 -7.277677069345094e-17 4.986896665568535e-17 -7.277677069345094e-17 -0.7787417086416253 0.6273446829469094
12635180000.0 -0.7729430332824409 0.6344754268685089 4.9181923984868066e-17 -7.322204994280562e-17 4.9181923984868066e-17 -7.322204994280562e-17 -0.7729434418978873 0.6344749290767002
12635797333.333334 -0.7670794789624007 0.6415520812487547 4.8490914761567305e-17 -7.366085001197745e-17 4.8490914761567305e-17 -7.366085001197745e-17 -0.7670798921151764 0.641551587257335
12636414666.666666 -0.7611511368760072 0.6485745499417915 4.7796000025761535e-17 -7.409313565654246e-17 4.7796000025761535e-17 -7.409313565654246e-17 -0.7611515545307759 0.6485740597921104
12637032000.0 -0.7551585077329187 0.6555422398277839 4.7097241129714577e-17 -7.451887220656892e-17 4.7097241129714577e-17 -7.451887220656892e-17 -0.7551589298539663 0.6555417535608612
12637649333.333334 -0.7491020976724593 0.6624545624135725 4.639469973259078e-17 -7.493802556936524e-17 4.639469973259078e-17 -7.493802556936524e-17 -0.7491025242236987 0.6624540800700975
12638266666.666666 -0.7429824182209269 0.6693109338823182 4.5688437795025073e-17 -7.535056223219101e-17 4.5688437795025073e-17 -7.535056223219101e-17 -0.7429828491659004 0.6693104555026443
12638884000.0 -0.7367999862483517 0.6761107751428508 4.497851757367096e-17 -7.575644926491534e-17 4.497851757367096e-17 -7.575644926491534e-17 -0.7368004215502341 0.676110300766993
12639501333.333334 -0.730555323924898 0.6828535118785172 4.4265001615733994e-17 -7.615565432261919e-17 4.4265001615733994e-17 -7.615565432261919e-17 -0.7305557635465003 0.682853041546149
12640118666.666666 -0.7242489586767651 0.689538574595692 4.354795275347618e-17 -7.654814564815045e-17 4.354795275347618e-17 -7.654814564815045e-17 -0.7242494025805362 0.6895381083461402
12640736000.0 -0.7178814231414027 0.6961653986721199 4.282743409867101e-17 -7.693389207464109e-17 4.282743409867101e-17 -7.693389207464109e-17 -0.7178818712894337 0.6961649365443634
12641353333.333334 -0.7114532551229559 0.7027334244041532 4.2103509037114104e-17 -7.731286302793133e-17 4.2103509037114104e-17 -7.731286302793133e-17 -0.7114537074769833 0.7027329664368189
12641970666.666666 -0.7049649975465095 0.7092420970543741 4.1376241223013055e-17 -7.768502852899494e-17 4.1376241223013055e-17 -7.768502852899494e-17 -0.7049654540679192 0.7092416432857344
12642588000.0 -0.6984171984123113 0.715690866898366 4.0645694573435924e-17 -7.805035919627029e-17 4.0645694573435924e-17 -7.805035919627029e-17 -0.6984176590621398 0.7156904173663341
12643205333.333334 -0.6918104107495454 0.7220791892710814 3.991193326269276e-17 -7.840882624796332e-17 3.991193326269276e-17 -7.840882624796332e-17 -0.6918108754884844 0.7220787440132089
12643822666.666666 -0.6851451925695025 0.7284065246129637 3.917502171671274e-17 -7.876040150429003e-17 3.917502171671274e-17 -7.876040150429003e-17 -0.6851456613579028 0.7284060836664381
12644440000.0 -0.6784221068186341 0.7346723385153423 3.843502460741073e-17 -7.910505738966158e-17 3.843502460741073e-17 -7.910505738966158e-17 -0.6784225796165086 0.734671901916984
12645057333.333334 -0.6716417213308642 0.7408761017657071 3.769200684702154e-17 -7.944276693482371e-17 3.769200684702154e-17 -7.944276693482371e-17 -0.6716421980978902 0.7408756695519639
12645674666.666666 -0.6648046087797104 0.7470172903923263 3.694603358242934e-17 -7.977350377893655e-17 3.694603358242934e-17 -7.977350377893655e-17 -0.6648050894752345 0.7470168625992737
12646292000.0 -0.6579113466297263 0.7530953857086736 3.6197170189440305e-17 -8.009724217161875e-17 3.6197170189440305e-17 -8.009724217161875e-17 -0.6579118312127675 0.75309496237201
12646909333.333334 -0.6509625170880909 0.7591098743569167 3.5445482267106254e-17 -8.041395697490774e-17 3.5445482267106254e-17 -8.041395697490774e-17 -0.6509630055173433 0.7591094555119597
12647526666.666666 -0.6439587070550923 0.7650602483515732 3.469103563196722e-17 -8.072362366519464e-17 3.469103563196722e-17 -8.072362366519464e-17 -0.6439591992889293 0.7650598340332586
12648144000.0 -0.6369005080746649 0.7709460051223236 3.3933896312302926e-17 -8.10262183350948e-17 3.3933896312302926e-17 -8.10262183350948e-17 -0.6369010040711437 0.7709455953652019
12648761333.333334 -0.6297885162844937 0.7767666475564028 3.317413054238641e-17 -8.132171769525644e-17 3.317413054238641e-17 -8.132171769525644e-17 -0.6297890160013565 0.7767662423946344
12649378666.666666 -0.6226233323656404 0.7825216840406033 3.241180475669044e-17 -8.161009907612987e-17 3.241180475669044e-17 -8.161009907612987e-17 -0.6226238357603197 0.7825212835079586
12649996000.0 -0.615405561491791 0.7882106285028196 3.1646985584089785e-17 -8.189134042967637e-17 3.1646985584089785e-17 -8.189134042967637e-17 -0.6154060685214132 0.788210232632674
12650613333.333334 -0.608135813278074 0.7938330004531511 3.08797398420566e-17 -8.21654203310216e-17 3.08797398420566e-17 -8.21654203310216e-17 -0.6081363238994626 0.793832609278483
12651230666.666666 -0.6008147017297508 0.799388325024345 3.011013453084382e-17 -8.243231798005303e-17 3.011013453084382e-17 -8.243231798005303e-17 -0.6008152158994302 0.7993879385777334
12651848000.0 -0.5934428451900872 0.8048761330121121 2.9338236827634273e-17 -8.269201320297121e-17 2.9338236827634273e-17 -8.269201320297121e-17 -0.5934433628642859 0.8048757513257333
12652465333.333334 -0.5860208662884215 0.8102959609145324 2.8564114080697826e-17 -8.294448645377875e-17 2.8564114080697826e-17 -8.294448645377875e-17 -0.586021387423077 0.8102955840201576
12653082666.666666 -0.5785493918874418 0.8156473509713057 2.7787833803538553e-17 -8.318971881571414e-17 2.7787833803538553e-17 -8.318971881571414e-17 -0.5785499164382033 0.8156469789002986
12653700000.0 -0.5710290530301024 0.8209298512025143 2.700946366899212e-17 -8.342769200264336e-17 2.700946366899212e-17 -8.342769200264336e-17 -0.571029580952335 0.8209294839858274
12654317333.333334 -0.5634604848866014 0.8261430154465957 2.6229071503382734e-17 -8.365838836037316e-17 2.6229071503382734e-17 -8.365838836037316e-17 -0.5634610161353897 0.8261426531147695
12654934666.666666 -0.5558443267005974 0.831286403398129 2.544672528058878e-17 -8.388179086793644e-17 2.544672528058878e-17 -8.388179086793644e-17 -0.5558448612307499 0.8312860459812884
12655552000.0 -0.5481812217350773 0.8363595806451164 2.466249311614521e-17 -8.409788313880603e-17 2.466249311614521e-17 -8.409788313880603e-17 -0.5481817595011297 0.8363592281729679
12656169333.333334 -0.5404718172183307 0.841362118705467 2.387644326134586e-17 -8.43066494220519e-17 2.387644326134586e-17 -8.43066494220519e-17 -0.5404723581745492 0.8413617712072963
12656786666.666666 -0.532716764289002 0.8462935950633753 2.308864409729101e-17 -8.45080746034562e-17 2.308864409729101e-17 -8.45080746034562e-17 -0.5327173083893885 0.8462932525680456
12657404000.0 -0.5249167179413102 0.8511535932048696 2.2299164128973847e-17 -8.470214420655933e-17 2.2299164128973847e-17 -8.470214420655933e-17 -0.5249172651396048 0.851153255740818
12658021333.333334 -0.5170723369695333 0.8559417026531083 2.1508071979317813e-17 -8.488884439366177e-17 2.1508071979317813e-17 -8.488884439366177e-17 -0.5170728872192202 0.8559413702483464
12658638666.666666 -0.5091842839125875 0.8606575190029209 2.071543638324725e-17 -8.506816196676071e-17 2.071543638324725e-17 -8.506816196676071e-17 -0.5091848371668964 0.8606571916850273
12659256000.0 -0.5012532249977735 0.8653006439551331 1.992132618170205e-17 -8.524008436844199e-17 1.992132618170205e-17 -8.524008436844199e-17 -0.5012537812096861 0.8653003217512567
12659873333.333334 -0.4932798300848272 0.8698706853500254 1.912581031569183e-17 -8.540459968270651e-17 1.912581031569183e-17 -8.540459968270651e-17 -0.493280389207079 0.8698703682868785
12660490666.666666 -0.48526477260919315 0.8743672572005344 1.8328957820334002e-17 -8.556169663574326e-17 1.8328957820334002e-17 -8.556169663574326e-17 -0.4852653345942796 0.8743669453043946
12661108000.0 -0.47720872952500193 0.8787899797249459 1.7530837818837498e-17 -8.571136459665741e-17 1.7530837818837498e-17 -8.571136459665741e-17 -0.47720929432518056 0.8787896730216508
12661725333.333334 -0.4691123812482121 0.8831384793787828 1.673151951656398e-17 -8.585359357812522e-17 1.673151951656398e-17 -8.585359357812522e-17 -0.4691129488155077 0.8831381778937291
12662342666.666666 -0.4609764115988464 0.8874123888865242 1.593107219501118e-17 -8.598837423700808e-17 1.593107219501118e-17 -8.598837423700808e-17 -0.46097698188505426 0.8874120926446651
12662960000.0 -0.4528015077434598 0.8916113472725025 1.5129565205831122e-17 -8.611569787490362e-17 1.5129565205831122e-17 -8.611569787490362e-17 -0.45280208070015054 0.8916110562983457
12663577333.333334 -0.4445883601369259 0.8957349998914841 1.432706796484215e-17 -8.623555643864133e-17 1.432706796484215e-17 -8.623555643864133e-17 -0.44458893571544944 0.8957347142090909
12664194666.666666 -0.4363376624642212 0.8997829984585706 1.352364994601583e-17 -8.634794252072651e-17 1.352364994601583e-17 -8.634794252072651e-17 -0.4363382406157111 0.8997827180915533
12664812000.0 -0.42805011158178646 0.9037550010786425 1.2719380675485593e-17 -8.645284935972438e-17 1.2719380675485593e-17 -8.645284935972438e-17 -0.4280506922571631 0.9037547260501609
12665429333.333334 -0.4197264074587453 0.9076506722751942 1.1914329725538539e-17 -8.65502708405904e-17 1.1914329725538539e-17 -8.65502708405904e-17 -0.419726990608721 0.9076504026079559
12666046666.666666 -0.4113672531177604 0.9114696830186864 1.1108566708620418e-17 -8.664020149494346e-17 1.1108566708620418e-17 -8.664020149494346e-17 -0.41136783869284343 0.911469418734944
12666664000.0 -0.40297335457547534 0.9152117107544161 1.0302161271312344e-17 -8.672263650128623e-17 1.0302161271312344e-17 -8.672263650128623e-17 -0.40297394252597357 0.9152114518759646
12667281333.333334 -0.39454542078319255 0.9188764394296167 9.495183088343925e-18 -8.679757168516567e-17 9.495183088343925e-18 -8.679757168516567e-17 -0.3945460110592185 0.9188761859777936
12667898666.666666 -0.3860841635668426 0.9224635595202275 8.68770185657177e-18 -8.686500351928171e-17 8.68770185657177e-18 -8.686500351928171e-17 -0.3860847561183171 0.9224633115159091
12668516000.0 -0.3775902975667044 0.925972768057098 7.87978728897075e-18 -8.692492912353825e-17 7.87978728897075e-18 -8.692492912353825e-17 -0.37759089234336113 0.925972525520699
12669133333.333334 -0.3690645401773874 0.9294037686514355 7.071509108648478e-18 -8.697734626503735e-17 7.071509108648478e-18 -8.697734626503735e-17 -0.3690651371287767 0.9294035316029067
12669750666.666666 -0.3605076114869243 0.9327562715199669 6.262937042826646e-18 -8.702225335801998e-17 6.262937042826646e-18 -8.702225335801998e-17 -0.36050821056241816 0.9327560399787935
12670368000.0 -0.3519202342161644 0.9360299935093306 5.4541408168342525e-18 -8.705964946375102e-17 5.4541408168342525e-18 -8.705964946375102e-17 -0.3519208353649603 0.9360297674945314
12670985333.333334 -0.3433031336576525 0.939224658120023 4.645190148125566e-18 -8.708953429034632e-17 4.645190148125566e-18 -8.708953429034632e-17 -0.3433037368287774 0.9392244376501471
