! Parameters = {f0=12700.012000; bw=77.238000; Q=6100.000000; N=10; m_0_1=1.187482; m_1_1=-0.952508; m_1_2=1.022294; m_2_2=-0.953157; m_2_3=0.659257; m_2_8=-0.003562; m_2_9=0.033142; m_3_3=-0.955094; m_3_4=0.547786; m_3_7=-0.002962; m_3_8=-0.100050; m_3_9=-0.003562; m_4_4=-0.958019; m_4_5=0.384121; m_4_6=0.000555; m_4_7=-0.120599; m_4_8=-0.002962; m_5_5=-0.957637; m_5_6=0.791476; m_5_7=0.000555; m_6_6=-0.957638; m_6_7=0.384463; m_7_7=-0.958005; m_7_8=0.547904; m_8_8=-0.955096; m_8_9=0.659570; m_9_9=-0.953162; m_9_10=1.023372; m_10_10=-0.952518; m_10_11=1.188277}
!
! Created with skrf (http://scikit-rf.org).
# Hz S RI R 50.0 
!freq ReS11 ImS11 ReS21 ImS21 ReS12 ImS12 ReS22 ImS22
12607400000.0 0.9385399310310378 0.34517067931691575 -7.35446056427406e-17 -4.743684169263002e-18 -7.35446056427406e-17 -4.743684169263002e-18 0.9385397150305583 0.3451712666347009
12608017333.333334 0.9412994286295502 0.33757278572409727 -7.356650329496125e-17 -4.141699828464319e-18 -7.356650329496125e-17 -4.141699828464319e-18 0.9412992173940121 0.3375733747398713
12608634666.666666 0.9439974190737904 0.32995283417765753 -7.358347811475818e-17 -3.5396746163119205e-18 -7.358347811475818e-17 -3.5396746163119205e-18 0.943997212616528 0.32995342485276774
12609252000.0 0.9466337260695388 0.32231132258663653 -7.359553089695293e-17 -2.937648752670499e-18 -7.359553089695293e-17 -2.937648752670499e-18 0.9466335244035748 0.32231191488232613
12609869333.333334 0.9492081773531209 0.3146487502689493 -7.360266276466034e-17 -2.335662441682286e-18 -7.360266276466034e-17 -2.335662441682286e-18 0.9492079804911628 0.31464934414635926
12610486666.666666 0.951720604702688 0.3069656179186768 -7.360487516908408e-17 -1.7337558691170722e-18 -7.360487516908408e-17 -1.7337558691170722e-18 0.9517204126571281 0.30696621333884855
12611104000.0 0.9541708439492459 0.2992624275732422 -7.360216988929224e-17 -1.131969199657549e-18 -7.360216988929224e-17 -1.131969199657549e-18 0.9541706567321602 0.2992630244971198
12611721333.333334 0.956558734987284 0.29153968258090257 -7.359454903196934e-17 -5.303425742708055e-19 -7.359454903196934e-17 -5.303425742708055e-19 0.9565585526104328 0.29154028096933615
12612338666.666666 0.9588841217853522 0.28379788756750757 -7.3582015031148e-17 7.10838924886953e-20 -7.3582015031148e-17 7.10838924886953e-20 0.9588839442601782 0.28379848738125546
12612956000.0 0.9611468523961946 0.27603754840371547 -7.35645706479178e-17 6.722701151523931e-19 -7.35645706479178e-17 6.722701151523931e-19 0.9611466797338223 0.27603814960344647
12613573333.333334 0.9633467789666696 0.26825917217196504 -7.354221897011336e-17 1.2731760399681942e-18 -7.354221897011336e-17 1.2731760399681942e-18 0.9633466111779044 0.2682597747182612
12614190666.666666 0.9654837577474383 0.26046326713325973 -7.351496341198008e-17 1.873761647598981e-18 -7.351496341198008e-17 1.873761647598981e-18 0.9654835948427664 0.26046387098661905
12614808000.0 0.9675576491023395 0.2526503426940117 -7.348280771381853e-17 2.473986955752959e-18 -7.348280771381853e-17 2.473986955752959e-18 0.9675574910919261 0.25265094781485065
12615425333.333334 0.9695683175175417 0.24482090937264464 -7.344575594160681e-17 3.0738120218564742e-18 -7.344575594160681e-17 3.0738120218564742e-18 0.9695681644112342 0.24482151572130118
12616042666.666666 0.9715156316103554 0.2369754787664298 -7.340381248660218e-17 3.6731969456897244e-18 -7.340381248660218e-17 3.6731969456897244e-18 0.9715154834176759 0.23697608630316475
12616660000.0 0.9733994641378632 0.2291145635178338 -7.33569820649205e-17 4.272101872039489e-18 -7.33569820649205e-17 4.272101872039489e-18 0.9733993208680141 0.2291151722028348
12617277333.333334 0.9752196920051993 0.22123867728118804 -7.330526971709354e-17 4.870486993349884e-18 -7.330526971709354e-17 4.870486993349884e-18 0.9752195536670607 0.22123928707457155
12617894666.666666 0.9769761962735836 0.21334833468918124 -7.324868080760744e-17 5.468312552335567e-18 -7.324868080760744e-17 5.468312552335567e-18 0.9769760628757103 0.21334894555099487
12618512000.0 0.9786688621681737 0.20544405131884222 -7.318722102441477e-17 6.065538844655133e-18 -7.318722102441477e-17 6.065538844655133e-18 0.9786687337187991 0.20544466320906812
12619129333.333334 0.9802975790854408 0.19752634365843452 -7.3120896378432e-17 6.662126221494577e-18 -7.3120896378432e-17 6.662126221494577e-18 0.9802974555924743 0.19752695653699148
12619746666.666666 0.9818622406005056 0.18959572907320746 -7.304971320300883e-17 7.258035092229273e-18 -7.304971320300883e-17 7.258035092229273e-18 0.9818621220715305 0.1895963428999534
12620364000.0 0.9833627444740458 0.1816527257717839 -7.297367815338008e-17 7.85322592702899e-18 -7.297367815338008e-17 7.85322592702899e-18 0.9833626309163208 0.18165334050651877
12620981333.333334 0.9847989926589487 0.17369785277246716 -7.289279820609766e-17 8.447659259460051e-18 -7.289279820609766e-17 8.447659259460051e-18 0.9847988840794077 0.17369846837493572
12621598666.666666 0.9861708913067869 0.16573162986896386 -7.280708065843564e-17 9.04129568912152e-18 -7.280708065843564e-17 9.04129568912152e-18 0.9861707877120371 0.16573224629885794
12622216000.0 0.9874783507738913 0.1577545775967263 -7.27165331277806e-17 9.634095884224193e-18 -7.27165331277806e-17 9.634095884224193e-18 0.9874782521702141 0.1577551948136876
12622833333.333334 0.9887212856272357 0.1497672171987995 -7.262116355099551e-17 1.0226020584209557e-17 -7.262116355099551e-17 1.0226020584209557e-17 0.9887211920205854 0.1497678351624224
12623450666.666666 0.9898996146500135 0.14177007059178973 -7.25209801837685e-17 1.0817030602317501e-17 -7.25209801837685e-17 1.0817030602317501e-17 0.9898995260460172 0.14177068926162353
12624068000.0 0.9910132608469375 0.1337636603318172 -7.241599159993309e-17 1.1407086828199683e-17 -7.241599159993309e-17 1.1407086828199683e-17 0.991013177250896 0.13376427966736934
12624685333.333334 0.9920621514493063 0.1257485095801177 -7.230620669077296e-17 1.1996150230487539e-17 -7.230620669077296e-17 1.1996150230487539e-17 0.9920620728661904 0.12574912954085574
12625302666.666666 0.9930462179196903 0.1177251420693358 -7.219163466430739e-17 1.258418185935214e-17 -7.219163466430739e-17 1.258418185935214e-17 0.9930461443541456 0.11772576261469071
12625920000.0 0.9939653959564847 0.10969408206879652 -7.207228504454594e-17 1.3171142849108821e-17 -7.207228504454594e-17 1.3171142849108821e-17 0.993965327412827 0.10969470315816492
12626537333.333334 0.9948196254980625 0.10165585435055727 -7.194816767073686e-17 1.3756994420735177e-17 -7.194816767073686e-17 1.3756994420735177e-17 0.9948195619802792 0.1016564759433042
12627154666.666666 0.9956088507267051 0.09361098415514685 -7.181929269658238e-17 1.4341697884454162e-17 -7.181929269658238e-17 1.4341697884454162e-17 0.9956087922384558 0.09361160621060853
12627772000.0 0.9963330200722881 0.08555999715684882 -7.168567058943781e-17 1.4925214642277173e-17 -7.168567058943781e-17 1.4925214642277173e-17 0.9963329666169013 0.08556061963433503
12628389333.333334 0.9969920862155894 0.07750341942994614 -7.154731212949358e-17 1.5507506190532217e-17 -7.154731212949358e-17 1.5507506190532217e-17 0.9969920377960654 0.07750404228874312
12629006666.666666 0.997586006091431 0.06944177741383677 -7.140422840892935e-17 1.6088534122413e-17 -7.140422840892935e-17 1.6088534122413e-17 0.9975859627104426 0.06944240061321004
12629624000.0 0.9981147408914763 0.061375597878861494 -7.125643083105563e-17 1.6668260130488275e-17 -7.125643083105563e-17 1.6668260130488275e-17 0.9981147025513643 0.06137622137805803
12630241333.333334 0.9985782560667564 0.05330540789191089 -7.110393110942644e-17 1.7246646009237864e-17 -7.110393110942644e-17 1.7246646009237864e-17 0.9985782227695327 0.053306031650162185
12630858666.666666 0.998976521329938 0.045231734781929225 -7.094674126694305e-17 1.782365365753659e-17 -7.094674126694305e-17 1.782365365753659e-17 0.9989764930772859 0.045232358758453856
12631476000.0 0.9993095106573074 0.037155106105343616 -7.078487363492044e-17 1.8399245081194622e-17 -7.078487363492044e-17 1.8399245081194622e-17 0.9993094874505798 0.03715573025934985
12632093333.333334 0.9995772022904557 0.029076049611875737 -7.061834085215476e-17 1.8973382395409263e-17 -7.061834085215476e-17 1.8973382395409263e-17 0.9995771841306756 0.029076673902564243
12632710666.666666 0.9997795787377132 0.02099509320980181 -7.044715586395239e-17 1.954602782727893e-17 -7.044715586395239e-17 1.954602782727893e-17 0.9997795656255735 0.020995717596368296
12633328000.0 0.9999166267752874 0.012912764931514222 -7.027133192114667e-17 2.0117143718276307e-17 -7.027133192114667e-17 2.0117143718276307e-17 0.9999166187111521 0.012913389373152156
12633945333.333334 0.9999883374481301 0.004829592899046941 -7.009088257909777e-17 2.0686692526705164e-17 -7.009088257909777e-17 2.0686692526705164e-17 0.9999883344320325 0.004830217354950146
12634562666.666666 0.9999947060705171 -0.0032538947103767407 -6.990582169666422e-17 2.1254636830176264e-17 -6.990582169666422e-17 2.1254636830176264e-17 0.9999947081021604 -0.003253270281011369
12635180000.0 0.999935732226359 -0.011337169698913555 -6.971616343516386e-17 2.1820939328042417e-17 -6.971616343516386e-17 2.1820939328042417e-17 0.9999357393051173 -0.011336545336883398
12635797333.333334 0.999811419769225 -0.019419703882727877 -6.952192225730511e-17 2.238556284385834e-17 -6.952192225730511e-17 2.238556284385834e-17 0.9998114318941426 -0.01941907962882193
12636414666.666666 0.9996217768220975 -0.027500969126192158 -6.932311292611148e-17 2.2948470327789674e-17 -6.932311292611148e-17 2.2948470327789674e-17 0.9996217939918887 -0.027500345021188363
12637032000.0 0.9993668157768305 -0.03558043737679458 -6.911975050380966e-17 2.3509624859063826e-17 -6.911975050380966e-17 2.3509624859063826e-17 0.9993668379898815 -0.035579813461457194
12637649333.333334 0.9990465532933528 -0.04365758069933106 -6.891185035071459e-17 2.406898964836213e-17 -6.891185035071459e-17 2.406898964836213e-17 0.9990465805477181 -0.0436569570144079
12638266666.666666 0.9986610102985694 -0.051731871310515494 -6.869942812408506e-17 2.4626528040231727e-17 -6.869942812408506e-17 2.4626528040231727e-17 0.9986610425919764 -0.05173124789673542
12638884000.0 0.9982102119849944 -0.059802781613551854 -6.848249977696068e-17 2.5182203515485628e-17 -6.848249977696068e-17 2.5182203515485628e-17 0.9982102493148409 -0.05980215851162201
12639501333.333334 0.9976941878091147 -0.06786978423243868 -6.826108155698552e-17 2.5735979693575058e-17 -6.826108155698552e-17 2.5735979693575058e-17 0.997694230172469 -0.06786916148304181
12640118666.666666 0.9971129714894569 -0.07593235204648575 -6.80351900052075e-17 2.6287820334967473e-17 -6.80351900052075e-17 2.6287820334967473e-17 0.9971130188830597 -0.07593172969027762
12640736000.0 0.9964666010043726 -0.08398995822501318 -6.780484195485334e-17 2.6837689343525456e-17 -6.780484195485334e-17 2.6837689343525456e-17 0.9964666534246349 -0.08398933630261986
12641353333.333334 0.9957551185895953 -0.09204207626118045 -6.757005453010346e-17 2.738555076882918e-17 -6.757005453010346e-17 2.738555076882918e-17 0.9957551760326012 -0.09204145481319576
12641970666.666666 0.99497857073543 -0.10008818000707001 -6.733084514482428e-17 2.7931368808545687e-17 -6.733084514482428e-17 2.7931368808545687e-17 0.9949786331969366 -0.10008755907405284
12642588000.0 0.9941370081837582 -0.10812774370758611 -6.70872315012984e-17 2.8475107810747215e-17 -6.70872315012984e-17 2.8475107810747215e-17 0.9941370756591934 -0.10812712333005765
12643205333.333334 0.9932304859246934 -0.11616024203506324 -6.683923158892728e-17 2.90167322762396e-17 -6.683923158892728e-17 2.90167322762396e-17 0.9932305584091589 -0.11615962225350446
12643822666.666666 0.9922590631929997 -0.12418515012350803 -6.65868636829206e-17 2.955620686086615e-17 -6.65868636829206e-17 2.955620686086615e-17 0.9922591406812699 -0.12418453097835701
12644440000.0 0.9912228034642254 -0.13220194360283874 -6.633014634296262e-17 3.009349637781176e-17 -6.633014634296262e-17 3.009349637781176e-17 0.991222885950749 -0.1322013251344881
12645057333.333334 0.9901217744505458 -0.14021009863326242 -6.606909841186806e-17 3.06285657998767e-17 -6.606909841186806e-17 3.06285657998767e-17 0.990121861929445 -0.1402094808820565
12645674666.666666 0.988956048096357 -0.1482090919393345 -6.580373901420734e-17 3.116138026176722e-17 -6.580373901420734e-17 3.116138026176722e-17 0.9889561405614284 -0.14820847494556696
12646292000.0 0.9877257005735391 -0.15619840084443312 -6.553408755491966e-17 3.169190506235916e-17 -6.553408755491966e-17 3.169190506235916e-17 0.9877257980182537 -0.15619778464834408
12646909333.333334 0.9864308122765149 -0.16417750330463027 -6.526016371791749e-17 3.222010566693129e-17 -6.526016371791749e-17 3.222010566693129e-17 0.9864309146940198 -0.16417688794640387
12647526666.666666 0.9850714678169903 -0.17214587794288888 -6.498198746465222e-17 3.2745947709429546e-17 -6.498198746465222e-17 3.2745947709429546e-17 0.9850715752001078 -0.17214526346265052
12648144000.0 0.983647756018387 -0.18010300408332625 -6.469957903268045e-17 3.3269396994679764e-17 -6.469957903268045e-17 3.3269396994679764e-17 0.9836478683596165 -0.18010239052114024
12648761333.333334 0.9821597699101005 -0.18804836178490128 -6.4412958934202e-17 3.379041950061083e-17 -6.4412958934202e-17 3.379041950061083e-17 0.9821598872016171 -0.18804774918076786
12649378666.666666 0.9806076067213794 -0.19598143187561232 -6.412214795459117e-17 3.430898138044304e-17 -6.412214795459117e-17 3.430898138044304e-17 0.9806077289550366 -0.1959808202694653
12649996000.0 0.9789913678749828 -0.20390169598636526 -6.382716715089033e-17 3.482504896490253e-17 -6.382716715089033e-17 3.482504896490253e-17 0.9789914950423111 -0.20390108541806937
12650613333.333334 0.9773111589805548 -0.21180863658484592 -6.352803785030784e-17 3.533858876438072e-17 -6.352803785030784e-17 3.533858876438072e-17 0.9773112910727633 -0.21180802709419402
12651230666.666666 0.9755670898277266 -0.21970173700930828 -6.322478164869087e-17 3.584956747109794e-17 -6.322478164869087e-17 3.584956747109794e-17 0.975567226835704 -0.21970112863601918
12651848000.0 0.9737592743789198 -0.22758048150244642 -6.291742040896529e-17 3.635795196127856e-17 -6.291742040896529e-17 3.635795196127856e-17 0.9737594162932346 -0.227579874286162
12652465333.333334 0.9718878307619383 -0.23544435524492902 -6.260597625958878e-17 3.6863709297261283e-17 -6.260597625958878e-17 3.6863709297261283e-17 0.9718879775728385 -0.2354437492252115
12653082666.666666 0.9699528812622273 -0.2432928443891217 -6.229047159296234e-17 3.736680672963942e-17 -6.229047159296234e-17 3.736680672963942e-17 0.9699530329596429 -0.24329223960545154
12653700000.0 0.9679545523148674 -0.25112543609274735 -6.197092906383e-17 3.7867211699376306e-17 -6.197092906383e-17 3.7867211699376306e-17 0.9679547088884085 -0.25112483258452
12654317333.333334 0.9658929744963465 -0.2589416185522291 -6.164737158767131e-17 3.836489183989384e-17 -6.164737158767131e-17 3.836489183989384e-17 0.9658931359353076 -0.2589410163587532
12654934666.666666 0.9637682825160149 -0.2667408810362176 -6.131982233906654e-17 3.8859814979162665e-17 -6.131982233906654e-17 3.8859814979162665e-17 0.9637684488093736 -0.26674028019671225
12655552000.0 0.9615806152072576 -0.27452271391904587 -6.098830475004563e-17 3.9351949141778754e-17 -6.098830475004563e-17 3.9351949141778754e-17 0.9615807863436743 -0.2745221144726374
12656169333.333334 0.959330115518466 -0.28228660871386385 -6.065284250843052e-17 3.984126255101047e-17 -6.065284250843052e-17 3.984126255101047e-17 0.9593302914862855 -0.28228601069958376
12656786666.666666 0.9570169305036746 -0.2900320581059473 -6.031345955615075e-17 4.032772363084694e-17 -6.031345955615075e-17 4.032772363084694e-17 0.9570171112909285 -0.2900314615627301
12657404000.0 0.9546412113129319 -0.29775855598592926 -5.997018008754328e-17 4.081130100803255e-17 -5.997018008754328e-17 4.081130100803255e-17 0.9546413969073364 -0.2977579609526091
12658021333.333334 0.9522031131824578 -0.3054655974827336 -5.962302854764561e-17 4.1291963514071227e-17 -5.962302854764561e-17 4.1291963514071227e-17 0.9522033035714184 -0.30546500399804266
12658638666.666666 0.9497027954245234 -0.31315267899651156 -5.927202963046344e-17 4.1769680187232223e-17 -5.927202963046344e-17 4.1769680187232223e-17 0.9497029905951324 -0.31315208709907694
12659256000.0 0.9471404214169293 -0.32081929823190086 -5.891720827722147e-17 4.224442027454079e-17 -5.891720827722147e-17 4.224442027454079e-17 0.9471406213559673 -0.32081870796024176
12659873333.333334 0.9445161585924626 -0.32846495423041194 -5.855858967460945e-17 4.2716153233739105e-17 -5.855858967460945e-17 4.2716153233739105e-17 0.9445163632864002 -0.32846436562293785
12660490666.666666 0.9418301784278927 -0.33608914740338064 -5.819619925300215e-17 4.318484873524789e-17 -5.819619925300215e-17 4.318484873524789e-17 0.9418303878628929 -0.33608856049838903
12661108000.0 0.939082656432738 -0.34369137956469265 -5.78300626846628e-17 4.365047666411231e-17 -5.78300626846628e-17 4.365047666411231e-17 0.9390828705946526 -0.34369079440036526
12661725333.333334 0.9362737721378943 -0.3512711539630396 -5.7460205881943e-17 4.4113007121918497e-17 -5.7460205881943e-17 4.4113007121918497e-17 0.9362739910122705 -0.3512705705774416
12662342666.666666 0.933403709083781 -0.35882797531475624 -5.708665499545465e-17 4.4572410428711235e-17 -5.708665499545465e-17 4.4572410428711235e-17 0.9334039326558577 -0.3588273937458323
12662960000.0 0.9304726548084548 -0.36636134983586016 -5.670943641223391e-17 4.5028657124886184e-17 -5.670943641223391e-17 4.5028657124886184e-17 0.9304728830631649 -0.3663607701214322
12663577333.333334 0.9274808008352692 -0.37387078527455747 -5.63285767538829e-17 4.5481717973076754e-17 -5.63285767538829e-17 4.5481717973076754e-17 0.9274810337572429 -0.37387020745232324
12664194666.666666 0.924428342660433 -0.3813557909432229 -5.594410287471046e-17 4.593156396000758e-17 -5.594410287471046e-17 4.593156396000758e-17 0.9244285802339957 -0.3813552150507525
12664812000.0 0.921315479740204 -0.38881587775054194 -5.555604185983856e-17 4.6378166298356266e-17 -5.555604185983856e-17 4.6378166298356266e-17 0.921315721949379 -0.38881530382527574
12665429333.333334 0.9181424154778103 -0.39625055823357347 -5.516442102331364e-17 4.682149642857544e-17 -5.516442102331364e-17 4.682149642857544e-17 0.9181426623063202 -0.3962499863128199
12666046666.666666 0.9149093572102835 -0.4036593465893151 -5.47692679061906e-17 4.726152602071504e-17 -5.47692679061906e-17 4.726152602071504e-17 0.9149096086415495 -0.4036587767102474
12666664000.0 0.9116165161947521 -0.4110417587068116 -5.4370610274600396e-17 4.769822697622949e-17 -5.4370610274600396e-17 4.769822697622949e-17 0.9116167722118984 -0.4110411909064671
12667281333.333334 0.9082641075947653 -0.418397312198503 -5.396847611782435e-17 4.8131571429746166e-17 -5.396847611782435e-17 4.8131571429746166e-17 0.9082643681806153 -0.4183967465137783
12667898666.666666 0.9048523504661939 -0.4257255264318209 -5.3562893646320996e-17 4.856153175085406e-17 -5.3562893646320996e-17 4.856153175085406e-17 0.9048526156032761 -0.4257249628994716
12668516000.0 0.9013814677428266 -0.43302592256080286 -5.315389128976674e-17 4.898808054584564e-17 -5.315389128976674e-17 4.898808054584564e-17 0.9013817374133737 -0.4330253612174401
12669133333.333334 0.897851686221992 -0.4402980235569683 -5.2741497695074236e-17 4.941119065945141e-17 -5.2741497695074236e-17 4.941119065945141e-17 0.8978519604079419 -0.4402974644390569
12669750666.666666 0.8942632365495835 -0.4475413542408238 -5.232574172439309e-17 4.9830835176562415e-17 -5.232574172439309e-17 4.9830835176562415e-17 0.894263515232581 -0.4475407973846793
12670368000.0 0.8906163532049975 -0.45475544131288587 -5.1906652453093666e-17 5.024698742393887e-17 -5.1906652453093666e-17 5.024698742393887e-17 0.8906166363663954 -0.4547548867546727
