! Parameters = {f0=12700.012000; bw=77.238000; Q=6100.000000; N=10; m_0_1=1.179875; m_1_1=-1.066623; m_1_2=1.014687; m_2_2=-1.067272; m_2_3=0.651650; m_2_8=-0.003943; m_2_9=0.032761; m_3_3=-1.069209; m_3_4=0.540179; m_3_7=-0.003343; m_3_8=-0.100431; m_3_9=-0.003943; m_4_4=-1.072134; m_4_5=0.376514; m_4_6=0.000174; m_4_7=-0.120980; m_4_8=-0.003343; m_5_5=-1.071752; m_5_6=0.783869; m_5_7=0.000174; m_6_6=-1.071753; m_6_7=0.376856; m_7_7=-1.072120; m_7_8=0.540297; m_8_8=-1.069211; m_8_9=0.651963; m_9_9=-1.067277; m_9_10=1.015765; m_10_10=-1.066633; m_10_11=1.180670}
!
! Created with skrf (http://scikit-rf.org).
# Hz S RI R 50.0 
!freq ReS11 ImS11 ReS21 ImS21 ReS12 ImS12 ReS22 ImS22
12607400000.0 0.23388167942061916 -0.9722650667545547 3.67893337889186e-18 7.076551182418152e-17 3.67893337889186e-18 7.076551182418152e-17 0.23388228395775218 -0.9722649213308852
12608017333.333334 0.22623388281334167 -0.974073010747678 4.240375220857344e-18 7.072018471972762e-17 4.240375220857344e-18 7.072018471972762e-17 0.22623448844496324 -0.9740728700861622
12608634666.666666 0.21857211457954284 -0.9758207984707413 4.801329255555911e-18 7.067040757753719e-17 4.801329255555911e-18 7.067040757753719e-17 0.21857272126814511 -0.9758206625795979
12609252000.0 0.2108968478904805 -0.9775083219848856 5.3617602462012696e-18 7.061618528461358e-17 5.3617602462012696e-18 7.061618528461358e-17 0.21089745559849435 -0.97750819087204
12609869333.333334 0.20320855675112562 -0.9791354770730001 5.921633002844593e-18 7.055752300669984e-17 5.921633002844593e-18 7.055752300669984e-17 0.2032091654409225 -0.9791353507460808
12610486666.666666 0.1955077159708054 -0.9807021632461744 6.4809123845532194e-18 7.049442618784517e-17 6.4809123845532194e-18 7.049442618784517e-17 0.19550832560469988 -0.9807020417125144
12611104000.0 0.18779480113379665 -0.9822082837499208 7.03956330163753e-18 7.042690054994993e-17 7.03956330163753e-18 7.042690054994993e-17 0.1877954116740487 -0.9822081670165557
12611721333.333334 0.18007028857012208 -0.9836537455701166 7.597550717821663e-18 7.035495209229799e-17 7.597550717821663e-18 7.035495209229799e-17 0.18007089997893944 -0.9836536336437854
12612338666.666666 0.17233465532605008 -0.9850384594387667 8.154839652450015e-18 7.027858709106772e-17 8.154839652450015e-18 7.027858709106772e-17 0.1723352675655904 -0.9850383523259101
12612956000.0 0.16458837913454907 -0.9863623398395281 8.711395182669328e-18 7.01978120988276e-17 8.711395182669328e-18 7.01978120988276e-17 0.1645889921669226 -0.9863622375462904
12613573333.333334 0.1568319383859524 -0.9876253050129655 9.267182445596421e-18 7.011263394401645e-17 9.267182445596421e-18 7.011263394401645e-17 0.1568325521732239 -0.9876252075451906
12614190666.666666 0.14906581209832956 -0.9888272769616101 9.822166640521058e-18 7.002305973040099e-17 9.822166640521058e-18 7.002305973040099e-17 0.14906642660252126 -0.9888271843248461
12614808000.0 0.14129047988781993 -0.9899681814547968 1.0376313031054256e-17 6.992909683652272e-17 1.0376313031054256e-17 6.992909683652272e-17 0.14129109507091311 -0.9899680936542903
12615425333.333334 0.13350642193918033 -0.9910479480332148 1.0929586947313539e-17 6.983075291512234e-17 1.0929586947313539e-17 6.983075291512234e-17 0.13350703776311829 -0.9910478650739148
12616042666.666666 0.1257141189760466 -0.9920665100132776 1.1481953788069227e-17 6.972803589255131e-17 1.1481953788069227e-17 6.972803589255131e-17 0.12571473540273678 -0.9920664318998333
12616660000.0 0.11791405223116037 -0.9930238044912494 1.2033379022917488e-17 6.962095396816244e-17 1.2033379022917488e-17 6.962095396816244e-17 0.11791466922247681 -0.9930237312280114
12617277333.333334 0.11010670341681864 -0.9939197723471082 1.258382819441812e-17 6.950951561368724e-17 1.258382819441812e-17 6.950951561368724e-17 0.11010732093460406 -0.9939197039381257
12617894666.666666 0.10229255469503987 -0.9947543582482105 1.313326692024696e-17 6.939372957259415e-17 1.313326692024696e-17 6.939372957259415e-17 0.10229317270110831 -0.994754294697233
12618512000.0 0.09447208864770203 -0.9955275106527137 1.3681660895342394e-17 6.927360485942856e-17 1.3681660895342394e-17 6.927360485942856e-17 0.09447270710384097 -0.9955274519631893
12619129333.333334 0.08664578824690888 -0.9962391818127407 1.4228975894028657e-17 6.914915075914046e-17 1.4228975894028657e-17 6.914915075914046e-17 0.08664640711488195 -0.9962391279878191
12619746666.666666 0.07881413682507879 -0.9968893277773446 1.477517777214895e-17 6.902037682639166e-17 1.477517777214895e-17 6.902037682639166e-17 0.07881475606662781 -0.9968892788198729
12620364000.0 0.07097761804500953 -0.9974779083952208 1.5320232469204294e-17 6.88872928848436e-17 1.5320232469204294e-17 6.88872928848436e-17 0.07097823762185711 -0.9974778643077469
12620981333.333334 0.06313671587017916 -0.99800488731718 1.5864106010437343e-17 6.87499090264395e-17 1.5864106010437343e-17 6.87499090264395e-17 0.06313733574403076 -0.9980048481019486
12621598666.666666 0.0552919145347721 -0.9984702319983941 1.640676450897852e-17 6.860823561065454e-17 1.640676450897852e-17 6.860823561065454e-17 0.05529253466731882 -0.998470197657352
12622216000.0 0.04744369851368944 -0.9988739137004178 1.694817416792499e-17 6.846228326374289e-17 1.694817416792499e-17 6.846228326374289e-17 0.04744431886660997 -0.9988738842352077
12622833333.333334 0.03959255249279886 -0.9992159074929464 1.7488301282458245e-17 6.831206287795807e-17 1.7488301282458245e-17 6.831206287795807e-17 0.039593173027762135 -0.9992158829049116
12623450666.666666 0.03173896133888836 -0.9994961922553665 1.802711224191207e-17 6.815758561076727e-17 1.802711224191207e-17 6.815758561076727e-17 0.031739582017555765 -0.9994961725455476
12624068000.0 0.02388341006980727 -0.9997147506780549 1.8564573531882415e-17 6.799886288403681e-17 1.8564573531882415e-17 6.799886288403681e-17 0.023884030853835087 -0.9997147358471922
12624685333.333334 0.01602638382425706 -0.9998715692634552 1.910065173629146e-17 6.783590638321103e-17 1.910065173629146e-17 6.783590638321103e-17 0.016027004675298835 -0.9998715593119879
12625302666.666666 0.008168367832313487 -0.9999666383269015 1.9635313539454552e-17 6.766872805647327e-17 1.9635313539454552e-17 6.766872805647327e-17 0.008168988712022337 -0.9999666332549656
12625920000.0 0.00030984738494845563 -0.9999999519972226 2.0168525728159033e-17 6.74973401138838e-17 2.0168525728159033e-17 6.74973401138838e-17 0.0003104682549795167 -0.9999999518046541
12626537333.333334 -0.007548692195599213 -0.9999715082171018 2.0700255193699492e-17 6.732175502651357e-17 2.0700255193699492e-17 6.732175502651357e-17 -0.007548071373586467 -0.9999715129034362
12627154666.666666 -0.015406765585909768 -0.9998813087432077 2.1230468933943878e-17 6.714198552554948e-17 2.1230468933943878e-17 6.714198552554948e-17 -0.015406144850249156 -0.9998813183076787
12627772000.0 -0.023263887491440097 -0.9997293591460804 2.1759134055372867e-17 6.695804460138957e-17 2.1759134055372867e-17 6.695804460138957e-17 -0.02326326688045638 -0.9997293735876207
12628389333.333334 -0.031119572676295452 -0.9995156688097955 2.228621777510215e-17 6.676994550272541e-17 2.228621777510215e-17 6.676994550272541e-17 -0.03111895222830189 -0.9995156881270354
12629006666.666666 -0.03897333599342352 -0.9992402509313718 2.2811687422921685e-17 6.657770173560046e-17 2.2811687422921685e-17 6.657770173560046e-17 -0.03897271574671961 -0.9992402751226421
12629624000.0 -0.04682469241434879 -0.9989031225199716 2.333551044330798e-17 6.63813270624589e-17 2.333551044330798e-17 6.63813270624589e-17 -0.046824072407217816 -0.9989031515833015
12630241333.333334 -0.054673157059382145 -0.998504304395834 2.38576543974303e-17 6.618083550117781e-17 2.38576543974303e-17 6.618083550117781e-17 -0.05467253733008886 -0.9985043383289518
12630858666.666666 -0.06251824522722511 -0.9980438211890081 2.4378086965156396e-17 6.597624132408161e-17 2.4378086965156396e-17 6.597624132408161e-17 -0.06251762581401339 -0.9980438599893429
12631476000.0 -0.0703594724253013 -0.9975217013378114 2.4896775947051552e-17 6.576755905693908e-17 2.4896775947051552e-17 6.576755905693908e-17 -0.07035885336639176 -0.9975217450024912
12632093333.333334 -0.07819635439936506 -0.9969379770870898 2.5413689266354453e-17 6.555480347795116e-17 2.5413689266354453e-17 6.555480347795116e-17 -0.07819573573295266 -0.9969380256129418
12632710666.666666 -0.08602840716352134 -0.9962926844862183 2.5928794970950174e-17 6.533798961672114e-17 2.5928794970950174e-17 6.533798961672114e-17 -0.08602778892777321 -0.996292737869772
12633328000.0 -0.0938551470302008 -0.9955858633868744 2.644206123536234e-17 6.511713275319793e-17 2.644206123536234e-17 6.511713275319793e-17 -0.09385452926325356 -0.9955859216243576
12633945333.333334 -0.10167609063983216 -0.994817557440584 2.69534563626808e-17 6.489224841662637e-17 2.69534563626808e-17 6.489224841662637e-17 -0.10167547337978983 -0.9948176205279254
12634562666.666666 -0.10949075499092017 -0.9939878140960111 2.746294878653614e-17 6.466335238445991e-17 2.746294878653614e-17 6.466335238445991e-17 -0.10949013827585186 -0.993987882028842
12635180000.0 -0.11729865746964831 -0.9930966845960496 2.797050707302435e-17 6.44304606812744e-17 2.797050707302435e-17 6.44304606812744e-17 -0.11729804133758558 -0.9930967573697007
12635797333.333334 -0.12509931587993783 -0.9921442239746292 2.847609992265578e-17 6.419358957765336e-17 2.847609992265578e-17 6.419358957765336e-17 -0.12509870036887255 -0.9921443015841328
12636414666.666666 -0.13289224847288836 -0.9911304910533568 2.897969617225609e-17 6.395275558907415e-17 2.897969617225609e-17 6.395275558907415e-17 -0.1328916336207704 -0.9911305734934477
12637032000.0 -0.14067697397692436 -0.9900555484378354 2.9481264796905536e-17 6.37079754747585e-17 2.9481264796905536e-17 6.37079754747585e-17 -0.14067635982165924 -0.9900556357029513
12637649333.333334 -0.14845301162720728 -0.9889194625138387 2.9980774911823037e-17 6.345926623652841e-17 2.9980774911823037e-17 6.345926623652841e-17 -0.14845239820665365 -0.9889195545981184
12638266666.666666 -0.1562198811954389 -0.9877223034431944 3.047819577426824e-17 6.320664511763516e-17 3.047819577426824e-17 6.320664511763516e-17 -0.15621926854740645 -0.9877224003404809
12638884000.0 -0.1639771030196036 -0.9864641451594414 3.097349678543168e-17 6.295012960157365e-17 3.097349678543168e-17 6.295012960157365e-17 -0.16397649118185043 -0.9864642468632794
12639501333.333334 -0.17172419803342148 -0.9851450653632824 3.1466647492299124e-17 6.268973741089035e-17 3.1466647492299124e-17 6.268973741089035e-17 -0.1717235870436524 -0.9851451718669231
12640118666.666666 -0.17946068779599264 -0.9837651455177896 3.1957617589520493e-17 6.242548650596976e-17 3.1957617589520493e-17 6.242548650596976e-17 -0.17946007769185585 -0.9837652568141859
12640736000.0 -0.18718609452156593 -0.9823244708433215 3.244637692127883e-17 6.215739508379991e-17 3.244637692127883e-17 6.215739508379991e-17 -0.18718548534065166 -0.9823245869251326
12641353333.333334 -0.19489994110859973 -0.9808231303123476 3.2932895483107314e-17 6.188548157674685e-17 3.2932895483107314e-17 6.188548157674685e-17 -0.19489933288843753 -0.9808232511719377
12641970666.666666 -0.20260175116958992 -0.9792612166438861 3.34171434237466e-17 6.160976465128652e-17 3.34171434237466e-17 6.160976465128652e-17 -0.20260114394764603 -0.9792613422733244
12642588000.0 -0.2102910490604334 -0.9776388262977848 3.3899091046965806e-17 6.133026320673745e-17 3.3899091046965806e-17 6.133026320673745e-17 -0.2102904428741091 -0.9776389566888478
12643205333.333334 -0.21796735990963642 -0.9759560594688015 3.4378708813363935e-17 6.104699637398325e-17 3.4378708813363935e-17 6.104699637398325e-17 -0.21796675479626537 -0.9759561946129718
12643822666.666666 -0.22563020964783598 -0.9742130200803729 3.4855967342193984e-17 6.075998351416305e-17 3.4855967342193984e-17 6.075998351416305e-17 -0.2256296056446817 -0.9742131599688406
12644440000.0 -0.233279125037021 -0.9724098157782084 3.5330837413132895e-17 6.046924421737233e-17 3.5330837413132895e-17 6.046924421737233e-17 -0.2332785221812749 -0.9724099604018709
12645057333.333334 -0.24091363369959287 -0.9705465579236822 3.580328996807886e-17 6.017479830132816e-17 3.580328996807886e-17 6.017479830132816e-17 -0.2409130320283718 -0.9705467072731456
12645674666.666666 -0.24853326414775895 -0.9686233615869014 3.62732961129082e-17 5.987666581003728e-17 3.62732961129082e-17 5.987666581003728e-17 -0.24853266369810317 -0.9686235156524816
12646292000.0 -0.25613754581262327 -0.9666403455396088 3.6740827119260727e-17 5.957486701242733e-17 3.6740827119260727e-17 5.957486701242733e-17 -0.2561369466214942 -0.9666405043113319
12646909333.333334 -0.26372600907311 -0.9645976322478812 3.720585442625255e-17 5.926942240100141e-17 3.720585442625255e-17 5.926942240100141e-17 -0.2637254111773871 -0.9645977957154817
12647526666.666666 -0.2712981852850476 -0.9624953478645437 3.766834964224392e-17 5.896035269043845e-17 3.766834964224392e-17 5.896035269043845e-17 -0.27129758872152726 -0.9624955160174684
12648144000.0 -0.2788536068101672 -0.9603336222213655 3.8128284546551545e-17 5.86476788162073e-17 3.8128284546551545e-17 5.86476788162073e-17 -0.2788530116155599 -0.9603337950487737
12648761333.333334 -0.2863918070449544 -0.9581125888210493 3.858563109116149e-17 5.833142193316034e-17 3.858563109116149e-17 5.833142193316034e-17 -0.2863912132558824 -0.9581127663118112
12649378666.666666 -0.29391232044927507 -0.9558323848290405 3.9040361402435455e-17 5.801160341411035e-17 3.9040361402435455e-17 5.801160341411035e-17 -0.29391172810227006 -0.9558325669717399
12649996000.0 -0.30141468257547904 -0.9534931510649516 3.9492447782806935e-17 5.768824484839306e-17 3.9492447782806935e-17 5.768824484839306e-17 -0.3014140917069805 -0.9534933378478864
12650613333.333334 -0.30889843009678586 -0.9510950319939581 3.994186271245074e-17 5.736136804042647e-17 3.994186271245074e-17 5.736136804042647e-17 -0.30889784074313825 -0.951095223405141
12651230666.666666 -0.3163631008360065 -0.9486381757178429 4.038857885095574e-17 5.703099500824755e-17 4.038857885095574e-17 5.703099500824755e-17 -0.3163625130334565 -0.9486383717449995
12651848000.0 -0.3238082337941382 -0.9461227339658265 4.0832569038985057e-17 5.669714798203523e-17 4.0832569038985057e-17 5.669714798203523e-17 -0.3238076475788346 -0.946122934596403
12652465333.333334 -0.33123336917881124 -0.9435488620852142 4.1273806299910116e-17 5.635984940263171e-17 4.1273806299910116e-17 5.635984940263171e-17 -0.3312327845868003 -0.9435490673063709
12653082666.666666 -0.33863804843249357 -0.9409167190318605 4.1712263841446996e-17 5.601912192004039e-17 4.1712263841446996e-17 5.601912192004039e-17 -0.338637465499718 -0.9409169288304762
12653700000.0 -0.34602181426116047 -0.9382264673602341 4.214791505727992e-17 5.567498839191046e-17 4.214791505727992e-17 5.567498839191046e-17 -0.3460212330234569 -0.9382266817229055
12654317333.333334 -0.35338421066223985 -0.9354782732134794 4.258073352865888e-17 5.532747188202088e-17 4.258073352865888e-17 5.532747188202088e-17 -0.3533836311553373 -0.9354784921265246
12654934666.666666 -0.36072478295285676 -0.9326723063131354 4.3010693025997026e-17 5.497659565874163e-17 4.3010693025997026e-17 5.497659565874163e-17 -0.3607242052123732 -0.9326725297625905
12655552000.0 -0.3680430777981226 -0.9298087399485632 4.343776751046462e-17 5.4622383193475065e-17 4.343776751046462e-17 5.4622383193475065e-17 -0.3680425018595635 -0.9298089679201862
12656169333.333334 -0.3753386432386829 -0.926887750966423 4.386193113553196e-17 5.4264858159116496e-17 4.386193113553196e-17 5.4264858159116496e-17 -0.3753380691374395 -0.9268879834456952
12656786666.666666 -0.38261102871910624 -0.9239095197595687 4.428315824855358e-17 5.3904044428458993e-17 4.428315824855358e-17 5.3904044428458993e-17 -0.3826104564904524 -0.9239097567316934
12657404000.0 -0.3898597851153645 -0.9208742302560385 4.470142339229149e-17 5.35399660726246e-17 4.470142339229149e-17 5.35399660726246e-17 -0.3898592147944553 -0.9208744717059433
12658021333.333334 -0.39708446476283393 -0.9177820699075917 4.51167013064612e-17 5.317264735945514e-17 4.51167013064612e-17 5.317264735945514e-17 -0.3970838963847028 -0.9177823158199286
12658638666.666666 -0.4042846214836265 -0.9146332296782634 4.5528966929229625e-17 5.2802112751920405e-17 4.5528966929229625e-17 5.2802112751920405e-17 -0.40428405508318416 -0.9146334800374116
12659256000.0 -0.41145981061448544 -0.9114279040324264 4.5938195398746316e-17 5.2428386906474456e-17 4.5938195398746316e-17 5.2428386906474456e-17 -0.4114592462265164 -0.9114281588224908
12659873333.333334 -0.4186095890340883 -0.9081662909228468 4.634436205460947e-17 5.2051494671446155e-17 4.634436205460947e-17 5.2051494671446155e-17 -0.41860902669325023 -0.9081665501276618
12660490666.666666 -0.4257335151902337 -0.9048485917785449 4.674744243935576e-17 5.167146108538546e-17 4.674744243935576e-17 5.167146108538546e-17 -0.4257329549310538 -0.9048488553816723
12661108000.0 -0.43283114912757437 -0.9014750114921389 4.714741229992763e-17 5.128831137540603e-17 4.714741229992763e-17 5.128831137540603e-17 -0.43283059098444776 -0.9014752794768707
12661725333.333334 -0.43990205251422065 -0.898045758407457 4.754424758911579e-17 5.0902070955527477e-17 4.754424758911579e-17 5.0902070955527477e-17 -0.43990149652140903 -0.898046030756817
12662342666.666666 -0.4469457886693002 -0.8945610443064393 4.79379244670009e-17 5.0512765424994235e-17 4.79379244670009e-17 5.0512765424994235e-17 -0.4469452348609285 -0.8945613210031823
12662960000.0 -0.4539619225895908 -0.8910210843962173 4.832841930238195e-17 5.012042056658355e-17 4.832841930238195e-17 5.012042056658355e-17 -0.45396137099964673 -0.8910213654228332
12663577333.333334 -0.4609500209766185 -0.8874260972957148 4.871570867417765e-17 4.972506234491464e-17 4.871570867417765e-17 4.972506234491464e-17 -0.46094947163894867 -0.8874263826344262
12664194666.666666 -0.4679096522632358 -0.8837763050222307 4.909976937282721e-17 4.932671690473488e-17 4.909976937282721e-17 4.932671690473488e-17 -0.46790910521154433 -0.8837765946549959
12664812000.0 -0.47484038664035105 -0.8800719329776918 4.948057840167686e-17 4.8925410569195056e-17 4.948057840167686e-17 4.8925410569195056e-17 -0.4748398419081981 -0.8800722268862065
12665429333.333334 -0.481741796083574 -0.8763132099346795 4.985811297833994e-17 4.852116983812671e-17 4.985811297833994e-17 4.852116983812671e-17 -0.481741253704373 -0.8763135081003762
12666046666.666666 -0.48861345437934717 -0.8725003680224612 5.023235053605574e-17 4.81140213862966e-17 5.023235053605574e-17 4.81140213862966e-17 -0.48861291438636323 -0.8725006704265121
12666664000.0 -0.49545493715174427 -0.8686336427123987 5.060326872503349e-17 4.7703992061650184e-17 5.060326872503349e-17 4.7703992061650184e-17 -0.4954543995780912 -0.8686339493357151
12667281333.333334 -0.5022658218881275 -0.8647132728037036 5.0970845413770605e-17 4.7291108883558334e-17 5.0970845413770605e-17 4.7291108883558334e-17 -0.5022652867667677 -0.8647135836269403
12667898666.666666 -0.5090456879656923 -0.8607395004084473 5.133505869036703e-17 4.687539904104216e-17 5.133505869036703e-17 4.687539904104216e-17 -0.5090451553294327 -0.8607398154119993
12668516000.0 -0.5157941166772414 -0.8567125709367129 5.1695886863833324e-17 4.645688989097899e-17 5.1695886863833324e-17 4.645688989097899e-17 -0.5157935865587322 -0.8567128901007199
12669133333.333334 -0.5225106912570214 -0.8526327330814593 5.205330846535119e-17 4.603560895633518e-17 5.205330846535119e-17 4.603560895633518e-17 -0.5225101636887542 -0.8526330563858057
12669750666.666666 -0.529194996906533 -0.8485002388031153 5.240730224956542e-17 4.561158392433754e-17 5.240730224956542e-17 4.561158392433754e-17 -0.5291944719208392 -0.8485005662274322
12670368000.0 -0.5358466208201254 -0.8443153433140376 5.275784719582238e-17 4.5184842644679665e-17 5.275784719582238e-17 4.5184842644679665e-17 -0.5358460984491735 -0.8443156748377042
