! Parameters = {f0=12700.012000; bw=77.238000; Q=6100.000000; N=10; m_0_1=1.314009; m_1_1=0.945389; m_1_2=1.148821; m_2_2=0.944740; m_2_3=0.785784; m_2_8=0.002764; m_2_9=0.039468; m_3_3=0.942803; m_3_4=0.674313; m_3_7=0.003364; m_3_8=-0.093724; m_3_9=0.002764; m_4_4=0.939878; m_4_5=0.510648; m_4_6=0.006881; m_4_7=-0.114273; m_4_8=0.003364; m_5_5=0.940260; m_5_6=0.918003; m_5_7=0.006881; m_6_6=0.940259; m_6_7=0.510990; m_7_7=0.939892; m_7_8=0.674431; m_8_8=0.942801; m_8_9=0.786097; m_9_9=0.944735; m_9_10=1.149899; m_10_10=0.945379; m_10_11=1.314804}
!
! Created with skrf (http://scikit-rf.org).
# Hz S RI R 50.0 
!freq ReS11 ImS11 ReS21 ImS21 ReS12 ImS12 ReS22 ImS22
12607400000.0 0.7720763466939901 -0.6355297907065195 -7.585335704909003e-17 1.1229224254246121e-16 -7.585335704909003e-17 1.1229224254246121e-16 0.7720767866171703 -0.6355292562634041
12608017333.333334 0.7645080671934712 -0.6446141599405908 -7.44957178193587e-17 1.13165705391594e-16 -7.44957178193587e-17 1.13165705391594e-16 0.7645085133831467 -0.6446136307622589
12608634666.666666 0.7568329059357228 -0.6536084091355479 -7.312803846042037e-17 1.140227667968604e-16 -7.312803846042037e-17 1.140227667968604e-16 0.7568333583289032 -0.6536078852954611
12609252000.0 0.7490519359437938 -0.6625112808538931 -7.175051696589112e-17 1.148633115709835e-16 -7.175051696589112e-17 1.148633115709835e-16 0.7490523944766292 -0.6625107624247617
12609869333.333334 0.741166245033264 -0.6713215304331468 -7.036335264818419e-17 1.156872269150445e-16 -7.036335264818419e-17 1.156872269150445e-16 0.7411667096410514 -0.6713210174869163
12610486666.666666 0.7331769356603315 -0.6800379261596643 -6.896674610973392e-17 1.1649440243354065e-16 -6.896674610973392e-17 1.1649440243354065e-16 0.7331774062775245 -0.6800374187675061
12611104000.0 0.7250851247672645 -0.6886592494412971 -6.756089921399435e-17 1.1728473014912717e-16 -6.756089921399435e-17 1.1728473014912717e-16 0.725085601327484 -0.6886587476736002
12611721333.333334 0.7168919436267863 -0.697184294977174 -6.614601505637083e-17 1.1805810451695302e-16 -6.614601505637083e-17 1.1805810451695302e-16 0.7168924260628283 -0.6971837989035337
12612338666.666666 0.708598537683512 -0.7056118709266443 -6.472229793487459e-17 1.1881442243871137e-16 -6.472229793487459e-17 1.1881442243871137e-16 0.7085990259273578 -0.705611380615853
12612956000.0 0.7002060663938846 -0.7139407990758163 -6.328995332068445e-17 1.1955358327629796e-16 -6.328995332068445e-17 1.1955358327629796e-16 0.7002065603767103 -0.7139403145958545
12613573333.333334 0.6917157030643181 -0.7221699150020358 -6.184918782856494e-17 1.2027548886511174e-16 -6.184918782856494e-17 1.2027548886511174e-16 0.6917162027165045 -0.7221694364200619
12614190666.666666 0.6831286346868461 -0.7302980682370018 -6.040020918708923e-17 1.2098004352702259e-16 -6.040020918708923e-17 1.2098004352702259e-16 0.6831291399379884 -0.7302975956193439
12614808000.0 0.6744460617733523 -0.7383241224274247 -5.894322620873292e-17 1.216671540829719e-16 -5.894322620873292e-17 1.216671540829719e-16 0.6744465725522693 -0.7383236558395695
12615425333.333334 0.6656691981876723 -0.7462469554939524 -5.747844875983891e-17 1.2233672986520658e-16 -5.747844875983891e-17 1.2233672986520658e-16 0.6656697144224173 -0.746246495000538
12616042666.666666 0.6567992709759757 -0.7540654597879668 -5.600608773043172e-17 1.2298868272915972e-16 -5.600608773043172e-17 1.2298868272915972e-16 0.6567997925938466 -0.7540650054527731
12616660000.0 0.6478375201950922 -0.7617785422465535 -5.452635500389757e-17 1.2362292706496817e-16 -5.452635500389757e-17 1.2362292706496817e-16 0.6478380471226411 -0.7617780941324926
12617277333.333334 0.6387851987392084 -0.7693851245452573 -5.303946342655003e-17 1.2423937980861987e-16 -5.303946342655003e-17 1.2423937980861987e-16 0.6387857309022527 -0.7693846827143661
12617894666.666666 0.6296435721647947 -0.7768841432487651 -5.1545626777056866e-17 1.248379604527425e-16 -5.1545626777056866e-17 1.248379604527425e-16 0.6296441094884266 -0.7768837077621955
12618512000.0 0.620413918513413 -0.7842745499597972 -5.0045059735724925e-17 1.2541859105703314e-16 -5.0045059735724925e-17 1.2541859105703314e-16 0.6204144609220115 -0.7842741208778093
12619129333.333334 0.6110975281334365 -0.791555311465355 -4.853797785373699e-17 1.2598119625829244e-16 -4.853797785373699e-17 1.2598119625829244e-16 0.6110980755506762 -0.7915548888473064
12619746666.666666 0.6016957034992986 -0.7987254098814527 -4.702459752221301e-17 1.265257032801156e-16 -4.702459752221301e-17 1.265257032801156e-16 0.6016962558481622 -0.7987249937857925
12620364000.0 0.592209759029467 -0.8057838427953691 -4.5505135941164215e-17 1.2705204194221193e-16 -4.5505135941164215e-17 1.2705204194221193e-16 0.5922103162322546 -0.8057834332796281
12620981333.333334 0.5826410209029521 -0.8127296234055806 -4.39798110884128e-17 1.2756014466932708e-16 -4.39798110884128e-17 1.2756014466932708e-16 0.5826415828812933 -0.8127292205263649
12621598666.666666 0.5729908268735403 -0.8195617806599984 -4.244884168832711e-17 1.280499464998238e-16 -4.244884168832711e-17 1.280499464998238e-16 0.5729913935484048 -0.8195613844729804
12622216000.0 0.5632605260829732 -0.8262793593915705 -4.0912447180517316e-17 1.2852138509386997e-16 -4.0912447180517316e-17 1.2852138509386997e-16 0.5632610973746813 -0.8262789699514814
12622833333.333334 0.5534514788722379 -0.8328814204518825 -3.937084768843461e-17 1.2897440074125295e-16 -3.937084768843461e-17 1.2897440074125295e-16 0.5534520547004733 -0.8328810378125056
12623450666.666666 0.5435650565915747 -0.8393670408423302 -3.782426398787127e-17 1.2940893636882413e-16 -3.782426398787127e-17 1.2940893636882413e-16 0.5435656368753943 -0.8393666650564929
12624068000.0 0.5336026414084982 -0.8457353138433356 -3.627291747538419e-17 1.298249375475646e-16 -3.627291747538419e-17 1.298249375475646e-16 0.5336032260663437 -0.8457349449629017
12624685333.333334 0.5235656261146301 -0.8519853491410564 -3.4717030136634824e-17 1.3022235249927412e-16 -3.4717030136634824e-17 1.3022235249927412e-16 0.5235662150643395 -0.8519849872169186
12625302666.666666 0.5134554139311983 -0.8581162729517215 -3.315682451472147e-17 1.3060113210286616e-16 -3.315682451472147e-17 1.3060113210286616e-16 0.513456007090019 -0.8581159180337969
12625920000.0 0.5032734183124753 -0.8641272281440313 -3.1592523678314787e-17 1.3096122990031644e-16 -3.1592523678314787e-17 1.3096122990031644e-16 0.5032740155970733 -0.8641268802812516
12626537333.333334 0.4930210627486066 -0.8700173743587232 -3.002435118987619e-17 1.3130260210219543e-16 -3.002435118987619e-17 1.3130260210219543e-16 0.4930216640750789 -0.8700170335990278
12627154666.666666 0.48269978056630797 -0.8757858881262303 -2.84525310737257e-17 1.316252075928427e-16 -2.84525310737257e-17 1.316252075928427e-16 0.4827003858501955 -0.875785554516563
12627772000.0 0.4723110147284044 -0.8814319629818494 -2.6877287784056363e-17 1.3192900793515908e-16 -2.6877287784056363e-17 1.3192900793515908e-16 0.4723116238847033 -0.8814316365681495
12628389333.333334 0.4618562176325198 -0.8869548095782521 -2.5298846172994256e-17 1.3221396737499832e-16 -2.5298846172994256e-17 1.3221396737499832e-16 0.4618568305756927 -0.8869544904054478
12629006666.666666 0.4513368509075013 -0.8923536557961259 -2.37174314584679e-17 1.3248005284520497e-16 -2.37174314584679e-17 1.3248005284520497e-16 0.4513374675514896 -0.8923533439081289
12629624000.0 0.44075438520945176 -0.8976277468519178 -2.2133269192173885e-17 1.3272723396924463e-16 -2.2133269192173885e-17 1.3272723396924463e-16 0.44075500546768825 -0.8976274422916168
12630241333.333334 0.43011030001592226 -0.902776345403458 -2.0546585227420714e-17 1.3295548306446495e-16 -2.0546585227420714e-17 1.3295548306446495e-16 0.4301109238013436 -0.9027760482127152
12630858666.666666 0.4194060834193345 -0.907798731652929 -1.8957605687010994e-17 1.3316477514496538e-16 -1.8957605687010994e-17 1.3316477514496538e-16 0.4194067106443913 -0.9077984418725686
12631476000.0 0.40864323191849644 -0.9126942034476921 -1.736655693099521e-17 1.333550879240952e-16 -1.736655693099521e-17 1.333550879240952e-16 0.4086438624951685 -0.9126939211175025
12632093333.333334 0.3978232502098004 -0.9174620763782675 -1.5773665524533604e-17 1.3352640181655177e-16 -1.5773665524533604e-17 1.3352640181655177e-16 0.3978238840496068 -0.9174618015369886
12632710666.666666 0.3869476509767822 -0.9221016838740511 -1.4179158205650388e-17 1.3367869994010623e-16 -1.4179158205650388e-17 1.3367869994010623e-16 0.3869482879907947 -0.9221014165593742
12633328000.0 0.3760179546783543 -0.9266123772966329 -1.258326185297986e-17 1.3381196811694414e-16 -1.258326185297986e-17 1.3381196811694414e-16 0.37601859477720945 -0.9266121175451918
12633945333.333334 0.36503568933657676 -0.9309935260303271 -1.0986203453577317e-17 1.3392619487461434e-16 -1.0986203453577317e-17 1.3392619487461434e-16 0.3650363324304887 -0.9309932738776956
12634562666.666666 0.3540023903228766 -0.9352445175704059 -9.38821007063604e-18 1.3402137144660352e-16 -9.38821007063604e-18 1.3402137144660352e-16 0.35400303632164953 -0.9352442730510915
12635180000.0 0.3429196001433956 -0.9393647576087286 -7.789508811266875e-18 1.340974917725206e-16 -7.789508811266875e-18 1.340974917725206e-16 0.34292024895643664 -0.939364520756169
12635797333.333334 0.33178886822342046 -0.9433536701167986 -6.1903267942537014e-18 1.341545524978991e-16 -6.1903267942537014e-18 1.341545524978991e-16 0.33178951975975207 -0.9433534409633565
12636414666.666666 0.32061175069071257 -0.9472106974263159 -4.590891117861839e-18 1.3419255297361478e-16 -4.590891117861839e-18 1.3419255297361478e-16 0.32061240485898534 -0.9472104760032742
12637032000.0 0.3093898101579018 -0.9509353003071611 -2.991428827585657e-18 1.3421149525492256e-16 -2.991428827585657e-18 1.3421149525492256e-16 0.3093904668664071 -0.9509350866447187
12637649333.333334 0.2981246155040765 -0.9545269580427569 -1.39216688399251e-18 1.342113841001065e-16 -1.39216688399251e-18 1.342113841001065e-16 0.29812527466076016 -0.9545267521700261
12638266666.666666 0.28681774165553164 -0.9579851685028495 2.0666786944680483e-19 1.3419222696874987e-16 2.0666786944680483e-19 1.3419222696874987e-16 0.2868184031680056 -0.9579849704478494
12638884000.0 0.2754707693654223 -0.961309448213755 1.804848738494642e-18 1.341540340196209e-16 1.804848738494642e-18 1.341540340196209e-16 0.2754714331409789 -0.9613092580034102
12639501333.333334 0.26408528499282174 -0.9644993324259344 3.402149210234104e-18 1.3409681810817774e-16 3.402149210234104e-18 1.3409681810817774e-16 0.2640859509384451 -0.9644991500860687
12640118666.666666 0.25266288028121425 -0.9675543751788909 4.998342985129857e-18 1.340205947836918e-16 4.998342985129857e-18 1.340205947836918e-16 0.252663548303595 -0.9675542007342267
12640736000.0 0.2412051521352224 -0.9704741493637202 6.5932040090918e-18 1.339253822859873e-16 6.5932040090918e-18 1.339253822859873e-16 0.24120582214076972 -0.9704739828378746
12641353333.333334 0.22971370239839597 -0.9732582467825451 8.186506505362003e-18 1.338112015418073e-16 8.186506505362003e-18 1.338112015418073e-16 0.22971437429325073 -0.9732580881980235
12641970666.666666 0.21819013762835887 -0.9759062782058174 9.778025006498286e-18 1.3367807616079224e-16 9.778025006498286e-18 1.3367807616079224e-16 0.21819081131840729 -0.9759061275840147
12642588000.0 0.2066360688727287 -0.9784178734266038 1.1367534386221487e-17 1.3352603243108365e-16 1.1367534386221487e-17 1.3352603243108365e-16 0.206636744263615 -0.9784177307877987
12643205333.333334 0.19505311144366397 -0.9807926813123953 1.29548098912058e-17 1.3335509931455029e-16 1.29548098912058e-17 1.3335509931455029e-16 0.19505378844080398 -0.9807925466757491
12643822666.666666 0.18344288469203546 -0.9830303698541958 1.4539627172834047e-17 1.3316530844163317e-16 1.4539627172834047e-17 1.3316530844163317e-16 0.18344356320062966 -0.9830302432377493
12644440000.0 0.1718070117811446 -0.985130626212913 1.612176231884913e-17 1.3295669410581857e-16 1.612176231884913e-17 1.3295669410581857e-16 0.1718076917061914 -0.9851305076335835
12645057333.333334 0.16014711945974233 -0.9870931567631086 1.7700991884934994e-17 1.3272929325773457e-16 1.7700991884934994e-17 1.3272929325773457e-16 0.1601478007060515 -0.9870930462366891
12645674666.666666 0.14846483783471495 -0.9889176871340328 1.9277092926253094e-17 1.3248314549887045e-16 1.9277092926253094e-17 1.3248314549887045e-16 0.14846552030692065 -0.9889175846751878
12646292000.0 0.1367618001428218 -0.9906039622480359 2.084984302888383e-17 1.3221829307492015e-16 2.084984302888383e-17 1.3221829307492015e-16 0.1367624837453963 -0.9906038678703014
12646909333.333334 0.12503964252281097 -0.9921517463561617 2.2419020341128335e-17 1.3193478086876532e-16 2.2419020341128335e-17 1.3193478086876532e-16 0.12504032716007785 -0.9921516600719433
12647526666.666666 0.11330000378648315 -0.9935608230711371 2.398440360478176e-17 1.3163265639307417e-16 2.398440360478176e-17 1.3163265639307417e-16 0.11330068936263066 -0.9935607448917074
12648144000.0 0.1015445251894369 -0.9948309953976427 2.5545772186306682e-17 1.3131196978253247e-16 2.5545772186306682e-17 1.3131196978253247e-16 0.10154521160853132 -0.9948309253331395
12648761333.333334 0.08977485020183884 -0.9959620857598191 2.7102906107856762e-17 1.3097277378571275e-16 2.7102906107856762e-17 1.3097277378571275e-16 0.08977553736783811 -0.995962023819246
12649378666.666666 0.0779926242786032 -0.9969539360261082 2.865558607822939e-17 1.306151237565719e-16 2.865558607822939e-17 1.306151237565719e-16 0.07799331209537003 -0.9969538822173304
12649996000.0 0.06619949462932097 -0.9978064075313586 3.0203593523727054e-17 1.302390776455766e-16 3.0203593523727054e-17 1.302390776455766e-16 0.06620018300063657 -0.997806361861105
12650613333.333334 0.05439710998788736 -0.9985193810962203 3.174671061885662e-17 1.298446959904747e-16 3.174671061885662e-17 1.298446959904747e-16 0.05439779881746491 -0.9985193435700818
12651230666.666666 0.04258712038222828 -0.9990927570437897 3.328472031694442e-17 1.2943204190669783e-16 3.328472031694442e-17 1.2943204190669783e-16 0.04258780957372621 -0.9990927276662186
12651848000.0 0.030771176903306552 -0.999526455213566 3.481740638064282e-17 1.2900118107739515e-16 3.481740638064282e-17 1.2900118107739515e-16 0.030771866360342043 -0.999526433987873
12652465333.333334 0.01895093147451868 -0.9998204149726395 3.634455341226276e-17 1.2855218174312084e-16 3.634455341226276e-17 1.2855218174312084e-16 0.01895162110068124 -0.9998204019009957
12653082666.666666 0.0071280366208621975 -0.999974595224171 3.7865946883986447e-17 1.2808511469116058e-16 3.7865946883986447e-17 1.2808511469116058e-16 0.007128726319727138 -0.9999745903076093
12653700000.0 -0.004695854762549497 -0.9999889744131494 3.9381373168017785e-17 1.2760005324447915e-16 3.9381373168017785e-17 1.2760005324447915e-16 -0.004695165087407651 -0.9999889776515614
12654317333.333334 -0.01651908964108656 -0.9998635505293924 4.089061956646956e-17 1.270970732503497e-16 4.089061956646956e-17 1.270970732503497e-16 -0.016518400086080555 -0.9998635619215298
12654934666.666666 -0.028340015071903455 -0.9995983411078356 4.23934743412124e-17 1.26576253068597e-16 4.23934743412124e-17 1.26576253068597e-16 -0.028339325733419844 -0.9995983606513106
12655552000.0 -0.04015697843519844 -0.9991933832260731 4.388972674353956e-17 1.2603767355950007e-16 4.388972674353956e-17 1.2603767355950007e-16 -0.04015628940958415 -0.9991934109173589
12656169333.333334 -0.05196832766488825 -0.9986487334991853 4.5379167043629865e-17 1.2548141807136265e-16 4.5379167043629865e-17 1.2548141807136265e-16 -0.05196763904843696 -0.9986487693336151
12656786666.666666 -0.06377241147991511 -0.9979644680718092 4.6861586559958274e-17 1.24907572427699e-16 4.6861586559958274e-17 1.24907572427699e-16 -0.06377172336885399 -0.9979645120435793
12657404000.0 -0.07556757961484818 -0.9971406826075077 4.8336777688457035e-17 1.243162249141056e-16 4.8336777688457035e-17 1.243162249141056e-16 -0.07556689210532437 -0.9971407347096773
12658021333.333334 -0.08735218305082523 -0.9961774922753818 4.9804533931558834e-17 1.2370746626477128e-16 4.9804533931558834e-17 1.2370746626477128e-16 -0.08735149623889234 -0.9961775524998742
12658638666.666666 -0.09912457424583779 -0.9950750317339865 5.126464992702616e-17 1.2308138964866462e-16 5.126464992702616e-17 1.2308138964866462e-16 -0.09912388822744263 -0.9950751000715907
12659256000.0 -0.11088310736537697 -0.993833455112481 5.271692147669572e-17 1.2243809065534427e-16 5.271692147669572e-17 1.2243809065534427e-16 -0.11088242223634595 -0.9938335315528517
12659873333.333334 -0.12262613851230156 -0.9924529359890947 5.4161145574945055e-17 1.2177766728047397e-16 5.4161145574945055e-17 1.2177766728047397e-16 -0.12262545436832764 -0.992453020520757
12660490666.666666 -0.13435202595655077 -0.9909336673668845 5.559712043702857e-17 1.2110021991098279e-16 5.559712043702857e-17 1.2110021991098279e-16 -0.13435134289317952 -0.9909337599772307
12661108000.0 -0.14605913036511595 -0.9892758616466891 5.702464552726261e-17 1.2040585130987388e-16 5.702464552726261e-17 1.2040585130987388e-16 -0.14605844847773286 -0.9892759623219851
12661725333.333334 -0.15774581503074825 -0.9874797505974983 5.844352158692358e-17 1.1969466660074994e-16 5.844352158692358e-17 1.1969466660074994e-16 -0.15774513441456509 -0.9874798593228844
12662342666.666666 -0.16941044610100348 -0.9855455853240236 5.985355066207364e-17 1.18966773251953e-16 5.985355066207364e-17 1.18966773251953e-16 -0.16940976685104478 -0.9855457020835142
12662960000.0 -0.18105139280668947 -0.9834736362315826 6.125453613110168e-17 1.1822228106041982e-16 6.125453613110168e-17 1.1822228106041982e-16 -0.1810507150177798 -0.9834737610080722
12663577333.333334 -0.19266702768977148 -0.981264192988311 6.264628273210204e-17 1.1746130213519579e-16 6.264628273210204e-17 1.1746130213519579e-16 -0.19266635145652194 -0.9812643257635757
12664194666.666666 -0.20425572683092608 -0.9789175644846617 6.402859659004625e-17 1.1668395088062817e-16 6.402859659004625e-17 1.1668395088062817e-16 -0.20425505224772086 -0.9789177052393592
12664812000.0 -0.21581587007660089 -0.9764340787902138 6.540128524373113e-17 1.1589034397925053e-16 6.540128524373113e-17 1.1589034397925053e-16 -0.21581519723758416 -0.9764342275038883
12665429333.333334 -0.22734584126543458 -0.9738140831078204 6.676415767255168e-17 1.1508060037432888e-16 6.676415767255168e-17 1.1508060037432888e-16 -0.2273451702644981 -0.9738142397589076
12666046666.666666 -0.23884402845423405 -0.971057943725072 6.811702432300723e-17 1.1425484125212576e-16 6.811702432300723e-17 1.1425484125212576e-16 -0.2388433593850031 -0.9710581082908988
12666664000.0 -0.25030882414355093 -0.9681660459630288 6.94596971350604e-17 1.134131900238092e-16 6.94596971350604e-17 1.134131900238092e-16 -0.25030815709937143 -0.9681662184198171
12667281333.333334 -0.26173862550194815 -0.9651387941224637 7.079198956817389e-17 1.1255577230711505e-16 7.079198956817389e-17 1.1255577230711505e-16 -0.26173796057587423 -0.965138974445336
12667898666.666666 -0.27313183459052537 -0.9619766114272363 7.211371662723115e-17 1.1168271590763575e-16 7.211371662723115e-17 1.1168271590763575e-16 -0.2731311718753055 -0.961976799590216
12668516000.0 -0.2844868585862059 -0.9586799399651411 7.342469488816311e-17 1.1079415079984519e-16 7.342469488816311e-17 1.1079415079984519e-16 -0.2844861981742711 -0.9586801359411606
12669133333.333334 -0.2958021100042304 -0.9552492406261617 7.47247425233301e-17 1.0989020910783324e-16 7.47247425233301e-17 1.0989020910783324e-16 -0.2958014519876804 -0.9552494443870632
12669750666.666666 -0.30707600692025905 -0.9516849930379917 7.601367932672729e-17 1.0897102508570264e-16 7.601367932672729e-17 1.0897102508570264e-16 -0.3070753513908497 -0.9516852045545308
12670368000.0 -0.3183069731915854 -0.9479876954989582 7.729132673889036e-17 1.080367350977111e-16 7.729132673889036e-17 1.080367350977111e-16 -0.3183063202407156 -0.9479879147408088
