! Parameters = {f0=12700.012000; bw=77.238000; Q=6100.000000; N=10; m_0_1=1.298594; m_1_1=0.714158; m_1_2=1.133406; m_2_2=0.713509; m_2_3=0.770369; m_2_8=0.001993; m_2_9=0.038697; m_3_3=0.711572; m_3_4=0.658898; m_3_7=0.002593; m_3_8=-0.094495; m_3_9=0.001993; m_4_4=0.708647; m_4_5=0.495233; m_4_6=0.006110; m_4_7=-0.115044; m_4_8=0.002593; m_5_5=0.709029; m_5_6=0.902588; m_5_7=0.006110; m_6_6=0.709028; m_6_7=0.495575; m_7_7=0.708661; m_7_8=0.659016; m_8_8=0.711570; m_8_9=0.770682; m_9_9=0.713504; m_9_10=1.134484; m_10_10=0.714148; m_10_11=1.299389}
!
! Created with skrf (http://scikit-rf.org).
# Hz S RI R 50.0 
!freq ReS11 ImS11 ReS21 ImS21 ReS12 ImS12 ReS22 ImS22
12607400000.0 -0.6963821580170074 0.7176711572826309 5.859758351561721e-17 -1.119166713861291e-16 5.859758351561721e-17 -1.119166713861291e-16 -0.6963826489922134 0.7176706808713886
12608017333.333334 -0.6881786706578479 0.725541258131757 5.730032106546869e-17 -1.1255861531845953e-16 5.730032106546869e-17 -1.1255861531845953e-16 -0.6881791669928725 0.7255407873557569
12608634666.666666 -0.6798862460537732 0.7333175931523285 5.599604518992673e-17 -1.1318553309197085e-16 5.599604518992673e-17 -1.1318553309197085e-16 -0.6798867476839503 0.7333171280718567
12609252000.0 -0.671505955882058 0.7409991573643925 5.468492981361656e-17 -1.1379734831175309e-16 5.468492981361656e-17 -1.1379734831175309e-16 -0.6715064627420437 0.7409986980389934
12609869333.333334 -0.6630388831753845 0.7485849580357294 5.336714969057341e-17 -1.1439398659463708e-16 5.336714969057341e-17 -1.1439398659463708e-16 -0.6630393951991661 0.7485845045241981
12610486666.666666 -0.6544861221818574 0.7560740148101711 5.204288038098569e-17 -1.1497537557816783e-16 5.204288038098569e-17 -1.1497537557816783e-16 -0.6544866393027606 0.7560735671705455
12611104000.0 -0.6458487782234141 0.7634653598344447 5.071229822781872e-17 -1.1554144492931908e-16 5.071229822781872e-17 -1.1554144492931908e-16 -0.6458493003741133 0.7634649181239984
12611721333.333334 -0.6371279675533453 0.7707580378829397 4.937558033342659e-17 -1.1609212635290204e-16 4.937558033342659e-17 -1.1609212635290204e-16 -0.6371284946658701 0.7707576021581738
12612338666.666666 -0.6283248172116875 0.7779511064814509 4.80329045359659e-17 -1.166273535997517e-16 4.80329045359659e-17 -1.166273535997517e-16 -0.6283253492174348 0.7779506767980888
12612956000.0 -0.6194404648796357 0.785043636028926 4.668444938578695e-17 -1.1714706247461147e-16 4.668444938578695e-17 -1.1714706247461147e-16 -0.6194410017093741 0.7850432124419026
12613573333.333334 -0.6104760587327749 0.7920347099173835 4.533039412175171e-17 -1.1765119084374312e-16 4.533039412175171e-17 -1.1765119084374312e-16 -0.6104766003166593 0.7920342924808427
12614190666.666666 -0.6014327572923461 0.7989234246506624 4.397091864742716e-17 -1.1813967864227978e-16 4.397091864742716e-17 -1.1813967864227978e-16 -0.6014333035599225 0.7989230134179474
12614808000.0 -0.5923117292757198 0.8057088899610212 4.260620350721733e-17 -1.1861246788129828e-16 4.260620350721733e-17 -1.1861246788129828e-16 -0.5923122801559365 0.805708484984669
12615425333.333334 -0.5831141534452923 0.8123902289242507 4.123642986243416e-17 -1.190695026546113e-16 4.123642986243416e-17 -1.190695026546113e-16 -0.5831147088665072 0.8123898302559825
12616042666.666666 -0.573841218456233 0.8189665780729274 3.9861779467283163e-17 -1.1951072914528835e-16 3.9861779467283163e-17 -1.1951072914528835e-16 -0.5738417783462257 0.8189661857636468
12616660000.0 -0.5644941227027387 0.8254370875081162 3.8482434644781054e-17 -1.199360956319006e-16 3.8482434644781054e-17 -1.199360956319006e-16 -0.564494686988717 0.8254367016078978
12617277333.333334 -0.5550740741631941 0.8318009210091616 3.709857826262121e-17 -1.2034555249448306e-16 3.709857826262121e-17 -1.2034555249448306e-16 -0.5550746427718057 0.8318005415672483
12617894666.666666 -0.5455822902442532 0.838057256141638 3.571039370896434e-17 -1.2073905222022482e-16 3.571039370896434e-17 -1.2073905222022482e-16 -0.5455828631015948 0.8380568832064332
12618512000.0 -0.5360199976231044 0.8442052843639057 3.431806486814539e-17 -1.2111654940888534e-16 3.431806486814539e-17 -1.2111654940888534e-16 -0.53602057465473 0.8442049179829674
12619129333.333334 -0.5263884320893631 0.8502442111313173 3.2921776096411316e-17 -1.2147800077790813e-16 3.2921776096411316e-17 -1.2147800077790813e-16 -0.5263890132202953 0.8502438513513515
12619746666.666666 -0.5166888383851083 0.856173255999079 3.152171219749291e-17 -1.2182336516728706e-16 3.152171219749291e-17 -1.2182336516728706e-16 -0.5166894235398457 0.8561729028659323
12620364000.0 -0.5069224700439828 0.8619916527231128 3.011805839819587e-17 -1.2215260354413116e-16 3.011805839819587e-17 -1.2215260354413116e-16 -0.5069230591465138 0.8619913062817718
12620981333.333334 -0.4970905892295174 0.8676986493589047 2.871100032395706e-17 -1.224656790069487e-16 2.871100032395706e-17 -1.224656790069487e-16 -0.49709118220332615 0.8676983096534853
12621598666.666666 -0.4871944665716184 0.8732935083589085 2.7300723974312463e-17 -1.2276255678965965e-16 2.7300723974312463e-17 -1.2276255678965965e-16 -0.4871950633396969 0.8732931754326518
12622216000.0 -0.47723538100255514 0.8787755066677506 2.5887415698343283e-17 -1.230432042653228e-16 2.5887415698343283e-17 -1.230432042653228e-16 -0.47723598148741175 0.8787751805630166
12622833333.333334 -0.4672146195916985 0.8841439358156568 2.4471262170095948e-17 -1.2330759094957775e-16 2.4471262170095948e-17 -1.2330759094957775e-16 -0.46721522371536967 0.884143616573921
12623450666.666666 -0.4571334773791395 0.8893981020100454 2.3052450363969513e-17 -1.2355568850380553e-16 2.3052450363969513e-17 -1.2355568850380553e-16 -0.457134085063199 0.8893977896718925
12624068000.0 -0.4469932572082724 0.8945373262252145 2.1631167530062487e-17 -1.2378747073800817e-16 2.1631167530062487e-17 -1.2378747073800817e-16 -0.446993868373841 0.8945370208303317
12624685333.333334 -0.43679526955746856 0.8995609442900656 2.0207601169472114e-17 -1.2400291361340857e-16 2.0207601169472114e-17 -1.2400291361340857e-16 -0.43679588412522574 0.8995606458772407
12625302666.666666 -0.42654083237082185 0.9044683069738942 1.8781939009644383e-17 -1.2420199524475555e-16 1.8781939009644383e-17 -1.2420199524475555e-16 -0.42654145026101453 0.9044680155810081
12625920000.0 -0.4162312708875135 0.9092587800704386 1.735436897959454e-17 -1.243846959023614e-16 1.735436897959454e-17 -1.243846959023614e-16 -0.4162318920199672 0.9092584957344609
12626537333.333334 -0.40586791747098055 0.9139317444796337 1.592507918523451e-17 -1.2455099801383891e-16 1.592507918523451e-17 -1.2455099801383891e-16 -0.40586854176510984 0.9139314672366194
12627154666.666666 -0.39545211143642045 0.9184865962877704 1.449425788458089e-17 -1.2470088616556974e-16 1.449425788458089e-17 -1.2470088616556974e-16 -0.3954527388112389 0.9184863261728539
12627772000.0 -0.3849851988776222 0.9229227468455713 1.3062093462984123e-17 -1.2483434710388262e-16 1.3062093462984123e-17 -1.2483434710388262e-16 -0.38498582925175356 0.9229224838929626
12628389333.333334 -0.3744685324934475 0.9272396228440738 1.162877440842189e-17 -1.2495136973594184e-16 1.162877440842189e-17 -1.2495136973594184e-16 -0.37446916578513584 0.9272393670870542
12629006666.666666 -0.3639034714124651 0.9314366663889576 1.01944892866537e-17 -1.250519451303649e-16 1.01944892866537e-17 -1.250519451303649e-16 -0.36390410753958485 0.9314364178598742
12629624000.0 -0.35329138101769403 0.9355133350724758 8.759426716502891e-18 -1.251360665175444e-16 8.759426716502891e-18 -1.251360665175444e-16 -0.3532920198977624 0.9355130938027407
12630241333.333334 -0.34263363276993947 0.9394691020436438 7.32377534506317e-18 -1.252037292896934e-16 7.32377534506317e-18 -1.252037292896934e-16 -0.3426342743201248 0.9394688680637253
12630858666.666666 -0.33193160403081484 0.9433034560762227 5.887723822957318e-18 -1.2525493100060344e-16 5.887723822957318e-18 -1.2525493100060344e-16 -0.33193224816794925 0.9433032294156461
12631476000.0 -0.32118667788428534 0.9470159016349584 4.4514607795410614e-18 -1.2528967136512202e-16 4.4514607795410614e-18 -1.2528967136512202e-16 -0.32118732452487414 0.9470156823222987
12632093333.333334 -0.31040024295834967 0.9506059589394614 3.015174798222699e-18 -1.2530795225834334e-16 3.015174798222699e-18 -1.2530795225834334e-16 -0.3104008920185839 0.9506057470023437
12632710666.666666 -0.29957369324550387 0.9540731640262528 1.579054391695119e-18 -1.2530977771451985e-16 1.579054391695119e-18 -1.2530977771451985e-16 -0.2995743446412689 0.9540729594913432
12633328000.0 -0.288708427922287 0.9574170688088119 1.4328797722236462e-19 -1.2529515392568755e-16 1.4328797722236462e-19 -1.2529515392568755e-16 -0.2887090815691755 0.9574168717018202
12633945333.333334 -0.277805851168811 0.9606372411353769 -1.2919361480017271e-18 -1.2526408924001083e-16 -1.2919361480017271e-18 -1.2526408924001083e-16 -0.2778065069821324 0.9606370514810485
12634562666.666666 -0.26686737198712734 0.9637332648448435 -2.7264298315514382e-18 -1.2521659415984434e-16 -2.7264298315514382e-18 -1.2521659415984434e-16 -0.26686802988191943 0.963733082666959
12635180000.0 -0.2558944040191328 0.9667047398205463 -4.160005090381445e-18 -1.2515268133951282e-16 -4.160005090381445e-18 -1.2515268133951282e-16 -0.2558950639101732 0.9667045651419179
12635797333.333334 -0.2448883653639599 0.969551282041947 -5.5924741354357444e-18 -1.2507236558280992e-16 -5.5924741354357444e-18 -1.2507236558280992e-16 -0.24488902716577624 0.9695511148844168
12636414666.666666 -0.23385067839465334 0.9722725236342826 -7.023649396182421e-18 -1.249756638402174e-16 -7.023649396182421e-18 -1.249756638402174e-16 -0.23385134202153463 0.9722723640187166
12637032000.0 -0.2227827695742641 0.9748681129161194 -8.45334354518118e-18 -1.2486259520583927e-16 -8.45334354518118e-18 -1.2486259520583927e-16 -0.222783434940272 0.9748679608624082
12637649333.333334 -0.21168606927169453 0.9773377144447645 -9.881369522538416e-18 -1.2473318091406164e-16 -9.881369522538416e-18 -1.2473318091406164e-16 -0.21168673629067414 0.9773375699718183
12638266666.666666 -0.20056201157664866 0.979681009059655 -1.1307540560356594e-17 -1.245874443359286e-16 -1.1307540560356594e-17 -1.245874443359286e-16 -0.20056268016224027 0.9796808721854044
12638884000.0 -0.1894120341144087 0.9818976939235873 -1.2731670207111065e-17 -1.2442541097524292e-16 -1.2731670207111065e-17 -1.2442541097524292e-16 -0.1894127041800583 0.9818975646649778
12639501333.333334 -0.17823757785995759 0.9839874825618626 -1.415357235201468e-17 -1.24247108464384e-16 -1.415357235201468e-17 -1.24247108464384e-16 -0.17823824931892845 0.9839873609348546
12640118666.666666 -0.16704008695203412 0.9859501048992654 -1.5573061249268254e-17 -1.240525665598552e-16 -1.5573061249268254e-17 -1.240525665598552e-16 -0.16704075971741805 0.9859499909188315
12640736000.0 -0.15582100850585515 0.9877853072950792 -1.6989951542352202e-17 -1.2384181713754065e-16 -1.6989951542352202e-17 -1.2384181713754065e-16 -0.1558216824905833 0.9877852009752016
12641353333.333334 -0.1445817924269921 0.9894928525757091 -1.8404058288095834e-17 -1.2361489418770951e-16 -1.8404058288095834e-17 -1.2361489418770951e-16 -0.14458246754384696 0.9894927539293801
12641970666.666666 -0.13332389122320729 0.9910725200654681 -1.9815196980876504e-17 -1.2337183380971688e-16 -1.9815196980876504e-17 -1.2337183380971688e-16 -0.13332456738483334 0.9910724291046862
12642588000.0 -0.12204875981713068 0.9925241056150305 -2.1223183576611063e-17 -1.2311267420644925e-16 -2.1223183576611063e-17 -1.2311267420644925e-16 -0.12204943693604585 0.9925240223507994
12643205333.333334 -0.11075785535817552 0.9938474216278242 -2.2627834516716426e-17 -1.2283745567849313e-16 -2.2627834516716426e-17 -1.2283745567849313e-16 -0.11075853334678265 0.9938473460701525
12643822666.666666 -0.09945263703408172 0.9950422970842915 -2.4028966752038766e-17 -1.2254622061802108e-16 -2.4028966752038766e-17 -1.2254622061802108e-16 -0.09945331580467998 0.9950422292421917
12644440000.0 -0.08813456588259119 0.9961085775639643 -2.54263977666402e-17 -1.222390135024187e-16 -2.54263977666402e-17 -1.222390135024187e-16 -0.08813524534738701 0.9961085174454495
12645057333.333334 -0.07680510460240299 0.9970461252654418 -2.681994560154828e-17 -1.219158808876329e-16 -2.681994560154828e-17 -1.219158808876329e-16 -0.0768057846735219 0.997046072877528
12645674666.666666 -0.06546571736436754 0.9978548190241829 -2.8209428878398697e-17 -1.21576871401255e-16 -2.8209428878398697e-17 -1.21576871401255e-16 -0.06546639795386518 0.9978547743728855
12646292000.0 -0.054117869621866495 0.9985345543281955 -2.9594666823051317e-17 -1.2122203573532102e-16 -2.9594666823051317e-17 -1.2122203573532102e-16 -0.05411855064174001 0.9985345174185284
12646909333.333334 -0.04276302792190547 0.9990852433315021 -3.097547928901428e-17 -1.2085142663886841e-16 -3.097547928901428e-17 -1.2085142663886841e-16 -0.04276370928410514 0.9990852141674805
12647526666.666666 -0.03140265971527248 0.9995068148655231 -3.235168678087309e-17 -1.2046509891020326e-16 -3.235168678087309e-17 -1.2046509891020326e-16 -0.031403341331712846 0.9995067934501595
12648144000.0 -0.02003823316689034 0.9997992144482643 -3.372311047758712e-17 -1.2006310938890905e-16 -3.372311047758712e-17 -1.2006310938890905e-16 -0.02003891494946172 0.9997992007835693
12648761333.333334 -0.008671216966304752 0.9999624042913512 -3.508957225566134e-17 -1.1964551694760055e-16 -3.508957225566134e-17 -1.1964551694760055e-16 -0.0086718988268846 0.9999623983783352
12649378666.666666 0.0026969198622931387 0.9999963633049243 -3.645089471226555e-17 -1.192123824833999e-16 -3.645089471226555e-17 -1.192123824833999e-16 0.002696238011828865 0.9999963651435938
12649996000.0 0.014064708149974058 0.999901087100356 -3.780690118823589e-17 -1.18763768909154e-16 -3.780690118823589e-17 -1.18763768909154e-16 0.01406402639773948 0.9999010966897175
12650613333.333334 0.025430678772769083 0.9996765879908225 -3.915741579094291e-17 -1.1829974114439923e-16 -3.915741579094291e-17 -1.1829974114439923e-16 0.025429997206857045 0.9996766053288809
12651230666.666666 0.03679336284158982 0.9993228949897145 -4.0502263417077634e-17 -1.1782036610605913e-16 -4.0502263417077634e-17 -1.1782036610605913e-16 0.03679268155006047 0.9993229200734725
12651848000.0 0.04815129189223168 0.9988400538068775 -4.1841269775337707e-17 -1.1732571269887702e-16 -4.1841269775337707e-17 -1.1732571269887702e-16 0.04815061096310116 0.9988400866323381
12652465333.333334 0.05950299807495293 0.9982281268427114 -4.317426140895524e-17 -1.1681585180560788e-16 -4.317426140895524e-17 -1.1681585180560788e-16 0.05950231759618191 0.9982281674048773
12653082666.666666 0.07084701434406 0.9974871931801179 -4.4501065718116656e-17 -1.162908562769519e-16 -4.4501065718116656e-17 -1.162908562769519e-16 0.07084633440354239 0.9974872414729917
12653700000.0 0.08218187464795589 0.9966173485742483 -4.582151098232706e-17 -1.1575080092120732e-16 -4.582151098232706e-17 -1.1575080092120732e-16 0.08218119533350746 0.9966174045908355
12654317333.333334 0.09350611411812428 0.9956187054401626 -4.713542638253853e-17 -1.1519576249371446e-16 -4.713542638253853e-17 -1.1519576249371446e-16 0.09350543551747137 0.9956187691724704
12654934666.666666 0.10481826925864156 0.9944913928382892 -4.844264202324711e-17 -1.1462581968601116e-16 -4.844264202324711e-17 -1.1462581968601116e-16 0.10481759145940964 0.9944914642773286
12655552000.0 0.11611687813548202 0.9932355564577253 -4.9742988954426635e-17 -1.140410531147504e-16 -4.9742988954426635e-17 -1.140410531147504e-16 0.11611620122518447 0.9932356355935127
12656169333.333334 0.1274004805651126 0.9918513585974439 -5.1036299193285096e-17 -1.1344154531039046e-16 -5.1036299193285096e-17 -1.1344154531039046e-16 0.12739980463113956 0.9918514454190026
12656786666.666666 0.13866761830339921 0.9903389781453019 -5.232240574597937e-17 -1.12827380705597e-16 -5.232240574597937e-17 -1.12827380705597e-16 0.13866694343300578 0.9903390726406612
12657404000.0 0.14991683523409116 0.9886986105549117 -5.3601142629114056e-17 -1.1219864562343424e-16 -5.3601142629114056e-17 -1.1219864562343424e-16 0.14991616151438675 0.9886987127111116
12658021333.333334 0.16114667755697526 0.9869304678203857 -5.487234489112199e-17 -1.1155542826530292e-16 -5.487234489112199e-17 -1.1155542826530292e-16 0.1611460050749121 0.9869305776234786
12658638666.666666 0.17235569397553477 0.9850347784489792 -5.613584863350815e-17 -1.1089781869863444e-16 -5.613584863350815e-17 -1.1089781869863444e-16 0.17235502281789658 0.9850348958840289
12659256000.0 0.1835424358849566 0.98301178743148 -5.739149103196137e-17 -1.1022590884433457e-16 -5.739149103196137e-17 -1.1022590884433457e-16 0.18354176613834763 0.9830119124825666
12659873333.333334 0.1947054575589791 0.9808617562106116 -5.86391103572775e-17 -1.0953979246401239e-16 -5.86391103572775e-17 -1.0953979246401239e-16 0.19470478930981253 0.9808618888608316
12660490666.666666 0.20584331633675929 0.9785849626472409 -5.987854599613947e-17 -1.0883956514696659e-16 -5.987854599613947e-17 -1.0883956514696659e-16 0.20584264967124663 0.9785851028787113
12661108000.0 0.21695457280962288 0.9761817009844074 -6.110963847180492e-17 -1.0812532429690351e-16 -6.110963847180492e-17 -1.0812532429690351e-16 0.21695390781376236 0.9761818487782666
12661725333.333334 0.2280377910065864 0.973652281809401 -6.233222946453206e-17 -1.0739716911848118e-16 -6.233222946453206e-17 -1.0739716911848118e-16 0.22803712776615231 0.9736524371458124
12662342666.666666 0.2390915385804085 0.970997032013523 -6.354616183194058e-17 -1.0665520060356738e-16 -6.354616183194058e-17 -1.0665520060356738e-16 0.23909087718093983 0.9709971948716773
12662960000.0 0.2501143869924774 0.9682162947498842 -6.475127962914296e-17 -1.058995215173082e-16 -6.475127962914296e-17 -1.058995215173082e-16 0.2501137275192669 0.968216465108002
12663577333.333334 0.26110491169737504 0.9653104293890767 -6.594742812876017e-17 -1.0513023638394095e-16 -6.594742812876017e-17 -1.0513023638394095e-16 0.2611042542354583 0.9653106072244118
12664194666.666666 0.27206169232714394 0.9622798114726856 -6.71344538407352e-17 -1.0434745147240051e-16 -6.71344538407352e-17 -1.0434745147240051e-16 0.27206103696128836 0.9622799967615275
12664812000.0 0.2829833128747397 0.9591248326647864 -6.831220453199332e-17 -1.035512747816951e-16 -6.831220453199332e-17 -1.035512747816951e-16 0.28298265968943337 0.9591250253824638
12665429333.333334 0.293868361877111 0.955845900701301 -6.948052924593088e-17 -1.0274181602605685e-16 -6.948052924593088e-17 -1.0274181602605685e-16 0.29386771095655206 0.9558461008221844
12666046666.666666 0.3047154325973666 0.95244343933738 -7.063927832169844e-17 -1.0191918661989638e-16 -7.063927832169844e-17 -1.0191918661989638e-16 0.30471478402545255 0.9524436468348871
12666664000.0 0.3155231232070381 0.9489178882924979 -7.178830341338112e-17 -1.0108349966248756e-16 -7.178830341338112e-17 -1.0108349966248756e-16 0.31552247706735453 0.9489181031390946
12667281333.333334 0.32629003696678455 0.9452697031937672 -7.292745750890081e-17 -1.0023486992250589e-16 -7.292745750890081e-17 -1.0023486992250589e-16 0.32628939334259444 0.9452699253609727
12667898666.666666 0.33701478240709065 0.9414993555169963 -7.405659494880518e-17 -9.937341382230495e-17 -7.405659494880518e-17 -9.937341382230495e-17 0.3370141413813242 0.9414995849753868
12668516000.0 0.34769597350825615 0.9376073325257025 -7.517557144486881e-17 -9.849924942198407e-17 -7.517557144486881e-17 -9.849924942198407e-17 0.3476953351634997 0.9376075692449152
12669133333.333334 0.358332229879196 0.9335941372082517 -7.62842440984537e-17 -9.761249640328749e-17 -7.62842440984537e-17 -9.761249640328749e-17 0.3583315942976812 0.9335943811569879
12669750666.666666 0.3689221769360249 0.9294602882127896 -7.738247141875004e-17 -9.671327605324316e-17 -7.738247141875004e-17 -9.671327605324316e-17 0.3689215441996179 0.9294605393588187
