! Parameters = {f0=12700.012000; bw=77.238000; Q=6100.000000; N=10; m_0_1=1.152648; m_1_1=-1.475031; m_1_2=0.987460; m_2_2=-1.475680; m_2_3=0.624423; m_2_8=-0.005304; m_2_9=0.031400; m_3_3=-1.477617; m_3_4=0.512952; m_3_7=-0.004704; m_3_8=-0.101792; m_3_9=-0.005304; m_4_4=-1.480542; m_4_5=0.349287; m_4_6=-0.001187; m_4_7=-0.122341; m_4_8=-0.004704; m_5_5=-1.480160; m_5_6=0.756642; m_5_7=-0.001187; m_6_6=-1.480161; m_6_7=0.349629; m_7_7=-1.480528; m_7_8=0.513070; m_8_8=-1.477619; m_8_9=0.624736; m_9_9=-1.475685; m_9_10=0.988538; m_10_10=-1.475041; m_10_11=1.153443}
!
! Created with skrf (http://scikit-rf.org).
# Hz S RI R 50.0 
!freq ReS11 ImS11 ReS21 ImS21 ReS12 ImS12 ReS22 ImS22
12607400000.0 -0.8288662535497228 0.5594468104532386 3.9043237357846135e-17 -4.739567768708651e-17 3.9043237357846135e-17 -4.739567768708651e-17 -0.8288665934021543 0.5594463069337053
12608017333.333334 -0.8248994947330162 0.5652794208080361 3.869614427014389e-17 -4.7663989762740453e-17 3.869614427014389e-17 -4.7663989762740453e-17 -0.8248998381118233 0.5652789197227698
12608634666.666666 -0.820891693439899 0.57108390595536 3.8347212395819016e-17 -4.792976432849793e-17 3.8347212395819016e-17 -4.792976432849793e-17 -0.8208920403276517 0.5710834073290516
12609252000.0 -0.816843049076615 0.5768599770958913 3.799646025538287e-17 -4.8192988820497964e-17 3.799646025538287e-17 -4.8192988820497964e-17 -0.8168433994557123 0.5768594809531085
12609869333.333334 -0.8127537630815399 0.5826073468440398 3.764390645490802e-17 -4.8453650809844876e-17 3.764390645490802e-17 -4.8453650809844876e-17 -0.8127541169342066 0.5826068532092225
12610486666.666666 -0.8086240389151982 0.5883257292421661 3.7289569685058366e-17 -4.871173800317896e-17 3.7289569685058366e-17 -4.871173800317896e-17 -0.8086243962234899 0.5883252381396287
12611104000.0 -0.8044540820500331 0.5940148397749787 3.6933468720086716e-17 -4.8967238243262805e-17 3.6933468720086716e-17 -4.8967238243262805e-17 -0.8044544427958342 0.5940143512289062
12611721333.333334 -0.8002440999603114 0.5996743953835003 3.657562241686316e-17 -4.922013950953415e-17 3.657562241686316e-17 -4.922013950953415e-17 -0.8002444641253376 0.5996739094179486
12612338666.666666 -0.7959943021116848 0.6053041144793141 3.621604971387311e-17 -4.947042991867131e-17 3.621604971387311e-17 -4.947042991867131e-17 -0.7959946696774833 0.6053036311182084
12612956000.0 -0.7917048999508196 0.6109037169585053 3.585476963021142e-17 -4.971809772515127e-17 3.585476963021142e-17 -4.971809772515127e-17 -0.7917052708987704 0.610903236225639
12613573333.333334 -0.7873761068949255 0.6164729242155291 3.549180126459981e-17 -4.9963131321781294e-17 3.549180126459981e-17 -4.9963131321781294e-17 -0.7873764812062417 0.6164724461345621
12614190666.666666 -0.7830081383210358 0.6220114591572085 3.512716379436495e-17 -5.020551924024841e-17 3.512716379436495e-17 -5.020551924024841e-17 -0.7830085159767661 0.6220109837516672
12614808000.0 -0.7786012115553431 0.6275190462164538 3.4760876474443056e-17 -5.0445250151640714e-17 3.4760876474443056e-17 -5.0445250151640714e-17 -0.7786015925363697 0.6275185735097277
12615425333.333334 -0.7741555458624355 0.6329954113659032 3.439295863635798e-17 -5.068231286697723e-17 3.439295863635798e-17 -5.068231286697723e-17 -0.7741559301494795 0.6329949413812471
12616042666.666666 -0.7696713624342888 0.6384402821316969 3.402342968720997e-17 -5.0916696337720396e-17 3.402342968720997e-17 -5.0916696337720396e-17 -0.7696717500079068 0.6384398148922268
12616660000.0 -0.7651488843793057 0.6438533876069602 3.365230910866125e-17 -5.114838965628143e-17 3.365230910866125e-17 -5.114838965628143e-17 -0.7651492752198937 0.6438529231356537
12617277333.333334 -0.7605883367112578 0.6492344584652427 3.3279616455903614e-17 -5.137738205652794e-17 3.3279616455903614e-17 -5.137738205652794e-17 -0.7605887307990505 0.649233996784937
12617894666.666666 -0.7559899463380692 0.6545832269739404 3.290537135664591e-17 -5.160366291426876e-17 3.290537135664591e-17 -5.160366291426876e-17 -0.7559903436531429 0.6545827681073324
12618512000.0 -0.7513539420503993 0.6598994270077668 3.2529593510067414e-17 -5.1827221747751045e-17 3.2529593510067414e-17 -5.1827221747751045e-17 -0.7513543425726703 0.6598989709774101
12619129333.333334 -0.74668055451048 0.6651827940617355 3.21523026858051e-17 -5.204804821812706e-17 3.21523026858051e-17 -5.204804821812706e-17 -0.746680958219707 0.6651823408900407
12619746666.666666 -0.7419700162405282 0.6704330652644483 3.1773518722909134e-17 -5.2266132129930456e-17 3.1773518722909134e-17 -5.2266132129930456e-17 -0.7419704231163151 0.6704326149736829
12620364000.0 -0.7372225616110658 0.6756499793913063 3.139326152879572e-17 -5.2481463431545456e-17 3.139326152879572e-17 -5.2481463431545456e-17 -0.7372229716328592 0.6756495320035903
12620981333.333334 -0.7324384268294817 0.6808332768772455 3.101155107822487e-17 -5.2694032215651315e-17 3.101155107822487e-17 -5.2694032215651315e-17 -0.7324388399765746 0.680832832414554
12621598666.666666 -0.7276178499281505 0.6859826998298061 3.062840741223785e-17 -5.290382871968139e-17 3.062840741223785e-17 -5.290382871968139e-17 -0.7276182661796816 0.6859822583139653
12622216000.0 -0.722761070752568 0.6910979920419813 3.024385063712313e-17 -5.3110843326256176e-17 3.024385063712313e-17 -5.3110843326256176e-17 -0.7227614900875239 0.6910975534946687
12622833333.333334 -0.7178683309494527 0.6961788990049194 2.9857900923354025e-17 -5.331506656362391e-17 2.9857900923354025e-17 -5.331506656362391e-17 -0.7178687533466703 0.6961784634476647
12623450666.666666 -0.7129398739547709 0.7012251679205548 2.947057850454739e-17 -5.351648910607942e-17 2.947057850454739e-17 -5.351648910607942e-17 -0.7129402993929347 0.7012247353747345
12624068000.0 -0.7079759449815972 0.7062365477141982 2.9081903676396885e-17 -5.37151017743882e-17 2.9081903676396885e-17 -5.37151017743882e-17 -0.7079763734392438 0.7062361182010384
12624685333.333334 -0.7029767910077783 0.7112127890471749 2.869189679561858e-17 -5.3910895536194436e-17 2.869189679561858e-17 -5.3910895536194436e-17 -0.7029772224632952 0.7112123625877474
12625302666.666666 -0.6979426607639029 0.7161536443289654 2.8300578278895774e-17 -5.410386150642101e-17 2.8300578278895774e-17 -5.410386150642101e-17 -0.6979430951955308 0.716153220944189
12625920000.0 -0.6928738047206864 0.7210588677297679 2.790796860179768e-17 -5.4293990947673316e-17 2.790796860179768e-17 -5.4293990947673316e-17 -0.6928742421065209 0.7210584474404064
12626537333.333334 -0.6877704750766701 0.7259282151925673 2.751408829773271e-17 -5.448127527061666e-17 2.751408829773271e-17 -5.448127527061666e-17 -0.6877709153946612 0.725927798019228
12627154666.666666 -0.6826329257456337 0.7307614444453209 2.7118957956868442e-17 -5.466570603436171e-17 2.7118957956868442e-17 -5.466570603436171e-17 -0.6826333689735875 0.7307610304084537
12627772000.0 -0.6774614123438156 0.735558315013146 2.67225982250566e-17 -5.484727494683807e-17 2.67225982250566e-17 -5.484727494683807e-17 -0.6774618584593962 0.7355579041330438
12628389333.333334 -0.6722561921774655 0.7403185882300338 2.6325029802771488e-17 -5.5025973865153115e-17 2.6325029802771488e-17 -5.5025973865153115e-17 -0.6722566411581956 0.7403181805268304
12629006666.666666 -0.6670175242298129 0.7450420272509366 2.5926273444014403e-17 -5.520179479595694e-17 2.5926273444014403e-17 -5.520179479595694e-17 -0.6670179760530749 0.7450416227446056
12629624000.0 -0.661745669148266 0.7497283970634757 2.552634995525694e-17 -5.537472989578171e-17 2.552634995525694e-17 -5.537472989578171e-17 -0.6617461237913022 0.7497279957738288
12630241333.333334 -0.6564408892314834 0.7543774644995932 2.512528019434089e-17 -5.554477147139118e-17 2.512528019434089e-17 -5.554477147139118e-17 -0.6564413466713981 0.7543770664462806
12630858666.666666 -0.6511034484163045 0.7589889982471761 2.472308506940917e-17 -5.571191198010787e-17 2.472308506940917e-17 -5.571191198010787e-17 -0.6511039086300667 0.7589886034496862
12631476000.0 -0.6457336122644676 0.7635627688616944 2.431978553780758e-17 -5.587614403014402e-17 2.431978553780758e-17 -5.587614403014402e-17 -0.6457340752289092 0.7635623773393507
12632093333.333334 -0.6403316479496532 0.7680985487773925 2.391540260500856e-17 -5.603746038091488e-17 2.391540260500856e-17 -5.603746038091488e-17 -0.6403321136414717 0.7680981605493536
12632710666.666666 -0.6348978242440421 0.772596112318744 2.3509957323518344e-17 -5.61958539433499e-17 2.3509957323518344e-17 -5.61958539433499e-17 -0.6348982926398014 0.7725957274040028
12633328000.0 -0.629432411504918 0.7770552357116949 2.3103470791775734e-17 -5.635131778019863e-17 2.3103470791775734e-17 -5.635131778019863e-17 -0.629432882581051 0.7770548541290787
12633945333.333334 -0.6239356816612868 0.7814756970947476 2.269596415307164e-17 -5.650384510632003e-17 2.269596415307164e-17 -5.650384510632003e-17 -0.6239361553940931 0.7814753188629138
12634562666.666666 -0.6184079082002942 0.7858572765300273 2.2287458594452005e-17 -5.665342928896929e-17 2.2287458594452005e-17 -5.665342928896929e-17 -0.6184083845659462 0.7858569016674675
12635180000.0 -0.6128493661537163 0.7901997560141633 2.1877975345612774e-17 -5.680006384807974e-17 2.1877975345612774e-17 -5.680006384807974e-17 -0.6128498451282562 0.790199384539198
12635797333.333334 -0.6072603320841145 0.7945029194892529 2.1467535677805733e-17 -5.69437424565313e-17 2.1467535677805733e-17 -5.69437424565313e-17 -0.6072608136434573 0.7945025514200327
12636414666.666666 -0.6016410840712549 0.7987665528534733 2.1056160902743006e-17 -5.708445894041182e-17 2.1056160902743006e-17 -5.708445894041182e-17 -0.6016415681911891 0.7987661882079773
12637032000.0 -0.5959919016980937 0.8029904439718728 2.0643872371483327e-17 -5.722220727927564e-17 2.0643872371483327e-17 -5.722220727927564e-17 -0.5959923883542834 0.8029900827679085
12637649333.333334 -0.5903130660370469 0.8071743826867879 2.0230691473341406e-17 -5.7356981606386e-17 2.0230691473341406e-17 -5.7356981606386e-17 -0.5903135552050317 0.8071740249419892
12638266666.666666 -0.5846048596358463 0.8113181608284182 1.9816639634771242e-17 -5.748877620895809e-17 1.9816639634771242e-17 -5.748877620895809e-17 -0.5846053512910442 0.8113178065602464
12638884000.0 -0.5788675665035519 0.8154215722251354 1.9401738318264272e-17 -5.761758552838834e-17 1.9401738318264272e-17 -5.761758552838834e-17 -0.5788680606212584 0.8154212214508756
12639501333.333334 -0.573101472096463 0.8194844127137035 1.8986009021244487e-17 -5.774340416047625e-17 1.8986009021244487e-17 -5.774340416047625e-17 -0.5731019686518541 0.8194840654504663
12640118666.666666 -0.5673068633039205 0.8235064801494418 1.856947327495904e-17 -5.786622685563989e-17 1.856947327495904e-17 -5.786622685563989e-17 -0.5673073622720538 0.8235061364141615
12640736000.0 -0.5614840284337509 0.827487574416476 1.8152152643347626e-17 -5.798604851912898e-17 1.8152152643347626e-17 -5.798604851912898e-17 -0.5614845297895661 0.8274872342259095
12641353333.333334 -0.5556332571984348 0.8314274974373373 1.7734068721968467e-17 -5.810286421121242e-17 1.7734068721968467e-17 -5.810286421121242e-17 -0.5556337609167551 0.8314271608080637
12641970666.666666 -0.5497548407002972 0.835326053183095 1.731524313684876e-17 -5.821666914738074e-17 1.731524313684876e-17 -5.821666914738074e-17 -0.5497553467558303 0.8353257201315137
12642588000.0 -0.5438490714171142 0.8391830476830417 1.689569754339357e-17 -5.832745869852217e-17 1.689569754339357e-17 -5.832745869852217e-17 -0.5438495797844547 0.8391827182253735
12643205333.333334 -0.5379162431876108 0.8429982890343148 1.6475453625258877e-17 -5.843522839110156e-17 1.6475453625258877e-17 -5.843522839110156e-17 -0.537916753841241 0.8429979631866006
12643822666.666666 -0.531956651196816 0.8467715874114602 1.6054533093233475e-17 -5.853997390732767e-17 1.6054533093233475e-17 -5.853997390732767e-17 -0.531957164111106 0.8467712651895583
12644440000.0 -0.5259705919613522 0.850502755075891 1.563295768413504e-17 -5.864169108530906e-17 1.563295768413504e-17 -5.864169108530906e-17 -0.5259711071105624 0.8505024364954781
12645057333.333334 -0.5199583633147538 0.8541916063851825 1.5210749159680273e-17 -5.874037591920852e-17 1.5210749159680273e-17 -5.874037591920852e-17 -0.5199588806730364 0.8541912914617534
12645674666.666666 -0.5139202643926025 0.8578379578023427 1.4787929305372544e-17 -5.88360245593845e-17 1.4787929305372544e-17 -5.88360245593845e-17 -0.5139207839340023 0.8578376465512084
12646292000.0 -0.5078565956175688 0.8614416279049837 1.4364519929368658e-17 -5.89286333125295e-17 1.4364519929368658e-17 -5.89286333125295e-17 -0.5078571173160245 0.8614413203412712
12646909333.333334 -0.5017676586846378 0.86500243739425 1.3940542861378474e-17 -5.901819864179258e-17 1.3940542861378474e-17 -5.901819864179258e-17 -0.5017681825139826 0.8650021335329006
12647526666.666666 -0.49565375654592303 0.8685202091038362 1.3516019951533635e-17 -5.910471716690076e-17 1.3516019951533635e-17 -5.910471716690076e-17 -0.4956542824798875 0.8685199089596062
12648144000.0 -0.48951519339569577 0.8719947680087484 1.3090973069257415e-17 -5.918818566427238e-17 1.3090973069257415e-17 -5.918818566427238e-17 -0.4895157214079084 0.8719944715962084
12648761333.333334 -0.48335227465519826 0.8754259412340387 1.2665424102155798e-17 -5.92686010671168e-17 1.2665424102155798e-17 -5.92686010671168e-17 -0.48335280471918607 0.8754256485675705
12649378666.666666 -0.4771653069575467 0.8788135580633503 1.2239394954891343e-17 -5.934596046553064e-17 1.2239394954891343e-17 -5.934596046553064e-17 -0.47716583904673804 0.8788132691571502
12649996000.0 -0.47095459813230295 0.8821574499475114 1.1812907548058195e-17 -5.942026110658492e-17 1.1812907548058195e-17 -5.942026110658492e-17 -0.4709551322200273 0.8821571648155853
12650613333.333334 -0.46472045719033017 0.8854574505128209 1.138598381705342e-17 -5.949150039440512e-17 1.138598381705342e-17 -5.949150039440512e-17 -0.46472099324982064 0.8854571691689865
12651230666.666666 -0.4584631943083716 0.888713395569359 1.0958645710966635e-17 -5.955967589023993e-17 1.0958645710966635e-17 -5.955967589023993e-17 -0.45846373231276505 0.8887131180272431
12651848000.0 -0.4521831208134379 0.8919251231192419 1.0530915191435409e-17 -5.962478531252742e-17 1.0530915191435409e-17 -5.962478531252742e-17 -0.4521836607357782 0.8919248493922827
12652465333.333334 -0.44588054916762343 0.8950924733645317 1.0102814231542927e-17 -5.968682653694624e-17 1.0102814231542927e-17 -5.968682653694624e-17 -0.44588109098086043 0.895092203465974
12653082666.666666 -0.43955579295240527 0.8982152887152597 9.67436481468334e-18 -5.974579759646463e-17 9.67436481468334e-18 -5.974579759646463e-17 -0.4395563366293989 0.8982150226581594
12653700000.0 -0.43320916685289196 0.9012934137973488 9.245588933426845e-18 -5.980169668138037e-17 9.245588933426845e-18 -5.980169668138037e-17 -0.43320971236641065 0.9012931515945668
12654317333.333334 -0.42684098664249354 0.9043266954601737 8.816508588415494e-18 -5.98545221393489e-17 8.816508588415494e-18 -5.98545221393489e-17 -0.4268415339652181 0.9043264371243799
12654934666.666666 -0.42045156916693344 0.9073149827843245 8.387145787228315e-18 -5.990427247540733e-17 8.387145787228315e-18 -5.990427247540733e-17 -0.4204521182714565 0.9073147283279934
12655552000.0 -0.41404123232858264 0.91025812708906 7.957522543246566e-18 -5.995094635199063e-17 7.957522543246566e-18 -5.995094635199063e-17 -0.41404178318741164 0.9102578765244734
12656169333.333334 -0.40761029507072344 0.9131559819396751 7.527660874551502e-18 -5.999454258893577e-17 7.527660874551502e-18 -5.999454258893577e-17 -0.40761084765628053 0.9131557352789194
12656786666.666666 -0.4011590773614972 0.9160084031548659 7.097582802779691e-18 -6.003506016348263e-17 7.097582802779691e-18 -6.003506016348263e-17 -0.4011596316461215 0.9160081604098315
12657404000.0 -0.3946879001781931 0.918815248813811 6.667310352014426e-18 -6.007249821026306e-17 6.667310352014426e-18 -6.007249821026306e-17 -0.39468845613414183 0.9188150099961924
12658021333.333334 -0.38819708549106896 0.9215763792633235 6.236865547648452e-18 -6.010685602128509e-17 6.236865547648452e-18 -6.010685602128509e-17 -0.38819764309051913 0.9215761443846194
12658638666.666666 -0.38168695624754156 0.9242916571247107 5.806270415276069e-18 -6.0138133045906e-17 5.806270415276069e-18 -6.0138133045906e-17 -0.38168751546259155 0.9242914261962237
12659256000.0 -0.3751578363559353 0.926960947300688 5.375546979549796e-18 -6.016632889080088e-17 5.375546979549796e-18 -6.016632889080088e-17 -0.3751583971586055 0.9269607203335218
12659873333.333334 -0.36861005066944463 0.9295841169820643 4.944717263080242e-18 -6.019144331991924e-17 4.944717263080242e-18 -6.019144331991924e-17 -0.36861061303167875 0.9295838939871244
12660490666.666666 -0.3620439249700497 0.9321610356543208 4.513803285304076e-18 -6.021347625443691e-17 4.513803285304076e-18 -6.021347625443691e-17 -0.3620444888637169 0.9321608166423136
12661108000.0 -0.3554597859521232 0.9346915751041759 4.082827061352513e-18 -6.023242777269899e-17 4.082827061352513e-18 -6.023242777269899e-17 -0.3554603513490192 0.9346913600856096
12661725333.333334 -0.3488579612063871 0.9371756094258843 3.6518106009513455e-18 -6.024829811015347e-17 3.6518106009513455e-18 -6.024829811015347e-17 -0.3488585280782358 0.9371753984110672
12662342666.666666 -0.34223877920342854 0.9396130150275707 3.220775907289091e-18 -6.026108765927842e-17 3.220775907289091e-18 -6.026108765927842e-17 -0.3422393475218828 0.9396128080266103
12662960000.0 -0.3356025692774623 0.94200367063734 2.789744975896244e-18 -6.027079696950106e-17 2.789744975896244e-18 -6.027079696950106e-17 -0.3356031390141059 0.9420034676601432
12663577333.333334 -0.32894966160989164 0.9443474573093281 2.3587397935321623e-18 -6.027742674710809e-17 2.3587397935321623e-18 -6.027742674710809e-17 -0.3289502327362408 0.9443472583656014
12664194666.666666 -0.32228038721298846 0.9466442584295862 1.9277823370642936e-18 -6.028097785514875e-17 1.9277823370642936e-18 -6.028097785514875e-17 -0.32228095970049303 0.9466440635288347
12664812000.0 -0.31559507791326225 0.9488939597219374 1.4968945723586096e-18 -6.028145131332937e-17 1.4968945723586096e-18 -6.028145131332937e-17 -0.31559565173330717 0.9488937688734633
12665429333.333334 -0.30889406633503036 0.9510964492536313 1.0660984531521957e-18 -6.027884829790057e-17 1.0660984531521957e-18 -6.027884829790057e-17 -0.30889464145893675 0.9510962624665343
12666046666.666666 -0.30217768588395044 0.9532516174408923 6.354159199543125e-19 -6.027317014153629e-17 6.354159199543125e-19 -6.027317014153629e-17 -0.3021782622829774 0.9532514347240694
12666664000.0 -0.2954462707302415 0.9553593570544275 2.04868898910855e-19 -6.026441833320438e-17 2.04868898910855e-19 -6.026441833320438e-17 -0.2954468483755878 0.9553591784165726
12667281333.333334 -0.28870015579227565 0.9574195632246982 -2.2552069927688865e-19 -6.025259451803042e-17 -2.2552069927688865e-19 -6.025259451803042e-17 -0.2887007346550808 0.9574193886743011
12667898666.666666 -0.2819396767197235 0.9594321334471942 -6.557309804905254e-19 -6.02377004971525e-17 -6.557309804905254e-19 -6.02377004971525e-17 -0.2819402567710691 0.9594319629925409
12668516000.0 -0.27516516987693523 0.9613969675875066 -1.0857400682972867e-18 -6.021973822756842e-17 -1.0857400682972867e-18 -6.021973822756842e-17 -0.27516575108784685 0.9613968012366785
12669133333.333334 -0.26837697232628793 0.9633139678862916 -1.5155261050463078e-18 -6.019870982197583e-17 -1.5155261050463078e-18 -6.019870982197583e-17 -0.2683775546677358 0.9633138056471644
12669750666.666666 -0.2615754218112229 0.9651830389641836 -1.9450672529857645e-18 -6.017461754860316e-17 -1.9450672529857645e-18 -6.017461754860316e-17 -0.26157600525412433 0.9651828808444288
12670368000.0 -0.25476085673963356 0.9670040878264908 -2.3743416953717222e-18 -6.014746383103359e-17 -2.3743416953717222e-18 -6.014746383103359e-17 -0.2547614412548535 0.9670039338335732
