! Parameters = {f0=12700.012000; bw=77.238000; Q=6100.000000; N=10; m_0_1=1.345641; m_1_1=1.419864; m_1_2=1.180453; m_2_2=1.419215; m_2_3=0.817416; m_2_8=0.004346; m_2_9=0.041050; m_3_3=1.417278; m_3_4=0.705945; m_3_7=0.004946; m_3_8=-0.092142; m_3_9=0.004346; m_4_4=1.414353; m_4_5=0.542280; m_4_6=0.008463; m_4_7=-0.112691; m_4_8=0.004946; m_5_5=1.414735; m_5_6=0.949635; m_5_7=0.008463; m_6_6=1.414734; m_6_7=0.542622; m_7_7=1.414367; m_7_8=0.706063; m_8_8=1.417276; m_8_9=0.817729; m_9_9=1.419210; m_9_10=1.181531; m_10_10=1.419854; m_10_11=1.346436}
!
! Created with skrf (http://scikit-rf.org).
# Hz S RI R 50.0 
!freq ReS11 ImS11 ReS21 ImS21 ReS12 ImS12 ReS22 ImS22
12607400000.0 0.5825192517926453 -0.8128169051457648 -5.111462456216729e-17 1.4739199803115306e-16 -5.111462456216729e-17 1.4739199803115306e-16 0.5825198279316616 -0.8128164922454942
12608017333.333334 0.5721013196475083 -0.8201829552346119 -4.920716313217995e-17 1.4800754006686943e-16 -4.920716313217995e-17 1.4800754006686943e-16 0.5721019009792564 -0.820182549738607
12608634666.666666 0.5615902539843333 -0.8274154860948725 -4.7292326439762624e-17 1.4859841106069382e-16 -4.7292326439762624e-17 1.4859841106069382e-16 0.5615908404136735 -0.8274150880684168
12609252000.0 0.5509877659206723 -0.8345133203284113 -4.537043339774333e-17 1.491645231549676e-16 -4.537043339774333e-17 1.491645231549676e-16 0.5509883573516438 -0.8345129298355654
12609869333.333334 0.5402955814568159 -0.8414753024646908 -4.344180395852849e-17 1.497057926121713e-16 -4.344180395852849e-17 1.497057926121713e-16 0.5402961777926542 -0.841474919568284
12610486666.666666 0.5295154411951032 -0.8483002991486902 -4.150675906092916e-17 1.5022213982712216e-16 -4.150675906092916e-17 1.5022213982712216e-16 0.529516042338254 -0.8482999239103081
12611104000.0 0.5186491000560832 -0.8549871993257078 -3.956562057675933e-17 1.507134893385071e-16 -3.956562057675933e-17 1.507134893385071e-16 0.5186497059082192 -0.8549868318056831
12611721333.333334 0.5076983269933079 -0.8615349144219275 -3.761871125742991e-17 1.5117976983969453e-16 -3.761871125742991e-17 1.5117976983969453e-16 0.5076989374553454 -0.8615345546793322
12612338666.666666 0.49666490470517166 -0.8679423785217575 -3.566635468028961e-17 1.5162091418888828e-16 -3.566635468028961e-17 1.5162091418888828e-16 0.49666551967728584 -0.8679420266143897
12612956000.0 0.48555062934450116 -0.874208548541457 -3.3708875194936345e-17 1.5203685941856879e-16 -3.3708875194936345e-17 1.5203685941856879e-16 0.4855512487261433 -0.8742082045258356
12613573333.333334 0.47435731022670224 -0.8803324043986398 -3.174659786942287e-17 1.5242754674424445e-16 -3.174659786942287e-17 1.5242754674424445e-16 0.47435793391661507 -0.8803320683299923
12614190666.666666 0.46308676953452244 -0.8863129491787217 -2.977984843628669e-17 1.5279292157252446e-16 -2.977984843628669e-17 1.5279292157252446e-16 0.4630873974307574 -0.8863126211109765
12614808000.0 0.45174084202196013 -0.892149209296905 -2.780895323856938e-17 1.5313293350848072e-16 -2.780895323856938e-17 1.5313293350848072e-16 0.4517414740218947 -0.8921488892826847
12615425333.333334 0.44032137471533506 -0.8978402346568131 -2.5834239175756624e-17 1.5344753636231566e-16 -2.5834239175756624e-17 1.5344753636231566e-16 0.4403220107156877 -0.8978399227474216
12616042666.666666 0.42883022661265335 -0.9033850988051241 -2.3856033649569157e-17 1.5373668815534707e-16 -2.3856033649569157e-17 1.5373668815534707e-16 0.42883086650950214 -0.9033847950505428
12616660000.0 0.41726926838098116 -0.9087828990823964 -2.187466450977034e-17 1.5400035112528193e-16 -2.187466450977034e-17 1.5400035112528193e-16 0.41726991206977987 -0.9087826035312739
12617277333.333334 0.40564038205191183 -0.9140327567700091 -1.9890459999912567e-17 1.5423849173079484e-16 -1.9890459999912567e-17 1.5423849173079484e-16 0.40564102942750735 -0.9140324694696541
12617894666.666666 0.39394546071524056 -0.9191338172331923 -1.79037487030137e-17 1.5445108065541303e-16 -1.79037487030137e-17 1.5445108065541303e-16 0.3939461116718899 -0.9191335382295658
12618512000.0 0.38218640821052297 -0.9240852500602643 -1.591485948714583e-17 1.5463809281070707e-16 -1.591485948714583e-17 1.5463809281070707e-16 0.3821870626419105 -0.9240849793979721
12619129333.333334 0.3703651388176668 -0.9288862491975928 -1.3924121451174085e-17 1.547995073387631e-16 -1.3924121451174085e-17 1.547995073387631e-16 0.3703657966169214 -0.9288859869198779
12619746666.666666 0.3584835769448333 -0.933536033081016 -1.193186387026771e-17 1.549353076139803e-16 -1.193186387026771e-17 1.549353076139803e-16 0.3584842380045464 -0.933535779229753
12620364000.0 0.34654365681520877 -0.9380338447630472 -9.938416141535172e-18 1.5504548124415373e-16 -9.938416141535172e-18 1.5504548124415373e-16 0.3465443210274514 -0.9380335993787348
12620981333.333334 0.3345473221523934 -0.9423789520359973 -7.944107729651796e-18 1.5513002007086226e-16 -7.944107729651796e-18 1.5513002007086226e-16 0.33454798940873415 -0.9423787151577518
12621598666.666666 0.3224965258637674 -0.946570647551255 -5.949268112409261e-18 1.5518892016916199e-16 -5.949268112409261e-18 1.5518892016916199e-16 0.32249719605528987 -0.9465704192168051
12622216000.0 0.31039322972262556 -0.9506082489344178 -3.954226726416529e-18 1.552221818465742e-16 -3.954226726416529e-18 1.552221818465742e-16 0.31039390273994616 -0.9506080291800965
12622833333.333334 0.29823940404881666 -0.9544910988963746 -1.9593129126877024e-18 1.5522980964138173e-16 -1.9593129126877024e-18 1.5522980964138173e-16 0.2982400797821027 -0.954490887757116
12623450666.666666 0.28603702738799147 -0.9582185653403111 3.5144137591932e-20 1.5521181232022423e-16 3.5144137591932e-20 1.5521181232022423e-16 0.28603770572697856 -0.9582183628496423
12624068000.0 0.27378808618956474 -0.9617900414645896 2.0288154373862735e-18 1.5516820287499782e-16 2.0288154373862735e-18 1.5516820287499782e-16 0.27378876702357563 -0.9617898476546278
12624685333.333334 0.26149457448306584 -0.965204945861615 4.0213722579856005e-18 1.5509899851905927e-16 4.0213722579856005e-18 1.5509899851905927e-16 0.2614952577010274 -0.9652047607630599
12625302666.666666 0.24915849355412603 -0.9684627226123068 6.012486183111207e-18 1.5500422068273595e-16 6.012486183111207e-18 1.5500422068273595e-16 0.24915917904458815 -0.9684625462544375
12625920000.0 0.2367818516179201 -0.9715628413768159 8.001829163079486e-18 1.5488389500813725e-16 8.001829163079486e-18 1.5488389500813725e-16 0.23678253926907392 -0.9715626737874872
12626537333.333334 0.22436666349279236 -0.9745047974807077 9.989073568672926e-18 1.5473805134328126e-16 9.989073568672926e-18 1.5473805134328126e-16 0.22436735319248788 -0.9745046386863427
12627154666.666666 0.21191495027226254 -0.9772881119971261 1.1973892245096865e-17 1.5456672373552304e-16 1.1973892245096865e-17 1.5456672373552304e-16 0.21191564190802759 -0.9772879620227147
12627772000.0 0.19942873899550934 -0.9799123318248747 1.3955958565792708e-17 1.543699504242926e-16 1.3955958565792708e-17 1.543699504242926e-16 0.19942943245456735 -0.9799121906939683
12628389333.333334 0.18691006231799417 -0.982377029762039 1.5934946486064e-17 1.5414777383315174e-16 1.5934946486064e-17 1.5414777383315174e-16 0.18691075748728278 -0.9823768974967466
12629006666.666666 0.17436095818006095 -0.9846818045756375 1.7910530596708392e-17 1.5390024056115256e-16 1.7910530596708392e-17 1.5390024056115256e-16 0.17436165494625047 -0.984681681196623
12629624000.0 0.16178346947556557 -0.986826281066861 1.988238617742733e-17 1.5362740137351978e-16 1.988238617742733e-17 1.5362740137351978e-16 0.16178416772507756 -0.9868261665933403
12630241333.333334 0.14917964371903045 -0.9888101101322062 2.185018925015368e-17 1.5332931119164295e-16 2.185018925015368e-17 1.5332931119164295e-16 0.14918034333805602 -0.9888100045819432
12630858666.666666 0.13655153271266163 -0.9906329688202514 2.3813616632183887e-17 1.5300602908239586e-16 2.3813616632183887e-17 1.5300602908239586e-16 0.1365522335871802 -0.9906328722095565
12631476000.0 0.12390119221177037 -0.9922945603843175 2.5772345989253695e-17 1.5265761824675958e-16 2.5772345989253695e-17 1.5265761824675958e-16 0.12390189422756785 -0.9922944727280423
12632093333.333334 0.11123068159061741 -0.9937946143306929 2.772605588833161e-17 1.5228414600778896e-16 2.772605588833161e-17 1.5228414600778896e-16 0.11123138463330548 -0.9937945356422324
12632710666.666666 0.09854206350716554 -0.9951328864626843 2.967442585032124e-17 1.5188568379789044e-16 2.967442585032124e-17 1.5188568379789044e-16 0.09854276746219977 -0.9951328167539718
12633328000.0 0.08583740356678621 -0.9963091589204207 3.1617136402628463e-17 1.5146230714541745e-16 3.1617136402628463e-17 1.5146230714541745e-16 0.08583810831948477 -0.9963090982019261
12633945333.333334 0.07311876998661723 -0.9973232402162535 3.355386913136963e-17 1.5101409566062934e-16 3.355386913136963e-17 1.5101409566062934e-16 0.07311947542217968 -0.997323188496983
12634562666.666666 0.060388233258364336 -0.9981749652659777 3.548430673359162e-17 1.5054113302094165e-16 3.548430673359162e-17 1.5054113302094165e-16 0.060388939261890276 -0.9981749225534703
12635180000.0 0.04764786581163822 -0.998864195415673 3.740813306915888e-17 1.5004350695553674e-16 3.740813306915888e-17 1.5004350695553674e-16 0.047648572268146026 -0.9988641617160013
12635797333.333334 0.03489974167629606 -0.9993908184642941 3.9325033212445666e-17 1.4952130922930856e-16 3.9325033212445666e-17 1.4952130922930856e-16 0.03490044847074168 -0.9993907937820643
12636414666.666666 0.022145936145146847 -0.9997547486819243 4.12346935038423e-17 1.4897463562614206e-16 4.12346935038423e-17 1.4897463562614206e-16 0.022146643162442407 -0.9997547330202734
12637032000.0 0.00938852543554228 -0.999955926823752 4.313680160103177e-17 1.484035859315326e-16 4.313680160103177e-17 1.484035859315326e-16 0.009389232560574855 -0.9999559201843482
12637649333.333334 -0.0033704136480469295 -0.9999943201396917 4.503104652998673e-17 1.4780826391456457e-16 4.503104652998673e-17 1.4780826391456457e-16 -0.0033697065303965384 -0.9999943225227342
12638266666.666666 -0.016128804052402104 -0.9998699223797276 4.6917118735763256e-17 1.4718877730922847e-16 4.6917118735763256e-17 1.4718877730922847e-16 -0.016128097057240644 -0.9998699337839473
12638884000.0 -0.02888456881362746 -0.999582753794929 4.879471013299011e-17 1.4654523779510584e-16 4.879471013299011e-17 1.4654523779510584e-16 -0.028883862056030517 -0.9995827742175887
12639501333.333334 -0.04163563139526328 -0.999132861134154 5.0663514156188106e-17 1.4587776097738264e-16 5.0663514156188106e-17 1.4587776097738264e-16 -0.0416349249902565 -0.999132890571048
12640118666.666666 -0.054379916026272575 -0.9985203176364403 5.2523225809685397e-17 1.4518646636626517e-16 5.2523225809685397e-17 1.4518646636626517e-16 -0.054379210088813024 -0.9985203560818974
12640736000.0 -0.06711534803924393 -0.9977452230190705 5.4373541717436676e-17 1.4447147735569729e-16 5.4373541717436676e-17 1.4447147735569729e-16 -0.06711464268420125 -0.9977452704659514
12641353333.333334 -0.07983985420756297 -0.9968077034613638 5.621416017230002e-17 1.4373292120153792e-16 5.621416017230002e-17 1.4373292120153792e-16 -0.07983914954970091 -0.9968077599010668
12641970666.666666 -0.09255136308342828 -0.9957079115841162 5.80447811853075e-17 1.429709289990034e-16 5.80447811853075e-17 1.429709289990034e-16 -0.09255065923738584 -0.995707977006576
12642588000.0 -0.1052478053350091 -0.9944460264247464 5.986510653442658e-17 1.4218563565956066e-16 5.986510653442658e-17 1.4218563565956066e-16 -0.10524710241528182 -0.9944461008184353
12643205333.333334 -0.11792711408297635 -0.9930222534081818 6.167483981305395e-17 1.4137717988718807e-16 6.167483981305395e-17 1.4137717988718807e-16 -0.11792641220389805 -0.9930223367601148
12643822666.666666 -0.1305872252374269 -0.9914368243133762 6.34736864782947e-17 1.4054570415397298e-16 6.34736864782947e-17 1.4054570415397298e-16 -0.13058652451315061 -0.9914369166091096
12644440000.0 -0.1432260778335611 -0.9896899972356076 6.526135389876217e-17 1.396913546751632e-16 6.526135389876217e-17 1.396913546751632e-16 -0.14322537837804095 -0.9896900984592449
12645057333.333334 -0.1558416143671927 -0.9877820565444739 6.7037551402133e-17 1.3881428138357372e-16 6.7037551402133e-17 1.3881428138357372e-16 -0.15584091629416486 -0.9877821666786648
12645674666.666666 -0.1684317811299189 -0.9857133128375645 6.880199032235152e-17 1.3791463790339175e-16 6.880199032235152e-17 1.3791463790339175e-16 -0.16843108455288366 -0.9857134318635117
12646292000.0 -0.1809945285435027 -0.9834841028898829 7.055438404650055e-17 1.3699258152337567e-16 7.055438404650055e-17 1.3699258152337567e-16 -0.18099383357570575 -0.9834842307873434
12646909333.333334 -0.19352781149302414 -0.9810947895991108 7.229444806123695e-17 1.3604827316949913e-16 7.229444806123695e-17 1.3604827316949913e-16 -0.193527118247438 -0.9810949263463985
12647526666.666666 -0.20602958966031265 -0.9785457619264445 7.402189999897151e-17 1.3508187737694946e-16 7.402189999897151e-17 1.3508187737694946e-16 -0.2060288982496186 -0.9785459075004356
12648144000.0 -0.2184978278559824 -0.9758374348332925 7.573645968359184e-17 1.340935622615867e-16 7.573645968359184e-17 1.340935622615867e-16 -0.21849713839255197 -0.9758375892094283
12648761333.333334 -0.2309304963507432 -0.972970249213717 7.743784917585174e-17 1.3308349949079802e-16 7.743784917585174e-17 1.3308349949079802e-16 -0.23092980894662 -0.9729704123660083
12649378666.666666 -0.24332557120549284 -0.9699446718227405 7.91257928183285e-17 1.3205186425380304e-16 7.91257928183285e-17 1.3205186425380304e-16 -0.24332488597237437 -0.9699448437237727
12649996000.0 -0.2556810346012973 -0.9667611952002486 8.08000172800694e-17 1.3099883523134285e-16 8.08000172800694e-17 1.3099883523134285e-16 -0.25568035165051683 -0.9667613758211855
12650613333.333334 -0.2679948751675977 -0.9634203375908705 8.246025160073057e-17 1.2992459456486396e-16 8.246025160073057e-17 1.2992459456486396e-16 -0.2679941946101058 -0.9634205269014582
12651230666.666666 -0.28026508830964664 -0.9599226428596159 8.410622723437736e-17 1.2882932782510783e-16 8.410622723437736e-17 1.2882932782510783e-16 -0.2802644102559938 -0.95992284082819
12651848000.0 -0.29248967653505803 -0.9562686804032748 8.573767809290285e-17 1.2771322398011748e-16 8.573767809290285e-17 1.2771322398011748e-16 -0.29248900109537634 -0.9562688869967648
12652465333.333334 -0.30466664977871005 -0.9524590450578022 8.73543405888864e-17 1.2657647536278953e-16 8.73543405888864e-17 1.2657647536278953e-16 -0.3046659770626953 -0.9524592602417367
12653082666.666666 -0.3167940257266587 -0.9484943570015061 8.89559536781549e-17 1.2541927763779833e-16 8.89559536781549e-17 1.2541927763779833e-16 -0.3167933558435528 -0.9484945807400185
12653700000.0 -0.3288698301393307 -0.9443752616539319 9.054225890190526e-17 1.2424182976797914e-16 9.054225890190526e-17 1.2424182976797914e-16 -0.32886916319790305 -0.9443754939097654
12654317333.333334 -0.3408920971723705 -0.9401024295709625 9.211300042825657e-17 1.2304433398027284e-16 9.211300042825657e-17 1.2304433398027284e-16 -0.3408914332809023 -0.9401026703054807
12654934666.666666 -0.3528588696968842 -0.9356765563355967 9.366792509348124e-17 1.21826995731055e-16 9.366792509348124e-17 1.21826995731055e-16 -0.35285820896314835 -0.9356768055087835
12655552000.0 -0.36476819961825346 -0.9310983624446241 9.520678244277791e-17 1.205900236709427e-16 9.520678244277791e-17 1.205900236709427e-16 -0.36476754214949936 -0.931098620015096
12656169333.333334 -0.37661814819268774 -0.9263685931915625 9.672932477045005e-17 1.193336296091897e-16 9.672932477045005e-17 1.193336296091897e-16 -0.3766174940956219 -0.926368859116571
12656786666.666666 -0.38840678634357667 -0.9214880185450383 9.823530715978829e-17 1.180580284774408e-16 9.823530715978829e-17 1.180580284774408e-16 -0.3884061357243469 -0.9214882927804802
12657404000.0 -0.40013219497494645 -0.9164574330236702 9.972448752233296e-17 1.1676343829309903e-16 9.972448752233296e-17 1.1676343829309903e-16 -0.40013154793912437 -0.9164577155240953
12658021333.333334 -0.41179246528419167 -0.9112776555666071 1.0119662663677013e-16 1.154500801221043e-16 1.0119662663677013e-16 1.154500801221043e-16 -0.41179182193675473 -0.9112779462852219
12658638666.666666 -0.42338569907249796 -0.9059495294003393 1.0265148818723185e-16 1.141181780413128e-16 1.0265148818723185e-16 1.141181780413128e-16 -0.42338505951781313 -0.9059498282890183
12659256000.0 -0.4349100090543219 -0.9004739219012245 1.0408883880120175e-16 1.1276795910030966e-16 1.0408883880120175e-16 1.1276795910030966e-16 -0.434909373396129 -0.9004742289105169
12659873333.333334 -0.44636351916436495 -0.8948517244543961 1.0550844808685443e-16 1.1139965328280293e-16 1.0550844808685443e-16 1.1139965328280293e-16 -0.44636288750575903 -0.8948520395335338
12660490666.666666 -0.4577443648626767 -0.8890838523088074 1.069100886698831e-16 1.1001349346755582e-16 1.069100886698831e-16 1.1001349346755582e-16 -0.45774373730609125 -0.8890841754057128
12661108000.0 -0.4690506934388995 -0.8831712444278804 1.0829353622990897e-16 1.0860971538876544e-16 1.0829353622990897e-16 1.0860971538876544e-16 -0.46905007008609134 -0.883171575489178
12661725333.333334 -0.4802806643130665 -0.8771148633370678 1.0965856953622309e-16 1.0718855759613225e-16 1.0965856953622309e-16 1.0718855759613225e-16 -0.4802800452650974 -0.877115202308089
12662342666.666666 -0.49143244933598645 -0.870915694966761 1.1100497048312833e-16 1.0575026141435781e-16 1.1100497048312833e-16 1.0575026141435781e-16 -0.49143183469320795 -0.8709160417915559
12662960000.0 -0.5025042330863009 -0.8645747484920849 1.123325241247152e-16 1.0429507090223767e-16 1.123325241247152e-16 1.0429507090223767e-16 -0.5025036229483377 -0.8645751031134302
12663577333.333334 -0.5134942131662704 -0.8580930561684765 1.1364101870908356e-16 1.0282323281133709e-16 1.1364101870908356e-16 1.0282323281133709e-16 -0.513493607632004 -0.8580934185278857
12664194666.666666 -0.5244006004951398 -0.8514716731636697 1.1493024571201975e-16 1.0133499654424609e-16 1.1493024571201975e-16 1.0133499654424609e-16 -0.5243999996626932 -0.8514720432014024
12664812000.0 -0.5352216196003405 -0.8447116773859537 1.1619999987018078e-16 9.983061411235586e-17 1.1619999987018078e-16 9.983061411235586e-17 -0.535221023567061 -0.8447120550410246
12665429333.333334 -0.5459555089067598 -0.8378141693085435 1.1745007921367358e-16 9.831034009327776e-17 1.1745007921367358e-16 9.831034009327776e-17 -0.5459549177692044 -0.8378145545187342
12666046666.666666 -0.556600521022986 -0.8307802717907691 1.1868028509808084e-16 9.677443158785784e-17 1.1868028509808084e-16 9.677443158785784e-17 -0.5565999348769054 -0.8307806644926377
12666664000.0 -0.5671549230264862 -0.8236111298948213 1.1989042223597978e-16 9.522314817672378e-17 1.1989042223597978e-16 9.522314817672378e-17 -0.5671543419668091 -0.8236115300237117
12667281333.333334 -0.5776169967449526 -0.8163079106998448 1.210802987278132e-16 9.365675187654128e-17 1.210802987278132e-16 9.365675187654128e-17 -0.5776164208657707 -0.8163083181898985
12667898666.666666 -0.587985039036713 -0.808871803111469 1.2224972609227083e-16 9.207550709578367e-17 1.2224972609227083e-16 9.207550709578367e-17 -0.5879844684312656 -0.8088722178956365
12668516000.0 -0.598257362067475 -0.8013040176686191 1.2339851929604004e-16 9.047968059019158e-17 1.2339851929604004e-16 9.047968059019158e-17 -0.5982567968281334 -0.8013044396786687
12669133333.333334 -0.6084322935853229 -0.7936057863462866 1.245264967829784e-16 8.886954141786452e-17 1.245264967829784e-16 8.886954141786452e-17 -0.6084317338035767 -0.7936062155128182
12669750666.666666 -0.618508177192903 -0.785778362355007 1.2563348050274655e-16 8.724536089392633e-17 1.2563348050274655e-16 8.724536089392633e-17 -0.6185076229593439 -0.785778798607462
12670368000.0 -0.6284833726170697 -0.7778230199368471 1.267192959388047e-16 8.560741254489852e-17 1.267192959388047e-16 8.560741254489852e-17 -0.6284828240213777 -0.7778234632035204
