! Parameters = {f0=12700.012000; bw=77.238000; Q=6100.000000; N=10; m_0_1=1.212908; m_1_1=-0.571127; m_1_2=1.047720; m_2_2=-0.571776; m_2_3=0.684683; m_2_8=-0.002291; m_2_9=0.034413; m_3_3=-0.573713; m_3_4=0.573212; m_3_7=-0.001691; m_3_8=-0.098779; m_3_9=-0.002291; m_4_4=-0.576638; m_4_5=0.409547; m_4_6=0.001826; m_4_7=-0.119328; m_4_8=-0.001691; m_5_5=-0.576256; m_5_6=0.816902; m_5_7=0.001826; m_6_6=-0.576257; m_6_7=0.409889; m_7_7=-0.576624; m_7_8=0.573330; m_8_8=-0.573715; m_8_9=0.684996; m_9_9=-0.571781; m_9_10=1.048798; m_10_10=-0.571137; m_10_11=1.213703}
!
! Created with skrf (http://scikit-rf.org).
# Hz S RI R 50.0 
!freq ReS11 ImS11 ReS21 ImS21 ReS12 ImS12 ReS22 ImS22
12607400000.0 -0.7648767827268769 -0.6441766118427623 7.681899427797063e-17 3.3565008358286737e-17 7.681899427797063e-17 3.3565008358286737e-17 -0.7648763710128078 -0.6441771006998904
12608017333.333334 -0.7705382557359389 -0.6373937530657608 7.710035666459383e-17 3.2871720903815205e-17 7.710035666459383e-17 3.2871720903815205e-17 -0.7705378483769596 -0.6373942455172034
12608634666.666666 -0.7761395809512184 -0.6305611396848897 7.737546799087139e-17 3.2176086835659995e-17 7.737546799087139e-17 3.2176086835659995e-17 -0.7761391779786988 -0.630561635691856
12609252000.0 -0.7816803211363983 -0.6236793050502286 7.764430879863751e-17 3.1478162465238875e-17 7.764430879863751e-17 3.1478162465238875e-17 -0.7816799225813637 -0.6236798045736547
12609869333.333334 -0.787160043784416 -0.6167487863540193 7.790686013654054e-17 3.0778004264239615e-17 7.790686013654054e-17 3.0778004264239615e-17 -0.787159649677543 -0.61674928935457
12610486666.666666 -0.7925783211511318 -0.6097701245888417 7.816310356134833e-17 3.007566886007362e-17 7.816310356134833e-17 3.007566886007362e-17 -0.7925779315227479 -0.6097706310269151
12611104000.0 -0.7979347302889173 -0.6027438645051418 7.841302113922629e-17 2.9371213031283387e-17 7.841302113922629e-17 2.9371213031283387e-17 -0.7979343451689949 -0.6027443743408696
12611721333.333334 -0.8032288530794185 -0.595670554569018 7.865659544695395e-17 2.8664693702995735e-17 7.865659544695395e-17 2.8664693702995735e-17 -0.8032284724975782 -0.595671067762273
12612338666.666666 -0.8084602762663763 -0.5885507469191886 7.889380957311963e-17 2.7956167942311255e-17 7.889380957311963e-17 2.7956167942311255e-17 -0.8084599002518797 -0.5885512634295842
12612956000.0 -0.8136285914878753 -0.5813849973238863 7.912464711926598e-17 2.7245692953706732e-17 7.912464711926598e-17 2.7245692953706732e-17 -0.8136282200696262 -0.5813855171107815
12613573333.333334 -0.8187333953080767 -0.5741738651376859 7.934909220098729e-17 2.6533326074448656e-17 7.934909220098729e-17 2.6533326074448656e-17 -0.8187330285146156 -0.5741743881601872
12614190666.666666 -0.8237742892488698 -0.5669179132576063 7.95671294490001e-17 2.581912476995525e-17 7.95671294490001e-17 2.581912476995525e-17 -0.823773927108375 -0.5669184394745725
12614808000.0 -0.828750879820902 -0.5596177080792929 7.977874401016115e-17 2.510314662918396e-17 7.977874401016115e-17 2.510314662918396e-17 -0.828750522361185 -0.559618237449337
12615425333.333334 -0.8336627785543039 -0.5522738194527759 7.998392154844786e-17 2.438544935999719e-17 7.998392154844786e-17 2.438544935999719e-17 -0.8336624258028081 -0.5522743519342691
12616042666.666666 -0.8385096020290165 -0.5448868206379914 8.018264824589782e-17 2.3666090784520577e-17 8.018264824589782e-17 2.3666090784520577e-17 -0.838509254012816 -0.5448873561890664
12616660000.0 -0.8432909719047218 -0.5374572882600331 8.037491080350299e-17 2.2945128834505286e-17 8.037491080350299e-17 2.2945128834505286e-17 -0.843290628650517 -0.537457826838586
12617277333.333334 -0.8480065149503871 -0.5299858022641155 8.056069644206969e-17 2.2222621546658342e-17 8.056069644206969e-17 2.2222621546658342e-17 -0.8480061764845047 -0.5299863438278107
12617894666.666666 -0.8526558630733418 -0.5224729458704006 8.073999290302637e-17 2.149862705800297e-17 8.073999290302637e-17 2.149862705800297e-17 -0.8526555294217323 -0.522473490376674
12618512000.0 -0.8572386533481148 -0.5149193055283037 8.091278844920296e-17 2.0773203601184662e-17 8.091278844920296e-17 2.0773203601184662e-17 -0.857238324536351 -0.5149198529343662
12619129333.333334 -0.8617545280446454 -0.5073254708709097 8.107907186555235e-17 2.0046409499831177e-17 8.107907186555235e-17 2.0046409499831177e-17 -0.8617542040979194 -0.507326021133749
12619746666.666666 -0.8662031346562966 -0.4996920346687995 8.1238832459845e-17 1.9318303163851987e-17 8.1238832459845e-17 1.9318303163851987e-17 -0.866202815599418 -0.4996925877451851
12620364000.0 -0.8705841259273838 -0.4920195927837548 8.139206006331463e-17 1.8588943084755555e-17 8.139206006331463e-17 1.8588943084755555e-17 -0.8705838117847786 -0.4920201486302407
12620981333.333334 -0.8748971598801534 -0.48430874412246555 8.153874503125816e-17 1.7858387830982903e-17 8.153874503125816e-17 1.7858387830982903e-17 -0.8748968506758616 -0.48430930269539396
12621598666.666666 -0.8791418998416201 -0.4765600905895346 8.167887824360373e-17 1.712669604319294e-17 8.167887824360373e-17 1.712669604319294e-17 -0.8791415955992933 -0.47656065184503865
12622216000.0 -0.8833180144697759 -0.4687742370406157 8.181245110542818e-17 1.6393926429578464e-17 8.181245110542818e-17 1.6393926429578464e-17 -0.8833177152126762 -0.46877480093462387
12622833333.333334 -0.8874251777794826 -0.46095179123514995 8.193945554743695e-17 1.5660137761162557e-17 8.193945554743695e-17 1.5660137761162557e-17 -0.8874248835304812 -0.46095235772338894
12623450666.666666 -0.8914630691678631 -0.45309336378902343 8.205988402639897e-17 1.4925388867105777e-17 8.205988402639897e-17 1.4925388867105777e-17 -0.8914627799494386 -0.4530939328270223
12624068000.0 -0.8954313734393984 -0.44519956812677974 8.217372952554303e-17 1.4189738629989416e-17 8.217372952554303e-17 1.4189738629989416e-17 -0.8954310892736334 -0.4452001396698722
12624685333.333334 -0.8993297808305375 -0.4372710204337078 8.228098555491085e-17 1.3453245981105861e-17 8.228098555491085e-17 1.3453245981105861e-17 -0.8993295017391184 -0.4372715944370367
12625302666.666666 -0.9031579870337542 -0.4293083396079988 8.238164615166361e-17 1.2715969895772556e-17 8.238164615166361e-17 1.2715969895772556e-17 -0.903157713037969 -0.429308916026519
12625920000.0 -0.9069156932214871 -0.42131214721205124 8.24757058803557e-17 1.1977969388585785e-17 8.24757058803557e-17 1.1977969388585785e-17 -0.906915424342225 -0.42131272600053427
12626537333.333334 -0.9106026060692948 -0.41328306742431214 8.256315983315639e-17 1.1239303508741166e-17 8.256315983315639e-17 1.1239303508741166e-17 -0.9106023423270425 -0.4132836485373483
12627154666.666666 -0.9142184377788265 -0.40522172699039966 8.264400363003608e-17 1.0500031335306321e-17 8.264400363003608e-17 1.0500031335306321e-17 -0.9142181791936687 -0.4052223103824026
12627772000.0 -0.9177629061003558 -0.3971287551740238 8.271823341891004e-17 9.760211972492944e-18 8.271823341891004e-17 9.760211972492944e-18 -0.9177626526919721 -0.3971293407992337
12628389333.333334 -0.9212357343546623 -0.3890047837082036 8.278584587573458e-17 9.019904544975768e-18 8.278584587573458e-17 9.019904544975768e-18 -0.9212354861423264 -0.38900537152069065
12629006666.666666 -0.9246366514547564 -0.38085044674566915 8.284683820456914e-17 8.279168193143553e-18 8.284683820456914e-17 8.279168193143553e-18 -0.9246364084573351 -0.3808510366993375
12629624000.0 -0.9279653919269815 -0.37266638080948894 8.290120813758955e-17 7.538062068411828e-18 8.290120813758955e-17 7.538062068411828e-18 -0.927965154162932 -0.3726669728580802
12630241333.333334 -0.9312216959317613 -0.36445322474333247 8.294895393506321e-17 6.796645328496556e-18 8.294895393506321e-17 6.796645328496556e-18 -0.9312214634191307 -0.3644538188404289
12630858666.666666 -0.9344053092838275 -0.35621161966173304 8.299007438528032e-17 6.054977132717488e-18 8.299007438528032e-17 6.054977132717488e-18 -0.9344050820402506 -0.35621221576076145
12631476000.0 -0.9375159834721759 -0.34794220889975175 8.302456880444514e-17 5.313116637263035e-18 8.302456880444514e-17 5.313116637263035e-18 -0.9375157615148765 -0.34794280695398805
12632093333.333334 -0.9405534756793338 -0.339645637963105 8.305243703652243e-17 4.5711229905139474e-18 8.305243703652243e-17 4.5711229905139474e-18 -0.9405532590251201 -0.3396462379256765
12632710666.666666 -0.9435175488003744 -0.3313225544776163 8.30736794530443e-17 3.829055328324568e-18 8.30736794530443e-17 3.829055328324568e-18 -0.9435173374656385 -0.3313231563015059
12633328000.0 -0.9464079714614722 -0.3229736081385299 8.308829695287468e-17 3.0869727693092777e-18 8.308829695287468e-17 3.0869727693092777e-18 -0.9464077654621902 -0.3229742117765799
12633945333.333334 -0.9492245180378792 -0.31459945066003636 8.309629096193107e-17 2.344934410165244e-18 8.309629096193107e-17 2.344934410165244e-18 -0.9492243173896087 -0.31460005606495195
12634562666.666666 -0.951966968671581 -0.3062007357242654 8.309766343286508e-17 1.6029993209656426e-18 8.309766343286508e-17 1.6029993209656426e-18 -0.9519667733894613 -0.3062013428486189
12635180000.0 -0.9546351092884541 -0.2977781189302883 8.309241684470139e-17 8.612265404710413e-19 8.309241684470139e-17 8.612265404710413e-19 -0.9546349193872039 -0.2977787277265223
12635797333.333334 -0.9572287316149823 -0.28933225774291405 8.30805542024343e-17 1.1967507144036247e-19 8.30805542024343e-17 1.1967507144036247e-19 -0.957228547108898 -0.2893328681633449
12636414666.666666 -0.9597476331944803 -0.2808638114414765 8.306207903658345e-17 -6.215961240416379e-19 8.306207903658345e-17 -6.215961240416379e-19 -0.9597474540974366 -0.28086442343829876
12637032000.0 -0.962191617402949 -0.27237344106820877 8.303699540270701e-17 -1.3625281292554482e-18 8.303699540270701e-17 -1.3625281292554482e-18 -0.9621914437283972 -0.2723740545934988
12637649333.333334 -0.9645604934643899 -0.2638618093767513 8.300530788087391e-17 -2.1030620775088223e-18 8.300530788087391e-17 -2.1030620775088223e-18 -0.9645603252253562 -0.26386242438247054
12638266666.666666 -0.9668540764657045 -0.2553295807803903 8.296702157509412e-17 -2.8431391568047966e-18 8.296702157509412e-17 -2.8431391568047966e-18 -0.9668539136747899 -0.25533019721838945
12638884000.0 -0.9690721873711292 -0.24677742130019403 8.292214211270804e-17 -3.5827006145011874e-18 8.292214211270804e-17 -3.5827006145011874e-18 -0.969072030040509 -0.24677803912221694
12639501333.333334 -0.9712146530362202 -0.2382059985129967 8.287067564373353e-17 -4.321687761965878e-18 8.287067564373353e-17 -4.321687761965878e-18 -0.9712145011776402 -0.2382066176706833
12640118666.666666 -0.9732813062213287 -0.2296159814994243 8.28126288401732e-17 -5.0600419792110834e-18 8.28126288401732e-17 -5.0600419792110834e-18 -0.9732811598461077 -0.2296166019443154
12640736000.0 -0.9752719856047422 -0.22100804079133646 8.274800889527762e-17 -5.797704719557986e-18 8.274800889527762e-17 -5.797704719557986e-18 -0.97527184472377 -0.2210086624748771
12641353333.333334 -0.9771865357951532 -0.21238284831998172 8.267682352277148e-17 -6.534617514234919e-18 8.267682352277148e-17 -6.534617514234919e-18 -0.9771864004188907 -0.2123834711935252
12641970666.666666 -0.9790248073439058 -0.2037410773630777 8.259908095603427e-17 -7.270721977028678e-18 8.259908095603427e-17 -7.270721977028678e-18 -0.9790246774823824 -0.20374170137788905
12642588000.0 -0.9807866567565994 -0.19508340249250383 8.251478994724341e-17 -8.005959808878085e-18 8.251478994724341e-17 -8.005959808878085e-18 -0.9807865324194125 -0.19508402759976362
12643205333.333334 -0.9824719465042968 -0.18641049952161712 8.24239597664742e-17 -8.740272802494096e-18 8.24239597664742e-17 -8.740272802494096e-18 -0.9824718277006111 -0.1864111256724253
12643822666.666666 -0.9840805450342818 -0.1777230454523868 8.232660020075914e-17 -9.47360284695664e-18 8.232660020075914e-17 -9.47360284695664e-18 -0.9840804317728314 -0.1777236725977671
12644440000.0 -0.9856123267803024 -0.16902171842268807 8.222272155310836e-17 -1.0205891932292682e-17 8.222272155310836e-17 -1.0205891932292682e-17 -0.9856122190693861 -0.16902234651359102
12645057333.333334 -0.9870671721723768 -0.16030719765333862 8.211233464148771e-17 -1.093708215405618e-17 8.211233464148771e-17 -1.093708215405618e-17 -0.9870670700198606 -0.16030782664064597
12645674666.666666 -0.9884449676461317 -0.1515801633950799 8.199545079775687e-17 -1.1667115717895521e-17 8.199545079775687e-17 -1.1667115717895521e-17 -0.9884448710594449 -0.15158079322960785
12646292000.0 -0.9897456056516896 -0.14284129687527936 8.187208186656403e-17 -1.2395934944126636e-17 8.187208186656403e-17 -1.2395934944126636e-17 -0.9897455146378294 -0.1428419275077833
12646909333.333334 -0.9909689846620152 -0.1340912802451204 8.174224020420762e-17 -1.3123482272248747e-17 8.174224020420762e-17 -1.3123482272248747e-17 -0.9909688992275416 -0.13409191162629794
12647526666.666666 -0.9921150091808805 -0.12533079652607265 8.160593867744956e-17 -1.3849700265502349e-17 8.160593867744956e-17 -1.3849700265502349e-17 -0.9921149293319184 -0.12533142860656799
12648144000.0 -0.9931835897503157 -0.11656052955660393 8.146319066229202e-17 -1.4574531615389925e-17 8.146319066229202e-17 -1.4574531615389925e-17 -0.9931835154925507 -0.11656116228701112
12648761333.333334 -0.9941746429575706 -0.10778116393891192 8.131401004271525e-17 -1.529791914617775e-17 8.131401004271525e-17 -1.529791914617775e-17 -0.9941745742962536 -0.10778179726977942
12649378666.666666 -0.9950880914416351 -0.09899338498548588 8.115841120937499e-17 -1.601980581939481e-17 8.115841120937499e-17 -1.601980581939481e-17 -0.9950880283815785 -0.09899401886731994
12649996000.0 -0.9959238638992883 -0.09019787866546941 8.099640905825654e-17 -1.674013473833038e-17 8.099640905825654e-17 -1.674013473833038e-17 -0.9959238064448689 -0.09019851304873833
12650613333.333334 -0.9966818950906622 -0.08139533155117122 8.082801898929324e-17 -1.7458849152500184e-17 8.082801898929324e-17 -1.7458849152500184e-17 -0.996681843245817 -0.08139596638630882
12651230666.666666 -0.9973621258443097 -0.07258643076469753 8.065325690494635e-17 -1.817589246209695e-17 8.065325690494635e-17 -1.817589246209695e-17 -0.9973620796125378 -0.07258706600210725
12651848000.0 -0.9979645030618651 -0.06377186392386314 8.04721392087377e-17 -1.889120822245926e-17 8.04721392087377e-17 -1.889120822245926e-17 -0.9979644624462272 -0.0637724995139218
12652465333.333334 -0.9984889797221562 -0.05495231908888398 8.028468280375333e-17 -1.960474014848284e-17 8.028468280375333e-17 -1.960474014848284e-17 -0.9984889447252744 -0.05495295498194584
12653082666.666666 -0.9989355148848823 -0.04612848470864 8.009090509110364e-17 -2.0316432119038107e-17 8.009090509110364e-17 -2.0316432119038107e-17 -0.9989354855089396 -0.046129120855040395
12653700000.0 -0.9993040736938209 -0.03730104956665091 7.989082396833767e-17 -2.1026228181395528e-17 7.989082396833767e-17 -2.1026228181395528e-17 -0.999304049940563 -0.037301685916710375
12654317333.333334 -0.999594627379534 -0.028470702727707835 7.968445782783349e-17 -2.1734072555581445e-17 7.968445782783349e-17 -2.1734072555581445e-17 -0.9995946092502658 -0.028471339231735764
12654934666.666666 -0.9998071532616237 -0.01963813348380125 7.94718255551352e-17 -2.243990963877287e-17 7.94718255551352e-17 -2.243990963877287e-17 -0.9998071407572111 -0.019638770092099876
12655552000.0 -0.9999416347504996 -0.010804031300315138 7.925294652725702e-17 -2.3143684009653722e-17 7.925294652725702e-17 -2.3143684009653722e-17 -0.9999416278713701 -0.010804667963183422
12656169333.333334 -0.9999980613486709 -0.001969085762463516 7.902784061095527e-17 -2.3845340432734746e-17 7.902784061095527e-17 -2.3845340432734746e-17 -0.9999980600948122 -0.0019697224302010104
12656786666.666666 -0.9999764286515699 0.006866013478822397 7.879652816094952e-17 -2.454482386269971e-17 7.879652816094952e-17 -2.454482386269971e-17 -0.999976433022532 0.0068653768559116726
12657404000.0 -0.9998767383478953 0.015700576760585866 7.855903001811532e-17 -2.524207944870105e-17 7.855903001811532e-17 -2.524207944870105e-17 -0.9998767483427875 0.015699940232189544
12658021333.333334 -0.9996989982194764 0.024533914461736167 7.831536750763439e-17 -2.593705253865398e-17 7.831536750763439e-17 -2.593705253865398e-17 -0.9996990138369704 0.024533278077529655
12658638666.666666 -0.999443222140673 0.03336533705673797 7.806556243711223e-17 -2.66296886834977e-17 7.806556243711223e-17 -2.66296886834977e-17 -0.9994432433790011 0.03336470086638058
12659256000.0 -0.9991094300772831 0.04219415516971944 7.780963709464661e-17 -2.7319933641471964e-17 7.780963709464661e-17 -2.7319933641471964e-17 -0.9991094569342395 0.042193519222850515
12659873333.333334 -0.9986976480849914 0.05101967962802884 7.75476142468729e-17 -2.8007733382333335e-17 7.75476142468729e-17 -2.8007733382333335e-17 -0.9986976805579315 0.05101904397426388
12660490666.666666 -0.9982079083073371 0.05984122151603101 7.727951713696565e-17 -2.869303409157302e-17 7.727951713696565e-17 -2.869303409157302e-17 -0.9982079463931789 0.05984058620495778
12661108000.0 -0.9976402489731891 0.06865809222919599 7.700536948259449e-17 -2.9375782174637775e-17 7.700536948259449e-17 -2.9375782174637775e-17 -0.9976402926684121 0.06865745731037069
12661725333.333334 -0.9969947143937915 0.07746960352734038 7.672519547386313e-17 -3.005592426107912e-17 7.672519547386313e-17 -3.005592426107912e-17 -0.9969947636944371 0.07746896905028368
12662342666.666666 -0.9962713549592711 0.08627506758883298 7.643901977119025e-17 -3.073340720873758e-17 7.643901977119025e-17 -3.073340720873758e-17 -0.9962714098609459 0.08627443360302642
12662960000.0 -0.9954702271347287 0.09507379706403107 7.614686750316778e-17 -3.140817810787251e-17 7.614686750316778e-17 -3.140817810787251e-17 -0.9954702876326001 0.09507316361891285
12663577333.333334 -0.9945913934558172 0.1038651051289906 7.584876426437734e-17 -3.208018428528457e-17 7.584876426437734e-17 -3.208018428528457e-17 -0.9945914595446181 0.103864472273952
12664194666.666666 -0.9936349225238691 0.11264830553907977 7.554473611317142e-17 -3.274937330841588e-17 7.554473611317142e-17 -3.274937330841588e-17 -0.9936349941978951 0.1126476733234611
12664812000.0 -0.9926008890005356 0.12142271268254658 7.523480956941859e-17 -3.341569298942922e-17 7.523480956941859e-17 -3.341569298942922e-17 -0.9926009662536476 0.1214220811556335
12665429333.333334 -0.9914893736019568 0.13018764163406563 7.491901161221166e-17 -3.407909138926835e-17 7.491901161221166e-17 -3.407909138926835e-17 -0.9914894564275817 0.13018701084508533
12666046666.666666 -0.9903004630924818 0.13894240820806225 7.459736967754646e-17 -3.4739516821684354e-17 7.459736967754646e-17 -3.4739516821684354e-17 -0.9903005514836113 0.13894177820617942
12666664000.0 -0.9890342502778521 0.14768632901242942 7.426991165594903e-17 -3.539691785727398e-17 7.426991165594903e-17 -3.539691785727398e-17 -0.9890343442270434 0.14768569984674246
12667281333.333334 -0.9876908339980096 0.15641872150147845 7.393666589009135e-17 -3.605124332744528e-17 7.393666589009135e-17 -3.605124332744528e-17 -0.9876909334973879 0.15641809322101577
12667898666.666666 -0.9862703191193457 0.16513890402950018 7.35976611723537e-17 -3.670244232840125e-17 7.35976611723537e-17 -3.670244232840125e-17 -0.9862704241606036 0.16513827668321637
12668516000.0 -0.984772816526511 0.17384619590397307 7.325292674235094e-17 -3.7350464225100455e-17 7.325292674235094e-17 -3.7350464225100455e-17 -0.9847729271009099 0.173845569540745
12669133333.333334 -0.983198443113803 0.18253991743844558 7.290249228444508e-17 -3.799525865515526e-17 7.290249228444508e-17 -3.799525865515526e-17 -0.9831985592121718 0.18253929210706865
12669750666.666666 -0.9815473217759919 0.1912193900058724 7.254638792519719e-17 -3.863677553275671e-17 7.254638792519719e-17 -3.863677553275671e-17 -0.9815474433887305 0.1912187657550566
