! Parameters = {f0=12700.012000; bw=77.238000; Q=6100.000000; N=10; m_0_1=1.308003; m_1_1=0.855299; m_1_2=1.142815; m_2_2=0.854650; m_2_3=0.779778; m_2_8=0.002464; m_2_9=0.039168; m_3_3=0.852713; m_3_4=0.668307; m_3_7=0.003064; m_3_8=-0.094024; m_3_9=0.002464; m_4_4=0.849788; m_4_5=0.504642; m_4_6=0.006581; m_4_7=-0.114573; m_4_8=0.003064; m_5_5=0.850170; m_5_6=0.911997; m_5_7=0.006581; m_6_6=0.850169; m_6_7=0.504984; m_7_7=0.849802; m_7_8=0.668425; m_8_8=0.852711; m_8_9=0.780091; m_9_9=0.854645; m_9_10=1.143893; m_10_10=0.855289; m_10_11=1.308798}
!
! Created with skrf (http://scikit-rf.org).
# Hz S RI R 50.0 
!freq ReS11 ImS11 ReS21 ImS21 ReS12 ImS12 ReS22 ImS22
12607400000.0 -0.9796998125806275 0.20047014049303283 1.1636545119072786e-16 -6.20450600034726e-17 1.1636545119072786e-16 -6.20450600034726e-17 -0.979699950716844 0.20046946541861638
12608017333.333334 -0.9772986647364114 0.21186627835557034 1.1560670875231767e-16 -6.339390147166286e-17 1.1560670875231767e-16 -6.339390147166286e-17 -0.9772988107181323 0.21186560496866047
12608634666.666666 -0.9747649585753113 0.22323367920966541 1.1483234288696912e-16 -6.473348461136146e-17 1.1483234288696912e-16 -6.473348461136146e-17 -0.9747651123819693 0.22323300760142903
12609252000.0 -0.972099037762912 0.23457080120985727 1.1404246633790482e-16 -6.606362859583912e-17 1.1404246633790482e-16 -6.606362859583912e-17 -0.9720991993728784 0.23457013147121064
12609869333.333334 -0.9693012638980484 0.24587610661766113 1.1323719393962868e-16 -6.738415396870008e-17 1.1323719393962868e-16 -6.738415396870008e-17 -0.9693014332886413 0.2458754388392587
12610486666.666666 -0.9663720164638001 0.2571480620100063 1.1241664260129856e-16 -6.86948826680525e-17 1.1241664260129856e-16 -6.86948826680525e-17 -0.9663721936112835 0.25714739628222755
12611104000.0 -0.96331169277593 0.2683851384875552 1.115809312898057e-16 -6.999563805049526e-17 1.115809312898057e-16 -6.999563805049526e-17 -0.9633118776555178 0.2683844749004927
12611721333.333334 -0.9601207079291262 0.2795858118815859 1.1073018101261935e-16 -7.128624491483757e-17 1.1073018101261935e-16 -7.128624491483757e-17 -0.9601209005149858 0.2795851505250328
12612338666.666666 -0.9567994947405808 0.29074856296116464 1.0986451480031017e-16 -7.256652952568338e-17 1.0986451480031017e-16 -7.256652952568338e-17 -0.9567996950058367 0.29074790392460287
12612956000.0 -0.953348503691309 0.30187187763909995 1.0898405768882202e-16 -7.38363196367727e-17 1.0898405768882202e-16 -7.38363196367727e-17 -0.9533487116080481 0.30187122101168823
12613573333.333334 -0.949768202865116 0.31295424717709286 1.0808893670149198e-16 -7.509544451408472e-17 1.0808893670149198e-16 -7.509544451408472e-17 -0.9497684184043895 0.3129535930476543
12614190666.666666 -0.9460590778850252 0.3239941683906502 1.0717928083077437e-16 -7.634373495876684e-17 1.0717928083077437e-16 -7.634373495876684e-17 -0.9460593010168532 0.32399351684766037
12614808000.0 -0.9422216318474389 0.33499014385286313 1.0625522101971127e-16 -7.758102332982787e-17 1.0625522101971127e-16 -7.758102332982787e-17 -0.9422218625408156 0.33498949498443853
12615425333.333334 -0.9382563852539316 0.34594068209743467 1.0531689014315044e-16 -7.880714356659589e-17 1.0531689014315044e-16 -7.880714356659589e-17 -0.938256623476827 0.34594003599131984
12616042666.666666 -0.9341638759405924 0.35684429782113947 1.0436442298869607e-16 -8.002193121096178e-17 1.0436442298869607e-16 -8.002193121096178e-17 -0.9341641216599599 0.3568436545646962
12616660000.0 -0.9299446590051119 0.3676995120851785 1.0339795623740577e-16 -8.122522342939046e-17 1.0339795623740577e-16 -8.122522342939046e-17 -0.9299449121868909 0.36769887176537347
12617277333.333334 -0.9255993067314711 0.37850485251583277 1.0241762844423276e-16 -8.241685903470328e-17 1.0241762844423276e-16 -8.241685903470328e-17 -0.9255995673405918 0.3785042152192255
12617894666.666666 -0.921128408512371 0.38925885350404 1.0142358001823118e-16 -8.359667850760724e-17 1.0142358001823118e-16 -8.359667850760724e-17 -0.9211286765127599 0.38925821931677174
12618512000.0 -0.916532570769158 0.3999600564045012 1.0041595320247378e-16 -8.476452401803559e-17 1.0041595320247378e-16 -8.476452401803559e-17 -0.9165328461237431 0.3999594254122832
12619129333.333334 -0.9118124168697697 0.4106070097330567 9.939489205379743e-17 -8.592023944616167e-17 9.939489205379743e-17 -8.592023944616167e-17 -0.9118126995404853 0.41060638202115846
12619746666.666666 -0.9069685870440065 0.4211982693639802 9.83605424222243e-17 -8.706367040326602e-17 9.83605424222243e-17 -8.706367040326602e-17 -0.9069688769917975 0.4211976450172178
12620364000.0 -0.9020017382967304 0.43173239872575 9.73130519301926e-17 -8.819466425229973e-17 9.73130519301926e-17 -8.819466425229973e-17 -0.9020020354815594 0.431731777828475
12620981333.333334 -0.8969125443188511 0.4422079689956966 9.625256995156218e-17 -8.931307012818842e-17 9.625256995156218e-17 -8.931307012818842e-17 -0.8969128486997033 0.4422073516317847
12621598666.666666 -0.8917016953958249 0.45262355929406173 9.517924759034245e-17 -9.04187389579343e-17 9.517924759034245e-17 -9.04187389579343e-17 -0.891702006930713 0.4526229455469008
12622216000.0 -0.8863698983140896 0.4629777568765949 9.409323765922742e-17 -9.151152348042159e-17 9.409323765922742e-17 -9.151152348042159e-17 -0.8863702169600596 0.4629771468290741
12622833333.333334 -0.8809178762651575 0.47326915732625013 9.29946946578843e-17 -9.259127826598751e-17 9.29946946578843e-17 -9.259127826598751e-17 -0.8809182019782955 0.47326855106074867
12623450666.666666 -0.8753463687476275 0.4834963647434753 9.188377475104674e-17 -9.365785973570347e-17 9.188377475104674e-17 -9.365785973570347e-17 -0.8753467014830665 0.483495762341852
12624068000.0 -0.8696561314667424 0.493657991935828 9.076063574633799e-17 -9.471112618044526e-17 9.076063574633799e-17 -9.471112618044526e-17 -0.8696564711786655 0.49365739347940896
12624685333.333334 -0.863847936231915 0.5037526606060502 8.962543707191245e-17 -9.575093777965989e-17 8.962543707191245e-17 -9.575093777965989e-17 -0.8638482828735655 0.5037520661756191
12625302666.666666 -0.8579225708521774 0.5137790015387985 8.847833975390062e-17 -9.677715661985169e-17 8.847833975390062e-17 -9.677715661985169e-17 -0.8579229243758618 0.5137784112145843
12625920000.0 -0.851880839029105 0.523735654786727 8.731950639357672e-17 -9.77896467128586e-17 8.731950639357672e-17 -9.77896467128586e-17 -0.8518811993862023 0.523735068648395
12626537333.333334 -0.8457235602479952 0.533621269854631 8.614910114439845e-17 -9.878827401378377e-17 8.614910114439845e-17 -9.878827401378377e-17 -0.8457239273889614 0.53362068798127
12627154666.666666 -0.8394515696666883 0.5434345058826747 8.496728968878721e-17 -9.977290643870321e-17 8.496728968878721e-17 -9.977290643870321e-17 -0.8394519435410647 0.5434339283527879
12627772000.0 -0.8330657180021038 0.5531740318285494 8.377423921470238e-17 -1.0074341388209684e-16 8.377423921470238e-17 -1.0074341388209684e-16 -0.833066098558523 0.5531734587200429
12628389333.333334 -0.8265668714151286 0.5628385266475817 8.257011839209331e-17 -1.0169966823394009e-16 8.257011839209331e-17 -1.0169966823394009e-16 -0.826567258601322 0.5628379580377544
12629006666.666666 -0.8199559113928827 0.5724266794722981 8.135509734902628e-17 -1.0264154339661978e-16 8.135509734902628e-17 -1.0264154339661978e-16 -0.8199563051556881 0.5724261154378313
12629624000.0 -0.813233734629332 0.5819371897899662 8.012934764776796e-17 -1.0356891530144701e-16 8.012934764776796e-17 -1.0356891530144701e-16 -0.8132341349147004 0.5819366304069132
12630241333.333334 -0.8064012529035477 0.5913687676191579 7.889304226055841e-17 -1.0448166192498166e-16 7.889304226055841e-17 -1.0448166192498166e-16 -0.8064016596565506 0.591368212962934
12630858666.666666 -0.799459392956205 0.6007201336844894 7.764635554528234e-17 -1.05379663305006e-16 7.764635554528234e-17 -1.05379663305006e-16 -0.7994598061210415 0.6007195838298605
12631476000.0 -0.7924090963635918 0.6099900195905261 7.638946322088924e-17 -1.0626280155625755e-16 7.638946322088924e-17 -1.0626280155625755e-16 -0.7924095158835976 0.6099894746116005
12632093333.333334 -0.7852513194101868 0.6191771679934388 7.51225423427097e-17 -1.0713096088581976e-16 7.51225423427097e-17 -1.0713096088581976e-16 -0.7852517452278409 0.6191766279636557
12632710666.666666 -0.7779870329588328 0.6282803327717058 7.384577127755727e-17 -1.0798402760824574e-16 7.384577127755727e-17 -1.0798402760824574e-16 -0.7779874650157663 0.6282797977638268
12633328000.0 -0.7706172223189619 0.6372982791952447 7.255932967861332e-17 -1.0882189016041725e-16 7.255932967861332e-17 -1.0882189016041725e-16 -0.770617660555965 0.6372977492813428
12633945333.333334 -0.7631428871131095 0.646229784092687 7.126339846026494e-17 -1.0964443911602458e-16 7.126339846026494e-17 -1.0964443911602458e-16 -0.763143331470139 0.6462292593441364
12634562666.666666 -0.7555650411412193 0.6550736360174182 6.995815977265907e-17 -1.1045156719982817e-16 6.995815977265907e-17 -1.1045156719982817e-16 -0.7555654915574089 0.6550731165048864
12635180000.0 -0.7478847122432284 0.6638286354117885 6.864379697616366e-17 -1.11243169301572e-16 6.864379697616366e-17 -1.11243169301572e-16 -0.7478851686568958 0.6638281212052256
12635797333.333334 -0.7401029421595225 0.6724935947699664 6.732049461564822e-17 -1.1201914248961095e-16 6.732049461564822e-17 -1.1201914248961095e-16 -0.7401034045081785 0.6724930859385969
12636414666.666666 -0.7322207863897876 0.6810673387988406 6.598843839463007e-17 -1.1277938602422103e-16 6.598843839463007e-17 -1.1277938602422103e-16 -0.7322212546101431 0.6810668354111523
12637032000.0 -0.7242393140497106 0.6895487045775798 6.464781514923908e-17 -1.1352380137062105e-16 6.464781514923908e-17 -1.1352380137062105e-16 -0.724239788077687 0.6895482067013157
12637649333.333334 -0.716159607726025 0.6979365417153051 6.329881282206598e-17 -1.1425229221166992e-16 6.329881282206598e-17 -1.1425229221166992e-16 -0.7161600874967623 0.6979360494174546
12638266666.666666 -0.7079827633297304 0.7062297125070656 6.194162043586827e-17 -1.149647644602532e-16 6.194162043586827e-17 -1.149647644602532e-16 -0.707983248777596 0.7062292258538544
12638884000.0 -0.6997098899473284 0.7144270920882764 6.057642806710877e-17 -1.156611262713741e-16 6.057642806710877e-17 -1.156611262713741e-16 -0.6997103810059261 0.7144266111451586
12639501333.333334 -0.691342109690447 0.7225275685872307 5.920342681938858e-17 -1.1634128805391517e-16 5.920342681938858e-17 -1.1634128805391517e-16 -0.6913426062926259 0.7225270934188787
12640118666.666666 -0.6828805575437429 0.7305300432758125 5.7822808796756e-17 -1.1700516248208244e-16 5.7822808796756e-17 -1.1700516248208244e-16 -0.6828810596216067 0.7305295739461098
12640736000.0 -0.6743263812106263 0.7384334307188392 5.643476707681827e-17 -1.176526645065674e-16 5.643476707681827e-17 -1.176526645065674e-16 -0.6743268886955436 0.7384329672908716
12641353333.333334 -0.6656807409580644 0.746236658920839 5.5039495683863144e-17 -1.182837113653265e-16 5.5039495683863144e-17 -1.182837113653265e-16 -0.6656812537806761 0.746236201456885
12641970666.666666 -0.6569448094588535 0.7539386694717841 5.3637189561707176e-17 -1.1889822259411603e-16 5.3637189561707176e-17 -1.1889822259411603e-16 -0.6569453275490845 0.7539382180333082
12642588000.0 -0.6481197716326437 0.7615384176905728 5.222804454654815e-17 -1.194961200366482e-16 5.222804454654815e-17 -1.194961200366482e-16 -0.6481202949197108 0.7615379723382157
12643205333.333334 -0.6392068244852845 0.7690348727666727 5.0812257339638846e-17 -1.2007732785445866e-16 5.0812257339638846e-17 -1.2007732785445866e-16 -0.639207352897705 0.7690344335602424
12643822666.666666 -0.6302071769463526 0.7764270179000236 4.939002547985458e-17 -1.2064177253644705e-16 4.939002547985458e-17 -1.2064177253644705e-16 -0.6302077104119574 0.7764265848984898
12644440000.0 -0.6211220497052895 0.7837138504388669 4.796154731622184e-17 -1.2118938290806753e-16 4.796154731622184e-17 -1.2118938290806753e-16 -0.6211225881512314 0.7837134237003534
12645057333.333334 -0.6119526750457853 0.7908943820157792 4.652702198026048e-17 -1.217200901402301e-16 4.652702198026048e-17 -1.217200901402301e-16 -0.6119532183985482 0.7908939615975532
12645674666.666666 -0.6027002966787262 0.7979676386816631 4.508664935828392e-17 -1.222338277578525e-16 4.508664935828392e-17 -1.222338277578525e-16 -0.6027008448641359 0.7979672246401295
12646292000.0 -0.593366169573206 0.8049326610380744 4.36406300635573e-17 -1.2273053164810236e-16 4.36406300635573e-17 -1.2273053164810236e-16 -0.5933667225164395 0.8049322534287668
12646909333.333334 -0.5839515597866892 0.8117885043670588 4.218916540845763e-17 -1.2321014006828006e-16 4.218916540845763e-17 -1.2321014006828006e-16 -0.5839521174122863 0.8117881032446346
12647526666.666666 -0.5744577442930399 0.8185342387594841 4.0732457376436765e-17 -1.2367259365341105e-16 4.0732457376436765e-17 -1.2367259365341105e-16 -0.5744583065249113 0.8185338441777132
12648144000.0 -0.5648860108093312 0.8251689492411439 3.9270708593954904e-17 -1.2411783542348842e-16 3.9270708593954904e-17 -1.2411783542348842e-16 -0.5648865775707729 0.8251685612529075
12648761333.333334 -0.5552376576212605 0.8316917358968225 3.78041223023827e-17 -1.2454581079037102e-16 3.78041223023827e-17 -1.2454581079037102e-16 -0.5552382288349589 0.8316913545540986
12649378666.666666 -0.5455139934071414 0.8381017139922864 3.63329023297489e-17 -1.2495646756437584e-16 3.63329023297489e-17 -1.2495646756437584e-16 -0.5455145689951879 0.8381013393461488
12649996000.0 -0.5357163370601414 0.8443980140944666 3.485725306245309e-17 -1.2534975596052547e-16 3.485725306245309e-17 -1.2534975596052547e-16 -0.5357169169440423 0.8443976461950754
12650613333.333334 -0.5258460175095565 0.8505797821892741 3.337737941691975e-17 -1.2572562860446034e-16 3.337737941691975e-17 -1.2572562860446034e-16 -0.5258466016102419 0.8505794210858696
12651230666.666666 -0.5159043735406287 0.8566461797973912 3.1893486811198125e-17 -1.2608404053801606e-16 3.1893486811198125e-17 -1.2608404053801606e-16 -0.5159049617784658 0.8566458255382877
12651848000.0 -0.5058927536127182 0.8625963840881524 3.040578113645334e-17 -1.264249492244777e-16 3.040578113645334e-17 -1.264249492244777e-16 -0.5058933459075192 0.8625960367207293
12652465333.333334 -0.49581251567659135 0.8684295879910267 2.891446872846857e-17 -1.267483145534833e-16 2.891446872846857e-17 -1.267483145534833e-16 -0.49581311194762717 0.8684292475617256
12653082666.666666 -0.4856650269903591 0.8741450003050226 2.7419756339082624e-17 -1.270540988455952e-16 2.7419756339082624e-17 -1.270540988455952e-16 -0.485665627156369 0.874144666859339
12653700000.0 -0.47545166393350646 0.8797418458062991 2.5921851107509306e-17 -1.2734226685655108e-16 2.5921851107509306e-17 -1.2734226685655108e-16 -0.4754522679127097 0.8797415193887779
12654317333.333334 -0.46517381182089607 0.8852193653529226 2.442096053173744e-17 -1.2761278578115138e-16 2.442096053173744e-17 -1.2761278578115138e-16 -0.4651744195310024 0.8852190460071502
12654934666.666666 -0.4548328647143479 0.8905768159881285 2.2917292439787824e-17 -1.2786562525683183e-16 2.2917292439787824e-17 -1.2786562525683183e-16 -0.45483347607256913 0.8905765037567284
12655552000.0 -0.4444302252336737 0.8958134710410194 2.1411054960975557e-17 -1.281007573668889e-16 2.1411054960975557e-17 -1.281007573668889e-16 -0.4444308401567348 0.8958131659656453
12656169333.333334 -0.4339673043666323 0.9009286202250281 1.9902456497175244e-17 -1.283181566433637e-16 1.9902456497175244e-17 -1.283181566433637e-16 -0.43396792277078294 0.9009283223463596
12656786666.666666 -0.4234455212772685 0.9059215697343985 1.8391705693986835e-17 -1.2851780006959885e-16 1.8391705693986835e-17 -1.2851780006959885e-16 -0.42344614307829453 0.9059212790921355
12657404000.0 -0.4128663031136502 0.9107916423381812 1.6879011411952046e-17 -1.28699667082445e-16 1.6879011411952046e-17 -1.28699667082445e-16 -0.412866928226885 0.9107913589710379
12658021333.333334 -0.40223108481408915 0.9155381774721878 1.536458269769055e-17 -1.288637395741391e-16 1.536458269769055e-17 -1.288637395741391e-16 -0.4022317131544251 0.915537901417888
12658638666.666666 -0.3915413089127408 0.9201605313284805 1.3848628755083857e-17 -1.2901000189383502e-16 1.3848628755083857e-17 -1.2901000189383502e-16 -0.3915419403946408 0.9201602626237527
12659256000.0 -0.3807984253436582 0.9246580769428259 1.2331358916375506e-17 -1.291384408488039e-16 1.2331358916375506e-17 -1.291384408488039e-16 -0.3807990598811674 0.9246578156233979
12659873333.333334 -0.3700038912443589 0.9290302042796272 1.0812982613338222e-17 -1.2924904570528778e-16 1.0812982613338222e-17 -1.2924904570528778e-16 -0.3700045287511167 0.9290299503802224
12660490666.666666 -0.3591591707581864 0.9332763203146779 9.293709348405722e-18 -1.2934180818901904e-16 9.293709348405722e-18 -1.2934180818901904e-16 -0.35915981114743756 0.9332760738690087
12661108000.0 -0.34826573483542433 0.9373958491157062 7.773748665769108e-18 -1.2941672248540217e-16 7.773748665769108e-18 -1.2941672248540217e-16 -0.34826637802003113 0.9373956101564715
12661725333.333334 -0.3373250610342581 0.9413882319203107 6.253310122563505e-18 -1.2947378523935235e-16 6.253310122563505e-18 -1.2947378523935235e-16 -0.3373257069267122 0.9413880004791902
12662342666.666666 -0.32633863331991153 0.9452529272119217 4.732603259990459e-18 -1.2951299555479923e-16 4.732603259990459e-18 -1.2951299555479923e-16 -0.3263392818323464 0.945252703319574
12662960000.0 -0.3153079418636053 0.9489894107931613 3.2118375744759947e-18 -1.2953435499385217e-16 3.2118375744759947e-18 -1.2953435499385217e-16 -0.3153085929078069 0.9489891944792168
12663577333.333334 -0.3042344828403792 0.9525971758569632 1.6912224888606796e-18 -1.2953786757562535e-16 1.6912224888606796e-18 -1.2953786757562535e-16 -0.3042351363277991 0.952596967150022
12664194666.666666 -0.2931197582261559 0.9560757330553136 1.7096732359642248e-19 -1.2952353977472744e-16 1.7096732359642248e-19 -1.2952353977472744e-16 -0.29312041406792283 0.956075531982941
12664812000.0 -0.28196527559398893 0.9594246105656349 -1.3487187320277875e-18 -1.2949138051941268e-16 -1.3487187320277875e-18 -1.2949138051941268e-16 -0.2819659337009214 0.959424417154359
12665429333.333334 -0.27077254790966193 0.9626433541547592 -2.8676266486345153e-18 -1.294414011893948e-16 -2.8676266486345153e-18 -1.294414011893948e-16 -0.27077320819227907 0.962643168430065
12666046666.666666 -0.25954309332644543 0.9657315272405449 -4.385547585451248e-18 -1.2937361561332605e-16 -4.385547585451248e-18 -1.2937361561332605e-16 -0.2595437556949807 0.9657313492268739
12666664000.0 -0.24827843497898763 0.9686887109511497 -5.902272919029112e-18 -1.2928804006593682e-16 -5.902272919029112e-18 -1.2928804006593682e-16 -0.24827909934340023 0.9686885406718944
12667281333.333334 -0.23698010077707626 0.9715145041817453 -7.417594271810223e-18 -1.2918469326484493e-16 -7.417594271810223e-18 -1.2918469326484493e-16 -0.23698076704706328 0.971514341659247
12667898666.666666 -0.22564962319812223 0.9742085236489977 -8.931303540774996e-18 -1.2906359636702388e-16 -8.931303540774996e-18 -1.2906359636702388e-16 -0.22565029128313133 0.974208368904544
12668516000.0 -0.21428853907927045 0.976770403943059 -1.0443192925966996e-17 -1.2892477296494023e-16 -1.0443192925966996e-17 -1.2892477296494023e-16 -0.2142892088885117 0.9767702569968797
12669133333.333334 -0.20289838940930607 0.9791997975770439 -1.1953054958950346e-17 -1.2876824908235895e-16 -1.1953054958950346e-17 -1.2876824908235895e-16 -0.20289906085176468 0.9791996584483097
12669750666.666666 -0.19148071911919665 0.9814963750342685 -1.3460682531276426e-17 -1.2859405316981087e-16 -1.3460682531276426e-17 -1.2859405316981087e-16 -0.19148139210364512 0.9814962437410875
12670368000.0 -0.18003707687276232 0.9836598248128902 -1.4965868922842168e-17 -1.2840221609973065e-16 -1.4965868922842168e-17 -1.2840221609973065e-16 -0.18003775130777291 0.9836597013723062
