! Parameters = {f0=12700.012000; bw=77.238000; Q=6100.000000; N=10; m_0_1=1.249344; m_1_1=-0.024581; m_1_2=1.084156; m_2_2=-0.025230; m_2_3=0.721119; m_2_8=-0.000469; m_2_9=0.036235; m_3_3=-0.027167; m_3_4=0.609648; m_3_7=0.000131; m_3_8=-0.096957; m_3_9=-0.000469; m_4_4=-0.030092; m_4_5=0.445983; m_4_6=0.003648; m_4_7=-0.117506; m_4_8=0.000131; m_5_5=-0.029710; m_5_6=0.853338; m_5_7=0.003648; m_6_6=-0.029711; m_6_7=0.446325; m_7_7=-0.030078; m_7_8=0.609766; m_8_8=-0.027169; m_8_9=0.721432; m_9_9=-0.025235; m_9_10=1.085234; m_10_10=-0.024591; m_10_11=1.250139}
!
! Created with skrf (http://scikit-rf.org).
# Hz S RI R 50.0 
!freq ReS11 ImS11 ReS21 ImS21 ReS12 ImS12 ReS22 ImS22
12607400000.0 0.7785150398741537 0.6276259496623564 -9.269149332039329e-17 -3.815449751202019e-17 -9.269149332039329e-17 -3.815449751202019e-17 0.7785146267291201 0.6276264621322519
12608017333.333334 0.7846979161764273 0.6198783593159244 -9.305020800530466e-17 -3.7218307022395086e-17 -9.305020800530466e-17 -3.7218307022395086e-17 0.7846975081513479 0.6198788758305077
12608634666.666666 0.7908036934621573 0.6120698639913912 -9.339947454840447e-17 -3.627876029156321e-17 -9.339947454840447e-17 -3.627876029156321e-17 0.7908032905966185 0.6120703844995196
12609252000.0 0.7968317718197785 0.6042012308977721 -9.373926172023092e-17 -3.53359525972878e-17 -9.373926172023092e-17 -3.53359525972878e-17 0.7968313741528554 0.6042017553479149
12609869333.333334 0.8027815589718521 0.5962732331528491 -9.406953925139342e-17 -3.438997950608523e-17 -9.406953925139342e-17 -3.438997950608523e-17 0.8027811665421064 0.5962737614930945
12610486666.666666 0.8086524703332818 0.5882866497071906 -9.439027783522414e-17 -3.344093686355559e-17 -9.439027783522414e-17 -3.344093686355559e-17 0.8086520831787556 0.5882871818852489
12611104000.0 0.8144439290688783 0.5802422652674284 -9.470144913033795e-17 -3.248892078466995e-17 -9.470144913033795e-17 -3.248892078466995e-17 0.8144435472270932 0.5802428012306386
12611721333.333334 0.8201553661497565 0.5721408702195533 -9.500302576307187e-17 -3.1534027644101955e-17 -9.500302576307187e-17 -3.1534027644101955e-17 0.8201549896577075 0.5721414099148875
12612338666.666666 0.8257862204095077 0.5639832605508858 -9.52949813298578e-17 -3.057635406644847e-17 -9.52949813298578e-17 -3.057635406644847e-17 0.8257858493036607 0.5639838039249542
12612956000.0 0.8313359385992856 0.5557702377719367 -9.55772903994788e-17 -2.9615996916479965e-17 -9.55772903994788e-17 -2.9615996916479965e-17 0.8313355729155731 0.555770784770993
12613573333.333334 0.8368039754419689 0.5475026088379356 -9.584992851522106e-17 -2.865305328939553e-17 -9.584992851522106e-17 -2.865305328939553e-17 0.8368036152157889 0.5475031594078841
12614190666.666666 0.8421897936859997 0.5391811860691746 -9.611287219695056e-17 -2.7687620500982468e-17 -9.611287219695056e-17 -2.7687620500982468e-17 0.8421894389522093 0.5391817401555729
12614808000.0 0.8474928641580352 0.5308067870713775 -9.636609894307054e-17 -2.6719796077825625e-17 -9.636609894307054e-17 -2.6719796077825625e-17 0.847492514950949 0.5308073446194435
12615425333.333334 0.8527126658149147 0.5223802346554198 -9.66095872323905e-17 -2.5749677747466922e-17 -9.66095872323905e-17 -2.5749677747466922e-17 0.8527123221683004 0.5223807956100361
12616042666.666666 0.857848685794943 0.5139023567563382 -9.684331652589059e-17 -2.4777363428567687e-17 -9.684331652589059e-17 -2.4777363428567687e-17 0.8578483477420193 0.513902921062059
12616660000.0 0.862900419468237 0.5053739863520581 -9.706726726839548e-17 -2.3802951221028502e-17 -9.706726726839548e-17 -2.3802951221028502e-17 0.8629000870416699 0.5053745539531133
12617277333.333334 0.8678673704862765 0.49679596138159765 -9.728142089014185e-17 -2.2826539396116408e-17 -9.728142089014185e-17 -2.2826539396116408e-17 0.8678670437181752 0.49679653222189885
12617894666.666666 0.872749050830689 0.4881691246627153 -9.748575980824473e-17 -2.1848226386595868e-17 -9.748575980824473e-17 -2.1848226386595868e-17 0.8727487297526044 0.48816969868586124
12618512000.0 0.8775449808613087 0.47949432380890095 -9.768026742807913e-17 -2.0868110776777946e-17 -9.768026742807913e-17 -2.0868110776777946e-17 0.8775446655042298 0.47949490095818376
12619129333.333334 0.8822546893630681 0.4707724111465175 -9.786492814454228e-17 -1.9886291292652696e-17 -9.786492814454228e-17 -1.9886291292652696e-17 0.8822543797574186 0.4707729913649276
12619746666.666666 0.8868777135925175 0.46200424363066067 -9.803972734323066e-17 -1.890286679194451e-17 -9.803972734323066e-17 -1.890286679194451e-17 0.8868774097681522 0.46200482686089167
12620364000.0 0.8914135993232442 0.4531906827610305 -9.820465140151612e-17 -1.7917936254160926e-17 -9.820465140151612e-17 -1.7917936254160926e-17 0.8914133013094483 0.45319126894548684
12620981333.333334 0.8958619008903485 0.44433259449759294 -9.835968768951367e-17 -1.693159877068341e-17 -9.835968768951367e-17 -1.693159877068341e-17 0.8958616087158322 0.4443331835783935
12621598666.666666 0.9002221812344509 0.4354308491750646 -9.850482457095928e-17 -1.5943953534797784e-17 -9.850482457095928e-17 -1.5943953534797784e-17 0.9002218949273493 0.43543144109405024
12622216000.0 0.9044940119444694 0.42648632141773096 -9.86400514039846e-17 -1.49550998317351e-17 -9.86400514039846e-17 -1.49550998317351e-17 0.9044937315323378 0.42648691611646916
12622833333.333334 0.9086769732998236 0.41749989005328136 -9.876535854179129e-17 -1.3965137028712825e-17 -9.876535854179129e-17 -1.3965137028712825e-17 0.9086766988096353 0.4175004874730719
12623450666.666666 0.9127706543115867 0.40847243802664046 -9.888073733322346e-17 -1.2974164564988576e-17 -9.888073733322346e-17 -1.2974164564988576e-17 0.9127703857697308 0.4084730381085217
12624068000.0 0.9167746527628957 0.3994048523131665 -9.898618012324753e-17 -1.1982281941860088e-17 -9.898618012324753e-17 -1.1982281941860088e-17 0.9167743901951738 0.399405454997921
12624685333.333334 0.9206885752485455 0.39029802383132 -9.908168025332568e-17 -1.0989588712701976e-17 -9.908168025332568e-17 -1.0989588712701976e-17 0.9206883186801706 0.39029862905948054
12625302666.666666 0.9245120372134967 0.3811528473554666 -9.916723206169039e-17 -9.996184473015624e-18 -9.916723206169039e-17 -9.996184473015624e-18 0.9245117866690897 0.3811534550673219
12625920000.0 0.9282446629907948 0.37197022142765074 -9.924283088352274e-17 -9.002168850424921e-18 -9.924283088352274e-17 -9.002168850424921e-18 0.9282444184943818 0.37197083156325106
12626537333.333334 0.9318860858383896 0.36275104826951865 -9.930847305102754e-17 -8.00764149472649e-18 -9.930847305102754e-17 -8.00764149472649e-18 0.931885847413401 0.3627516607686824
12627154666.666666 0.9354359479752062 0.3534962336935961 -9.936415589341037e-17 -7.012702067910429e-18 -9.936415589341037e-17 -7.012702067910429e-18 0.9354357156444721 0.35349684849591484
12627772000.0 0.938893900616323 0.34420668701420726 -9.940987773675519e-17 -6.017450234183758e-18 -9.940987773675519e-17 -6.017450234183758e-18 0.9388936744020743 0.3442073040590526
12628389333.333334 0.942259604007165 0.3348833209583462 -9.94456379038006e-17 -5.0219856500286555e-18 -9.94456379038006e-17 -5.0219856500286555e-18 0.942259383931029 0.33488394018487544
12629006666.666666 0.9455327274570015 0.325527051575678 -9.947143671361944e-17 -4.0264079542088034e-18 -9.947143671361944e-17 -4.0264079542088034e-18 0.9455325135399998 0.32552767292283974
12629624000.0 0.9487129493713015 0.3161387981489078 -9.948727548119558e-17 -3.0308167578549137e-18 -9.948727548119558e-17 -3.0308167578549137e-18 0.9487127416338496 0.31613942155544855
12630241333.333334 0.951799957283448 0.30671948310313774 -9.949315651690443e-17 -2.03531163448339e-18 -9.949315651690443e-17 -2.03531163448339e-18 0.9517997557453515 0.3067201085076075
12630858666.666666 0.9547934478853529 0.2972700319154772 -9.948908312589167e-17 -1.039992110084849e-18 -9.948908312589167e-17 -1.039992110084849e-18 0.9547932525658068 0.29727065925623586
12631476000.0 0.9576931270573312 0.287791373023896 -9.947505960735481e-17 -4.495765315624475e-20 -9.947505960735481e-17 -4.495765315624475e-20 0.9576929379749172 0.28779200223911905
12632093333.333334 0.9604987098969375 0.2782844377361923 -9.945109125372411e-17 9.496923351725535e-19 -9.945109125372411e-17 9.496923351725535e-19 0.9604985270696224 0.278285068763877
12632710666.666666 0.9632099207469837 0.2687501601384065 -9.941718434974568e-17 1.9438585310835763e-18 -9.941718434974568e-17 1.9438585310835763e-18 0.9632097441921189 0.26875079291637827
12633328000.0 0.9658264932226421 0.25918947700299116 -9.937334617146463e-17 2.9374416979756705e-18 -9.937334617146463e-17 2.9374416979756705e-18 0.9658263229569606 0.25919011146890963
12633945333.333334 0.9683481702375899 0.2496033276968505 -9.93195849851109e-17 3.930342696317274e-18 -9.93195849851109e-17 3.930342696317274e-18 0.9683480062772063 0.24960396378821575
12634562666.666666 0.9707747040292877 0.23999265408899126 -9.925591004588527e-17 4.922462493550633e-18 -9.925591004588527e-17 4.922462493550633e-18 0.9707745463896944 0.23999329174314948
12635180000.0 0.9731058561832925 0.23035840045809022 -9.91823315966477e-17 5.913702173939053e-18 -9.91823315966477e-17 5.913702173939053e-18 0.9731057048793598 0.2303590396122402
12635797333.333334 0.9753413976567338 0.22070151339952376 -9.909886086650757e-17 6.9039629484043075e-18 -9.909886086650757e-17 6.9039629484043075e-18 0.9753412527027064 0.22070215399072282
12636414666.666666 0.9774811088007633 0.21102294173255373 -9.90055100693157e-17 7.89314616435884e-18 -9.90055100693157e-17 7.89314616435884e-18 0.9774809702102638 0.21102358369772478
12637032000.0 0.9795247793821671 0.20132363640702225 -9.890229240205742e-17 8.881153315523228e-18 -9.890229240205742e-17 8.881153315523228e-18 0.9795246471681898 0.20132427968295902
12637649333.333334 0.981472208604026 0.19160455040986082 -9.87892220431507e-17 9.867886051697088e-18 -9.87892220431507e-17 9.867886051697088e-18 0.9814720827789383 0.1916051949332346
12638266666.666666 0.9833232051254338 0.18186663867151234 -9.866631415064386e-17 1.0853246188549949e-17 -9.866631415064386e-17 1.0853246188549949e-17 0.9833230857009723 0.18186728437887761
12638884000.0 0.9850775870802803 0.1721108579721895 -9.853358486031796e-17 1.1837135717360765e-17 -9.853358486031796e-17 1.1837135717360765e-17 0.9850774740675537 0.17211150479999118
12639501333.333334 0.9867351820951593 0.16233816684767355 -9.839105128369079e-17 1.281945681475572e-17 -9.839105128369079e-17 1.281945681475572e-17 0.9867350755046447 0.16233881473225234
12640118666.666666 0.9882958273062584 0.1525495254953862 -9.823873150592905e-17 1.3800111852387398e-17 -9.823873150592905e-17 1.3800111852387398e-17 0.9882957271478011 0.1525501743729854
12640736000.0 0.9897593693754233 0.14274589567968335 -9.807664458365085e-17 1.4779003406679966e-17 -9.807664458365085e-17 1.4779003406679966e-17 0.9897592756582346 0.14274654548645474
12641353333.333334 0.9911256645051388 0.13292824063786332 -9.790481054265254e-17 1.575603426841344e-17 -9.790481054265254e-17 1.575603426841344e-17 0.9911255772377978 0.1329288913098738
12641970666.666666 0.9923945784527405 0.12309752498502072 -9.772325037552015e-17 1.6731107452408173e-17 -9.772325037552015e-17 1.6731107452408173e-17 0.9923944976431913 0.12309817645825832
12642588000.0 0.9935659865435491 0.1132547146196355 -9.753198603915513e-17 1.770412620712196e-17 -9.753198603915513e-17 1.770412620712196e-17 0.9935659121990997 0.11325536683001582
12643205333.333334 0.9946397736831454 0.10340077662847307 -9.733104045220322e-17 1.8674994024225493e-17 -9.733104045220322e-17 1.8674994024225493e-17 0.9946397058104693 0.10340142951184557
12643822666.666666 0.9956158343686828 0.09353667919153676 -9.712043749238708e-17 1.9643614648158172e-17 -9.712043749238708e-17 1.9643614648158172e-17 0.9956157729738166 0.09353733268369106
12644440000.0 0.9964940726992284 0.08366339148716724 -9.690020199374439e-17 2.0609892085654965e-17 -9.690020199374439e-17 2.0609892085654965e-17 0.9964940177875706 0.08366404552383928
12645057333.333334 0.9972744023852055 0.07378188359659123 -9.667035974377258e-17 2.1573730615234958e-17 -9.667035974377258e-17 2.1573730615234958e-17 0.9972743539615189 0.07378253811346996
12645674666.666666 0.9979567467568597 0.06389312640883514 -9.643093748048046e-17 2.2535034796656387e-17 -9.643093748048046e-17 2.2535034796656387e-17 0.9979567048252675 0.0638937813415684
12646292000.0 0.9985410387718153 0.05399809152493495 -9.618196288933558e-17 2.3493709480383652e-17 -9.618196288933558e-17 2.3493709480383652e-17 0.9985410033358034 0.053998746809136126
12646909333.333334 0.999027221021631 0.04409775116292699 -9.592346460013711e-17 2.4449659816942246e-17 -9.592346460013711e-17 2.4449659816942246e-17 0.9990271920840479 0.04409840673418125
12647526666.666666 0.9994152457374603 0.03419307806212641 -9.565547218378027e-17 2.5402791266302926e-17 -9.565547218378027e-17 2.5402791266302926e-17 0.9994152233005135 0.0341937338559969
12648144000.0 0.9997050747947426 0.024285045387410054 -9.53780161489289e-17 2.63530096072257e-17 -9.53780161489289e-17 2.63530096072257e-17 0.9997050588600027 0.024285701339444434
12648761333.333334 0.9998966797169441 0.014374626633799011 -9.509112793860511e-17 2.730022094653302e-17 -9.509112793860511e-17 2.730022094653302e-17 0.9998966702853418 0.014375282679535653
12649378666.666666 0.9999900416783557 0.004462795530894891 -9.479483992667991e-17 2.8244331728373795e-17 -9.479483992667991e-17 2.8244331728373795e-17 0.9999900387501831 0.004463451605869256
12649996000.0 0.999985151505948 -0.005449474053104662 -9.448918541427216e-17 2.918524874344714e-17 -9.448918541427216e-17 2.918524874344714e-17 0.9999851550808581 -0.005448818013353694
12650613333.333334 0.9998820096802694 -0.015361208206921105 -9.41741986260555e-17 3.012287913819357e-17 -9.41741986260555e-17 3.012287913819357e-17 0.9998820197572752 -0.01536055226684489
12651230666.666666 0.999680626335398 -0.02527143307168582 -9.384991470648186e-17 3.105713042391994e-17 -9.384991470648186e-17 3.105713042391994e-17 0.9996806429128758 -0.02527077729571965
12651848000.0 0.9993810212579474 -0.03517917493707956 -9.35163697159029e-17 3.1987910485921817e-17 -9.35163697159029e-17 3.1987910485921817e-17 0.9993810443336332 -0.03517851938963628
12652465333.333334 0.9989832238851181 -0.04508346033666132 -9.317360062661016e-17 3.2915127592538385e-17 -9.317360062661016e-17 3.2915127592538385e-17 0.9989832534561114 -0.04508280508212508
12653082666.666666 0.9984872733018187 -0.05498331614342949 -9.282164531878618e-17 3.3838690404165625e-17 -9.282164531878618e-17 3.3838690404165625e-17 0.9984873093645814 -0.054982661246149415
12653700000.0 0.9978932182368058 -0.06487776966588897 -9.246054257635587e-17 3.4758507982252834e-17 -9.246054257635587e-17 3.4758507982252834e-17 0.9978932607871603 -0.06487711519017272
12654317333.333334 0.9972011170579126 -0.0747658487431383 -9.209033208276508e-17 3.56744897982166e-17 -9.209033208276508e-17 3.56744897982166e-17 0.9972011660910448 -0.07476519475324583
12654934666.666666 0.9964110377663099 -0.08464658184058631 -9.171105441665582e-17 3.658654574234651e-17 -9.171105441665582e-17 3.658654574234651e-17 0.9964110932767709 -0.08464592840072371
12655552000.0 0.9955230579898119 -0.09451899814557863 -9.132275104745828e-17 3.7494586132655375e-17 -9.132275104745828e-17 3.7494586132655375e-17 0.9955231199715153 -0.09451834531989158
12656169333.333334 0.9945372649752708 -0.10438212766244263 -9.092546433091111e-17 3.8398521723644056e-17 -9.092546433091111e-17 3.8398521723644056e-17 0.9945373334214959 -0.10438147551501019
12656786666.666666 0.9934537555799936 -0.11423500130799119 -9.051923750446451e-17 3.92982637150948e-17 -9.051923750446451e-17 3.92982637150948e-17 0.9934538304833853 -0.11423434990281967
12657404000.0 0.9922726362622193 -0.1240766510067662 -9.010411468262177e-17 4.019372376075398e-17 -9.010411468262177e-17 4.019372376075398e-17 0.992272717614789 -0.12407600040778267
12658021333.333334 0.9909940230706622 -0.1339061097861266 -8.968014085218825e-17 4.1084813976984615e-17 -8.968014085218825e-17 4.1084813976984615e-17 0.9909941108637866 -0.13390546005717255
12658638666.666666 0.9896180416331368 -0.14372241187103096 -8.924736186743329e-17 4.1971446951374517e-17 -8.924736186743329e-17 4.1971446951374517e-17 0.9896181358575631 -0.14372176307585638
12659256000.0 0.9881448271441574 -0.15352459277937866 -8.880582444515817e-17 4.285353575130852e-17 -8.880582444515817e-17 4.285353575130852e-17 0.9881449277900011 -0.15352394498163552
12659873333.333334 0.9865745243516986 -0.16331168941643526 -8.835557615970457e-17 4.3730993932441936e-17 -8.835557615970457e-17 4.3730993932441936e-17 0.986574631408445 -0.16331104267967136
12660490666.666666 0.9849072875429905 -0.17308274016937583 -8.789666543785646e-17 4.460373554716718e-17 -8.789666543785646e-17 4.460373554716718e-17 0.9849074009994961 -0.17308209455702842
12661108000.0 0.9831432805292849 -0.18283678500221504 -8.74291415536575e-17 4.54716751530297e-17 -8.74291415536575e-17 4.54716751530297e-17 0.9831434003737789 -0.1828361405776048
12661725333.333334 0.9812826766298411 -0.19257286554965716 -8.695305462317611e-17 4.633472782103035e-17 -8.695305462317611e-17 4.633472782103035e-17 0.9812828028499253 -0.1925722223759819
12662342666.666666 0.9793256586548568 -0.20229002521148262 -8.646845559914536e-17 4.71928091439579e-17 -8.646845559914536e-17 4.71928091439579e-17 0.9793257912375096 -0.20228938335181113
12662960000.0 0.9772724188875037 -0.21198730924656486 -8.597539626555277e-17 4.804583524460392e-17 -8.597539626555277e-17 4.804583524460392e-17 0.9772725578190788 -0.21198666876383074
12663577333.333334 0.975123159065042 -0.22166376486662046 -8.547392923214224e-17 4.889372278393641e-17 -8.547392923214224e-17 4.889372278393641e-17 0.9751233043312699 -0.2216631258236157
12664194666.666666 0.9728780903590187 -0.2313184413297404 -8.496410792882439e-17 4.973638896923629e-17 -8.496410792882439e-17 4.973638896923629e-17 0.9728782419450102 -0.23131780378910957
12664812000.0 0.9705374333544836 -0.24095039003397 -8.44459866000208e-17 5.057375156215137e-17 -8.44459866000208e-17 5.057375156215137e-17 0.9705375912447296 -0.24094975405820407
12665429333.333334 0.9681014180283265 -0.2505586646104564 -8.3919620298919e-17 5.140572888670881e-17 -8.3919620298919e-17 5.140572888670881e-17 0.9681015822066991 -0.2505580302618861
12666046666.666666 0.9655702837267359 -0.2601423210162113 -8.3385064881667e-17 5.223223983723981e-17 -8.3385064881667e-17 5.223223983723981e-17 0.9655704541764929 -0.2601416883570019
12666664000.0 0.9629442791415666 -0.26970041762733504 -8.284237700145074e-17 5.30532038863057e-17 -8.284237700145074e-17 5.30532038863057e-17 0.9629444558453502 -0.26969978671947964
12667281333.333334 0.9602236622860231 -0.2792320153310661 -8.229161410254514e-17 5.386854109248275e-17 -8.229161410254514e-17 5.386854109248275e-17 0.9602238452258621 -0.27923138623637944
12667898666.666666 0.9574087004692599 -0.28873617761824405 -8.173283441425242e-17 5.4678172108142064e-17 -8.173283441425242e-17 5.4678172108142064e-17 0.9574088896265733 -0.2887355503983569
12668516000.0 0.9544996702700705 -0.2982119706754887 -8.116609694476544e-17 5.548201818716447e-17 -8.116609694476544e-17 5.548201818716447e-17 0.9544998656256678 -0.29821134539184163
12669133333.333334 0.9514968575098052 -0.30765846347662196 -8.05914614749837e-17 5.628000119255062e-17 -8.05914614749837e-17 5.628000119255062e-17 0.95149705904389 -0.3076578401904597
12669750666.666666 0.9484005572242387 -0.3170747278743369 -8.000898855222492e-17 5.70720436040112e-17 -8.000898855222492e-17 5.70720436040112e-17 0.9484007649164076 -0.3170741066467013
12670368000.0 0.9452110736345459 -0.32645983869146883 -7.941873948386977e-17 5.785806852548076e-17 -7.941873948386977e-17 5.785806852548076e-17 0.9452112874637936 -0.3264592195831939
