! Parameters = {f0=12700.012000; bw=77.238000; Q=6100.000000; N=10; m_0_1=1.347843; m_1_1=1.452897; m_1_2=1.182655; m_2_2=1.452248; m_2_3=0.819618; m_2_8=0.004456; m_2_9=0.041160; m_3_3=1.450311; m_3_4=0.708147; m_3_7=0.005056; m_3_8=-0.092032; m_3_9=0.004456; m_4_4=1.447386; m_4_5=0.544482; m_4_6=0.008573; m_4_7=-0.112581; m_4_8=0.005056; m_5_5=1.447768; m_5_6=0.951837; m_5_7=0.008573; m_6_6=1.447767; m_6_7=0.544824; m_7_7=1.447400; m_7_8=0.708265; m_8_8=1.450309; m_8_9=0.819931; m_9_9=1.452243; m_9_10=1.183733; m_10_10=1.452887; m_10_11=1.348638}
!
! Created with skrf (http://scikit-rf.org).
# Hz S RI R 50.0 
!freq ReS11 ImS11 ReS21 ImS21 ReS12 ImS12 ReS22 ImS22
12607400000.0 -0.650776529446544 -0.759269325550106 1.3225679408115113e-16 8.555461103386175e-17 1.3225679408115113e-16 8.555461103386175e-17 -0.6507759903851451 -0.7592697875841199
12608017333.333334 -0.6604597613968436 -0.7508614409965567 1.333243841967374e-16 8.382329537484864e-17 1.333243841967374e-16 8.382329537484864e-17 -0.6604592283309151 -0.7508619098824588
12608634666.666666 -0.6700343757813696 -0.7423300716467517 1.3436932632458663e-16 8.207868121626939e-17 1.3436932632458663e-16 8.207868121626939e-17 -0.6700338487979864 -0.7423305473067626
12609252000.0 -0.6794987979830165 -0.7336766205484788 1.3539145512279798e-16 8.032106462178705e-17 1.3539145512279798e-16 8.032106462178705e-17 -0.6794982771682456 -0.7336771029037139
12609869333.333334 -0.6888514715066534 -0.7249025108267456 1.363906091171256e-16 7.855074370664411e-17 1.363906091171256e-16 7.855074370664411e-17 -0.6888509569455383 -0.7249029997972258
12610486666.666666 -0.6980908582348934 -0.7160091854499285 1.3736663072639366e-16 7.676801858714755e-17 1.3736663072639366e-16 7.676801858714755e-17 -0.698090350011442 -0.7160096809545963
12611104000.0 -0.7072154386815047 -0.706998106992039 1.3831936628724978e-16 7.497319132983847e-17 1.3831936628724978e-16 7.497319132983847e-17 -0.7072149368786739 -0.7069986089487692
12611721333.333334 -0.7162237122407249 -0.69787075739274 1.392486660782178e-16 7.316656590042756e-17 1.392486660782178e-16 7.316656590042756e-17 -0.7162232169404061 -0.6978712657183535
12612338666.666666 -0.7251141974344552 -0.6886286377132352 1.4015438434312338e-16 7.134844811236374e-17 1.4015438434312338e-16 7.134844811236374e-17 -0.7251137087174652 -0.6886291523235161
12612956000.0 -0.733885432155898 -0.6792732678894058 1.4103637931384793e-16 6.951914557511425e-17 1.4103637931384793e-16 6.951914557511425e-17 -0.7338849501019605 -0.6792737886991104
12613573333.333334 -0.7425359739096545 -0.6698061864822109 1.4189451323237346e-16 6.76789676422377e-17 1.4189451323237346e-16 6.76789676422377e-17 -0.7425354985973919 -0.6698067134050865
12614190666.666666 -0.7510644000493502 -0.6602289504242532 1.4272865237218597e-16 6.582822535911458e-17 1.4272865237218597e-16 6.582822535911458e-17 -0.7510639315562673 -0.6602294833730493
12614808000.0 -0.7594693080114009 -0.6505431347639332 1.4353866705899866e-16 6.396723141041652e-17 1.4353866705899866e-16 6.396723141041652e-17 -0.7594688464138739 -0.650543673650417
12615425333.333334 -0.7677493155457524 -0.6407503324063367 1.443244316907532e-16 6.209630006740325e-17 1.443244316907532e-16 6.209630006740325e-17 -0.767748860919016 -0.6407508771413071
12616042666.666666 -0.7759030609430528 -0.6308521538514412 1.4508582475699112e-16 6.021574713485455e-17 1.4508582475699112e-16 6.021574713485455e-17 -0.7759026133611887 -0.6308527043447457
12616660000.0 -0.7839292032588205 -0.6208502269290017 1.4582272885748023e-16 5.832588989788923e-17 1.4582272885748023e-16 5.832588989788923e-17 -0.783928762794743 -0.6208507830895476
12617277333.333334 -0.7918264225338546 -0.6107461965309641 1.465350307201885e-16 5.64270470684684e-17 1.465350307201885e-16 5.64270470684684e-17 -0.7918259892593023 -0.6107467582667372
12617894666.666666 -0.7995934200111797 -0.6005417243411372 1.4722262121854316e-16 5.451953873173164e-17 1.4722262121854316e-16 5.451953873173164e-17 -0.799592993996701 -0.6005422915592148
12618512000.0 -0.8072289183500156 -0.590238488561417 1.4788539538800835e-16 5.260368629207415e-17 1.4788539538800835e-16 5.260368629207415e-17 -0.8072284996649576 -0.5902390611679841
12619129333.333334 -0.8147316618353617 -0.5798381836364285 1.4852325244193523e-16 5.067981241911027e-17 1.4852325244193523e-16 5.067981241911027e-17 -0.8147312505478599 -0.5798387615367928
12619746666.666666 -0.8221004165848547 -0.5693425199744082 1.491360957867321e-16 4.874824099337936e-17 1.491360957867321e-16 4.874824099337936e-17 -0.8221000127618224 -0.5693431030730174
12620364000.0 -0.8293339707516836 -0.5587532236659111 1.4972383303634625e-16 4.680929705182023e-17 1.4972383303634625e-16 4.680929705182023e-17 -0.8293335744587985 -0.5587538118663659
12620981333.333334 -0.8364311347235913 -0.5480720362003594 1.5028637602597037e-16 4.4863306733286376e-17 1.5028637602597037e-16 4.4863306733286376e-17 -0.8364307460252872 -0.5480726294054314
12621598666.666666 -0.8433907413188438 -0.5373007141791775 1.5082364082513464e-16 4.291059722360146e-17 1.5082364082513464e-16 4.291059722360146e-17 -0.8433903602782994 -0.5373013122908252
12622216000.0 -0.8502116459780176 -0.5264410290271377 1.513355477500061e-16 4.0951496700725693e-17 1.513355477500061e-16 4.0951496700725693e-17 -0.8502112726571459 -0.5264416319465226
12622833333.333334 -0.8568927269522956 -0.5154947667009433 1.5182202137503376e-16 3.898633427958187e-17 1.5182202137503376e-16 3.898633427958187e-17 -0.8568923614117342 -0.515495374328445
12623450666.666666 -0.8634328854878262 -0.5044637273957057 1.5228299054382718e-16 3.7015439956935673e-17 1.5228299054382718e-16 3.7015439956935673e-17 -0.863432527786927 -0.5044643396309398
12624068000.0 -0.8698310460065992 -0.4933497252485984 1.527183883793764e-16 3.50391445559353e-17 1.527183883793764e-16 3.50391445559353e-17 -0.8698306962034195 -0.49335034199043276
12624685333.333334 -0.8760861562832168 -0.48215458804070427 1.531281522935087e-16 3.305777967070728e-17 1.531281522935087e-16 3.305777967070728e-17 -0.8760858144345088 -0.4821552091872751
12625302666.666666 -0.8821971876179663 -0.4708801568963728 1.535122239956419e-16 3.107167761080315e-17 1.535122239956419e-16 3.107167761080315e-17 -0.88219685377917 -0.4708807823451026
12625920000.0 -0.8881631350060265 -0.45952828598038414 1.5387054950083224e-16 2.908117134546063e-17 1.5387054950083224e-16 2.908117134546063e-17 -0.8881628092312577 -0.4595289156279973
12626537333.333334 -0.8939830173026391 -0.4481008421932176 1.5420307913707115e-16 2.7086594447943108e-17 1.5420307913707115e-16 2.7086594447943108e-17 -0.8939826996446839 -0.44810147593575883
12627154666.666666 -0.8996558773846306 -0.4365997048637272 1.545097675518937e-16 2.5088281039625254e-17 1.545097675518937e-16 2.5088281039625254e-17 -0.8996555678949327 -0.43660034259657704
12627772000.0 -0.9051807823077277 -0.4250267654402174 1.5479057371824516e-16 2.308656573409623e-17 1.5479057371824516e-16 2.308656573409623e-17 -0.9051804810363847 -0.4250274070581111
12628389333.333334 -0.9105568234598989 -0.4133839271795899 1.5504546093962147e-16 2.108178358124719e-17 1.5504546093962147e-16 2.108178358124719e-17 -0.9105565304556522 -0.4133845725766344
12629006666.666666 -0.9157831167110239 -0.4016731048338245 1.552743968545021e-16 1.9074270011184494e-17 1.552743968545021e-16 1.9074270011184494e-17 -0.9157828320212497 -0.4016737539035152
12629624000.0 -0.9208588025580512 -0.38989622433559684 1.5547735344004065e-16 1.7064360778242598e-17 1.5547735344004065e-16 1.7064360778242598e-17 -0.9208585262287534 -0.38989687697083525
12630241333.333334 -0.925783046266492 -0.3780552224812344 1.5565430701504775e-16 1.5052391904823552e-17 1.5565430701504775e-16 1.5052391904823552e-17 -0.9257827783422962 -0.37805587857434686
12630858666.666666 -0.9305550380075704 -0.366152046612512 1.5580523824223356e-16 1.3038699625355112e-17 1.5580523824223356e-16 1.3038699625355112e-17 -0.9305547785317146 -0.36615270605526606
12631476000.0 -0.9351739929916362 -0.3541886542958155 1.559301321297403e-16 1.1023620330085078e-17 1.559301321297403e-16 1.1023620330085078e-17 -0.9351737420059659 -0.35418931697943906
12632093333.333334 -0.9396391515969573 -0.3421670130008922 1.5602897803193476e-16 9.007490509048725e-18 1.5602897803193476e-16 9.007490509048725e-18 -0.9396389091419164 -0.3421676788160903
12632710666.666666 -0.9439497794947737 -0.33008909977696976 1.5610176964949085e-16 6.99064669586434e-18 1.5610176964949085e-16 6.99064669586434e-18 -0.9439495456094013 -0.3300897686139438
12633328000.0 -0.9481051677701574 -0.31795690092734746 1.5614850502873806e-16 4.973425411640822e-18 1.5614850502873806e-16 4.973425411640822e-18 -0.9481049424920788 -0.31795757267581237
12633945333.333334 -0.9521046330384418 -0.30577241168316055 1.5616918656028893e-16 2.9561631089005532e-18 1.5616918656028893e-16 2.9561631089005532e-18 -0.9521044164038619 -0.3057730862323628
12634562666.666666 -0.9559475175576334 -0.29353763587519727 1.5616382097694241e-16 9.391961155533145e-19 1.5616382097694241e-16 9.391961155533145e-19 -0.9559473096013335 -0.2935383131139342
12635180000.0 -0.9596331893366735 -0.28125458560408517 1.561324193508664e-16 -1.077139421175859e-18 1.561324193508664e-16 -1.077139421175859e-18 -0.9596329900920042 -0.2812552654207225
12635797333.333334 -0.9631610422393 -0.2689252809096009 1.5607499709005492e-16 -3.092507590642578e-18 1.5607499709005492e-16 -3.092507590642578e-18 -0.9631608517381754 -0.26892596319209106
12636414666.666666 -0.9665304960837624 -0.2565517494383501 1.5599157393406759e-16 -5.106572774715346e-18 1.5599157393406759e-16 -5.106572774715346e-18 -0.9665303143566571 -0.25655243407425155
12637032000.0 -0.9697409967381824 -0.24413602611052693 1.5588217394904628e-16 -7.118999703583962e-18 1.5588217394904628e-16 -7.118999703583962e-18 -0.9697408238141232 -0.24413671298702155
12637649333.333334 -0.972792016211768 -0.23168015278492507 1.5574682552201216e-16 -9.129453511541246e-18 1.5574682552201216e-16 -9.129453511541246e-18 -0.9727918521183334 -0.23168084178883772
12638266666.666666 -0.9756830527415921 -0.2191861779233596 1.5558556135444892e-16 -1.1137599792587047e-17 1.5558556135444892e-16 -1.1137599792587047e-17 -0.9756828975049041 -0.2191868689411761
12638884000.0 -0.978413630875121 -0.20665615625372638 1.553984184551652e-16 -1.3143104656013629e-17 1.553984184551652e-16 -1.3143104656013629e-17 -0.9784134845198438 -0.20665684917161262
12639501333.333334 -0.980983301548421 -0.19409214843203146 1.5518543813244186e-16 -1.5145634781883424e-17 1.5518543813244186e-16 -1.5145634781883424e-17 -0.9809831640977552 -0.19409284313585182
12640118666.666666 -0.9833916421599415 -0.18149622070383464 1.5494666598547198e-16 -1.714485747630163e-17 1.5494666598547198e-16 -1.714485747630163e-17 -0.9833915136356214 -0.18149691707917112
12640736000.0 -0.9856382566401894 -0.16887044456354774 1.546821518950761e-16 -1.9140440726703968e-17 1.546821518950761e-16 -1.9140440726703968e-17 -0.9856381370624783 -0.16887114249571844
12641353333.333334 -0.9877227755166099 -0.15621689641510145 1.5439195001372948e-16 -2.1132053256824612e-17 1.5439195001372948e-16 -2.1132053256824612e-17 -0.9877226649042992 -0.15621759578917982
12641970666.666666 -0.9896448559745702 -0.14353765722929215 1.5407611875485124e-16 -2.311936458174832e-17 1.5407611875485124e-16 -2.311936458174832e-17 -0.9896447543449745 -0.1435383579301257
12642588000.0 -0.9914041819136337 -0.13083481220210968 1.5373472078141877e-16 -2.5102045062580914e-17 1.5373472078141877e-16 -2.5102045062580914e-17 -0.9914040892825885 -0.13083551411433897
12643205333.333334 -0.9930004639995631 -0.11811045041169874 1.5336782299385302e-16 -2.7079765961132855e-17 1.5336782299385302e-16 -2.7079765961132855e-17 -0.9930003803814235 -0.11811115341977642
12643822666.666666 -0.9944334397119089 -0.10536666447479522 1.5297549651721664e-16 -2.9052199494334844e-17 1.5297549651721664e-16 -2.9052199494334844e-17 -0.9944333651195454 -0.10536736846300496
12644440000.0 -0.9957028733871819 -0.09260555020252227 1.5255781668771316e-16 -3.101901888848209e-17 1.5255781668771316e-16 -3.101901888848209e-17 -0.9957028078319807 -0.09260625505499798
12645057333.333334 -0.996808556257594 -0.07982920625594546 1.521148630384806e-16 -3.297989843333256e-17 1.521148630384806e-16 -3.297989843333256e-17 -0.9968084997494527 -0.07982991185669004
12645674666.666666 -0.9977503064854192 -0.06703973380059222 1.5164671928470085e-16 -3.493451353596356e-17 1.5164671928470085e-16 -3.493451353596356e-17 -0.9977502590327487 -0.06704044003349709
12646292000.0 -0.9985279691928814 -0.054239236161126095 1.5115347330800162e-16 -3.688254077448112e-17 1.5115347330800162e-16 -3.688254077448112e-17 -0.9985279308026007 -0.05423994290998986
12646909333.333334 -0.9991414164876284 -0.04142981847532561 1.5063521714020613e-16 -3.882365795137601e-17 1.5063521714020613e-16 -3.882365795137601e-17 -0.9991413871651655 -0.04143052562387342
12647526666.666666 -0.9995905474837544 -0.02861358734816262 1.5009204694634514e-16 -4.075754414686098e-17 1.5009204694634514e-16 -4.075754414686098e-17 -0.9995905272330471 -0.028614294780065275
12648144000.0 -0.9998752883184165 -0.015792650504787425 1.495240630070295e-16 -4.2683879771802214e-17 1.495240630070295e-16 -4.2683879771802214e-17 -0.9998752771419099 -0.01579335810368048
12648761333.333334 -0.9999955921639572 -0.002969116444408621 1.4893136970013184e-16 -4.460234662046039e-17 1.4893136970013184e-16 -4.460234662046039e-17 -0.9999955900626032 -0.002969824093911504
12649378666.666666 -0.9999514392356141 0.009854905906522002 1.4831407548178545e-16 -4.651262792300605e-17 1.4831407548178545e-16 -4.651262792300605e-17 -0.9999514462088738 0.009854198322786825
12649996000.0 -0.9997428367947802 0.022677307541422487 1.476722928667071e-16 -4.841440839778322e-17 1.476722928667071e-16 -4.841440839778322e-17 -0.9997428528406203 0.02267660013981037
12650613333.333334 -0.9993698191477975 0.03549597972025206 1.4700613840787455e-16 -5.0307374303228685e-17 1.4700613840787455e-16 -5.0307374303228685e-17 -0.9993698442626946 0.03549527261707708
12651230666.666666 -0.998832447640332 0.04830881431608216 1.4631573267551688e-16 -5.219121348959071e-17 1.4631573267551688e-16 -5.219121348959071e-17 -0.9988324818192704 0.04830810762759792
12651848000.0 -0.9981308106472612 0.06111370416236169 1.4560120023543975e-16 -5.4065615450361064e-17 1.4560120023543975e-16 -5.4065615450361064e-17 -0.9981308538837356 0.061112998004742236
12652465333.333334 -0.9972650235581552 0.07390854339894481 1.44862669626723e-16 -5.593027137333918e-17 1.44862669626723e-16 -5.593027137333918e-17 -0.9972650758441732 0.07390783788826573
12653082666.666666 -0.9962352287583126 0.08669122781847317 1.4410027333873589e-16 -5.778487419146835e-17 1.4410027333873589e-16 -5.778487419146835e-17 -0.996235290084392 0.08669052307069212
12653700000.0 -0.9950415956053151 0.09945965521271154 1.4331414778750275e-16 -5.962911863336087e-17 1.4331414778750275e-16 -5.962911863336087e-17 -0.9950416659604884 0.09945895134364947
12654317333.333334 -0.9936843204011931 0.11221172571804489 1.4250443329145282e-16 -6.146270127343062e-17 1.4250443329145282e-16 -6.146270127343062e-17 -0.9936843997730104 0.11221102284336702
12654934666.666666 -0.9921636263601401 0.12494534216087372 1.416712740465005e-16 -6.32853205817724e-17 1.416712740465005e-16 -6.32853205817724e-17 -0.99216371473467 0.12494464039607055
12655552000.0 -0.9904797635717966 0.1376584104025662 1.408148181004863e-16 -6.509667697370469e-17 1.408148181004863e-16 -6.509667697370469e-17 -0.990479860933626 0.13765770986293416
12656169333.333334 -0.9886330089601447 0.15034883968362925 1.3993521732702387e-16 -6.689647285888953e-17 1.3993521732702387e-16 -6.689647285888953e-17 -0.9886331152923874 0.1503481404842523
12656786666.666666 -0.9866236662379299 0.16301454296788834 1.390326273986636e-16 -6.868441269022018e-17 1.390326273986636e-16 -6.868441269022018e-17 -0.986623781522224 0.1630138452236187
12657404000.0 -0.9844520658567361 0.1756534372854901 1.381072077594894e-16 -7.046020301222998e-17 1.381072077594894e-16 -7.046020301222998e-17 -0.9844521900732506 0.17565274111092957
12658021333.333334 -0.9821185649526266 0.18826344407557538 1.3715912159705704e-16 -7.22235525092211e-17 1.3715912159705704e-16 -7.22235525092211e-17 -0.9821186980800629 0.1882627495850564
12658638666.666666 -0.9796235472874594 0.20084248952783385 1.3618853581374206e-16 -7.397417205297065e-17 1.3618853581374206e-16 -7.397417205297065e-17 -0.9796236893030558 0.20084179683540085
12659256000.0 -0.9769674231856722 0.2133885049241171 1.351956209974587e-16 -7.571177475009206e-17 1.351956209974587e-16 -7.571177475009206e-17 -0.9769675740652082 0.21338781414350771
12659873333.333334 -0.9741506294668937 0.22589942697815132 1.341805513917936e-16 -7.743607598897484e-17 1.341805513917936e-16 -7.743607598897484e-17 -0.974150789184693 0.2258987382227777
12660490666.666666 -0.9711736293741153 0.2383731981748627 1.3314350486556774e-16 -7.914679348628006e-17 1.3314350486556774e-16 -7.914679348628006e-17 -0.9711737979030493 0.2383725115577925
12661108000.0 -0.9680369124973743 0.25080776710930336 1.3208466288171881e-16 -8.084364733318219e-17 1.3208466288171881e-16 -8.084364733318219e-17 -0.9680370898088705 0.2508070827432422
12661725333.333334 -0.9647409946934256 0.26320108882324733 1.3100421046570733e-16 -8.252636004100724e-17 1.3100421046570733e-16 -8.252636004100724e-17 -0.9647411807574693 0.26320040682051954
12662342666.666666 -0.9612864180007551 0.2755511251421068 1.299023361732462e-16 -8.419465658660806e-17 1.299023361732462e-16 -8.419465658660806e-17 -0.9612866127858943 0.27555044561463676
12662960000.0 -0.9576737505505041 0.2878558450098478 1.2877923205752877e-16 -8.584826445719145e-17 1.2877923205752877e-16 -8.584826445719145e-17 -0.9576739540238569 0.2878551680691423
12663577333.333334 -0.9539035864730085 0.30011322482312397 1.2763509363584023e-16 -8.748691369478416e-17 1.2763509363584023e-16 -8.748691369478416e-17 -0.9539037986002665 0.3001125505802533
12664194666.666666 -0.9499765458001534 0.31232124876385453 1.2647011985560324e-16 -8.911033694025464e-17 1.2647011985560324e-16 -8.911033694025464e-17 -0.9499767665455887 0.3123205773294345
12664812000.0 -0.9458932743633048 0.32447790913106683 1.252845130599153e-16 -9.071826947681253e-17 1.252845130599153e-16 -9.071826947681253e-17 -0.9458935036897769 0.3244772406152412
12665429333.333334 -0.9416544436871486 0.33658120667091557 1.2407847895245286e-16 -9.231044927316566e-17 1.2407847895245286e-16 -9.231044927316566e-17 -0.9416546815561079 0.3365805411833367
12666046666.666666 -0.9372607508793276 0.34862915090525975 1.2285222656194292e-16 -9.388661702605662e-17 1.2285222656194292e-16 -9.388661702605662e-17 -0.9372609972508243 0.3486284885550716
12666664000.0 -0.9327129185155868 0.36061976045960065 1.2160596820592518e-16 -9.544651620255289e-17 1.2160596820592518e-16 -9.544651620255289e-17 -0.9327131733482762 0.36061910135542047
12667281333.333334 -0.928011694521214 0.3725510633881867 1.2033991945419936e-16 -9.69898930815723e-17 1.2033991945419936e-16 -9.69898930815723e-17 -0.9280119577723647 0.37255040763808767
12667898666.666666 -0.9231578520478415 0.3844210974988479 1.190542990915295e-16 -9.851649679520229e-17 1.190542990915295e-16 -9.851649679520229e-17 -0.9231581236733425 0.3844204452103413
12668516000.0 -0.9181521893462876 0.39622791067569013 1.1774932907996712e-16 -1.0002607936934631e-16 1.1774932907996712e-16 -1.0002607936934631e-16 -0.9181524693006531 0.3962272619557066
12669133333.333334 -0.9129955296354731 0.4079695611996621 1.164252345206229e-16 -1.0151839576392225e-16 1.164252345206229e-16 -1.0151839576392225e-16 -0.9129958178718544 0.40796891615453607
12669750666.666666 -0.907688720966823 0.41964411806841223 1.1508224361490669e-16 -1.029932039125821e-16 1.1508224361490669e-16 -1.029932039125821e-16 -0.9076890174370124 0.4196434768038629
