! Parameters = {f0=12700.012000; bw=77.238000; Q=6100.000000; N=10; m_0_1=1.180275; m_1_1=-1.060617; m_1_2=1.015087; m_2_2=-1.061266; m_2_3=0.652050; m_2_8=-0.003923; m_2_9=0.032781; m_3_3=-1.063203; m_3_4=0.540579; m_3_7=-0.003323; m_3_8=-0.100411; m_3_9=-0.003923; m_4_4=-1.066128; m_4_5=0.376914; m_4_6=0.000194; m_4_7=-0.120960; m_4_8=-0.003323; m_5_5=-1.065746; m_5_6=0.784269; m_5_7=0.000194; m_6_6=-1.065747; m_6_7=0.377256; m_7_7=-1.066114; m_7_8=0.540697; m_8_8=-1.063205; m_8_9=0.652363; m_9_9=-1.061271; m_9_10=1.016165; m_10_10=-1.060627; m_10_11=1.181070}
!
! Created with skrf (http://scikit-rf.org).
# Hz S RI R 50.0 
!freq ReS11 ImS11 ReS21 ImS21 ReS12 ImS12 ReS22 ImS22
12607400000.0 -0.005828440763147854 -0.9999830144948051 2.056591682970134e-17 6.796473196155458e-17 2.056591682970134e-17 6.796473196155458e-17 -0.005827818781126219 -0.9999830181198587
12608017333.333334 -0.013698493542095683 -0.9999061712353438 2.110206607703179e-17 6.778561391891281e-17 2.110206607703179e-17 6.778561391891281e-17 -0.01369787163832596 -0.9999061797550942
12608634666.666666 -0.021567697784337616 -0.999767390152395 2.1636668204165915e-17 6.760227087802521e-17 2.1636668204165915e-17 6.760227087802521e-17 -0.02156707599733323 -0.9997674035658356
12609252000.0 -0.029435566042783287 -0.9995666798426148 2.2169689952949163e-17 6.741471610780067e-17 2.2169689952949163e-17 6.741471610780067e-17 -0.029434944411046673 -0.9995666981484356
12609869333.333334 -0.03730161095304193 -0.9993040527387829 2.2701098178341684e-17 6.722296313865764e-17 2.2701098178341684e-17 6.722296313865764e-17 -0.03730098951506211 -0.9993040759353702
12610486666.666666 -0.045165345263639814 -0.9989795251090303 2.323085985045694e-17 6.702702576157008e-17 2.323085985045694e-17 6.702702576157008e-17 -0.0451647240578901 -0.9989795531944696
12611104000.0 -0.053026281866401334 -0.998593117055827 2.3758942056622875e-17 6.682691802708712e-17 2.3758942056622875e-17 6.682691802708712e-17 -0.053025660931336815 -0.9985931500278993
12611721333.333334 -0.060883933826281274 -0.9981448525147463 2.4285312003404408e-17 6.662265424434733e-17 2.4285312003404408e-17 6.662265424434733e-17 -0.060883313200336533 -0.9981448903709306
12612338666.666666 -0.06873781441169799 -0.9976347592529797 2.480993701864414e-17 6.641424898006746e-17 2.480993701864414e-17 6.641424898006746e-17 -0.06873719413328469 -0.997634801990453
12612956000.0 -0.07658743712485322 -0.9970628688676026 2.5332784553486896e-17 6.620171705751788e-17 2.5332784553486896e-17 6.620171705751788e-17 -0.07658681723235782 -0.9970629164832403
12613573333.333334 -0.08443231573152739 -0.9964292167836404 2.5853822184367608e-17 6.598507355549312e-17 2.5853822184367608e-17 6.598507355549312e-17 -0.08443169626330858 -0.9964292692740153
12614190666.666666 -0.09227196429139722 -0.9957338422518611 2.6373017615044895e-17 6.576433380724557e-17 2.6373017615044895e-17 6.576433380724557e-17 -0.09227134528578368 -0.9957338996132443
12614808000.0 -0.10010589718816486 -0.9949767883463413 2.6890338678578865e-17 6.55395133994217e-17 2.6890338678578865e-17 6.55395133994217e-17 -0.10010527868345293 -0.9949768505747035
12615425333.333334 -0.1079336291595537 -0.9941581019618033 2.740575333932251e-17 6.531062817097404e-17 2.740575333932251e-17 6.531062817097404e-17 -0.10793301119400486 -0.9941581690528132
12616042666.666666 -0.115754675327424 -0.9932778338107069 2.791922969489083e-17 6.507769421206242e-17 2.791922969489083e-17 6.507769421206242e-17 -0.11575405793926269 -0.9932779057597333
12616660000.0 -0.12356855122769492 -0.9923360384201194 2.843073597813953e-17 6.484072786293269e-17 2.843073597813953e-17 6.484072786293269e-17 -0.12356793445510593 -0.9923361152222298
12617277333.333334 -0.13137477284055157 -0.9913327741283153 2.894024055911751e-17 6.45997457127866e-17 2.894024055911751e-17 6.45997457127866e-17 -0.13137415672167796 -0.9913328557782776
12617894666.666666 -0.1391728566202013 -0.9902681030811907 2.944771194701005e-17 6.435476459863649e-17 2.944771194701005e-17 6.435476459863649e-17 -0.13917224119314195 -0.9902681895734737
12618512000.0 -0.14696231952505212 -0.9891420912283856 2.995311879209066e-17 6.410580160413661e-17 2.995311879209066e-17 6.410580160413661e-17 -0.14696170482785914 -0.9891421825571571
12619129333.333334 -0.15474267904740807 -0.9879548083192257 3.045642988763604e-17 6.38528740584121e-17 3.045642988763604e-17 6.38528740584121e-17 -0.1547420651180848 -0.987954904478356
12619746666.666666 -0.16251345324355515 -0.9867063278983786 3.095761417185828e-17 6.359599953485941e-17 3.095761417185828e-17 6.359599953485941e-17 -0.1625128401200536 -0.9867064288814386
12620364000.0 -0.17027416076352955 -0.9853967273013055 3.145664072980908e-17 6.333519584994104e-17 3.145664072980908e-17 6.333519584994104e-17 -0.1702735484837481 -0.9853968331015682
12620981333.333334 -0.17802432088085093 -0.9840260876494892 3.195347879527421e-17 6.307048106196524e-17 3.195347879527421e-17 6.307048106196524e-17 -0.17802370948263202 -0.98402619825993
12621598666.666666 -0.1857634535224679 -0.9825944938453778 3.244809775267348e-17 6.280187346984257e-17 3.244809775267348e-17 6.280187346984257e-17 -0.18576284304359564 -0.9825946092586748
12622216000.0 -0.19349107929841156 -0.9811020345671406 3.2940467138934815e-17 6.252939161183619e-17 3.2940467138934815e-17 6.252939161183619e-17 -0.19349046977660964 -0.9811021547756764
12622833333.333334 -0.20120671953143518 -0.9795488022631877 3.3430556645359275e-17 6.225305426429617e-17 3.3430556645359275e-17 6.225305426429617e-17 -0.20120611100436386 -0.9795489272590459
12623450666.666666 -0.2089098962867207 -0.9779348931464301 3.391833611948326e-17 6.19728804403763e-17 3.391833611948326e-17 6.19728804403763e-17 -0.20890928879197523 -0.9779350229214
12624068000.0 -0.21660013240153944 -0.9762604071883091 3.4403775566927764e-17 6.168888938873647e-17 3.4403775566927764e-17 6.168888938873647e-17 -0.21659952597664756 -0.9762605417338858
12624685333.333334 -0.22427695151475377 -0.9745254481126167 3.488684515324056e-17 6.140110059222887e-17 3.488684515324056e-17 6.140110059222887e-17 -0.22427634619717307 -0.9745255874199991
12625302666.666666 -0.23193987809621355 -0.9727301233890937 3.5367515205698026e-17 6.110953376658706e-17 3.5367515205698026e-17 6.110953376658706e-17 -0.23193927392332944 -0.9727302674491869
12625920000.0 -0.23958843747651737 -0.9708745442267038 3.584575621515689e-17 6.081420885906589e-17 3.584575621515689e-17 6.081420885906589e-17 -0.23958783448564064 -0.9708746930301201
12626537333.333334 -0.24722215587608173 -0.9689588255668193 3.63215388378269e-17 6.051514604710567e-17 3.63215388378269e-17 6.051514604710567e-17 -0.24722155410444663 -0.9689589791038784
12627154666.666666 -0.2548405604345471 -0.966983086076098 3.679483389707812e-17 6.021236573695757e-17 3.679483389707812e-17 6.021236573695757e-17 -0.25483995991930836 -0.9669832443368261
12627772000.0 -0.2624431792403962 -0.9649474481390377 3.726561238522539e-17 5.990588856229917e-17 3.726561238522539e-17 5.990588856229917e-17 -0.2624425800186272 -0.9649476111131705
12628389333.333334 -0.27002954135971996 -0.9628520378505244 3.773384546528555e-17 5.95957353828485e-17 3.773384546528555e-17 5.95957353828485e-17 -0.27002894346841044 -0.9628522055275059
12629006666.666666 -0.27759917686571767 -0.9606969850079289 3.8199504472756155e-17 5.928192728294169e-17 3.8199504472756155e-17 5.928192728294169e-17 -0.27759858034177115 -0.9606971573769134
12629624000.0 -0.28515161686766916 -0.9584824231031062 3.866256091733918e-17 5.89644855701256e-17 3.866256091733918e-17 5.89644855701256e-17 -0.2851510217479012 -0.9584826001529585
12630241333.333334 -0.2926863935400613 -0.9562084893141033 3.912298648469686e-17 5.864343177370888e-17 3.912298648469686e-17 5.864343177370888e-17 -0.2926857998611967 -0.9562086710333992
12630858666.666666 -0.3002030401513226 -0.9538753244967353 3.958075303815841e-17 5.83187876433229e-17 3.958075303815841e-17 5.83187876433229e-17 -0.300202447949993 -0.9538755108737617
12631476000.0 -0.3077010910931947 -0.9514830731757162 4.0035832620451613e-17 5.799057514744528e-17 4.0035832620451613e-17 5.799057514744528e-17 -0.3077005004059373 -0.9514832641984742
12632093333.333334 -0.31518008190911445 -0.9490318835358551 4.048819745538312e-17 5.765881647193756e-17 4.048819745538312e-17 5.765881647193756e-17 -0.3151794927723685 -0.949032079192058
12632710666.666666 -0.32263954932319894 -0.946521907412803 4.093781994952892e-17 5.73235340185529e-17 4.093781994952892e-17 5.73235340185529e-17 -0.3226389617733046 -0.9465221076898794
12633328000.0 -0.33007903126897153 -0.9439533002836452 4.138467269392809e-17 5.698475040342128e-17 4.138467269392809e-17 5.698475040342128e-17 -0.33007844534216674 -0.9439535051687377
12633945333.333334 -0.3374980669179009 -0.94132622125729 4.182872846572587e-17 5.664248845554741e-17 4.182872846572587e-17 5.664248845554741e-17 -0.3374974826503198 -0.9413264307372577
12634562666.666666 -0.34489619670800126 -0.9386408330645987 4.226996022982788e-17 5.629677121528022e-17 4.226996022982788e-17 5.629677121528022e-17 -0.3448956141356715 -0.9386410471260173
12635180000.0 -0.3522729623721924 -0.9358973020483441 4.270834114054618e-17 5.594762193276578e-17 4.270834114054618e-17 5.594762193276578e-17 -0.35227238153103285 -0.9358975206775058
12635797333.333334 -0.3596279069668723 -0.9330957981528343 4.314384454321976e-17 5.559506406639665e-17 4.314384454321976e-17 5.559506406639665e-17 -0.35962732789269186 -0.9330960213357518
12636414666.666666 -0.36696057490001066 -0.9302364949134724 4.357644397582437e-17 5.523912128124826e-17 4.357644397582437e-17 5.523912128124826e-17 -0.36695999762850473 -0.930236722635876
12637032000.0 -0.3742705119595803 -0.9273195694459178 4.4006113170575314e-17 5.4879817447497134e-17 4.4006113170575314e-17 5.4879817447497134e-17 -0.3742699365263294 -0.9273198016932592
12637649333.333334 -0.38155726534148227 -0.924345202435204 4.443282605551785e-17 5.4517176638827376e-17 4.443282605551785e-17 5.4517176638827376e-17 -0.3815566917819493 -0.924345439192655
12638266666.666666 -0.3888203836777791 -0.9213135781244705 4.4856556756096315e-17 5.415122313083073e-17 4.4856556756096315e-17 5.415122313083073e-17 -0.3888198120273075 -0.9213138193769251
12638884000.0 -0.39605941706457254 -0.9182248843035776 4.52772795967181e-17 5.378198139938829e-17 4.52772795967181e-17 5.378198139938829e-17 -0.39605884735838476 -0.9182251300356552
12639501333.333334 -0.40327391708982474 -0.9150793122975066 4.569496910229674e-17 5.340947611904659e-17 4.569496910229674e-17 5.340947611904659e-17 -0.4032733493630182 -0.915079562493547
12640118666.666666 -0.4104634368611559 -0.911877056954487 4.610959999978657e-17 5.303373216137831e-17 4.610959999978657e-17 5.303373216137831e-17 -0.4104628711487026 -0.911877311598557
12640736000.0 -0.41762753103373723 -0.9086183166338406 4.652114721972126e-17 5.265477459331426e-17 4.652114721972126e-17 5.265477459331426e-17 -0.4176269673704808 -0.9086185757097326
12641353333.333334 -0.424765755837435 -0.9053032931938899 4.692958589768886e-17 5.2272628675509884e-17 4.692958589768886e-17 5.2272628675509884e-17 -0.42476519425808923 -0.9053035566851242
12641970666.666666 -0.43187766910474 -0.9019321919792556 4.733489137585084e-17 5.188731986064747e-17 4.733489137585084e-17 5.188731986064747e-17 -0.43187710964388615 -0.9019324598690808
12642588000.0 -0.4389628302979249 -0.8985052218082447 4.7737039204416585e-17 5.149887379175526e-17 4.7737039204416585e-17 5.149887379175526e-17 -0.438962272990009 -0.898505494079637
12643205333.333334 -0.44602080053638266 -0.8950225949598881 4.813600514310683e-17 5.110731630051231e-17 4.813600514310683e-17 5.110731630051231e-17 -0.4460202454157146 -0.895022871595555
12643822666.666666 -0.4530511426238137 -0.8914845271607934 4.8531765162607966e-17 5.071267340553819e-17 4.8531765162607966e-17 5.071267340553819e-17 -0.45305058972456447 -0.8914848081431742
12644440000.0 -0.46005342107533287 -0.8878912375717706 4.8924295446012125e-17 5.031497131067129e-17 4.8924295446012125e-17 5.031497131067129e-17 -0.4600528704315319 -0.8878915228830354
12645057333.333334 -0.4670272021443926 -0.884242948774277 4.931357239023785e-17 4.991423640324195e-17 4.931357239023785e-17 4.991423640324195e-17 -0.46702665378992714 -0.8842432383963316
12645674666.666666 -0.47397205384957786 -0.8805398867566767 4.969957260744377e-17 4.951049525232759e-17 4.969957260744377e-17 4.951049525232759e-17 -0.4739715078181897 -0.8805401806711602
12646292000.0 -0.48088754600169 -0.8767822809000652 5.0082272926428804e-17 4.910377460699498e-17 5.0082272926428804e-17 4.910377460699498e-17 -0.4808870023269739 -0.8767825790883534
12646909333.333334 -0.48777325022996776 -0.8729703639642875 5.046165039400529e-17 4.869410139454708e-17 5.046165039400529e-17 4.869410139454708e-17 -0.48777270894536945 -0.8729706664074939
12647526666.666666 -0.49462874000892326 -0.8691043720733623 5.083768227637491e-17 4.82815027187399e-17 5.083768227637491e-17 4.82815027187399e-17 -0.49462820114773626 -0.8691046787523368
12648144000.0 -0.5014535906846362 -0.8651845447009177 5.121034606048349e-17 4.786600585799616e-17 5.121034606048349e-17 4.786600585799616e-17 -0.5014530542800014 -0.8651848555962512
12648761333.333334 -0.5082473795011083 -0.8612111246553334 5.1579619455349223e-17 4.744763826362194e-17 5.1579619455349223e-17 4.744763826362194e-17 -0.5082468455860116 -0.8612114397473578
12649378666.666666 -0.5150096856263788 -0.8571843580647432 5.1945480393395404e-17 4.7026427557992683e-17 5.1945480393395404e-17 4.7026427557992683e-17 -0.5150091542336481 -0.8571846773335317
12649996000.0 -0.5217400901786391 -0.8531044943617594 5.230790703176133e-17 4.660240153273605e-17 5.230790703176133e-17 4.660240153273605e-17 -0.5217395613409426 -0.8531048177871278
12650613333.333334 -0.5284381762522538 -0.8489717862679778 5.2666877753595986e-17 4.6175588146907905e-17 5.2666877753595986e-17 4.6175588146907905e-17 -0.5284376500020984 -0.8489721138294871
12651230666.666666 -0.5351035289434138 -0.8447864897784252 5.302237116932798e-17 4.574601552516906e-17 5.302237116932798e-17 4.574601552516906e-17 -0.5351030053131438 -0.8447868214553832
12651848000.0 -0.5417357353760099 -0.8405488641456026 5.337436611795156e-17 4.531371195591593e-17 5.337436611795156e-17 4.531371195591593e-17 -0.541735214397803 -0.8405491999170628
12652465333.333334 -0.5483343847271308 -0.836259171863464 5.3722841668260283e-17 4.4878705889445515e-17 5.3722841668260283e-17 4.4878705889445515e-17 -0.5483338664329986 -0.8362595117082297
12653082666.666666 -0.5548990682524436 -0.8319176786512104 5.4067777120085083e-17 4.44410259360881e-17 5.4067777120085083e-17 4.44410259360881e-17 -0.5548985526742268 -0.8319180225478325
12653700000.0 -0.561429379311676 -0.8275246534367141 5.4409152005521774e-17 4.400070086432414e-17 5.4409152005521774e-17 4.400070086432414e-17 -0.5614288664810455 -0.8275250013634973
12654317333.333334 -0.5679249133936185 -0.823080368339993 5.474694609012656e-17 4.3557759598914004e-17 5.474694609012656e-17 4.3557759598914004e-17 -0.567924403342071 -0.8230807202749927
12654934666.666666 -0.5743852681413445 -0.8185850986562385 5.508113937411427e-17 4.311223121899467e-17 5.508113937411427e-17 4.311223121899467e-17 -0.5743847609002014 -0.8185854545772643
12655552000.0 -0.5808100433770632 -0.8140391228388113 5.5411712093529105e-17 4.2664144956183244e-17 5.5411712093529105e-17 4.2664144956183244e-17 -0.5808095389774695 -0.8140394827234287
12656169333.333334 -0.58719884112684 -0.8094427224820453 5.573864472140053e-17 4.2213530192671904e-17 5.573864472140053e-17 4.2213530192671904e-17 -0.5871983395997604 -0.8094430863075749
12656786666.666666 -0.5935512656453846 -0.8047961823037 5.606191796889389e-17 4.1760416459299274e-17 5.606191796889389e-17 4.1760416459299274e-17 -0.5935507670216048 -0.8047965500472232
12657404000.0 -0.5998669234404992 -0.8000997901273805 5.638151278643503e-17 4.13048334336278e-17 5.638151278643503e-17 4.13048334336278e-17 -0.5998664277506206 -0.8001001617657365
12658021333.333334 -0.606145423297404 -0.7953538368647374 5.669741036482053e-17 4.0846810938010845e-17 5.669741036482053e-17 4.0846810938010845e-17 -0.6061449305718437 -0.7953542123745262
12658638666.666666 -0.6123863763029956 -0.7905586164974329 5.700959213631604e-17 4.038637893764676e-17 5.700959213631604e-17 4.038637893764676e-17 -0.6123858865719837 -0.7905589958550173
12659256000.0 -0.618589395870094 -0.7857144260588068 5.731803977574413e-17 3.99235675386163e-17 5.731803977574413e-17 3.99235675386163e-17 -0.6185889091636739 -0.7857148092403153
12659873333.333334 -0.6247540977611211 -0.7808215656156893 5.762273520154188e-17 3.9458406985933153e-17 5.762273520154188e-17 3.9458406985933153e-17 -0.6247536141091435 -0.7808219525970133
12660490666.666666 -0.6308801001120348 -0.7758803382497059 5.792366057680607e-17 3.8990927661581596e-17 5.792366057680607e-17 3.8990927661581596e-17 -0.6308796195441595 -0.7758807290065047
12661108000.0 -0.6369670234561163 -0.7708910500383982 5.822079831034454e-17 3.8521160082513324e-17 5.822079831034454e-17 3.8521160082513324e-17 -0.6369665460018097 -0.7708914445461003
12661725333.333334 -0.6430144907472112 -0.7658540100364774 5.851413105767472e-17 3.8049134898692867e-17 5.851413105767472e-17 3.8049134898692867e-17 -0.6430140164357435 -0.7658544082702811
12662342666.666666 -0.6490221273832394 -0.7607695302565577 5.880364172203871e-17 3.757488289108329e-17 5.880364172203871e-17 3.757488289108329e-17 -0.6490216562436825 -0.760769932191432
12662960000.0 -0.6549895612294188 -0.7556379256498061 5.908931345537982e-17 3.70984349696618e-17 5.908931345537982e-17 3.70984349696618e-17 -0.6549890932906468 -0.7556383312604947
12663577333.333334 -0.6609164226412759 -0.750459514086474 5.937112965931972e-17 3.661982217140097e-17 5.937112965931972e-17 3.661982217140097e-17 -0.660915957931961 -0.7504599233474947
12664194666.666666 -0.6668023444874767 -0.7452346163362598 5.964907398610818e-17 3.6139075658259e-17 5.964907398610818e-17 3.6139075658259e-17 -0.6668018830360882 -0.7452350292219068
12664812000.0 -0.6726469621726979 -0.73996355604833 5.992313033955756e-17 3.56562267151637e-17 5.992313033955756e-17 3.56562267151637e-17 -0.6726465040075001 -0.7399639725326744
12665429333.333334 -0.6784499136601446 -0.7346466597313234 6.019328287597072e-17 3.51713067479719e-17 6.019328287597072e-17 3.51713067479719e-17 -0.6784494588091972 -0.7346470797882182
12666046666.666666 -0.6842108394939169 -0.729284256733188 6.04595160050364e-17 3.468434728144946e-17 6.04595160050364e-17 3.468434728144946e-17 -0.68421038798507 -0.7292846803362658
12666664000.0 -0.6899293828214198 -0.7238766792206422 6.072181439072943e-17 3.4195379957208585e-17 6.072181439072943e-17 3.4195379957208585e-17 -0.6899289346823138 -0.7238771063433188
12667281333.333334 -0.6956051894153011 -0.7184242621587552 6.098016295216956e-17 3.3704436531681584e-17 6.098016295216956e-17 3.3704436531681584e-17 -0.6956047446733664 -0.7184246927742319
12667898666.666666 -0.7012379076955423 -0.7129273432900635 6.123454686448269e-17 3.3211548874055286e-17 6.123454686448269e-17 3.3211548874055286e-17 -0.7012374663779947 -0.7129277773713265
12668516000.0 -0.7068271887511683 -0.7073862631137027 6.148495155964494e-17 3.271674896419908e-17 6.148495155964494e-17 3.271674896419908e-17 -0.7068267508850101 -0.7073867006335279
12669133333.333334 -0.7123726863618066 -0.7018013648643837 6.173136272729388e-17 3.222006889061823e-17 6.173136272729388e-17 3.222006889061823e-17 -0.7123722519738226 -0.7018018057953351
12669750666.666666 -0.717874057019269 -0.6961729944909848 6.197376631554029e-17 3.172154084836784e-17 6.197376631554029e-17 3.172154084836784e-17 -0.7178736261360267 -0.6961734388054184
12670368000.0 -0.7233309599486915 -0.6905015006352652 6.221214853175868e-17 3.1221197136969514e-17 6.221214853175868e-17 3.1221197136969514e-17 -0.7233305325965385 -0.6905019483053304
