! Parameters = {f0=12700.012000; bw=77.238000; Q=6100.000000; N=10; m_0_1=1.265160; m_1_1=0.212657; m_1_2=1.099972; m_2_2=0.212008; m_2_3=0.736935; m_2_8=0.000322; m_2_9=0.037026; m_3_3=0.210071; m_3_4=0.625464; m_3_7=0.000922; m_3_8=-0.096166; m_3_9=0.000322; m_4_4=0.207146; m_4_5=0.461799; m_4_6=0.004439; m_4_7=-0.116715; m_4_8=0.000922; m_5_5=0.207528; m_5_6=0.869154; m_5_7=0.004439; m_6_6=0.207527; m_6_7=0.462141; m_7_7=0.207160; m_7_8=0.625582; m_8_8=0.210069; m_8_9=0.737248; m_9_9=0.212003; m_9_10=1.101050; m_10_10=0.212647; m_10_11=1.265955}
!
! Created with skrf (http://scikit-rf.org).
# Hz S RI R 50.0 
!freq ReS11 ImS11 ReS21 ImS21 ReS12 ImS12 ReS22 ImS22
12607400000.0 -0.8533802365278251 -0.5212889524088696 1.0445818903199297e-16 2.782745865748972e-17 1.0445818903199297e-16 2.782745865748972e-17 -0.8533798890518428 -0.5212895212467729
12608017333.333334 -0.8587450783324599 -0.5124030546743473 1.0472326099311434e-16 2.672719229384865e-17 1.0472326099311434e-16 2.672719229384865e-17 -0.8587447367962755 -0.5124036270602705
12608634666.666666 -0.8640173983346827 -0.5034619502750834 1.0497675179471208e-16 2.5624427594888808e-17 1.0497675179471208e-16 2.5624427594888808e-17 -0.8640170627745107 -0.5034625261470134
12609252000.0 -0.8691966284910835 -0.4944666025320198 1.0521863819540203e-16 2.4519286377585005e-17 1.0521863819540203e-16 2.4519286377585005e-17 -0.8691962989424901 -0.49446718182757304
12609869333.333334 -0.8742822107878299 -0.48541798061028685 1.0544889823426477e-16 2.341189067156937e-17 1.0544889823426477e-16 2.341189067156937e-17 -0.8742818872857312 -0.4854185632667179
12610486666.666666 -0.8792735973007234 -0.476317059414912 1.0566751123274743e-16 2.230236270569625e-17 1.0566751123274743e-16 2.230236270569625e-17 -0.8792732798793804 -0.47631764536911914
12611104000.0 -0.8841702502543826 -0.4671648194855078 1.0587445779643243e-16 2.1190824894542016e-17 1.0587445779643243e-16 2.1190824894542016e-17 -0.8841699389473962 -0.46716540867403966
12611721333.333334 -0.88897164207999 -0.45796224689097603 1.0606971981665155e-16 2.007739982496544e-17 1.0606971981665155e-16 2.007739982496544e-17 -0.8889713369203012 -0.4579628392500398
12612338666.666666 -0.8936772554722725 -0.44871033312302 1.0625328047197162e-16 1.8962210242581936e-17 1.0625328047197162e-16 1.8962210242581936e-17 -0.893676956492156 -0.44871092858848727
12612956000.0 -0.8982865834452313 -0.43941007498931833 1.0642512422953277e-16 1.7845379038255842e-17 1.0642512422953277e-16 1.7845379038255842e-17 -0.8982862906762926 -0.4394106734967322
12613573333.333334 -0.9027991293866501 -0.4300624745063564 1.0658523684624113e-16 1.672702923460946e-17 1.0658523684624113e-16 1.672702923460946e-17 -0.9027988428598237 -0.4300630759909389
12614190666.666666 -0.9072144071117304 -0.42066853879121574 1.0673360536982906e-16 1.5607283972465325e-17 1.0673360536982906e-16 1.5607283972465325e-17 -0.9072141268572735 -0.42066914318787396
12614808000.0 -0.9115319409154047 -0.41122927995319136 1.0687021813976564e-16 1.4486266497326253e-17 1.0687021813976564e-16 1.4486266497326253e-17 -0.9115316669628973 -0.41122988719652553
12615425333.333334 -0.9157512656236189 -0.40174571498469724 1.0699506478802942e-16 1.3364100145831173e-17 1.0699506478802942e-16 1.3364100145831173e-17 -0.9157509980019582 -0.40174632500900703
12616042666.666666 -0.9198719266434009 -0.3922188656517973 1.071081362397379e-16 1.2240908332209163e-17 1.071081362397379e-16 1.2240908332209163e-17 -0.9198716653808005 -0.39221947839108956
12616660000.0 -0.9238934800119103 -0.38264975838396464 1.0720942471363538e-16 1.111681453473034e-17 1.0720942471363538e-16 1.111681453473034e-17 -0.9238932251358946 -0.3826503737719598
12617277333.333334 -0.9278154924442343 -0.37303942416357044 1.0729892372243927e-16 9.991942282152018e-18 1.0729892372243927e-16 9.991942282152018e-18 -0.9278152439816371 -0.37304004213371006
12617894666.666666 -0.9316375413800275 -0.36338889841491034 1.0737662807304314e-16 8.86641514018294e-18 1.0737662807304314e-16 8.86641514018294e-18 -0.9316372993569902 -0.3633895189003647
12618512000.0 -0.935359215029158 -0.3536992208923583 1.0744253386658144e-16 7.74035669789986e-18 1.0744253386658144e-16 7.74035669789986e-18 -0.9353589794711253 -0.3536998438260332
12619129333.333334 -0.9389801124159262 -0.343971435568712 1.0749663849834724e-16 6.613890554243321e-18 1.0749663849834724e-16 6.613890554243321e-18 -0.938979883347642 -0.3439720608832553
12619746666.666666 -0.9424998434223665 -0.33420659052244867 1.0753894065757309e-16 5.48714030444424e-18 1.0753894065757309e-16 5.48714030444424e-18 -0.9424996208678759 -0.3342072181502594
12620364000.0 -0.9459180288302831 -0.3244057378248058 1.0756944032706784e-16 4.360229526486803e-18 1.0756944032706784e-16 4.360229526486803e-18 -0.9459178128129258 -0.3244063676980398
12620981333.333334 -0.9492343003620164 -0.3145699334266696 1.0758813878271161e-16 3.2332817676060704e-18 1.0758813878271161e-16 3.2332817676060704e-18 -0.9492340909044251 -0.31457056547724743
12621598666.666666 -0.9524483007202167 -0.30470023704453814 1.0759503859281104e-16 2.1064205307361046e-18 1.0759503859281104e-16 2.1064205307361046e-18 -0.9524480978443158 -0.30470087120415246
12622216000.0 -0.9555596836262955 -0.2947977120464817 1.0759014361731178e-16 9.797692610141512e-19 1.0759014361731178e-16 9.797692610141512e-19 -0.9555594873532987 -0.29479834824660506
12622833333.333334 -0.9585681138577485 -0.28486342533752024 1.0757345900687028e-16 -1.46548667724988e-19 1.0757345900687028e-16 -1.46548667724988e-19 -0.9585679242081546 -0.2848640635094115
12623450666.666666 -0.961473267284241 -0.274898447244783 1.0754499120178528e-16 -1.2724099664231467e-18 1.0754499120178528e-16 -1.2724099664231467e-18 -0.961473084277835 -0.27489908731949575
12624068000.0 -0.9642748309025714 -0.26490385140205525 1.0750474793078715e-16 -2.397691444285947e-18 1.0750474793078715e-16 -2.397691444285947e-18 -0.9642746545584205 -0.26490449331044486
12624685333.333334 -0.9669725028704017 -0.25488071463407597 1.0745273820968703e-16 -3.522270022241662e-18 1.0745273820968703e-16 -3.522270022241662e-18 -0.9669723332068514 -0.25488135830680647
12625302666.666666 -0.9695659925386972 -0.24483011684079334 1.0738897233988737e-16 -4.646022746349019e-18 1.0738897233988737e-16 -4.646022746349019e-18 -0.9695658295733743 -0.24483076220834615
12625920000.0 -0.9720550204831605 -0.23475314088060573 1.0731346190674818e-16 -5.768826801262343e-18 1.0731346190674818e-16 -5.768826801262343e-18 -0.9720548642329658 -0.23475378787328582
12626537333.333334 -0.9744393185342329 -0.22465087245404855 1.0722621977781826e-16 -6.890559523587788e-18 1.0722621977781826e-16 -6.890559523587788e-18 -0.9744391690153449 -0.22465152100199334
12627154666.666666 -0.9767186298060104 -0.2145243999867967 1.0712726010092356e-16 -8.011098415278737e-18 1.0712726010092356e-16 -8.011098415278737e-18 -0.9767184870338786 -0.21452505001998232
12627772000.0 -0.9788927087240169 -0.20437481451192285 1.0701659830211449e-16 -9.130321157007706e-18 1.0701659830211449e-16 -9.130321157007706e-18 -0.9788925727133632 -0.20437546596017245
12628389333.333334 -0.9809613210514876 -0.19420320955315437 1.0689425108348065e-16 -1.0248105621452752e-17 1.0689425108348065e-16 -1.0248105621452752e-17 -0.9809611918163043 -0.19420386234614562
12629006666.666666 -0.9829242439147904 -0.18401068100619486 1.0676023642081748e-16 -1.1364329886645689e-17 1.0676023642081748e-16 -1.1364329886645689e-17 -0.9829241214683387 -0.18401133507346737
12629624000.0 -0.9847812658272882 -0.17379832702137504 1.0661457356116276e-16 -1.2478872249213697e-17 1.0661457356116276e-16 -1.2478872249213697e-17 -0.9847811501820962 -0.17379898229233803
12630241333.333334 -0.9865321867122215 -0.1635672478848638 1.0645728302018932e-16 -1.3591611237643396e-17 1.0645728302018932e-16 -1.3591611237643396e-17 -0.9865320778800829 -0.1635679042888036
12630858666.666666 -0.9881768179242031 -0.1533185459004291 1.0628838657946416e-16 -1.4702425625477974e-17 1.0628838657946416e-16 -1.4702425625477974e-17 -0.9881767159161773 -0.15331920336651705
12631476000.0 -0.9897149822696047 -0.14305332527033993 1.0610790728356253e-16 -1.5811194444533678e-17 1.0610790728356253e-16 -1.5811194444533678e-17 -0.9897148870960145 -0.14305398372763978
12632093333.333334 -0.9911465140255851 -0.13277269197676234 1.0591586943705586e-16 -1.6917796998010426e-17 1.0591586943705586e-16 -1.6917796998010426e-17 -0.9911464256960162 -0.13277335135423812
12632710666.666666 -0.9924712589579756 -0.1224777536624327 1.0571229860135457e-16 -1.802211287362497e-17 1.0571229860135457e-16 -1.802211287362497e-17 -0.9924711774812759 -0.12247841388895617
12633328000.0 -0.9936890743379151 -0.11216961951117833 1.0549722159141355e-16 -1.91240219567045e-17 1.0549722159141355e-16 -1.91240219567045e-17 -0.9936889997221923 -0.11217028051553664
12633945333.333334 -0.9947998289571909 -0.10184940012866629 1.0527066647230974e-16 -2.022340444320062e-17 1.0527066647230974e-16 -2.022340444320062e-17 -0.994799761209813 -0.10185006183956982
12634562666.666666 -0.9958034031423966 -0.0915182074226056 1.050326625556768e-16 -2.1320140852706284e-17 1.050326625556768e-16 -2.1320140852706284e-17 -0.9958033422699911 -0.0915188697686956
12635180000.0 -0.9966996887678218 -0.08117715448297753 1.0478324039600744e-16 -2.241411204141408e-17 1.0478324039600744e-16 -2.241411204141408e-17 -0.9966996347762751 -0.08117781739283379
12635797333.333334 -0.9974885892671022 -0.07082735546208214 1.0452243178682014e-16 -2.3505199215038638e-17 1.0452243178682014e-16 -2.3505199215038638e-17 -0.9974885421615595 -0.07082801886423071
12636414666.666666 -0.9981700196436168 -0.06046992545461207 1.0425026975669499e-16 -2.4593283941680818e-17 1.0425026975669499e-16 -2.4593283941680818e-17 -0.9981699794284804 -0.06047058927753295
12637032000.0 -0.9987439064796592 -0.05010598037734156 1.0396678856516908e-16 -2.5678248164676943e-17 1.0396678856516908e-16 -2.5678248164676943e-17 -0.998743873158588 -0.050106644549476366
12637649333.333334 -0.9992101879443357 -0.03973663684900992 1.0367202369850524e-16 -2.6759974215372092e-17 1.0367202369850524e-16 -2.6759974215372092e-17 -0.9992101615202462 -0.03973730129876965
12638266666.666666 -0.999568813800232 -0.029363012069988086 1.0336601186532505e-16 -2.7838344825860917e-17 1.0336601186532505e-16 -2.7838344825860917e-17 -0.999568794275297 -0.02936367672576081
12638884000.0 -0.999819745408824 -0.018986223701910523 1.0304879099210997e-16 -2.8913243141676427e-17 1.0304879099210997e-16 -2.8913243141676427e-17 -0.9998197327844731 -0.018986888492069143
12639501333.333334 -0.9999629557346438 -0.00860738974722931 1.0272040021857054e-16 -2.9984552734431745e-17 1.0272040021857054e-16 -2.9984552734431745e-17 -0.9999629500115627 -0.008608054600139237
12640118666.666666 -0.9999984293481866 0.0017723715710698544 1.0238087989288986e-16 -3.1052157614389497e-17 1.0238087989288986e-16 -3.1052157614389497e-17 -0.9999984305263182 0.0017717067270429663
12640736000.0 -0.9999261624275789 0.012151941930428827 1.0203027156681758e-16 -3.211594224304251e-17 1.0203027156681758e-16 -3.211594224304251e-17 -0.9999261705061222 0.012151277166911377
12641353333.333334 -0.9997461627589892 0.022530203028410155 1.016686179906702e-16 -3.317579154552397e-17 1.016686179906702e-16 -3.317579154552397e-17 -0.9997461777364003 0.02252953841701288
12641970666.666666 -0.9994584497357877 0.032906036703951154 1.012959631081603e-16 -3.423159092309236e-17 1.012959631081603e-16 -3.423159092309236e-17 -0.9994584716097783 0.03290537231626138
12642588000.0 -0.9990630543564548 0.04327832505743736 1.0091235205112664e-16 -3.5283226265469737e-17 1.0091235205112664e-16 -3.5283226265469737e-17 -0.9990630831239955 0.04327766096501136
12643205333.333334 -0.9985600192212476 0.053645950571202854 1.0051783113412463e-16 -3.6330583963153264e-17 1.0051783113412463e-16 -3.6330583963153264e-17 -0.9985600548785655 0.05364528684555806
12643822666.666666 -0.9979493985276003 0.0640077962300458 1.0011244784888767e-16 -3.737355091967594e-17 1.0011244784888767e-16 -3.737355091967594e-17 -0.9979494410701815 0.06400713294265319
12644440000.0 -0.9972312580642935 0.07436274564143455 9.969625085867016e-17 -3.841201456378047e-17 9.969625085867016e-17 -3.841201456378047e-17 -0.9972313074868819 0.07436208286371089
12645057333.333334 -0.9964056752043655 0.084709683155817 9.926928999245726e-17 -3.944586286155092e-17 9.926928999245726e-17 -3.944586286155092e-17 -0.9964057315009652 0.0847090209591172
12645674666.666666 -0.9954727388967768 0.09504749398682162 9.883161623905729e-17 -4.0474984328460883e-17 9.883161623905729e-17 -4.0474984328460883e-17 -0.995472802060652 0.09504683244243103
12646292000.0 -0.9944325496568099 0.10537506433156339 9.838328174104264e-17 -4.149926804142154e-17 9.838328174104264e-17 -4.149926804142154e-17 -0.994432619680485 0.1053744035106901
12646909333.333334 -0.9932852195552713 0.11569128149027774 9.792433978861882e-17 -4.251860365063716e-17 9.792433978861882e-17 -4.251860365063716e-17 -0.9932852964305315 0.11569062146404485
12647526666.666666 -0.9920308722063897 0.12599503398648648 9.745484481331602e-17 -4.353288139152503e-17 9.745484481331602e-17 -4.353288139152503e-17 -0.992030955924285 0.1259943748259247
12648144000.0 -0.9906696427545018 0.13628521168672073 9.697485238158235e-17 -4.454199209650457e-17 9.697485238158235e-17 -4.454199209650457e-17 -0.9906697333053442 0.13628455346276053
12648761333.333334 -0.9892016778595013 0.14656070592001438 9.648441918826438e-17 -4.554582720670043e-17 9.648441918826438e-17 -4.554582720670043e-17 -0.989201775232869 0.14656004870347838
12649378666.666666 -0.9876271356810447 0.15682040959735388 9.598360304995681e-17 -4.6544278783596625e-17 9.598360304995681e-17 -4.6544278783596625e-17 -0.9876272398657808 0.15681975345894927
12649996000.0 -0.9859461858614835 0.16706321733109636 9.547246289821775e-17 -4.753723952064502e-17 9.547246289821775e-17 -4.753723952064502e-17 -0.9859462968456999 0.1670625623414074
12650613333.333334 -0.9841590095076086 0.17728802555398201 9.495105877268759e-17 -4.852460275475396e-17 9.495105877268759e-17 -4.852460275475396e-17 -0.9841591272786826 0.17728737178346188
12651230666.666666 -0.9822657991711444 0.18749373263791919 9.441945181408388e-17 -4.950626247771285e-17 9.441945181408388e-17 -4.950626247771285e-17 -0.982265923715727 0.1874930801568834
12651848000.0 -0.9802667588279658 0.19767923901295636 9.387770425706011e-17 -5.0482113347575475e-17 9.387770425706011e-17 -5.0482113347575475e-17 -0.9802668901319777 0.1976785878915743
12652465333.333334 -0.9781621038561592 0.20784344728549747 9.332587942297441e-17 -5.1452050699914987e-17 9.332587942297441e-17 -5.1452050699914987e-17 -0.978162241904795 0.2078427975937854
12653082666.666666 -0.9759520610128238 0.2179852623565372 9.276404171252944e-17 -5.241597055902455e-17 9.276404171252944e-17 -5.241597055902455e-17 -0.9759522057905525 0.21798461416435044
12653700000.0 -0.9736368684095732 0.22810359153995285 9.21922565982816e-17 -5.3373769649064223e-17 9.21922565982816e-17 -5.3373769649064223e-17 -0.9736370199001412 0.22810294491697852
12654317333.333334 -0.9712167754869925 0.23819734467973197 9.161059061707205e-17 -5.4325345405063995e-17 9.161059061707205e-17 -5.4325345405063995e-17 -0.9712169336734233 0.238196699695481
12654934666.666666 -0.9686920429876705 0.24826543426784253 9.101911136230797e-17 -5.5270595983907516e-17 9.101911136230797e-17 -5.5270595983907516e-17 -0.9686922078522684 0.24826479099164261
12655552000.0 -0.9660629429280915 0.2583067755614271 9.041788747614541e-17 -5.620942027520592e-17 9.041788747614541e-17 -5.620942027520592e-17 -0.9660631144524437 0.25830613406241554
12656169333.333334 -0.9633297585694605 0.26832028669918 8.980698864157595e-17 -5.714171791206472e-17 8.980698864157595e-17 -5.714171791206472e-17 -0.9633299367344383 0.2683196470462955
12656786666.666666 -0.9604927843870417 0.2783048888184578 8.918648557437124e-17 -5.806738928181339e-17 8.918648557437124e-17 -5.806738928181339e-17 -0.9604929691728021 0.27830425108043344
12657404000.0 -0.9575523260384982 0.28825950617124 8.855645001494172e-17 -5.898633553660967e-17 8.855645001494172e-17 -5.898633553660967e-17 -0.9575525174244877 0.2882588704165962
12658021333.333334 -0.9545087003309438 0.2981830662401156 8.791695472007535e-17 -5.98984586039742e-17 8.791695472007535e-17 -5.98984586039742e-17 -0.9545088982958997 0.29818243253715204
12658638666.666666 -0.9513622351868493 0.30807449985369945 8.726807345458015e-17 -6.08036611972185e-17 8.726807345458015e-17 -6.08036611972185e-17 -0.9513624397088017 0.3080738682704884
12659256000.0 -0.948113269608626 0.3179327413020973 8.660988098279292e-17 -6.170184682581975e-17 8.660988098279292e-17 -6.170184682581975e-17 -0.9481134806649011 0.31793211190647575
12659873333.333334 -0.9447621536421789 0.32775672845148157 8.59424530600156e-17 -6.25929198056575e-17 8.59424530600156e-17 -6.25929198056575e-17 -0.9447623712094012 0.3277561013110445
12660490666.666666 -0.9413092483391946 0.3375454028585279 8.526586642383096e-17 -6.34767852691808e-17 8.526586642383096e-17 -6.34767852691808e-17 -0.9413094723932899 0.3375447780406208
12661108000.0 -0.9377549257181508 0.34729770988472125 8.458019878529499e-17 -6.435334917550524e-17 8.458019878529499e-17 -6.435334917550524e-17 -0.9377551562343474 0.3472970874564323
12661725333.333334 -0.9340995687243607 0.3570125988096062 8.388552882007064e-17 -6.522251832035823e-17 8.388552882007064e-17 -6.522251832035823e-17 -0.9340998056771943 0.3570119788377604
12662342666.666666 -0.9303435711886165 0.3666890229442897 8.318193615941335e-17 -6.608420034598871e-17 8.318193615941335e-17 -6.608420034598871e-17 -0.9303438145519309 0.3666884054954402
12662960000.0 -0.9264873377847994 0.37632593974407524 8.246950138108454e-17 -6.693830375094183e-17 8.246950138108454e-17 -6.693830375094183e-17 -0.9264875875317506 0.3763253248844973
12663577333.333334 -0.9225312839862733 0.3859223109208163 8.174830600015438e-17 -6.77847378997504e-17 8.174830600015438e-17 -6.77847378997504e-17 -0.9225315400893332 0.38592169871649984
12664194666.666666 -0.9184758360211228 0.3954771025547817 8.101843245970711e-17 -6.862341303252548e-17 8.101843245970711e-17 -6.862341303252548e-17 -0.9184760984520793 0.39547649307142363
12664812000.0 -0.9143214308262272 0.40498928520605004 8.027996412144822e-17 -6.945424027444716e-17 8.027996412144822e-17 -6.945424027444716e-17 -0.9143216995561905 0.40498867850904813
12665429333.333334 -0.9100685160001742 0.4144578340254485 7.953298525621302e-17 -7.027713164515711e-17 7.953298525621302e-17 -7.027713164515711e-17 -0.9100687909995796 0.41445723017989433
12666046666.666666 -0.9057175497550979 0.4238817288648429 7.877758103439125e-17 -7.109200006803596e-17 7.877758103439125e-17 -7.109200006803596e-17 -0.9057178309937056 0.4238811279355133
12666664000.0 -0.9012690008671744 0.4332599543873306 7.801383751622435e-17 -7.189875937941378e-17 7.801383751622435e-17 -7.189875937941378e-17 -0.9012692883140777 0.43325935643868335
12667281333.333334 -0.8967233486262738 0.4425915001763005 7.724184164206012e-17 -7.269732433762144e-17 7.724184164206012e-17 -7.269732433762144e-17 -0.8967236422498995 0.44259090527246536
12667898666.666666 -0.8920810827842648 0.45187536084442553 7.64616812224659e-17 -7.348761063199086e-17 7.64616812224659e-17 -7.348761063199086e-17 -0.8920813825523769 0.45187476904919766
12668516000.0 -0.8873427035021038 0.46111053614226166 7.567344492827017e-17 -7.426953489172696e-17 7.567344492827017e-17 -7.426953489172696e-17 -0.8873430093818077 0.4611099475190955
12669133333.333334 -0.8825087212962418 0.470296031065432 7.48772222805333e-17 -7.504301469465459e-17 7.48772222805333e-17 -7.504301469465459e-17 -0.8825090332539887 0.4702954456774343
12669750666.666666 -0.8775796569833544 0.47943085596236273 7.407310364038891e-17 -7.580796857589865e-17 7.407310364038891e-17 -7.580796857589865e-17 -0.8775799749849424 0.4794302738722851
