! Parameters = {f0=12700.012000; bw=77.238000; Q=6100.000000; N=10; m_0_1=1.161657; m_1_1=-1.339896; m_1_2=0.996469; m_2_2=-1.340545; m_2_3=0.633432; m_2_8=-0.004853; m_2_9=0.031851; m_3_3=-1.342482; m_3_4=0.521961; m_3_7=-0.004253; m_3_8=-0.101341; m_3_9=-0.004853; m_4_4=-1.345407; m_4_5=0.358296; m_4_6=-0.000736; m_4_7=-0.121890; m_4_8=-0.004253; m_5_5=-1.345025; m_5_6=0.765651; m_5_7=-0.000736; m_6_6=-1.345026; m_6_7=0.358638; m_7_7=-1.345393; m_7_8=0.522079; m_8_8=-1.342484; m_8_9=0.633745; m_9_9=-1.340550; m_9_10=0.997547; m_10_10=-1.339906; m_10_11=1.162452}
!
! Created with skrf (http://scikit-rf.org).
# Hz S RI R 50.0 
!freq ReS11 ImS11 ReS21 ImS21 ReS12 ImS12 ReS22 ImS22
12607400000.0 -0.9697010907519961 -0.24429448334794868 6.436259453190421e-17 -2.654338049092916e-18 6.436259453190421e-17 -2.654338049092916e-18 -0.9697009411917056 -0.24429507701092218
12608017333.333334 -0.9714633388720152 -0.23718975784693538 6.432855960611685e-17 -3.1304919914666667e-18 6.432855960611685e-17 -3.1304919914666667e-18 -0.9714631936684373 -0.23719035255965326
12608634666.666666 -0.973173533418389 -0.230072323093892 6.429100592967606e-17 -3.606287528164961e-18 6.429100592967606e-17 -3.606287528164961e-18 -0.973173392578876 -0.23007291882438646
12609252000.0 -0.9748315827544056 -0.22294256045984864 6.424993694233984e-17 -4.081698684253051e-18 6.424993694233984e-17 -4.081698684253051e-18 -0.9748314462860771 -0.222943157176101
12609869333.333334 -0.9764373980374584 -0.215800851976285 6.42053562753987e-17 -4.5566995160592074e-18 6.42053562753987e-17 -4.5566995160592074e-18 -0.9764372659471984 -0.21580144964622655
12610486666.666666 -0.9779908932237544 -0.208647580314881 6.415726775140159e-17 -5.031264112589138e-18 6.415726775140159e-17 -5.031264112589138e-18 -0.9779907655182116 -0.20864817890639537
12611104000.0 -0.9794919850729746 -0.201483128766791 6.410567538387056e-17 -5.50536659693984e-18 6.410567538387056e-17 -5.50536659693984e-18 -0.9794918617585616 -0.20148372824771513
12611721333.333334 -0.980940593152691 -0.1943078812222996 6.405058337700726e-17 -5.978981127692844e-18 6.405058337700726e-17 -5.978981127692844e-18 -0.980940474235585 -0.1943084815604263
12612338666.666666 -0.982336639842689 -0.187122222150197 6.399199612538607e-17 -6.452081900330424e-18 6.399199612538607e-17 -6.452081900330424e-18 -0.9823365253288311 -0.18712282331327618
12612956000.0 -0.983680050339171 -0.17992653657695465 6.392991821363923e-17 -6.9246431486310495e-18 6.392991821363923e-17 -6.9246431486310495e-18 -0.9836799402342661 -0.17992713853269526
12613573333.333334 -0.9849707526586722 -0.17272121006656901 6.386435441613155e-17 -7.39663914606221e-18 6.386435441613155e-17 -7.39663914606221e-18 -0.9849706469681881 -0.1727218127826407
12614190666.666666 -0.9862086776420144 -0.16550662869939967 6.379530969662283e-17 -7.868044207188669e-18 6.379530969662283e-17 -7.868044207188669e-18 -0.9862085763711811 -0.1655072321434343
12614808000.0 -0.9873937589579417 -0.1582831790518448 6.372278920792305e-17 -8.338832689050671e-18 6.372278920792305e-17 -8.338832689050671e-18 -0.9873936621117526 -0.1582837831914386
12615425333.333334 -0.9885259331067168 -0.15105124817540402 6.36467982915339e-17 -8.808978992568313e-18 6.36467982915339e-17 -8.808978992568313e-18 -0.9885258406899282 -0.1510518529781191
12616042666.666666 -0.9896051394235069 -0.14381122357602286 6.356734247728394e-17 -9.278457563913992e-18 6.356734247728394e-17 -9.278457563913992e-18 -0.9896050514406377 -0.1438118290093891
12616660000.0 -0.990631320081626 -0.13656349319341407 6.348442748294964e-17 -9.747242895908917e-18 6.348442748294964e-17 -9.747242895908917e-18 -0.9906312365369547 -0.1365640992249304
12617277333.333334 -0.9916044200956559 -0.12930844538007297 6.339805921386877e-17 -1.0215309529400318e-17 6.339805921386877e-17 -1.0215309529400318e-17 -0.991604340993225 -0.12930905197720974
12617894666.666666 -0.9925243873243653 -0.12204646888069456 6.330824376254553e-17 -1.0682632054624655e-17 6.330824376254553e-17 -1.0682632054624655e-17 -0.9925243126679787 -0.122047076010895
12618512000.0 -0.993391172473533 -0.11477795281111774 6.321498740823758e-17 -1.1149185112612534e-17 6.321498740823758e-17 -1.1149185112612534e-17 -0.9933911022667563 -0.11477856044179968
12619129333.333334 -0.9942047290985649 -0.10750328663767313 6.311829661654427e-17 -1.1614943396529253e-17 6.311829661654427e-17 -1.1614943396529253e-17 -0.9942046633447231 -0.10750389473623055
12619746666.666666 -0.9949650136069873 -0.10022286015625753 6.301817803897656e-17 -1.2079881653054995e-17 6.301817803897656e-17 -1.2079881653054995e-17 -0.9949649523091678 -0.10022346869006277
12620364000.0 -0.9956719852608077 -0.09293706347122196 6.291463851251706e-17 -1.2543974683761544e-17 6.291463851251706e-17 -1.2543974683761544e-17 -0.9956719284218599 -0.09293767240762725
12620981333.333334 -0.9963256061786518 -0.08564628697494957 6.280768505917837e-17 -1.3007197346442513e-17 6.280768505917837e-17 -1.3007197346442513e-17 -0.9963255538011836 -0.08564689628128859
12621598666.666666 -0.9969258413378365 -0.07835092132642762 6.269732488553955e-17 -1.3469524556500765e-17 6.269732488553955e-17 -1.3469524556500765e-17 -0.9969257934242183 -0.0783515309700176
12622216000.0 -0.9974726585762189 -0.0710513574306837 6.258356538228131e-17 -1.3930931288287442e-17 6.258356538228131e-17 -1.3930931288287442e-17 -0.9974726151285812 -0.0710519673788269
12622833333.333334 -0.9979660285939377 -0.06374798641758438 6.246641412370909e-17 -1.4391392576449743e-17 6.246641412370909e-17 -1.4391392576449743e-17 -0.9979659896141716 -0.06374859663756996
12623450666.666666 -0.9984059249549684 -0.056441199621076174 6.234587886726512e-17 -1.4850883517280294e-17 6.234587886726512e-17 -1.4850883517280294e-17 -0.9984058904447256 -0.05644181008018199
12624068000.0 -0.9987923240885462 -0.04913138855816022 6.22219675530302e-17 -1.530937927006245e-17 6.22219675530302e-17 -1.530937927006245e-17 -0.9987922940492379 -0.049131999223654424
12624685333.333334 -0.9991252052904381 -0.041818944907686485 6.209468830321747e-17 -1.5766855058404588e-17 6.209468830321747e-17 -1.5766855058404588e-17 -0.999125179723237 -0.04181955574682944
12625302666.666666 -0.9994045507240292 -0.03450426048987767 6.196404942165756e-17 -1.622328617156874e-17 6.196404942165756e-17 -1.622328617156874e-17 -0.9994045296298676 -0.03450487146992359
12625920000.0 -0.9996303454213065 -0.02718772724470981 6.183005939326802e-17 -1.667864796581242e-17 6.183005939326802e-17 -1.667864796581242e-17 -0.9996303288008763 -0.027188338332908596
12626537333.333334 -0.9998025772836368 -0.019869737211393734 6.169272688352118e-17 -1.713291586570199e-17 6.169272688352118e-17 -1.713291586570199e-17 -0.9998025651373917 -0.0198703483749927
12627154666.666666 -0.9999212370824282 -0.01255068250728362 6.155206073789637e-17 -1.7586065365439056e-17 6.155206073789637e-17 -1.7586065365439056e-17 -0.9999212294105815 -0.012551293713529227
12627772000.0 -0.9999863184596247 -0.005230955306525162 6.14080699813227e-17 -1.8038072030182568e-17 6.14080699813227e-17 -1.8038072030182568e-17 -0.9999863152621499 -0.005231566522664798
12628389333.333334 -0.9999978179280398 0.00208905218047504 6.126076381761777e-17 -1.848891149734915e-17 6.126076381761777e-17 -1.848891149734915e-17 -0.9999978192046699 0.002088440987191317
12629006666.666666 -0.9999557348715479 0.009408947728434565 6.111015162890892e-17 -1.893855947793326e-17 6.111015162890892e-17 -1.893855947793326e-17 -0.9999557406217775 0.009408336590752265
12629624000.0 -0.9998600715451176 0.016728339117955873 6.095624297505124e-17 -1.9386991757803747e-17 6.095624297505124e-17 -1.9386991757803747e-17 -0.9998600817682017 0.016727728068614337
12630241333.333334 -0.9997108330746887 0.024046834156769788 6.079904759303178e-17 -1.9834184199007793e-17 6.079904759303178e-17 -1.9834184199007793e-17 -0.9997108477696427 0.024046223228500436
12630858666.666666 -0.9995080274569033 0.031364040700522997 6.06385753963717e-17 -2.0280112741049686e-17 6.06385753963717e-17 -2.0280112741049686e-17 -0.9995080466225004 0.03136342992604748
12631476000.0 -0.9992516655586634 0.03867956667401717 6.047483647450317e-17 -2.072475340220934e-17 6.047483647450317e-17 -2.072475340220934e-17 -0.9992516891934415 0.038678956086045824
12632093333.333334 -0.9989417611165659 0.04599302009201884 6.030784109215693e-17 -2.1168082280799504e-17 6.030784109215693e-17 -2.1168082280799504e-17 -0.9989417892188219 0.04599240972324876
12632710666.666666 -0.9985783307361593 0.05330400908034822 6.013759968872902e-17 -2.1610075556450622e-17 6.013759968872902e-17 -2.1610075556450622e-17 -0.9985783633039492 0.053303398963461486
12633328000.0 -0.9981613938910473 0.06061214189693336 5.996412287763214e-17 -2.2050709491405946e-17 5.996412287763214e-17 -2.2050709491405946e-17 -0.9981614309221902 0.06061153206459544
12633945333.333334 -0.9976909729218527 0.06791702695274414 5.978742144565634e-17 -2.2489960431762368e-17 5.978742144565634e-17 -2.2489960431762368e-17 -0.9976910144139284 0.06791641743760207
12634562666.666666 -0.9971670930350235 0.0752182728326895 5.960750635230195e-17 -2.292780480875542e-17 5.960750635230195e-17 -2.292780480875542e-17 -0.9971671389853732 0.07521766366737014
12635180000.0 -0.9965897823014717 0.08251548831678912 5.942438872911346e-17 -2.3364219140011917e-17 5.942438872911346e-17 -2.3364219140011917e-17 -0.9965898327071968 0.08251487953389731
12635797333.333334 -0.9959590716550788 0.08980828240093734 5.923807987900284e-17 -2.3799180030800744e-17 5.923807987900284e-17 -2.3799180030800744e-17 -0.9959591265130439 0.08980767403305435
12636414666.666666 -0.9952749948910369 0.09709626431793943 5.904859127556177e-17 -2.4232664175285335e-17 5.904859127556177e-17 -2.4232664175285335e-17 -0.9952750541978673 0.09709565639762108
12637032000.0 -0.9945375886640272 0.10437904355853482 5.885593456236295e-17 -2.4664648357772088e-17 5.885593456236295e-17 -2.4664648357772088e-17 -0.9945376524161104 0.1043784361183097
12637649333.333334 -0.9937468924862759 0.11165622989212347 5.866012155226022e-17 -2.5095109453936842e-17 5.866012155226022e-17 -2.5095109453936842e-17 -0.9937469606797615 0.11165562296449137
12638266666.666666 -0.9929029487254121 0.11892743338790161 5.846116422666875e-17 -2.5524024432070918e-17 5.846116422666875e-17 -2.5524024432070918e-17 -0.9929030213562129 0.11892682700533164
12638884000.0 -0.9920058026022257 0.12619226443552956 5.825907473484764e-17 -2.59513703542948e-17 5.825907473484764e-17 -2.59513703542948e-17 -0.9920058796660158 0.1261916586304584
12639501333.333334 -0.9910555021882141 0.1334503337662333 5.805386539316211e-17 -2.63771243777929e-17 5.805386539316211e-17 -2.63771243777929e-17 -0.9910555836804319 0.13344972857106363
12640118666.666666 -0.9900520984030423 0.14070125247340953 5.784554868434963e-17 -2.6801263756014565e-17 5.784554868434963e-17 -2.6801263756014565e-17 -0.9900521843188881 0.14070064792050807
12640736000.0 -0.9889956450117601 0.14794463203382968 5.763413725675969e-17 -2.7223765839905178e-17 5.763413725675969e-17 -2.7223765839905178e-17 -0.9889957353461991 0.14794402815552568
12641353333.333334 -0.9878861986219938 0.15518008432798 5.741964392360996e-17 -2.764460807908121e-17 5.741964392360996e-17 -2.764460807908121e-17 -0.9878862933697544 0.15517948115656352
12641970666.666666 -0.9867238186808585 0.16240722166122407 5.720208166220459e-17 -2.806376802305771e-17 5.720208166220459e-17 -2.806376802305771e-17 -0.9867239178364319 0.16240661922894373
12642588000.0 -0.9855085674717767 0.16962565678451902 5.698146361316862e-17 -2.8481223322419595e-17 5.698146361316862e-17 -2.8481223322419595e-17 -0.9855086710294206 0.16962505512358117
12643205333.333334 -0.9842405101111795 0.17683500291497037 5.675780307965711e-17 -2.8896951730020936e-17 5.675780307965711e-17 -2.8896951730020936e-17 -0.9842406180649149 0.17683440205753653
12643822666.666666 -0.982919714544956 0.18403487375689226 5.653111352656508e-17 -2.931093110215887e-17 5.653111352656508e-17 -2.931093110215887e-17 -0.9829198268885694 0.18403427373507797
12644440000.0 -0.9815462515448754 0.19122488352214215 5.630140857972404e-17 -2.972313939975077e-17 5.630140857972404e-17 -2.972313939975077e-17 -0.9815463682719187 0.191224284368015
12645057333.333334 -0.9801201947047591 0.19840464695101695 5.606870202509382e-17 -3.013355468949929e-17 5.606870202509382e-17 -3.013355468949929e-17 -0.98012031580855 0.1984040486965949
12645674666.666666 -0.9786416204365506 0.20557377933281198 5.583300780794608e-17 -3.0542155145049155e-17 5.583300780794608e-17 -3.0542155145049155e-17 -0.9786417459101726 0.20557318201006158
12646292000.0 -0.9771106079661976 0.212731896526546 5.559434003202594e-17 -3.094891904816307e-17 5.559434003202594e-17 -3.094891904816307e-17 -0.9771107378025011 0.21273130016738084
12646909333.333334 -0.9755272393294492 0.21987861498135006 5.535271295873078e-17 -3.135382478984568e-17 5.535271295873078e-17 -3.135382478984568e-17 -0.9755273735210521 0.21987801961762912
12647526666.666666 -0.9738915993674181 0.2270135517572138 5.510814100625995e-17 -3.175685087149696e-17 5.510814100625995e-17 -3.175685087149696e-17 -0.9738917379067056 0.22701295742073951
12648144000.0 -0.9722037757220587 0.23413632454539293 5.486063874875733e-17 -3.2157975906057714e-17 5.486063874875733e-17 -3.2157975906057714e-17 -0.9722039186011826 0.23413573126790946
12648761333.333334 -0.9704638588314514 0.24124655168897768 5.4610220915462017e-17 -3.255717861912041e-17 5.4610220915462017e-17 -3.255717861912041e-17 -0.9704640060423316 0.24124595950216923
12649378666.666666 -0.968671941925009 0.2483438522031216 5.4356902389833615e-17 -3.295443785006304e-17 5.4356902389833615e-17 -3.295443785006304e-17 -0.9686720934593362 0.24834326113861133
12649996000.0 -0.9668281210183961 0.25542784579581507 5.4100698208673396e-17 -3.334973255316822e-17 5.4100698208673396e-17 -3.334973255316822e-17 -0.9668282768676291 0.25542725588516274
12650613333.333334 -0.9649324949084592 0.2624981528879592 5.384162356124557e-17 -3.374304179872359e-17 5.384162356124557e-17 -3.374304179872359e-17 -0.9649326550638254 0.2624975641626593
12651230666.666666 -0.9629851651679094 0.2695543946337863 5.35796937883818e-17 -3.4134344774129056e-17 5.35796937883818e-17 -3.4134344774129056e-17 -0.9629853296204088 0.2695538071252673
12651848000.0 -0.9609862361398329 0.2765961929413529 5.331492438157845e-17 -3.4523620784995665e-17 5.331492438157845e-17 -3.4523620784995665e-17 -0.9609864048802339 0.27659560668097477
12652465333.333334 -0.9589358149321846 0.2836231704924689 5.304733098209012e-17 -3.491084925623143e-17 5.304733098209012e-17 -3.491084925623143e-17 -0.9589359879510273 0.2836225855115215
12653082666.666666 -0.9568340114120008 0.2906349507631076 5.2776929380016437e-17 -3.5296009733119006e-17 5.2776929380016437e-17 -3.5296009733119006e-17 -0.9568341886995969 0.29063436709280926
12653700000.0 -0.9546809381994903 0.29763115804363455 5.250373551337026e-17 -3.5679081882400705e-17 5.250373551337026e-17 -3.5679081882400705e-17 -0.9546811197459251 0.2976305757151306
12654317333.333334 -0.9524767106620636 0.3046114174587495 5.222776546715355e-17 -3.6060045493336346e-17 5.222776546715355e-17 -3.6060045493336346e-17 -0.9524768964571944 0.3046108365031103
12654934666.666666 -0.9502214469080899 0.3115753549877633 5.194903547241521e-17 -3.643888047876667e-17 5.194903547241521e-17 -3.643888047876667e-17 -0.9502216369415455 0.3115747754359821
12655552000.0 -0.9479152677805888 0.31852259748455564 5.1667561905296793e-17 -3.6815566876177365e-17 5.1667561905296793e-17 -3.6815566876177365e-17 -0.9479154620417755 0.3185220193675483
12656169333.333334 -0.9455582968507825 0.32545277269751827 5.1383361286090036e-17 -3.7190084848727605e-17 5.1383361286090036e-17 -3.7190084848727605e-17 -0.9455584953288777 0.3254521960461198
12656786666.666666 -0.943150660411448 0.3323655092895521 5.109645027826713e-17 -3.7562414686299265e-17 5.109645027826713e-17 -3.7562414686299265e-17 -0.943150863095407 0.332364934134517
12657404000.0 -0.94069248747013 0.339260436858048 5.0806845687508846e-17 -3.793253680653166e-17 5.0806845687508846e-17 -3.793253680653166e-17 -0.9406926943486822 0.33925986323004687
12658021333.333334 -0.9381839097422775 0.3461371859545705 5.051456446073339e-17 -3.830043175583675e-17 5.051456446073339e-17 -3.830043175583675e-17 -0.9381841208039289 0.3461366138841893
12658638666.666666 -0.9356250616441717 0.3529953881047086 5.021962368511005e-17 -3.866608021041921e-17 5.021962368511005e-17 -3.866608021041921e-17 -0.9356252768772061 0.35299481762244717
12659256000.0 -0.9330160802856547 0.35983467582800693 4.992204058705913e-17 -3.902946297729531e-17 4.992204058705913e-17 -3.902946297729531e-17 -0.9330162996781326 0.3598341069642766
12659873333.333334 -0.9303571054628985 0.36665468265733464 4.962183253126613e-17 -3.9390560995277696e-17 4.962183253126613e-17 -3.9390560995277696e-17 -0.9303573290026593 0.3666541154424574
12660490666.666666 -0.9276482796508491 0.37345504315871036 4.9319017019667843e-17 -3.974935533597947e-17 4.9319017019667843e-17 -3.974935533597947e-17 -0.9276485073255107 0.37345447762291667
12661108000.0 -0.9248897479955669 0.38023539295093406 4.901361169043605e-17 -4.0105827204803115e-17 4.901361169043605e-17 -4.0105827204803115e-17 -0.9248899797925269 0.38023482912436135
12661725333.333334 -0.9220816583065258 0.3869953687249278 4.870563431696535e-17 -4.04599579419097e-17 4.870563431696535e-17 -4.04599579419097e-17 -0.9220818942129626 0.38699480663761926
12662342666.666666 -0.9192241610486048 0.393734608263412 4.839510280683605e-17 -4.081172902320068e-17 4.839510280683605e-17 -4.081172902320068e-17 -0.9192244010514785 0.39373404794531514
12662960000.0 -0.9163174093341178 0.40045275046010664 4.8082035200789105e-17 -4.116112206127012e-17 4.8082035200789105e-17 -4.116112206127012e-17 -0.916317653420169 0.4004521919410705
12663577333.333334 -0.913361558914515 0.4071494353392869 4.776644967167625e-17 -4.150811880636934e-17 4.776644967167625e-17 -4.150811880636934e-17 -0.9133618070702677 0.40714887864906146
12664194666.666666 -0.9103567681721316 0.41382430407486426 4.7448364523415297e-17 -4.18527011473502e-17 4.7448364523415297e-17 -4.18527011473502e-17 -0.9103570203838922 0.4138237492430986
12664812000.0 -0.9073031981116066 0.4204769990098211 4.712779818993861e-17 -4.2194851112600334e-17 4.712779818993861e-17 -4.2194851112600334e-17 -0.9073034543654663 0.42047644606606194
12665429333.333334 -0.9042010123513383 0.427107163675193 4.680476923412292e-17 -4.2534550870983937e-17 4.680476923412292e-17 -4.2534550870983937e-17 -0.9042012726331733 0.42710661264888317
12666046666.666666 -0.9010503771146978 0.4337144428092231 4.6479296346730675e-17 -4.287178273275438e-17 4.6479296346730675e-17 -4.287178273275438e-17 -0.9010506414101686 0.4337138937296993
12666664000.0 -0.8978514612210172 0.4402984823766002 4.61513983453249e-17 -4.3206529150479684e-17 4.61513983453249e-17 -4.3206529150479684e-17 -0.8978517295155725 0.44029793527309263
12667281333.333334 -0.8946044360767598 0.4468589295869961 4.5821094173196554e-17 -4.3538772719940596e-17 4.5821094173196554e-17 -4.3538772719940596e-17 -0.8946047083556339 0.4468583844886258
12667898666.666666 -0.8913094756661212 0.4533954329144025 4.548840289827373e-17 -4.386849618103178e-17 4.548840289827373e-17 -4.386849618103178e-17 -0.8913097519143368 0.4533948898501803
12668516000.0 -0.8879667565418057 0.4599076421157616 4.515334371201863e-17 -4.4195682418661424e-17 4.515334371201863e-17 -4.4195682418661424e-17 -0.8879670367441747 0.4599071011145867
12669133333.333334 -0.884576457815596 0.46639520824968456 4.4815935928341693e-17 -4.452031446361804e-17 4.4815935928341693e-17 -4.452031446361804e-17 -0.8845767419567199 0.4663946693403428
12669750666.666666 -0.8811387611486626 0.47285778369532444 4.447619898248581e-17 -4.484237549345338e-17 4.447619898248581e-17 -4.484237549345338e-17 -0.8811390492129331 0.4728572469064867
