! Parameters = {f0=12700.012000; bw=77.238000; Q=6100.000000; N=10; m_0_1=1.251547; m_1_1=0.008453; m_1_2=1.086359; m_2_2=0.007804; m_2_3=0.723322; m_2_8=-0.000359; m_2_9=0.036345; m_3_3=0.005867; m_3_4=0.611851; m_3_7=0.000241; m_3_8=-0.096847; m_3_9=-0.000359; m_4_4=0.002942; m_4_5=0.448186; m_4_6=0.003758; m_4_7=-0.117396; m_4_8=0.000241; m_5_5=0.003324; m_5_6=0.855541; m_5_7=0.003758; m_6_6=0.003323; m_6_7=0.448528; m_7_7=0.002956; m_7_8=0.611969; m_8_8=0.005865; m_8_9=0.723635; m_9_9=0.007799; m_9_10=1.087437; m_10_10=0.008443; m_10_11=1.252342}
!
! Created with skrf (http://scikit-rf.org).
# Hz S RI R 50.0 
!freq ReS11 ImS11 ReS21 ImS21 ReS12 ImS12 ReS22 ImS22
12607400000.0 0.7949133715730812 -0.6067229447566203 -5.975284631125816e-17 8.180545636955672e-17 -5.975284631125816e-17 8.180545636955672e-17 0.7949137716596126 -0.6067224205728002
12608017333.333334 0.7888203797388855 -0.6146237942908078 -5.89148307650045e-17 8.238664224467666e-17 -5.89148307650045e-17 8.238664224467666e-17 0.7888207850155706 -0.6146232741503106
12608634666.666666 0.7826488624364897 -0.6224634592702589 -5.807117330848919e-17 8.295925190152352e-17 -5.807117330848919e-17 8.295925190152352e-17 0.7826492728624778 -0.6224629432244648
12609252000.0 0.7763994340279887 -0.630241159272264 -5.722196162679059e-17 8.352323068484774e-17 -5.722196162679059e-17 8.352323068484774e-17 0.7763998495619207 -0.6302406473721411
12609869333.333334 0.7700727166313512 -0.6379561200426236 -5.636728393326178e-17 8.40785248350828e-17 -5.636728393326178e-17 8.40785248350828e-17 0.7700731372313636 -0.6379556123387223
12610486666.666666 0.7636693400585801 -0.645607573572616 -5.550722896040452e-17 8.462508149342985e-17 -5.550722896040452e-17 8.462508149342985e-17 0.7636697656823084 -0.6456070701150635
12611104000.0 0.7571899417528337 -0.6531947581756681 -5.46418859506524e-17 8.516284870687519e-17 -5.46418859506524e-17 8.516284870687519e-17 0.7571903723574182 -0.6531942590141641
12611721333.333334 0.7506351667251502 -0.6607169185629603 -5.377134464716702e-17 8.569177543307558e-17 -5.377134464716702e-17 8.569177543307558e-17 0.7506356022672406 -0.6607164237467733
12612338666.666666 0.7440056674901709 -0.6681733059187067 -5.289569528452897e-17 8.621181154518691e-17 -5.289569528452897e-17 8.621181154518691e-17 0.7440061079259277 -0.668172815496666
12612956000.0 0.7373021040011011 -0.675563177974776 -5.201502857940851e-17 8.672290783657983e-17 -5.201502857940851e-17 8.672290783657983e-17 0.7373025492862026 -0.6755626919952695
12613573333.333334 0.7305251435842048 -0.6828857990843743 -5.1129435721202285e-17 8.722501602545663e-17 -5.1129435721202285e-17 8.722501602545663e-17 0.7305255936738525 -0.6828853175953439
12614190666.666666 0.7236754608721883 -0.6901404402954909 -5.02390083626025e-17 8.771808875938411e-17 -5.02390083626025e-17 8.771808875938411e-17 0.7236759157211078 -0.6901399633444255
12614808000.0 0.7167537377371294 -0.6973263794233541 -4.934383861013589e-17 8.820207961972425e-17 -4.934383861013589e-17 8.820207961972425e-17 0.7167541972995775 -0.697325907057286
12615425333.333334 0.7097606632225839 -0.7044429011223451 -4.844401901465786e-17 8.86769431259699e-17 -4.844401901465786e-17 8.86769431259699e-17 0.709761127452354 -0.7044424333878477
12616042666.666666 0.7026969334749932 -0.711489296957213 -4.753964256180511e-17 8.914263473998344e-17 -4.753964256180511e-17 8.914263473998344e-17 0.702697402325417 -0.7114888339003922
12616660000.0 0.6955632516743822 -0.7184648654735938 -4.663080266240833e-17 8.959911087013899e-17 -4.663080266240833e-17 8.959911087013899e-17 0.6955637250983365 -0.7184644071400856
12617277333.333334 0.6883603279643383 -0.7253689122678592 -4.571759314286253e-17 9.004632887536727e-17 -4.571759314286253e-17 9.004632887536727e-17 0.6883608059142501 -0.7253684587028256
12617894666.666666 0.6810888793814454 -0.7322007500561283 -4.4800108235477777e-17 9.04842470690954e-17 -4.4800108235477777e-17 9.04842470690954e-17 0.6810893618092942 -0.7322003013042517
12618512000.0 0.6737496297835884 -0.7389596987429737 -4.387844256873776e-17 9.091282472311356e-17 -4.387844256873776e-17 9.091282472311356e-17 0.6737501166409147 -0.7389592548484537
12619129333.333334 0.6663433097783155 -0.7456450854887393 -4.295269115761284e-17 9.133202207129982e-17 -4.295269115761284e-17 9.133202207129982e-17 0.6663438010162223 -0.7456446464952874
12619746666.666666 0.6588706566498117 -0.7522562447767878 -4.202294939374977e-17 9.174180031328856e-17 -4.202294939374977e-17 9.174180031328856e-17 0.6588711522189714 -0.7522558107276234
12620364000.0 0.6513324142855266 -0.7587925184797327 -4.108931303566572e-17 9.214212161802053e-17 -4.108931303566572e-17 9.214212161802053e-17 0.6513329141361847 -0.7587920894175781
12620981333.333334 0.6437293331023115 -0.765253255924784 -4.015187819893027e-17 9.253294912718462e-17 -4.015187819893027e-17 9.253294912718462e-17 0.6437298371842918 -0.7652528318918613
12621598666.666666 0.6360621699715029 -0.7716378139587065 -3.921074134626508e-17 9.291424695858154e-17 -3.921074134626508e-17 9.291424695858154e-17 0.6360626782342148 -0.7716373949967343
12622216000.0 0.6283316881436882 -0.7779455570117565 -3.8265999277651874e-17 9.328598020937058e-17 -3.8265999277651874e-17 9.328598020937058e-17 0.628332200536128 -0.777945143161943
12622833333.333334 0.6205386571726774 -0.7841758571609811 -3.731774912039134e-17 9.364811495922289e-17 -3.731774912039134e-17 9.364811495922289e-17 0.6205391736434361 -0.7841754484640221
12623450666.666666 0.6126838528389872 -0.7903280941926605 -3.63660883191519e-17 9.400061827336781e-17 -3.63660883191519e-17 9.400061827336781e-17 0.6126843733362553 -0.7903276906887352
12624068000.0 0.6047680570725259 -0.7964016556641205 -3.541111462595252e-17 9.434345820555193e-17 -3.541111462595252e-17 9.434345820555193e-17 0.6047685815440965 -0.7964012573928863
12624685333.333334 0.5967920578746357 -0.8023959369647794 -3.445292609015561e-17 9.467660380088228e-17 -3.445292609015561e-17 9.467660380088228e-17 0.5967925862679138 -0.8023955439653707
12625302666.666666 0.5887566492400167 -0.808310341376069 -3.349162104843707e-17 9.500002509856845e-17 -3.349162104843707e-17 9.500002509856845e-17 0.5887571815020203 -0.8083099536870901
12625920000.0 0.5806626310772495 -0.8141442801311537 -3.252729811467653e-17 9.531369313458073e-17 -3.252729811467653e-17 9.531369313458073e-17 0.5806631671546174 -0.8141438977906775
12626537333.333334 0.5725108091295119 -0.8198971724732923 -3.1560056169899764e-17 9.561757994418118e-17 -3.1560056169899764e-17 9.561757994418118e-17 0.5725113489685084 -0.8198967955188551
12627154666.666666 0.5643019948942317 -0.8255684457137522 -3.058999435214347e-17 9.591165856437043e-17 -3.058999435214347e-17 9.591165856437043e-17 0.5643025384407511 -0.8255680741823495
12627772000.0 0.5560370055421603 -0.8311575352889111 -2.961721204629794e-17 9.619590303623137e-17 -2.961721204629794e-17 9.619590303623137e-17 0.556037552741734 -0.8311571692169969
12628389333.333334 0.5477166638363553 -0.8366638848162391 -2.864180887398609e-17 9.647028840715315e-17 -2.864180887398609e-17 9.647028840715315e-17 0.5477172146341571 -0.8366635242397202
12629006666.666666 0.5393417980499248 -0.8420869461499233 -2.7663884683329572e-17 9.673479073298057e-17 -2.7663884683329572e-17 9.673479073298057e-17 0.5393423523907739 -0.8420865911041543
12629624000.0 0.5309132418838287 -0.8474261794352548 -2.668353953879431e-17 9.698938708003048e-17 -2.668353953879431e-17 9.698938708003048e-17 0.5309137997121981 -0.8474258299550376
12630241333.333334 0.5224318343837486 -0.8526810531624711 -2.5700873710944387e-17 9.723405552702769e-17 -2.5700873710944387e-17 9.723405552702769e-17 0.5224323956437694 -0.8526807092820503
12630858666.666666 0.5138984198567284 -0.857851044219558 -2.4715987666225632e-17 9.74687751669241e-17 -2.4715987666225632e-17 9.74687751669241e-17 0.5138989844921962 -0.8578507059726179
12631476000.0 0.5053138477867629 -0.8629356379445489 -2.3728982056683514e-17 9.769352610862689e-17 -2.3728982056683514e-17 9.769352610862689e-17 0.5053144157411413 -0.8629353053642076
12632093333.333334 0.4966789727506931 -0.8679343281764733 -2.273995770973299e-17 9.790828947860716e-17 -2.273995770973299e-17 9.790828947860716e-17 0.4966795439671221 -0.8679340012952834
12632710666.666666 0.4879946543328943 -0.8728466173058979 -2.174901561786461e-17 9.811304742241733e-17 -2.174901561786461e-17 9.811304742241733e-17 0.48799522875419454 -0.8728462961558414
12633328000.0 0.4792617570396059 -0.8776720163245152 -2.0756256928326525e-17 9.83077831061059e-17 -2.0756256928326525e-17 9.83077831061059e-17 0.47926233460828416 -0.8776717009369998
12633945333.333334 0.47048115021309245 -0.8824100448736943 -1.976178293286204e-17 9.849248071751471e-17 -1.976178293286204e-17 9.849248071751471e-17 0.4704817308713486 -0.8824097352795522
12634562666.666666 0.4616537079449811 -0.8870602312923739 -1.8765695057369428e-17 9.866712546748625e-17 -1.8765695057369428e-17 9.866712546748625e-17 0.46165429163471255 -0.8870599275218567
12635180000.0 0.4527803089892702 -0.8916221126639975 -1.7768094851582983e-17 9.883170359096029e-17 -1.7768094851582983e-17 9.883170359096029e-17 0.4527808956520784 -0.8916218147467744
12635797333.333334 0.443861836674827 -0.8960952348626111 -1.676908397873713e-17 9.898620234796843e-17 -1.676908397873713e-17 9.898620234796843e-17 0.44386242625202327 -0.8960949428277658
12636414666.666666 0.43489917881755513 -0.9004791525980186 -1.5768764205237166e-17 9.913061002452164e-17 -1.5768764205237166e-17 9.913061002452164e-17 0.4348997712501662 -0.9004788664740461
12637032000.0 0.425893227631862 -0.904773429460185 -1.4767237390295427e-17 9.92649159333985e-17 -1.4767237390295427e-17 9.92649159333985e-17 0.4258938228606363 -0.9047731492749895
12637649333.333334 0.41684487964194233 -0.9089776379626311 -1.3764605475593135e-17 9.938911041482415e-17 -1.3764605475593135e-17 9.938911041482415e-17 0.41684547760735596 -0.9089773637435231
12638266666.666666 0.40775503559253173 -0.9130913595849888 -1.2760970474909684e-17 9.950318483704926e-17 -1.2760970474909684e-17 9.950318483704926e-17 0.4077556362347937 -0.9130910913586818
12638884000.0 0.3986246003591344 -0.9171141848147093 -1.1756434463779688e-17 9.960713159681952e-17 -1.1756434463779688e-17 9.960713159681952e-17 0.3986252036181939 -0.9171139226073188
12639501333.333334 0.38945448285807693 -0.9210457131877753 -1.0751099569116918e-17 9.970094411974664e-17 -1.0751099569116918e-17 9.970094411974664e-17 0.3894550886736276 -0.921045457024813
12640118666.666666 0.3802455959560769 -0.9248855533285388 -9.745067958870855e-18 9.978461686056955e-17 -9.745067958870855e-18 9.978461686056955e-17 0.3802462042675642 -0.9248853032349141
12640736000.0 0.3709988563789785 -0.9286333229888533 -8.738441831617993e-18 9.985814530331788e-17 -8.738441831617993e-18 9.985814530331788e-17 0.37099946712560583 -0.9286330789888687
12641353333.333334 0.36171518462112295 -0.9322886490858591 -7.731323406267669e-18 9.992152596136198e-17 -7.731323406267669e-18 9.992152596136198e-17 0.3617157977418568 -0.9322884112032082
12641970666.666666 0.3523955048531642 -0.9358511677393544 -6.723814911641989e-18 9.997475637736828e-17 -6.723814911641989e-18 9.997475637736828e-17 0.3523961202867404 -0.9358509359971184
12642588000.0 0.3430407448303309 -0.9393205243079069 -5.7160185761469695e-18 1.0001783512314416e-16 -5.7160185761469695e-18 1.0001783512314416e-16 0.3430413625152618 -0.9393202987285554
12643205333.333334 0.33365183580004665 -0.9426963734241736 -4.708036617419264e-18 1.0005076179938067e-16 -4.708036617419264e-18 1.0005076179938067e-16 0.3336524556746258 -0.9426961540295589
12643822666.666666 0.3242297124091439 -0.9459783790293066 -3.6999712319553184e-18 1.0007353703529187e-16 -3.6999712319553184e-18 1.0007353703529187e-16 0.32423033441145316 -0.9459781658406637
12644440000.0 0.3147753126108492 -0.9491662144063984 -2.691924584800738e-18 1.0008616248814827e-16 -2.691924584800738e-18 1.0008616248814827e-16 0.31477593667876513 -0.9491660074443438
12645057333.333334 0.30528957757154623 -0.9522595622129594 -1.6839987992013747e-18 1.0008864084270805e-16 -1.6839987992013747e-18 1.0008864084270805e-16 0.3052902036427454 -0.9522593614974866
12645674666.666666 0.29577345157697815 -0.9552581145125496 -6.7629594627973585e-19 1.0008097581054418e-16 -6.7629594627973585e-19 1.0008097581054418e-16 0.2957740795889439 -0.9552579200630285
12646292000.0 0.2862278819380817 -0.9581615728054793 3.310819653020526e-19 1.0006317212926677e-16 3.310819653020526e-19 1.0006317212926677e-16 0.28622851182811015 -0.9581613846406539
12646909333.333334 0.2766538188970376 -0.960969648058416 1.3380329996120178e-18 1.0003523556164356e-16 1.3380329996120178e-18 1.0003523556164356e-16 0.2766544506022442 -0.9609694661964032
12647526666.666666 0.26705221553240427 -0.9636820607332405 2.344455303769334e-18 9.99971728946152e-17 2.344455303769334e-18 9.99971728946152e-17 0.26705284898973003 -0.9636818851915285
12648144000.0 0.25742402766426725 -0.9662985408148642 3.3502471182357716e-18 9.994899193820777e-17 3.3502471182357716e-18 9.994899193820777e-17 0.2574246628104848 -0.9662983716103102
12648761333.333334 0.24777021375919941 -0.9688188278380794 4.35530678705677e-18 9.98907015243433e-17 4.35530678705677e-18 9.98907015243433e-17 0.24777085053091943 -0.9688186649869074
12649378666.666666 0.2380917348348469 -0.9712426709134864 5.359532768127785e-18 9.982231150554585e-17 5.359532768127785e-18 9.982231150554585e-17 0.2380923731685245 -0.9712425144312872
12649996000.0 0.22838955436412509 -0.973569828752508 6.3628236434451095e-18 9.974383275354498e-17 6.3628236434451095e-18 9.974383275354498e-17 0.22839019419606593 -0.9735696786542363
12650613333.333334 0.2186646381793881 -0.9758000696913826 7.365078129320203e-18 9.965527715777662e-17 7.365078129320203e-18 9.965527715777662e-17 0.21866527944575545 -0.9757999259913577
12651230666.666666 0.20891795437642283 -0.9779331717142027 8.366195086573724e-18 9.955665762378339e-17 8.366195086573724e-18 9.955665762378339e-17 0.2089185970132429 -0.977933034426104
12651848000.0 0.19915047321768686 -0.9799689224750966 9.366073530750457e-18 9.944798807150776e-17 9.366073530750457e-18 9.944798807150776e-17 0.19915111716085562 -0.9799687916119635
12652465333.333334 0.1893631670361372 -0.981907119319274 1.0364612642260913e-17 9.932928343348903e-17 1.0364612642260913e-17 9.932928343348903e-17 0.1893638122214273 -0.981906994893507
12653082666.666666 0.17955701013832684 -0.983747569303231 1.13617117765249e-17 9.920055965295611e-17 1.13617117765249e-17 9.920055965295611e-17 0.1795576565013933 -0.9837474513265877
12653700000.0 0.16973297870716256 -0.9854900892140034 1.2357270474135702e-17 9.90618336818139e-17 1.2357270474135702e-17 9.90618336818139e-17 0.16973362618354942 -0.9854899776975979
12654317333.333334 0.15989205070511928 -0.9871345055873301 1.3351188470905703e-17 9.891312347853947e-17 1.3351188470905703e-17 9.891312347853947e-17 0.1598926992302661 -0.987134400541633
12654934666.666666 0.15003520577660584 -0.9886806547249734 1.4343365707984103e-17 9.875444800596561e-17 1.4343365707984103e-17 9.875444800596561e-17 0.15003585528585417 -0.9886805561598103
12655552000.0 0.14016342515044347 -0.9901283827110131 1.533370234190759e-17 9.858582722896834e-17 1.533370234190759e-17 9.858582722896834e-17 0.140164075579043 -0.9901282906355626
12656169333.333334 0.13027769154243912 -0.9914775454271282 1.6322098754603013e-17 9.840728211205818e-17 1.6322098754603013e-17 9.840728211205818e-17 0.13027834282555462 -0.9914774598499236
12656786666.666666 0.12037898905727704 -0.9927280085669881 1.7308455563416426e-17 9.821883461686216e-17 1.7308455563416426e-17 9.821883461686216e-17 0.12037964112999429 -0.9927279294959134
12657404000.0 0.11046830309069378 -0.9938796476496002 1.8292673631069675e-17 9.802050769951346e-17 1.8292673631069675e-17 9.802050769951346e-17 0.11046895588802641 -0.9938795750918916
12658021333.333334 0.10054662023132754 -0.9949323480317079 1.9274654075621712e-17 9.781232530793514e-17 1.9274654075621712e-17 9.781232530793514e-17 0.10054727368822342 -0.9949322819939529
12658638666.666666 0.09061492816267519 -0.9958860049191889 2.025429828035292e-17 9.759431237903418e-17 2.025429828035292e-17 9.759431237903418e-17 0.09061558221402288 -0.9958859454073256
12659256000.0 0.08067421556437436 -0.9967405233775256 2.1231507903688104e-17 9.7366494835782e-17 2.1231507903688104e-17 9.7366494835782e-17 0.0806748701450095 -0.9967404703968405
12659873333.333334 0.07072547201420616 -0.9974958183412088 2.2206184889021184e-17 9.712889958420993e-17 2.2206184889021184e-17 9.712889958420993e-17 0.07072612705891823 -0.99749577189634
12660490666.666666 0.06076968788947262 -0.9981518146222279 2.3178231474535054e-17 9.688155451030155e-17 2.3178231474535054e-17 9.688155451030155e-17 0.06077034333301111 -0.9981517747171605
12661108000.0 0.05080785426815076 -0.9987084469175659 2.4147550203015063e-17 9.662448847677901e-17 2.4147550203015063e-17 9.662448847677901e-17 0.050808510045231896 -0.9987084135556348
12661725333.333334 0.040840962830630045 -0.9991656598156767 2.5114043931562055e-17 9.635773131980893e-17 2.5114043931562055e-17 9.635773131980893e-17 0.04084161887594324 -0.9991656329995652
12662342666.666666 0.030870005760680667 -0.9995234078020212 2.607761584133824e-17 9.608131384559298e-17 2.607761584133824e-17 9.608131384559298e-17 0.030870662008894923 -0.9995233875337594
12662960000.0 0.020895975646825285 -0.9997816552635872 2.7038169447229902e-17 9.579526782687392e-17 2.7038169447229902e-17 9.579526782687392e-17 0.02089663203259584 -0.9997816415445541
12663577333.333334 0.010919865383500663 -0.9999403764924365 2.7995608607502755e-17 9.549962599933733e-17 2.7995608607502755e-17 9.549962599933733e-17 0.010920521841475453 -0.9999403693233612
12664194666.666666 0.0009426680722170396 -0.9999995556882685 2.8949837533388506e-17 9.51944220579248e-17 2.8949837533388506e-17 9.51944220579248e-17 0.0009433245370431225 -0.9999995550692252
12664812000.0 -0.009034623077274786 -0.9999591869599888 2.99007607986595e-17 9.487969065304489e-17 2.99007607986595e-17 9.487969065304489e-17 -0.009033966670944629 -0.9999591928903993
12665429333.333334 -0.019011014845997477 -0.9998192743262926 3.0848283349151664e-17 9.455546738669043e-17 3.0848283349151664e-17 9.455546738669043e-17 -0.01901035856349829 -0.9998192868049295
12666046666.666666 -0.028985514104307566 -0.9995798317152756 3.1792310512233034e-17 9.422178880846706e-17 3.1792310512233034e-17 9.422178880846706e-17 -0.02898485801095566 -0.9995798507402571
12666664000.0 -0.03895712791118564 -0.9992408829630328 3.273274800627247e-17 9.387869241151152e-17 3.273274800627247e-17 9.387869241151152e-17 -0.03895647207227217 -0.9992409085318279
12667281333.333334 -0.04892486361265547 -0.9988024618112994 3.3669501949998446e-17 9.352621662833969e-17 3.3669501949998446e-17 9.352621662833969e-17 -0.04892420809343989 -0.9988024939207252
12667898666.666666 -0.05888772894088489 -0.998264611904086 3.460247887187517e-17 9.31644008265799e-17 3.460247887187517e-17 9.31644008265799e-17 -0.05888707380658844 -0.9982646505503077
12668516000.0 -0.06884473211296362 -0.9976273867833239 3.553158571941961e-17 9.27932853046167e-17 3.553158571941961e-17 9.27932853046167e-17 -0.06884407742876293 -0.9976274319618587
12669133333.333334 -0.07879488192937836 -0.9968908498835597 3.6456729868422995e-17 9.241291128716237e-17 3.6456729868422995e-17 9.241291128716237e-17 -0.07879422776039882 -0.9968909015892724
12669750666.666666 -0.08873718787296787 -0.9960550745256148 3.7377819132201255e-17 9.202332092070599e-17 3.7377819132201255e-17 9.202332092070599e-17 -0.08873653428427733 -0.9960551327527234
12670368000.0 -0.09867066020741377 -0.9951201439092983 3.829476177074781e-17 9.162455726889106e-17 3.829476177074781e-17 9.162455726889106e-17 -0.09867000726401602 -0.9951202086513717
