! Parameters = {f0=12700.012000; bw=77.238000; Q=6100.000000; N=10; m_0_1=1.231526; m_1_1=-0.291848; m_1_2=1.066338; m_2_2=-0.292497; m_2_3=0.703301; m_2_8=-0.001360; m_2_9=0.035344; m_3_3=-0.294434; m_3_4=0.591830; m_3_7=-0.000760; m_3_8=-0.097848; m_3_9=-0.001360; m_4_4=-0.297359; m_4_5=0.428165; m_4_6=0.002757; m_4_7=-0.118397; m_4_8=-0.000760; m_5_5=-0.296977; m_5_6=0.835520; m_5_7=0.002757; m_6_6=-0.296978; m_6_7=0.428507; m_7_7=-0.297345; m_7_8=0.591948; m_8_8=-0.294436; m_8_9=0.703614; m_9_9=-0.292502; m_9_10=1.067416; m_10_10=-0.291858; m_10_11=1.232321}
!
! Created with skrf (http://scikit-rf.org).
# Hz S RI R 50.0 
!freq ReS11 ImS11 ReS21 ImS21 ReS12 ImS12 ReS22 ImS22
12607400000.0 0.4325565350795337 -0.9016068122856115 -1.4583499805946238e-17 9.076166316346354e-17 -1.4583499805946238e-17 9.076166316346354e-17 0.43255712014089387 -0.9016065315952687
12608017333.333334 0.4240755139083942 -0.9056268318149397 -1.3720271126560911e-17 9.087795359833658e-17 -1.3720271126560911e-17 9.087795359833658e-17 0.4240761015496101 -0.9056265566414883
12608634666.666666 0.4155571366580306 -0.9095670762359492 -1.2856148835015058e-17 9.09860401852601e-17 -1.2856148835015058e-17 9.09860401852601e-17 0.41555772682708786 -0.909566806603087
12609252000.0 0.4070021536976722 -0.9134271984593467 -1.199121083880378e-17 9.108591643638292e-17 -1.199121083880378e-17 9.108591643638292e-17 0.40700274634233885 -0.9134269343902816
12609869333.333334 0.39841131862102935 -0.9172068584536897 -1.1125535088101349e-17 9.117757660313942e-17 -1.1125535088101349e-17 9.117757660313942e-17 0.3984119136888607 -0.9172065999711374
12610486666.666666 0.38978538818006747 -0.9209057232752705 -1.025919956876425e-17 9.12610156764745e-17 -1.025919956876425e-17 9.12610156764745e-17 0.3897859856184098 -0.9209054704014513
12611104000.0 0.3811251222180574 -0.9245234670975665 -9.392282295292101e-18 9.133622938700587e-17 -9.392282295292101e-18 9.133622938700587e-17 0.38112572197405453 -0.9245232198542067
12611721333.333334 0.3724312836030098 -0.9280597712397881 -8.524861303856413e-18 9.140321420511385e-17 -8.524861303856413e-18 9.140321420511385e-17 0.3724318856236058 -0.9280595296481142
12612338666.666666 0.3637046381602133 -0.9315143241950615 -7.657014645254738e-18 9.146196734097182e-17 -7.657014645254738e-18 9.146196734097182e-17 0.36370524239215796 -0.9315140882758004
12612956000.0 0.35494595460477224 -0.9348868216578632 -6.788820377918208e-18 9.151248674450491e-17 -6.788820377918208e-18 9.151248674450491e-17 0.35494656099462585 -0.9348865914312399
12613573333.333334 0.3461560044741311 -0.9381769665507357 -5.9203565609186126e-18 9.155477110528375e-17 -5.9203565609186126e-18 9.155477110528375e-17 0.34615661296826916 -0.9381767420364723
12614190666.666666 0.33733556205984605 -0.9413844690505585 -5.0517012469416876e-18 9.158881985235416e-17 -5.0517012469416876e-18 9.158881985235416e-17 0.33733617260446436 -0.941384250267873
12614808000.0 0.32848540433951184 -0.9445090466140283 -4.1829324753001524e-18 9.161463315399767e-17 -4.1829324753001524e-18 9.161463315399767e-17 0.3284860168806304 -0.9445088335816306
12615425333.333334 0.3196063109082925 -0.9475504240025577 -3.314128264935091e-18 9.16322119174274e-17 -3.314128264935091e-18 9.16322119174274e-17 0.3196069253917605 -0.9475502167386487
12616042666.666666 0.3106990639102468 -0.9505083333065156 -2.445366607424479e-18 9.164155778841719e-17 -2.445366607424479e-18 9.164155778841719e-17 0.31069968028174827 -0.9505081318287881
12616660000.0 0.3017644479694332 -0.9533825139688361 -1.5767254599969303e-18 9.164267315086527e-17 -1.5767254599969303e-18 9.164267315086527e-17 0.30176506617449084 -0.9533823182944705
12617277333.333334 0.2928032501207639 -0.9561727128079699 -7.082827385486114e-19 9.16355611262906e-17 -7.082827385486114e-19 9.16355611262906e-17 0.2928038701047444 -0.9561725229536342
12617894666.666666 0.28381625974084074 -0.9588786840401419 1.5988368931511989e-19 9.16202255732653e-17 1.5988368931511989e-19 9.16202255732653e-17 0.28381688144895934 -0.9588785000219897
12618512000.0 0.27480426847801237 -0.961500189301125 1.0276960112857528e-18 9.159667108677877e-17 1.0276960112857528e-18 9.159667108677877e-17 0.27480489185533796 -0.9615000111347946
12619129333.333334 0.26576807018318316 -0.9640369976670715 1.8950764772587987e-18 9.156490299753809e-17 1.8950764772587987e-18 9.156490299753809e-17 0.26576869517464263 -0.9640368253676835
12619746666.666666 0.25670846083950327 -0.966488885674971 2.7619474063212224e-18 9.152492737120168e-17 2.7619474063212224e-18 9.152492737120168e-17 0.2567090873898873 -0.9664887192571289
12620364000.0 0.2476262384922786 -0.9688556373423234 3.6282311936908484e-18 9.147675100754659e-17 3.6282311936908484e-18 9.147675100754659e-17 0.24762686654624536 -0.9688554768201096
12620981333.333334 0.23852220317891892 -0.9711370441860968 4.493850317625474e-18 9.142038143957307e-17 4.493850317625474e-18 9.142038143957307e-17 0.23852283268099986 -0.9711368895730742
12621598666.666666 0.22939715685818973 -0.9733329052411679 5.358727346371176e-18 9.13558269325398e-17 5.358727346371176e-18 9.13558269325398e-17 0.2293977877527943 -0.973332756550378
12622216000.0 0.22025190333970687 -0.9754430270779894 6.222784945060901e-18 9.12830964829373e-17 6.222784945060901e-18 9.12830964829373e-17 0.2202525355711269 -0.9754428843219489
12622833333.333334 0.21108724821307392 -0.9774672238196367 7.085945882619778e-18 9.120219981739363e-17 7.085945882619778e-18 9.120219981739363e-17 0.21108788172548926 -0.9774670870103401
12623450666.666666 0.20190399877703105 -0.9794053171581616 7.948133038642916e-18 9.111314739151738e-17 7.948133038642916e-18 9.111314739151738e-17 0.20190463351451426 -0.9794051863070787
12624068000.0 0.19270296396820327 -0.9812571363703322 8.809269410283919e-18 9.101595038867343e-17 8.809269410283919e-18 9.101595038867343e-17 0.1927035998747242 -0.9812570114884053
12624685333.333334 0.18348495428981276 -0.9830225183326673 9.669278119117101e-18 9.091062071869438e-17 9.669278119117101e-18 9.091062071869438e-17 0.18348559130924413 -0.9830223994303138
12625302666.666666 0.1742507817405637 -0.9847013075357602 1.0528082417970504e-17 9.079717101653011e-17 1.0528082417970504e-17 9.079717101653011e-17 0.17425141981668527 -0.9847011946228679
12625920000.0 0.16500125974269475 -0.9862933560980517 1.1385605697783052e-17 9.06756146408273e-17 1.1385605697783052e-17 9.06756146408273e-17 0.1650018988191989 -0.9862932491839803
12626537333.333334 0.15573720307071767 -0.9877985237787836 1.2241771494397742e-17 9.054596567245139e-17 1.2241771494397742e-17 9.054596567245139e-17 0.1557378430912142 -0.9877984228723642
12627154666.666666 0.14645942777947812 -0.9892166779903899 1.309650349537788e-17 9.040823891293966e-17 1.309650349537788e-17 9.040823891293966e-17 0.1464600686874992 -0.9892165830999233
12627772000.0 0.13716875113212965 -0.99054769381019 1.3949725546809334e-17 9.026244988288828e-17 1.3949725546809334e-17 9.026244988288828e-17 0.1371693928711348 -0.990547604943447
12628389333.333334 0.1278659915284235 -0.9917914539913556 1.480136166003488e-17 9.010861482028482e-17 1.480136166003488e-17 9.010861482028482e-17 0.12786663404180454 -0.9917913711555741
12629006666.666666 0.11855196843236408 -0.992947848973271 1.5651336018445214e-17 8.994675067876432e-17 1.5651336018445214e-17 8.994675067876432e-17 0.11855261166345013 -0.9929477721751582
12629624000.0 0.10922750230022078 -0.994016776891159 1.649957298418541e-17 8.977687512581338e-17 1.649957298418541e-17 8.977687512581338e-17 0.10922814619228338 -0.9940167061368896
12630241333.333334 0.09989341450811474 -0.9949981435850744 1.73459971048862e-17 8.959900654090325e-17 1.73459971048862e-17 8.959900654090325e-17 0.09989405900437259 -0.9949980788802888
12630858666.666666 0.09055052727983427 -0.995891862608174 1.819053312034532e-17 8.941316401356552e-17 1.819053312034532e-17 8.941316401356552e-17 0.09055117232345862 -0.995891803957981
12631476000.0 0.0811996636140961 -0.9966978552343695 1.903310596922971e-17 8.92193673413964e-17 1.903310596922971e-17 8.92193673413964e-17 0.08120030914821538 -0.9966978026433433
12632093333.333334 0.07184164721241602 -0.9974160504652215 1.9873640795709085e-17 8.9017637028009e-17 1.9873640795709085e-17 8.9017637028009e-17 0.07184229318012116 -0.9974160039374025
12632710666.666666 0.06247730240638135 -0.998046385036215 2.0712062956091244e-17 8.880799428091766e-17 2.0712062956091244e-17 8.880799428091766e-17 0.06247794875073049 -0.9980463445751084
12633328000.0 0.05310745408489457 -0.9985888034223374 2.154829802545846e-17 8.859046100935472e-17 2.154829802545846e-17 8.859046100935472e-17 0.05310810074891838 -0.998588769030915
12633945333.333334 0.043732927621765845 -0.9990432578429546 2.238227180423378e-17 8.836505982203685e-17 2.238227180423378e-17 8.836505982203685e-17 0.04373357454847229 -0.9990432295236518
12634562666.666666 0.0343545488028653 -0.9994097082660279 2.3213910324762363e-17 8.813181402486021e-17 2.3213910324762363e-17 8.813181402486021e-17 0.03435519593524486 -0.999409686020746
12635180000.0 0.02497314375340935 -0.999688122411638 2.4043139857854186e-17 8.78907476185374e-17 2.4043139857854186e-17 8.78907476185374e-17 0.02497379103443996 -0.9996881062417432
12635797333.333334 0.015589538865160466 -0.9998784757548321 2.4869886919308018e-17 8.764188529617233e-17 2.4869886919308018e-17 8.764188529617233e-17 0.015590186237812503 -0.999878465661155
12636414666.666666 0.006204560723745228 -0.9999807515277783 2.5694078276398296e-17 8.738525244077686e-17 2.5694078276398296e-17 8.738525244077686e-17 0.006205208130986582 -0.9999807475106139
12637032000.0 -0.003180963964328538 -0.999994940721248 2.6515640954361797e-17 8.712087512271974e-17 2.6515640954361797e-17 8.712087512271974e-17 -0.0031803165795274476 -0.9999949427803566
12637649333.333334 -0.012566208444352887 -0.9999210420854076 2.7334502242831325e-17 8.684878009712264e-17 2.7334502242831325e-17 8.684878009712264e-17 -0.012565561139014091 -0.9999210502200142
12638266666.666666 -0.02195034598638923 -0.9997590621299276 2.8150589702267936e-17 8.656899480118852e-17 2.8150589702267936e-17 8.656899480118852e-17 -0.0219496988175222 -0.9997590763387224
12638884000.0 -0.031332549957923034 -0.9995090151234101 2.896383117033921e-17 8.628154735147814e-17 2.896383117033921e-17 8.628154735147814e-17 -0.03133190298251962 -0.9995090354045476
12639501333.333334 -0.04071199389682252 -0.9991709230921307 2.977415476829724e-17 8.598646654111816e-17 2.977415476829724e-17 8.598646654111816e-17 -0.040711347171852 -0.9991709494432311
12640118666.666666 -0.050087851583941446 -0.9987448158181044 3.0581488907299326e-17 8.568378183695973e-17 3.0581488907299326e-17 8.568378183695973e-17 -0.05008720516634549 -0.9987448482362546
12640736000.0 -0.05945929711635376 -0.9982307308364449 3.138576229475617e-17 8.537352337665727e-17 3.138576229475617e-17 8.537352337665727e-17 -0.05945865106304137 -0.9982307693181967
12641353333.333334 -0.06882550497942451 -0.9976287134320874 3.218690394055394e-17 8.505572196572442e-17 3.218690394055394e-17 8.505572196572442e-17 -0.068824859347267 -0.9976287579734578
12641970666.666666 -0.078185650120124 -0.9969388166357692 3.298484316335575e-17 8.473040907449003e-17 3.298484316335575e-17 8.473040907449003e-17 -0.0781850049659501 -0.9969388672322436
12642588000.0 -0.08753890801942173 -0.9961611012193768 3.3779509596798067e-17 8.439761683502461e-17 3.3779509596798067e-17 8.439761683502461e-17 -0.0875382634000125 -0.9961611578659072
12643205333.333334 -0.09688445476494509 -0.9952956356905893 3.457083319568301e-17 8.405737803799794e-17 3.457083319568301e-17 8.405737803799794e-17 -0.09688381073702895 -0.9952956983815949
12643822666.666666 -0.1062214671236696 -0.9943424962868327 3.535874424214644e-17 8.370972612947611e-17 3.535874424214644e-17 8.370972612947611e-17 -0.10622082374391735 -0.9943425650162014
12644440000.0 -0.1155491226142947 -0.9933017669685795 3.614317335177058e-17 8.335469520767082e-17 3.614317335177058e-17 8.335469520767082e-17 -0.11554847993931439 -0.9933018417296671
12645057333.333334 -0.12486659957972288 -0.9921735394119485 3.692405147969054e-17 8.29923200196209e-17 3.692405147969054e-17 8.29923200196209e-17 -0.12486595766605509 -0.9921736201975812
12645674666.666666 -0.13417307725943822 -0.990957913000632 3.770130992664181e-17 8.262263595782741e-17 3.770130992664181e-17 8.262263595782741e-17 -0.134172436163551 -0.990957999803106
12646292000.0 -0.14346773586200337 -0.9896549948171156 3.847488034501441e-17 8.224567905681467e-17 3.847488034501441e-17 8.224567905681467e-17 -0.14346709564028723 -0.9896550876281978
12646909333.333334 -0.15274975663690685 -0.9882648996332922 3.9244694744814637e-17 8.186148598966195e-17 3.9244694744814637e-17 8.186148598966195e-17 -0.1527491173456695 -0.9882649984442198
12647526666.666666 -0.16201832194693885 -0.9867877499003186 4.0010685499648587e-17 8.147009406445324e-17 4.0010685499648587e-17 8.147009406445324e-17 -0.1620176836424009 -0.9867878547018029
12648144000.0 -0.17127261534029967 -0.9852236757378134 4.077278535264458e-17 8.10715412206826e-17 4.077278535264458e-17 8.10715412206826e-17 -0.17127197807858924 -0.9852237865200384
12648761333.333334 -0.18051182162223905 -0.9835728149224423 4.153092742233384e-17 8.06658660256091e-17 4.153092742233384e-17 8.06658660256091e-17 -0.18051118545938666 -0.9835729316750649
12649378666.666666 -0.18973512692697683 -0.9818353128757584 4.228504520850412e-17 8.025310767055147e-17 4.228504520850412e-17 8.025310767055147e-17 -0.18973449191891123 -0.9818354355879132
12649996000.0 -0.19894171878950834 -0.980011322651382 4.303507259802839e-17 7.983330596712254e-17 4.303507259802839e-17 7.983330596712254e-17 -0.1989410849920507 -0.9800114513116773
12650613333.333334 -0.20813078621708736 -0.9781010049215223 4.378094387063801e-17 7.940650134341868e-17 4.378094387063801e-17 7.940650134341868e-17 -0.2081301536859471 -0.9781011395180457
12651230666.666666 -0.21730151976055523 -0.9761045279628554 4.452259370465441e-17 7.897273484015883e-17 4.452259370465441e-17 7.897273484015883e-17 -0.21730088855132437 -0.9761046684831706
12651848000.0 -0.22645311158592066 -0.9740220676416367 4.525995718272511e-17 7.853204810674537e-17 4.525995718272511e-17 7.853204810674537e-17 -0.22645248175406985 -0.9740222140727889
12652465333.333334 -0.2355847555452715 -0.9718538073982678 4.599296979745631e-17 7.80844833973091e-17 4.599296979745631e-17 7.80844833973091e-17 -0.23558412714614427 -0.9718539597267815
12653082666.666666 -0.2446956472477866 -0.9695999382311357 4.672156745704934e-17 7.76300835666776e-17 4.672156745704934e-17 7.76300835666776e-17 -0.244695020336595 -0.9696000964430174
12653700000.0 -0.2537849841308692 -0.9672606586797211 4.744568649090795e-17 7.716889206628364e-17 4.744568649090795e-17 7.716889206628364e-17 -0.2537843587626891 -0.9672608227604622
12654317333.333334 -0.26285196553045836 -0.9648361748072101 4.8165263655155664e-17 7.670095294005329e-17 4.8165263655155664e-17 7.670095294005329e-17 -0.26285134176022373 -0.964836344741783
12654934666.666666 -0.2718957927518318 -0.9623267001822651 4.8880236138164896e-17 7.622631082020959e-17 4.8880236138164896e-17 7.622631082020959e-17 -0.27189517063433116 -0.9623268759551313
12655552000.0 -0.28091566913996263 -0.9597324558602164 4.959054156602331e-17 7.574501092303861e-17 4.959054156602331e-17 7.574501092303861e-17 -0.2809150487298332 -0.959732637455323
12656169333.333334 -0.28991080014944764 -0.957053670363654 5.0296118007939403e-17 7.52570990446175e-17 5.0296118007939403e-17 7.52570990446175e-17 -0.2899101815011712 -0.9570538577644381
12656786666.666666 -0.29888039341477235 -0.9542905796622247 5.099690398164737e-17 7.476262155646583e-17 5.099690398164737e-17 7.476262155646583e-17 -0.2988797765826699 -0.9542907728516126
12657404000.0 -0.3078236588199718 -0.9514434271518837 5.16928384587351e-17 7.426162540116932e-17 5.16928384587351e-17 7.426162540116932e-17 -0.3078230438581989 -0.9514436261122925
12658021333.333334 -0.3167398085682567 -0.9485124636334407 5.238386086995472e-17 7.375415808793652e-17 5.238386086995472e-17 7.375415808793652e-17 -0.31673919553079966 -0.9485126683467842
12658638666.666666 -0.32562805725138444 -0.945497947290487 5.306991111045459e-17 7.324026768813219e-17 5.306991111045459e-17 7.324026768813219e-17 -0.3256274461920541 -0.945498157738171
12659256000.0 -0.3344876219189501 -0.9424001436666061 5.375092954501943e-17 7.272000283072387e-17 5.375092954501943e-17 7.272000283072387e-17 -0.33448701289137833 -0.9424003598295353
12659873333.333334 -0.34331772214722184 -0.9392193256420346 5.4426857013216544e-17 7.219341269771695e-17 5.4426857013216544e-17 7.219341269771695e-17 -0.34331711520485586 -0.93921954750061
12660490666.666666 -0.35211758010785954 -0.9359557734096307 5.509763483451835e-17 7.166054701952672e-17 5.509763483451835e-17 7.166054701952672e-17 -0.35211697530395786 -0.9359560009437551
12661108000.0 -0.3608864206367006 -0.9326097744500996 5.576320481340001e-17 7.112145607028716e-17 5.576320481340001e-17 7.112145607028716e-17 -0.3608858180243283 -0.9326100076391775
12661725333.333334 -0.3696234713016688 -0.9291816235068041 5.642350924434278e-17 7.057619066315046e-17 5.642350924434278e-17 7.057619066315046e-17 -0.36962287093369256 -0.9291818623297435
12662342666.666666 -0.37832796247110917 -0.9256716225596929 5.707849091684214e-17 7.002480214550082e-17 5.707849091684214e-17 7.002480214550082e-17 -0.378327364400193 -0.925671866994908
12662960000.0 -0.38699912738145154 -0.9220800807987509 5.772809312033748e-17 6.946734239414735e-17 5.772809312033748e-17 6.946734239414735e-17 -0.3869985316600518 -0.9220803308241639
12663577333.333334 -0.3956362022047784 -0.9184073145967505 5.83722596491066e-17 6.890386381046182e-17 5.83722596491066e-17 6.890386381046182e-17 -0.3956356088851398 -0.9184075701897932
12664194666.666666 -0.4042384261161115 -0.9146536474813868 5.901093480710969e-17 6.833441931547471e-17 5.901093480710969e-17 6.833441931547471e-17 -0.40423783525026147 -0.914653908619002
12664812000.0 -0.41280504136042867 -0.9108194101067737 5.964406341279484e-17 6.775906234491787e-17 5.964406341279484e-17 6.775906234491787e-17 -0.41280445300017393 -0.9108196767654193
12665429333.333334 -0.4213352933194411 -0.9069049402243085 6.027159080383828e-17 6.71778468442382e-17 6.027159080383828e-17 6.71778468442382e-17 -0.4213347075163626 -0.906905212379958
12666046666.666666 -0.4298284305779371 -0.9029105826529799 6.089346284184463e-17 6.659082726356143e-17 6.089346284184463e-17 6.659082726356143e-17 -0.42982784738338536 -0.9029108602811245
12666664000.0 -0.4382837049902557 -0.8988366892488594 6.150962591701774e-17 6.59980585525923e-17 6.150962591701774e-17 6.59980585525923e-17 -0.4382831244553466 -0.8988369723245117
12667281333.333334 -0.4467003717458297 -0.8946836188742775 6.212002695273855e-17 6.539959615551506e-17 6.212002695273855e-17 6.539959615551506e-17 -0.4466997939214398 -0.8946839073719718
12667898666.666666 -0.45507768943502686 -0.8904517373661044 6.272461341013743e-17 6.479549600580868e-17 6.272461341013743e-17 6.479549600580868e-17 -0.4550771143717889 -0.8904520312598997
12668516000.0 -0.4634149201145585 -0.8861414175034672 6.332333329259772e-17 6.418581452103777e-17 6.332333329259772e-17 6.418581452103777e-17 -0.4634143478628571 -0.8861417167669505
12669133333.333334 -0.471711329372104 -0.8817530389751076 6.391613515019318e-17 6.357060859761886e-17 6.391613515019318e-17 6.357060859761886e-17 -0.471710759982072 -0.8817533435813961
12669750666.666666 -0.47996618639136046 -0.8772869883457579 6.45029680841087e-17 6.294993560551108e-17 6.45029680841087e-17 6.294993560551108e-17 -0.4799656199128725 -0.8772872982674987
12670368000.0 -0.48817876401628857 -0.8727436590221471 6.508378175098447e-17 6.23238533828918e-17 6.508378175098447e-17 6.23238533828918e-17 -0.4881782004989585 -0.8727439742315233
