! Parameters = {f0=12700.012000; bw=77.238000; Q=6100.000000; N=10; m_0_1=1.199094; m_1_1=-0.778334; m_1_2=1.033906; m_2_2=-0.778983; m_2_3=0.670869; m_2_8=-0.002982; m_2_9=0.033722; m_3_3=-0.780920; m_3_4=0.559398; m_3_7=-0.002382; m_3_8=-0.099470; m_3_9=-0.002982; m_4_4=-0.783845; m_4_5=0.395733; m_4_6=0.001135; m_4_7=-0.120019; m_4_8=-0.002382; m_5_5=-0.783463; m_5_6=0.803088; m_5_7=0.001135; m_6_6=-0.783464; m_6_7=0.396075; m_7_7=-0.783831; m_7_8=0.559516; m_8_8=-0.780922; m_8_9=0.671182; m_9_9=-0.778988; m_9_10=1.034984; m_10_10=-0.778344; m_10_11=1.199889}
!
! Created with skrf (http://scikit-rf.org).
# Hz S RI R 50.0 
!freq ReS11 ImS11 ReS21 ImS21 ReS12 ImS12 ReS22 ImS22
12607400000.0 0.9288880903822979 -0.3703605210410125 -6.141922833384773e-17 4.840086831714677e-17 -6.141922833384773e-17 4.840086831714677e-17 0.9288883244044179 -0.37035993409789275
12608017333.333334 0.9257341996706916 -0.37817481613654175 -6.099290156495465e-17 4.8912538555200156e-17 -6.099290156495465e-17 4.8912538555200156e-17 0.9257344386187836 -0.37817423121493626
12608634666.666666 0.9225145723574104 -0.38596225694757585 -6.056231812770112e-17 4.942046088287628e-17 -6.056231812770112e-17 4.942046088287628e-17 0.9225148162140259 -0.38596167408882054
12609252000.0 0.9192294370689879 -0.39372229048616636 -6.012751091031018e-17 4.992459993975637e-17 -6.012751091031018e-17 4.992459993975637e-17 0.9192296858163306 -0.39372170973144605
12609869333.333334 0.9158790270836931 -0.401454365710562 -5.968851309429816e-17 5.042492065352016e-17 -5.968851309429816e-17 5.042492065352016e-17 0.9158792807036207 -0.4014537871009078
12610486666.666666 0.9124635803150105 -0.40915793356423386 -5.924535815196239e-17 5.0921388242366405e-17 -5.924535815196239e-17 5.0921388242366405e-17 0.9124638387890378 -0.40915735714052126
12611104000.0 0.9089833392946222 -0.41683244701515143 -5.879807984382546e-17 5.141396821743801e-17 -5.879807984382546e-17 5.141396821743801e-17 0.9089836026039199 -0.41683187281809614
12611721333.333334 0.9054385511553464 -0.4244773610942635 -5.834671221609643e-17 5.190262638518361e-17 -5.834671221609643e-17 5.190262638518361e-17 0.9054388192807443 -0.4244767891644192
12612338666.666666 0.9018294676134708 -0.43209213293445464 -5.789128959807672e-17 5.23873288497363e-17 -5.789128959807672e-17 5.23873288497363e-17 0.9018297405354587 -0.4320915633122105
12612956000.0 0.8981563449508789 -0.43967622180909577 -5.743184659956135e-17 5.2868042015253477e-17 -5.743184659956135e-17 5.2868042015253477e-17 0.8981566226496078 -0.4396756545346727
12613573333.333334 0.8944194439969587 -0.44722908917020787 -5.696841810823458e-17 5.3344732588219393e-17 -5.696841810823458e-17 5.3344732588219393e-17 0.8944197264522432 -0.4472285242836567
12614190666.666666 0.8906190301099624 -0.4547501986869639 -5.650103928701758e-17 5.38173675797558e-17 -5.650103928701758e-17 5.38173675797558e-17 0.8906193173012797 -0.4547496362281612
12614808000.0 0.8867553731582197 -0.4622390162836419 -5.602974557142012e-17 5.428591430788523e-17 -5.602974557142012e-17 5.428591430788523e-17 0.8867556650647147 -0.46223845629228894
12615425333.333334 0.882828747500967 -0.46969501017757903 -5.555457266686412e-17 5.475034039978094e-17 -5.555457266686412e-17 5.475034039978094e-17 0.8828290441014502 -0.4696944526931972
12616042666.666666 0.8788394319688618 -0.47711765091693137 -5.507555654599063e-17 5.5210613793991933e-17 -5.507555654599063e-17 5.5210613793991933e-17 0.8788397332418135 -0.4771170959788605
12616660000.0 0.8747877098441834 -0.48450641141827056 -5.4592733445948063e-17 5.56667027426445e-17 -5.4592733445948063e-17 5.56667027426445e-17 0.8747880157677538 -0.48450585906566573
12617277333.333334 0.8706738688407054 -0.4918607670040384 -5.410613986566099e-17 5.611857581362163e-17 -5.410613986566099e-17 5.611857581362163e-17 0.870674179392716 -0.4918602172758671
12617894666.666666 0.8664982010833301 -0.4991801954396783 -5.3615812563090937e-17 5.656620189271012e-17 -5.3615812563090937e-17 5.656620189271012e-17 0.8664985162412775 -0.49917964837471845
12618512000.0 0.8622610030871962 -0.5064641769709934 -5.3121788552452817e-17 5.700955018574703e-17 -5.3121788552452817e-17 5.700955018574703e-17 0.8622613228282503 -0.5064636326078292
12619129333.333334 0.857962575736815 -0.513712194360707 -5.262410510145545e-17 5.744859022070544e-17 -5.262410510145545e-17 5.744859022070544e-17 0.8579629000378246 -0.5137116527377281
12619746666.666666 0.8536032242645545 -0.5209237329254652 -5.212279972848501e-17 5.788329184979151e-17 -5.212279972848501e-17 5.788329184979151e-17 0.853603553102045 -0.5209231940808619
12620364000.0 0.849183258229028 -0.5280982805722573 -5.1617910199787783e-17 5.831362525150205e-17 -5.1617910199787783e-17 5.831362525150205e-17 0.8491835915792073 -0.5280977445440203
12620981333.333334 0.844702991493093 -0.5352353278348345 -5.110947452665156e-17 5.873956093264535e-17 -5.110947452665156e-17 5.873956093264535e-17 0.8447033293318482 -0.5352347946607491
12621598666.666666 0.8401627422016144 -0.5423343679097847 -5.0597530962538e-17 5.916106973036408e-17 -5.0597530962538e-17 5.916106973036408e-17 0.8401630845045183 -0.5423338376274309
12622216000.0 0.8355628327587898 -0.5493948966926704 -5.008211800022432e-17 5.957812281411262e-17 -5.008211800022432e-17 5.957812281411262e-17 0.8355631795010989 -0.5493943693394184
12622833333.333334 0.8309035898052943 -0.556416412813748 -4.956327436891646e-17 5.99906916876189e-17 -4.956327436891646e-17 5.99906916876189e-17 0.8309039409619536 -0.5564158884267572
12623450666.666666 0.8261853441951369 -0.5633984176735023 -4.9041039031356864e-17 6.039874819081337e-17 -4.9041039031356864e-17 6.039874819081337e-17 0.8261856997407805 -0.5633978962897177
12624068000.0 0.8214084309720894 -0.5703404154781716 -4.8515451180899165e-17 6.08022645017465e-17 -4.8515451180899165e-17 6.08022645017465e-17 0.8214087908810417 -0.5703398971343214
12624685333.333334 0.8165731893458725 -0.5772419132749737 -4.7986550238584315e-17 6.120121313846698e-17 -4.7986550238584315e-17 6.120121313846698e-17 0.816573553592151 -0.5772413980075664
12625302666.666666 0.811679962668236 -0.5841024209868796 -4.7454375850193307e-17 6.159556696088215e-17 -4.7454375850193307e-17 6.159556696088215e-17 0.8116803312255519 -0.5841019088322014
12625920000.0 0.8067290984083285 -0.5909214514477615 -4.6918967883283966e-17 6.19852991725919e-17 -4.6918967883283966e-17 6.19852991725919e-17 0.8067294712500902 -0.5909209424418744
12626537333.333334 0.8017209481282543 -0.5976985204366623 -4.63803664242223e-17 6.237038332269119e-17 -4.63803664242223e-17 6.237038332269119e-17 0.8017213252275693 -0.597698014615402
12627154666.666666 0.7966558674580152 -0.6044331467123218 -4.583861177518127e-17 6.275079330755977e-17 -4.583861177518127e-17 6.275079330755977e-17 0.7966562487876899 -0.6044326441112932
12627772000.0 0.791534216070149 -0.6111248520474836 -4.529374445114076e-17 6.312650337261381e-17 -4.529374445114076e-17 6.312650337261381e-17 0.7915346016026921 -0.611124352702059
12628389333.333334 0.786356357654428 -0.6177731612625346 -4.4745805176875585e-17 6.349748811403088e-17 -4.4745805176875585e-17 6.349748811403088e-17 0.7863567473620537 -0.6177726652078532
12629006666.666666 0.781122659891779 -0.62437760225959 -4.419483488390409e-17 6.386372248046655e-17 -4.419483488390409e-17 6.386372248046655e-17 0.7811230537464078 -0.6243771095305539
12629624000.0 0.7758334944283641 -0.6309377060557698 -4.364087470745899e-17 6.422518177471918e-17 -4.364087470745899e-17 6.422518177471918e-17 0.7758338924016235 -0.6309372166870402
12630241333.333334 0.7704892368490813 -0.6374530068166316 -4.308396598341581e-17 6.458184165538888e-17 -4.308396598341581e-17 6.458184165538888e-17 0.7704896389123098 -0.6374525208426284
12630858666.666666 0.7650902666510049 -0.6439230418891201 -4.2524150245229816e-17 6.493367813849512e-17 -4.2524150245229816e-17 6.493367813849512e-17 0.7650906727752539 -0.6439225593440193
12631476000.0 0.759636967216239 -0.6503473518346623 -4.1961469220828435e-17 6.52806675990881e-17 -4.1961469220828435e-17 6.52806675990881e-17 0.7596373773722738 -0.6503468727523926
12632093333.333334 0.7541297257849265 -0.6567254804615056 -4.1395964829535384e-17 6.562278677280513e-17 -4.1395964829535384e-17 6.562278677280513e-17 0.754130139943229 -0.6567250048757463
12632710666.666666 0.748568933427645 -0.6630569748572451 -4.0827679178946835e-17 6.596001275742279e-17 -4.0827679178946835e-17 6.596001275742279e-17 0.748569351558416 -0.6630565028014244
12633328000.0 0.7429549850175425 -0.6693413854210919 -4.0256654561796683e-17 6.629232301438056e-17 -4.0256654561796683e-17 6.629232301438056e-17 0.7429554070907035 -0.669340916928384
12633945333.333334 0.7372882792024444 -0.6755782658956261 -3.968293345283634e-17 6.661969537026187e-17 -3.968293345283634e-17 6.661969537026187e-17 0.7372887051876406 -0.6755778009989488
12634562666.666666 0.7315692183765317 -0.6817671733985097 -3.910655850567585e-17 6.694210801826395e-17 -3.910655850567585e-17 6.694210801826395e-17 0.7315696482431323 -0.6817667121305226
12635180000.0 0.725798208651667 -0.6879076684540408 -3.852757254962487e-17 6.72595395196336e-17 -3.852757254962487e-17 6.72595395196336e-17 0.7257986423687692 -0.6879072108471419
12635797333.333334 0.7199756598286163 -0.6939993150242955 -3.794601858651813e-17 6.757196880507809e-17 -3.794601858651813e-17 6.757196880507809e-17 0.7199760973650472 -0.6939988611106207
12636414666.666666 0.7141019853680072 -0.7000416805400325 -3.736193978753949e-17 6.78793751761436e-17 -3.736193978753949e-17 6.78793751761436e-17 0.7141024266923258 -0.7000412303514517
12637032000.0 0.7081776023608517 -0.7060343359315312 -3.6775379490015387e-17 6.818173830657624e-17 -3.6775379490015387e-17 6.818173830657624e-17 0.7081780474413506 -0.7060338894996468
12637649333.333334 0.7022029314990057 -0.7119768556589787 -3.6186381194217076e-17 6.847903824364568e-17 -3.6186381194217076e-17 6.847903824364568e-17 0.7022033803037137 -0.711976413015123
12638266666.666666 0.6961783970452767 -0.717868817742707 -3.559498856014254e-17 6.877125540944611e-17 -3.559498856014254e-17 6.877125540944611e-17 0.6961788495419622 -0.7178683789179409
12638884000.0 0.6901044268032981 -0.7237098037931606 -3.500124540429005e-17 6.905837060216868e-17 -3.500124540429005e-17 6.905837060216868e-17 0.6901048829594697 -0.7237093688182703
12639501333.333334 0.6839814520871271 -0.7294993990406216 -3.440519569641948e-17 6.934036499734666e-17 -3.440519569641948e-17 6.934036499734666e-17 0.6839819118700378 -0.7294989679461173
12640118666.666666 0.6778099076907449 -0.7352371923645502 -3.380688355631813e-17 6.961722014906706e-17 -3.380688355631813e-17 6.961722014906706e-17 0.6778103710673927 -0.7352367651806642
12640736000.0 0.6715902318568467 -0.7409227763230865 -3.3206353250512606e-17 6.988891799117392e-17 -3.3206353250512606e-17 6.988891799117392e-17 0.671590698793977 -0.7409223530797686
12641353333.333334 0.6653228662462216 -0.7465557471815177 -3.26036491890515e-17 7.015544083840733e-17 -3.26036491890515e-17 7.015544083840733e-17 0.6653233367103317 -0.746555327908437
12641970666.666666 0.6590082559059564 -0.7521357049413574 -3.1998815922189054e-17 7.041677138755551e-17 -3.1998815922189054e-17 7.041677138755551e-17 0.6590087298632948 -0.7521352896678966
12642588000.0 0.6526468492380345 -0.7576622533685502 -3.1391898137121594e-17 7.067289271855006e-17 -3.1391898137121594e-17 7.067289271855006e-17 0.6526473266546063 -0.7576618421238062
12643205333.333334 0.6462390979674815 -0.7631350000216345 -3.0782940654693734e-17 7.09237882955438e-17 -3.0782940654693734e-17 7.09237882955438e-17 0.6462395788090485 -0.7631345928344143
12643822666.666666 0.6397854571101959 -0.7685535562796786 -3.017198842608991e-17 7.116944196796233e-17 -3.017198842608991e-17 7.116944196796233e-17 0.6397859413422813 -0.7685531531785
12644440000.0 0.6332863849407506 -0.7739175373697889 -2.9559086529535793e-17 7.140983797151941e-17 -2.9559086529535793e-17 7.140983797151941e-17 0.6332868725286395 -0.7739171383828755
12645057333.333334 0.6267423429598274 -0.7792265623944485 -2.894428016698008e-17 7.164496092920985e-17 -2.894428016698008e-17 7.164496092920985e-17 0.6267428338685695 -0.7792261675497288
12645674666.666666 0.6201537958614471 -0.7844802543585674 -2.832761466077028e-17 7.187479585227249e-17 -2.832761466077028e-17 7.187479585227249e-17 0.6201542900558605 -0.7844798636836738
12646292000.0 0.6135212114998145 -0.7896782401963748 -2.7709135450306737e-17 7.209932814113004e-17 -2.7709135450306737e-17 7.209932814113004e-17 0.6135217089444874 -0.7896778537186409
12646909333.333334 0.6068450608563867 -0.794820150797683 -2.708888808873077e-17 7.23185435862853e-17 -2.708888808873077e-17 7.23185435862853e-17 0.60684556151568 -0.7948197685441417
12647526666.666666 0.6001258180061827 -0.7999056210342904 -2.6466918239558336e-17 7.253242836920618e-17 -2.6466918239558336e-17 7.253242836920618e-17 0.6001263218442318 -0.7999052430316712
12648144000.0 0.5933639600842302 -0.8049342897858213 -2.5843271673329784e-17 7.274096906317352e-17 -2.5843271673329784e-17 7.274096906317352e-17 0.5933644670649492 -0.8049339160605503
12648761333.333334 0.5865599672516393 -0.8099057999654031 -2.5217994264259266e-17 7.29441526340982e-17 -2.5217994264259266e-17 7.29441526340982e-17 0.5865604773387222 -0.8099054305435999
12649378666.666666 0.5797143226615987 -0.8148197985449585 -2.4591131986869858e-17 7.314196644131258e-17 -2.4591131986869858e-17 7.314196644131258e-17 0.579714835818523 -0.8148194334524347
12649996000.0 0.572827512424929 -0.819675936580373 -2.3962730912612212e-17 7.33343982383365e-17 -2.3962730912612212e-17 7.33343982383365e-17 0.5728280286149569 -0.8196755758426291
12650613333.333334 0.5659000255756303 -0.8244738692362206 -2.333283720649406e-17 7.352143617360843e-17 -2.333283720649406e-17 7.352143617360843e-17 0.5659005447618131 -0.8244735128784472
12651230666.666666 0.5589323540362529 -0.8292132558101911 -2.27014971237066e-17 7.3703068791188e-17 -2.27014971237066e-17 7.3703068791188e-17 0.558932876181432 -0.8292129038572639
12651848000.0 0.5519249925827283 -0.8338937597574396 -2.2068757006216112e-17 7.387928503143789e-17 -2.2068757006216112e-17 7.387928503143789e-17 0.5519255176495397 -0.8338934122339204
12652465333.333334 0.5448784388094499 -0.8385150487143453 -2.1434663279390586e-17 7.40500742316649e-17 -2.1434663279390586e-17 7.40500742316649e-17 0.5448789667603244 -0.8385147056444776
12653082666.666666 0.5377931930939347 -0.8430767945221082 -2.0799262448602844e-17 7.421542612673814e-17 -2.0799262448602844e-17 7.421542612673814e-17 0.5377937238911036 -0.8430764559298184
12653700000.0 0.5306697585610582 -0.8475786732502125 -2.0162601095807775e-17 7.437533084968317e-17 -2.0162601095807775e-17 7.437533084968317e-17 0.5306702921665535 -0.8475783391591061
12654317333.333334 0.5235086410476595 -0.8520203652192103 -1.9524725876166376e-17 7.452977893223391e-17 -1.9524725876166376e-17 7.452977893223391e-17 0.5235091774233168 -0.8520200356525698
12654934666.666666 0.5163103490663807 -0.8564015550235743 -1.888568351461487e-17 7.467876130536878e-17 -1.888568351461487e-17 7.467876130536878e-17 0.5163108881738436 -0.85640123000436
12655552000.0 0.5090753937695589 -0.8607219315540954 -1.824552080245124e-17 7.482226929981172e-17 -1.824552080245124e-17 7.482226929981172e-17 0.5090759355702806 -0.8607216111049419
12656169333.333334 0.5018042889131468 -0.8649811880198408 -1.76042845939376e-17 7.496029464650025e-17 -1.76042845939376e-17 7.496029464650025e-17 0.5018048333683932 -0.864980872163057
12656786666.666666 0.49449755081998725 -0.8691790219700876 -1.6962021802858712e-17 7.509282947703328e-17 -1.6962021802858712e-17 7.509282947703328e-17 0.49449809789083954 -0.8691787107276534
12657404000.0 0.4871556983432719 -0.8733151353157249 -1.631877939910963e-17 7.521986632408263e-17 -1.631877939910963e-17 7.521986632408263e-17 0.4871562479906288 -0.8733148287092899
12658021333.333334 0.4797792528296464 -0.8773892343504505 -1.567460440526559e-17 7.534139812177863e-17 -1.567460440526559e-17 7.534139812177863e-17 0.4797798050142282 -0.8773889324013341
12658638666.666666 0.4723687380823159 -0.8814010297715589 -1.5029543893164434e-17 7.545741820606319e-17 -1.5029543893164434e-17 7.545741820606319e-17 0.47236929276466605 -0.8814007325007469
12659256000.0 0.46492468032357315 -0.885350236700633 -1.438364498045465e-17 7.556792031502048e-17 -1.438364498045465e-17 7.556792031502048e-17 0.464925237464062 -0.8853499441287775
12659873333.333334 0.45744760815778346 -0.8892365747035864 -1.3736954827182199e-17 7.567289858916981e-17 -1.3736954827182199e-17 7.567289858916981e-17 0.45744816771661023 -0.8892362868510035
12660490666.666666 0.44993805253357105 -0.8930597678107229 -1.3089520632356276e-17 7.577234757173352e-17 -1.3089520632356276e-17 7.577234757173352e-17 0.4499386144707672 -0.8930594846973912
12661108000.0 0.44239654670621675 -0.8968195445362787 -1.2441389630492059e-17 7.586626220887888e-17 -1.2441389630492059e-17 7.586626220887888e-17 0.44239711098164947 -0.8968192661818398
12661725333.333334 0.4348236261998695 -0.9005156378976663 -1.1792609088203986e-17 7.595463784992246e-17 -1.1792609088203986e-17 7.595463784992246e-17 0.4348241927732431 -0.9005153643214207
12662342666.666666 0.4272198287693636 -0.9041477854345051 -1.114322630074403e-17 7.603747024751334e-17 -1.114322630074403e-17 7.603747024751334e-17 0.4272203976002236 -0.9041475166554132
12662960000.0 0.4195856943621361 -0.9077157292272113 -1.049328858857384e-17 7.611475555778196e-17 -1.049328858857384e-17 7.611475555778196e-17 0.41958626540987165 -0.9077154652638901
12663577333.333334 0.4119217650798595 -0.9112192159153237 -9.842843293923466e-18 7.618649034046188e-17 -9.842843293923466e-18 7.618649034046188e-17 0.41192233830370595 -0.9112189567860468
12664194666.666666 0.4042285851399456 -0.9146579967154952 -9.191937777351927e-18 7.625267155898142e-17 -9.191937777351927e-18 7.625267155898142e-17 0.4042291604989877 -0.9146577424381904
12664812000.0 0.39650670083690165 -0.918031827439158 -8.540619414305691e-18 7.631329658052662e-17 -8.540619414305691e-18 7.631329658052662e-17 0.3965072782900776 -0.9180315780314091
12665429333.333334 0.3887566605035119 -0.9213404685098775 -7.888935591688234e-18 7.636836317607355e-17 -7.888935591688234e-18 7.636836317607355e-17 0.3887572400096141 -0.9213402239889188
12666046666.666666 0.38097901447203103 -0.9245836849803075 -7.236933704408449e-18 7.641786952039416e-17 -7.236933704408449e-18 7.641786952039416e-17 0.3809795959897101 -0.9245834453630245
12666664000.0 0.3731743150348152 -0.9277612465489925 -6.584661151951412e-18 7.646181419202937e-17 -6.584661151951412e-18 7.646181419202937e-17 0.37317489852258373 -0.9277610118519224
12667281333.333334 0.36534311640547357 -0.930872927576574 -5.932165334937302e-18 7.650019617323593e-17 -5.932165334937302e-18 7.650019617323593e-17 0.3653437018217077 -0.9308726978159017
12667898666.666666 0.35748597467924875 -0.933918507101916 -5.2794936516966305e-18 7.653301484990137e-17 -5.2794936516966305e-18 7.653301484990137e-17 0.3574865619821923 -0.9339182822934755
12668516000.0 0.34960344779352875 -0.9368977688577991 -4.6266934948122715e-18 7.656027001143292e-17 -4.6266934948122715e-18 7.656027001143292e-17 0.3496040369412952 -0.9368975490170703
12669133333.333334 0.3416960954884656 -0.9398105012861804 -3.973812247717621e-18 7.658196185061367e-17 -3.973812247717621e-18 7.658196185061367e-17 0.34169668643904166 -0.9398102864282896
12669750666.666666 0.3337644792669634 -0.9426564975533224 -3.3208972812423246e-18 7.659809096343258e-17 -3.3208972812423246e-18 7.659809096343258e-17 0.3337650719782118 -0.9426562876930399
12670368000.0 0.3258091623549113 -0.9454355555644365 -2.6679959501929318e-18 7.660865834888349e-17 -2.6679959501929318e-18 7.660865834888349e-17 0.325809756784574 -0.9454353507161768
