! Parameters = {f0=12700.012000; bw=77.238000; Q=6100.000000; N=10; m_0_1=1.167262; m_1_1=-1.255812; m_1_2=1.002074; m_2_2=-1.256461; m_2_3=0.639037; m_2_8=-0.004573; m_2_9=0.032131; m_3_3=-1.258398; m_3_4=0.527566; m_3_7=-0.003973; m_3_8=-0.101061; m_3_9=-0.004573; m_4_4=-1.261323; m_4_5=0.363901; m_4_6=-0.000456; m_4_7=-0.121610; m_4_8=-0.003973; m_5_5=-1.260941; m_5_6=0.771256; m_5_7=-0.000456; m_6_6=-1.260942; m_6_7=0.364243; m_7_7=-1.261309; m_7_8=0.527684; m_8_8=-1.258400; m_8_9=0.639350; m_9_9=-1.256466; m_9_10=1.003152; m_10_10=-1.255822; m_10_11=1.168057}
!
! Created with skrf (http://scikit-rf.org).
# Hz S RI R 50.0 
!freq ReS11 ImS11 ReS21 ImS21 ReS12 ImS12 ReS22 ImS22
12607400000.0 0.9999983229628877 0.0018314123686652053 -6.365028109527211e-17 1.8729401183788687e-17 -6.365028109527211e-17 1.8729401183788687e-17 0.9999983218360918 0.0018320275246911418
12608017333.333334 0.999984014284864 -0.005654305844204729 -6.349415211148413e-17 1.9207211272583052e-17 -6.349415211148413e-17 1.9207211272583052e-17 0.9999840177627907 -0.005653690727105558
12608634666.666666 0.999913670320747 -0.013139707209198612 -6.333444039708721e-17 1.968373190570749e-17 -6.333444039708721e-17 1.968373190570749e-17 0.9999136784027498 -0.013139092165489521
12609252000.0 0.9997872950123927 -0.020624372272976567 -6.31711565183323e-17 2.0158936250230536e-17 -6.31711565183323e-17 2.0158936250230536e-17 0.9997873076975675 -0.020623757337113368
12609869333.333334 0.9996048954414369 -0.02810788162357245 -6.300431124219751e-17 2.0632797559225166e-17 -6.300431124219751e-17 2.0632797559225166e-17 0.9996049127286228 -0.028107266830001573
12610486666.666666 0.9993664818289073 -0.03558981591358364 -6.283391553569375e-17 2.110528917326509e-17 -6.283391553569375e-17 2.110528917326509e-17 0.9993665037166848 -0.03558920129674015
12611104000.0 0.9990720675346375 -0.04306975588409577 -6.265998056515378e-17 2.1576384521927604e-17 -6.265998056515378e-17 2.1576384521927604e-17 0.9990720940213293 -0.043069141478401435
12611721333.333334 0.9987216690565331 -0.05054728238772187 -6.248251769552086e-17 2.204605712526445e-17 -6.248251769552086e-17 2.204605712526445e-17 0.9987217001402048 -0.05054666822758327
12612338666.666666 0.9983153060296331 -0.05802197641248747 -6.230153848961335e-17 2.2514280595300423e-17 -6.230153848961335e-17 2.2514280595300423e-17 0.9983153417080933 -0.0580213625322941
12612956000.0 0.9978530012250152 -0.06549341910513994 -6.211705470738499e-17 2.2981028637508446e-17 -6.211705470738499e-17 2.2981028637508446e-17 0.997853041495814 -0.06549280553926216
12613573333.333334 0.9973347805485284 -0.0729611917944776 -6.192907830517685e-17 2.34462750522717e-17 -6.192907830517685e-17 2.34462750522717e-17 0.9973348254089603 -0.07296057857726489
12614190666.666666 0.9967606730393295 -0.08042487601503752 -6.1737621434952e-17 2.3909993736355468e-17 -6.1737621434952e-17 2.3909993736355468e-17 0.9967607224864317 -0.08042426318081641
12614808000.0 0.9961307108682559 -0.08788405353051627 -6.154269644352404e-17 2.43721586843626e-17 -6.154269644352404e-17 2.43721586843626e-17 0.9961307648988083 -0.08788344111358845
12615425333.333334 0.9954449293360321 -0.09533830635706445 -6.134431587176973e-17 2.4832743990192976e-17 -6.134431587176973e-17 2.4832743990192976e-17 0.9954449879465589 -0.09533769439170492
12616042666.666666 0.994703366871285 -0.10278721678682234 -6.114249245383831e-17 2.529172384847943e-17 -6.114249245383831e-17 2.529172384847943e-17 0.9947034300580533 -0.10278660530727741
12616660000.0 0.9939060650283915 -0.11023036741129846 -6.093723911634307e-17 2.5749072556034815e-17 -6.093723911634307e-17 2.5749072556034815e-17 0.9939061327874131 -0.11022975645178389
12617277333.333334 0.9930530684851511 -0.11766734114475937 -6.072856897754554e-17 2.620476451328382e-17 -6.072856897754554e-17 2.620476451328382e-17 0.9930531408121815 -0.11766673073945842
12617894666.666666 0.9921444250402842 -0.12509772124757337 -6.051649534652913e-17 2.66587742256884e-17 -6.051649534652913e-17 2.66587742256884e-17 0.9921445019308235 -0.12509711143063487
12618512000.0 0.9911801856107371 -0.13252109134970408 -6.030103172235733e-17 2.7111076305176736e-17 -6.030103172235733e-17 2.7111076305176736e-17 0.9911802670600302 -0.13252048215524065
12619129333.333334 0.9901604042288638 -0.1399370354737602 -6.008219179323355e-17 2.75616454715402e-17 -6.008219179323355e-17 2.75616454715402e-17 0.9901604902319012 -0.13993642693584615
12619746666.666666 0.989085138039368 -0.14734513805855917 -5.985998943563586e-17 2.801045655385404e-17 -5.985998943563586e-17 2.801045655385404e-17 0.989085228590885 -0.14734453021122876
12620364000.0 0.9879544472961004 -0.15474498398238515 -5.963443871344443e-17 2.845748449188446e-17 -5.963443871344443e-17 2.845748449188446e-17 0.9879545423905773 -0.15474437685963052
12620981333.333334 0.9867683953587036 -0.16213615858611002 -5.940555387707398e-17 2.8902704337456635e-17 -5.940555387707398e-17 2.8902704337456635e-17 0.9867684949903684 -0.16213555222187956
12621598666.666666 0.9855270486890482 -0.16951824769654253 -5.917334936257261e-17 2.9346091255864946e-17 -5.917334936257261e-17 2.9346091255864946e-17 0.9855271528518735 -0.16951764212473855
12622216000.0 0.9842304768475123 -0.1768908376495798 -5.893783979072701e-17 2.9787620527240433e-17 -5.893783979072701e-17 2.9787620527240433e-17 0.9842305855352186 -0.17689023290405714
12622833333.333334 0.9828787524890644 -0.18425351531352854 -5.869903996614692e-17 3.022726754793331e-17 -5.869903996614692e-17 3.022726754793331e-17 0.9828788656951183 -0.18425291142809225
12623450666.666666 0.9814719513592367 -0.19160586811197447 -5.845696487635308e-17 3.066500783186119e-17 -5.845696487635308e-17 3.066500783186119e-17 0.9814720690768538 -0.19160526512037837
12624068000.0 0.9800101522898412 -0.19894748404715445 -5.821162969083854e-17 3.11008170118821e-17 -5.821162969083854e-17 3.11008170118821e-17 0.9800102745119836 -0.19894688198309868
12624685333.333334 0.9784934371945524 -0.20627795172301433 -5.79630497601285e-17 3.153467084114306e-17 -5.79630497601285e-17 3.153467084114306e-17 0.9784935639139303 -0.20627735062014377
12625302666.666666 0.9769218910643483 -0.21359686036809442 -5.771124061483504e-17 3.196654519441341e-17 -5.771124061483504e-17 3.196654519441341e-17 0.9769220222734228 -0.21359626025999723
12625920000.0 0.9752956019627048 -0.22090379985879963 -5.745621796468769e-17 3.239641606943501e-17 -5.745621796468769e-17 3.239641606943501e-17 0.975295737653683 -0.22090320077900427
12626537333.333334 0.9736146610207086 -0.22819836074210095 -5.719799769757322e-17 3.28242595882324e-17 -5.719799769757322e-17 3.28242595882324e-17 0.9736148011855495 -0.2281977627240755
12627154666.666666 0.971879162431932 -0.2354801342586213 -5.693659587854658e-17 3.325005199844775e-17 -5.693659587854658e-17 3.325005199844775e-17 0.9718793070623439 -0.23547953733577082
12627772000.0 0.9700892034471144 -0.24274871236567674 -5.667202874884019e-17 3.36737696746533e-17 -5.667202874884019e-17 3.36737696746533e-17 0.9700893525345575 -0.24274811657134207
12628389333.333334 0.9682448843687824 -0.25000368775986676 -5.640431272487395e-17 3.409538911964038e-17 -5.640431272487395e-17 3.409538911964038e-17 0.9682450379044668 -0.25000309312732183
12629006666.666666 0.9663463085455677 -0.25724465390014595 -5.613346439723267e-17 3.451488696573704e-17 -5.613346439723267e-17 3.451488696573704e-17 0.9663464665204539 -0.2572440604625962
12629624000.0 0.9643935823664592 -0.26447120503041077 -5.585950052965362e-17 3.493223997608597e-17 -5.585950052965362e-17 3.493223997608597e-17 0.9643937447712627 -0.2644706128209921
12630241333.333334 0.9623868152548228 -0.2716829362023491 -5.558243805799772e-17 3.5347425045925496e-17 -5.558243805799772e-17 3.5347425045925496e-17 0.96238698208001 -0.2716823452541248
12630858666.666666 0.9603261196622769 -0.2788794432980756 -5.530229408921344e-17 3.57604192038596e-17 -5.530229408921344e-17 3.57604192038596e-17 0.9603262908980674 -0.27887885364403514
12631476000.0 0.958211611062355 -0.2860603230529137 -5.501908590027977e-17 3.617119961313667e-17 -5.501908590027977e-17 3.617119961313667e-17 0.9582117866987229 -0.2860597347259709
12632093333.333334 0.9560434079441122 -0.2932251730777198 -5.4732830937158435e-17 3.657974357289209e-17 -5.4732830937158435e-17 3.657974357289209e-17 0.9560435879707857 -0.29322458611071095
12632710666.666666 0.9538216318054175 -0.3003735918816784 -5.444354681372793e-17 3.6986028519396795e-17 -5.444354681372793e-17 3.6986028519396795e-17 0.9538218162118802 -0.30037300630736047
12633328000.0 0.9515464071461497 -0.3075051788947714 -5.4151251310699203e-17 3.739003202730938e-17 -5.4151251310699203e-17 3.739003202730938e-17 0.95154659592164 -0.30750459474581976
12633945333.333334 0.9492178614612617 -0.31461953449008884 -5.3855962374537615e-17 3.7791731810898564e-17 -5.3855962374537615e-17 3.7791731810898564e-17 0.9492180545947754 -0.31461895179909605
12634562666.666666 0.9468361252336069 -0.3217162600063315 -5.3557698116370185e-17 3.819110572526473e-17 -5.3557698116370185e-17 3.819110572526473e-17 0.9468363227138951 -0.32171567880580515
12635180000.0 0.9444013319266312 -0.3287949577701227 -5.3256476810879797e-17 3.85881317675591e-17 -5.3256476810879797e-17 3.85881317675591e-17 0.9444015337422046 -0.3287943780924842
12635797333.333334 0.9419136179768981 -0.33585523111829346 -5.2952316895194314e-17 3.8982788078187993e-17 -5.2952316895194314e-17 3.8982788078187993e-17 0.9419138241160241 -0.33585465299587497
12636414666.666666 0.9393731227864405 -0.34289668442010857 -5.2645236967766515e-17 3.9375052942010384e-17 -5.2645236967766515e-17 3.9375052942010384e-17 0.9393733332371456 -0.3428961078851522
12637032000.0 0.9367799887149496 -0.34991892309943673 -5.233525578724425e-17 3.976490478952607e-17 -5.233525578724425e-17 3.976490478952607e-17 0.9367802034650217 -0.3499183481840932
12637649333.333334 0.9341343610718015 -0.35692155365686246 -5.2022392271332636e-17 4.015232219805553e-17 -5.2022392271332636e-17 4.015232219805553e-17 0.9341345801087858 -0.3569209803931874
12638266666.666666 0.9314363881079181 -0.36390418369170746 -5.17066654956484e-17 4.05372838929093e-17 -5.17066654956484e-17 4.05372838929093e-17 0.9314366114191225 -0.36390361211166156
12638884000.0 0.9286862210074226 -0.37086642192412644 -5.138809469255973e-17 4.091976874855554e-17 -5.138809469255973e-17 4.091976874855554e-17 0.9286864485799168 -0.37086585205957284
12639501333.333334 0.925884013879219 -0.3778078782169005 -5.106669925002851e-17 4.1299755789765816e-17 -5.106669925002851e-17 4.1299755789765816e-17 0.925884245699836 -0.37780731009960333
12640118666.666666 0.9230299237483811 -0.3847281635972476 -5.0742498710440117e-17 4.1677224192756005e-17 -5.0742498710440117e-17 4.1677224192756005e-17 0.9230301598037138 -0.38472759725886896
12640736000.0 0.9201241105471936 -0.3916268902789839 -5.0415512769405874e-17 4.2052153286340804e-17 -5.0415512769405874e-17 4.2052153286340804e-17 0.9201243508236029 -0.3916263257510845
12641353333.333334 0.917166737106419 -0.398503671683733 -5.0085761274598424e-17 4.242452255303113e-17 -5.0085761274598424e-17 4.242452255303113e-17 0.917166981590029 -0.39850310899776836
12641970666.666666 0.9141579691460004 -0.40535812246297837 -4.9753264224535807e-17 4.2794311630171263e-17 -4.9753264224535807e-17 4.2794311630171263e-17 0.9141582178227009 -0.4053575616502978
12642588000.0 0.9110979752658463 -0.4121898585195016 -4.941804176738476e-17 4.316150031103611e-17 -4.941804176738476e-17 4.316150031103611e-17 0.9110982281212929 -0.4121892996113462
12643205333.333334 0.9079869269363794 -0.41899849702890424 -4.908011419974221e-17 4.352606854593439e-17 -4.908011419974221e-17 4.352606854593439e-17 0.9079871839559961 -0.41899794005640567
12643822666.666666 0.9048249984888975 -0.42578365646113986 -4.8739501965415836e-17 4.3887996443293787e-17 -4.8739501965415836e-17 4.3887996443293787e-17 0.9048252596578756 -0.4257831014553181
12644440000.0 0.9016123671058104 -0.43254495660186426 -4.839622565419595e-17 4.4247264270738316e-17 -4.839622565419595e-17 4.4247264270738316e-17 0.9016126324091105 -0.43254440359362617
12645057333.333334 0.898349212810776 -0.43928201857361543 -4.805030600061926e-17 4.460385245615614e-17 -4.805030600061926e-17 4.460385245615614e-17 0.8983494822331287 -0.43928146759375286
12645674666.666666 0.8950357184585648 -0.4459944648571469 -4.7701763882718625e-17 4.495774158876464e-17 -4.7701763882718625e-17 4.495774158876464e-17 0.8950359919844704 -0.44599391593633475
12646292000.0 0.891672069724747 -0.45268191931270857 -4.735062032076834e-17 4.5308912420161164e-17 -4.735062032076834e-17 4.5308912420161164e-17 0.8916723473384792 -0.45268137248150425
12646909333.333334 0.8882584550954047 -0.4593440072008965 -4.699689647603669e-17 4.5657345865350106e-17 -4.699689647603669e-17 4.5657345865350106e-17 0.8882587367810081 -0.45934346248973634
12647526666.666666 0.8847950658565161 -0.4659803552037519 -4.6640613649500734e-17 4.6003023003790554e-17 -4.6640613649500734e-17 4.6003023003790554e-17 0.8847953515978096 -0.46597981264295124
12648144000.0 0.881282096083201 -0.47259059144575843 -4.628179328057944e-17 4.634592508040731e-17 -4.628179328057944e-17 4.634592508040731e-17 0.8812823858637774 -0.4725900510655088
12648761333.333334 0.8777197426289195 -0.4791743455145265 -4.5920456945850624e-17 4.668603350660171e-17 -4.5920456945850624e-17 4.668603350660171e-17 0.8777200364321471 -0.4791738073448943
12649378666.666666 0.8741082051143938 -0.4857312484816532 -4.555662635776316e-17 4.702332986124986e-17 -4.555662635776316e-17 4.702332986124986e-17 0.8741085029234166 -0.485730712552578
12649996000.0 0.8704476859164298 -0.49226093292336853 -4.519032336332678e-17 4.735779589170472e-17 -4.519032336332678e-17 4.735779589170472e-17 0.87044798771417 -0.49226039926466164
12650613333.333334 0.8667383901565814 -0.4987630329411253 -4.4821569942819153e-17 4.768941351476529e-17 -4.4821569942819153e-17 4.768941351476529e-17 0.8667386959257388 -0.498762501582468
12651230666.666666 0.8629805256896685 -0.5052371841820786 -4.4450388208473986e-17 4.8018164817647455e-17 -4.4450388208473986e-17 4.8018164817647455e-17 0.8629808354127221 -0.5052366551530201
12651848000.0 0.8591743030920722 -0.5116830238596001 -4.4076800403150474e-17 4.834403205895418e-17 -4.4076800403150474e-17 4.834403205895418e-17 0.8591746167512814 -0.5116824971895565
12652465333.333334 0.8553199356500067 -0.5181001907734842 -4.3700828899013975e-17 4.866699766961954e-17 -4.3700828899013975e-17 4.866699766961954e-17 0.8553202532274113 -0.518099666491736
12653082666.666666 0.8514176393475829 -0.5244883253301652 -4.332249619621157e-17 4.89870442538416e-17 -4.332249619621157e-17 4.89870442538416e-17 0.8514179608250064 -0.5244878034658571
12653700000.0 0.8474676328545739 -0.5308470695630868 -4.2941824921512025e-17 4.930415459002877e-17 -4.2941824921512025e-17 4.930415459002877e-17 0.847467958213622 -0.5308465501452246
12654317333.333334 0.8434701375143082 -0.5371760671525166 -4.255883782698209e-17 4.961831163170015e-17 -4.255883782698209e-17 4.961831163170015e-17 0.8434704667363712 -0.5371755502099663
12654934666.666666 0.839425377331209 -0.5434749634456127 -4.2173557788613153e-17 4.9929498508411233e-17 -4.2173557788613153e-17 4.9929498508411233e-17 0.8394257103974612 -0.5434744490070984
12655552000.0 0.8353335789581757 -0.5497434054763888 -4.1786007804969775e-17 5.023769852664496e-17 -4.1786007804969775e-17 5.023769852664496e-17 0.8353339158495804 -0.5497428935704922
12656169333.333334 0.8311949716840444 -0.5559810419852583 -4.1396210995830665e-17 5.0542895170694204e-17 -4.1396210995830665e-17 5.0542895170694204e-17 0.8311953123813502 -0.5559805326404159
12656786666.666666 0.8270097874205932 -0.5621875234389292 -4.100419060080419e-17 5.084507210354839e-17 -4.100419060080419e-17 5.084507210354839e-17 0.8270101319043399 -0.5621870166834323
12657404000.0 0.822778260689568 -0.5683625020499689 -4.060996997795089e-17 5.114421316775948e-17 -4.060996997795089e-17 5.114421316775948e-17 0.8227786089400827 -0.5683619979119595
12658021333.333334 0.8185006286095968 -0.5745056317961946 -4.0213572602403534e-17 5.1440302386293193e-17 -4.0213572602403534e-17 5.1440302386293193e-17 0.8185009806069989 -0.5745051303036666
12658638666.666666 0.814177130882928 -0.5806165684400458 -3.98150220649774e-17 5.173332396337391e-17 -3.98150220649774e-17 5.173332396337391e-17 0.8141774866071272 -0.5806160696208406
12659256000.0 0.8098080097818607 -0.5866949695480554 -3.9414342070760644e-17 5.2023262285328327e-17 -3.9414342070760644e-17 5.2023262285328327e-17 0.8098083692125613 -0.5866944734298628
12659873333.333334 0.8053935101352527 -0.592740494509923 -3.9011556437718045e-17 5.2310101921403985e-17 -3.9011556437718045e-17 5.2310101921403985e-17 0.8053938732519532 -0.5927400011202789
12660490666.666666 0.8009338793149036 -0.5987528045574658 -3.860668909529052e-17 5.259382762457611e-17 -3.860668909529052e-17 5.259382762457611e-17 0.8009342460968977 -0.5987523139237504
12661108000.0 0.7964293672214559 -0.6047315627839214 -3.8199764082959985e-17 5.2874424332363974e-17 -3.8199764082959985e-17 5.2874424332363974e-17 0.7964297376478338 -0.6047310749333575
12661725333.333334 0.7918802262706615 -0.61067643416246 -3.7790805548844986e-17 5.315187716761095e-17 -3.7790805548844986e-17 5.315187716761095e-17 0.7918806003203123 -0.6106759491221129
12662342666.666666 0.7872867113789852 -0.6165870855653027 -3.737983774826619e-17 5.3426171439270176e-17 -3.737983774826619e-17 5.3426171439270176e-17 0.7872870890305956 -0.6165866033620763
12662960000.0 0.7826490799495045 -0.622463185782136 -3.696688504231546e-17 5.369729264317335e-17 -3.696688504231546e-17 5.369729264317335e-17 0.7826494611815623 -0.6224627064427734
12663577333.333334 0.7779675918574017 -0.6283044055387859 -3.6551971896419447e-17 5.396522646278822e-17 -3.6551971896419447e-17 5.396522646278822e-17 0.7779679766481957 -0.6283039290898661
12664194666.666666 0.7732425094354188 -0.6341104175156465 -3.6135122878890173e-17 5.422995876997046e-17 -3.6135122878890173e-17 5.422995876997046e-17 0.7732428977630416 -0.6341099439835857
12664812000.0 0.768474097459176 -0.6398808963660011 -3.571636265948551e-17 5.44914756256939e-17 -3.571636265948551e-17 5.44914756256939e-17 0.7684744893015225 -0.639880425777048
12665429333.333334 0.7636626231322412 -0.6456155187343597 -3.529571600794903e-17 5.4749763280779945e-17 -3.529571600794903e-17 5.4749763280779945e-17 0.763663018467013 -0.6456150511145962
12666046666.666666 0.7588083560713609 -0.6513139632743419 -3.487320779255421e-17 5.5004808176610125e-17 -3.487320779255421e-17 5.5004808176610125e-17 0.7588087548760651 -0.6513134986496807
12666664000.0 0.7539115682910745 -0.6569759106670074 -3.444886297863214e-17 5.525659694583358e-17 -3.444886297863214e-17 5.525659694583358e-17 0.7539119705430268 -0.6569754490631912
12667281333.333334 0.7489725341887687 -0.662601043638406 -3.402270662711831e-17 5.5505116413049425e-17 -3.402270662711831e-17 5.5505116413049425e-17 0.7489729398650935 -0.6626005850810056
12667898666.666666 0.7439915305290403 -0.6681890469776552 -3.359476389306426e-17 5.575035359549589e-17 -3.359476389306426e-17 5.575035359549589e-17 0.7439919396066721 -0.668188591492068
12668516000.0 0.7389688364282984 -0.673739607554475 -3.3165060024160184e-17 5.59922957037185e-17 -3.3165060024160184e-17 5.59922957037185e-17 0.7389692488839836 -0.6737391551659241
12669133333.333334 0.7339047333392192 -0.6792524143366299 -3.27336203592594e-17 5.623093014222326e-17 -3.27336203592594e-17 5.623093014222326e-17 0.7339051491495173 -0.6792519650701622
12669750666.666666 0.7287995050348248 -0.6847271584075273 -3.2300470326883576e-17 5.646624451012691e-17 -3.2300470326883576e-17 5.646624451012691e-17 0.7287999241761091 -0.6847267122880122
12670368000.0 0.723653437592576 -0.6901635329835244 -3.1865635443731496e-17 5.669822660179104e-17 -3.1865635443731496e-17 5.669822660179104e-17 0.7236538600410363 -0.6901630900356528
