! Parameters = {f0=12700.012000; bw=77.238000; Q=6100.000000; N=10; m_0_1=1.309805; m_1_1=0.882326; m_1_2=1.144617; m_2_2=0.881677; m_2_3=0.781580; m_2_8=0.002554; m_2_9=0.039258; m_3_3=0.879740; m_3_4=0.670109; m_3_7=0.003154; m_3_8=-0.093934; m_3_9=0.002554; m_4_4=0.876815; m_4_5=0.506444; m_4_6=0.006671; m_4_7=-0.114483; m_4_8=0.003154; m_5_5=0.877197; m_5_6=0.913799; m_5_7=0.006671; m_6_6=0.877196; m_6_7=0.506786; m_7_7=0.876829; m_7_8=0.670227; m_8_8=0.879738; m_8_9=0.781893; m_9_9=0.881672; m_9_10=1.145695; m_10_10=0.882316; m_10_11=1.310600}
!
! Created with skrf (http://scikit-rf.org).
# Hz S RI R 50.0 
!freq ReS11 ImS11 ReS21 ImS21 ReS12 ImS12 ReS22 ImS22
12607400000.0 -0.27676284968250925 0.9609382524571647 -1.0085070230268234e-18 -1.32952471826137e-16 -1.0085070230268234e-18 -1.32952471826137e-16 -0.27676351273780214 0.960938061488275
12608017333.333334 -0.26550149253916955 0.9641104487864895 -2.5751891862618063e-18 -1.329053163007187e-16 -2.5751891862618063e-18 -1.329053163007187e-16 -0.26550215775073893 0.9641102655969978
12608634666.666666 -0.25420379329021464 0.9671506767183061 -4.140900016190819e-18 -1.3283970997373715e-16 -4.140900016190819e-18 -1.3283970997373715e-16 -0.25420446056679913 0.9671505013325252
12609252000.0 -0.2428712983759199 0.9700585201033014 -5.705422343234199e-18 -1.3275566918600074e-16 -5.705422343234199e-18 -1.3275566918600074e-16 -0.24287196762598418 0.9700583525444724
12609869333.333334 -0.23150555899945036 0.9728335809130794 -7.268539247986267e-18 -1.3265321283296733e-16 -7.268539247986267e-18 -1.3265321283296733e-16 -0.23150623013119803 0.97283342120337
12610486666.666666 -0.22010813091469839 0.9754754792946108 -8.830034091188905e-18 -1.3253236236112257e-16 -8.830034091188905e-18 -1.3253236236112257e-16 -0.22010880383608458 0.9754753274551132
12611104000.0 -0.20868057421274916 0.9779838536223644 -1.0389690543812797e-17 -1.32393141763996e-16 -1.0389690543812797e-17 -1.32393141763996e-16 -0.2086812488314931 0.9779837096730912
12611721333.333334 -0.19722445310910883 0.9803583605476246 -1.194729261687283e-17 -1.3223557757783845e-16 -1.194729261687283e-17 -1.3223557757783845e-16 -0.19722512933270628 0.9803582245075061
12612338666.666666 -0.18574133572903923 0.9825986750456184 -1.3502624691391701e-17 -1.3205969887693378e-16 -1.3502624691391701e-17 -1.3205969887693378e-16 -0.18574201346477567 0.9825985469325016
12612956000.0 -0.17423279389293794 0.9847044904599922 -1.505547154816483e-17 -1.3186553726856912e-16 -1.505547154816483e-17 -1.3186553726856912e-16 -0.1742334730479008 0.9847043702906365
12613573333.333334 -0.16270040290157675 0.9866755185447126 -1.6605618397484636e-17 -1.316531268876551e-16 -1.6605618397484636e-17 -1.316531268876551e-16 -0.1627010833826681 0.9866754063347881
12614190666.666666 -0.1511457413200816 0.9885114895035945 -1.815285090884218e-17 -1.3142250439099114e-16 -1.815285090884218e-17 -1.3142250439099114e-16 -0.15114642303403136 0.9885113852676812
12614808000.0 -0.13957039076202557 0.9902121520272046 -1.9696955240500922e-17 -1.3117370895118824e-16 -1.9696955240500922e-17 -1.3117370895118824e-16 -0.13957107361540394 0.9902120557787892
12615425333.333334 -0.12797593567290722 0.991777273327261 -2.12377180690135e-17 -1.309067822502424e-16 -2.12377180690135e-17 -1.309067822502424e-16 -0.12797661957213766 0.9917771850787359
12616042666.666666 -0.1163639631132706 0.9932066391684992 -2.2774926618651223e-17 -1.306217684727627e-16 -2.2774926618651223e-17 -1.306217684727627e-16 -0.11636464796464256 0.9932065589311609
12616660000.0 -0.10473606254146672 0.9945000538979984 -2.4308368690746065e-17 -1.3031871429885424e-16 -2.4308368690746065e-17 -1.3031871429885424e-16 -0.10473674825114844 0.9944999816820451
12617277333.333334 -0.09309382559605847 0.9956573404719631 -2.5837832692944528e-17 -1.2999766889665624e-16 -2.5837832692944528e-17 -1.2999766889665624e-16 -0.09309451207010995 0.9956572762864944
12617894666.666666 -0.08143884587809726 0.9966783404799447 -2.7363107668343935e-17 -1.296586839145428e-16 -2.7363107668343935e-17 -1.296586839145428e-16 -0.08143953302248301 0.9966782843329599
12618512000.0 -0.06977271873267768 0.9975629141665526 -2.8883983324587847e-17 -1.293018134729688e-16 -2.8883983324587847e-17 -1.293018134729688e-16 -0.06977340645327976 0.9975628660649505
12619129333.333334 -0.05809704103096173 0.9983109404505492 -3.0400250062765856e-17 -1.2892711415599644e-16 -3.0400250062765856e-17 -1.2892711415599644e-16 -0.05809772923359253 0.998310900400127
12619746666.666666 -0.046413410951314335 0.9989223169414508 -3.19116990062941e-17 -1.285346450024632e-16 -3.19116990062941e-17 -1.285346450024632e-16 -0.046414099541729474 0.9989222849469039
12620364000.0 -0.034723427760542734 0.9993969599535372 -3.341812202964706e-17 -1.2812446749681977e-16 -3.341812202964706e-17 -1.2812446749681977e-16 -0.03472411664445388 0.9993969360184546
12620981333.333334 -0.023028691595242633 0.9997348045172898 -3.491931178694136e-17 -1.276966455596409e-16 -3.491931178694136e-17 -1.276966455596409e-16 -0.023029380678330623 0.9997347886441611
12621598666.666666 -0.011330803242486373 0.9999358043883086 -3.6415061740469205e-17 -1.272512455377843e-16 -3.6415061740469205e-17 -1.272512455377843e-16 -0.011331492430413927 0.9999357965785163
12622216000.0 0.0003686360791527374 0.9999999320536249 -3.7905166189053775e-17 -1.2678833619422972e-16 -3.7905166189053775e-17 -1.2678833619422972e-16 0.0003679468807279636 0.9999999323074507
12622833333.333334 0.012068024938833445 0.999927178735476 -3.938942029630277e-17 -1.2630798869757996e-16 -3.938942029630277e-17 -1.2630798869757996e-16 0.01206733582424604 0.999927187052096
12623450666.666666 0.02376576191253841 0.9997175543925045 -4.0867620118709314e-17 -1.258102766112388e-16 -4.0867620118709314e-17 -1.258102766112388e-16 0.02376507297610224 0.9997175707699917
12624068000.0 0.03546024580242077 0.9993710877183937 -4.233956263364644e-17 -1.2529527588225106e-16 -4.233956263364644e-17 -1.2529527588225106e-16 0.03545955713841612 0.9993711121537185
12624685333.333334 0.04714987585600607 0.9988878261379381 -4.380504576722972e-17 -1.2476306482981314e-16 -4.380504576722972e-17 -1.2476306482981314e-16 0.04714918755866671 0.9988878586269682
12625302666.666666 0.05883305198502088 0.9982678358005634 -4.5263868421941316e-17 -1.2421372413349208e-16 -4.5263868421941316e-17 -1.2421372413349208e-16 0.05883236414852117 0.9982678763380642
12625920000.0 0.07050817498484026 0.9975112015712502 -4.6715830504284945e-17 -1.236473368210587e-16 -4.6715830504284945e-17 -1.236473368210587e-16 0.07050748770328229 0.9975112501508864
12626537333.333334 0.0821736467529912 0.9966180270189415 -4.816073295210315e-17 -1.230639882560671e-16 -4.816073295210315e-17 -1.230639882560671e-16 0.08217296012039187 0.996618083633277
12627154666.666666 0.09382787050807283 0.9955884344023553 -4.9598377761846616e-17 -1.224637661250761e-16 -4.9598377761846616e-17 -1.224637661250761e-16 0.09382718461835109 0.9955884990428561
12627772000.0 0.1054692510084952 0.9944225646532364 -5.102856801571693e-17 -1.218467604245395e-16 -5.102856801571693e-17 -1.218467604245395e-16 0.10546856595545906 0.9944226373102695
12628389333.333334 0.11709619477044139 0.9931205773570988 -5.245110790851182e-17 -1.2121306344743537e-16 -5.245110790851182e-17 -1.2121306344743537e-16 0.11709551064777513 0.9931206580199353
12629006666.666666 0.128707110286409 0.9916826507313397 -5.386580277445853e-17 -1.2056276976951903e-16 -5.386580277445853e-17 -1.2056276976951903e-16 0.12870642718766065 0.9916827393881577
12629624000.0 0.14030040824274687 0.9901089816008798 -5.527245911376756e-17 -1.1989597623531094e-16 -5.527245911376756e-17 -1.1989597623531094e-16 0.14029972626131498 0.9901090782387628
12630241333.333334 0.15187450173737121 0.9883997853712021 -5.667088461907612e-17 -1.1921278194374815e-16 -5.667088461907612e-17 -1.1921278194374815e-16 0.1518738209664923 0.9883998899761426
12630858666.666666 0.16342780649681318 0.9865552959988879 -5.806088820167495e-17 -1.1851328823354726e-16 -5.806088820167495e-17 -1.1851328823354726e-16 0.16342712702954898 0.9865554085557895
12631476000.0 0.1749587410933851 0.9845757659595479 -5.944228001761224e-17 -1.1779759866823311e-16 -5.944228001761224e-17 -1.1779759866823311e-16 0.17495806302260983 0.9845758864522274
12632093333.333334 0.18646572716128293 0.9824614662133206 -6.081487149353482e-17 -1.1706581902090586e-16 -6.081487149353482e-17 -1.1706581902090586e-16 0.18646505057967042 0.9824615946245093
12632710666.666666 0.19794718961280286 0.9802126861677556 -6.217847535240588e-17 -1.163180572586742e-16 -6.217847535240588e-17 -1.163180572586742e-16 0.19794651461281434 0.9802128224791042
12633328000.0 0.20940155685408063 0.9778297336381733 -6.353290563902908e-17 -1.1555442352679138e-16 -6.353290563902908e-17 -1.1555442352679138e-16 0.20940088352795172 0.9778298778302522
12633945333.333334 0.22082726099996122 0.975312934805577 -6.487797774533278e-17 -1.1477503013251958e-16 -6.487797774533278e-17 -1.1477503013251958e-16 0.22082658943968944 0.9753130868578802
12634562666.666666 0.2322227380887528 0.9726626341719814 -6.621350843550399e-17 -1.1397999152867614e-16 -6.621350843550399e-17 -1.1397999152867614e-16 0.2322220683860846 0.9726627940629274
12635180000.0 0.2435864282962737 0.9698791945132543 -6.753931587090115e-17 -1.1316942429689755e-16 -6.753931587090115e-17 -1.1316942429689755e-16 0.24358576054269301 0.9698793622201939
12635797333.333334 0.2549167761493921 0.9669629968294614 -6.885521963477104e-17 -1.123434471306126e-16 -6.885521963477104e-17 -1.123434471306126e-16 0.2549161104361071 0.9669631723286769
12636414666.666666 0.2662122307388307 0.9639144402927412 -7.016104075674114e-17 -1.1150218081773666e-16 -7.016104075674114e-17 -1.1150218081773666e-16 0.2662115671567607 0.9639146235594488
12637032000.0 0.27747124593161965 0.9607339421926173 -7.145660173713418e-17 -1.1064574822306316e-16 -7.145660173713418e-17 -1.1064574822306316e-16 0.27747058457138396 0.9607341332009741
12637649333.333334 0.28869228058262497 0.9574219378789142 -7.274172657103711e-17 -1.0977427427039327e-16 -7.274172657103711e-17 -1.0977427427039327e-16 0.2886916215345298 0.9574221366020196
12638266666.666666 0.29987379874552866 0.9539788807021564 -7.401624077216575e-17 -1.0888788592437873e-16 -7.401624077216575e-17 -1.0888788592437873e-16 0.2998731420995548 0.9539790871120568
12638884000.0 0.31101426988307 0.9504052419515131 -7.527997139652107e-17 -1.0798671217207913e-16 -7.527997139652107e-17 -1.0798671217207913e-16 0.31101361572886077 0.9504054560192055
12639501333.333334 0.32211216907657486 0.946701510790279 -7.653274706579789e-17 -1.0707088400426309e-16 -7.653274706579789e-17 -1.0707088400426309e-16 0.322111517503424 0.9467017324857153
12640118666.666666 0.33316597723452646 0.9428681941889737 -7.777439799055818e-17 -1.0614053439644575e-16 -7.777439799055818e-17 -1.0614053439644575e-16 0.3331653283313651 0.9428684234810638
12640736000.0 0.3441741813009294 0.9389058168557958 -7.900475599327065e-17 -1.0519579828958607e-16 -7.900475599327065e-17 -1.0519579828958607e-16 0.34417353515631516 0.9389060537124139
12641353333.333334 0.3551352744617747 0.9348149211650263 -8.022365453094039e-17 -1.0423681257065093e-16 -8.022365453094039e-17 -1.0423681257065093e-16 0.3551346311638788 0.9348151655530141
12641970666.666666 0.36604775635185677 0.9305960670825904 -8.14309287176825e-17 -1.0326371605278185e-16 -8.14309287176825e-17 -1.0326371605278185e-16 0.3660471159884524 0.9305963189677626
12642588000.0 0.3769101332598779 0.9262498320895041 -8.262641534694598e-17 -1.0227664945528512e-16 -8.262641534694598e-17 -1.0227664945528512e-16 0.3769094959183276 0.9262500914366518
12643205333.333334 0.3877209183329343 0.9217768111028171 -8.380995291353172e-17 -1.0127575538333823e-16 -8.380995291353172e-17 -1.0127575538333823e-16 0.3877202841001789 0.9217770778757137
12643822666.666666 0.3984786317801453 0.9171776163941401 -8.498138163537396e-17 -1.0026117830743467e-16 -8.498138163537396e-17 -1.0026117830743467e-16 0.39847800074269124 0.917177890555546
12644440000.0 0.40918180107507457 0.9124528775058858 -8.614054347504795e-17 -9.923306454259923e-17 -8.614054347504795e-17 -9.923306454259923e-17 0.40918117331898274 0.9124531590175542
12645057333.333334 0.4198289611573201 0.9076032411650913 -8.72872821610446e-17 -9.819156222734125e-17 -8.72872821610446e-17 -9.819156222734125e-17 0.4198283367681937 0.9076035299877725
12645674666.666666 0.43041865463305257 0.9026293711948926 -8.842144320878842e-17 -9.7136821302365e-17 -8.842144320878842e-17 -9.7136821302365e-17 0.4304180336960257 0.9026296672883405
12646292000.0 0.4409494319746841 0.8975319484235738 -8.954287394141774e-17 -9.606899348901989e-17 -8.954287394141774e-17 -9.606899348901989e-17 0.44094881457441054 0.8975322517465518
12646909333.333334 0.4514198517189487 0.892311670591535 -9.065142351025205e-17 -9.498823226756345e-17 -9.065142351025205e-17 -9.498823226756345e-17 0.451419237939589 0.8923119811018194
12647526666.666666 0.46182848066446597 0.8869692522556601 -9.17469429150593e-17 -9.389469285512907e-17 -9.17469429150593e-17 -9.389469285512907e-17 0.46182787058967756 0.8869695699100492
12648144000.0 0.47217389406789284 0.8815054246915184 -9.282928502402862e-17 -9.278853218348928e-17 -9.282928502402862e-17 -9.278853218348928e-17 0.47217328778081813 0.8815057494458367
12648761333.333334 0.48245467583884477 0.8759209357933218 -9.389830459346834e-17 -9.166990887659785e-17 -9.389830459346834e-17 -9.166990887659785e-17 0.4824540734220984 0.8759212676024243
12649378666.666666 0.49266941873372866 0.8702165499715478 -9.495385828724483e-17 -9.053898322789545e-17 -9.495385828724483e-17 -9.053898322789545e-17 0.49266882026938863 0.8702168887893307
12649996000.0 0.5028167245484961 0.8643930480482448 -9.599580469596107e-17 -8.939591717737813e-17 -9.599580469596107e-17 -8.939591717737813e-17 0.5028161301180912 0.8643933938276487
12650613333.333334 0.5128952043099538 0.8584512271501884 -9.702400435583993e-17 -8.824087428846781e-17 -9.702400435583993e-17 -8.824087428846781e-17 0.5128946139944525 0.8584515798432053
12651230666.666666 0.5229034784657907 0.8523919005998299 -9.803831976732759e-17 -8.707401972466979e-17 -9.803831976732759e-17 -8.707401972466979e-17 0.5229028923455903 0.8523922601575106
12651848000.0 0.5328401770736563 0.8462158978038217 -9.903861541344896e-17 -8.589552022598023e-17 -9.903861541344896e-17 -8.589552022598023e-17 0.5328395952285728 0.8462162641762828
12652465333.333334 0.5427039399884604 0.8399240641396198 -1.0002475777784844e-16 -8.470554408512061e-17 -1.0002475777784844e-16 -8.470554408512061e-17 0.5427033624977157 0.8399244372760485
12653082666.666666 0.5524934170485519 0.8335172608397672 -1.0099661536252931e-16 -8.350426112358575e-17 -1.0099661536252931e-16 -8.350426112358575e-17 0.5524928439907653 0.8335176406884313
12653700000.0 0.5622072682607709 0.8269963648738582 -1.0195405870539204e-16 -8.229184266738627e-17 -1.0195405870539204e-16 -8.229184266738627e-17 0.5622066997139465 0.8269967513821113
12654317333.333334 0.5718441639835321 0.8203622688287099 -1.0289696039735237e-16 -8.106846152274915e-17 -1.0289696039735237e-16 -8.106846152274915e-17 0.57184360002505 0.8203626619429998
12654934666.666666 0.5814027851090687 0.8136158807860329 -1.0382519509929681e-16 -7.98342919514636e-17 -1.0382519509929681e-16 -7.98342919514636e-17 0.5814022258156718 0.813616280451907
12655552000.0 0.5908818232439867 0.8067581241981243 -1.0473863955865992e-16 -7.858950964613836e-17 -1.0473863955865992e-16 -7.858950964613836e-17 0.590881268691773 0.8067585303602398
12656169333.333334 0.6002799808881545 0.7997899377616171 -1.056371726257224e-16 -7.73342917052506e-17 -1.056371726257224e-16 -7.73342917052506e-17 0.6002794311525655 0.7997903503637471
12656786666.666666 0.6095959716125355 0.7927122752888234 -1.0652067526963969e-16 -7.606881660797026e-17 -1.0652067526963969e-16 -7.606881660797026e-17 0.6095954267683465 0.7927126942738656
12657404000.0 0.6188285202351611 0.7855261055772592 -1.0738903059413817e-16 -7.479326418884369e-17 -1.0738903059413817e-16 -7.479326418884369e-17 0.61882798035647 0.7855265308872426
12658021333.333334 0.6279763629957232 0.7782324122769994 -1.0824212385292492e-16 -7.350781561227858e-17 -1.0824212385292492e-16 -7.350781561227858e-17 0.6279758281559414 0.7782328438530931
12658638666.666666 0.6370382477284495 0.7708321937561246 -1.0907984246477824e-16 -7.221265334687557e-17 -1.0907984246477824e-16 -7.221265334687557e-17 0.6370377180002917 0.7708326315386463
12659256000.0 0.6460129340337216 0.7633264629638853 -1.0990207602836153e-16 -7.090796113954172e-17 -1.0990207602836153e-16 -7.090796113954172e-17 0.6460124094891949 0.763326906892308
12659873333.333334 0.6548991934476622 0.7557162472922067 -1.1070871633669071e-16 -6.959392398949612e-17 -1.1070871633669071e-16 -6.959392398949612e-17 0.6548986741580579 0.7557166973051682
12660490666.666666 0.6636958096102704 0.7480025884350812 -1.1149965739130968e-16 -6.827072812208377e-17 -1.1149965739130968e-16 -6.827072812208377e-17 0.6636952956461537 0.7480030444703939
12661108000.0 0.6724015784322389 0.7401865422457007 -1.1227479541617188e-16 -6.69385609623971e-17 -1.1227479541617188e-16 -6.69385609623971e-17 0.6724010698634394 0.7401870042403581
12661725333.333334 0.6810153082592593 0.7322691785923803 -1.1303402887116265e-16 -6.559761110881801e-17 -1.1303402887116265e-16 -6.559761110881801e-17 0.6810148051548601 0.7322696464825652
12662342666.666666 0.6895358200355824 0.7242515812117161 -1.137772584653528e-16 -6.424806830632722e-17 -1.137772584653528e-16 -6.424806830632722e-17 0.6895353224639134 0.7242520549328119
12662960000.0 0.6979619474651972 0.7161348475604324 -1.145043871699042e-16 -6.289012341971577e-17 -1.145043871699042e-16 -6.289012341971577e-17 0.6979614554938234 0.7161353270470303
12663577333.333334 0.7062925371715164 0.7079200886651241 -1.152153202306682e-16 -6.152396840663285e-17 -1.152153202306682e-16 -6.152396840663285e-17 0.70629205086723 0.7079205738510327
12664194666.666666 0.7145264488552318 0.6996084289701958 -1.1590996518046044e-16 -6.014979629049473e-17 -1.1590996518046044e-16 -6.014979629049473e-17 0.7145259682840438 0.6996089197884507
12664812000.0 0.7226625554504813 0.6912010061838699 -1.1658823185101405e-16 -5.8767801133257e-17 -1.1658823185101405e-16 -5.8767801133257e-17 0.7226620806776102 0.6912015025667412
12665429333.333334 0.7306997432790376 0.6826989711225302 -1.1725003238460962e-16 -5.737817800804914e-17 -1.1725003238460962e-16 -5.737817800804914e-17 0.730699274368903 0.6826994730015339
12666046666.666666 0.7386369122026414 0.6741034875533295 -1.1789528124536977e-16 -5.59811229717035e-17 -1.1789528124536977e-16 -5.59811229717035e-17 0.7386364492188524 0.6741039948592346
12666664000.0 0.7464729757739877 0.6654157320344491 -1.1852389523026023e-16 -5.4576833037083826e-17 -1.1852389523026023e-16 -5.4576833037083826e-17 0.7464725187793384 0.6654162446972902
12667281333.333334 0.7542068613849071 0.6566368937546394 -1.191357934796995e-16 -5.31655061454301e-17 -1.191357934796995e-16 -5.31655061454301e-17 0.7542064104413643 0.6566374117037239
12667898666.666666 0.7618375104135671 0.6477681743700227 -1.1973089748791432e-16 -5.1747341138420026e-17 -1.1973089748791432e-16 -5.1747341138420026e-17 0.7618370655822637 0.6477686975339415
12668516000.0 0.7693638783693524 0.6388107878396245 -1.2030913111291028e-16 -5.032253773023427e-17 -1.2030913111291028e-16 -5.032253773023427e-17 0.7693634397105793 0.6388113161462624
12669133333.333334 0.7767849350355798 0.6297659602595108 -1.208704205861221e-16 -4.8891296479488295e-17 -1.208704205861221e-16 -4.8891296479488295e-17 0.7767845026087761 0.6297664936360544
12669750666.666666 0.7840996646107716 0.6206349296946545 -1.2141469452174835e-16 -4.745381876101312e-17 -1.2141469452174835e-16 -4.745381876101312e-17 0.7840992384745186 0.6206354680676044
