! Parameters = {f0=12700.012000; bw=77.238000; Q=6100.000000; N=10; m_0_1=1.205500; m_1_1=-0.682238; m_1_2=1.040312; m_2_2=-0.682887; m_2_3=0.677275; m_2_8=-0.002661; m_2_9=0.034043; m_3_3=-0.684824; m_3_4=0.565804; m_3_7=-0.002061; m_3_8=-0.099149; m_3_9=-0.002661; m_4_4=-0.687749; m_4_5=0.402139; m_4_6=0.001456; m_4_7=-0.119698; m_4_8=-0.002061; m_5_5=-0.687367; m_5_6=0.809494; m_5_7=0.001456; m_6_6=-0.687368; m_6_7=0.402481; m_7_7=-0.687735; m_7_8=0.565922; m_8_8=-0.684826; m_8_9=0.677588; m_9_9=-0.682892; m_9_10=1.041390; m_10_10=-0.682248; m_10_11=1.206295}
!
! Created with skrf (http://scikit-rf.org).
# Hz S RI R 50.0 
!freq ReS11 ImS11 ReS21 ImS21 ReS12 ImS12 ReS22 ImS22
12607400000.0 -0.44631696271250726 0.894874945897427 1.4034224307621015e-17 -7.954394982817793e-17 1.4034224307621015e-17 -7.954394982817793e-17 -0.44631753117432943 0.8948746623780852
12608017333.333334 -0.4385900946464767 0.8986872252779802 1.3338669329068921e-17 -7.964749751678716e-17 1.3338669329068921e-17 -7.964749751678716e-17 -0.4385906655020637 0.89868694668071
12608634666.666666 -0.4308306665467916 0.9024327879474946 1.264237587249431e-17 -7.974496832042489e-17 1.264237587249431e-17 -7.974496832042489e-17 -0.430831239753532 0.9024325142924958
12609252000.0 -0.42303925445762264 0.9061113558430777 1.1945396984535597e-17 -7.983635723419075e-17 1.1945396984535597e-17 -7.983635723419075e-17 -0.42303982997273415 0.9061110871501797
12609869333.333334 -0.4152164367975395 0.9097226558754025 1.1247785742964442e-17 -7.99216597158473e-17 1.1247785742964442e-17 -7.99216597158473e-17 -0.4152170145780737 0.909722392164067
12610486666.666666 -0.4073627943167016 0.9132664199489268 1.0549595252679e-17 -8.000087168597969e-17 1.0549595252679e-17 -8.000087168597969e-17 -0.40736337431954517 0.913266161238242
12611104000.0 -0.39947891005345715 0.9167423849819222 9.850878641637434e-18 -8.007398952812732e-17 9.850878641637434e-18 -8.007398952812732e-17 -0.3994794922353367 0.9167421312906039
12611721333.333334 -0.3915653692914502 0.9201502929258306 9.151689056859704e-18 -8.014101008887255e-17 9.151689056859704e-18 -8.014101008887255e-17 -0.391565953608934 0.9201500442722191
12612338666.666666 -0.3836227595158053 0.9234898907845822 8.452079660372442e-18 -8.020193067790091e-17 8.452079660372442e-18 -8.020193067790091e-17 -0.38362334592530833 0.9234896471866438
12612956000.0 -0.375651670369671 0.9267609306333089 7.75210362517705e-18 -8.02567490680228e-17 7.75210362517705e-18 -8.02567490680228e-17 -0.37565225882745645 0.9267606921086319
12613573333.333334 -0.36765269361057623 0.9299631696366953 7.05181413124146e-18 -8.030546349515945e-17 7.05181413124146e-18 -8.030546349515945e-17 -0.3676532840727597 0.9299629362024893
12614190666.666666 -0.3596264230662637 0.933096370067104 6.3512643614380556e-18 -8.03480726582974e-17 6.3512643614380556e-18 -8.03480726582974e-17 -0.3596270154888167 0.9330961417402
12614808000.0 -0.35157345459073674 0.9361602993221703 5.650507497540098e-18 -8.038457571940387e-17 5.650507497540098e-18 -8.038457571940387e-17 -0.3515740489294894 0.9361600761190182
12615425333.333334 -0.3434943860199986 0.9391547299420826 4.949596716183266e-18 -8.041497230330986e-17 4.949596716183266e-18 -8.041497230330986e-17 -0.3434949822306425 0.9391545118787492
12616042666.666666 -0.33538981712766824 0.9420794396264632 4.248585184842834e-18 -8.043926249755701e-17 4.248585184842834e-18 -8.043926249755701e-17 -0.3353904151657612 0.9420792267186339
12616660000.0 -0.32726034958045663 0.9449342112508774 3.547526057810878e-18 -8.04574468522101e-17 3.547526057810878e-18 -8.04574468522101e-17 -0.3272609494014251 0.9449340035138534
12617277333.333334 -0.3191065868934999 0.9477188328829507 2.846472472176017e-18 -8.046952637963398e-17 2.846472472176017e-18 -8.046952637963398e-17 -0.3191071884526415 0.9477186303316458
12617894666.666666 -0.3109291343855809 0.9504330977980903 2.1454775438083512e-18 -8.047550255423636e-17 2.1454775438083512e-18 -8.047550255423636e-17 -0.3109297376380695 0.950432900447034
12618512000.0 -0.30272859913405836 0.9530768044948797 1.4445943633338137e-18 -8.047537731217489e-17 1.4445943633338137e-18 -8.047537731217489e-17 -0.30272920403494635 0.9530766123582138
12619129333.333334 -0.2945055899300682 0.9556497567099485 7.438759921463615e-19 -8.046915305102993e-17 7.438759921463615e-19 -8.046915305102993e-17 -0.29450619643428955 0.9556495698014248
12619746666.666666 -0.28626071723308455 0.9581517634326203 4.3375458380454416e-20 -8.045683262944252e-17 4.3375458380454416e-20 -8.045683262944252e-17 -0.28626132529545933 0.9581515817656036
12620364000.0 -0.27799459312560104 0.9605826389190949 -6.568542470917744e-19 -8.043841936671708e-17 -6.568542470917744e-19 -8.043841936671708e-17 -0.27799520270083733 0.9605824625065572
12620981333.333334 -0.26970783126793424 0.9629422027061582 -1.3567601746383857e-18 -8.041391704239029e-17 -1.3567601746383857e-18 -8.041391704239029e-17 -0.2697084423106328 0.9629420315606816
12621598666.666666 -0.26140104685239635 0.9652302796246666 -2.0562894198819816e-18 -8.038332989576439e-17 -2.0562894198819816e-18 -8.038332989576439e-17 -0.26140165931705317 0.9652301137584407
12622216000.0 -0.2530748565577866 0.9674466998124993 -2.7553891276861797e-18 -8.034666262540614e-17 -2.7553891276861797e-18 -8.034666262540614e-17 -0.25307547039879685 0.9674465392373209
12622833333.333334 -0.24472987850344718 0.969591298727216 -3.454006496129954e-18 -8.030392038861139e-17 -3.454006496129954e-18 -8.030392038861139e-17 -0.24473049367510782 0.9695911434544868
12623450666.666666 -0.23636673220364862 0.9716639171581961 -4.152088780485548e-18 -8.025510880083543e-17 -4.152088780485548e-18 -8.025510880083543e-17 -0.23636734866016285 0.9716637671989247
12624068000.0 -0.22798603852135244 0.9736644012385277 -4.849583297199618e-18 -8.020023393508798e-17 -4.849583297199618e-18 -8.020023393508798e-17 -0.2279866562168323 0.9736642566033266
12624685333.333334 -0.21958841962211803 0.9755926024564259 -5.5464374278613e-18 -8.013930232129373e-17 -5.5464374278613e-18 -8.013930232129373e-17 -0.21958903851058806 0.9755924631555105
12625302666.666666 -0.21117449892819093 0.9774483776661905 -6.2425986231365244e-18 -8.007232094562116e-17 -6.2425986231365244e-18 -8.007232094562116e-17 -0.21117511896359187 0.977448243709381
12625920000.0 -0.20274490107180662 0.9792315890989343 -6.938014406763814e-18 -7.999929724977146e-17 -6.938014406763814e-18 -7.999929724977146e-17 -0.20274552220799824 0.9792314604956515
12626537333.333334 -0.19430025184923452 0.9809421043727127 -7.632632379454249e-18 -7.992023913024049e-17 -7.632632379454249e-18 -7.992023913024049e-17 -0.19430087403999943 0.9809419811319796
12627154666.666666 -0.18584117817404242 0.9825797965024139 -8.326400222852396e-18 -7.98351549375415e-17 -8.326400222852396e-18 -7.98351549375415e-17 -0.18584180137308978 0.9825796786328558
12627772000.0 -0.1773683080305557 0.9841445439091849 -9.019265703477985e-18 -7.974405347539286e-17 -9.019265703477985e-18 -7.974405347539286e-17 -0.17736893219152422 0.9841444314190269
12628389333.333334 -0.16888227042751647 0.9856362304294055 -9.711176676616738e-18 -7.964694399987867e-17 -9.711176676616738e-18 -7.964694399987867e-17 -0.16888289550397764 0.9856361233264704
12629006666.666666 -0.1603836953509949 0.9870547453233788 -1.0402081090268501e-17 -7.954383621856598e-17 -1.0402081090268501e-17 -7.954383621856598e-17 -0.16038432129645727 0.9870546436150918
12629624000.0 -0.15187321371792936 0.9883999832835036 -1.1091926989025829e-17 -7.943474028959713e-17 -1.1091926989025829e-17 -7.943474028959713e-17 -0.15187384048584118 0.9883998869768867
12630241333.333334 -0.1433514573291192 0.9896718444421155 -1.1780662517993366e-17 -7.931966682074076e-17 -1.1780662517993366e-17 -7.931966682074076e-17 -0.1433520848728725 0.9896717535437909
12630858666.666666 -0.1348190588224909 0.9908702343788811 -1.2468235926648512e-17 -7.919862686841682e-17 -1.2468235926648512e-17 -7.919862686841682e-17 -0.13481968709542447 0.9908701488950672
12631476000.0 -0.126276651625822 0.9919950641278475 -1.3154595572753463e-17 -7.907163193667844e-17 -1.3154595572753463e-17 -7.907163193667844e-17 -0.12627728058122514 0.991994984064361
12632093333.333334 -0.11772486991011091 0.9930462501839921 -1.3839689926192298e-17 -7.893869397617093e-17 -1.3839689926192298e-17 -7.893869397617093e-17 -0.11772549950122692 0.9930461755462472
12632710666.666666 -0.10916434854221631 0.9940237145094649 -1.4523467572843078e-17 -7.87998253830501e-17 -1.4523467572843078e-17 -7.87998253830501e-17 -0.10916497872224565 0.9940236453024711
12633328000.0 -0.10059572303775319 0.9949273845393712 -1.5205877218434972e-17 -7.865503899786712e-17 -1.5205877218434972e-17 -7.865503899786712e-17 -0.10059635375985726 0.9949273207677345
12633945333.333334 -0.09201962951405493 0.9957571931871433 -1.5886867692374832e-17 -7.85043481044248e-17 -1.5886867692374832e-17 -7.85043481044248e-17 -0.09202026073135962 0.9957571348550678
12634562666.666666 -0.08343670464283655 0.996513078849538 -1.6566387951571787e-17 -7.83477664285987e-17 -1.6566387951571787e-17 -7.83477664285987e-17 -0.08343733630843547 0.9965130259608221
12635180000.0 -0.07484758560295753 0.9971949854112031 -1.724438708425956e-17 -7.818530813712344e-17 -1.724438708425956e-17 -7.818530813712344e-17 -0.07484821766991552 0.9971949379692407
12635797333.333334 -0.06625291003309047 0.997802862248846 -1.792081431380077e-17 -7.801698783634746e-17 -1.792081431380077e-17 -7.801698783634746e-17 -0.06625354245444731 0.9978028202566268
12636414666.666666 -0.05765331598449774 0.998336664234983 -1.8595619002470612e-17 -7.784282057095738e-17 -1.8595619002470612e-17 -7.784282057095738e-17 -0.057653948713271404 0.9983366276950922
12637032000.0 -0.04904944187352203 0.9987963517413034 -1.9268750655248388e-17 -7.766282182266427e-17 -1.9268750655248388e-17 -7.766282182266427e-17 -0.04905007486271227 0.9987963206559203
12637649333.333334 -0.040441926434191484 0.9991818906416052 -1.9940158923585782e-17 -7.747700750886063e-17 -1.9940158923585782e-17 -7.747700750886063e-17 -0.04044255963678332 0.9991818650125048
12638266666.666666 -0.03183140867094331 0.9994932523143236 -2.060979360915152e-17 -7.728539398124746e-17 -2.060979360915152e-17 -7.728539398124746e-17 -0.03183204203991052 0.999493232142875
12638884000.0 -0.023218527811071917 0.9997304136446628 -2.1277604667583e-17 -7.708799802442372e-17 -2.1277604667583e-17 -7.708799802442372e-17 -0.023219161299380498 0.9997303989318297
12639501333.333334 -0.014603923257273893 0.9998933570263066 -2.1943542212216028e-17 -7.688483685444624e-17 -2.1943542212216028e-17 -7.688483685444624e-17 -0.014604556817885622 0.9998933477726487
12640118666.666666 -0.005988234540350636 0.9999820703627298 -2.2607556517788096e-17 -7.667592811736124e-17 -2.2607556517788096e-17 -7.667592811736124e-17 -0.005988868126226491 0.9999820665684
12640736000.0 0.0026278987287238886 0.9999965470680955 -2.3269598024175788e-17 -7.646128988768921e-17 -2.3269598024175788e-17 -7.646128988768921e-17 0.002627265164620196 0.9999965487328426
12641353333.333334 0.01124383690560444 0.99993678606774 -2.3929617340029124e-17 -7.624094066690531e-17 -2.3929617340029124e-17 -7.624094066690531e-17 0.011243203410303002 0.9999367931909079
12641970666.666666 0.019858940360628848 0.99980279179826 -2.4587565246500572e-17 -7.601489938185531e-17 -2.4587565246500572e-17 -7.601489938185531e-17 0.019858306981150035 0.9998028043787854
12642588000.0 0.028472569526132224 0.999594574207174 -2.5243392700869946e-17 -7.578318538316577e-17 -2.5243392700869946e-17 -7.578318538316577e-17 0.02847193630948324 0.9995945922435909
12643205333.333334 0.03708408494378512 0.9993121487521921 -2.5897050840200793e-17 -7.554581844361062e-17 -2.5897050840200793e-17 -7.554581844361062e-17 0.03708345193695648 0.9993121722426285
12643822666.666666 0.045692847312292985 0.9989555364000632 -2.6548490984976893e-17 -7.530281875644615e-17 -2.6548490984976893e-17 -7.530281875644615e-17 0.04569221456225501 0.998955565342242
12644440000.0 0.05429821753468589 0.9985247636250182 -2.7197664642706328e-17 -7.505420693372108e-17 -2.7197664642706328e-17 -7.505420693372108e-17 0.054297585088385315 0.9985247980162594
12645057333.333334 0.06289955676579252 0.9980198624068113 -2.784452351152104e-17 -7.480000400455261e-17 -2.784452351152104e-17 -7.480000400455261e-17 0.06289892467014886 0.9980199022440287
12645674666.666666 0.07149622645966654 0.9974408702283412 -2.848901948376873e-17 -7.454023141336753e-17 -2.848901948376873e-17 -7.454023141336753e-17 0.07149559476156883 0.997440915508047
12646292000.0 0.08008758841718973 0.9967878300728603 -2.913110464958216e-17 -7.42749110181148e-17 -2.913110464958216e-17 -7.42749110181148e-17 0.08008695716349282 0.9967878807911613
12646909333.333334 0.08867300483305325 0.9960607904208053 -2.977073130041133e-17 -7.400406508845669e-17 -2.977073130041133e-17 -7.400406508845669e-17 0.08867237407057449 0.996060846573406
12647526666.666666 0.09725183834350422 0.9952598052461733 -3.0407851932576877e-17 -7.372771630391383e-17 -3.0407851932576877e-17 -7.372771630391383e-17 0.09725120811901981 0.9952598668283739
12648144000.0 0.10582345207346355 0.9943849340125268 -3.104241925078523e-17 -7.344588775198816e-17 -3.104241925078523e-17 -7.344588775198816e-17 0.10582282243370532 0.9943850010192259
12648761333.333334 0.1143872096838065 0.9934362416685807 -3.167438617162068e-17 -7.315860292625884e-17 -3.167438617162068e-17 -7.315860292625884e-17 0.11438658067545827 0.9934363140942749
12649378666.666666 0.12294247541857503 0.9924137986433862 -3.2303705827026323e-17 -7.286588572444564e-17 -3.2303705827026323e-17 -7.286588572444564e-17 0.12294184708826908 0.9924138764821692
12649996000.0 0.13148861415231616 0.9913176808410841 -3.2930331567787866e-17 -7.256776044643286e-17 -3.2930331567787866e-17 -7.256776044643286e-17 0.13148798654663008 0.99131776408665
12650613333.333334 0.14002499143714772 0.9901479696352804 -3.3554216966962375e-17 -7.22642517922804e-17 -3.3554216966962375e-17 -7.22642517922804e-17 0.14002436460260068 0.9901480582809217
12651230666.666666 0.1485509735497458 0.9889047518630216 -3.4175315823307583e-17 -7.195538486019731e-17 -3.4175315823307583e-17 -7.195538486019731e-17 0.14855034753279517 0.9889048459016307
12651848000.0 0.15706592753867263 0.987588119818307 -3.479358216471083e-17 -7.164118514447642e-17 -3.479358216471083e-17 -7.164118514447642e-17 0.15706530238571048 0.9875882192423758
12652465333.333334 0.16556922127108403 0.9861981712452773 -3.540897025156294e-17 -7.132167853341834e-17 -3.540897025156294e-17 -7.132167853341834e-17 0.1655685970284339 0.9861982760469
12653082666.666666 0.1740602234797706 0.9847350093309445 -3.6021434580129287e-17 -7.099689130721787e-17 -3.6021434580129287e-17 -7.099689130721787e-17 0.17405960019368394 0.9847351195018167
12653700000.0 0.18253830381013308 0.9831987426975081 -3.6630929885932046e-17 -7.066685013580669e-17 -3.6630929885932046e-17 -7.066685013580669e-17 0.18253768152678582 0.9831988582289278
12654317333.333334 0.1910028328666997 0.9815894853943467 -3.723741114704441e-17 -7.033158207670201e-17 -3.723741114704441e-17 -7.033158207670201e-17 0.19100221163218864 0.9815896062772133
12654934666.666666 0.19945318226010175 0.9799073568894974 -3.7840833587433554e-17 -6.999111457279159e-17 -3.7840833587433554e-17 -6.999111457279159e-17 0.1994525621204416 0.9799074831143159
12655552000.0 0.2078887246537246 0.9781524820607929 -3.8441152680253636e-17 -6.964547545010616e-17 -3.8441152680253636e-17 -6.964547545010616e-17 0.20788810565484425 0.9781526136176719
12656169333.333334 0.21630883381002872 0.9763249911866376 -3.903832415110268e-17 -6.929469291557236e-17 -3.903832415110268e-17 -6.929469291557236e-17 0.21630821599776756 0.97632512806529
12656786666.666666 0.22471288463731862 0.9744250199362792 -3.9632303981296767e-17 -6.893879555471692e-17 -3.9632303981296767e-17 -6.893879555471692e-17 0.22471226805742398 0.974425162126025
12657404000.0 0.23310025323598205 0.9724527093597732 -4.0223048411092046e-17 -6.857781232936082e-17 -4.0223048411092046e-17 -6.857781232936082e-17 0.23309963793410513 0.9724528568495396
12658021333.333334 0.24147031694497267 0.9704082058774739 -4.0810513942909295e-17 -6.82117725752723e-17 -4.0810513942909295e-17 -6.82117725752723e-17 0.24146970296666515 0.9704083586557941
12658638666.666666 0.249822454387731 0.9682916612692333 -4.139465734450443e-17 -6.78407059998121e-17 -4.139465734450443e-17 -6.78407059998121e-17 0.2498218417784424 0.9682918193242513
12659256000.0 0.25815604551870186 0.966103232663046 -4.1975435652166085e-17 -6.746464267952239e-17 -4.1975435652166085e-17 -6.746464267952239e-17 0.25815543432377497 0.9661033959825133
12659873333.333334 0.26647047166908777 0.9638430825234453 -4.255280617384504e-17 -6.708361305771643e-17 -4.255280617384504e-17 -6.708361305771643e-17 0.26646986193375627 0.9638432510947239
12660490666.666666 0.27476511559277855 0.9615113786394466 -4.3126726492281755e-17 -6.669764794203071e-17 -4.3126726492281755e-17 -6.669764794203071e-17 0.27476450736216373 0.9615115524495116
12661108000.0 0.28303936151244996 0.959108294112019 -4.3697154468128236e-17 -6.630677850193816e-17 -4.3697154468128236e-17 -6.630677850193816e-17 0.28303875483155627 0.9591084731474561
12661725333.333334 0.29129259516489237 0.956634007341337 -4.426404824301206e-17 -6.591103626625912e-17 -4.426404824301206e-17 -6.591103626625912e-17 0.2912919900786053 0.9566341915883457
12662342666.666666 0.29952420384688716 0.954088702013461 -4.4827366242606185e-17 -6.551045312062714e-17 -4.4827366242606185e-17 -6.551045312062714e-17 0.29952360039996967 0.9540888914578565
12662960000.0 0.30773357646066496 0.9514725670867088 -4.5387067179664664e-17 -6.510506130493635e-17 -4.5387067179664664e-17 -6.510506130493635e-17 0.30773297469775324 0.95147276171392
12663577333.333334 0.315920103559135 0.9487857967776647 -4.5943110057037504e-17 -6.469489341076182e-17 -4.5943110057037504e-17 -6.469489341076182e-17 0.31591950352473674 0.9487859965727391
12664194666.666666 0.3240831773912402 0.946028590546735 -4.6495454170662126e-17 -6.427998237875404e-17 -4.6495454170662126e-17 -6.427998237875404e-17 0.3240825791297296 0.9460287954943363
12664812000.0 0.3322221919470455 0.9432011530833407 -4.7044059112531684e-17 -6.386036149600826e-17 -4.7044059112531684e-17 -6.386036149600826e-17 0.3322215955026616 0.9432013631677529
12665429333.333334 0.3403365430027564 0.94030369429072 -4.7588884773639775e-17 -6.343606439340855e-17 -4.7588884773639775e-17 -6.343606439340855e-17 0.3403359484195987 0.9403039094958472
12666046666.666666 0.3484256281654393 0.9373364292703883 -4.8129891346899495e-17 -6.300712504294818e-17 -4.8129891346899495e-17 -6.300712504294818e-17 0.34842503548746473 0.9373366495797552
12666664000.0 0.3564888469180372 0.934299578306065 -4.866703933004919e-17 -6.25735777550169e-17 -4.866703933004919e-17 -6.25735777550169e-17 0.35648825618905705 0.9342998037028196
12667281333.333334 0.36452560066355005 0.9311933668474673 -4.9200289528507427e-17 -6.213545717568455e-17 -4.9200289528507427e-17 -6.213545717568455e-17 0.3645250119272266 0.9311935973143809
12667898666.666666 0.3725352927698461 0.9280180254934322 -4.972960305823726e-17 -6.169279828393401e-17 -4.972960305823726e-17 -6.169279828393401e-17 0.3725347060696897 0.9280182610129024
12668516000.0 0.3805173286137951 0.9247737899748588 -5.025494134856964e-17 -6.124563638888203e-17 -5.025494134856964e-17 -6.124563638888203e-17 0.3805167439931607 0.9247740305289099
12669133333.333334 0.3884711156252801 0.921460901137261 -5.077626614498506e-17 -6.079400712699118e-17 -5.077626614498506e-17 -6.079400712699118e-17 0.3884705331273639 0.9214611467075449
12669750666.666666 0.3963960633314263 0.9180796049227921 -5.129353951191136e-17 -6.033794645922298e-17 -5.129353951191136e-17 -6.033794645922298e-17 0.3963954829992628 0.91807985549059
