! Created with skrf (http://scikit-rf.org).
! Parameters = {f0=10720.8; bw=40; Q=6500; N=10; m_0_1=1.3714995384216309; m_1_1=-0.024921085685491562; m_1_2=1.2164726257324219; m_2_2=-0.02241899073123932; m_2_3=0.7361133694648743; m_2_9=0.01387250330299139; m_3_3=-0.00045364827383309603; m_3_4=0.5863810777664185; m_3_8=-0.07319383323192596; m_4_4=-0.0014784373342990875; m_4_5=0.445568710565567; m_4_7=-0.051361504942178726; m_5_5=-0.00042771067819558084; m_5_6=0.7880311608314514; m_6_6=0.013567434623837471; m_6_7=0.4430153965950012; m_7_7=0.01058165729045868; m_7_8=0.5857329964637756; m_8_8=4.650574555853382e-05; m_8_9=0.7349940538406372; m_9_9=-0.010918848216533661; m_9_10=1.2168797254562378; m_10_10=-0.02050451934337616; m_10_11=1.3714995384216309; a11=0; a22=0; b11=0; b22=0}
# MHz S RI R 50.0 
!freq ReS11 ImS11 ReS21 ImS21 ReS12 ImS12 ReS22 ImS22
10678.0 0.273526215391055 0.919620997617159 -0.0010350478746212 -5.74288525938467e-05 -0.0010350478746212 -5.74288525938467e-05 0.273526215391055 0.919620997617159
10678.086 0.277456708525118 0.918229900069844 -0.00103153235745843 -5.47821649335404e-05 -0.00103153235745843 -5.47821649335404e-05 0.277456708525118 0.918229900069844
10678.172 0.281400173534038 0.916814163870248 -0.0010278116073773 -5.21900705431361e-05 -0.0010278116073773 -5.21900705431361e-05 0.281400173534038 0.916814163870248
10678.258 0.285356587042971 0.915373495176752 -0.00102388123638674 -4.96563614644289e-05 -0.00102388123638674 -4.96563614644289e-05 0.285356587042971 0.915373495176752
10678.344 0.289325923530897 0.913907596521438 -0.0010197367906967 -4.71849668923092e-05 -0.0010197367906967 -4.71849668923092e-05 0.289325923530897 0.913907596521438
10678.43 0.293308155270389 0.912416166764094 -0.00101537375053525 -4.47799573858051e-05 -0.00101537375053525 -4.47799573858051e-05 0.293308155270389 0.912416166764094
10678.516 0.297303252265648 0.910898901045757 -0.0010107875300111 -4.24455491979639e-05 -0.0010107875300111 -4.24455491979639e-05 0.297303252265648 0.910898901045757
10678.602 0.301311182188763 0.909355490741818 -0.00100597347702456 -4.0186108727535e-05 -0.00100597347702456 -4.0186108727535e-05 0.301311182188763 0.909355490741818
10678.688 0.305331910314736 0.907785623414454 -0.0010009268732294 -3.80061570951894e-05 -0.0010009268732294 -3.80061570951894e-05 0.305331910314736 0.907785623414454
10678.774 0.309365399454211 0.906188982764786 -0.000995642934050047 -3.59103748479738e-05 -0.000995642934050047 -3.59103748479738e-05 0.309365399454211 0.906188982764786
10678.86 0.313411609884993 0.904565248584321 -0.000990116808756187 -3.39036067945215e-05 -0.000990116808756187 -3.39036067945215e-05 0.313411609884993 0.904565248584321
10678.946 0.317470499281562 0.902914096705973 -0.000984343580599256 -3.19908669746529e-05 -0.000984343580599256 -3.19908669746529e-05 0.317470499281562 0.902914096705973
10679.032 0.321542022642552 0.901235198954652 -0.000978318267014603 -3.01773437666432e-05 -0.000978318267014603 -3.01773437666432e-05 0.321542022642552 0.901235198954652
10679.118 0.325626132216747 0.899528223097194 -0.000972035819892469 -2.84684051351653e-05 -0.000972035819892469 -2.84684051351653e-05 0.325626132216747 0.899528223097194
10679.204 0.329722777426776 0.897792832791934 -0.000965491125922896 -2.68696040236812e-05 -0.000965491125922896 -2.68696040236812e-05 0.329722777426776 0.897792832791934
10679.29 0.333831904790749 0.896028687537808 -0.000958679007018594 -2.53866838945336e-05 -0.000958679007018594 -2.53866838945336e-05 0.333831904790749 0.896028687537808
10679.376 0.337953457842392 0.894235442622738 -0.000951594220819291 -2.4025584420004e-05 -0.000951594220819291 -2.4025584420004e-05 0.337953457842392 0.894235442622738
10679.462 0.342087377048421 0.892412749071797 -0.000944231461284131 -2.27924473283374e-05 -0.000944231461284131 -2.27924473283374e-05 0.342087377048421 0.892412749071797
10679.548 0.346233599723994 0.890560253594803 -0.000936585359375829 -2.16936224079315e-05 -0.000936585359375829 -2.16936224079315e-05 0.346233599723994 0.890560253594803
10679.634 0.350392059946203 0.8886775985333 -0.000928650483841502 -2.07356736733459e-05 -0.000928650483841502 -2.07356736733459e-05 0.350392059946203 0.8886775985333
10679.72 0.354562688464631 0.886764421807373 -0.000920421342097437 -1.99253856970393e-05 -0.000920421342097437 -1.99253856970393e-05 0.354562688464631 0.886764421807373
10679.806 0.358745412610401 0.884820356861612 -0.000911892381220601 -1.92697701101255e-05 -0.000911892381220601 -1.92697701101255e-05 0.358745412610401 0.884820356861612
10679.892 0.362940156201956 0.88284503261101 -0.000903057989056135 -1.87760722762855e-05 -0.000903057989056135 -1.87760722762855e-05 0.362940156201956 0.88284503261101
10679.978 0.367146839448986 0.880838073386138 -0.000893912495444215 -1.84517781422559e-05 -0.000893912495444215 -1.84517781422559e-05 0.367146839448986 0.880838073386138
10680.064 0.371365378853561 0.878799098877971 -0.000884450173574358 -1.830462126889e-05 -0.000884450173574358 -1.830462126889e-05 0.371365378853561 0.878799098877971
10680.15 0.375595687108537 0.876727724082361 -0.00087466524147393 -1.83425900464954e-05 -0.00087466524147393 -1.83425900464954e-05 0.375595687108537 0.876727724082361
10680.236 0.379837672993428 0.874623559243999 -0.000864551863637246 -1.85739350982898e-05 -0.000864551863637246 -1.85739350982898e-05 0.379837672993428 0.874623559243999
10680.322 0.38409124126746 0.872486209800024 -0.000854104152803255 -1.90071768758028e-05 -0.000854104152803255 -1.90071768758028e-05 0.38409124126746 0.872486209800024
10680.408 0.388356292559756 0.870315276323221 -0.000843316171889403 -1.96511134500856e-05 -0.000843316171889403 -1.96511134500856e-05 0.388356292559756 0.870315276323221
10680.494 0.392632723256687 0.86811035446483 -0.000832181936089704 -2.05148285025254e-05 -0.000832181936089704 -2.05148285025254e-05 0.392632723256687 0.86811035446483
10680.58 0.396920425385941 0.865871034897112 -0.000820695415146223 -2.16076995190917e-05 -0.000820695415146223 -2.16076995190917e-05 0.396920425385941 0.865871034897112
10680.666 0.401219286497992 0.863596903255331 -0.000808850535801006 -2.29394061919449e-05 -0.000808850535801006 -2.29394061919449e-05 0.401219286497992 0.863596903255331
10680.752 0.405529189543685 0.861287540079785 -0.000796641184440843 -2.45199390319067e-05 -0.000796641184440843 -2.45199390319067e-05 0.405529189543685 0.861287540079785
10680.838 0.409850012749425 0.858942520757071 -0.000784061209940216 -2.63596081960182e-05 -0.000784061209940216 -2.63596081960182e-05 0.409850012749425 0.858942520757071
10680.924 0.414181629488068 0.856561415461558 -0.000771104426717582 -2.84690525332851e-05 -0.000771104426717582 -2.84690525332851e-05 0.414181629488068 0.856561415461558
10681.01 0.418523908147313 0.854143789096109 -0.00075776461801011 -3.08592488530236e-05 -0.00075776461801011 -3.08592488530236e-05 0.418523908147313 0.854143789096109
10681.096 0.422876711993706 0.851689201233003 -0.000744035539383115 -3.35415214185904e-05 -0.000744035539383115 -3.35415214185904e-05 0.422876711993706 0.851689201233003
10681.182 0.427239899033377 0.849197206054458 -0.000729910922482028 -3.6527551670594e-05 -0.000729910922482028 -3.6527551670594e-05 0.427239899033377 0.849197206054458
10681.268 0.43161332186934 0.846667352292778 -0.000715384479038981 -3.98293881830747e-05 -0.000715384479038981 -3.98293881830747e-05 0.43161332186934 0.846667352292778
10681.354 0.435996827554139 0.844099183170814 -0.000700449905150041 -4.34594568552218e-05 -0.000700449905150041 -4.34594568552218e-05 0.435996827554139 0.844099183170814
10681.44 0.440390257439264 0.841492236341881 -0.000685100885831216 -4.74305713428473e-05 -0.000685100885831216 -4.74305713428473e-05 0.440390257439264 0.841492236341881
10681.526 0.444793447020207 0.838846043829745 -0.000669331099870007 -5.17559437320363e-05 -0.000669331099870007 -5.17559437320363e-05 0.444793447020207 0.838846043829745
10681.612 0.449206225777152 0.83616013196868 -0.000653134224986453 -5.64491954578643e-05 -0.000653134224986453 -5.64491954578643e-05 0.449206225777152 0.83616013196868
10681.698 0.453628417011714 0.833434021343285 -0.000636503943316425 -6.15243684714456e-05 -0.000636503943316425 -6.15243684714456e-05 0.453628417011714 0.833434021343285
10681.784 0.458059837679121 0.830667226728407 -0.000619433947234214 -6.69959366574751e-05 -0.000619433947234214 -6.69959366574751e-05 0.458059837679121 0.830667226728407
10681.87 0.462500298215485 0.827859257029362 -0.000601917945531475 -7.28788175041387e-05 -0.000601917945531475 -7.28788175041387e-05 0.462500298215485 0.827859257029362
10681.956 0.466949602360915 0.82500961522194 -0.000583949669965626 -7.91883840286521e-05 -0.000583949669965626 -7.91883840286521e-05 0.466949602360915 0.82500961522194
10682.042 0.471407546977458 0.822117798292807 -0.000565522882198583 -8.59404769591122e-05 -0.000565522882198583 -8.59404769591122e-05 0.471407546977458 0.822117798292807
10682.128 0.475873921862506 0.819183297179847 -0.0005466313811407 -9.31514171752949e-05 -0.0005466313811407 -9.31514171752949e-05 0.475873921862506 0.819183297179847
10682.214 0.48034850955625 0.816205596713339 -0.000527269010724079 -0.000100838018407597 -0.000527269010724079 -0.000100838018407597 0.48034850955625 0.816205596713339
10682.3 0.484831085144924 0.813184175556801 -0.00050742966811687 -0.000109017600197936 -0.00050742966811687 -0.000109017600197936 0.484831085144924 0.813184175556801
10682.386 0.489321416057874 0.810118506148733 -0.000487107312406615 -0.000117708001120161 -0.000487107312406615 -0.000117708001120161 0.489321416057874 0.810118506148733
10682.472 0.493819261859685 0.807008054644429 -0.000466295973767794 -0.000126927592262336 -0.000466295973767794 -0.000126927592262336 0.493819261859685 0.807008054644429
10682.558 0.498324374035926 0.803852280858778 -0.00044498976314128 -0.000136695290968096 -0.00044498976314128 -0.000136695290968096 0.498324374035926 0.803852280858778
10682.644 0.502836495773714 0.800650638209201 -0.000423182882442477 -0.000147030574838746 -0.000423182882442477 -0.000147030574838746 0.502836495773714 0.800650638209201
10682.73 0.507355361735619 0.797402573659711 -0.0004008696353279 -0.000157953495991913 -0.0004008696353279 -0.000157953495991913 0.507355361735619 0.797402573659711
10682.816 0.511880697828176 0.794107527665155 -0.000378044438538073 -0.000169484695577893 -0.000378044438538073 -0.000169484695577893 0.511880697828176 0.794107527665155
10682.902 0.516412220962885 0.79076493411713 -0.000354701833851877 -0.000181645418546315 -0.000354701833851877 -0.000181645418546315 0.516412220962885 0.79076493411713
10682.988 0.520949638811836 0.787374220289973 -0.000330836500667529 -0.000194457528665297 -0.000330836500667529 -0.000194457528665297 0.520949638811836 0.787374220289973
10683.074 0.525492649555515 0.783934806788583 -0.000306443269249237 -0.000207943523783143 -0.000306443269249237 -0.000207943523783143 0.525492649555515 0.783934806788583
10683.16 0.53004094162463 0.78044610749667 -0.000281517134657656 -0.00022212655133303 -0.000281517134657656 -0.00022212655133303 0.53004094162463 0.78044610749667
10683.246 0.534594193433982 0.776907529526863 -0.000256053271403392 -0.000237030424069644 -0.000256053271403392 -0.000237030424069644 0.534594193433982 0.776907529526863
10683.332 0.539152073109541 0.773318473171778 -0.000230047048846998 -0.00025267963603496 -0.000230047048846998 -0.00025267963603496 0.539152073109541 0.773318473171778
10683.418 0.543714238207602 0.769678331856846 -0.000203494047382614 -0.00026909937874224 -0.000203494047382614 -0.00026909937874224 0.543714238207602 0.769678331856846
10683.504 0.548280335426347 0.765986492094616 -0.000176390075435077 -0.000286315557571177 -0.000176390075435077 -0.000286315557571177 0.548280335426347 0.765986492094616
10683.59 0.55285000030932 0.762242333440905 -0.000148731187306807 -0.000304354808362693 -0.000148731187306807 -0.000304354808362693 0.55285000030932 0.762242333440905
10683.676 0.55742285694096 0.758445228452579 -0.000120513701907336 -0.000323244514203564 -0.000120513701907336 -0.000323244514203564 0.55742285694096 0.758445228452579
10683.762 0.561998517633053 0.754594542647933 -9.17342224080171e-05 -0.000343012822384167 -9.17342224080171e-05 -0.000343012822384167 0.561998517633053 0.754594542647933
10683.848 0.566576582603088 0.750689634468724 -6.23896568522723e-05 -0.000363688661519873 -6.23896568522723e-05 -0.000363688661519873 0.566576582603088 0.750689634468724
10683.934 0.571156639643417 0.746729855244823 -3.24772397660366e-05 -0.000385301758816657 -3.24772397660366e-05 -0.000385301758816657 0.571156639643417 0.746729855244823
10684.02 0.575738263781013 0.742714549161559 -1.99455480876779e-06 -0.000407882657463107 -1.99455480876779e-06 -0.000407882657463107 0.575738263781013 0.742714549161559
10684.106 0.580321016928238 0.738643053229392 2.90604414976422e-05 -0.000431462734132646 2.90604414976422e-05 -0.000431462734132646 0.580321016928238 0.738643053229392
10684.192 0.584904447523114 0.734514697257166 6.06893949104014e-05 -0.000456074216568201 6.06893949104014e-05 -0.000456074216568201 0.584904447523114 0.734514697257166
10684.278 0.589488090160517 0.730328803827689 9.28935274445595e-05 -0.000481750201234208 9.28935274445595e-05 -0.000481750201234208 0.589488090160517 0.730328803827689
10684.364 0.594071465212098 0.726084688277508 0.000125673610130253 -0.000508524671000308 0.000125673610130253 -0.000508524671000308 0.594071465212098 0.726084688277508
10684.45 0.598654078436295 0.721781658679671 0.000159029934512182 -0.000536432512836944 0.000159029934512182 -0.000536432512836944 0.598654078436295 0.721781658679671
10684.536 0.603235420577114 0.71741901583059 0.000192962282835695 -0.000565509535486612 0.000192962282835695 -0.000565509535486612 0.603235420577114 0.71741901583059
10684.622 0.607814966951876 0.712996053240846 0.000227469896872981 -0.000595792487079988 0.000227469896872981 -0.000595792487079988 0.607814966951876 0.712996053240846
10684.708 0.612392177026928 0.70851205713082 0.000262551445332617 -0.000627319072655728 0.000262551445332617 -0.000627319072655728 0.612392177026928 0.70851205713082
10684.794 0.616966493982272 0.703966306430188 0.000298204989809638 -0.000660127971552941 0.000298204989809638 -0.000660127971552941 0.616966493982272 0.703966306430188
10684.88 0.621537344263334 0.699358072783042 0.000334427949210588 -0.000694258854623313 0.000334427949210588 -0.000694258854623313 0.621537344263334 0.699358072783042
10684.966 0.626104137120489 0.694686620557928 0.000371217062605913 -0.000729752401223144 0.000371217062605913 -0.000729752401223144 0.626104137120489 0.694686620557928
10685.052 0.630666264135578 0.689951206863594 0.000408568350449285 -0.000766650315931506 0.000408568350449285 -0.000766650315931506 0.630666264135578 0.689951206863594
10685.138 0.635223098735004 0.685151081570827 0.000446477074105774 -0.000804995344939883 0.000446477074105774 -0.000804995344939883 0.635223098735004 0.685151081570827
10685.224 0.639773995689834 0.680285487339932 0.000484937693636007 -0.000844831292060897 0.000484937693636007 -0.000844831292060897 0.639773995689834 0.680285487339932
10685.31 0.644318290600737 0.675353659656073 0.000523943823761559 -0.000886203034278066 0.000523943823761559 -0.000886203034278066 0.644318290600737 0.675353659656073
10685.396 0.648855299369668 0.670354826870514 0.00056348818796884 -0.000929156536787302 0.00056348818796884 -0.000929156536787302 0.648855299369668 0.670354826870514
10685.482 0.653384317655934 0.665288210250207 0.000603562570673392 -0.000973738867440516 0.000603562570673392 -0.000973738867440516 0.653384317655934 0.665288210250207
10685.568 0.657904620317428 0.660153024034946 0.000644157767390896 -0.00101999821052227 0.000644157767390896 -0.00101999821052227 0.657904620317428 0.660153024034946
10685.654 0.66241546083579 0.654948475503428 0.000685263532844462 -0.00106798387976739 0.000685263532844462 -0.00106798387976739 0.66241546083579 0.654948475503428
10685.74 0.666916070726187 0.649673765047464 0.000726868526953247 -0.00111774633053967 0.000726868526953247 -0.00111774633053967 0.666916070726187 0.649673765047464
10685.826 0.671405658929724 0.644328086256639 0.000768960258623816 -0.00116933717105807 0.000768960258623816 -0.00116933717105807 0.671405658929724 0.644328086256639
10685.912 0.675883411189363 0.638910626012424 0.000811525027290997 -0.00122280917257983 0.000811525027290997 -0.00122280917257983 0.675883411189363 0.638910626012424
10685.998 0.680348489408186 0.633420564593139 0.000854547862136628 -0.0012782162784209 0.000854547862136628 -0.0012782162784209 0.680348489408186 0.633420564593139
10686.084 0.684800030989969 0.627857075789873 0.000898012458925182 -0.00133561361169897 0.000898012458925182 -0.00133561361169897 0.684800030989969 0.627857075789873
10686.17 0.689237148160982 0.622219327034726 0.000941901114385832 -0.00139505748166359 0.000941901114385832 -0.00139505748166359 0.689237148160982 0.622219327034726
10686.256 0.693658927273146 0.616506479541243 0.000986194658083318 -0.00145660538848429 0.000986194658083318 -0.00145660538848429 0.693658927273146 0.616506479541243
10686.342 0.698064428087477 0.610717688458559 0.00103087238170889 -0.00152031602634262 0.00103087238170889 -0.00152031602634262 0.698064428087477 0.610717688458559
10686.428 0.702452683037959 0.604852103039052 0.00107591196573643 -0.00158624928468106 0.00107591196573643 -0.00158624928468106 0.702452683037959 0.604852103039052
10686.514 0.706822696474724 0.598908866821134 0.00112128940337877 -0.00165446624743476 0.00112128940337877 -0.00165446624743476 0.706822696474724 0.598908866821134
10686.6 0.711173443886157 0.592887117827801 0.00116697892178724 -0.0017250291900689 0.00116697892178724 -0.0017250291900689 0.711173443886157 0.592887117827801
10686.686 0.715503871099516 0.586785988781643 0.00121295290044243 -0.00179800157423604 0.00121295290044243 -0.00179800157423604 0.715503871099516 0.586785988781643
10686.772 0.719812893459705 0.580604607336923 0.00125918178668616 -0.00187344803985454 0.00125918178668616 -0.00187344803985454 0.719812893459705 0.580604607336923
10686.858 0.724099394984759 0.574342096330978 0.00130563400833851 -0.00195143439437926 0.00130563400833851 -0.00195143439437926 0.724099394984759 0.574342096330978
10686.944 0.728362227498637 0.567997574054271 0.00135227588336954 -0.00203202759905618 0.00135227588336954 -0.00203202759905618 0.728362227498637 0.567997574054271
10687.03 0.732600209740048 0.561570154541138 0.0013990715265811 -0.00211529575190753 0.0013990715265811 -0.00211529575190753 0.732600209740048 0.561570154541138
10687.116 0.73681212644657 0.555058947882662 0.00144598275326579 -0.00220130806718582 0.00144598275326579 -0.00220130806718582 0.73681212644657 0.555058947882662
10687.202 0.740996727413938 0.548463060562039 0.00149296897982455 -0.00229013485103343 0.00149296897982455 -0.00229013485103343 0.740996727413938 0.548463060562039
10687.288 0.745152726529867 0.541781595813855 0.0015399871213265 -0.00238184747305705 0.0015399871213265 -0.00238184747305705 0.745152726529867 0.541781595813855
10687.374 0.749278800781232 0.535013654009319 0.00158699148599847 -0.00247651833349884 0.00158699148599847 -0.00247651833349884 0.749278800781232 0.535013654009319
10687.46 0.753373589234604 0.528158333068043 0.00163393366665399 -0.00257422082568956 0.00163393366665399 -0.00257422082568956 0.753373589234604 0.528158333068043
10687.546 0.757435691989454 0.521214728897736 0.00168076242907799 -0.00267502929344069 0.00168076242907799 -0.00267502929344069 0.757435691989454 0.521214728897736
10687.632 0.761463669102709 0.514181935864631 0.0017274235973866 -0.00277901898299183 0.0017274235973866 -0.00277901898299183 0.761463669102709 0.514181935864631
10687.718 0.765456039485148 0.507059047294293 0.00177385993641935 -0.00288626598915569 0.00177385993641935 -0.00288626598915569 0.765456039485148 0.507059047294293
