! Created with skrf 1.9.0 (http://scikit-rf.org).
! Parameters = {f0=10970.5; bw=36.0; Q=6000.0; N=14; FILTER_NAME=14-ORDER-TEST-FILTER; f_start_mhz=10935.0; f_stop_mhz=11006.0; m_0_1=1.0428903102874756; m_1_1=-0.03645411878824234; m_1_2=0.9337330460548401; m_1_14=-0.012053543701767921; m_2_2=-0.005210923962295055; m_2_3=0.6684761047363281; m_2_13=0.0166439451277256; m_3_3=0.02299196645617485; m_3_4=0.6464633941650391; m_3_12=0.02994830347597599; m_4_4=0.017247747629880905; m_4_5=0.6259599924087524; m_4_11=-0.04547819495201111; m_5_5=-0.05865572765469551; m_5_6=0.5777935981750488; m_5_10=-0.17805562913417816; m_6_6=-0.04389406368136406; m_6_7=0.5762721300125122; m_6_9=0.0010745942126959562; m_7_7=0.2061115950345993; m_7_8=0.81285160779953; m_8_8=-0.20430314540863037; m_8_9=0.573036789894104; m_9_9=0.0398489348590374; m_9_10=0.5779686570167542; m_10_10=0.06743087619543076; m_10_11=0.6282432675361633; m_11_11=-0.02161889150738716; m_11_12=0.649034857749939; m_12_12=-0.024006808176636696; m_12_13=0.6668843030929565; m_13_13=0.007835823111236095; m_13_14=0.9345748424530029; m_14_14=0.044636715203523636; m_14_15=1.046877384185791; a11=0; a22=0; b11=0; b22=0}
# Hz S RI R 50.0 
!freq ReS11 ImS11 ReS21 ImS21 ReS12 ImS12 ReS22 ImS22
10916500000.0 -0.7176734209060669 0.6767887473106384 0.001838551601395011 0.0017978361574932933 0.001838552299886942 0.0017978365067392588 -0.6988198757171631 0.6950840353965759
10916554000.0 -0.7170802354812622 0.6773701310157776 0.0018431528005748987 0.001799184363335371 0.0018431530334055424 0.0017991847125813365 -0.6981750726699829 0.6956831216812134
10916608000.0 -0.7164856195449829 0.6779528856277466 0.001847767736762762 0.0018005277961492538 0.001847767853178084 0.0018005277961492538 -0.6975280046463013 0.6962831616401672
10916662000.0 -0.7158889770507812 0.6785363554954529 0.0018523945473134518 0.0018018654081970453 0.0018523947801440954 0.0018018657574430108 -0.6968789100646973 0.6968838572502136
10916716000.0 -0.7152904272079468 0.679120659828186 0.0018570356769487262 0.0018031992949545383 0.0018570356769487262 0.001803199527785182 -0.6962276697158813 0.6974853873252869
10916770000.0 -0.7146898508071899 0.6797057390213013 0.001861688564531505 0.0018045272445306182 0.0018616887973621488 0.00180452736094594 -0.6955744028091431 0.6980878114700317
10916824000.0 -0.7140874862670898 0.6802916526794434 0.0018663544906303287 0.0018058500718325377 0.0018663547234609723 0.0018058503046631813 -0.6949188709259033 0.6986908912658691
10916878000.0 -0.7134833335876465 0.6808785200119019 0.0018710354343056679 0.0018071695230901241 0.0018710355507209897 0.0018071697559207678 -0.6942611932754517 0.6992948055267334
10916932000.0 -0.7128767967224121 0.6814661026000977 0.0018757276702672243 0.0018084818730130792 0.0018757276702672243 0.001808481989428401 -0.6936013698577881 0.6998995542526245
10916986000.0 -0.712268590927124 0.6820544004440308 0.0018804334104061127 0.001809789682738483 0.0018804334104061127 0.001809789682738483 -0.6929395198822021 0.7005051970481873
10917040000.0 -0.7116584777832031 0.6826437711715698 0.0018851524218916893 0.0018110920209437609 0.0018851521890610456 0.0018110917881131172 -0.6922754049301147 0.7011116147041321
10917094000.0 -0.7110460996627808 0.6832337379455566 0.0018898849375545979 0.0018123891204595566 0.0018898847047239542 0.001812388887628913 -0.6916091442108154 0.7017189264297485
10917148000.0 -0.7104320526123047 0.6838246583938599 0.0018946301424875855 0.0018136807484552264 0.0018946300260722637 0.0018136806320399046 -0.6909407377243042 0.7023268938064575
10917202000.0 -0.7098158597946167 0.6844164729118347 0.0018993895500898361 0.001814967137761414 0.0018993894336745143 0.0018149669049307704 -0.690269947052002 0.7029358148574829
10917256000.0 -0.7091976404190063 0.6850087642669678 0.0019041604828089476 0.0018162473570555449 0.0019041604828089476 0.0018162473570555449 -0.6895972490310669 0.7035453915596008
10917310000.0 -0.7085772752761841 0.6856021881103516 0.0019089459674432874 0.0018175222212448716 0.0019089452689513564 0.0018175214063376188 -0.6889220476150513 0.7041558623313904
10917364000.0 -0.7079552412033081 0.686196506023407 0.00191374437417835 0.001818791264668107 0.0019137444905936718 0.0018187913810834289 -0.6882449388504028 0.7047672271728516
10917418000.0 -0.7073309421539307 0.6867914199829102 0.0019185562850907445 0.0018200548365712166 0.0019185562850907445 0.001820054603740573 -0.6875653266906738 0.70537930727005
10917472000.0 -0.7067044973373413 0.6873872876167297 0.0019233811181038618 0.0018213118892163038 0.0019233808852732182 0.0018213115399703383 -0.6868834495544434 0.7059921622276306
10917526000.0 -0.7060761451721191 0.687984049320221 0.0019282195717096329 0.0018225632375106215 0.0019282196881249547 0.0018225633539259434 -0.6861993074417114 0.706605851650238
10917580000.0 -0.7054457664489746 0.688581645488739 0.0019330719951540232 0.0018238091142848134 0.0019330718787387013 0.0018238091142848134 -0.6855131387710571 0.7072204351425171
10917634000.0 -0.7048135995864868 0.6891800761222839 0.0019379379227757454 0.0018250494031235576 0.0019379378063604236 0.0018250492867082357 -0.6848245859146118 0.7078357338905334
10917688000.0 -0.7041789293289185 0.6897793412208557 0.0019428168889135122 0.0018262824742123485 0.001942817005328834 0.0018262827070429921 -0.6841335296630859 0.7084518671035767
10917742000.0 -0.7035422325134277 0.69037926197052 0.0019477084279060364 0.001827509724535048 0.0019477083114907146 0.001827509724535048 -0.6834402084350586 0.7090685963630676
10917796000.0 -0.7029035091400146 0.690980076789856 0.0019526147516444325 0.0018287310376763344 0.001952614402398467 0.0018287308048456907 -0.6827447414398193 0.7096865177154541
10917850000.0 -0.7022627592086792 0.6915818452835083 0.001957533648237586 0.001829945482313633 0.0019575338810682297 0.0018299455987289548 -0.6820468902587891 0.7103050351142883
10917904000.0 -0.7016198635101318 0.6921842694282532 0.001962466863915324 0.0018311544554308057 0.001962466863915324 0.0018311541061848402 -0.6813467741012573 0.7109243273735046
10917958000.0 -0.7009748220443726 0.692787766456604 0.0019674135837703943 0.0018323562107980251 0.0019674135837703943 0.0018323559779673815 -0.680644154548645 0.7115445733070374
10918012000.0 -0.7003275156021118 0.6933919191360474 0.0019723731093108654 0.001833550981245935 0.0019723728764802217 0.0018335508648306131 -0.6799395084381104 0.7121655941009521
10918066000.0 -0.6996781826019287 0.6939969658851624 0.001977346371859312 0.0018347393488511443 0.001977346371859312 0.0018347394652664661 -0.6792323589324951 0.712787389755249
10918120000.0 -0.6990265846252441 0.6946027874946594 0.001982333604246378 0.0018359213136136532 0.001982333604246378 0.001835921430028975 -0.6785227060317993 0.7134100198745728
10918174000.0 -0.6983730792999268 0.6952096819877625 0.0019873352721333504 0.0018370969919487834 0.0019873352721333504 0.0018370968755334616 -0.6778106689453125 0.7140334844589233
10918228000.0 -0.6977173089981079 0.695817232131958 0.0019923497457057238 0.0018382653361186385 0.0019923497457057238 0.0018382653361186385 -0.6770963668823242 0.714657723903656
10918282000.0 -0.6970593929290771 0.6964256167411804 0.00199737842194736 0.0018394271610304713 0.001997377723455429 0.0018394265789538622 -0.6763795614242554 0.7152827978134155
10918336000.0 -0.6963989734649658 0.6970347762107849 0.002002420136705041 0.0018405814189463854 0.0020024196710437536 0.00184058106970042 -0.6756604909896851 0.7159087061882019
10918390000.0 -0.6957368850708008 0.6976451277732849 0.0020074755884706974 0.0018417281098663807 0.0020074753556400537 0.0018417279934510589 -0.6749386787414551 0.7165352702140808
10918444000.0 -0.6950721740722656 0.6982558369636536 0.0020125447772443295 0.0018428686307743192 0.0020125447772443295 0.0018428686307743192 -0.6742147207260132 0.7171628475189209
10918498000.0 -0.6944053173065186 0.6988676190376282 0.002017627703025937 0.0018440010026097298 0.0020176279358565807 0.0018440013518556952 -0.6734881401062012 0.7177910804748535
10918552000.0 -0.6937364339828491 0.6994802951812744 0.0020227248314768076 0.001845126855187118 0.0020227248314768076 0.0018451269716024399 -0.6727590560913086 0.718420147895813
10918606000.0 -0.6930651664733887 0.7000938653945923 0.0020278349984437227 0.0018462447915226221 0.0020278349984437227 0.0018462447915226221 -0.672027587890625 0.7190499305725098
10918660000.0 -0.6923916339874268 0.7007081508636475 0.0020329593680799007 0.001847355393692851 0.0020329593680799007 0.001847355393692851 -0.6712936162948608 0.719680666923523
10918714000.0 -0.6917158365249634 0.7013232111930847 0.002038097707554698 0.0018484583124518394 0.002038097707554698 0.0018484584288671613 -0.6705572605133057 0.720312237739563
10918768000.0 -0.6910377740859985 0.7019391655921936 0.002043249784037471 0.0018495538970455527 0.002043249784037471 0.001849553780630231 -0.6698182821273804 0.7209445238113403
10918822000.0 -0.6903572082519531 0.7025558948516846 0.002048415131866932 0.0018506410997360945 0.0020484155975282192 0.0018506417982280254 -0.6690770387649536 0.7215776443481445
10918876000.0 -0.689674973487854 0.7031739950180054 0.002053595846518874 0.0018517212010920048 0.002053595846518874 0.001851721666753292 -0.6683331727981567 0.7222115993499756
10918930000.0 -0.6889897584915161 0.703792154788971 0.0020587886683642864 0.0018527930369600654 0.0020587891340255737 0.001852793269790709 -0.6675864458084106 0.7228463888168335
10918984000.0 -0.6883026361465454 0.7044115662574768 0.002063996158540249 0.0018538569565862417 0.002063996158540249 0.0018538569565862417 -0.6668373346328735 0.7234818935394287
10919038000.0 -0.6876130104064941 0.7050318717956543 0.002069218549877405 0.0018549129599705338 0.002069218782708049 0.0018549129599705338 -0.6660858392715454 0.7241184711456299
10919092000.0 -0.686921238899231 0.7056530117988586 0.0020744537468999624 0.0018559605814516544 0.002074453979730606 0.001855960814282298 -0.6653317213058472 0.724755585193634
10919146000.0 -0.6862268447875977 0.7062748074531555 0.0020797019824385643 0.0018569993553683162 0.0020797024480998516 0.001856999471783638 -0.6645748615264893 0.7253934741020203
10919200000.0 -0.6855301856994629 0.706897497177124 0.0020849662832915783 0.001858031377196312 0.002084965817630291 0.0018580309115350246 -0.6638154983520508 0.7260323166847229
10919254000.0 -0.6848310232162476 0.7075210213661194 0.002090243622660637 0.0018590539693832397 0.002090243622660637 0.001859053852967918 -0.6630533933639526 0.7266718745231628
10919308000.0 -0.6841299533843994 0.7081455588340759 0.00209553400054574 0.0018600675975903869 0.00209553400054574 0.0018600677140057087 -0.6622886657714844 0.7273120880126953
10919362000.0 -0.6834262609481812 0.7087708711624146 0.002100839512422681 0.0018610734259709716 0.002100839279592037 0.001861073193140328 -0.6615214347839355 0.7279532551765442
10919416000.0 -0.6827200651168823 0.7093968391418457 0.00210615829564631 0.0018620699411258101 0.00210615829564631 0.001862070057541132 -0.6607515811920166 0.7285953164100647
10919470000.0 -0.6820112466812134 0.7100237011909485 0.0021114908158779144 0.0018630577251315117 0.0021114905830472708 0.0018630573758855462 -0.659978985786438 0.7292380332946777
10919524000.0 -0.6813006401062012 0.710651695728302 0.0021168384701013565 0.0018640370108187199 0.002116838237270713 0.0018640371272340417 -0.6592037677764893 0.7298815846443176
10919578000.0 -0.6805872917175293 0.7112804055213928 0.002122199162840843 0.0018650069832801819 0.002122199395671487 0.0018650070996955037 -0.6584259271621704 0.7305259704589844
10919632000.0 -0.6798713207244873 0.7119100093841553 0.0021275747567415237 0.0018659678753465414 0.002127575222402811 0.0018659682245925069 -0.6576453447341919 0.7311712503433228
10919686000.0 -0.6791529655456543 0.712540328502655 0.002132964786142111 0.0018669205019250512 0.002132964553311467 0.0018669203855097294 -0.6568619012832642 0.7318172454833984
10919740000.0 -0.6784322261810303 0.7131714820861816 0.002138367621228099 0.0018678627675399184 0.002138367388397455 0.0018678627675399184 -0.6560758352279663 0.7324640154838562
10919794000.0 -0.6777089834213257 0.7138033509254456 0.002143784426152706 0.0018687958363443613 0.002143784426152706 0.001868796069175005 -0.6552871465682983 0.7331116199493408
10919848000.0 -0.6769833564758301 0.7144364714622498 0.0021492168307304382 0.0018697199411690235 0.0021492165978997946 0.0018697197083383799 -0.6544955968856812 0.7337601184844971
10919902000.0 -0.6762552261352539 0.7150701880455017 0.0021546620409935713 0.001870634383521974 0.0021546620409935713 0.001870634383521974 -0.6537013053894043 0.7344092130661011
10919956000.0 -0.6755245923995972 0.7157047986984253 0.0021601212210953236 0.0018715385813266039 0.0021601212210953236 0.0018715383484959602 -0.6529042720794678 0.7350592017173767
10920010000.0 -0.6747912168502808 0.7163402438163757 0.0021655946038663387 0.0018724332330748439 0.0021655946038663387 0.0018724333494901657 -0.6521042585372925 0.7357097864151001
10920064000.0 -0.6740552186965942 0.7169763445854187 0.002171081956475973 0.0018733181059360504 0.0021710817236453295 0.0018733182223513722 -0.6513015031814575 0.7363612651824951
10920118000.0 -0.6733168363571167 0.7176132798194885 0.002176583046093583 0.0018741929670795798 0.0021765832789242268 0.0018741930834949017 -0.6504961252212524 0.7370136380195618
10920172000.0 -0.6725760698318481 0.7182514071464539 0.002182099036872387 0.0018750575836747885 0.002182099036872387 0.0018750577000901103 -0.6496877670288086 0.7376667857170105
10920226000.0 -0.6718326807022095 0.7188903093338013 0.0021876292303204536 0.0018759125377982855 0.0021876294631510973 0.0018759126542136073 -0.6488767862319946 0.7383207678794861
10920280000.0 -0.6710864305496216 0.7195298671722412 0.002193173160776496 0.001876757014542818 0.0021931733936071396 0.001876757014542818 -0.6480625867843628 0.738975465297699
10920334000.0 -0.6703377962112427 0.7201703190803528 0.002198730828240514 0.0018775908974930644 0.002198731293901801 0.0018775912467390299 -0.6472458839416504 0.7396310567855835
10920388000.0 -0.6695866584777832 0.7208118438720703 0.0022043040953576565 0.001878415234386921 0.0022043040953576565 0.001878415117971599 -0.6464259624481201 0.7402872443199158
10920442000.0 -0.6688326597213745 0.7214539051055908 0.0022098899353295565 0.0018792279297485948 0.0022098899353295565 0.0018792279297485948 -0.6456034183502197 0.7409443259239197
10920496000.0 -0.6680761575698853 0.7220970392227173 0.0022154906764626503 0.001880030264146626 0.0022154904436320066 0.0018800304969772696 -0.6447778940200806 0.7416021823883057
10920550000.0 -0.6673169136047363 0.722740888595581 0.0022211051546037197 0.0018808217719197273 0.0022211051546037197 0.0018808221211656928 -0.6439495086669922 0.7422608733177185
10920604000.0 -0.6665551662445068 0.7233855724334717 0.002226733136922121 0.0018816025694832206 0.0022267329040914774 0.0018816025694832206 -0.643118143081665 0.7429202198982239
10920658000.0 -0.6657906770706177 0.7240312099456787 0.00223237625323236 0.0018823720747604966 0.00223237625323236 0.0018823723075911403 -0.6422836780548096 0.7435805201530457
10920712000.0 -0.6650235652923584 0.7246776819229126 0.0022380324080586433 0.001883130520582199 0.0022380324080586433 0.0018831304041668773 -0.6414462327957153 0.7442412972450256
10920766000.0 -0.664253830909729 0.7253250479698181 0.0022437036968767643 0.001883877906948328 0.0022437036968767643 0.001883877906948328 -0.6406060457229614 0.7449030876159668
10920820000.0 -0.6634809970855713 0.7259728312492371 0.00224938802421093 0.0018846136517822742 0.00224938802421093 0.001884613768197596 -0.6397626399993896 0.7455655336380005
10920874000.0 -0.662705659866333 0.726621687412262 0.0022550865542143583 0.0018853378714993596 0.002255086787045002 0.0018853379879146814 -0.6389163732528687 0.7462289333343506
10920928000.0 -0.6619278192520142 0.7272717356681824 0.002260800451040268 0.0018860510317608714 0.0022608006838709116 0.001886051264591515 -0.6380670070648193 0.7468929886817932
10920982000.0 -0.6611469984054565 0.7279223799705505 0.002266527386382222 0.0018867520848289132 0.0022665271535515785 0.0018867518519982696 -0.6372146606445312 0.7475578188896179
10921036000.0 -0.6603631973266602 0.7285735011100769 0.0022722682915627956 0.0018874416127800941 0.0022722685243934393 0.0018874418456107378 -0.6363593339920044 0.7482235431671143
10921090000.0 -0.6595770120620728 0.7292258143424988 0.0022780229337513447 0.001888119033537805 0.0022780229337513447 0.001888119033537805 -0.6355007886886597 0.7488898038864136
10921144000.0 -0.6587878465652466 0.7298789620399475 0.0022837924771010876 0.0018887845799326897 0.0022837927099317312 0.0018887845799326897 -0.6346393823623657 0.7495570778846741
10921198000.0 -0.6579958200454712 0.7305328845977783 0.0022895752917975187 0.001889437553472817 0.0022895752917975187 0.001889437553472817 -0.6337746381759644 0.7502248883247375
10921252000.0 -0.6572010517120361 0.731187641620636 0.0022953723091632128 0.001890078536234796 0.0022953725419938564 0.0018900787690654397 -0.6329069137573242 0.7508935928344727
10921306000.0 -0.6564033031463623 0.7318432331085205 0.0023011837620288134 0.0018907069461420178 0.0023011837620288134 0.0018907071789726615 -0.6320360898971558 0.7515631318092346
10921360000.0 -0.6556030511856079 0.7324997186660767 0.0023070082534104586 0.0018913228996098042 0.0023070084862411022 0.0018913228996098042 -0.6311619281768799 0.7522332072257996
10921414000.0 -0.6548000574111938 0.7331573367118835 0.002312848111614585 0.0018919265130534768 0.002312848111614585 0.0018919261638075113 -0.6302846670150757 0.7529041767120361
10921468000.0 -0.6539937257766724 0.7338151335716248 0.0023187007755041122 0.0018925173208117485 0.002318701008334756 0.0018925173208117485 -0.6294044256210327 0.7535759210586548
10921522000.0 -0.6531847715377808 0.7344743013381958 0.0023245681077241898 0.00189309474080801 0.0023245683405548334 0.0018930949736386538 -0.6285208463668823 0.7542484402656555
10921576000.0 -0.6523727178573608 0.7351340055465698 0.002330448478460312 0.0018936593551188707 0.0023304487112909555 0.0018936597043648362 -0.6276341676712036 0.7549214959144592
10921630000.0 -0.6515576839447021 0.7357944846153259 0.002336343517526984 0.0018942111637443304 0.002336343051865697 0.001894210698083043 -0.6267441511154175 0.7555955648422241
10921684000.0 -0.6507400274276733 0.7364561557769775 0.002342251827940345 0.0018947490025311708 0.002342251827940345 0.0018947490025311708 -0.625851035118103 0.7562702894210815
10921738000.0 -0.6499193906784058 0.7371185421943665 0.0023481748066842556 0.001895274268463254 0.002348175272345543 0.0018952747341245413 -0.6249547004699707 0.756945788860321
10921792000.0 -0.6490957736968994 0.7377816438674927 0.0023541105911135674 0.0018957852153107524 0.0023541105911135674 0.001895785448141396 -0.6240549087524414 0.7576219439506531
10921846000.0 -0.6482689380645752 0.7384454607963562 0.0023600603453814983 0.0018962826579809189 0.002360060578212142 0.0018962827743962407 -0.6231518983840942 0.758298933506012
10921900000.0 -0.6474394798278809 0.7391102910041809 0.002366024535149336 0.001896766945719719 0.002366024302318692 0.001896766829304397 -0.6222457885742188 0.7589766979217529
10921954000.0 -0.6466069221496582 0.7397758960723877 0.0023720026947557926 0.0018972376128658652 0.00237200316041708 0.0018972378456965089 -0.6213359832763672 0.7596549391746521
10922008000.0 -0.6457710266113281 0.7404422760009766 0.002377994591370225 0.0018976937280967832 0.002377994591370225 0.0018976937280967832 -0.6204229593276978 0.7603341937065125
10922062000.0 -0.6449323892593384 0.7411094307899475 0.0023839997593313456 0.0018981354078277946 0.0023839992936700583 0.001898135058581829 -0.6195067167282104 0.7610141038894653
10922116000.0 -0.6440905332565308 0.7417774200439453 0.0023900175001472235 0.0018985624192282557 0.00239001726731658 0.0018985624192282557 -0.6185871362686157 0.761694610118866
