#  HZ   S   RI   R     50.00 
! Rohde & Schwarz ZVA50 2Ports - Version 3.70 - 1145.1110k50 SN: 100192
! Date: 2025-08-07 12:42:33
! Measurements: S11 S21 S12 S22 
! 
 1.134400000000000E10   -6.686692833900452E-1   7.191808819770813E-1   2.641084574861452E-5   2.120467433996964E-5   2.304279405507259E-5   1.990793680306524E-5  -6.409983038902283E-1   7.289144396781921E-1  
 1.134440000000000E10   -6.674683690071106E-1   7.204223871231079E-1   2.533551196393091E-5   2.238924935227260E-5   2.547723306633998E-5   2.112649053742643E-5  -6.397765278816223E-1   7.299411296844482E-1  
 1.134480000000000E10   -6.661980152130127E-1   7.215098142623901E-1   2.428861444059294E-5   2.046411100309342E-5   2.537240652600303E-5   2.095456511597149E-5  -6.386473178863525E-1   7.309986352920532E-1  
 1.134520000000000E10   -6.649203300476074E-1   7.225860953330994E-1   2.523669172660448E-5   2.096300886478275E-5   2.492010389687493E-5   1.933319617819507E-5  -6.374331712722778E-1   7.320728302001953E-1  
 1.134560000000000E10   -6.636932492256165E-1   7.238286733627319E-1   2.458011294947937E-5   1.951007470779587E-5   2.609169678180479E-5   2.010080970649142E-5  -6.362829804420471E-1   7.330451607704163E-1  
 1.134600000000000E10   -6.625059247016907E-1   7.249766588211060E-1   2.459010283928365E-5   1.918157067848370E-5   2.590084477560595E-5   1.918519774335437E-5  -6.350633502006531E-1   7.340615987777710E-1  
 1.134640000000000E10   -6.611672639846802E-1   7.260984182357788E-1   2.561300607339945E-5   1.958597385964822E-5   2.560295615694486E-5   1.936422995640896E-5  -6.338589787483215E-1   7.350643277168274E-1  
 1.134680000000000E10   -6.599165201187134E-1   7.272732257843018E-1   2.610076990094967E-5   2.072203824354801E-5   2.566680268500932E-5   2.030526229646057E-5  -6.326403617858887E-1   7.361729741096497E-1  
 1.134720000000000E10   -6.593582034111023E-1   7.285181283950806E-1   2.519682857382577E-5   2.320644125575200E-5   2.630017297633458E-5   1.858133327914402E-5  -6.314380168914795E-1   7.371270060539246E-1  
 1.134760000000000E10   -6.581497788429260E-1   7.296365499496460E-1   2.445575228193775E-5   2.050605144177098E-5   2.531668906158302E-5   2.059628423012327E-5  -6.302998065948486E-1   7.382189631462097E-1  
 1.134800000000000E10   -6.568850874900818E-1   7.310012578964233E-1   2.478872556821443E-5   2.207299985457212E-5   2.672888513188809E-5   2.148204475815874E-5  -6.294807195663452E-1   7.393652200698853E-1  
 1.134840000000000E10   -6.555675268173218E-1   7.321854829788208E-1   2.537704676797148E-5   2.139982461812906E-5   2.616401252453215E-5   2.099099583574571E-5  -6.282693147659302E-1   7.403894662857056E-1  
 1.134880000000000E10   -6.542484760284424E-1   7.333579659461975E-1   2.593069984868635E-5   2.058490827039350E-5   2.516789572837297E-5   1.934587635332719E-5  -6.269807815551758E-1   7.414264082908630E-1  
 1.134920000000000E10   -6.530254483222961E-1   7.345616817474365E-1   2.637627221702132E-5   2.173993198084645E-5   2.586220580269583E-5   2.161088377761189E-5  -6.258136034011841E-1   7.424625158309937E-1  
 1.134960000000000E10   -6.516875624656677E-1   7.356416583061218E-1   2.661849612195510E-5   2.212016806879547E-5   2.808496537909377E-5   2.106575266225264E-5  -6.245930194854736E-1   7.435365319252014E-1  
 1.135000000000000E10   -6.504167914390564E-1   7.367535233497620E-1   2.644420237629674E-5   2.107364889525343E-5   2.740406853263266E-5   2.181682793889195E-5  -6.233145594596863E-1   7.445511817932129E-1  
 1.135040000000000E10   -6.491256952285767E-1   7.379488348960877E-1   2.803818642860279E-5   2.055253389698919E-5   2.695196963031776E-5   2.177117494284175E-5  -6.220419406890869E-1   7.455946207046509E-1  
 1.135080000000000E10   -6.478565335273743E-1   7.390745878219605E-1   2.845294147846289E-5   2.041123661911115E-5   2.809298348438460E-5   1.940367656061426E-5  -6.208289265632629E-1   7.466525435447693E-1  
 1.135120000000000E10   -6.464607715606690E-1   7.402521967887878E-1   2.616688470880035E-5   2.254074570373632E-5   3.011333319591358E-5   1.954317303898279E-5  -6.196271777153015E-1   7.477107048034668E-1  
 1.135160000000000E10   -6.451680660247803E-1   7.413861751556397E-1   2.909670547524001E-5   2.086000858980697E-5   2.799183312163223E-5   1.944792893482372E-5  -6.183540225028992E-1   7.487166523933411E-1  
 1.135200000000000E10   -6.438843011856079E-1   7.425152659416199E-1   2.656382639543153E-5   1.987056566576939E-5   2.900759318436030E-5   2.105747807945591E-5  -6.170972585678101E-1   7.497611641883850E-1  
 1.135240000000000E10   -6.425466537475586E-1   7.436940073966980E-1   2.895758370868862E-5   2.079146906908136E-5   2.883548040699679E-5   2.213363768532872E-5  -6.158009171485901E-1   7.507786750793457E-1  
 1.135280000000000E10   -6.412400603294373E-1   7.448076605796814E-1   2.819876863213722E-5   2.246277108497452E-5   2.799620961013716E-5   2.190252962464001E-5  -6.144968271255493E-1   7.518305778503418E-1  
 1.135320000000000E10   -6.399775147438049E-1   7.459928989410400E-1   2.675770338100847E-5   2.181263334932737E-5   2.879329440474976E-5   2.057274286926258E-5  -6.133610606193543E-1   7.528386116027832E-1  
 1.135360000000000E10   -6.385607123374939E-1   7.471749186515808E-1   2.741524986049626E-5   2.157161179638933E-5   2.859001688193530E-5   2.111690810124856E-5  -6.120443940162659E-1   7.538565993309021E-1  
 1.135400000000000E10   -6.372724771499634E-1   7.482842803001404E-1   2.950529778900091E-5   2.131684050254989E-5   2.757716356427409E-5   2.135802242264617E-5  -6.107866168022156E-1   7.548716068267822E-1  
 1.135440000000000E10   -6.359410881996155E-1   7.494274973869324E-1   2.737425165832974E-5   2.179825423809234E-5   2.897875674534589E-5   2.085289816022851E-5  -6.095097064971924E-1   7.559934258460999E-1  
 1.135480000000000E10   -6.346160173416138E-1   7.506049871444702E-1   2.734321969910525E-5   2.289901749463752E-5   2.956684875243809E-5   2.075919655908365E-5  -6.082197427749634E-1   7.569863796234131E-1  
 1.135520000000000E10   -6.332334280014038E-1   7.517367601394653E-1   2.930956179625355E-5   2.121389843523502E-5   2.974236667796504E-5   2.267054333060514E-5  -6.068904399871826E-1   7.580410242080689E-1  
 1.135560000000000E10   -6.318338513374329E-1   7.529671788215637E-1   2.846023016900290E-5   2.181006129831076E-5   3.076651410083287E-5   2.206939643656369E-5  -6.055436134338379E-1   7.591097354888916E-1  
 1.135600000000000E10   -6.304980516433716E-1   7.539795041084290E-1   2.861799657694064E-5   2.095504351018462E-5   2.966467764053959E-5   2.154657886421774E-5  -6.043367385864258E-1   7.600874304771423E-1  
 1.135640000000000E10   -6.291524767875671E-1   7.551624178886414E-1   3.068359728786163E-5   2.145945836673491E-5   2.793013663904276E-5   2.119853343174327E-5  -6.030378937721252E-1   7.611581087112427E-1  
 1.135680000000000E10   -6.277394890785217E-1   7.563163042068481E-1   2.822260830726009E-5   2.364261126786005E-5   2.933275936811697E-5   2.108075568685308E-5  -6.017388701438904E-1   7.621557116508484E-1  
 1.135720000000000E10   -6.263409256935120E-1   7.574577331542969E-1   2.795638101815712E-5   2.247575685032643E-5   3.046686106245033E-5   2.161646625609137E-5  -6.004032492637634E-1   7.631930708885193E-1  
 1.135760000000000E10   -6.249822378158569E-1   7.586525082588196E-1   2.990185930684675E-5   2.192902684328146E-5   2.982058504130691E-5   2.408247928542551E-5  -5.991355776786804E-1   7.641934752464294E-1  
 1.135800000000000E10   -6.235731244087219E-1   7.597799897193909E-1   2.997476076416206E-5   2.246686381113250E-5   2.869598938559648E-5   2.105123348883353E-5  -5.977697372436523E-1   7.652873396873474E-1  
 1.135840000000000E10   -6.222133636474609E-1   7.609225511550903E-1   3.050661143788602E-5   2.114167000399903E-5   3.142568311886862E-5   2.362873055972159E-5  -5.964987277984619E-1   7.662902474403381E-1  
 1.135880000000000E10   -6.208132505416870E-1   7.620902061462402E-1   3.132541678496637E-5   2.105021303577814E-5   3.081158138229512E-5   1.915364919113927E-5  -5.951276421546936E-1   7.673782110214233E-1  
 1.135920000000000E10   -6.194104552268982E-1   7.632274031639099E-1   3.040898263861891E-5   2.161435077141505E-5   3.109141107415780E-5   2.290280281158630E-5  -5.938217043876648E-1   7.683425545692444E-1  
 1.135960000000000E10   -6.179862618446350E-1   7.643973827362061E-1   2.875494828913361E-5   2.057871643046383E-5   3.026878403034061E-5   2.143913479812909E-5  -5.925036668777466E-1   7.694140076637268E-1  
 1.136000000000000E10   -6.166071891784668E-1   7.655208706855774E-1   3.157571336487308E-5   1.990160490095150E-5   2.969994784507435E-5   2.205749842687510E-5  -5.911121368408203E-1   7.703920006752014E-1  
 1.136040000000000E10   -6.151818037033081E-1   7.666752934455872E-1   3.059344453504309E-5   2.415880408079829E-5   3.121159898000769E-5   2.177168062189594E-5  -5.897677540779114E-1   7.714035511016846E-1  
 1.136080000000000E10   -6.137530803680420E-1   7.678265571594238E-1   3.228167406632565E-5   2.217179826402571E-5   3.008760904776864E-5   2.293418583576568E-5  -5.884308815002441E-1   7.724391818046570E-1  
 1.136120000000000E10   -6.123150587081909E-1   7.689281105995178E-1   3.287878280389123E-5   2.232552469649818E-5   3.073622792726383E-5   2.294177647854667E-5  -5.871127247810364E-1   7.735281586647034E-1  
 1.136160000000000E10   -6.109215617179871E-1   7.701230049133301E-1   3.303087214590050E-5   2.197528010583483E-5   3.191104769939557E-5   2.210630191257224E-5  -5.856932997703552E-1   7.745418548583984E-1  
 1.136200000000000E10   -6.094971299171448E-1   7.712469100952148E-1   3.328774619149044E-5   2.210156526416540E-5   3.295460192020983E-5   2.258087442896795E-5  -5.844169259071350E-1   7.756137847900391E-1  
 1.136240000000000E10   -6.079961061477661E-1   7.724196910858154E-1   3.141781780868769E-5   2.151668923033867E-5   3.315606591058895E-5   2.249000135634560E-5  -5.830237269401550E-1   7.765976190567017E-1  
 1.136280000000000E10   -6.065544486045837E-1   7.735802531242371E-1   3.269590160925873E-5   2.230491372756660E-5   3.229083449696191E-5   2.279520413139835E-5  -5.816370248794556E-1   7.777088284492493E-1  
 1.136320000000000E10   -6.051433086395264E-1   7.746795415878296E-1   3.480890518403612E-5   2.098989898513537E-5   3.279154043411836E-5   2.191793100791983E-5  -5.802392363548279E-1   7.786845564842224E-1  
 1.136360000000000E10   -6.036726236343384E-1   7.758517861366272E-1   3.239568468416110E-5   2.204515840276144E-5   3.306613143649884E-5   2.379158650001045E-5  -5.789126753807068E-1   7.797133326530457E-1  
 1.136400000000000E10   -6.021323204040527E-1   7.770147919654846E-1   3.260795710957609E-5   2.257371488667559E-5   3.323621058370918E-5   2.275796032336075E-5  -5.775330066680908E-1   7.807685732841492E-1  
 1.136440000000000E10   -6.006696820259094E-1   7.781535983085632E-1   3.275081326137297E-5   2.396744821453467E-5   3.369260957697406E-5   2.304128975083586E-5  -5.761517882347107E-1   7.817788124084473E-1  
 1.136480000000000E10   -5.992700457572937E-1   7.792369127273560E-1   3.286822902737185E-5   2.201471215812489E-5   3.415017636143602E-5   2.201901588705368E-5  -5.748347640037537E-1   7.828288078308106E-1  
 1.136520000000000E10   -5.977630615234375E-1   7.804019451141357E-1   3.468334034550935E-5   2.200816561526153E-5   3.414446837268770E-5   2.423422665742692E-5  -5.733748078346252E-1   7.838523983955383E-1  
 1.136560000000000E10   -5.962815284729004E-1   7.815241217613220E-1   3.337040106998757E-5   2.316630707355216E-5   3.292373730801046E-5   2.191424391639885E-5  -5.720100998878479E-1   7.848987579345703E-1  
 1.136600000000000E10   -5.948277711868286E-1   7.826470732688904E-1   3.426873445278034E-5   2.216053690062836E-5   3.223340536351316E-5   2.144952304661274E-5  -5.705737471580505E-1   7.859027385711670E-1  
 1.136640000000000E10   -5.933203101158142E-1   7.837917804718018E-1   3.289347660029307E-5   2.379610305069946E-5   3.431319055380300E-5   2.355744436499663E-5  -5.691683888435364E-1   7.869439125061035E-1  
 1.136680000000000E10   -5.918022990226746E-1   7.849401235580444E-1   3.593530345824547E-5   2.402998143224977E-5   3.386064781807363E-5   2.176074121962301E-5  -5.677362084388733E-1   7.880080938339233E-1  
 1.136720000000000E10   -5.902929902076721E-1   7.860768437385559E-1   3.462784297880717E-5   2.542221409385093E-5   3.491065581329167E-5   2.428771585982759E-5  -5.663497447967529E-1   7.889915704727173E-1  
 1.136760000000000E10   -5.887458324432373E-1   7.871702909469605E-1   3.440144428168424E-5   2.367580236750655E-5   3.482174361124635E-5   2.428470179438591E-5  -5.649012923240662E-1   7.900240421295166E-1  
 1.136800000000000E10   -5.872209072113037E-1   7.882830500602722E-1   3.477582868072204E-5   2.338707236049231E-5   3.560671757441014E-5   2.333258635189850E-5  -5.634530186653137E-1   7.910725474357605E-1  
 1.136840000000000E10   -5.857388377189636E-1   7.894817590713501E-1   3.541556361597031E-5   2.308296643604990E-5   3.474103141343221E-5   2.262934503960423E-5  -5.620294213294983E-1   7.920579910278320E-1  
 1.136880000000000E10   -5.842903256416321E-1   7.905794978141785E-1   3.496982390061021E-5   2.422069883323275E-5   3.583839497878216E-5   2.447020233375952E-5  -5.605802536010742E-1   7.930740714073181E-1  
 1.136920000000000E10   -5.827846527099609E-1   7.918033003807068E-1   3.452255623415113E-5   2.386046980973333E-5   3.548307722667232E-5   2.371262780798134E-5  -5.591006278991699E-1   7.941345572471619E-1  
 1.136960000000000E10   -5.811786055564880E-1   7.928789854049683E-1   3.578491305233911E-5   2.473411041137297E-5   3.474954064586200E-5   2.237904845969752E-5  -5.576530098915100E-1   7.951701283454895E-1  
 1.137000000000000E10   -5.796897411346436E-1   7.939651608467102E-1   3.614483648561873E-5   2.407689134997781E-5   3.525925058056600E-5   2.503124051145278E-5  -5.561843514442444E-1   7.962018251419067E-1  
 1.137040000000000E10   -5.781241655349731E-1   7.951431870460510E-1   3.548751192283817E-5   2.369123103562743E-5   3.832774018519558E-5   2.366873741266318E-5  -5.547215342521668E-1   7.971689701080322E-1  
 1.137080000000000E10   -5.765783190727234E-1   7.963106036186218E-1   3.750629184651189E-5   2.195836896135006E-5   3.704579648911022E-5   2.399470395175740E-5  -5.532932281494141E-1   7.982690334320068E-1  
 1.137120000000000E10   -5.750905871391296E-1   7.974069714546204E-1   3.739783278433606E-5   2.209186095569748E-5   3.658445712062530E-5   2.350002614548430E-5  -5.518139600753784E-1   7.992463111877441E-1  
 1.137160000000000E10   -5.735696554183960E-1   7.985943555831909E-1   3.880372969433665E-5   2.337194928259123E-5   3.754951467271894E-5   2.409293665550649E-5  -5.503818988800049E-1   8.002751469612122E-1  
 1.137200000000000E10   -5.719304084777832E-1   7.996391654014587E-1   3.686541822389700E-5   2.270413642690983E-5   3.794896838371642E-5   2.531729296606500E-5  -5.488834381103516E-1   8.012939095497131E-1  
 1.137240000000000E10   -5.704150795936585E-1   8.008615374565125E-1   3.875667971442454E-5   2.377049349888694E-5   3.864719474222511E-5   2.551029137976002E-5  -5.473926067352295E-1   8.022906184196472E-1  
 1.137280000000000E10   -5.688301324844360E-1   8.020383715629578E-1   4.027625982416794E-5   2.237165608676150E-5   3.871522858389653E-5   2.407246756774839E-5  -5.459305047988892E-1   8.033795356750488E-1  
 1.137320000000000E10   -5.672572851181030E-1   8.031170368194580E-1   4.149158849031664E-5   2.454430068610236E-5   3.895472764270380E-5   2.318285078217741E-5  -5.444807410240173E-1   8.043740987777710E-1  
 1.137360000000000E10   -5.655913949012756E-1   8.043322563171387E-1   3.779704275075346E-5   2.501088420103770E-5   3.954811836592853E-5   2.430639324302319E-5  -5.429118871688843E-1   8.054115772247315E-1  
 1.137400000000000E10   -5.640134811401367E-1   8.053873777389526E-1   3.755263242055662E-5   2.508025863789953E-5   3.902812386513688E-5   2.570144351921044E-5  -5.414335131645203E-1   8.064103722572327E-1  
 1.137440000000000E10   -5.624350905418396E-1   8.065540194511414E-1   4.033149161841720E-5   2.338311969651841E-5   4.030567288282327E-5   2.354642128921114E-5  -5.398813486099243E-1   8.073934912681580E-1  
 1.137480000000000E10   -5.607948899269104E-1   8.076761960983276E-1   4.194529901724309E-5   2.674954703252297E-5   3.884016769006848E-5   2.340150240343064E-5  -5.383807420730591E-1   8.085001111030579E-1  
 1.137520000000000E10   -5.591791868209839E-1   8.088051676750183E-1   4.068506677867845E-5   2.416338611510582E-5   3.934963751817122E-5   2.387887798249722E-5  -5.368613600730896E-1   8.095347285270691E-1  
 1.137560000000000E10   -5.575804114341736E-1   8.099479079246521E-1   4.028532930533402E-5   2.463601958879735E-5   3.842304431600496E-5   2.564738861110527E-5  -5.353185534477234E-1   8.105484843254089E-1  
 1.137600000000000E10   -5.558949112892151E-1   8.111007213592529E-1   4.097566852578893E-5   2.589140967756975E-5   4.055359022459015E-5   2.386315100011416E-5  -5.337723493576050E-1   8.114938139915466E-1  
 1.137640000000000E10   -5.543178319931030E-1   8.121935725212097E-1   3.943599585909396E-5   2.582323759270366E-5   3.984928116551600E-5   2.575724283815362E-5  -5.322096943855286E-1   8.125479817390442E-1  
 1.137680000000000E10   -5.526641607284546E-1   8.133394122123718E-1   3.977841697633266E-5   2.523664261389058E-5   4.019732296001166E-5   2.528721233829856E-5  -5.307104587554932E-1   8.135698437690735E-1  
 1.137720000000000E10   -5.509330034255981E-1   8.144358992576599E-1   4.004910078947432E-5   2.543753907957580E-5   4.106320557184517E-5   2.567590127000585E-5  -5.291870832443237E-1   8.146330118179321E-1  
 1.137760000000000E10   -5.493727922439575E-1   8.156331181526184E-1   4.114127295906656E-5   2.433763984299731E-5   4.078807251062244E-5   2.622351530590095E-5  -5.275830626487732E-1   8.156449198722839E-1  
 1.137800000000000E10   -5.477003455162048E-1   8.167213201522827E-1   4.009603071608581E-5   2.611983109090943E-5   4.080044527654536E-5   2.427748222544324E-5  -5.260581374168396E-1   8.166826367378235E-1  
 1.137840000000000E10   -5.460541844367981E-1   8.178497552871704E-1   4.259917477611452E-5   2.619602491904516E-5   4.126905696466565E-5   2.413841502857395E-5  -5.244905948638916E-1   8.176819682121277E-1  
 1.137880000000000E10   -5.443797111511231E-1   8.189623951911926E-1   4.205220102448948E-5   2.643468542373739E-5   4.112899841857143E-5   2.474705979693681E-5  -5.228776931762695E-1   8.186677098274231E-1  
 1.137920000000000E10   -5.426943302154541E-1   8.201114535331726E-1   4.421556513989344E-5   2.568211493780837E-5   4.143170735915192E-5   2.579234569566324E-5  -5.213504433631897E-1   8.197234272956848E-1  
 1.137960000000000E10   -5.409906506538391E-1   8.212138414382935E-1   4.201966294203885E-5   2.654837589943782E-5   4.311488009989262E-5   2.546726682339795E-5  -5.197163224220276E-1   8.207197785377502E-1  
 1.138000000000000E10   -5.393544435501099E-1   8.223679661750794E-1   4.439142503542826E-5   2.794384090520907E-5   4.284956958144903E-5   2.647478504513856E-5  -5.181481242179871E-1   8.217265009880066E-1  
 1.138040000000000E10   -5.376248359680176E-1   8.234291076660156E-1   4.379064193926752E-5   2.542485162848607E-5   4.416652518557385E-5   2.788744677673094E-5  -5.165439844131470E-1   8.227562308311462E-1  
 1.138080000000000E10   -5.359023809432983E-1   8.246235847473145E-1   4.522417657426558E-5   2.553460763010662E-5   4.556814747047611E-5   2.672438495210372E-5  -5.149466395378113E-1   8.238018155097961E-1  
 1.138120000000000E10   -5.342075824737549E-1   8.257183432579041E-1   4.401489059091546E-5   2.811860576912295E-5   4.402696140459739E-5   2.455650610500015E-5  -5.132685303688049E-1   8.248082399368286E-1  
