#  HZ   S   RI   R     50.00 
! Rohde & Schwarz ZVA50 2Ports - Version 3.70 - 1145.1110k50 SN: 100192
! Date: 2025-07-25 13:03:00
! Measurements: S11 S21 S12 S22 
! 
 1.134400000000000E10   -6.621772646903992E-1   7.331291437149048E-1   2.460420364513993E-5   2.061029044853058E-5   2.464451426931191E-5   1.954419894900639E-5  -6.786552667617798E-1   7.113325595855713E-1  
 1.134440000000000E10   -6.610848903656006E-1   7.342413663864136E-1   2.444690107950009E-5   2.143412166333292E-5   2.425695311103482E-5   2.172791573684663E-5  -6.773924827575684E-1   7.124924659729004E-1  
 1.134480000000000E10   -6.598155498504639E-1   7.353171706199646E-1   2.466432488290593E-5   2.078958459605929E-5   2.387385575275403E-5   2.037390004261397E-5  -6.761975884437561E-1   7.136577367782593E-1  
 1.134520000000000E10   -6.586162447929382E-1   7.362828850746155E-1   2.364726060477551E-5   2.134104215656407E-5   2.625504566822201E-5   2.127153129549697E-5  -6.749606132507324E-1   7.148912549018860E-1  
 1.134560000000000E10   -6.574621796607971E-1   7.373843789100647E-1   2.449529529258143E-5   2.223452793259639E-5   2.545067945902702E-5   1.925302967720199E-5  -6.737895607948303E-1   7.159929871559143E-1  
 1.134600000000000E10   -6.562418341636658E-1   7.384606599807739E-1   2.381423473707400E-5   2.168390528822783E-5   2.439439413137734E-5   1.967790012713522E-5  -6.725018024444580E-1   7.171682119369507E-1  
 1.134640000000000E10   -6.550612449645996E-1   7.395666837692261E-1   2.458125709381420E-5   2.041959669440985E-5   2.660822792677209E-5   2.156532718800008E-5  -6.712654829025269E-1   7.182803750038147E-1  
 1.134680000000000E10   -6.539036035537720E-1   7.405717968940735E-1   2.434181806165725E-5   2.005080932576675E-5   2.466346450091805E-5   2.082414721371606E-5  -6.700212955474854E-1   7.194775342941284E-1  
 1.134720000000000E10   -6.533960103988648E-1   7.417405843734741E-1   2.574787686171476E-5   2.100849087582901E-5   2.445828431518748E-5   2.103987753798720E-5  -6.687847375869751E-1   7.206127047538757E-1  
 1.134760000000000E10   -6.522346735000610E-1   7.427908182144165E-1   2.709880573092960E-5   2.098794720950536E-5   2.499369293218479E-5   2.042307096417062E-5  -6.675385236740112E-1   7.217721343040466E-1  
 1.134800000000000E10   -6.509562730789185E-1   7.440701127052307E-1   2.535708699724637E-5   2.019354360527359E-5   2.638497426232789E-5   2.103140832332429E-5  -6.667279601097107E-1   7.230229973793030E-1  
 1.134840000000000E10   -6.497685313224793E-1   7.451651096343994E-1   2.487477104295977E-5   2.009932359214872E-5   2.680853503989056E-5   2.229393976449501E-5  -6.655030250549316E-1   7.241898775100708E-1  
 1.134880000000000E10   -6.485661268234253E-1   7.461943626403809E-1   2.614845288917422E-5   2.164084071409889E-5   2.500247319403570E-5   1.987533323699608E-5  -6.641807556152344E-1   7.253865003585815E-1  
 1.134920000000000E10   -6.473391652107239E-1   7.472741603851318E-1   2.671786023711320E-5   2.178734212066047E-5   2.596034391899593E-5   1.952002094185446E-5  -6.629395484924316E-1   7.265394926071167E-1  
 1.134960000000000E10   -6.460821032524109E-1   7.483393549919128E-1   2.576562837930396E-5   2.014113488257863E-5   2.522662543924525E-5   2.167759885196574E-5  -6.616576910018921E-1   7.277172803878784E-1  
 1.135000000000000E10   -6.449058055877686E-1   7.493666410446167E-1   2.503162795619573E-5   2.127622792613693E-5   2.763965858321171E-5   1.903726661112160E-5  -6.603298187255859E-1   7.288298010826111E-1  
 1.135040000000000E10   -6.436871290206909E-1   7.504931688308716E-1   2.662823499122169E-5   2.142382982128765E-5   2.713475078053307E-5   2.094806404784322E-5  -6.590473651885986E-1   7.299915552139282E-1  
 1.135080000000000E10   -6.424650549888611E-1   7.514884471893311E-1   2.609490184113383E-5   2.069022048090119E-5   2.811484046105761E-5   2.037116064457223E-5  -6.577768921852112E-1   7.312121391296387E-1  
 1.135120000000000E10   -6.411254405975342E-1   7.525843381881714E-1   2.635657074279152E-5   2.141849836334586E-5   2.659831443452276E-5   2.266013325424865E-5  -6.565042734146118E-1   7.324025630950928E-1  
 1.135160000000000E10   -6.398990750312805E-1   7.535952329635620E-1   3.008702151419129E-5   2.161420707125217E-5   2.643214793351945E-5   2.125733590219170E-5  -6.552124619483948E-1   7.335066795349121E-1  
 1.135200000000000E10   -6.386708617210388E-1   7.546601891517639E-1   2.700314325920772E-5   2.008345109061338E-5   2.821315501932986E-5   2.004827183554880E-5  -6.539229154586792E-1   7.346993684768677E-1  
 1.135240000000000E10   -6.374155879020691E-1   7.557287216186523E-1   2.838225555024110E-5   1.980817614821717E-5   2.799930916808080E-5   2.210206366726197E-5  -6.525858044624329E-1   7.358618974685669E-1  
 1.135280000000000E10   -6.361471414566040E-1   7.568047046661377E-1   2.826947638823185E-5   2.260577457491309E-5   2.682674676179886E-5   2.042245796474163E-5  -6.512122154235840E-1   7.370178699493408E-1  
 1.135320000000000E10   -6.349076032638550E-1   7.578729391098023E-1   2.599237268441357E-5   2.131231849489268E-5   3.043685137527064E-5   2.059935104625765E-5  -6.499548554420471E-1   7.382064461708069E-1  
 1.135360000000000E10   -6.336692571640015E-1   7.589610219001770E-1   2.798957211780362E-5   2.050542570941616E-5   2.921166014857590E-5   2.124810816894751E-5  -6.486793756484985E-1   7.392965555191040E-1  
 1.135400000000000E10   -6.324317455291748E-1   7.600129246711731E-1   2.696137380553410E-5   2.103209226334002E-5   2.955477611976676E-5   2.211984246969223E-5  -6.473457217216492E-1   7.404399514198303E-1  
 1.135440000000000E10   -6.311517357826233E-1   7.610767483711243E-1   3.089156234636903E-5   2.041873631242197E-5   2.858330663002562E-5   2.245829819003120E-5  -6.459779739379883E-1   7.416149377822876E-1  
 1.135480000000000E10   -6.299228072166443E-1   7.621718645095825E-1   2.831347410392482E-5   2.287834286107682E-5   2.900706567743328E-5   2.219949237769470E-5  -6.446762084960938E-1   7.428723573684692E-1  
 1.135520000000000E10   -6.285274028778076E-1   7.632290720939636E-1   2.751961073954590E-5   2.149726424249820E-5   2.900405888794921E-5   2.166156991734169E-5  -6.433103084564209E-1   7.440459132194519E-1  
 1.135560000000000E10   -6.272953152656555E-1   7.642890214920044E-1   2.837154897861183E-5   2.130541361111682E-5   2.863400186470244E-5   2.185291850764770E-5  -6.419841051101685E-1   7.451756596565247E-1  
 1.135600000000000E10   -6.259753704071045E-1   7.653210163116455E-1   2.892708653234877E-5   2.226400101790205E-5   3.021815973625053E-5   2.186752681154758E-5  -6.406286954879761E-1   7.462829947471619E-1  
 1.135640000000000E10   -6.247328519821167E-1   7.664058804512024E-1   2.963245242426638E-5   2.146444603567943E-5   2.964397390314844E-5   2.067228160740342E-5  -6.392345428466797E-1   7.474967241287231E-1  
 1.135680000000000E10   -6.233400106430054E-1   7.673965096473694E-1   2.705929546209518E-5   2.127850348188076E-5   2.698849493754096E-5   2.122003934346139E-5  -6.379524469375610E-1   7.486218214035034E-1  
 1.135720000000000E10   -6.220355033874512E-1   7.684800028800964E-1   2.925775152107235E-5   2.252672129543498E-5   2.807808959914837E-5   2.125943683495279E-5  -6.365752816200256E-1   7.497876882553101E-1  
 1.135760000000000E10   -6.208016872406006E-1   7.695934176445007E-1   2.994596434291452E-5   2.338566264370456E-5   2.850248711183667E-5   2.265517105115578E-5  -6.352068781852722E-1   7.509797811508179E-1  
 1.135800000000000E10   -6.194803714752197E-1   7.706176042556763E-1   2.832267455232795E-5   2.247451084258501E-5   2.914659671660047E-5   2.054603646683972E-5  -6.338263154029846E-1   7.521919012069702E-1  
 1.135840000000000E10   -6.181687116622925E-1   7.716816067695618E-1   2.953272269223817E-5   1.974948645511176E-5   3.012531851709355E-5   2.216465691162739E-5  -6.324611306190491E-1   7.532743215560913E-1  
 1.135880000000000E10   -6.168179512023926E-1   7.727701663970947E-1   2.959881931019481E-5   2.134845453838352E-5   2.979482997034211E-5   2.170435800508130E-5  -6.310541629791260E-1   7.544603347778320E-1  
 1.135920000000000E10   -6.154937744140625E-1   7.738224864006043E-1   3.106169970124029E-5   2.268559910589829E-5   2.940100057458039E-5   2.294220757903531E-5  -6.296553611755371E-1   7.556067109107971E-1  
 1.135960000000000E10   -6.141139268875122E-1   7.748878002166748E-1   2.896518344641663E-5   2.101043173752260E-5   3.014704270754010E-5   2.339975617360324E-5  -6.282711625099182E-1   7.567484378814697E-1  
 1.136000000000000E10   -6.128469109535217E-1   7.758979797363281E-1   3.013129753526300E-5   2.318320730410051E-5   3.104537972831167E-5   2.165162004530430E-5  -6.269134879112244E-1   7.578905820846558E-1  
 1.136040000000000E10   -6.114774942398071E-1   7.769948244094849E-1   3.230790025554597E-5   2.346155633858871E-5   3.011691660503857E-5   2.153933746740222E-5  -6.254439949989319E-1   7.591029405593872E-1  
 1.136080000000000E10   -6.101388931274414E-1   7.779989242553711E-1   3.054245462408289E-5   2.199411756009795E-5   3.367156386957504E-5   2.264834620291367E-5  -6.241129040718079E-1   7.602066993713379E-1  
 1.136120000000000E10   -6.087848544120789E-1   7.791204452514648E-1   3.039165858353954E-5   2.370492256886791E-5   3.076762004639022E-5   2.439621493977029E-5  -6.226901412010193E-1   7.613673210144043E-1  
 1.136160000000000E10   -6.074297428131104E-1   7.801781892776489E-1   3.036362613784149E-5   2.393850445514545E-5   3.276711140642874E-5   2.097395918099210E-5  -6.212658286094666E-1   7.625089287757874E-1  
 1.136200000000000E10   -6.060636639595032E-1   7.812451124191284E-1   2.928296453319490E-5   2.281995148223359E-5   3.086470314883627E-5   2.302423308719881E-5  -6.198752522468567E-1   7.637091279029846E-1  
 1.136240000000000E10   -6.046776771545410E-1   7.823317050933838E-1   3.155267404508777E-5   2.208246223744936E-5   3.474198092590086E-5   2.395536284893751E-5  -6.184093952178955E-1   7.648301124572754E-1  
 1.136280000000000E10   -6.033033728599548E-1   7.833724617958069E-1   3.178984479745850E-5   2.079953446809668E-5   3.271474997745827E-5   2.328272967133671E-5  -6.169962882995606E-1   7.659983038902283E-1  
 1.136320000000000E10   -6.019232869148254E-1   7.844280004501343E-1   3.363462383276783E-5   2.364673491683789E-5   3.130968980258331E-5   2.116968971677125E-5  -6.155511140823364E-1   7.671560049057007E-1  
 1.136360000000000E10   -6.005339622497559E-1   7.855501770973206E-1   3.172600190737285E-5   2.365723594266456E-5   3.270495290053077E-5   2.187889367633034E-5  -6.140906810760498E-1   7.683495283126831E-1  
 1.136400000000000E10   -5.991516113281250E-1   7.865493893623352E-1   3.203079177183099E-5   2.384953768341802E-5   3.334432039991953E-5   2.475374094501603E-5  -6.126317977905273E-1   7.694975137710571E-1  
 1.136440000000000E10   -5.977665781974793E-1   7.876802682876587E-1   3.274943082942627E-5   2.245508949272335E-5   3.251985253882594E-5   2.343836786167231E-5  -6.112419366836548E-1   7.706363201141357E-1  
 1.136480000000000E10   -5.964521169662476E-1   7.886647582054138E-1   3.237179407733493E-5   2.373129245825112E-5   3.322125485283323E-5   2.323612534382846E-5  -6.097841858863831E-1   7.717961072921753E-1  
 1.136520000000000E10   -5.949854850769043E-1   7.897240519523621E-1   3.427643605391495E-5   2.334619239263702E-5   3.279594602645375E-5   2.420595228613820E-5  -6.082756519317627E-1   7.729641795158386E-1  
 1.136560000000000E10   -5.936123728752136E-1   7.908084988594055E-1   3.296462818980217E-5   2.244199640699662E-5   3.353721331222914E-5   2.377933742536698E-5  -6.068421602249146E-1   7.741233110427856E-1  
 1.136600000000000E10   -5.922088027000427E-1   7.918384075164795E-1   3.370223566889763E-5   2.300953929079697E-5   3.326786099933088E-5   2.331321957171895E-5  -6.053986549377441E-1   7.752503156661987E-1  
 1.136640000000000E10   -5.908191204071045E-1   7.928251028060913E-1   3.376452514203265E-5   2.311018397449516E-5   3.493348049232736E-5   2.196544664911926E-5  -6.038734316825867E-1   7.764259576797485E-1  
 1.136680000000000E10   -5.893726348876953E-1   7.939909696578980E-1   3.380956695764326E-5   2.278407191624865E-5   3.280304372310638E-5   2.327440779481549E-5  -6.024181246757507E-1   7.776388525962830E-1  
 1.136720000000000E10   -5.879461169242859E-1   7.950560450553894E-1   3.359079710207880E-5   2.410820525255986E-5   3.313255729153752E-5   2.230053723906167E-5  -6.008598804473877E-1   7.786815166473389E-1  
 1.136760000000000E10   -5.864554047584534E-1   7.960981130599976E-1   3.683638351503760E-5   2.328038863197435E-5   3.538513919920661E-5   2.382563798164483E-5  -5.994407534599304E-1   7.798821330070496E-1  
 1.136800000000000E10   -5.850691199302673E-1   7.971006631851196E-1   3.629268394433893E-5   2.186094025091734E-5   3.547327651176602E-5   2.369058529438917E-5  -5.979181528091431E-1   7.810621261596680E-1  
 1.136840000000000E10   -5.836259722709656E-1   7.981721162796021E-1   3.428933996474370E-5   2.489760299795307E-5   3.502382969600149E-5   2.283539470226970E-5  -5.964424014091492E-1   7.821642160415649E-1  
 1.136880000000000E10   -5.821901559829712E-1   7.992071509361267E-1   3.653490421129391E-5   2.264918657601811E-5   3.548699896782637E-5   2.446440157655161E-5  -5.949281454086304E-1   7.833430171012878E-1  
 1.136920000000000E10   -5.807767510414124E-1   8.003101348876953E-1   3.497883153613657E-5   2.223082265118137E-5   3.654340252978727E-5   2.452947592246346E-5  -5.933473110198975E-1   7.845199108123779E-1  
 1.136960000000000E10   -5.792798995971680E-1   8.012916445732117E-1   3.565930092008784E-5   2.419026168354321E-5   3.779971666517668E-5   2.248943383165170E-5  -5.918399691581726E-1   7.856062650680542E-1  
 1.137000000000000E10   -5.778665542602539E-1   8.023179769515991E-1   3.828862463706173E-5   2.331178257009015E-5   3.748139351955615E-5   2.381715785304550E-5  -5.903069376945496E-1   7.867752909660339E-1  
 1.137040000000000E10   -5.764048099517822E-1   8.034366369247437E-1   3.648520578281023E-5   2.299972402397543E-5   3.531642505549826E-5   2.512202991056256E-5  -5.887586474418640E-1   7.879549860954285E-1  
 1.137080000000000E10   -5.749820470809937E-1   8.045122623443604E-1   3.680536974570714E-5   2.390924055362120E-5   3.889960498781875E-5   2.342881816730369E-5  -5.872265696525574E-1   7.890824675559998E-1  
 1.137120000000000E10   -5.735700726509094E-1   8.055245876312256E-1   3.724875568877906E-5   2.375107760599349E-5   3.683154136524536E-5   2.514550578780472E-5  -5.857310891151428E-1   7.902801036834717E-1  
 1.137160000000000E10   -5.720888972282410E-1   8.065487146377564E-1   3.658239438664168E-5   2.407673491688911E-5   3.718143125297502E-5   2.383124592597596E-5  -5.841574668884277E-1   7.914224267005920E-1  
 1.137200000000000E10   -5.705817937850952E-1   8.075119256973267E-1   3.834892049781047E-5   2.523856892366894E-5   3.876565460814163E-5   2.582815432106145E-5  -5.826069712638855E-1   7.926183938980103E-1  
 1.137240000000000E10   -5.691026449203491E-1   8.086766600608826E-1   3.790775735978968E-5   2.488377140252851E-5   3.826784814009443E-5   2.363356179557741E-5  -5.810166001319885E-1   7.937197685241699E-1  
 1.137280000000000E10   -5.676381587982178E-1   8.097772002220154E-1   3.916432979167439E-5   2.513241270207800E-5   3.780782935791649E-5   2.444234814902302E-5  -5.794922113418579E-1   7.948852181434631E-1  
 1.137320000000000E10   -5.661335587501526E-1   8.107538819313049E-1   3.910891246050596E-5   2.375839540036395E-5   3.738081431947649E-5   2.345176471862942E-5  -5.779345631599426E-1   7.959905862808228E-1  
 1.137360000000000E10   -5.646849274635315E-1   8.118844032287598E-1   3.960598405683413E-5   2.594206671346910E-5   3.994059807155281E-5   2.401282108621672E-5  -5.762966275215149E-1   7.971369028091431E-1  
 1.137400000000000E10   -5.631056427955627E-1   8.129326701164246E-1   4.023161454824731E-5   2.674658753676340E-5   3.888563878717832E-5   2.559350286901463E-5  -5.747907161712647E-1   7.982708215713501E-1  
 1.137440000000000E10   -5.616332292556763E-1   8.139927983283997E-1   3.735312202479690E-5   2.665065585460980E-5   3.871813532896340E-5   2.534285158617422E-5  -5.731582641601563E-1   7.994457483291626E-1  
 1.137480000000000E10   -5.600581765174866E-1   8.150385618209839E-1   4.025995804113336E-5   2.382951606705319E-5   3.889835352310911E-5   2.503271207388025E-5  -5.715368986129761E-1   8.005900979042053E-1  
 1.137520000000000E10   -5.585833787918091E-1   8.161015510559082E-1   4.041608553961851E-5   2.590992698969785E-5   4.088613059138879E-5   2.504573058104143E-5  -5.700060725212097E-1   8.017842769622803E-1  
 1.137560000000000E10   -5.570548176765442E-1   8.171287178993225E-1   3.982818088843487E-5   2.422261968604289E-5   4.009816257166676E-5   2.376592601649463E-5  -5.682966113090515E-1   8.029030561447144E-1  
 1.137600000000000E10   -5.554178953170776E-1   8.181751966476440E-1   3.962251867051236E-5   2.879089879570529E-5   4.016717866761610E-5   2.313655568286777E-5  -5.666669607162476E-1   8.040112853050232E-1  
 1.137640000000000E10   -5.540028810501099E-1   8.192119598388672E-1   3.816148819169030E-5   2.483604839653708E-5   3.988929529441521E-5   2.545870484027546E-5  -5.649913549423218E-1   8.051905035972595E-1  
 1.137680000000000E10   -5.523162484169006E-1   8.202505111694336E-1   4.233442814438604E-5   2.597296224848833E-5   4.151748726144433E-5   2.379029319854453E-5  -5.634748935699463E-1   8.063097596168518E-1  
 1.137720000000000E10   -5.508303642272949E-1   8.213264942169190E-1   4.047697439091280E-5   2.635403507156298E-5   4.096070915693417E-5   2.649869202286936E-5  -5.617964863777161E-1   8.074352145195007E-1  
 1.137760000000000E10   -5.492768287658691E-1   8.223728537559509E-1   4.005248774774373E-5   2.766258148767520E-5   4.001399429398589E-5   2.546516589063685E-5  -5.601513981819153E-1   8.086066246032715E-1  
 1.137800000000000E10   -5.476890802383423E-1   8.234298825263977E-1   4.459336560103111E-5   2.554785896791145E-5   4.173714114585891E-5   2.442228651489131E-5  -5.584939718246460E-1   8.097689151763916E-1  
 1.137840000000000E10   -5.461816787719727E-1   8.244968652725220E-1   4.331566742621362E-5   2.549471901147626E-5   4.132644244236872E-5   2.502641655155458E-5  -5.568187832832336E-1   8.109117746353149E-1  
 1.137880000000000E10   -5.445902347564697E-1   8.255548477172852E-1   4.199015893391334E-5   2.556613799242768E-5   4.064400127390400E-5   2.684574246814009E-5  -5.551826953887940E-1   8.120144009590149E-1  
 1.137920000000000E10   -5.429322123527527E-1   8.266515135765076E-1   4.083743624505587E-5   2.745424535532948E-5   4.287780757294968E-5   2.492319254088216E-5  -5.535089373588562E-1   8.131854534149170E-1  
 1.137960000000000E10   -5.413267016410828E-1   8.276528120040894E-1   4.155229908064939E-5   2.526521893742029E-5   4.134887785767205E-5   2.561624387453776E-5  -5.518525242805481E-1   8.143557310104370E-1  
 1.138000000000000E10   -5.397840738296509E-1   8.287450671195984E-1   4.338304643169977E-5   2.605992631288245E-5   4.495435860008001E-5   2.646189750521444E-5  -5.501685142517090E-1   8.155314326286316E-1  
 1.138040000000000E10   -5.381776690483093E-1   8.297483325004578E-1   4.196053123450838E-5   2.644496998982504E-5   4.268121483619325E-5   2.588219103927258E-5  -5.484644770622253E-1   8.166520595550537E-1  
 1.138080000000000E10   -5.365291237831116E-1   8.308286666870117E-1   4.373200863483362E-5   2.728024446696509E-5   4.239250120008364E-5   2.719740950851701E-5  -5.467324852943420E-1   8.177577257156372E-1  
 1.138120000000000E10   -5.349746346473694E-1   8.318720459938049E-1   4.364370397524908E-5   2.721008058870211E-5   4.362160689197481E-5   2.683810089365579E-5  -5.450115203857422E-1   8.189278244972229E-1  
