#  HZ   S   RI   R     50.00 
! Rohde & Schwarz ZVA50 2Ports - Version 3.70 - 1145.1110k50 SN: 100192
! Date: 2025-08-07 12:44:06
! Measurements: S11 S21 S12 S22 
! 
 1.134400000000000E10   -6.696794033050537E-1   7.188174128532410E-1   2.432724431855604E-5   1.944020368682686E-5   2.499096990504768E-5   1.923298259498552E-5  -6.334742307662964E-1   7.328057885169983E-1  
 1.134440000000000E10   -6.685155034065247E-1   7.200322151184082E-1   2.372244125581347E-5   2.056958874163684E-5   2.479880095052067E-5   2.099980156344827E-5  -6.323004961013794E-1   7.337849736213684E-1  
 1.134480000000000E10   -6.671925783157349E-1   7.211706042289734E-1   2.604543078632560E-5   2.047159068752080E-5   2.494727232260630E-5   2.054463038803078E-5  -6.311605572700501E-1   7.347994446754456E-1  
 1.134520000000000E10   -6.659414768218994E-1   7.223199009895325E-1   2.458136987115722E-5   2.051347655651625E-5   2.531336758693215E-5   1.923271338455379E-5  -6.299273967742920E-1   7.358742356300354E-1  
 1.134560000000000E10   -6.647562384605408E-1   7.234454154968262E-1   2.499552283552475E-5   2.162843156838790E-5   2.475002111168578E-5   2.092410250043031E-5  -6.287552118301392E-1   7.368379235267639E-1  
 1.134600000000000E10   -6.634566783905029E-1   7.245863676071167E-1   2.557863808760885E-5   2.125997343682684E-5   2.618993494252209E-5   2.160885560442694E-5  -6.275103092193604E-1   7.378218173980713E-1  
 1.134640000000000E10   -6.621632575988770E-1   7.257252335548401E-1   2.705539736780338E-5   1.971753772522789E-5   2.643166226334870E-5   2.090645284624770E-5  -6.262973546981812E-1   7.388228774070740E-1  
 1.134680000000000E10   -6.609929203987122E-1   7.269319295883179E-1   2.428819061606191E-5   1.988650183193386E-5   2.544684139138553E-5   1.916179280669894E-5  -6.251152157783508E-1   7.398579120635986E-1  
 1.134720000000000E10   -6.604220271110535E-1   7.281383275985718E-1   2.484989090589806E-5   2.035685247392394E-5   2.548383054090664E-5   2.087002212647349E-5  -6.238945126533508E-1   7.408520579338074E-1  
 1.134760000000000E10   -6.591349840164185E-1   7.293010354042053E-1   2.624380613269750E-5   1.979855369427241E-5   2.571298864495475E-5   1.915919528983068E-5  -6.227095723152161E-1   7.418643832206726E-1  
 1.134800000000000E10   -6.578796505928040E-1   7.306548357009888E-1   2.533155748096760E-5   2.256193329230882E-5   2.661174949025735E-5   2.050821603916120E-5  -6.219171285629273E-1   7.430027723312378E-1  
 1.134840000000000E10   -6.565663218498230E-1   7.318683266639710E-1   2.920283623097930E-5   2.155430775019340E-5   2.636217141116504E-5   1.946683551068418E-5  -6.207188963890076E-1   7.440654039382935E-1  
 1.134880000000000E10   -6.553193926811218E-1   7.329966425895691E-1   2.780649811029434E-5   2.097209107887466E-5   2.609274815768004E-5   2.032766315096524E-5  -6.194268465042114E-1   7.450609803199768E-1  
 1.134920000000000E10   -6.539850234985352E-1   7.341904640197754E-1   2.617126119730528E-5   2.125872924807482E-5   2.594665420474485E-5   1.963083923328668E-5  -6.182453036308289E-1   7.460900545120239E-1  
 1.134960000000000E10   -6.526902914047241E-1   7.353541254997253E-1   2.597655839053914E-5   2.054236938420218E-5   2.646331267897040E-5   1.851500928751193E-5  -6.170095205307007E-1   7.470909953117371E-1  
 1.135000000000000E10   -6.514828205108643E-1   7.364535927772522E-1   2.800493348331656E-5   2.149503779946826E-5   2.726360617089085E-5   2.075054726446979E-5  -6.157652735710144E-1   7.481287121772766E-1  
 1.135040000000000E10   -6.501819491386414E-1   7.376551032066345E-1   2.802911330945790E-5   2.045551082119346E-5   2.682874219317455E-5   1.957701351784635E-5  -6.145032644271851E-1   7.490856647491455E-1  
 1.135080000000000E10   -6.488440632820129E-1   7.387486696243286E-1   2.900442632380873E-5   2.251129808428232E-5   2.615618905110750E-5   2.033975397353061E-5  -6.132422685623169E-1   7.501003742218018E-1  
 1.135120000000000E10   -6.474235653877258E-1   7.399582266807556E-1   2.668860543053597E-5   2.147220402548555E-5   2.784910975606181E-5   2.169528124795761E-5  -6.120324134826660E-1   7.511713504791260E-1  
 1.135160000000000E10   -6.461817622184753E-1   7.410776019096375E-1   2.770127321127802E-5   2.068472349492367E-5   2.673265589692164E-5   2.027985647146124E-5  -6.107652187347412E-1   7.521536946296692E-1  
 1.135200000000000E10   -6.449108123779297E-1   7.421230077743530E-1   2.865945680241566E-5   2.063811916741543E-5   2.807899545587134E-5   2.039381433860399E-5  -6.095157861709595E-1   7.531620860099793E-1  
 1.135240000000000E10   -6.435791254043579E-1   7.433530092239380E-1   2.731862514337990E-5   2.151003354811110E-5   2.891820258810185E-5   2.056299126707017E-5  -6.082633137702942E-1   7.541918158531189E-1  
 1.135280000000000E10   -6.422399282455444E-1   7.445014119148254E-1   2.861490793293342E-5   1.980803062906489E-5   2.778622729238123E-5   2.130621942342259E-5  -6.069385409355164E-1   7.551934719085693E-1  
 1.135320000000000E10   -6.409341096878052E-1   7.456855177879334E-1   2.927457171608694E-5   2.131386099790689E-5   2.873495213862043E-5   2.209947706433013E-5  -6.057096719741821E-1   7.562386989593506E-1  
 1.135360000000000E10   -6.396294236183167E-1   7.468357682228088E-1   2.831606980180368E-5   2.075908923870884E-5   2.801740629365668E-5   1.919050373544451E-5  -6.044676899909973E-1   7.572324872016907E-1  
 1.135400000000000E10   -6.382668018341065E-1   7.479911446571350E-1   2.888832568714861E-5   2.320356543350499E-5   2.779928763629869E-5   2.146541373804212E-5  -6.031796336174011E-1   7.582050561904907E-1  
 1.135440000000000E10   -6.369398236274719E-1   7.491021156311035E-1   2.829098775691818E-5   2.011229480558541E-5   2.867037619580515E-5   2.248680539196357E-5  -6.018782854080200E-1   7.591972351074219E-1  
 1.135480000000000E10   -6.355664730072022E-1   7.502920627593994E-1   2.956136813736521E-5   2.301142740179785E-5   2.966584543173667E-5   2.114514973072801E-5  -6.005824804306030E-1   7.602378129959106E-1  
 1.135520000000000E10   -6.342529058456421E-1   7.514218091964722E-1   2.910021248681005E-5   2.269240030727815E-5   2.858273182937410E-5   2.213731931988150E-5  -5.992705225944519E-1   7.613108158111572E-1  
 1.135560000000000E10   -6.328505873680115E-1   7.526348829269409E-1   2.890568248403724E-5   2.135621252818964E-5   2.806066368066240E-5   2.058103200397454E-5  -5.980041623115540E-1   7.623391151428223E-1  
 1.135600000000000E10   -6.315468549728394E-1   7.537071108818054E-1   2.868632691388484E-5   2.021236468863208E-5   2.986444087582640E-5   2.114201015501749E-5  -5.967585444450378E-1   7.632970809936523E-1  
 1.135640000000000E10   -6.301662325859070E-1   7.549448609352112E-1   2.954654883069452E-5   2.141146796930116E-5   2.865311398636550E-5   2.173783832404297E-5  -5.954207777976990E-1   7.643045783042908E-1  
 1.135680000000000E10   -6.287764310836792E-1   7.560238838195801E-1   2.855232560250443E-5   2.370060246903449E-5   2.867091279767919E-5   2.100804522342514E-5  -5.940756201744080E-1   7.652695178985596E-1  
 1.135720000000000E10   -6.273479461669922E-1   7.572264075279236E-1   2.958984077849891E-5   1.975938903342467E-5   2.954794399556704E-5   2.225401840405539E-5  -5.928404927253723E-1   7.663557529449463E-1  
 1.135760000000000E10   -6.260210871696472E-1   7.582940459251404E-1   3.020749682036694E-5   2.075733209494501E-5   3.046801612072159E-5   2.183421565860044E-5  -5.914295315742493E-1   7.673366665840149E-1  
 1.135800000000000E10   -6.245602965354919E-1   7.595022320747376E-1   3.122802809230052E-5   1.944119321706239E-5   3.063470285269432E-5   2.252634294563904E-5  -5.901340246200562E-1   7.683899402618408E-1  
 1.135840000000000E10   -6.231685280799866E-1   7.606698870658875E-1   3.072695835726336E-5   2.092526301566977E-5   3.179820487275720E-5   2.349985879845917E-5  -5.888895988464356E-1   7.693509459495544E-1  
 1.135880000000000E10   -6.217976808547974E-1   7.618670463562012E-1   3.006958650075831E-5   2.268542812089436E-5   2.995182512677275E-5   2.284113907080609E-5  -5.875087380409241E-1   7.703850269317627E-1  
 1.135920000000000E10   -6.204392313957214E-1   7.630156278610230E-1   3.036712587345392E-5   2.213274456153158E-5   3.056239074794576E-5   2.309581577719655E-5  -5.862102508544922E-1   7.713730335235596E-1  
 1.135960000000000E10   -6.189738512039185E-1   7.641365528106690E-1   3.024909347004723E-5   2.297246646776330E-5   3.071584433200769E-5   2.269140895805322E-5  -5.848805308341980E-1   7.723715305328369E-1  
 1.136000000000000E10   -6.176515817642212E-1   7.653021812438965E-1   3.204022505087778E-5   2.243887502118014E-5   3.044060213142075E-5   2.100571327900980E-5  -5.835392475128174E-1   7.733702659606934E-1  
 1.136040000000000E10   -6.162229180335999E-1   7.664447426795960E-1   3.130217737634666E-5   2.104034319927450E-5   3.165222005918622E-5   2.174630390072707E-5  -5.821870565414429E-1   7.743871808052063E-1  
 1.136080000000000E10   -6.147909760475159E-1   7.676261067390442E-1   3.113190177828074E-5   2.256428160762880E-5   2.981083525810391E-5   2.169288018194493E-5  -5.808487534523010E-1   7.753648161888123E-1  
 1.136120000000000E10   -6.133989691734314E-1   7.687198519706726E-1   3.253674367442727E-5   2.176364614570048E-5   3.033190660062246E-5   2.268291063955985E-5  -5.794944167137146E-1   7.764068245887756E-1  
 1.136160000000000E10   -6.118942499160767E-1   7.698571085929871E-1   3.219922291464172E-5   2.310328454768751E-5   3.266877320129424E-5   2.141268487321213E-5  -5.781503319740295E-1   7.774943709373474E-1  
 1.136200000000000E10   -6.104986667633057E-1   7.710526585578919E-1   3.271133027737960E-5   2.168390892620664E-5   3.289360029157251E-5   2.214149753854144E-5  -5.767758488655090E-1   7.784727811813355E-1  
 1.136240000000000E10   -6.090094447135925E-1   7.721892595291138E-1   3.075686981901527E-5   2.269358265039045E-5   3.176792597514577E-5   2.388130997132976E-5  -5.754294991493225E-1   7.794215679168701E-1  
 1.136280000000000E10   -6.075727343559265E-1   7.733240723609924E-1   3.171023854520172E-5   2.187632526329253E-5   3.227783236070536E-5   2.172374115616549E-5  -5.740749239921570E-1   7.804730534553528E-1  
 1.136320000000000E10   -6.061206459999085E-1   7.744815945625305E-1   3.114273567916825E-5   2.194795524701476E-5   3.203471715096384E-5   2.239851892227307E-5  -5.726206898689270E-1   7.814561128616333E-1  
 1.136360000000000E10   -6.046820878982544E-1   7.756389975547791E-1   3.393515726202168E-5   2.155971014872193E-5   3.291308166808449E-5   2.289386065967847E-5  -5.713042020797730E-1   7.824589014053345E-1  
 1.136400000000000E10   -6.031712889671326E-1   7.768370509147644E-1   3.318600283819251E-5   2.220075657533016E-5   3.374232983333059E-5   2.399636105110403E-5  -5.698809623718262E-1   7.834722995758057E-1  
 1.136440000000000E10   -6.017363071441650E-1   7.779417634010315E-1   3.244600156904198E-5   2.299706648045685E-5   3.304680649307557E-5   2.159160248993430E-5  -5.685833692550659E-1   7.844989895820618E-1  
 1.136480000000000E10   -6.003555059432983E-1   7.790262103080750E-1   3.608280894695781E-5   2.237167427665554E-5   3.194355667801574E-5   2.268827483931091E-5  -5.671750307083130E-1   7.855173349380493E-1  
 1.136520000000000E10   -5.987901687622070E-1   7.802029252052307E-1   3.259293589508161E-5   2.209841659350786E-5   3.432434823480435E-5   2.194642729591578E-5  -5.657956004142761E-1   7.864921689033508E-1  
 1.136560000000000E10   -5.972859263420105E-1   7.813556194305420E-1   3.265595296397805E-5   2.434062116662972E-5   3.457016282482073E-5   2.178477006964386E-5  -5.643806457519531E-1   7.875260114669800E-1  
 1.136600000000000E10   -5.958839058876038E-1   7.824757695198059E-1   3.444711546762846E-5   2.243769631604664E-5   3.444624599069357E-5   2.280968146806117E-5  -5.629132390022278E-1   7.885091900825501E-1  
 1.136640000000000E10   -5.943775773048401E-1   7.835701107978821E-1   3.473549077170901E-5   2.202278483309783E-5   3.287727304268628E-5   2.193434193031862E-5  -5.614876151084900E-1   7.895089983940125E-1  
 1.136680000000000E10   -5.928747057914734E-1   7.847567200660706E-1   3.241293234168552E-5   2.173904795199633E-5   3.482485772110522E-5   2.274978760397062E-5  -5.600639581680298E-1   7.905884385108948E-1  
 1.136720000000000E10   -5.913153886795044E-1   7.859224677085877E-1   3.596729220589623E-5   2.271920129714999E-5   3.501377068459988E-5   2.229274468845688E-5  -5.586923956871033E-1   7.914928793907166E-1  
 1.136760000000000E10   -5.897556543350220E-1   7.870331406593323E-1   3.567467501852661E-5   2.394962393736932E-5   3.577619281713851E-5   2.420624332444277E-5  -5.572931766510010E-1   7.925252914428711E-1  
 1.136800000000000E10   -5.882948637008667E-1   7.881301045417786E-1   3.580068732844666E-5   2.205309283453971E-5   3.656672561191954E-5   2.436774047964718E-5  -5.558232069015503E-1   7.935723662376404E-1  
 1.136840000000000E10   -5.867653489112854E-1   7.893319129943848E-1   3.532605478540063E-5   2.316581958439201E-5   3.538610326359049E-5   2.425652201054618E-5  -5.544074177742004E-1   7.945260405540466E-1  
 1.136880000000000E10   -5.852867364883423E-1   7.904014587402344E-1   3.581575583666563E-5   2.214815503975842E-5   3.527543958625756E-5   2.384224717388861E-5  -5.529953837394714E-1   7.955616712570190E-1  
 1.136920000000000E10   -5.837966799736023E-1   7.915564775466919E-1   3.490917151793838E-5   2.187666541431099E-5   3.543486673152074E-5   2.349339592910837E-5  -5.515103340148926E-1   7.965621352195740E-1  
 1.136960000000000E10   -5.822150111198425E-1   7.926749587059021E-1   3.574429865693674E-5   2.335451790713705E-5   3.534834831953049E-5   2.283443063788582E-5  -5.500150918960571E-1   7.975388765335083E-1  
 1.137000000000000E10   -5.806771516799927E-1   7.937236428260803E-1   3.620497227529995E-5   2.250793659186456E-5   3.547037340467796E-5   2.254333958262578E-5  -5.485553145408630E-1   7.985336780548096E-1  
 1.137040000000000E10   -5.792297720909119E-1   7.949261665344238E-1   3.594278678065166E-5   2.390162626397796E-5   3.575766095309518E-5   2.283495996380225E-5  -5.471217632293701E-1   7.994765639305115E-1  
 1.137080000000000E10   -5.776249766349793E-1   7.961300015449524E-1   3.709343945956789E-5   2.353034324187320E-5   3.626553007052280E-5   2.355665856157430E-5  -5.456206798553467E-1   8.005325794219971E-1  
 1.137120000000000E10   -5.761343240737915E-1   7.972339987754822E-1   3.655018736026250E-5   2.349138776480686E-5   3.707573705469258E-5   2.419289558019955E-5  -5.441936254501343E-1   8.015306591987610E-1  
 1.137160000000000E10   -5.745793581008911E-1   7.983883619308472E-1   3.834794915746898E-5   2.419598422420677E-5   3.908287180820480E-5   2.389800647506490E-5  -5.427742600440979E-1   8.025720715522766E-1  
 1.137200000000000E10   -5.729898214340210E-1   7.994607090950012E-1   3.957802982768044E-5   2.412403409834951E-5   3.754808494704776E-5   2.418226176814642E-5  -5.412667989730835E-1   8.035512566566467E-1  
 1.137240000000000E10   -5.714410543441773E-1   8.007062077522278E-1   3.862707308144309E-5   2.376602424192242E-5   3.844162347377278E-5   2.542696893215179E-5  -5.397861003875732E-1   8.045415878295898E-1  
 1.137280000000000E10   -5.698512792587280E-1   8.018794059753418E-1   4.033116783830337E-5   2.463844793965109E-5   3.726096474565566E-5   2.436502654745709E-5  -5.383109450340271E-1   8.055279254913330E-1  
 1.137320000000000E10   -5.682420134544373E-1   8.029899597167969E-1   3.830293280771002E-5   2.365102591284085E-5   3.958997331210412E-5   2.382697857683525E-5  -5.368264317512512E-1   8.065403699874878E-1  
 1.137360000000000E10   -5.666521787643433E-1   8.041658401489258E-1   4.090210859430954E-5   2.505797783669550E-5   4.001258275820874E-5   2.317383950867225E-5  -5.353259444236755E-1   8.075546026229858E-1  
 1.137400000000000E10   -5.651217699050903E-1   8.052352666854858E-1   3.833951268461533E-5   2.456507718306966E-5   3.827681575785391E-5   2.457596565363929E-5  -5.338339805603027E-1   8.085341453552246E-1  
 1.137440000000000E10   -5.634651184082031E-1   8.064191937446594E-1   3.982580165029503E-5   2.628049151098821E-5   3.861758159473538E-5   2.398575452389196E-5  -5.322734713554382E-1   8.094969987869263E-1  
 1.137480000000000E10   -5.618488788604736E-1   8.074979782104492E-1   3.976864536525682E-5   2.512565697543323E-5   3.945598655263893E-5   2.352677802264225E-5  -5.307926535606384E-1   8.105275630950928E-1  
 1.137520000000000E10   -5.602536201477051E-1   8.086664080619812E-1   4.248577533871867E-5   2.535810563131236E-5   3.999808177468367E-5   2.388683969911654E-5  -5.292528867721558E-1   8.115461468696594E-1  
 1.137560000000000E10   -5.586565136909485E-1   8.098140954971314E-1   4.097110286238603E-5   2.797755769279320E-5   3.994013604824431E-5   2.385353400313761E-5  -5.277240276336670E-1   8.125056028366089E-1  
 1.137600000000000E10   -5.569746494293213E-1   8.109092116355896E-1   4.109963265364058E-5   2.590337862784509E-5   4.126620842725970E-5   2.352492811041884E-5  -5.261526107788086E-1   8.135371208190918E-1  
 1.137640000000000E10   -5.553324818611145E-1   8.119943737983704E-1   4.238274050294422E-5   2.460914583934937E-5   3.968438977608457E-5   2.427184517728165E-5  -5.246512889862061E-1   8.144935369491577E-1  
 1.137680000000000E10   -5.536984801292419E-1   8.131791353225708E-1   3.930975799448788E-5   2.578348539827857E-5   4.187862941762433E-5   2.515754022169858E-5  -5.231282114982605E-1   8.155374526977539E-1  
 1.137720000000000E10   -5.520282983779907E-1   8.143113851547241E-1   4.151766188442707E-5   2.595654768811073E-5   3.891887899953872E-5   2.389776454947423E-5  -5.216078758239746E-1   8.165431618690491E-1  
 1.137760000000000E10   -5.503604412078857E-1   8.154746294021606E-1   4.262317088432610E-5   2.530517849663738E-5   4.090325455763377E-5   2.402886093477719E-5  -5.199855566024780E-1   8.174946904182434E-1  
 1.137800000000000E10   -5.487639307975769E-1   8.165959119796753E-1   4.157104194746353E-5   2.644818596309051E-5   4.159665331826545E-5   2.551616853452288E-5  -5.184111595153809E-1   8.184983134269714E-1  
 1.137840000000000E10   -5.470903515815735E-1   8.177109360694885E-1   4.168568921159022E-5   2.452649641782045E-5   4.034057565149851E-5   2.390452209510841E-5  -5.169039964675903E-1   8.195220828056335E-1  
 1.137880000000000E10   -5.453772544860840E-1   8.188326358795166E-1   4.393148265080527E-5   2.576679980847985E-5   4.161036849836819E-5   2.342582411074545E-5  -5.152787566184998E-1   8.204643130302429E-1  
 1.137920000000000E10   -5.436908602714539E-1   8.199945688247681E-1   4.475691457628273E-5   2.471284824423492E-5   4.245118179824203E-5   2.519195004424546E-5  -5.137215852737427E-1   8.214961290359497E-1  
 1.137960000000000E10   -5.419915318489075E-1   8.210919499397278E-1   4.139199518249370E-5   2.485606455593370E-5   4.305480615585111E-5   2.601167579996400E-5  -5.122019052505493E-1   8.224885463714600E-1  
 1.138000000000000E10   -5.403603911399841E-1   8.222700357437134E-1   4.471253487281501E-5   2.779701026156545E-5   4.211048508295789E-5   2.489411053829826E-5  -5.105842947959900E-1   8.234853744506836E-1  
 1.138040000000000E10   -5.386834144592285E-1   8.233498334884644E-1   4.051761061418802E-5   2.621643398015294E-5   4.264714880264364E-5   2.597559796413407E-5  -5.089945197105408E-1   8.244659900665283E-1  
 1.138080000000000E10   -5.369033813476563E-1   8.244330883026123E-1   4.254487066646107E-5   2.638367368490435E-5   4.433661888469942E-5   2.525038144085556E-5  -5.073460340499878E-1   8.254511356353760E-1  
 1.138120000000000E10   -5.352454781532288E-1   8.256110548973084E-1   4.345167690189555E-5   2.497518471500371E-5   4.496490146266297E-5   2.600808511488140E-5  -5.057798624038696E-1   8.264416456222534E-1  
