#  HZ   S   RI   R     50.00 
! Rohde & Schwarz ZVA50 2Ports - Version 3.70 - 1145.1110k50 SN: 100192
! Date: 2025-08-07 12:45:22
! Measurements: S11 S21 S12 S22 
! 
 1.134400000000000E10   -6.722496151924133E-1   7.186965346336365E-1   2.580829823273234E-5   1.795358366507571E-5   2.656023207237013E-5   2.210123966506217E-5  -6.307104825973511E-1   7.309718132019043E-1  
 1.134440000000000E10   -6.711192131042481E-1   7.200061082839966E-1   1.931402584887110E-5   1.537229218229186E-5   2.420716191409156E-5   2.248581949970685E-5  -6.296191215515137E-1   7.320546507835388E-1  
 1.134480000000000E10   -6.697916388511658E-1   7.210882902145386E-1   2.597321690700483E-5   1.589842031535227E-5   2.735839552769903E-5   2.011873766605277E-5  -6.284589767456055E-1   7.329723238945007E-1  
 1.134520000000000E10   -6.686392426490784E-1   7.221279144287109E-1   2.968492117361166E-5   2.320966086699627E-5   2.429669621051289E-5   2.283405410707928E-5  -6.272207498550415E-1   7.340191006660461E-1  
 1.134560000000000E10   -6.675188541412354E-1   7.234302163124085E-1   2.454779496474657E-5   1.832298949011602E-5   2.383692844887264E-5   2.107440195686650E-5  -6.261417865753174E-1   7.350519895553589E-1  
 1.134600000000000E10   -6.661074757575989E-1   7.245647907257080E-1   2.517034226912074E-5   2.091172427753918E-5   2.141495497198775E-5   2.050479452009313E-5  -6.247337460517883E-1   7.359960079193115E-1  
 1.134640000000000E10   -6.648713946342468E-1   7.257004380226135E-1   2.598335049697198E-5   1.806308682716917E-5   2.387874155829195E-5   2.142114681191742E-5  -6.237071752548218E-1   7.370912432670593E-1  
 1.134680000000000E10   -6.636550426483154E-1   7.268167138099670E-1   2.452702392474748E-5   1.615829751244746E-5   2.471629704814404E-5   1.797765253286343E-5  -6.224309802055359E-1   7.381050586700440E-1  
 1.134720000000000E10   -6.631758213043213E-1   7.282083034515381E-1   2.488754944351967E-5   2.571542245277669E-5   2.638696241774596E-5   1.970776065718383E-5  -6.212632656097412E-1   7.389975190162659E-1  
 1.134760000000000E10   -6.617397665977478E-1   7.292690277099609E-1   1.613890708540566E-5   2.214683445345145E-5   2.433086410746910E-5   2.422830220893957E-5  -6.201093792915344E-1   7.400198578834534E-1  
 1.134800000000000E10   -6.605211496353149E-1   7.306462526321411E-1   1.934777537826449E-5   2.123158446920570E-5   2.601951200631447E-5   1.794262971088756E-5  -6.192115545272827E-1   7.410758137702942E-1  
 1.134840000000000E10   -6.591316461563110E-1   7.318660020828247E-1   3.021359952981584E-5   1.570711174281314E-5   2.337192199775018E-5   2.056392622762360E-5  -6.180641651153565E-1   7.422873377799988E-1  
 1.134880000000000E10   -6.580009460449219E-1   7.329984307289124E-1   3.303842822788283E-5   2.457961454638280E-5   2.494737964298111E-5   2.205598138971254E-5  -6.168233156204224E-1   7.432147264480591E-1  
 1.134920000000000E10   -6.566788554191589E-1   7.342091798782349E-1   2.289064104843419E-5   2.103651968354825E-5   2.504591793694999E-5   1.580285425006878E-5  -6.156241893768311E-1   7.442607283592224E-1  
 1.134960000000000E10   -6.553471088409424E-1   7.352505922317505E-1   2.629843947943300E-5   1.954255094460677E-5   2.446938924549613E-5   1.937748493219260E-5  -6.143940687179565E-1   7.452214360237122E-1  
 1.135000000000000E10   -6.539266705513001E-1   7.364675402641296E-1   3.184059823979624E-5   2.069126821879763E-5   1.897253423521761E-5   2.318110819032881E-5  -6.130961775779724E-1   7.462630867958069E-1  
 1.135040000000000E10   -6.527822613716126E-1   7.377933859825134E-1   2.990176108141895E-5   2.224919080617838E-5   3.041446507268120E-5   2.251257683383301E-5  -6.119647026062012E-1   7.472409605979919E-1  
 1.135080000000000E10   -6.514961123466492E-1   7.388052344322205E-1   2.584379035397433E-5   1.622927629796322E-5   3.053700129385106E-5   2.191287603636738E-5  -6.107003688812256E-1   7.483285069465637E-1  
 1.135120000000000E10   -6.501420736312866E-1   7.399367094039917E-1   2.993336056533735E-5   2.075868542306125E-5   2.619853876240086E-5   2.347637200728059E-5  -6.095718741416931E-1   7.492446899414063E-1  
 1.135160000000000E10   -6.488510370254517E-1   7.411417961120606E-1   3.538217060850002E-5   1.957113818207290E-5   2.964149098261260E-5   1.898959817481227E-5  -6.081587076187134E-1   7.503476738929749E-1  
 1.135200000000000E10   -6.475253105163574E-1   7.421417236328125E-1   2.498085086699575E-5   2.072219649562612E-5   2.393364411545917E-5   2.023627348535229E-5  -6.070004701614380E-1   7.513885498046875E-1  
 1.135240000000000E10   -6.462958455085754E-1   7.434194087982178E-1   2.543298251111992E-5   2.515962660254445E-5   2.744980884017423E-5   1.929066820594017E-5  -6.056463122367859E-1   7.523670196533203E-1  
 1.135280000000000E10   -6.450081467628479E-1   7.445856332778931E-1   3.542059130268171E-5   2.409793523838744E-5   2.432497421978042E-5   2.643306470417883E-5  -6.043739914894104E-1   7.533785104751587E-1  
 1.135320000000000E10   -6.436979770660400E-1   7.456482648849487E-1   3.111992191406898E-5   2.212974868598394E-5   2.660524660313968E-5   2.059465441561770E-5  -6.031816005706787E-1   7.544397711753845E-1  
 1.135360000000000E10   -6.424074172973633E-1   7.468429207801819E-1   2.911781302827876E-5   2.046928784693591E-5   2.784363277896773E-5   2.543554910516832E-5  -6.019255518913269E-1   7.553846836090088E-1  
 1.135400000000000E10   -6.409637928009033E-1   7.479976415634155E-1   2.971963294839952E-5   2.104285340465140E-5   2.582856723165605E-5   2.485527329554316E-5  -6.006576418876648E-1   7.563390135765076E-1  
 1.135440000000000E10   -6.396213173866272E-1   7.491636276245117E-1   3.298973024357110E-5   2.214603773609269E-5   3.592875509639271E-5   2.491520172043238E-5  -5.992554426193237E-1   7.574468851089478E-1  
 1.135480000000000E10   -6.382524371147156E-1   7.503907084465027E-1   2.688620952540077E-5   2.097190190397669E-5   2.871399374271277E-5   2.225530442956369E-5  -5.979923605918884E-1   7.584530711174011E-1  
 1.135520000000000E10   -6.368128061294556E-1   7.515938282012940E-1   3.163555811624974E-5   2.510817103029694E-5   2.923356078099459E-5   2.125989885826130E-5  -5.969383716583252E-1   7.594100832939148E-1  
 1.135560000000000E10   -6.355199217796326E-1   7.527706623077393E-1   2.753177432168741E-5   2.252518970635720E-5   2.613209471746814E-5   2.296118509548251E-5  -5.955512523651123E-1   7.603357434272766E-1  
 1.135600000000000E10   -6.341815590858460E-1   7.538832426071167E-1   2.887201662815642E-5   2.015388781728689E-5   3.062428731936961E-5   2.193585896748118E-5  -5.942696332931519E-1   7.614941000938416E-1  
 1.135640000000000E10   -6.327956914901733E-1   7.550527453422546E-1   2.540521199989598E-5   2.656479409779422E-5   2.930671143985819E-5   2.045934525085613E-5  -5.928981304168701E-1   7.623959183692932E-1  
 1.135680000000000E10   -6.315218806266785E-1   7.560242414474487E-1   2.796136504912283E-5   2.285728078277316E-5   3.031457345059607E-5   2.375048279645853E-5  -5.916909575462341E-1   7.634086608886719E-1  
 1.135720000000000E10   -6.301569938659668E-1   7.573195695877075E-1   2.560537541285157E-5   2.530488382035401E-5   3.136336817988195E-5   2.022930675593671E-5  -5.904333591461182E-1   7.646088004112244E-1  
 1.135760000000000E10   -6.287482976913452E-1   7.584404349327087E-1   3.735606151167303E-5   2.282280183862895E-5   3.105682844761759E-5   2.401916935923509E-5  -5.889471173286438E-1   7.655627131462097E-1  
 1.135800000000000E10   -6.272797584533691E-1   7.596343159675598E-1   3.146499875583686E-5   2.232023507531267E-5   2.774407221295405E-5   2.233423037978355E-5  -5.876289010047913E-1   7.665289044380188E-1  
 1.135840000000000E10   -6.259844303131104E-1   7.606629729270935E-1   2.583650348242372E-5   2.363699240959249E-5   3.091052349191159E-5   2.032182601396926E-5  -5.864410996437073E-1   7.675123810768127E-1  
 1.135880000000000E10   -6.245334744453430E-1   7.620419859886169E-1   3.075442509725690E-5   1.967645221157000E-5   2.916396988439374E-5   2.314411176485010E-5  -5.850154161453247E-1   7.685144543647766E-1  
 1.135920000000000E10   -6.230826973915100E-1   7.631049752235413E-1   3.205052416888066E-5   2.137291085091420E-5   2.927364039351232E-5   1.904014970932622E-5  -5.836995244026184E-1   7.695569396018982E-1  
 1.135960000000000E10   -6.217609047889710E-1   7.642852663993835E-1   2.852203033398837E-5   2.176339148718398E-5   3.396326792426407E-5   2.088462679239456E-5  -5.823214650154114E-1   7.706667780876160E-1  
 1.136000000000000E10   -6.202744245529175E-1   7.652939558029175E-1   3.482274769339711E-5   2.415456037851982E-5   3.059661685256288E-5   2.479417889844626E-5  -5.810816287994385E-1   7.715769410133362E-1  
 1.136040000000000E10   -6.190417408943176E-1   7.665866613388062E-1   2.621512066980358E-5   2.048192436632235E-5   3.153703073621728E-5   2.256381594634149E-5  -5.797353982925415E-1   7.724702358245850E-1  
 1.136080000000000E10   -6.174749135971069E-1   7.678145766258240E-1   3.431534059927799E-5   2.641018727445044E-5   2.704710095713381E-5   2.013005723711103E-5  -5.784008502960205E-1   7.735581994056702E-1  
 1.136120000000000E10   -6.160892248153687E-1   7.688561081886292E-1   3.491255483822897E-5   2.066605702566449E-5   2.880030660890043E-5   2.484345350239892E-5  -5.769608616828919E-1   7.745169401168823E-1  
 1.136160000000000E10   -6.145691275596619E-1   7.699807286262512E-1   2.689943357836455E-5   1.801112193788867E-5   3.132781785097905E-5   1.990884447877761E-5  -5.756799578666687E-1   7.756767272949219E-1  
 1.136200000000000E10   -6.130987405776978E-1   7.711221575737000E-1   2.992190093209501E-5   1.895733294077218E-5   3.238863791921176E-5   2.333160955458880E-5  -5.744269490242004E-1   7.766098380088806E-1  
 1.136240000000000E10   -6.116021275520325E-1   7.723175883293152E-1   2.914060678449459E-5   2.141179902537260E-5   3.611552892834880E-5   2.511810271244030E-5  -5.729579329490662E-1   7.776010036468506E-1  
 1.136280000000000E10   -6.102955937385559E-1   7.733079791069031E-1   2.850047167157754E-5   1.985360358958133E-5   4.086036642547697E-5   2.113413211191073E-5  -5.716136693954468E-1   7.785403132438660E-1  
 1.136320000000000E10   -6.087528467178345E-1   7.747315764427185E-1   3.089978054049425E-5   1.889224404294509E-5   3.669919169624336E-5   2.019857311097439E-5  -5.702545642852783E-1   7.795924544334412E-1  
 1.136360000000000E10   -6.073331832885742E-1   7.758987545967102E-1   3.243975515943021E-5   1.809321474866010E-5   2.873967241612263E-5   2.387912536505610E-5  -5.688565969467163E-1   7.806316018104553E-1  
 1.136400000000000E10   -6.059043407440186E-1   7.769331336021423E-1   2.964695886475965E-5   1.695241371635348E-5   2.821783527906518E-5   1.901716677821241E-5  -5.674818158149719E-1   7.816203832626343E-1  
 1.136440000000000E10   -6.044151782989502E-1   7.781846523284912E-1   2.950370435428340E-5   2.051111005130224E-5   3.346301309647970E-5   2.225403659394942E-5  -5.661326050758362E-1   7.826448678970337E-1  
 1.136480000000000E10   -6.029093861579895E-1   7.791840434074402E-1   3.155227750539780E-5   2.053868411167059E-5   2.866155591618735E-5   2.061235682049301E-5  -5.647718310356140E-1   7.836608290672302E-1  
 1.136520000000000E10   -6.013866066932678E-1   7.805054187774658E-1   3.413207014091313E-5   1.986112511076499E-5   3.715647108037956E-5   2.007983493967913E-5  -5.632868409156799E-1   7.847608327865601E-1  
 1.136560000000000E10   -6.000121831893921E-1   7.816666960716248E-1   3.387438482604921E-5   2.258995482407045E-5   3.270696106483229E-5   2.363648127357010E-5  -5.620059370994568E-1   7.855461239814758E-1  
 1.136600000000000E10   -5.984534025192261E-1   7.827084064483643E-1   3.265916166128591E-5   1.864559999376070E-5   3.438453131821007E-5   2.022864100581501E-5  -5.605186223983765E-1   7.865934967994690E-1  
 1.136640000000000E10   -5.970540642738342E-1   7.838491797447205E-1   3.066114732064307E-5   2.490077349648345E-5   3.309643579996191E-5   2.266822048113681E-5  -5.591486096382141E-1   7.875981330871582E-1  
 1.136680000000000E10   -5.955015420913696E-1   7.850323319435120E-1   3.498226942610927E-5   2.602574204502162E-5   3.984357317676768E-5   2.154916364816017E-5  -5.576471686363220E-1   7.885777950286865E-1  
 1.136720000000000E10   -5.939096808433533E-1   7.861700057983398E-1   2.833620237652212E-5   2.201824099756777E-5   3.515567368594930E-5   2.812951061059721E-5  -5.563029646873474E-1   7.897676229476929E-1  
 1.136760000000000E10   -5.925269722938538E-1   7.872811555862427E-1   3.322389238746837E-5   2.787787525448948E-5   3.228924470022321E-5   2.351143848500215E-5  -5.549694299697876E-1   7.905580401420593E-1  
 1.136800000000000E10   -5.908938050270081E-1   7.883964776992798E-1   3.717498475452885E-5   2.567444244050421E-5   3.651692168205045E-5   1.708960189716891E-5  -5.534409880638123E-1   7.917021512985230E-1  
 1.136840000000000E10   -5.893539190292358E-1   7.895198464393616E-1   3.338817623443902E-5   1.950876503542531E-5   3.388268305570819E-5   2.087416760332417E-5  -5.519494414329529E-1   7.926211357116699E-1  
 1.136880000000000E10   -5.879199504852295E-1   7.906218767166138E-1   3.465482586761937E-5   2.387013955740258E-5   3.438374187680893E-5   1.971853453142103E-5  -5.505895614624023E-1   7.937507033348084E-1  
 1.136920000000000E10   -5.864399671554565E-1   7.917974591255188E-1   3.588393883546814E-5   2.621291605464649E-5   3.258433207520284E-5   2.028213566518389E-5  -5.490888953208923E-1   7.947275638580322E-1  
 1.136960000000000E10   -5.848882794380188E-1   7.929379940032959E-1   3.528163870214485E-5   2.739502087933943E-5   4.054810415254906E-5   2.540285277063958E-5  -5.477005839347839E-1   7.955908179283142E-1  
 1.137000000000000E10   -5.834120512008667E-1   7.940574288368225E-1   3.421827568672597E-5   2.746860809565987E-5   4.014050136902370E-5   2.357094854232855E-5  -5.461706519126892E-1   7.966424226760864E-1  
 1.137040000000000E10   -5.819581747055054E-1   7.953721880912781E-1   3.355610169819556E-5   2.437010880385060E-5   3.929097874788567E-5   1.977517058548983E-5  -5.447111725807190E-1   7.975729107856751E-1  
 1.137080000000000E10   -5.804258584976196E-1   7.964342832565308E-1   3.135009319521487E-5   1.992108809645288E-5   3.796080272877589E-5   2.474026950949337E-5  -5.432785749435425E-1   7.987964153289795E-1  
 1.137120000000000E10   -5.788247585296631E-1   7.976472377777100E-1   4.025838643428870E-5   2.333440170332324E-5   4.087741035618819E-5   2.152425622625742E-5  -5.418244004249573E-1   7.997028827667236E-1  
 1.137160000000000E10   -5.772737264633179E-1   7.987895011901856E-1   3.591099812183529E-5   1.989013799175154E-5   3.955842112191021E-5   2.545312054280657E-5  -5.405974388122559E-1   8.006369471549988E-1  
 1.137200000000000E10   -5.754958987236023E-1   7.999837994575501E-1   3.653825478977524E-5   2.502715506125242E-5   4.017140236101113E-5   2.532936559873633E-5  -5.389677286148071E-1   8.017419576644898E-1  
 1.137240000000000E10   -5.741637349128723E-1   8.009677529335022E-1   3.999067121185362E-5   2.702070378290955E-5   3.956908039981499E-5   2.424494959996082E-5  -5.374520421028137E-1   8.026250004768372E-1  
 1.137280000000000E10   -5.725728273391724E-1   8.021810054779053E-1   4.263845767127350E-5   3.016621667484287E-5   3.856205148622394E-5   2.538085209380370E-5  -5.360206365585327E-1   8.036246895790100E-1  
 1.137320000000000E10   -5.707976222038269E-1   8.031811714172363E-1   4.084936881554313E-5   2.353229319851380E-5   4.148693551542237E-5   2.647088513185736E-5  -5.345301628112793E-1   8.047150373458862E-1  
 1.137360000000000E10   -5.692846775054932E-1   8.044982552528381E-1   4.481027281144634E-5   2.625300476211123E-5   3.819817356998101E-5   2.353533272980712E-5  -5.329306125640869E-1   8.055608868598938E-1  
 1.137400000000000E10   -5.677786469459534E-1   8.054054975509644E-1   3.844617094728164E-5   2.270907862111926E-5   3.512736293487251E-5   2.411057721474208E-5  -5.316374897956848E-1   8.065836429595947E-1  
 1.137440000000000E10   -5.661317110061646E-1   8.067367076873779E-1   3.839391865767539E-5   2.136398688890040E-5   4.038075348944403E-5   2.166126432712190E-5  -5.300388932228088E-1   8.075922727584839E-1  
 1.137480000000000E10   -5.644095540046692E-1   8.078213930130005E-1   4.244863521307707E-5   2.740716445259750E-5   3.683672184706666E-5   2.543290793255437E-5  -5.285701751708984E-1   8.087498545646668E-1  
 1.137520000000000E10   -5.629842281341553E-1   8.091347217559815E-1   3.654275496955961E-5   2.181935633416288E-5   3.950308382627554E-5   2.230772588518448E-5  -5.271108150482178E-1   8.097481727600098E-1  
 1.137560000000000E10   -5.612801313400269E-1   8.101816177368164E-1   3.486545392661355E-5   3.245635889470577E-5   3.596334499889053E-5   2.581886474217754E-5  -5.254354476928711E-1   8.106372356414795E-1  
 1.137600000000000E10   -5.596187114715576E-1   8.114579319953919E-1   4.099619036423974E-5   2.755432251433376E-5   3.797739918809384E-5   2.469828905304894E-5  -5.240608453750610E-1   8.115900754928589E-1  
 1.137640000000000E10   -5.581045746803284E-1   8.124717473983765E-1   4.262852235115133E-5   1.768261063261889E-5   3.943885167245753E-5   2.361671613471117E-5  -5.223377346992493E-1   8.125672936439514E-1  
 1.137680000000000E10   -5.562567710876465E-1   8.135515451431274E-1   4.001617708127014E-5   2.571053119027056E-5   3.784834916586988E-5   2.506163400539663E-5  -5.209136009216309E-1   8.136931657791138E-1  
 1.137720000000000E10   -5.546246767044067E-1   8.146016597747803E-1   3.426711919018999E-5   2.718866380746476E-5   4.324721521697938E-5   2.913052594522014E-5  -5.193879604339600E-1   8.145477175712585E-1  
 1.137760000000000E10   -5.530265569686890E-1   8.158212900161743E-1   3.849410495604388E-5   2.406320163572673E-5   3.828783883363940E-5   2.850534838216845E-5  -5.177884697914124E-1   8.155112266540527E-1  
 1.137800000000000E10   -5.514471530914307E-1   8.169559836387634E-1   4.078670463059098E-5   2.035191027971450E-5   4.232444553053938E-5   2.617766222101636E-5  -5.161750316619873E-1   8.165729045867920E-1  
 1.137840000000000E10   -5.497606992721558E-1   8.181526660919190E-1   4.368304871604778E-5   2.426032915536780E-5   4.065441680722870E-5   2.426315586490091E-5  -5.148429870605469E-1   8.174972534179688E-1  
 1.137880000000000E10   -5.479069352149963E-1   8.192653059959412E-1   4.249162157066166E-5   2.756661342573352E-5   4.519273352343589E-5   1.740896186674945E-5  -5.131096839904785E-1   8.185277581214905E-1  
 1.137920000000000E10   -5.464209318161011E-1   8.205003142356873E-1   4.029106275993399E-5   2.791818587866146E-5   4.296945917303674E-5   2.115895404131152E-5  -5.115984678268433E-1   8.194143772125244E-1  
 1.137960000000000E10   -5.447524785995483E-1   8.215529322624207E-1   4.133197944611311E-5   2.509549449314363E-5   3.985415241913870E-5   2.164605939469766E-5  -5.099840760231018E-1   8.205680847167969E-1  
 1.138000000000000E10   -5.430657863616943E-1   8.226980566978455E-1   4.714893293567002E-5   2.548900192778092E-5   4.320801235735416E-5   2.500755545042921E-5  -5.083749294281006E-1   8.215231895446777E-1  
 1.138040000000000E10   -5.413134098052979E-1   8.237217664718628E-1   4.173694833298214E-5   2.510121521481779E-5   3.933761036023498E-5   2.709782347665168E-5  -5.066931247711182E-1   8.225166797637940E-1  
 1.138080000000000E10   -5.395224094390869E-1   8.249469995498657E-1   4.287784031475894E-5   2.509555451979395E-5   4.671757415053435E-5   2.448302075208630E-5  -5.052640438079834E-1   8.235766887664795E-1  
 1.138120000000000E10   -5.379373431205750E-1   8.260365724563599E-1   4.228817124385387E-5   2.456050788168795E-5   4.289139178581536E-5   2.661492544575594E-5  -5.035825967788696E-1   8.246713876724243E-1  
