! Created with skrf (http://scikit-rf.org).
! Parameters = {f0=29040; bw=584; Q=3500; N=8; m_0_1=1.0246593952178955; m_1_1=-0.0007841861806809902; m_1_2=0.8466901779174805; m_2_2=-0.0008495922666043043; m_2_3=0.5948315858840942; m_3_3=-0.0009855363750830293; m_3_4=0.5148510336875916; m_3_5=-0.027670564129948616; m_3_6=-0.19362948834896088; m_4_4=0.055688221007585526; m_4_5=0.7222608923912048; m_5_5=-0.021947314962744713; m_5_6=0.5155940651893616; m_6_6=-0.0009855363750830293; m_6_7=0.5948315858840942; m_7_7=-0.0008495922666043043; m_7_8=0.8466901779174805; m_8_8=-0.0007841861806809902; m_8_9=1.0246593952178955}
# MHz S RI R 50.0 
!freq ReS11 ImS11 ReS21 ImS21 ReS12 ImS12 ReS22 ImS22
28000.0 -0.784712717543929 0.615357313245413 5.81252072820058e-05 7.05693386760768e-05 5.81252072820058e-05 7.05693386760768e-05 -0.784712717543929 0.615357313245413
28002.1 -0.783798449717226 0.616500843970559 5.89706507354533e-05 7.13745521852344e-05 5.89706507354533e-05 7.13745521852344e-05 -0.783798449717226 0.616500843970559
28004.2 -0.78287836297706 0.61764813598274 5.98300873811514e-05 7.21901275201513e-05 5.98300873811514e-05 7.21901275201513e-05 -0.78287836297706 0.61764813598274
28006.3 -0.781952407544696 0.618799203927947 6.07037768768251e-05 7.30162101815127e-05 6.07037768768251e-05 7.30162101815127e-05 -0.781952407544696 0.618799203927947
28008.4 -0.78102053310431 0.61995406247106 6.15919842154666e-05 7.38529478062668e-05 6.15919842154666e-05 7.38529478062668e-05 -0.78102053310431 0.61995406247106
28010.5 -0.780082688795963 0.621112726294568 6.2494979845453e-05 7.47004901979497e-05 6.2494979845453e-05 7.47004901979497e-05 -0.780082688795963 0.621112726294568
28012.6 -0.779138823208488 0.622275210097219 6.34130397935751e-05 7.55589893573118e-05 6.34130397935751e-05 7.55589893573118e-05 -0.779138823208488 0.622275210097219
28014.7 -0.778188884372255 0.623441528592643 6.43464457910974e-05 7.64285995132802e-05 6.43464457910974e-05 7.64285995132802e-05 -0.778188884372255 0.623441528592643
28016.8 -0.777232819751835 0.624611696507917 6.52954854028888e-05 7.73094771542199e-05 6.52954854028888e-05 7.73094771542199e-05 -0.777232819751835 0.624611696507917
28018.9 -0.776270576238543 0.6257857285821 6.62604521597466e-05 7.82017810595276e-05 6.62604521597466e-05 7.82017810595276e-05 -0.776270576238543 0.6257857285821
28021.0 -0.775302100142864 0.626963639564711 6.7241645693961e-05 7.91056723315195e-05 6.7241645693961e-05 7.91056723315195e-05 -0.775302100142864 0.626963639564711
28023.1 -0.774327337186773 0.628145444214156 6.82393718782249e-05 8.00213144276272e-05 6.82393718782249e-05 8.00213144276272e-05 -0.774327337186773 0.628145444214156
28025.2 -0.773346232495924 0.629331157296109 6.92539429679772e-05 8.09488731928959e-05 6.92539429679772e-05 8.09488731928959e-05 -0.773346232495924 0.629331157296109
28027.3 -0.772358730591715 0.630520793581859 7.02856777472741e-05 8.18885168927828e-05 7.02856777472741e-05 8.18885168927828e-05 -0.772358730591715 0.630520793581859
28029.4 -0.771364775383251 0.631714367846566 7.13349016782552e-05 8.2840416246225e-05 7.13349016782552e-05 8.2840416246225e-05 -0.771364775383251 0.631714367846566
28031.5 -0.770364310159149 0.632911894867501 7.24019470543432e-05 8.38047444590093e-05 7.24019470543432e-05 8.38047444590093e-05 -0.770364310159149 0.632911894867501
28033.6 -0.769357277579238 0.634113389422217 7.34871531572501e-05 8.47816772574131e-05 7.34871531572501e-05 8.47816772574131e-05 -0.769357277579238 0.634113389422217
28035.7 -0.768343619666127 0.635318866286647 7.4590866417875e-05 8.57713929220942e-05 7.4590866417875e-05 8.57713929220942e-05 -0.768343619666127 0.635318866286647
28037.8 -0.767323277796618 0.636528340233185 7.5713440581258e-05 8.6774072322272e-05 7.5713440581258e-05 8.6774072322272e-05 -0.767323277796618 0.636528340233185
28039.9 -0.766296192693022 0.637741826028652 7.6855236875617e-05 8.7789898950123e-05 7.6855236875617e-05 8.7789898950123e-05 -0.766296192693022 0.637741826028652
28042.0 -0.765262304414289 0.638959338432259 7.80166241856592e-05 8.88190589554487e-05 7.80166241856592e-05 8.88190589554487e-05 -0.765262304414289 0.638959338432259
28044.1 -0.764221552347049 0.640180892193453 7.91979792302055e-05 8.98617411805399e-05 7.91979792302055e-05 8.98617411805399e-05 -0.764221552347049 0.640180892193453
28046.2 -0.763173875196465 0.641406502049741 8.03996867443162e-05 9.0918137195289e-05 8.03996867443162e-05 9.0918137195289e-05 -0.763173875196465 0.641406502049741
28048.3 -0.762119210976971 0.642636182724419 8.16221396659802e-05 9.19884413324851e-05 8.16221396659802e-05 9.19884413324851e-05 -0.762119210976971 0.642636182724419
28050.4 -0.761057497002844 0.643869948924255 8.28657393275319e-05 9.30728507233152e-05 8.28657393275319e-05 9.30728507233152e-05 -0.761057497002844 0.643869948924255
28052.5 -0.75998866987864 0.645107815337072 8.41308956518862e-05 9.41715653330232e-05 8.41308956518862e-05 9.41715653330232e-05 -0.75998866987864 0.645107815337072
28054.6 -0.758912665489454 0.646349796629299 8.54180273537803e-05 9.52847879967634e-05 8.54180273537803e-05 9.52847879967634e-05 -0.758912665489454 0.646349796629299
28056.7 -0.757829418991055 0.647595907443406 8.67275621460782e-05 9.641272445556e-05 8.67275621460782e-05 9.641272445556e-05 -0.757829418991055 0.647595907443406
28058.8 -0.756738864799827 0.648846162395297 8.80599369513597e-05 9.75555833924306e-05 8.80599369513597e-05 9.75555833924306e-05 -0.756738864799827 0.648846162395297
28060.9 -0.755640936582577 0.650100576071603 8.94155981188648e-05 9.871357646859e-05 8.94155981188648e-05 9.871357646859e-05 -0.755640936582577 0.650100576071603
28063.0 -0.754535567246156 0.651359163026904 9.07950016469987e-05 9.98869183597646e-05 9.07950016469987e-05 9.98869183597646e-05 -0.754535567246156 0.651359163026904
28065.1 -0.753422688926928 0.652621937780864 9.2198613411503e-05 0.000101075826792558 9.2198613411503e-05 0.000101075826792558 -0.753422688926928 0.652621937780864
28067.2 -0.752302232980053 0.653888914815292 9.36269093994883e-05 0.000102280522580879 9.36269093994883e-05 0.000102280522580879 -0.752302232980053 0.653888914815292
28069.3 -0.751174129968607 0.655160108571093 9.50803759494518e-05 0.000103501229662372 9.50803759494518e-05 0.000103501229662372 -0.751174129968607 0.655160108571093
28071.4 -0.750038309652513 0.656435533445156 9.65595099974745e-05 0.000104738175134857 9.65595099974745e-05 0.000104738175134857 -0.750038309652513 0.656435533445156
28073.5 -0.748894700977308 0.657715203787132 9.80648193297481e-05 0.00010599158929273 9.80648193297481e-05 0.00010599158929273 -0.748894700977308 0.657715203787132
28075.6 -0.747743232062693 0.658999133896126 9.95968228416288e-05 0.00010726170566331 9.95968228416288e-05 0.00010726170566331 -0.747743232062693 0.658999133896126
28077.7 -0.746583830190935 0.66028733801728 0.000101156050803357 0.000108548761043085 0.000101156050803357 0.000108548761043085 -0.746583830190935 0.66028733801728
28079.8 -0.745416421795045 0.661579830338279 0.000102743045132685 0.000109852995533841 0.000102743045132685 0.000109852995533841 -0.745416421795045 0.661579830338279
28081.9 -0.744240932446782 0.662876624985722 0.000104358359674541 0.000111174652578627 0.000104358359674541 0.000111174652578627 -0.744240932446782 0.662876624985722
28084.0 -0.743057286844431 0.664177736021423 0.000106002560487998 0.000112513978997538 0.000106002560487998 0.000112513978997538 -0.743057286844431 0.664177736021423
28086.1 -0.741865408800414 0.665483177438569 0.000107676226140659 0.000113871225023244 0.000107676226140659 0.000113871225023244 -0.741865408800414 0.665483177438569
28088.2 -0.740665221228663 0.666792963157796 0.00010937994801076 0.000115246644336261 0.00010937994801076 0.000115246644336261 -0.740665221228663 0.666792963157796
28090.3 -0.739456646131798 0.668107107023126 0.000111114330597131 0.000116640494099898 0.000111114330597131 0.000116640494099898 -0.739456646131798 0.668107107023126
28092.4 -0.73823960458808 0.669425622797813 0.000112879991837295 0.000118053034994848 0.000112879991837295 0.000118053034994848 -0.73823960458808 0.669425622797813
28094.5 -0.737014016738162 0.670748524160032 0.000114677563433859 0.000119484531253348 0.000114677563433859 0.000119484531253348 -0.737014016738162 0.670748524160032
28096.6 -0.735779801771595 0.672075824698475 0.000116507691189522 0.0001209352506929 0.000116507691189522 0.0001209352506929 -0.735779801771595 0.672075824698475
28098.7 -0.734536877913118 0.673407537907812 0.000118371035350859 0.000122405464749467 0.000118371035350859 0.000122405464749467 -0.734536877913118 0.673407537907812
28100.8 -0.733285162408719 0.674743677184002 0.000120268270961169 0.000123895448510084 0.000120268270961169 0.000123895448510084 -0.733285162408719 0.674743677184002
28102.9 -0.732024571511451 0.676084255819493 0.000122200088222647 0.00012540548074486 0.000122200088222647 0.00012540548074486 -0.732024571511451 0.676084255819493
28105.0 -0.730755020467008 0.67742928699827 0.000124167192868118 0.000126935843938263 0.000124167192868118 0.000126935843938263 -0.730755020467008 0.67742928699827
28107.1 -0.72947642349907 0.678778783790754 0.000126170306542606 0.000128486824319643 0.000126170306542606 0.000128486824319643 -0.72947642349907 0.678778783790754
28109.2 -0.728188693794366 0.680132759148574 0.000128210167195058 0.00013005871189295 0.000128210167195058 0.00013005871189295 -0.728188693794366 0.680132759148574
28111.3 -0.726891743487514 0.681491225899168 0.000130287529480443 0.000131651800465502 0.000130287529480443 0.000131651800465502 -0.726891743487514 0.681491225899168
28113.4 -0.725585483645584 0.682854196740236 0.000132403165172574 0.000133266387675803 0.000132403165172574 0.000133266387675803 -0.725585483645584 0.682854196740236
28115.5 -0.724269824252396 0.684221684234029 0.000134557863587933 0.000134902775020277 0.000134557863587933 0.000134902775020277 -0.724269824252396 0.684221684234029
28117.6 -0.722944674192548 0.685593700801489 0.000136752432020822 0.000136561267878858 0.000136752432020822 0.000136561267878858 -0.722944674192548 0.685593700801489
28119.7 -0.721609941235172 0.686970258716192 0.000138987696190147 0.000138242175539319 0.000138987696190147 0.000138242175539319 -0.721609941235172 0.686970258716192
28121.8 -0.720265532017396 0.68835137009815 0.000141264500698205 0.000139945811220295 0.000141264500698205 0.000139945811220295 -0.720265532017396 0.68835137009815
28123.9 -0.718911352027541 0.689737046907392 0.000143583709501738 0.000141672492092814 0.000143583709501738 0.000141672492092814 -0.718911352027541 0.689737046907392
28126.0 -0.717547305587998 0.691127300937414 0.000145946206395723 0.000143422539300336 0.000145946206395723 0.000143422539300336 -0.717547305587998 0.691127300937414
28128.1 -0.716173295837826 0.692522143808383 0.000148352895510135 0.000145196277977089 0.000148352895510135 0.000145196277977089 -0.716173295837826 0.692522143808383
28130.2 -0.714789224715034 0.693921586960193 0.000150804701820162 0.000146994037264662 0.000150804701820162 0.000146994037264662 -0.714789224715034 0.693921586960193
28132.3 -0.713394992938554 0.695325641645298 0.000153302571670192 0.000148816150326677 0.000153302571670192 0.000148816150326677 -0.713394992938554 0.695325641645298
28134.4 -0.711990499989908 0.696734318921326 0.000155847473311971 0.000150662954361436 0.000155847473311971 0.000150662954361436 -0.711990499989908 0.696734318921326
28136.5 -0.710575644094525 0.698147629643518 0.000158440397457414 0.000152534790612423 0.000158440397457414 0.000152534790612423 -0.710575644094525 0.698147629643518
28138.6 -0.709150322202762 0.69956558445691 0.00016108235784636 0.00015443200437646 0.00016108235784636 0.00015443200437646 -0.709150322202762 0.69956558445691
28140.7 -0.707714429970552 0.700988193788316 0.000163774391829849 0.000156354945009446 0.000163774391829849 0.000156354945009446 -0.707714429970552 0.700988193788316
28142.8 -0.706267861739742 0.702415467838066 0.00016651756096924 0.000158303965929444 0.00016651756096924 0.000158303965929444 -0.706267861739742 0.702415467838066
28144.9 -0.704810510518052 0.703847416571511 0.000169312951651733 0.000160279424617007 0.000169312951651733 0.000160279424617007 -0.704810510518052 0.703847416571511
28147.0 -0.703342267958695 0.705284049710282 0.000172161675722692 0.000162281682612534 0.000172161675722692 0.000162281682612534 -0.703342267958695 0.705284049710282
28149.1 -0.70186302433962 0.706725376723303 0.000175064871135311 0.000164311105510496 0.000175064871135311 0.000164311105510496 -0.70186302433962 0.706725376723303
28151.2 -0.700372668542391 0.708171406817525 0.00017802370261808 0.000166368062950309 0.00017802370261808 0.000166368062950309 -0.700372668542391 0.708171406817525
28153.3 -0.698871088030676 0.709622148928422 0.000181039362360624 0.000168452928603694 0.000181039362360624 0.000168452928603694 -0.698871088030676 0.709622148928422
28155.4 -0.697358168828361 0.711077611710179 0.000184113070718383 0.000170566080158266 0.000184113070718383 0.000170566080158266 -0.697358168828361 0.711077611710179
28157.5 -0.695833795497244 0.712537803525636 0.000187246076936769 0.000172707899297178 0.000187246076936769 0.000172707899297178 -0.695833795497244 0.712537803525636
28159.6 -0.694297851114364 0.714002732435891 0.000190439659895245 0.000174878771674517 0.000190439659895245 0.000174878771674517 -0.694297851114364 0.714002732435891
28161.7 -0.692750217248867 0.715472406189655 0.000193695128872061 0.000177079086886302 0.000193695128872061 0.000177079086886302 -0.692750217248867 0.715472406189655
28163.8 -0.691190773938493 0.716946832212258 0.000197013824330109 0.000179309238436724 0.000197013824330109 0.000179309238436724 -0.691190773938493 0.716946832212258
28165.9 -0.689619399665607 0.718426017594361 0.000200397118724618 0.000181569623699443 0.000200397118724618 0.000181569623699443 -0.689619399665607 0.718426017594361
28168.0 -0.688035971332812 0.71990996908032 0.000203846417333246 0.000183860643873579 0.000203846417333246 0.000183860643873579 -0.688035971332812 0.71990996908032
28170.1 -0.686440364238081 0.721398693056234 0.000207363159109323 0.000186182703934189 0.000207363159109323 0.000186182703934189 -0.686440364238081 0.721398693056234
28172.2 -0.684832452049469 0.722892195537634 0.000210948817558821 0.000188536212576827 0.000210948817558821 0.000188536212576827 -0.684832452049469 0.722892195537634
28174.3 -0.683212106779329 0.724390482156808 0.000214604901641823 0.000190921582155921 0.000214604901641823 0.000190921582155921 -0.683212106779329 0.724390482156808
28176.4 -0.681579198758072 0.725893558149766 0.000218332956699168 0.000193339228616586 0.000218332956699168 0.000193339228616586 -0.681579198758072 0.725893558149766
28178.5 -0.679933596607412 0.727401428342832 0.000222134565405066 0.00019578957141955 0.000222134565405066 0.00019578957141955 -0.679933596607412 0.727401428342832
28180.6 -0.678275167213144 0.728914097138825 0.000226011348746369 0.000198273033458757 0.000226011348746369 0.000198273033458757 -0.678275167213144 0.728914097138825
28182.7 -0.676603775697389 0.730431568502855 0.000229964967029366 0.000200790040971316 0.000229964967029366 0.000200790040971316 -0.676603775697389 0.730431568502855
28184.8 -0.674919285390346 0.731953845947685 0.000233997120914829 0.000203341023439304 0.000233997120914829 0.000203341023439304 -0.674919285390346 0.731953845947685
28186.9 -0.67322155780147 0.733480932518698 0.000238109552482277 0.000205926413483079 0.000238109552482277 0.000205926413483079 -0.67322155780147 0.733480932518698
28189.0 -0.671510452590166 0.735012830778373 0.000242304046324122 0.000208546646745525 0.000242304046324122 0.000208546646745525 -0.671510452590166 0.735012830778373
28191.1 -0.669785827535872 0.736549542790362 0.000246582430670817 0.000211202161766879 0.000246582430670817 0.000211202161766879 -0.669785827535872 0.736549542790362
28193.2 -0.668047538507633 0.738091070103046 0.000250946578547675 0.000213893399849497 0.000250946578547675 0.000213893399849497 -0.668047538507633 0.738091070103046
28195.3 -0.666295439433037 0.739637413732655 0.000255398408964562 0.000216620804912174 0.000255398408964562 0.000216620804912174 -0.666295439433037 0.739637413732655
28197.4 -0.664529382266626 0.741188574145847 0.000259939888139148 0.000219384823333308 0.000259939888139148 0.000219384823333308 -0.664529382266626 0.741188574145847
28199.5 -0.662749216957637 0.742744551241822 0.000264573030755027 0.000222185903782487 0.000264573030755027 0.000222185903782487 -0.662749216957637 0.742744551241822
28201.6 -0.660954791417197 0.74430534433385 0.000269299901255394 0.000225024497039709 0.000269299901255394 0.000225024497039709 -0.660954791417197 0.74430534433385
28203.7 -0.659145951484825 0.745870952130308 0.000274122615173695 0.000227901055801791 0.000274122615173695 0.000227901055801791 -0.659145951484825 0.745870952130308
28205.8 -0.657322540894339 0.747441372715113 0.000279043340502001 0.00023081603447509 0.000279043340502001 0.00023081603447509 -0.657322540894339 0.747441372715113
28207.9 -0.655484401239072 0.749016603527613 0.000284064299098539 0.000233769888954024 0.000284064299098539 0.000233769888954024 -0.655484401239072 0.749016603527613
28210.0 -0.653631371936448 0.750596641341838 0.000289187768135261 0.000236763076384479 0.000289187768135261 0.000236763076384479 -0.653631371936448 0.750596641341838
28212.1 -0.651763290191841 0.75218148224517 0.000294416081586877 0.000239796054911472 0.000294416081586877 0.000239796054911472 -0.651763290191841 0.75218148224517
28214.2 -0.649879990961764 0.753771121616357 0.0002997516317624 0.000242869283410138 0.0002997516317624 0.000242869283410138 -0.649879990961764 0.753771121616357
28216.3 -0.647981306916308 0.755365554102884 0.000305196870880622 0.000245983221199294 0.000305196870880622 0.000245983221199294 -0.647981306916308 0.755365554102884
28218.4 -0.646067068400882 0.756964773597652 0.000310754312690658 0.000249138327736578 0.000310754312690658 0.000249138327736578 -0.646067068400882 0.756964773597652
28220.5 -0.644137103397182 0.758568773214968 0.000316426534139052 0.000252335062294313 0.000316426534139052 0.000252335062294313 -0.644137103397182 0.758568773214968
28222.6 -0.642191237483405 0.760177545265819 0.000322216177084738 0.000255573883615062 0.000322216177084738 0.000255573883615062 -0.642191237483405 0.760177545265819
28224.7 -0.640229293793671 0.761791081232397 0.000328125950063305 0.000258855249545873 0.000328125950063305 0.000258855249545873 -0.640229293793671 0.761791081232397
28226.8 -0.638251092976672 0.763409371741843 0.000334158630101957 0.000262179616650061 0.000334158630101957 0.000262179616650061 -0.638251092976672 0.763409371741843
28228.9 -0.636256453153453 0.765032406539237 0.000340317064586887 0.000265547439795542 0.000340317064586887 0.000265547439795542 -0.636256453153453 0.765032406539237
28231.0 -0.634245189874427 0.766660174459722 0.000346604173184253 0.000268959171718309 0.000346604173184253 0.000268959171718309 -0.634245189874427 0.766660174459722
28233.1 -0.632217116075459 0.768292663399836 0.000353022949816789 0.000272415262560046 0.000353022949816789 0.000272415262560046 -0.632217116075459 0.768292663399836
28235.2 -0.630172042033147 0.769929860287922 0.000359576464697239 0.000275916159378338 0.000359576464697239 0.000275916159378338 -0.630172042033147 0.769929860287922
28237.3 -0.628109775319164 0.771571751053678 0.000366267866420689 0.000279462305628291 0.000366267866420689 0.000279462305628291 -0.628109775319164 0.771571751053678
28239.4 -0.626030120753698 0.773218320596766 0.000373100384117288 0.000283054140614014 0.000373100384117288 0.000283054140614014 -0.626030120753698 0.773218320596766
28241.5 -0.623932880357969 0.774869552754455 0.00038007732966723 0.000286692098908481 0.00038007732966723 0.000286692098908481 -0.623932880357969 0.774869552754455
